! Created with skrf 1.9.0 (http://scikit-rf.org).
# Hz S RI R 50.0 
!freq ReS11 ImS11 ReS21 ImS21 ReS12 ImS12 ReS22 ImS22
1000000.0 0.9803821340298151 -0.008700497884359634 -0.010993894925380845 -0.03696200948500616 -0.004225868083684573 0.01764167399478281 0.3942614441583081 0.2816230988008712
1999000.0 0.9961206019323412 -0.017055097555866178 0.009249472586882294 -0.01639097684209556 -0.005169666922589549 -0.0036605396160106643 0.2839432062787589 -0.05099867868237536
2998000.0 0.9974401434020758 -0.02344877086089422 0.012634600908101095 -0.0131489160425113 -0.0011186371269935077 -0.003927632243873109 0.2049483590621469 -0.15085754326096296
3997000.0 0.999539661926942 -0.030937738964321546 0.01340695185572799 -0.007870418171901147 -0.008480809307707837 -0.0006205738860644303 0.08549876196820892 -0.23020122869940018
4996000.0 0.9936905006206166 -0.03464910012378875 0.009560835007327953 0.0025128508833697836 0.003687719450652766 -0.004858968869068545 -0.07461604349660171 -0.18877373118875213
5995000.0 0.9950161298322242 -0.04901025648516974 0.007702954632775251 0.003317451394837052 -0.0005861279552260121 -0.0006929967552352419 -0.13834717827401088 -0.0842786539844405
6994000.0 0.991207003839756 -0.059934741331084736 0.006147277092733194 0.0027141039407616156 -0.0008040978333763429 0.00016287937109244743 -0.14235940323632956 -0.017884818640571207
7993000.0 0.9948730115214499 -0.06918670289911817 0.0034254446246881447 0.006952973413238044 0.004423712145805923 0.00019924170898221323 -0.1562119788922498 0.05045573116670993
8992000.0 0.9927963301333644 -0.07294218063290832 0.0034695522269665917 0.004227127494511038 0.004035271112875689 0.0007220799822152673 -0.1564018862332583 0.06694295538381118
9991000.0 0.9907229102659153 -0.08348598051484495 0.005052407207356123 0.0018766568959604458 -0.0032669068501244326 0.0032563895139725 -0.1417996700964148 0.09939672719233732
10990000.0 0.9914922069092597 -0.09240747374106563 -0.0018275254549614327 0.004542818361641594 -0.002499458735190365 -0.00014220964136295525 -0.12761099481813493 0.11988324529109955
11989000.0 0.9896451882811417 -0.10008582402110522 0.0036882636978142016 -0.003156979640967916 -0.004616138189778094 0.005163474473072586 -0.12120629710830534 0.1328969487659262
12988000.0 0.9886433131385144 -0.10796760054063112 0.000458136506550436 -0.002281010780376709 0.0012518985286488757 0.00023809288540983356 -0.11414149365086806 0.17651207459023546
13987000.0 0.9869066173888646 -0.11459296402514885 0.0005301937694041906 -0.0008770755235884627 -0.003242046384859 0.002891822459440187 -0.1074514921050633 0.19211896525173022
14986000.0 0.9858055269504802 -0.12503931880367133 -0.0013637198096587652 -0.0005206163929038936 -0.0024561594128202683 -0.00180840002521964 -0.08391007525609277 0.19633905014134825
15985000.0 0.9872106274828156 -0.1335411100859415 -0.0009723468469818869 -0.005071420879592265 -0.0015711320159913491 -0.0015117113789764759 -0.06800453508103416 0.2208326548757054
16984000.0 0.9843377728065325 -0.14408304206698008 0.0012844155828430736 -0.0036449782872124063 -0.000310115298645954 0.005533946886928509 -0.053890801526438326 0.2199143478514488
17983000.0 0.9852797419273351 -0.14808397833865694 -0.004429452011775607 -0.0027922101190771846 0.002063996987871803 0.0024353325602586855 -0.05029304461634382 0.2329637367833424
18982000.0 0.9807122319522025 -0.16309110204216928 -0.008614425654910161 -0.007021741486677336 -0.0016552946577412652 0.0029664041510645894 -0.026399566900037776 0.24523992185557889
19981000.0 0.9819583600626851 -0.1670396322822879 -0.003624459674122927 -0.005649813883408614 0.0011935739738701385 0.006192408373250253 -0.021230548158118444 0.2525273232942444
20980000.0 0.9790352418378965 -0.17744452735830282 -0.003955020625450822 -0.005173109965384323 0.00155150214203105 -0.0029209237249495346 0.008400114487906426 0.2611754345311788
21979000.0 0.9767393802186046 -0.18457201005346444 -0.004914051605892777 -0.005424703796994138 0.0001222510831455107 -0.001656438705286057 0.011013785408840824 0.24442327575167222
22978000.0 0.9762124681766998 -0.19224135438649922 -0.006192188119140775 0.0001606795406915067 0.0010080704462770654 0.003215395619879886 0.029979405261792665 0.2528131062497338
23977000.0 0.9758274483468288 -0.2005228820008262 -0.004926525261962324 -0.00512276431311719 -0.0003662315994712528 0.0003214391259534654 0.03443555224754229 0.2608874113605461
24976000.0 0.9703708117979416 -0.2122240122596964 -0.0025672373489078588 -0.0008644329349889145 -0.0008073284517336584 0.0029521571355091065 0.07623678929127699 0.2503218315338226
25975000.0 0.9717323927492749 -0.21541263104044972 -0.004198084527302595 0.002560290544962143 -0.014921088415091146 0.021025282519600844 0.07713004055825859 0.2658334644481041
26974000.0 0.9679189047245643 -0.22802725236865798 -0.003257733172617226 0.0012599826887815973 0.0002873218050660094 -0.003931023273033831 0.09007375581336007 0.26412091061829085
27973000.0 0.9691328451910136 -0.23463304153927436 -0.0015287749609595653 -0.0001814302500248517 -0.0009470929250169112 0.0007960043497543915 0.10379283030067603 0.25053513228322905
28972000.0 0.9643263912770598 -0.24775504453302846 -0.002508844573392425 0.0022809319788979635 -0.0007667347030733554 0.0008763983140604582 0.11500694890168013 0.26101274548252684
29971000.0 0.9631888537762964 -0.2527605653303226 0.0005173321216999416 -0.0029833799068937628 -0.0010113432154240023 -0.0017631893446580945 0.1560127693122232 0.2704363974755082
30970000.0 0.9620631027426709 -0.2601221239305592 0.0022848168800591647 0.0014393609642812692 0.0015745919974630652 0.0008984908085346641 0.17714613577159186 0.24816374347835896
31969000.0 0.9592691417712378 -0.26835978325835763 0.0054539209463675305 -0.004376230164853478 -0.001068872648856441 0.0003992240063568516 0.15461658624635913 0.25224795657749577
32968000.0 0.9575552853185594 -0.27699750057986516 0.007137363367689376 -0.007704264843063599 0.0008757678267078667 0.001613672812252651 0.1586265678974486 0.25083295520739723
33967000.0 0.9534037235543978 -0.28827254050569817 0.011208561542903 -0.009561396180007183 0.0008450010923315389 0.002060856285875972 0.18989101582023904 0.24789152240598653
34966000.0 0.9513045075678195 -0.29509261743077964 0.015075149809153832 -0.014640769835004208 -0.001340221737690537 -0.0022526055151361403 0.18931860855461533 0.25020339076628106
35965000.0 0.9484377065669825 -0.30572559465959426 0.016983315868925243 -0.014167483685761277 -0.001533300247783947 0.001545480035667134 0.21402441805583203 0.25788051881610297
36964000.0 0.9435445085429178 -0.31483448678711146 0.014536789141147104 -0.015443189249822322 0.0010838181308348246 -0.004769331551547838 0.21892344074494569 0.25051239805126263
37963000.0 0.94180339981305 -0.32313556667377286 0.023265185095164495 -0.021987115110849262 -0.002907523384410561 0.0005314418827508408 0.22866623457648105 0.23274347814839785
38962000.0 0.941119919300785 -0.33138776391907393 0.024499044010235484 -0.023950479949774388 0.003500212916837618 0.001775809996960005 0.23976515866337308 0.23167205968810206
39961000.0 0.9372786238003071 -0.34038051052902907 0.02361209408674204 -0.029379167028505786 0.0007705940206544341 0.0022888132396173427 0.25154140347321663 0.23402774037221405
40960000.0 0.9342652387780799 -0.34620051677017666 0.02384271415115974 -0.02470800507985392 -0.0003092448968997057 0.0013317388290868034 0.2666169299609436 0.22781626524065682
41959000.0 0.930426492661692 -0.35838604421107495 0.030806226701589494 -0.035329112471448744 0.0008064674245878705 0.0015988358372248878 0.27105227121230563 0.21391963930095506
42958000.0 0.9270085238248312 -0.3653423684246155 0.03290997711729172 -0.042897623717862696 -0.00021002619929379857 0.001393049937631527 0.2762675775640908 0.2009076026432775
43957000.0 0.9233069912334357 -0.3733296004771926 0.03536073624289313 -0.04619768120252946 0.0002898719148029357 0.0006918088181148601 0.28958705222820436 0.21212070082568377
44956000.0 0.920498168795883 -0.38172305741260376 0.03375554485443565 -0.05376587442607237 -0.002198472916328116 -0.0004991718643631151 0.30313781981016075 0.19844373449857897
45955000.0 0.9163677396705951 -0.3912128748354333 0.0366725899844348 -0.05925432829366588 -0.002231372396457294 -0.0010327444450029413 0.29487746405905213 0.19881071120566512
46954000.0 0.9111848610367055 -0.39970273843885523 0.04123691066802204 -0.06304460749062978 -0.000843218331904289 -0.0027712639988526078 0.32420891272471686 0.18388671701310272
47953000.0 0.911037029816197 -0.40625756871310315 0.03753305896740866 -0.07388497985950206 0.002053811735366259 -0.00131169000841351 0.33015162793993724 0.17752452063478227
48952000.0 0.9038411040333272 -0.4175674955307418 0.037568455365162776 -0.08126771329873735 -0.0003186754030055554 0.0009178992989392936 0.3321779844215648 0.17377139114257747
49951000.0 0.9002582105289254 -0.42384197174920857 0.03705325846373161 -0.08766006840625841 -0.00043368863774442915 -0.0010614502788898696 0.3563312128018807 0.1625969828998706
50950000.0 0.8966821924614597 -0.43301348376062104 0.03562490228566336 -0.09818030176454408 -0.000662483993748077 0.0014826135628061001 0.35766772893184345 0.15281860245970508
51949000.0 0.8927328509578882 -0.44010738976481734 0.037177895305888845 -0.10455320630121474 -0.00026935762866668145 0.0014567763047149903 0.358381033527108 0.1512018311266166
52948000.0 0.8918758233169776 -0.449095033541525 0.041428696878906705 -0.11079490969063363 -0.0006033348711386684 0.00016394395683917796 0.3725015432621473 0.14478670464969712
53947000.0 0.8856784599413805 -0.45867034196780637 0.04360732411186477 -0.12214855357376433 0.0003935698651643722 -0.001049370599917159 0.38031416672147117 0.14090232260311764
54946000.0 0.8811649949805836 -0.4637523595129927 0.0464330701139163 -0.13100236955370745 0.0010743857528819226 0.0008474475910334189 0.3854470105802243 0.12761931480292657
55945000.0 0.874739281993272 -0.47435553464031055 0.04400404890892946 -0.14310213881623346 -0.00024217579574469167 0.0009481246259619172 0.3863731358618716 0.10473192046302642
56944000.0 0.8713196620221348 -0.48380004827059775 0.04769820633042145 -0.15051459150577576 -0.001378734582428187 0.004080966062615147 0.39753281597174817 0.11319594380746242
57943000.0 0.8685278897788247 -0.49258525708890427 0.050178984456671585 -0.16386339681621126 0.0021444819282229314 0.00011758740938662968 0.3958310254138249 0.10192874165729658
58942000.0 0.860746839133696 -0.497537327590957 0.052856209633297284 -0.17407539961950666 -0.003450404142035647 -0.001563082394604728 0.416204234116986 0.09488586113374907
59941000.0 0.8596267920333975 -0.5044110565118193 0.053155574626979216 -0.18546390300388818 0.0008474299086952628 0.0005032010663877202 0.41054602368651544 0.09386341272551886
60940000.0 0.8508251724107592 -0.5131265522667893 0.050596339303602855 -0.1838814639241397 -0.0011297366615456825 -0.0007358375662872999 0.4122577944283713 0.08493808154187826
61939000.0 0.8488973210629307 -0.5209203255855733 0.05397040265721603 -0.196425004067756 4.419754735538393e-06 0.0006133552884039377 0.4181907150338957 0.07504404553459924
62938000.0 0.8425184074540417 -0.5308332084658094 0.05868878588087507 -0.21339184359042124 -0.0005137648875134857 -0.0012044286000897915 0.44226240091328384 0.07013542275468107
63937000.0 0.8386164267442265 -0.5369007906901845 0.05647181002345751 -0.23531542665434096 0.0019379573482468653 -0.00012182694720372132 0.4386133604309665 0.0409741280559464
64936000.0 0.8305687700253299 -0.5464946597173762 0.05627792592935676 -0.2460067777874826 0.00022668338742940107 -0.001322286528627034 0.4259764347415678 0.05364019796293471
65935000.0 0.8268169701265048 -0.5555284222349262 0.054050230135743164 -0.2613763981422829 -0.0011329729368978528 -0.0006713240392247651 0.4475824747511351 0.03413263060785081
66934000.0 0.8224706521325768 -0.5611126675317657 0.053775290846784105 -0.27455017424331346 0.0010329014495990697 -0.00013417535735052365 0.44640638723573783 0.012894504371106416
67933000.0 0.8199511480357188 -0.5671885437796735 0.057935011645733746 -0.28752211738580863 -0.0030678146715095397 0.003172084564173978 0.4542135886337402 0.004298238976538689
68932000.0 0.8141991840799254 -0.572764275105897 0.05057379398483242 -0.3022960418116316 -0.00046363584502971824 -0.00029526131519821405 0.4712892575539319 0.004726290894942922
69931000.0 0.8044634736610651 -0.5846541807377867 0.051237807907750975 -0.3154197662319982 -0.0038932662644077763 -0.0015446438898413812 0.45864714309674626 -0.01085963377618144
70930000.0 0.8002431423233404 -0.5909667643552097 0.05285683725123883 -0.33102651511206177 -0.0020558322049003546 0.0022614162507142615 0.45094510572671204 -0.020734242367748092
71929000.0 0.794689813121647 -0.5995576075580075 0.04393930101218643 -0.3523187774112536 -0.005274417853961807 0.001624575138646696 0.44674565904403496 -0.032083961813822975
72928000.0 0.7892563380640396 -0.6109409501905583 0.04110936062572695 -0.36815119172283545 0.00153087245828668 -0.0015983311297911012 0.45942087151610483 -0.03931961683921486
73927000.0 0.7831481924014919 -0.6163336336549189 0.03490047177411584 -0.38877431753781494 0.0033997157800959962 -0.001572028191975663 0.4613011922886539 -0.04784488430622859
74926000.0 0.7747713918255219 -0.623715550411198 0.02252178449409928 -0.4080627293959733 0.00025209079545304236 0.0006496348686030118 0.45587305414443813 -0.04919985671099225
75925000.0 0.7710805844637117 -0.629693473245595 0.019516835613992575 -0.4261012504236832 0.0030165978796803713 -0.0005679456276862145 0.46869534815160674 -0.06919030473299101
76924000.0 0.7628712409437833 -0.6380238482477689 0.0035427384165804213 -0.45052808218112406 0.003596418999876446 -0.002591664627035624 0.47137381260718914 -0.0693577307671073
77923000.0 0.758628380489189 -0.6439087934454307 -0.006616318596858336 -0.4740953638294566 0.0027100320624537126 -0.0001833912150618942 0.469696799850121 -0.08310105428666592
78922000.0 0.7518453006749333 -0.6543474241525056 -0.02484236993516761 -0.5030941896188469 0.0002791892611428201 0.0012143821052364558 0.4685256648726529 -0.10799914664310319
79921000.0 0.7421932185529388 -0.6569246187760278 -0.04196324587587307 -0.5238406843031296 0.0019953195295401576 -0.0015599978430868564 0.47052775321808243 -0.10213011515485182
80920000.0 0.7388064328768003 -0.6680668230685146 -0.05552060610740174 -0.555556588839037 0.0008993496108125925 -0.0008035686484030087 0.4789378779221659 -0.11677086696780363
81919000.0 0.7309834378206214 -0.6749750224504206 -0.07480612470353745 -0.5865429720223735 0.00217656339558424 0.0019074230810186823 0.47036804799441223 -0.12276191029356913
82918000.0 0.7233685427957928 -0.6812331709418524 -0.08523573225109282 -0.6106372921601005 0.0006751974599451895 -0.0011780693106488108 0.4738869188252895 -0.13596515679862048
83917000.0 0.7164915727188035 -0.6893835571530087 -0.10358899909321162 -0.643431487445918 -0.0035053786197458197 0.0013747050483390584 0.47961203416882925 -0.14189106314506836
84916000.0 0.7116733204225278 -0.6968725036502545 -0.12188503407692795 -0.678765923762431 0.0029167936501144245 -0.00040712768659006016 0.4735131374845701 -0.16517731476966988
85915000.0 0.7042273603611384 -0.702075461798647 -0.13744512979385629 -0.7078940792985557 0.002096716860384111 -0.0005005896913541029 0.46684558433591655 -0.15624492871788398
86914000.0 0.696694759363438 -0.7139622359148425 -0.15443511443161145 -0.7447101504179294 0.0008795246312947446 0.003001940070262204 0.46657617146385727 -0.15760253374273284
87913000.0 0.6880493692388636 -0.7186365361954552 -0.17385391867671537 -0.7735619251040927 0.0060097466109681405 -4.099412690800892e-05 0.467218155434831 -0.17581629686998335
88912000.0 0.6805925174998688 -0.72514165029199 -0.19156482362893743 -0.8065885764328764 -0.0021528782266779685 -4.562887783672533e-06 0.476093820390849 -0.1963337946524897
89911000.0 0.6732808060710959 -0.7361526791048549 -0.20614579496336688 -0.8425029260506587 0.0014103520094280893 0.00267997819006091 0.46747243472504946 -0.1950267599490756
90910000.0 0.6661379858323038 -0.7394265007107071 -0.22089022723229837 -0.8763045068532191 0.0003315141079313786 0.0002869758273643658 0.4789779550753239 -0.20295009392671132
91909000.0 0.6575380355897076 -0.7451973887352453 -0.24329485222393749 -0.9076416068175437 0.0003984531828133926 -0.0006350364969723214 0.46417316463744224 -0.2170724348240972
92908000.0 0.6497349003038528 -0.7524500063633082 -0.2593845341640572 -0.9419065156911779 0.0010543831531103366 0.000299791182593993 0.4660110097590321 -0.22087604968481142
93907000.0 0.6428168469762401 -0.7579938095087091 -0.2740743148787013 -0.9718865912156472 -0.0015794911641648973 -0.00026540891667812795 0.47444389840428347 -0.2386151368039042
94906000.0 0.6297413011489016 -0.7668368024373168 -0.2989343050941529 -1.006290493361572 0.0019215750474253044 -0.00019547692286671375 0.4648149814268033 -0.2507914990070449
95905000.0 0.625110221999888 -0.772031331123453 -0.3197702621161287 -1.0457623295195626 -0.0013960743471168287 0.002873305413756484 0.4620324341622507 -0.26022316324283173
96904000.0 0.6150144710890179 -0.7837418091132408 -0.3389301851313319 -1.0824138623848278 0.001563565903208477 -0.0005559478505695108 0.4647950546237847 -0.26070536838023306
97903000.0 0.6051931637362032 -0.786103291217487 -0.35949647468558127 -1.1119623117253745 -0.004292855860015764 -0.0008642392846569203 0.46184485114372925 -0.27349398468892605
98902000.0 0.6022661612925588 -0.7950878200016183 -0.38063499468870937 -1.1514346410054397 -0.0005967066095451918 0.0018561599758859907 0.46180643223994666 -0.27900381961330123
99901000.0 0.5925239710848519 -0.7999641259080545 -0.41045853235547874 -1.1850192592635724 0.0018167040997969831 -0.000998110969472249 0.4686526103957675 -0.30412988265251567
100900000.0 0.5824005077238783 -0.8032548865304019 -0.4397500539744492 -1.2128220483011798 0.00048811610653838426 0.0015673182975907635 0.47241000347972806 -0.29858548614137853
101899000.0 0.5731600562875928 -0.8109933342373435 -0.46921944974560265 -1.253870944325784 -0.0028938981577699063 0.0023388994781640238 0.45708990427959123 -0.3047511999167093
102898000.0 0.5626346314441487 -0.8186042090074463 -0.509034258614268 -1.2929514258014578 -0.0016458578256746547 0.00010434627827813395 0.46242324756596465 -0.3204610424599948
103897000.0 0.5555715592276913 -0.8253462515685838 -0.5468791164363284 -1.3280525881209753 -0.0036027073899138557 0.0017059893926868635 0.457018478066013 -0.3142001549255271
104896000.0 0.5449304785478057 -0.8337555281223985 -0.59276130951036 -1.35769435505071 -0.0014693354805495912 0.0008040219323588761 0.45166439081203275 -0.31621944269193086
105895000.0 0.5373563299460453 -0.8370819622455836 -0.6342387383614684 -1.4002421581935935 5.9554728896417446e-05 -0.0011467739129045814 0.44256031275501445 -0.3487663772902769
106894000.0 0.5291777896810936 -0.8434717518976153 -0.6924319400795492 -1.439604154405881 -0.0011780671712379599 -7.555046646872105e-05 0.44161274339462325 -0.3491737645721319
107893000.0 0.520777343413448 -0.8480169905186049 -0.747068320562404 -1.4761312179938708 0.0005148233324253563 -0.0029497155804121943 0.4353304929820228 -0.37107187628548327
108892000.0 0.5089015142835092 -0.8543483347733238 -0.8035001066091868 -1.5136654229132096 -3.806125293272886e-05 -0.0003391790018113604 0.4291138761968853 -0.3612338173431222
109891000.0 0.4959609550073704 -0.8594303177664708 -0.8625473224976842 -1.552438140169223 -0.000397972286075477 -0.002211275853492698 0.45277190787511756 -0.3568525211388117
110890000.0 0.4945585926846409 -0.8695230960542609 -0.9255729787334098 -1.5752228732590707 0.0010644563859129234 0.001463960372342502 0.4384586806824838 -0.3736051837678055
111889000.0 0.47553212189588745 -0.8678824337951511 -0.9870667111346687 -1.6227258911688658 0.00040695859767358073 0.0009684894415188804 0.43294134702040965 -0.39292045505439555
