! Created with skrf 1.9.0 (http://scikit-rf.org).
# Hz S RI R 50.0 
!freq ReS11 ImS11 ReS21 ImS21 ReS12 ImS12 ReS22 ImS22
1000000.0 0.7605717685123176 -0.6023728701950692 0.005787518241129111 -0.05256315887038181 0.016706851917008672 -0.008153144475111652 0.4381676030388619 -0.41655481735922634
1999000.0 0.3377619888720902 -0.9104797602852961 0.013191459325733429 -0.011105473535942559 0.0036418530679937643 0.004683929516052137 0.1834108299083444 -0.3197712602350818
2998000.0 -0.05664509748572298 -0.9582678938313873 0.006522238656336861 -0.009580681557419864 -0.0024426615519628683 0.000259721773177284 0.11255527074337886 -0.33880600837187747
3997000.0 -0.32524180623805915 -0.9028094149636483 0.006820517480690002 -0.005118617857977104 -0.0009582550820492109 0.004159977340511708 -0.15583551098292125 -0.40159725367672994
4996000.0 -0.5056720119263195 -0.8196100004998647 0.004958136281170609 -0.0007872784148448908 0.0003042162567491603 0.003111403572969204 -0.20715673170226614 -0.10724072720023545
5995000.0 -0.6236743318675245 -0.7263237162468239 0.0066634308748201275 -5.491803607086651e-05 -0.0004507216214719786 0.0033167231543856164 -0.142700650174392 -0.0022397780428857306
6994000.0 -0.7127518227158207 -0.6489179551594141 0.004485316852138366 0.0006965288621439704 0.0022620020577111964 -0.0016215839386569892 -0.10922182642620025 0.03873167695072063
7993000.0 -0.7719087630329287 -0.5735837712792909 0.005279880738078247 -0.0020847509933251763 -1.917264569553564e-06 0.0007237824335971224 -0.0884695964469356 0.08292137653926375
8992000.0 -0.8185059211375658 -0.5142920773721339 0.0024254822618081017 0.006911870198958764 0.003363436614258922 0.0014250056620106748 -0.06018763822778704 0.12263786470487419
9991000.0 -0.8497778575622191 -0.45803592896732964 0.003407823060634644 0.0008674142262101357 -0.0009093718064897813 0.0004732078051570068 -0.05379655806903728 0.13311309918232953
10990000.0 -0.8770236576696199 -0.4067800531242916 0.0060331119343300455 0.0022697298758760642 0.002464571459427813 -0.005903428424896321 -0.03616758910905037 0.14883946897341746
11989000.0 -0.896676353732162 -0.3681541106148273 0.0038363961125562904 0.00228954604368704 0.0008411281317068617 0.0022826130865846103 -0.028400496793420233 0.15892225682655944
12988000.0 -0.9096911004376849 -0.3322669032652423 0.00012855912559147587 0.0008888618649155531 -0.0010136906383099648 -0.0007729688110310375 -0.009719367443493356 0.19288874124768393
13987000.0 -0.9198331424151679 -0.29063675886686724 0.0014903897369444022 0.0020948881024319167 0.0004241618696327973 0.0014182493080451724 0.0031631133059606695 0.2094245911389495
14986000.0 -0.9326084968326915 -0.26252398662306586 0.003654357582403804 5.417856320408596e-05 -0.0004027552252120864 0.0018231064249114373 0.004167928715185223 0.22180567834637152
15985000.0 -0.9403262503898137 -0.2313263404215639 -0.001247569653024537 8.77131788971098e-05 0.002648110744938881 0.00013468983997041195 0.018742475163640904 0.22902974140130863
16984000.0 -0.9475556810265362 -0.20663988496497288 0.0007072936769679078 0.0011059289151976349 -0.0003068261405523899 0.0013111577940441513 0.026071429367274874 0.2438191864081808
17983000.0 -0.9548043407376243 -0.17932325823938855 0.0007255220303832269 0.0009627996957740484 -0.0008196937855449829 0.0003516262162992622 0.023136149059673265 0.2468033161100932
18982000.0 -0.9574806356303929 -0.15825921762987114 -0.00034356353511439964 -0.0039726203591377435 0.001881154510897495 -0.0016749506837307202 0.056752205328240456 0.26169400590894554
19981000.0 -0.9593125841648472 -0.13607171386060674 -0.002302907070207503 0.0010683148326164414 -0.0019582330638746423 0.0032155895863353163 0.05921852190587424 0.26622273022131954
20980000.0 -0.9635846905239985 -0.11342383775476789 0.0009450270880464287 0.0015154523323201187 0.00016752686882040628 -0.0028429900553155704 0.06347844337251185 0.2908229686716694
21979000.0 -0.9672263196482735 -0.09332545217621942 -0.0008567366515949085 -0.001277007914957047 -0.0006065055448001655 -0.0010037645512786623 0.09562854947045657 0.269304396657716
22978000.0 -0.9696819710876095 -0.07551409089076457 -0.0016581920341678582 -0.002073637388147277 0.000780034214222204 -0.000617169704200351 0.09551038655460653 0.29147227148768307
23977000.0 -0.966993246192935 -0.05909320901372467 0.0036874307053054597 0.0015382057442587052 0.0007791700914128858 0.0005360626072462387 0.09088537758599287 0.2906549764429667
24976000.0 -0.9689725880688951 -0.039175792359023826 0.004144737837214018 -0.0002702110341760066 0.0011995175537459326 0.0018257357208137691 0.12508054868612584 0.29044603396393226
25975000.0 -0.9681694335280426 -0.02583024234495739 0.0035187162836289435 0.00153334418684277 -0.011747348201410652 -0.02415274184362541 0.1403515393977387 0.29630472348864945
26974000.0 -0.9729565962990888 -0.007811621563535986 0.0003805210585924661 0.0010775342562984573 0.0059960402533596295 0.0008785781344536088 0.14446672021182896 0.3219811645674901
27973000.0 -0.9717924768768738 0.0017700637278214874 0.0018714912850289719 0.0011557830179409144 -0.0008557918751075015 0.005073100062975694 0.15916982750055986 0.29991468373262753
28972000.0 -0.9736620384779784 0.02292445189743076 0.0006646956446645343 -0.0006612580757321602 0.0028562757378152717 -0.0023486566273441985 0.17114006053715203 0.3048661344858427
29971000.0 -0.9740491776741006 0.03211054467022349 0.0016191144623398878 -0.0003545538803874752 -0.0007915171588917703 0.0006381308177614524 0.20431965325447182 0.3184359885800793
30970000.0 -0.9738686371435952 0.048386575120755004 -0.0034082965566276874 -0.0016820210359504571 -0.0008791113146554319 0.0018562490100061462 0.21307307263054187 0.3016329828330779
31969000.0 -0.9709275859176166 0.057730344397718514 -0.001431201457342884 -0.00010335738452381996 0.001738199091519238 -0.001860356117371536 0.2016277196394722 0.30438885736995436
32968000.0 -0.9678947268073026 0.07528603817187483 -0.0005026176998882204 -0.0021576586439397854 -6.0109968126773794e-06 -0.0014269330899311144 0.21623731987129793 0.30038785335608686
33967000.0 -0.9677383554549899 0.08527165933809294 -0.0009211760790071833 -0.001540476186018126 0.0014828868266111902 0.00215468459008807 0.23429973857438965 0.3058927167684328
34966000.0 -0.966974408072095 0.09686794385461785 0.00013184439984028848 0.0016633873139334549 -0.003120885533217787 -5.7893012562986665e-05 0.24044134167267725 0.31273780307894156
35965000.0 -0.9657761860296196 0.11246139912023999 0.0014454154685849443 -0.0006552992162450415 -0.003141205929030183 0.0011937171962930026 0.2502336724763554 0.3189118268346222
36964000.0 -0.9619209037770179 0.119360205268778 0.0025126864465821754 -0.0007593947321961347 0.0055404682725610456 -0.002504429266867888 0.2471024954836449 0.31641252937226627
37963000.0 -0.9633758566364259 0.13488875423856742 6.482121759689734e-05 -0.0019389991116073554 -0.0013530561947444563 0.0006412910561396065 0.2649398519050046 0.3090048629157059
38962000.0 -0.9618310154268078 0.14164357802963 0.0015322659293565328 0.0011159972233984999 0.0022483790229634974 0.0005837432952648856 0.27844945183680925 0.3131720722235309
39961000.0 -0.9601617752150701 0.15461038005530328 -4.3922500535651884e-05 -0.0021340447656803493 0.002345972521991406 0.001762184933274962 0.28091653582618853 0.30978807295861754
40960000.0 -0.9588673142064188 0.16087074050792796 -0.002331017037489303 0.00012093402192350192 0.0031645530393108147 -0.0004926804906201244 0.2980578843559131 0.3083552124405831
41959000.0 -0.955303533500476 0.17764169156339615 0.0035280308035846044 0.0009708677678444029 -0.007757699720406057 0.0008640326082456562 0.29980874939471963 0.3068288371492715
42958000.0 -0.9551932443007157 0.18660521237166264 0.0029233127143118505 -0.0013961943998035092 0.0008037438066056472 -0.0021599895263329553 0.3145965188935476 0.2935370499103337
43957000.0 -0.9527478998243555 0.19820196548288743 -0.0009224694344730879 0.0022569367510658998 -0.00142513622881888 -0.0002215204128469896 0.3133872480712271 0.30243841106470454
44956000.0 -0.9508577659842194 0.20782907189683375 0.0005335000502756706 -8.208836541104321e-05 -0.001995803618405725 -0.002778990701758215 0.3295929394094554 0.294349014152307
45955000.0 -0.9488480429949551 0.2165001506018967 -0.0006305275319770714 0.0028874349932782734 0.0013555685161174649 0.0013290143038775372 0.3317172473156675 0.3002311826465004
46954000.0 -0.9461642864114385 0.2250763074349087 -5.088383866560769e-05 0.001882857556988051 0.0005714757201564367 0.0033809127047748043 0.3491379238921614 0.2843397724084186
47953000.0 -0.943227285166082 0.23499527748280946 -0.0008946307369858504 -0.0013634178013217939 0.0011267375176080817 -0.0037583902969893085 0.3550783631367099 0.2843356719955391
48952000.0 -0.9392883741525427 0.2463431748331436 0.0005769876252575192 0.0006962288856121156 0.0006468576625156466 -0.0006912539231583381 0.36235796680853477 0.28459296967842473
49951000.0 -0.9396521967739546 0.25247890586716604 -0.0024950299083060495 -0.0020933289578225177 -0.0015663621394127257 -1.110006198173912e-05 0.36910466859933366 0.26929721497664266
50950000.0 -0.9346191951726434 0.2644214733485924 -0.0004047344641516584 0.0024310144339301796 0.000457194834773365 -0.003263432435438576 0.3750010182513331 0.27497952704058404
51949000.0 -0.9322054875894152 0.2722327042516757 0.00010461819794435669 -0.0023049204426434365 -0.001933653886192229 -0.0026595800768944126 0.385828236194841 0.28168583983718093
52948000.0 -0.9257375900669625 0.28718405566293626 -0.001911046372889964 -0.000697091724490481 0.003072560111322239 0.000736556856468983 0.3879958544353178 0.2799906055245563
53947000.0 -0.9288275303867711 0.2924581862431137 -0.0008889546845141157 -0.002713778027286021 0.00023377945465265397 -0.0009879412531053188 0.38655225441744523 0.2700847971152593
54946000.0 -0.9263131614134331 0.2980945150673709 -0.00134541676146433 -0.0006169670417873503 -0.000881469448518983 0.0008474608484246575 0.3972288030059168 0.28151055712261763
55945000.0 -0.9239399599649174 0.30899507400770493 -0.00034261926539871045 0.0027475120354898625 -0.002205627409955369 -0.0002365010599184931 0.40340008567775665 0.2533572849972517
56944000.0 -0.9192272221992203 0.32097159948647397 0.0006396002316614482 0.00119866060249748 -0.0005947616420742628 -0.0018774833053793385 0.4188628199164479 0.2669728541212408
57943000.0 -0.9140152897733552 0.3242344164544063 0.0018532063375323695 -0.0018991378500334988 0.0006706326279350996 -0.0024211492824881458 0.4202258269896483 0.2585105211105849
58942000.0 -0.9140800218497404 0.33506818138280164 -7.435586430646615e-05 -0.0007187106069818633 0.003124288268686212 0.0014013413081222271 0.4397888303469042 0.25606178322252987
59941000.0 -0.9084505277494115 0.3448274658678101 0.0014448288783338317 0.0014259750945695376 0.0015988718473441863 0.0003290178627585274 0.43936372260509804 0.26050543470068044
60940000.0 -0.9076908693348505 0.3548469436350597 0.0015925300780373778 -0.0012985053018937827 -0.0006559121164189551 -0.0019588824081477703 0.45870800660555633 0.2515016362590051
61939000.0 -0.9031564517378728 0.3627040914978151 1.0681142129691315e-05 0.00011457819199313339 0.0016800265801263257 -0.00039020365597729016 0.4627063652443227 0.23766518271801504
62938000.0 -0.8978460810015696 0.371075305802101 -0.000928993858888082 -0.0015601705639603095 0.002866612918649481 0.002758434625404761 0.4732135355854524 0.23931285925899543
63937000.0 -0.8948142954147651 0.37918610486590554 -0.00033105923751928216 0.004515971611852284 0.00019067332755412383 -0.0014895344059539 0.44733691726041763 0.23637102712884728
64936000.0 -0.8967774604157263 0.38540186738042753 0.0004022385780498083 -0.00011317382818685732 5.727092990908481e-05 -0.001450684749941554 0.44922016303036555 0.2496216119068455
65935000.0 -0.8910307718618038 0.39366353664691645 -0.0020101580386430473 -0.0019624109043415803 0.00018013304937434906 0.00405314811246605 0.46536896706949044 0.22924106305083203
66934000.0 -0.8865375808424849 0.40350918464262286 0.0008331641187459633 0.0035114662942472142 -0.0032179500045680922 -0.0011674730012108275 0.4565256579923957 0.22844187763982804
67933000.0 -0.8828634824207249 0.4105175953755825 0.0013517065078022133 -0.0033601930248819255 0.0013721672828615483 0.002203863127951542 0.4699742586475115 0.23539197047843824
68932000.0 -0.8782011248422528 0.420697790442025 -0.0023066585729282964 0.00016743371266383298 0.0023751516996636667 0.000993903314253854 0.4795037255379548 0.23045645952374985
69931000.0 -0.8768708257685567 0.4239404346048742 0.0006723248317232142 0.000354172396278072 0.0023828438510405158 0.00017368715643551155 0.4731217132001741 0.21215039775247235
70930000.0 -0.8694400010605486 0.4362953048347338 0.00239457174781416 -0.002117591943663897 -0.0017133892684751697 0.001073887573479702 0.4803829875015562 0.20300669982067
71929000.0 -0.866349501308329 0.4435148192335962 -0.0031254991262710014 0.0008328315756977557 -0.001042567521082073 -0.0026103696441854324 0.4855009184543734 0.2106464822207099
72928000.0 -0.8633863587907682 0.4486507631276456 -0.0007197450161743657 0.00019745723332448991 -0.005309907149261343 0.0011478263576095845 0.4939173651342889 0.2060861983607867
73927000.0 -0.8589895689870697 0.4556155687818495 0.0020522049293097084 -0.0005914764095320569 -0.005001356931930534 7.325127118620711e-05 0.49769497579338184 0.20221134096539953
74926000.0 -0.8532455229385326 0.4647193171639738 -4.8209162016430095e-06 -0.0008547261111554841 0.0001769536490693155 -0.0015129177015202986 0.5095499808274709 0.20056885370297148
75925000.0 -0.8525316977041157 0.47044077292974756 0.0006807013627341843 -0.00016649810816289886 0.0016203123417701218 -0.0009278156006488703 0.5026395496762337 0.19785437132970565
76924000.0 -0.8471277119879926 0.4775918564538013 0.0011835869264236278 -0.002081113245500847 0.0035883854271020264 3.4199397097151076e-05 0.5081721674643058 0.19174542009818535
77923000.0 -0.8435749626764238 0.4853457589260155 -0.0008306664371581366 -0.0015461204094697825 -0.003654087290448319 -0.002513957000225753 0.49871863185328247 0.1805745844032046
78922000.0 -0.8375240705241322 0.491123437556882 0.0013049169048325528 0.003517894272030106 0.002542023985734372 -0.0011773396767505695 0.5051010792016941 0.17692483022256666
79921000.0 -0.8348989952181649 0.5007080724820588 -0.0007795312807033772 0.0022059317808828436 0.001562065682586549 -3.7574097852355237e-05 0.504433988547771 0.18511961260435686
80920000.0 -0.8302872929730887 0.5029882406810525 0.0013896164347667946 -0.0001533243534146588 0.0027567404228521163 -0.004680332097523971 0.5121885024264665 0.17639953830759728
81919000.0 -0.8266131810729946 0.5142744474552324 0.002528398646045436 0.002053797392313956 -0.0032055857146288877 -0.003206607627410501 0.5136647116570929 0.1699766842429737
82918000.0 -0.8223022666745756 0.5202293131983771 -0.0007073164995160344 -0.0029488312666913277 -0.0006322325223120334 0.00038085940470987997 0.5206132339399824 0.165854963340122
83917000.0 -0.8172807923536412 0.5274446479146454 0.001437012562520719 0.0013535017338953197 -0.0018158391926486172 -6.458117766638738e-05 0.5274288205704948 0.16619784506610433
84916000.0 -0.8120184371574999 0.5349439805870251 -0.0011567489799317093 7.857260425231423e-06 -9.320801683430807e-06 0.0024508233315912384 0.5215774083318118 0.15578486335607325
85915000.0 -0.8079243585795561 0.5400858001010698 -0.00015003460244559014 0.0004381383447428377 0.0005001387251738287 -0.003006220041480247 0.5307478662644741 0.15899278716252468
86914000.0 -0.8019861178559368 0.5457425695209815 -2.061614735383438e-05 0.0015001599736234447 0.0035047604281732508 0.001552883632701064 0.5293132343540086 0.15221396917069893
87913000.0 -0.7969913090324293 0.5541957892223421 -0.000965109251616737 0.0008123187759185318 0.00043037737012830335 0.00221964597973313 0.5221784626513405 0.14699717290846973
88912000.0 -0.7913383207273155 0.5626548686294932 -0.000451247566567395 -0.00024508446838591053 -0.0008220621941948989 -0.0014444598414007459 0.5276536731266482 0.12984379965037296
89911000.0 -0.7850179239575826 0.5653332221489614 0.0019486924849413546 0.00018453323688996643 -0.0011364595755200223 0.0012099794780527687 0.545402138599195 0.1378512915863852
90910000.0 -0.7816674914612028 0.573059330046855 0.0015614858729427101 -0.0036654134240355946 -0.003576776581646594 0.003185246736923924 0.5516712424695077 0.13198866066336812
91909000.0 -0.7774180980316826 0.5809845746444574 0.00011321391024774362 0.0012336203123823864 -0.0011433678127905718 0.0015161920387848317 0.5415936052855853 0.13063524455414655
92908000.0 -0.7715856360111121 0.58695667982086 0.003562319156934946 0.002003950137262476 0.00025935601743761 0.0009390376604161848 0.5404804836400522 0.12318767706562707
93907000.0 -0.7652123800528664 0.5953930974942752 -0.0008370299047709955 0.001692064643311259 -0.0006427766253006516 -0.00389382042062588 0.5496189826735469 0.11805753593051689
94906000.0 -0.7622153861366752 0.5986602008656656 0.0020950874841056755 0.003343473068583587 0.0017647721932352394 0.0015738517892367385 0.5640490729572822 0.1218905799560834
95905000.0 -0.7567005798805746 0.606971780040392 0.000947019535487716 -1.073421509149935e-05 -0.0024698046391566143 -0.0016930037300905362 0.5509885260732145 0.10440598527587709
96904000.0 -0.7554376599607382 0.6109025912877143 -0.0011810392689337698 0.0009286794537063831 0.0007074470698621918 0.00010441342670216783 0.5517276802804391 0.10050180833599766
97903000.0 -0.7465144799597219 0.6179931459122068 -0.0017341267523780278 -0.00045850049194284874 0.000987298014113911 -0.00010310965146254543 0.5561401583957435 0.10351769171942263
98902000.0 -0.7416890680549914 0.6221498540003996 0.0008643869267857257 -0.0005563429679720311 0.0021475022672288488 -0.0009576940266843867 0.5602422835568186 0.08332837035968801
99901000.0 -0.7381061208825132 0.6278126193680477 -0.0013194729827068125 0.0007456258289992294 0.0033161804899447746 0.00028298233026604073 0.5664067861449863 0.08001884509506325
100900000.0 -0.7320657598217704 0.6367590303219688 -0.0009241966753518592 -0.0007763473651514317 -0.003823237733261707 -0.0016126457155754583 0.585477078440363 0.08203441387385625
101899000.0 -0.727611270054367 0.6420641958051165 0.00045416988232701845 0.003054285817089007 -0.00120855151953167 0.0015744591837954045 0.5601000164615116 0.08353158015088828
102898000.0 -0.7220793267114005 0.6471166294857601 0.0002470401907442178 -0.0037646350649194076 0.0004535560155337174 0.0015876314085335357 0.5732369031610938 0.060892379332465454
103897000.0 -0.7167737618047739 0.6543201237423723 0.0014925604240075487 0.0006890405611880966 0.00041791959594360907 0.0007897636303979378 0.5887455845080324 0.06422353844647016
104896000.0 -0.7104745487203975 0.6561755887120059 -0.00029284938530753845 -0.001000484877709302 -0.0024583335630664668 0.0006889539452401231 0.5815190608671179 0.07812658342961885
105895000.0 -0.7069390973733884 0.662910261502942 0.0017909876352149969 0.0024044600520297683 -0.004768413591044246 -0.0029036296801666236 0.5774834359358338 0.07692231616373547
106894000.0 -0.7005052479565169 0.6690106003296052 -0.0011262540276531473 -0.0007134350469349424 0.0002433700051122521 -0.003330461767297104 0.5756031801430335 0.06024217162117835
107893000.0 -0.6906691381735849 0.675353829331379 -2.9145191175740463e-05 0.0010749716121743727 -0.0004502082956472427 -0.0006037912219719702 0.5873388462439796 0.05705036436978531
108892000.0 -0.687812931088939 0.6779230399564854 -0.0007743991736837997 -0.0014034807235020535 -0.002137716714064104 9.185513600757417e-05 0.5910372753304125 0.06175492599805018
109891000.0 -0.6821614882936102 0.686015718026232 -0.002551472815552496 0.001337370723470728 0.0017796348969482945 0.00041160172777192486 0.5986997448495976 0.05057461621749673
110890000.0 -0.682003783074318 0.6911942608227579 -0.0002732186119207867 -0.0005200599971513657 0.0017411598074779599 -0.004933743161588705 0.6016637556943889 0.056088796261209134
