! Created with skrf 1.9.0 (http://scikit-rf.org).
# Hz S RI R 50.0 
!freq ReS11 ImS11 ReS21 ImS21 ReS12 ImS12 ReS22 ImS22
1000000.0 0.9910908373310154 0.009997978057633644 -0.016278654152929246 -0.042220383734273656 -0.005665490945272585 0.009133186023783506 0.38067873137058045 0.3523949074292724
1999000.0 0.9981318870729488 -0.011993755765165584 0.004405131622360785 -0.03037524869510169 -0.006666263671678292 -0.001403451423941082 0.24884244518817364 -0.07628906965523168
2998000.0 0.9998080210429082 -0.019077813204707104 0.009720292152749442 -0.013347872853409926 -0.0013538402920918327 -0.00151905291175413 0.1861545159771947 -0.1516469753384365
3997000.0 0.9967088878166069 -0.032901271963137815 0.009877117851784514 -0.00431805480966368 -0.00025021976388981835 -0.0008311934670243285 0.09134549963608335 -0.23469437109509955
4996000.0 0.9966355397552784 -0.03980006657462739 0.013244497954444906 -0.0038811231321879895 -0.0011837639607014119 0.0006396967077400871 -0.06813155232173006 -0.21050126342279127
5995000.0 0.9995674773511707 -0.04508928883256961 0.008331208720050283 -0.00580929548810853 -0.004164099530424592 0.0017991713128320188 -0.1296989920361542 -0.10562225518235069
6994000.0 0.9942936484850784 -0.05886907357204901 0.00841095051122374 0.003815040646997762 0.0006002481149767939 -0.0005663106978389209 -0.1588259258430256 -0.020529593239899734
7993000.0 0.998256097657697 -0.06588693839932534 0.0033792819427556774 0.0064775559670809035 0.004202606646291103 0.0034206928692225276 -0.15679254898651604 0.039659054975641685
8992000.0 0.9960775687029668 -0.07322836973111288 7.708217585797555e-05 0.0027776311694983915 -0.0016341449810277253 -0.0015524625791889144 -0.1575390090414421 0.061684323148109635
9991000.0 0.9950517729395231 -0.08262392289259712 0.0011338371934423409 0.0033308191278523056 -0.005594465303688672 -0.00021832543152049775 -0.13897209420094347 0.09167170191664434
10990000.0 0.9948769176167672 -0.09054588895803141 0.0074251224938540515 0.004556122625858809 0.0039986739957457735 0.0019296017092256458 -0.1307764332856266 0.12115755724712371
11989000.0 0.9911037541966381 -0.09863123429385925 0.0005448397684381201 -0.0025813860371134527 0.00044208578579806496 0.006374513368748339 -0.12488796102258483 0.1530034220944791
12988000.0 0.9913131572922772 -0.1097785204728909 0.0031964720299586464 0.001582503363595809 -0.003240010328526881 -0.0004513619065009046 -0.10771430630517699 0.171615078260025
13987000.0 0.9883265062038576 -0.11911972572112585 0.0006417037461880686 -0.00354847834927215 0.004817714564642309 -0.003910168857688036 -0.09807134928599828 0.19328566122895335
14986000.0 0.9887893112649019 -0.12295078753827085 -0.0008734847587591083 -0.004881497620220207 -0.0013468206260676188 0.0014220654006053405 -0.08436020974551671 0.20576042750658452
15985000.0 0.9881341023036462 -0.13587032063540302 -0.002294540994013261 -0.0026475955275103175 -0.0020784439985524887 0.0008930778336836839 -0.06186254961704769 0.22306680191271921
16984000.0 0.9860817145760515 -0.14293699193614828 -0.00023500107823523902 -0.008865722801700506 -0.0006175325791561337 0.0005899305834238241 -0.060663750844132114 0.22149089507779107
17983000.0 0.9880893420480225 -0.1494061405870121 -0.005733277446011374 -0.002291230153314438 0.0027314335226404913 -0.0015048385958287213 -0.0475619144477703 0.23003419805166575
18982000.0 0.9838624422087817 -0.1587494124082723 -0.005022171930136608 -0.0042668759625571415 -0.00010692055879877659 0.0017788218329925479 -0.022823739629967914 0.22487146512455386
19981000.0 0.9830837748951926 -0.1654051466515419 -0.007385321598740507 -0.0034623797221242157 0.0006369117245744816 -0.001721126861915925 -0.016954754655068748 0.2403706870144453
20980000.0 0.9817359064698934 -0.17619137189924094 -0.0036346383441075623 -0.005566419925350857 0.0015446968937251925 0.0009521574501188034 -0.002537124238867263 0.2639487064318788
21979000.0 0.9781788766492097 -0.1859735736476836 -0.0038883361653348396 -0.004383592898336838 0.0028743409669611387 -0.0056031203228423445 0.01783637856726689 0.24451153427397887
22978000.0 0.9765708850221321 -0.194959965767564 -0.005666407709363703 -0.0010789925954628168 0.00015278633912107304 -0.002194940836081688 0.022727595023414503 0.2632113268911725
23977000.0 0.9789470075792931 -0.19990127985970294 -0.00871570533860397 -0.003227805550700084 -0.0004475588537588232 0.001650494400900254 0.032929810370575345 0.2673403949391262
24976000.0 0.9741002187685699 -0.21153716623804938 -0.007377221899044284 0.0013843218757071823 -0.0028070215399277013 -0.004786566646906936 0.07070900579567091 0.25802927044455204
25975000.0 0.9743457786626887 -0.22460750028260212 -0.001940975770032395 -0.00224384431791672 0.03021507024414466 -0.00010471809064264939 0.07788378791170185 0.27128031065000835
26974000.0 0.9705253546663862 -0.22707076843725443 -0.003907144523646114 -0.0019206299808766346 0.0027624512519373134 -0.0022515746749264104 0.0896505976013194 0.2611104472811004
27973000.0 0.9707791332559744 -0.23244050291801333 -0.00301260395042712 -0.002027873968339974 -0.0014595993650551133 -0.0010714059697568942 0.10735774889374369 0.2571208698053658
28972000.0 0.9665250074481944 -0.24625810601738174 -0.0021189054570957353 -0.0011811614355751346 0.0018231447590701501 -0.0009498664358550863 0.12007192685186005 0.25270483216409134
29971000.0 0.9670433540333921 -0.2509498338171344 0.0029943332337177136 -0.0033511035825759877 -0.0004969367558491501 0.0006508824934257504 0.14549159669661435 0.27489381220331194
30970000.0 0.9636293861173106 -0.2573594841076874 0.0028506379074797064 -0.0011496865943550533 0.0007221883628828956 -0.002517472876465906 0.16749979441819185 0.25529081048455987
31969000.0 0.9599146016578227 -0.26629557513617 0.002420622175076209 -0.002384088233083945 -0.0006168615799400059 -0.0034218696666953752 0.1517719905857298 0.25514284431793327
32968000.0 0.9591575815229088 -0.27725530392604686 0.005927616741996366 -0.00685196463535856 0.002534898269355617 0.000544562136140493 0.1662872383978634 0.24882614575444464
33967000.0 0.9571245186036552 -0.2866323460405703 0.01404601490080687 -0.006988764783329838 0.004804552049982352 0.0051383137292316415 0.19177244824134965 0.24317064274397696
34966000.0 0.9525499856417494 -0.295845208441683 0.015683147973415357 -0.010573262148171572 -0.00268863310052742 -0.0017586054779706313 0.20083733336844067 0.25374220450381096
35965000.0 0.9515834742817632 -0.3028459232214449 0.014381115844514028 -0.01619695476800092 0.003933315656590548 0.0006311672165477792 0.2126922347978196 0.2486534481597011
36964000.0 0.9491681506854536 -0.31071496501513396 0.01422621270188504 -0.012092343071990834 0.0012744037510617847 0.00010344010202475778 0.21331582248937245 0.2423933958932927
37963000.0 0.9444948578901968 -0.3203847891270386 0.020100787912435733 -0.019625030593588322 0.0034496120417666885 -0.0011637273910148627 0.2324752827677196 0.23475632191502066
38962000.0 0.9444404343909952 -0.32792980515401204 0.025195460592566155 -0.02485736397887849 -0.001000063874863603 0.001626448478703459 0.24269865947809488 0.23594237139720314
39961000.0 0.9404621115581097 -0.33773155090346774 0.0263334025042404 -0.025848813663293432 0.000540353077991057 0.0017532147179001182 0.24939042995738525 0.22778874526778212
40960000.0 0.9371465403539222 -0.343443276102 0.021523832939040755 -0.02343082766746118 0.0009998270804175758 -0.0005746673073637186 0.2757982432566653 0.2262873481870723
41959000.0 0.9343297290267437 -0.35405555578017944 0.028586716314259908 -0.03231459198424183 -0.0007508487038966687 0.0003956510231108884 0.264152082939346 0.21565405647890065
42958000.0 0.9294421942608383 -0.361775429962564 0.032078504926376566 -0.042457166519899024 0.002564433899310768 -0.00023613509043505335 0.2791326548889267 0.20623547900315156
43957000.0 0.9264697315137892 -0.36808665934093204 0.03334834719692833 -0.04759801741998423 -0.0009341942667927152 -0.0011698198380381576 0.2897375192519831 0.21292684340567947
44956000.0 0.9236939309501688 -0.3773812981731139 0.033151475228864524 -0.0557678030859203 0.0008566366822985607 0.000601955012343543 0.3038195203796462 0.194758312696228
45955000.0 0.9198404082591108 -0.38526669394811747 0.03645184743915417 -0.05572394557963955 -0.001139001954267973 0.001147654020240307 0.309579738668142 0.18824629948863517
46954000.0 0.9151620937957946 -0.3947277454895934 0.037908606831420597 -0.06437591825365113 -0.004417537550000493 0.0018351540397840297 0.3275191390922303 0.1710772349621197
47953000.0 0.914346864057021 -0.4006999323859331 0.03798556077668134 -0.07275929265496642 -0.0011551525259236412 -0.0010916546433521138 0.34492167380627337 0.16607107208565483
48952000.0 0.907281537207956 -0.4139973517772408 0.039184564522166024 -0.08024028651580331 -0.0013239150711002567 -0.0007328158425208901 0.3422373187033887 0.16141282653096417
49951000.0 0.9052158300406508 -0.41647243404193707 0.037300295690577245 -0.08715823189559037 0.0004956749118256258 0.001717984832154131 0.3495495742870031 0.14814939148634693
50950000.0 0.9007409950055357 -0.42717990501478104 0.040611623811363434 -0.09551779528016913 0.0024090862949020255 0.002531950021745144 0.356178042190022 0.13754076914021846
51949000.0 0.8982293418072134 -0.43465103829000573 0.042841897330075485 -0.10295774302794944 0.004486197146450847 -0.0020622935496132162 0.3584991105383064 0.13691366517350692
52948000.0 0.8952408193978141 -0.44332909785049135 0.04530567712286699 -0.11421626585823286 0.00017353706240407564 7.758897323984869e-05 0.37668829911936147 0.1357504525096049
53947000.0 0.889554491520318 -0.45032950643837294 0.04639902999592584 -0.12123028319556617 0.0007767214720952111 0.0032916385666301898 0.3759483754322432 0.1263749554534329
54946000.0 0.8840374078418743 -0.4594008406840584 0.045211676270652576 -0.13069988841677604 0.001144584215016907 -0.004628256055751252 0.3892245312335013 0.1232536824239388
55945000.0 0.8818896490921768 -0.46960230932574987 0.04534453666259186 -0.14451911251272223 -0.005234673022329308 0.0005753648395120624 0.38817896135939217 0.1001263472036883
56944000.0 0.8777360833829816 -0.47621272821765664 0.04672747020897659 -0.15116936316449575 0.0012217983233532002 1.146687832492856e-05 0.4063598882589398 0.10500340999387557
57943000.0 0.8735189979038012 -0.48657084215676016 0.051277402584586906 -0.16118489479457496 0.0012996505642151259 0.0002170765449773534 0.4023975971483895 0.09003408251347059
58942000.0 0.8674545414055629 -0.4895037961332523 0.04952634073730841 -0.17466169663727654 -0.00041315585591712413 0.0011628341653500676 0.42453708800316475 0.09402768908972031
59941000.0 0.8642329020948938 -0.5016395187957561 0.049987833961787194 -0.1843735943471808 0.002132256563538438 0.001632551165338242 0.42183527595177267 0.080487492926863
60940000.0 0.85619548709338 -0.5073765991903151 0.04980652154767682 -0.1889688507355665 0.0002077802901854513 -0.0009744189268545894 0.42106855888321754 0.07966849076906382
61939000.0 0.8541273974962064 -0.5131773131027496 0.05196033971673116 -0.19740674281888623 0.0024470293842403807 -0.00020737744938431653 0.419513190550329 0.07068851776804624
62938000.0 0.8482728593764092 -0.5243993218553689 0.05448499743017182 -0.21525845678607886 -0.0004963439170523583 0.004976529368609223 0.4409121359382341 0.055667469088725476
63937000.0 0.8442216835093541 -0.5312439852851343 0.05648115313461313 -0.2344910257532778 -0.00261045323086466 0.0029191167897273758 0.44101620927738133 0.04117706158832864
64936000.0 0.8379003743514162 -0.5356754935880086 0.05718892724861253 -0.2483033083879329 0.001396648666867061 0.0029163592627689857 0.43847501448561094 0.03573584271125093
65935000.0 0.8329084628544083 -0.5499825047494754 0.05435601822424152 -0.25956586537363874 -0.001775804986780408 3.145898096769169e-06 0.43899492678947094 0.009916591944669527
66934000.0 0.829562370937755 -0.5531668492318846 0.055512164036260095 -0.27485567753281237 0.00108635499203673 0.004312714070707317 0.43494546188972616 0.004077782807209323
67933000.0 0.8263862263610282 -0.5620182911923591 0.055931777671827845 -0.2932732669584277 0.004433400707760627 0.00225149463097907 0.44815075728326986 0.004330622263802974
68932000.0 0.8088257175931185 -0.5605363667434761 0.04888201704210126 -0.300420341402818 0.0036271467674040647 0.005761903930534615 0.4509894077302377 -0.01505993331224901
69931000.0 0.8122846995468116 -0.5782373814984172 0.056405478270735186 -0.3233530941262966 -0.0008148441900686027 0.00011269838137011052 0.4451374203351836 -0.038591551518279824
70930000.0 0.8067492968218363 -0.5853809797067827 0.047128117958726054 -0.33392585840259276 0.0008264115130478592 0.00042408264102996245 0.44796449348143497 -0.03064161919940629
71929000.0 0.804580796356459 -0.5922543600509889 0.048982408145977416 -0.353689296766047 0.00253020148704035 0.0016892145114161205 0.46855842598026076 -0.036199851582437
72928000.0 0.795422195221581 -0.6023370849664507 0.03984134396654109 -0.36930800548672077 0.0005356868725145135 0.001957211394769512 0.4695847738169335 -0.05703107790976259
73927000.0 0.7911601451524299 -0.6083725117051115 0.03614871512935334 -0.39304653056789196 -0.0006364745653364603 -0.0013067806837050982 0.46789842395125947 -0.06153627493184366
74926000.0 0.7861028916010716 -0.6170724956870416 0.030703433846802238 -0.4110628593891926 -0.0016729397081078608 0.0010497452226307037 0.460545929979263 -0.06404126418314836
75925000.0 0.7793704321001159 -0.6216832899387585 0.020003115481019067 -0.4298197962333836 0.00293019831225378 -0.003488265022982786 0.4684584567402723 -0.07719712521540166
76924000.0 0.7737090447147784 -0.6291805408462224 0.0074629696056909 -0.45222531888595596 0.0005485994737765628 -0.0016128731029662806 0.46607426939149826 -0.09021582244917527
77923000.0 0.7662196046766835 -0.637240322695533 -0.0044770465344529985 -0.47650635469904107 0.001902433082685377 0.0018767338915531453 0.45938955442895774 -0.10068552398216789
78922000.0 0.7612605058111952 -0.6463896009096088 -0.019913526004041022 -0.5044720029295742 0.0010581277521950236 -0.001170860086660531 0.46558666928469206 -0.11542645253314686
79921000.0 0.753004991260769 -0.6512162372832616 -0.039522925939895356 -0.527266137698591 0.0023338523971217413 0.0008993881241544736 0.462000887316945 -0.1334711201060195
80920000.0 0.749158259139986 -0.6611141527205008 -0.053249648597327656 -0.5563200718917763 -0.0017428695688627355 -0.0048083667274483365 0.45632054787870285 -0.13205026785160426
81919000.0 0.7402613357190542 -0.6676905639781362 -0.06903763431352171 -0.5841374287771608 -0.0019104362020439004 -0.004742101234349609 0.4668693418516166 -0.14328424159005881
82918000.0 0.7346007028685266 -0.676045272470762 -0.08427398263489873 -0.6156423823908267 0.0014994650501714195 -0.0027676702957206488 0.4754693849234375 -0.14318909507545635
83917000.0 0.7281769147548295 -0.6826201233798619 -0.10709098527384608 -0.6421803317807833 0.0016749145795074663 0.00030412219300525776 0.4781720947991854 -0.16059890859018588
84916000.0 0.7205030470380567 -0.6910936011958696 -0.12406512644308995 -0.6800094798417594 0.003713443049591673 -0.0005854351009627751 0.4674248703314734 -0.17604019279870523
85915000.0 0.7145336235814854 -0.6972156740446331 -0.14549469910118307 -0.7103607156462527 -0.00014891080687622866 -0.0026459554993981797 0.4643717765733968 -0.1783829178538888
86914000.0 0.7072668961137647 -0.70659515727933 -0.15805343814440698 -0.7482983470780435 -0.0012425050837713905 -0.0020646231484952042 0.4620793917820842 -0.1801259197292249
87913000.0 0.6992156428762659 -0.7107949147138929 -0.1783180663936116 -0.7769521892488903 0.004174224622964867 6.22808522646447e-05 0.4612440915504511 -0.19142846880701717
88912000.0 0.6925788538671083 -0.7189015465285373 -0.1922339449088546 -0.8117034605105361 0.001049665919836476 -0.001057793831038376 0.4702723250920482 -0.2102737451241095
89911000.0 0.6853207732317256 -0.7266315192358983 -0.21212410215013025 -0.8486227050061771 0.002845010597332806 -0.002545406453803406 0.47319041449451194 -0.21518897713524257
90910000.0 0.6780868099187564 -0.7328038469987752 -0.22935898618004671 -0.8840797272862108 0.0007563738888284542 -0.0034337174615338573 0.45620747564882186 -0.22530249489770332
91909000.0 0.6702593707031754 -0.7390575399558434 -0.2502591816280402 -0.9209725844675636 0.0007409216465824848 -0.002902756670385325 0.4638309038298115 -0.22575524112281456
92908000.0 0.6616911910369491 -0.7456596266139823 -0.26820691446961825 -0.9503167497291032 -0.001764193620927654 0.00023093801734269106 0.4557143333660124 -0.23571175671733238
93907000.0 0.6558922124495389 -0.7522472406470155 -0.285459437110306 -0.9831083727304265 -0.002391769823306221 5.570815960635442e-05 0.46173910818272484 -0.2559430426962646
94906000.0 0.6413273608496657 -0.7616558137397775 -0.30460071279684825 -1.014215869107091 -0.0007392739682901602 -0.004270543938599452 0.47274265291735895 -0.2569908254328497
95905000.0 0.6371876731563142 -0.7656024013949031 -0.3228677467006168 -1.0537171011545112 -4.115093796716552e-05 0.00030026780915761266 0.4640516947167535 -0.2750786083295264
96904000.0 0.6276291043201718 -0.7746035134417213 -0.34618795507315514 -1.0918802192471788 0.001601754865254453 -0.00017563479893713794 0.4486365013975222 -0.2726828001080946
97903000.0 0.6192880817999573 -0.778613846559082 -0.3682491411548949 -1.1231315556958066 0.0017149762851197282 -0.00034494034422916765 0.44752361272776314 -0.2946123361030409
98902000.0 0.61479271897839 -0.7856995901788152 -0.38909386836492127 -1.1670576257930974 -0.0006124350858155761 -0.0010802045793487768 0.4473312925091346 -0.3081596403085697
99901000.0 0.6040402418161154 -0.7931942819553913 -0.4200985022725267 -1.200309183073003 0.002897616569296064 0.00010159431518008273 0.4663840546527505 -0.3088715412896764
100900000.0 0.5976584764374488 -0.7958465449522713 -0.44841479677554236 -1.2253812315494919 0.0015968580295294633 0.004131057560689186 0.4599835520463835 -0.31362971557521774
101899000.0 0.5852528095033744 -0.8046986131698046 -0.4757354338227194 -1.2643607971740143 0.0037203216522951285 -0.0004763950047177708 0.4461885869846357 -0.31879810763342703
102898000.0 0.5774990791083899 -0.8082939244222745 -0.5057533902216008 -1.3042084772088232 -0.0007659952786213897 -0.0025422439711903617 0.447661285200487 -0.3326922205968277
103897000.0 0.5688214561065599 -0.8159301055738861 -0.5448556172034342 -1.3380817701851653 0.0002065683896747797 0.0037264298684145623 0.45282672116890593 -0.33784299858576017
104896000.0 0.5595089782909012 -0.8248616521016551 -0.5941117377088397 -1.369499942586922 -0.0006354407430179663 0.0002018467907046701 0.43312004383239316 -0.3513844966082394
105895000.0 0.5483939335100445 -0.8288533707950889 -0.6402726410371524 -1.414805998142611 -0.0016632083443555658 -0.0004889859062038679 0.44127026558196386 -0.36020836797362593
106894000.0 0.5405821018921412 -0.8362969335337028 -0.6949096468133564 -1.4543635177429803 0.0007929779280353682 0.0009729229841065191 0.43934214851610326 -0.365260327917301
107893000.0 0.531893574724528 -0.8427960666684219 -0.746794610058641 -1.4914501409176784 0.0012073613843649135 0.001860471728499103 0.43864710551537456 -0.38951397656051295
108892000.0 0.5250026904144237 -0.8449572944419242 -0.8012847285235851 -1.5312994896397258 -0.0001422892928805026 0.001173218770130621 0.4258652991022426 -0.3747574611099257
109891000.0 0.5114577726302945 -0.8538882916758245 -0.858078658522454 -1.5657161663907369 -0.0032945584803352633 -0.0005534598066887976 0.44153256530183826 -0.38206950804530054
110890000.0 0.507236416269612 -0.8613216187319118 -0.9231298706680822 -1.5871455653090958 -0.00035382297796488323 -0.0017498274980663271 0.43292833260275476 -0.38849491779275386
111889000.0 0.4920326814956247 -0.8609564174528378 -0.979793964926804 -1.6363135332487515 0.0022673534900893104 -0.0007715811267163187 0.4197186988771561 -0.3985869227870718
