! Created with skrf 1.9.0 (http://scikit-rf.org).
# Hz S RI R 50.0 
!freq ReS11 ImS11 ReS21 ImS21 ReS12 ImS12 ReS22 ImS22
1000000.0 0.9855709004604333 0.0036193246156193924 -0.009518973511041416 -0.059124435589429446 -0.017913213537856486 0.012056601740007633 0.38502661106185115 0.39039092068620906
1999000.0 0.9989663908559909 -0.016260634433982565 0.003890218225686773 -0.02169595460702604 -0.007911983625660575 0.004917467450322265 0.2465062217611543 -0.038678281601573376
2998000.0 0.9980078436552037 -0.025998311806358414 0.005972723980439197 -0.012872777684462143 -0.0020683277240767027 0.0026939574555504193 0.16477832552589405 -0.1272936705806007
3997000.0 0.9965228759433541 -0.03348765118422786 0.015088596545099682 -0.006215336392771189 -0.002061671573704286 -0.0022554668969372374 0.08004402400435838 -0.2196895716446953
4996000.0 0.9936730937446762 -0.03959764272648199 0.009647491378497136 -0.001887275477990284 -0.0032911286499983827 -0.0013192840130767226 -0.05699246218967978 -0.18319929299658316
5995000.0 0.9912730146514713 -0.04782011363928249 0.0093681494351988 0.004239010873374167 0.004012736397207276 -0.002041739767043776 -0.12201865813483151 -0.09632438083483907
6994000.0 0.9897487190976778 -0.056847264663800946 0.006779035644223294 0.00963636385488064 0.0028979404376807787 0.006690036205593699 -0.14715731607836124 -0.010365126113834
7993000.0 0.9909713992666437 -0.06986908146204747 0.004652398312464996 0.005874014707563546 0.003081153199634012 0.0036990469809513216 -0.1501061787766697 0.03406286275515418
8992000.0 0.9897796900319487 -0.07545363427343812 0.003252162982440961 -0.0011493450216713498 -0.005865525703222178 0.005541887300788422 -0.15557596051706662 0.0644570872313676
9991000.0 0.989234525394176 -0.08218125999550854 0.005902154263170644 0.004382439303440104 0.0021727665999283804 0.0022930498091484333 -0.14234352577168602 0.08509922445883608
10990000.0 0.9884095410390635 -0.09238787443678749 0.001935735129171634 0.0017970746902093073 0.0058482245144828625 0.0037469399865892824 -0.13009908257567368 0.10649026189266342
11989000.0 0.9858148279891935 -0.10015608805078582 0.0028352830682975634 0.0032682891861683778 -0.0038912969750249512 -0.003084344582283514 -0.12714127095535627 0.12930240075055327
12988000.0 0.985585960090263 -0.10858126196059129 0.006580253432365521 -0.004258028875705492 0.00014153434996597915 0.0004252432592348852 -0.11240922862396567 0.16914761107436613
13987000.0 0.9847152219460164 -0.11612714394062935 -0.002822677890584459 -0.006878665469159383 0.003242128042354967 -0.0005466545404655021 -0.0875416856708819 0.18159305547663573
14986000.0 0.9836077442701151 -0.12512041929619544 0.001755550734635565 -0.0004950574392133984 -0.0008866429909413155 0.0016283597866428778 -0.09017874282397964 0.20930757557538748
15985000.0 0.9862766466364036 -0.13301586749576494 0.0014108342250344534 -0.005988037322267743 0.0026979697353261846 0.002387276638214339 -0.06746530923007078 0.21732097249803325
16984000.0 0.9817706369106111 -0.14364492074602936 -0.0036508548263172224 -0.0072204917388815175 0.0018638619234612088 0.003953472952641953 -0.06070015048409354 0.21722708839004956
17983000.0 0.9802903481551978 -0.15059530782451805 -0.000518475573672265 -0.004776594701636848 -0.0030115770493427925 0.0013966238199213698 -0.056195983279779496 0.2362046548979692
18982000.0 0.9787408424616517 -0.1609186912899068 -0.00030737795342628514 -0.0019853974043962754 0.004972386178047554 0.0014570037191653444 -0.01575837470912712 0.23466022329814815
19981000.0 0.9790241762063635 -0.16521394389230962 -0.00011889020687885877 -0.004669390597168361 0.0017724458249343512 -0.0013996680407056478 -0.025084996499754132 0.24655882021711842
20980000.0 0.9757474195515435 -0.1763745714651181 -0.003746032896721583 -0.002893553812853617 0.00013432095087750643 -0.0004177138062326436 -0.006805957434476774 0.2609864107395299
21979000.0 0.975329221768712 -0.18361291821938597 -0.00783783073470554 -0.0009070738447454058 0.0031527993421338494 0.005661799569212987 0.019031601933565147 0.23290894293661704
22978000.0 0.9738075263076791 -0.19529924575256022 -0.002662659459696212 -0.0011129457411258993 0.002101354091220198 0.004061922967931832 0.012263693503445427 0.25423603783809556
23977000.0 0.9738701049025635 -0.19893564552153525 -0.007446834649899528 0.0006132322504009214 -0.0014350817731111393 0.004754776222272105 0.03614266614819769 0.25792517261591574
24976000.0 0.9709391396492915 -0.21087833270891915 -0.006882400659368636 -0.0008350602256622954 -0.0027595635408694348 0.0015585782518706423 0.06821256466833588 0.2506745177407909
25975000.0 0.9684041885211156 -0.21761402460264234 -0.003671907250258099 0.000633493328428177 -0.022579131648243454 0.014353955865241151 0.07498962748545229 0.26955896999336365
26974000.0 0.9652483454072504 -0.22994439058295232 -0.004857187142299404 -0.0032609833713285563 -0.001465236406786791 0.0031534361311950703 0.08534160149502468 0.25904782415466143
27973000.0 0.9654726816561451 -0.2349304972469342 -0.0011087311695587643 0.00020935248099283353 -0.0056639056770494065 -0.0018964514703750004 0.10562389160271267 0.2614791191485439
28972000.0 0.9609653188286646 -0.2460448579944781 0.0008882000941890774 -0.0009241248119531874 0.0007241597041519328 -0.00018819462037897197 0.11342853534347853 0.25763491605532285
29971000.0 0.9609520941184754 -0.25448285573357754 0.0009157801531456834 0.0003676920236617442 -0.002299723446400572 0.0021768045865845367 0.15459526132141124 0.2716360078689211
30970000.0 0.9582465657608977 -0.2609772651275309 0.0030797892700043256 -0.0017142925610484996 0.0023168019033741427 -0.00018693625823512565 0.16706170774991166 0.2503255652738711
31969000.0 0.955252818984097 -0.2697617879906937 0.005321056721576804 -0.008374078323096956 -0.0012836583917169154 0.00028967899764867664 0.1482121375866557 0.24640934566690897
32968000.0 0.9548997173585916 -0.27752352036085504 0.00923754350488828 -0.00965953485864078 -0.003445682902457641 0.0007590357954906238 0.15975384269130186 0.23659590394882746
33967000.0 0.9535948969735386 -0.2863562937251884 0.011909711643557603 -0.00877989898944791 -0.0016370072285364545 -0.001209811407335621 0.18142030368080245 0.24358644936934692
34966000.0 0.9488619311197941 -0.2990868564441026 0.013160586110628696 -0.011463839610040218 0.00019112790804704367 0.0010194048323357904 0.19002415596835115 0.2511928289133983
35965000.0 0.945618641974033 -0.3061729690227168 0.014984862794436551 -0.017079105996272496 0.0010095239758842406 -0.00018339708112147043 0.1982391560973192 0.2485144006286612
36964000.0 0.9423464951105956 -0.3145750762707945 0.014239269392449657 -0.013834434871697738 -0.0017679090147617836 0.0004266118917470775 0.2129124269962365 0.25223756433682165
37963000.0 0.9406636151401675 -0.32324523845438285 0.020694156821941406 -0.02189272301219965 0.0021924178363374133 -0.000716266785304592 0.23218743654882967 0.23696987208057316
38962000.0 0.9376093446930044 -0.3330144756093268 0.024147402365025772 -0.025188689985816016 -0.0003419333821868737 -0.0016395963502491232 0.23144639997941813 0.23284728390420875
39961000.0 0.9335479522380367 -0.3405622897755539 0.024722666141038446 -0.02822477354610221 0.004206096267604453 -0.0003071569400614179 0.24664609848052135 0.22543018740474172
40960000.0 0.9322873675960931 -0.3489653537612968 0.020190663295221515 -0.02373861787360407 0.0013269677627645653 0.0008312179623495895 0.2554037021704464 0.2200473098077545
41959000.0 0.9273109273777186 -0.3599335253777779 0.03112693546544298 -0.0361984165257287 0.0032320929319427628 -0.0016841963314547497 0.2627465305670445 0.21466798436418305
42958000.0 0.9226737251413395 -0.36790640476866365 0.03330327210938911 -0.04058499500810595 2.0599440764041293e-05 0.001939126815596445 0.27246069605667916 0.20454571193087837
43957000.0 0.9217633735552311 -0.37367613974413666 0.03425224945298018 -0.04752011040539383 0.00044064691735526976 -0.000983390838985852 0.2832224969116154 0.20753719587618513
44956000.0 0.9196296234109058 -0.3794351321703297 0.03566775592938994 -0.054776346763557256 -0.0018726575880660024 -0.0003132094910037417 0.301782944594778 0.19468951844849058
45955000.0 0.9145669078423001 -0.3916935875627451 0.03652920049384111 -0.060414573226422436 -0.0018768470067959309 -0.0015582955854654646 0.29931750055018275 0.19603998838347073
46954000.0 0.9128385262835952 -0.4002373226242079 0.036795386286544406 -0.0659388071189795 0.0002875015066378844 -0.002857310631111876 0.32137477388635904 0.18213175061886278
47953000.0 0.9067705311276585 -0.4100772261507144 0.03744866496953541 -0.07353928956006776 -0.0030357911583824655 -0.0033013065319789448 0.3351524370739394 0.17651101532878657
48952000.0 0.9017621075952613 -0.42025408850521884 0.038703520815354144 -0.0795069761253404 -0.004789571438623976 0.002362912306882642 0.3235313118697331 0.1660924063280723
49951000.0 0.8984446103985042 -0.4264169163247162 0.04016276275322792 -0.08921600238095143 -0.0018792494737671888 -0.003681206260595261 0.34826441815198206 0.1522001060093632
50950000.0 0.8951121778601608 -0.4339817787320569 0.04138912015100974 -0.09694198839514938 0.0009730401645072749 -0.0005791633785743497 0.34338398746027676 0.1495115453731935
51949000.0 0.8909045248518302 -0.44279928289975173 0.04232549923517986 -0.10650671891882123 -0.0008091646966584315 0.0005431826264514254 0.34896341929919633 0.1416312163472915
52948000.0 0.8872450003899299 -0.45039036207835664 0.0428380504334007 -0.11200275592192102 0.0025842263264799696 -0.00016311562850886596 0.3704371684514018 0.1450006710974394
53947000.0 0.8831387899315332 -0.45635728246985074 0.047054589371143915 -0.1246275256434269 0.0012466145160375947 0.0005588752127562588 0.3647069699746416 0.1298873626528613
54946000.0 0.877909630267134 -0.4680260227639317 0.04882832887474616 -0.13166612094441618 -0.0018800291651354143 -0.0021624712151240857 0.37901754811095245 0.12767601009571794
55945000.0 0.8736802803053326 -0.4763023123433217 0.0504031771129203 -0.1453101255278984 -0.002453068214194999 -0.001549090396105456 0.37595380499326003 0.10640738328278634
56944000.0 0.8704921281085503 -0.4831227672197279 0.04955382568243631 -0.15397907369225441 0.0016417253597705763 0.0005953513250360429 0.3879309299938546 0.1070890507416285
57943000.0 0.8651552093590498 -0.4935656262979612 0.05087598172695186 -0.165774401066657 -0.0019947190511678307 0.0003112862366586581 0.389379019667647 0.1001720377148843
58942000.0 0.857749857027345 -0.49883864778760795 0.050620225345400664 -0.17725539181356617 0.002495509461263753 -0.003128484854229455 0.40604523374224505 0.09038654468833056
59941000.0 0.857357994409101 -0.5054397407879635 0.056740534317984044 -0.18584199475713148 -0.0025631387114725475 0.00036720593275551807 0.4106101199233706 0.09328210395866514
60940000.0 0.8482403125421321 -0.5160212162299397 0.05625018788850065 -0.19303863818365063 0.00025338194339476796 -1.3006865068132882e-05 0.40200265423944315 0.07269368617928768
61939000.0 0.8448718154256533 -0.524046508779861 0.05792856484696426 -0.19984818819509237 -0.00023790093295657165 -0.0016590628720149193 0.4085834826148036 0.06963023749814792
62938000.0 0.838966181328056 -0.5323515211970559 0.059205039798518065 -0.21956268991669758 -0.0023229602976490367 0.0020226668915187935 0.43432945820795227 0.056715814246087126
63937000.0 0.8343543563590794 -0.5390270903003173 0.06057761465196905 -0.23821193806507168 -0.0009061846504024335 -0.0010198958001560844 0.42789066960224753 0.03843101138703268
64936000.0 0.8289784961093432 -0.5450871509706423 0.060351648537034674 -0.2515445273805658 0.003574949431797095 -0.0014090601810758923 0.4258667632695594 0.05138128813555613
65935000.0 0.8250066999403886 -0.5562603142032241 0.05624840202954446 -0.267366695076935 0.002998553086794194 0.002385364971943919 0.4363483530690616 0.019844100982771597
66934000.0 0.8193056813346523 -0.5633143089304239 0.0588531826083381 -0.282311244496052 0.0020752692396975676 0.0054201404385463186 0.4318075057033108 0.008410552814481158
67933000.0 0.815138923858738 -0.5694695837772362 0.05797102172631252 -0.2956057508314873 -0.0012276550540174602 0.0024683961264038204 0.4439870229345081 0.010368244248306608
68932000.0 0.8075824831916667 -0.563035271490145 0.057356518077342954 -0.30889290056749996 -0.002770588112378126 0.0006041839146857639 0.44025117208908987 -0.006725954060399183
69931000.0 0.8016474334190232 -0.5861223187950555 0.05688073284221621 -0.32823053979739975 2.7018089776566e-05 -0.0014374529669099665 0.4413968525625195 -0.013031570868909482
70930000.0 0.7945263948191601 -0.5939579385349337 0.05199723174341007 -0.34335485389962395 0.0007604332100251163 -0.00011417898396770489 0.4469690037831093 -0.04494589835374124
71929000.0 0.7908930636217103 -0.6028266395607158 0.04795371971568588 -0.3652263323738712 0.0013405860257565954 -0.0008630508912660577 0.44535653857573587 -0.032564136172314385
72928000.0 0.7832203894045824 -0.6095023384359852 0.041323789388025486 -0.37946371026803566 0.008058930757246287 -0.003925688781718413 0.46075637953342974 -0.04588109562266461
73927000.0 0.7768511630234312 -0.6162041654664001 0.03269624947365017 -0.4022267776702602 -0.0010721687741170225 -0.0003798586602835338 0.46083382868809414 -0.05848345179931108
74926000.0 0.7724561946743543 -0.6277721074675235 0.02550313840577219 -0.4221731992468803 -0.0023724127122130016 0.005016565328601847 0.46092607116460543 -0.059728773477872844
75925000.0 0.7647355032528229 -0.631057993830719 0.01975769221316249 -0.4430995068183443 -0.001681224028732702 -0.0015992266936590892 0.46620535548190517 -0.07382005056886932
76924000.0 0.7601551864900022 -0.6383092833614045 0.006609865888162935 -0.46413707390105186 0.0012638007657799297 -0.0022896566556831316 0.46222333534435256 -0.08283145418946948
77923000.0 0.7521715228663057 -0.6460360530999664 -0.010264202139840202 -0.4883730992852928 -0.00028289511187475997 0.000990516719716718 0.4547452626728922 -0.0927155373740683
78922000.0 0.7455613799985766 -0.6545049231469676 -0.02353236058455749 -0.5220091396613745 -0.003042063580973222 0.00033003443021202686 0.46945658830371323 -0.107922605376436
79921000.0 0.7378265688538413 -0.6595915849185522 -0.039723257690320174 -0.5465439854483063 0.0006750369185748744 -0.0009999091249513318 0.45327608300118327 -0.12446803170334295
80920000.0 0.7316365977906513 -0.6706695840712629 -0.057197512492728426 -0.5759270401098078 0.0012787065950672393 0.0018811265148924853 0.46576520787044223 -0.1266977285921249
81919000.0 0.7270060795542466 -0.6754973616322749 -0.07103965981395192 -0.6057647394290278 0.0003484380639168549 -0.0010520148219596878 0.46665517809470536 -0.1282791057865575
82918000.0 0.7194401787792767 -0.6836954881744082 -0.08437426194689637 -0.6383293010961635 -0.0023031764469698254 0.0010759731778364422 0.4753001610699695 -0.14410610000919824
83917000.0 0.709133163952862 -0.6922453170020029 -0.10495227874700397 -0.6685159025594015 -0.0010223234695473738 0.001716818016836269 0.4651057483459474 -0.1532684998346244
84916000.0 0.705590237254536 -0.6980519099294031 -0.121838781112093 -0.7052153007430565 -0.0008957668631596284 0.0014661432559709708 0.468332619518182 -0.1668493415636926
85915000.0 0.6978801473617618 -0.7055658633716103 -0.13690191217240827 -0.7304577803162468 0.0036153994623780413 -0.001097206230221359 0.4691238872444038 -0.17724523809315698
86914000.0 0.6899977783038888 -0.7153922480434755 -0.1565636904533111 -0.7704317907645296 0.0018149920120978282 0.002956526190738225 0.463002608318272 -0.16988149731644356
87913000.0 0.684969393727819 -0.720904598110696 -0.17353557856712878 -0.7985222355303402 -0.0009946587451787174 0.004327886095257186 0.45817557246043006 -0.1862672710423309
88912000.0 0.6758570071230809 -0.7275599733620808 -0.19471526496464775 -0.8352862010800531 0.004488635102184995 -0.0023005921193320427 0.4674068522462029 -0.2052275224678607
89911000.0 0.6710503691212305 -0.7364650170831336 -0.20738808748152993 -0.8776415237787883 -0.0003975275808952104 0.0012917224249724094 0.4631082196511637 -0.21193283695673376
90910000.0 0.6628986606934543 -0.7413328578768275 -0.2305024657731479 -0.9079633254071988 -0.003993174616485845 -0.004677152024122492 0.4624548464735676 -0.2104704935925912
91909000.0 0.6514761309388624 -0.7456586402979115 -0.2455342770638751 -0.940492446401735 0.001664974254928418 -1.9113949606496326e-05 0.4739675716854436 -0.22888746688406475
92908000.0 0.6459124287424958 -0.7538059813492929 -0.26579751131402374 -0.9747850734009378 -0.0015673812792641804 0.0001633891471952208 0.45701564163255654 -0.23544200675151972
93907000.0 0.6370927482131912 -0.7597892741702553 -0.28526972135394096 -1.0092162702774092 0.003392747226682832 -0.00812905695755885 0.4532102878822711 -0.25192668401673723
94906000.0 0.6260703530829345 -0.7672323492701606 -0.3067413266138701 -1.0420739863714874 0.0011471112941282675 -0.0009716674746966535 0.45425148327324416 -0.26420779505922537
95905000.0 0.6199614703784281 -0.7723268590248674 -0.3254019330298861 -1.0818063802314226 -0.00026198764605780565 -0.0010111508864052337 0.46971778498035255 -0.2755777261738533
96904000.0 0.611207415975332 -0.7828310833799061 -0.34579252337410743 -1.1211013412745376 -0.0013603535542721496 0.0013616735952052274 0.4522395169685458 -0.2517819801118745
97903000.0 0.6010643054671767 -0.7881816151562154 -0.37351780784335137 -1.1548595864346007 0.004161589239371203 0.005332165199058428 0.4592181011317444 -0.2842263727910465
98902000.0 0.5976952849895147 -0.7954417491220226 -0.3990096396079179 -1.1986125912904302 -0.0021735187472823655 0.0024516901766153277 0.4472506753953849 -0.29660392346759684
99901000.0 0.5854843085474266 -0.8000861724531564 -0.42805154374942744 -1.2284404791807098 0.0035196093570316997 0.002703481485861315 0.4642631357116665 -0.31858487874375135
100900000.0 0.5760928741703798 -0.8049826689110213 -0.469564694559613 -1.2589052137282368 0.005019487359198101 0.002944841766317925 0.4661862690101496 -0.31077392140814597
101899000.0 0.5703713965017884 -0.810828936551724 -0.493754094924502 -1.305003887199684 -0.0003001144098688109 -0.0012972344113143526 0.453114985607918 -0.31235053505562665
102898000.0 0.559014421269952 -0.8159784827660719 -0.5284733153701207 -1.3427610678042141 0.0015306365927560224 -0.0012338288971394027 0.44921606438743894 -0.3383913571669057
103897000.0 0.5508079771227686 -0.8239081696760409 -0.5728032618282125 -1.380700577918312 0.0020717026566048308 0.0015179434821548817 0.4661847402971636 -0.3342743520628918
104896000.0 0.5417806157380918 -0.8339401826105122 -0.628583384858255 -1.4152600576675436 -0.00013161612742841803 0.0036199706273158825 0.433083833677855 -0.3426481723924586
105895000.0 0.5308640329712413 -0.8358752174544409 -0.6723393689239138 -1.4591619279380867 -2.9561432291081285e-05 0.0014778001593388397 0.44253787610377215 -0.3592480311004674
106894000.0 0.5207073217648125 -0.8426336258454894 -0.7331763662661417 -1.4998378916195498 -0.001954365639138659 -0.002007655700750042 0.43069968414322857 -0.3538709508336664
107893000.0 0.515059262242574 -0.8484023601117192 -0.7834493309771188 -1.5409066850875508 -0.0009531201158297084 0.0016467431085013724 0.43168954617031446 -0.3821229922162077
108892000.0 0.5040640058569968 -0.8528562830907664 -0.8502960240620391 -1.5813488094548553 -0.002972871947106104 -0.00031355978478210815 0.4258704377517747 -0.3731959060843404
109891000.0 0.49279561013926615 -0.8602072925832868 -0.9048724646028751 -1.6232883846696862 -0.0006122162687714588 0.0026863352356337722 0.44812467905293574 -0.3648587130722019
110890000.0 0.48500192475888826 -0.8743317756190573 -0.9835676113187403 -1.6415890362586938 -0.004306229338176492 -0.0009281117153726964 0.4285954186623215 -0.38643776987979495
111889000.0 0.47112767281104745 -0.8656276111282766 -1.038706428896744 -1.6915660106447437 -0.0013921592831697104 0.001939288448061401 0.4324044175197454 -0.39632673333300344
