! Created with skrf 1.9.0 (http://scikit-rf.org).
# Hz S RI R 50.0 
!freq ReS11 ImS11 ReS21 ImS21 ReS12 ImS12 ReS22 ImS22
1000000.0 0.9739812072188743 0.006037501531025986 -0.00018882601755795838 -0.05505797796294686 -0.006027418611185803 -0.0009688384406907127 0.32912838175868925 0.29595826064819775
1999000.0 0.9920355302761044 -0.01296324563905298 0.005335797685842638 -0.02007137203969266 0.0002118202806693961 -0.0016991068492949871 0.26890658797649997 -0.04490076090532205
2998000.0 1.002207309021576 -0.021143888236118232 0.012744133327979417 -0.011080253582327629 0.00032896783164533495 0.0016220232687426423 0.18355227484211548 -0.14348540140475793
3997000.0 1.0003895419076125 -0.027510599827646434 0.016112889640859263 -0.00023803537979529582 0.0008017250015322999 0.0026245555250859207 0.09621278730571234 -0.22896425266865514
4996000.0 1.0003207496296613 -0.03326691266998448 0.014773195109218885 -0.0006591418565462544 -0.001533494166389419 0.002264746879377389 -0.051866748514454435 -0.22535519653832778
5995000.0 0.9992030933224999 -0.04521075257057259 0.009277822457871164 0.004770713678384134 0.004572856619547086 -0.002266389607628045 -0.12921066788249555 -0.10972088477295211
6994000.0 0.9995667454511937 -0.057695514542453405 0.0038644000800513944 0.006148220424748837 0.0016488892463872634 -0.0011427162990210833 -0.1466358069944707 -0.02051489296414517
7993000.0 0.9992714600867788 -0.06652373493481303 0.0043366656239546 0.0024110898683811985 0.0039047503635944517 -0.005036486671679872 -0.15982976180379085 0.03756303491071349
8992000.0 0.9983442568190554 -0.07317899378167354 0.004579103682789527 0.00701252361216441 0.00039894724656934944 0.0019461576553441746 -0.1610273605778529 0.05633903773024649
9991000.0 0.9951128383965584 -0.08415775844439434 0.005472567204798137 0.005739012081305275 0.0034695202530773826 0.0005211306270234523 -0.12695669424563039 0.0943358588102717
10990000.0 0.9962006094352372 -0.09520349263478571 0.001485445194432711 0.0013619555987390943 -0.0002761324271554881 0.0012067332455013488 -0.13966277760476964 0.1047591244365886
11989000.0 0.9954070525936511 -0.10000832721238875 0.004135001740024563 4.150144744332089e-05 -0.00034715522555258093 0.002795106906894893 -0.1232632405599587 0.1350846484640566
12988000.0 0.9930935866515577 -0.10962679935830133 -0.004146817097392787 -0.0005950646704408368 -0.0007865447716667885 0.001707663853745414 -0.11528788250198921 0.16092012353403018
13987000.0 0.9922607614037225 -0.11777572236460634 -0.0004217909404388694 -0.00023987319402904144 0.0020726419478265816 0.0023731454533192087 -0.08281278590941532 0.17661202243075455
14986000.0 0.9921348026328829 -0.12586428844040992 -0.0016701028938507854 -0.0033178877579645807 0.0021511991044122205 0.0031702197509914137 -0.08020009597025117 0.19901446065098513
15985000.0 0.9942057566363323 -0.13330835056056325 -0.00033178656780458345 -0.001884782973697623 0.00019632836268448106 -0.0006156873650673944 -0.06365394464377017 0.21513343061999418
16984000.0 0.9884788153095535 -0.1415451420615409 0.0026006038248714666 -0.007815878524475921 0.002442720162821288 0.004297721762311555 -0.06507792247721897 0.2148072443124046
17983000.0 0.9886394554032055 -0.15123592289549836 -0.00784946916325493 -0.0021481470293278236 0.00015771094299956863 -0.0014593950363788368 -0.044267232083983664 0.21656269980084922
18982000.0 0.9851936724762086 -0.1587528729120867 -0.005961134359905201 -0.006453258973647162 -0.0009024528505100227 -0.0014469571951880036 -0.01740485146049874 0.22676875240032074
19981000.0 0.9867652492917914 -0.16663462225812706 -0.002468690906344096 -0.0053506199064719566 -0.001051804054609317 0.0012437390879551067 -0.010156417278830073 0.23517029751567348
20980000.0 0.9847625849709184 -0.17620224624673417 -0.005384357331727203 -0.008645089918004065 0.004564960016855217 0.004009426474074968 -0.004588451202946569 0.2546847265631091
21979000.0 0.9823017809057689 -0.18352790226925908 -0.006888022507678775 -0.0013964512193809723 0.0032353176870338514 -0.0005622943368752091 0.02132962702768006 0.2319069376460093
22978000.0 0.9816940663570322 -0.1933363100128761 -0.00710725758781747 -0.00209170934513163 -0.0002726173481147735 0.0040647269580776114 0.0322694462234073 0.2574675813643236
23977000.0 0.9801920336613752 -0.1998898319369386 -0.007187987795805146 -0.0025884105179349503 9.673414811496155e-05 0.003676872578521653 0.04191665610638509 0.24753867188352421
24976000.0 0.975341921754796 -0.21061752299526595 -0.005540190034855818 0.0003191057384461788 0.0019156436354448687 -0.0002828945918457372 0.06560988851502694 0.2551253470712107
25975000.0 0.9785932720841672 -0.2180788580321418 -0.006854955015463631 -0.0014230578041562515 -0.005762668936577239 0.025512390219997176 0.07368463476253242 0.25430820918555147
26974000.0 0.9725380130838993 -0.22772866743741593 -0.0048228555500156875 -0.0034035189627917278 -0.0016851452998090475 0.002695346868184404 0.0928027598017046 0.2673212955703812
27973000.0 0.9722793982709822 -0.2330208966505289 -0.0021997055417402205 -0.004119919145279111 0.0005767658740311505 -0.0019913732623549215 0.10580106253170463 0.25700283349636893
28972000.0 0.9684521311973578 -0.24466002903068498 -0.002128662519791413 -0.0003143843020560548 -0.0003130223451828162 -0.0006345079497912141 0.11439681008274298 0.2510554117638033
29971000.0 0.9671927318096034 -0.2519413413965176 0.0009968786178751739 -0.003986307422996786 -0.0006059566615250976 6.389707091746978e-06 0.1476722647641126 0.25822773285694517
30970000.0 0.9645785891401768 -0.2579986504564431 0.0036507964006526365 0.0025116570092832647 -0.004707489599179709 -0.0019283958802110254 0.1666787696040929 0.2597332435177787
31969000.0 0.9617118065298081 -0.26756307450426137 0.0006375433182928341 -0.004794645396098565 -0.0026275199558172925 0.002748956446723355 0.15710667323262834 0.24319467813826878
32968000.0 0.9618491486963582 -0.2745686103910844 0.011660554113205133 -0.010570697346108006 -0.0009581880413583021 -0.0021073391041780487 0.15782714536906242 0.24621957042577433
33967000.0 0.9602812395295769 -0.28388280298838 0.010906080253747669 -0.008238606271798355 0.0012376416118682545 0.0007922056730377212 0.18943685813934855 0.24647035165165873
34966000.0 0.9556813062271948 -0.2946013353005765 0.012913134619956627 -0.014656938686740749 -0.0007193110640148877 0.0010884329873661353 0.19907735824955103 0.2482160143531837
35965000.0 0.9535296241784783 -0.3013855805974299 0.016072335773160352 -0.016844384457580814 -0.003326634414535618 0.0032349489937288454 0.21155752313767986 0.24375053897755805
36964000.0 0.9506645750162839 -0.30978435864179493 0.017042411799213727 -0.011587805160427093 -0.0002737786902908645 -0.0008867732578278502 0.21935681998106607 0.24601970949050844
37963000.0 0.9480575799036367 -0.31864960560505873 0.023295933873581146 -0.01781847920019367 -0.0007596789535231348 0.001770587498153648 0.23321765699938113 0.23217535107051954
38962000.0 0.9458746859021601 -0.3277931025471556 0.025115445989426412 -0.021669575428286656 0.0023812358898284993 -4.5297593332044226e-05 0.24263570499537318 0.22519876801039174
39961000.0 0.9414248273352908 -0.3366791520568479 0.029376362017716536 -0.031012934913743035 0.0007450218749176252 0.000935893906927076 0.2483080090251669 0.2155553057708338
40960000.0 0.9383219140320552 -0.34260273239894107 0.024809934601662833 -0.02493602031722811 -0.0010964910240745898 0.0020546606271410997 0.25864611352313915 0.22189599411295244
41959000.0 0.9369487348360898 -0.35297420774619054 0.03332162740656066 -0.032802108125520625 -0.0024191646509680465 0.0002016574995274153 0.2757265237242592 0.20863534202990522
42958000.0 0.9305854884026629 -0.3602875749611376 0.03517982201701212 -0.04189425715478613 -0.0017499264506169992 -0.0003879822015440807 0.2811078492300373 0.201731786705176
43957000.0 0.9297620227973399 -0.366511216512945 0.03389566346965215 -0.0494527839383395 0.00017182137264581582 0.00355836401371067 0.2894502189574355 0.21207684132288623
44956000.0 0.9257011917709751 -0.37533989449004274 0.036351403316910856 -0.053246542734165216 -0.0011360612725161512 0.0016977348843352968 0.30896768231044325 0.19100205408767984
45955000.0 0.9217138930456626 -0.38603390888186084 0.03751902079694135 -0.060557774599622485 -0.00040972025453422196 -0.002294934503646109 0.31477871255039996 0.18939864820825061
46954000.0 0.9185444696227284 -0.39389473182501517 0.041093786279161555 -0.06825768749791186 -0.000980275226871151 0.0027188242192511666 0.32590640848393904 0.17577917732513104
47953000.0 0.9154247789146408 -0.40089604602575074 0.04136003925157632 -0.0741714000419843 -0.0023001592204975403 0.0019286119686344758 0.34074257737913743 0.16644469629886846
48952000.0 0.9102709619800493 -0.4132499914009867 0.04234292621959676 -0.08068547783220834 -0.004322369004167455 -0.0017531674005389335 0.33937100385314506 0.160547123822598
49951000.0 0.9076890474251785 -0.4158375791223925 0.04322127873732809 -0.09270253797841886 0.0021275206744602207 0.0005401891574072258 0.35636900005981625 0.1485463261523713
50950000.0 0.9043487233957714 -0.42684194368224704 0.044987948743849294 -0.09961707672638657 0.0005618502044995804 0.0007314448272978486 0.3588734229937618 0.13794465318648821
51949000.0 0.8992813084475682 -0.4330909388740771 0.042759348186902274 -0.1075356973799457 -0.00011004709618503411 -0.0021562198353937017 0.36971200215593303 0.13850766127493236
52948000.0 0.8985706240198433 -0.4416981955912764 0.04978591956560571 -0.11644634647208575 0.0045800205331879415 0.0024850032231924462 0.3795963062254098 0.1367506923164374
53947000.0 0.8915216484322263 -0.45017891532332555 0.04540453495272612 -0.13004435798359987 0.00569179991003532 0.003989132065264564 0.3766759766838957 0.11050131089685443
54946000.0 0.8860440160472507 -0.45987941305070323 0.052296718907135296 -0.13892187076467866 0.001148090706124104 -0.00019490169557101486 0.39114474248282805 0.11213011832568509
55945000.0 0.8840928544581319 -0.467267623240764 0.05279157023689247 -0.14990935661046392 0.0014741151789348002 0.003434110759968878 0.38703607333516094 0.09953526199488257
56944000.0 0.8790149406591047 -0.47578717320675085 0.05540031628835257 -0.16064566206667547 0.0008615443692714305 0.0014988818780269824 0.39964634037094726 0.09756996292030126
57943000.0 0.8759694947612675 -0.4861152972615547 0.05726185570514092 -0.1701985110415588 0.0025794671152535122 -0.0011299564141265467 0.40862060063915523 0.08671722861799715
58942000.0 0.8694085148737052 -0.48955372293763466 0.05720640192532177 -0.18397515153641955 0.001276296580664947 0.003780230066051928 0.4283299866148809 0.07291961392969586
59941000.0 0.8670769515987142 -0.4989637683552594 0.05872036017262709 -0.19531511690928316 0.0045256577997347365 0.001651427038140089 0.41990547304072395 0.07133293684726481
60940000.0 0.8589153334353804 -0.5039327256624532 0.055410391536254405 -0.19953305295774681 0.0016374039781653393 -0.0005108881894791869 0.4058167447233086 0.06508563682885025
61939000.0 0.8571720008043784 -0.5125777977185696 0.057140345590944316 -0.2117588641517456 0.0029631393143309645 0.0031875702718318576 0.4196191668294183 0.05535834000396698
62938000.0 0.8509014311342903 -0.5240037937101378 0.06102326716549728 -0.22627146021966257 -0.0003594837066188173 0.0016439160373329887 0.43453174263058675 0.04218730550515837
63937000.0 0.8476208852597084 -0.529686497416678 0.06404785325162939 -0.24905096821845069 -0.0045320902365621335 0.00016474777234970204 0.432599449472458 0.024997806381557595
64936000.0 0.8392256607812744 -0.5380117486851318 0.06121219131583704 -0.2648466326226621 -0.00048410116666384475 -0.00044143077466314524 0.4349367829678087 0.029813248141973843
65935000.0 0.8395026693916027 -0.5454929746911259 0.06216090922910138 -0.27837879938224713 -0.00018226706906941851 -0.00023854643133328115 0.44564857779149813 0.009333718456490546
66934000.0 0.8335901435153797 -0.5531531356279277 0.06354155989296971 -0.2936833666099736 -0.0011868114853878144 4.05446378152541e-05 0.4402884859366022 -0.0005650501344874573
67933000.0 0.8300981478165093 -0.5601643483377005 0.06322095471969473 -0.31172271066860097 -0.0026861861186850493 -0.0029272031558782784 0.45250315716651546 -0.003693870162283783
68932000.0 0.8135583914539155 -0.555249304881976 0.05650048260071274 -0.32194567166235755 -0.0011256178711105064 -0.003466420229261976 0.45774842434979024 -0.021994136030414474
69931000.0 0.8166590385894184 -0.5785994131825635 0.05508270470132487 -0.3438300142786063 0.0015905497726253033 -0.002244295222046689 0.4537180024867304 -0.03110362582483458
70930000.0 0.8108435571465332 -0.5824812753436429 0.05151311989125888 -0.3603126346856418 -0.00043949048463659275 -0.0021925675069912652 0.44639981505557563 -0.044374554070862215
71929000.0 0.8071513052111179 -0.5914984253791289 0.05104044422996738 -0.3783640635427968 -0.0033693364922234557 0.0004364266177805153 0.4466071083271079 -0.048085036931449464
72928000.0 0.8003948287644513 -0.5997621741624964 0.04515751290153831 -0.39832705898514775 0.0006997498851222513 -0.0008535967260196093 0.4561927979137961 -0.055444305585266446
73927000.0 0.7945222948226449 -0.6065381312660879 0.03442573371082563 -0.4195003669090412 0.004247083178357859 0.0023220206340620023 0.4583477341615575 -0.06068756891626361
74926000.0 0.7882372836128483 -0.6148326964237004 0.03209082034056228 -0.44207398425958283 0.002822435255197763 0.0035581425865634925 0.46794596136180955 -0.08353227123197288
75925000.0 0.7847329497776709 -0.6211002374900813 0.023467946931446 -0.4652840997884308 0.003225546885682513 0.0014107138220290608 0.4658058251167419 -0.08406007782123001
76924000.0 0.7747087257772076 -0.6287461012377376 0.005226611781615648 -0.48891517776675153 -0.00027312327195856765 0.003946229918473915 0.4657466773729474 -0.088974135101498
77923000.0 0.7707405079951991 -0.634874022168416 -0.006230701589351343 -0.5143720401469295 0.004812312244480007 -0.0006406011314826003 0.46295266696551757 -0.10878790696816712
78922000.0 0.7645906012244188 -0.6451038223365927 -0.018710513351025908 -0.543797658372258 0.0035242992763510556 0.0033535826403879522 0.4652172928291736 -0.1255530987219948
79921000.0 0.7565285142036162 -0.6503253034634812 -0.03997233443330982 -0.5705035971156989 0.0014194117692343106 0.0004077562572114917 0.46226733282943666 -0.12232419067281355
80920000.0 0.7498040968319409 -0.6618874771515453 -0.05314962287905919 -0.6005252842213838 -0.00034354985996536293 0.0005489114352414052 0.4701952378391633 -0.13904420740675466
81919000.0 0.7465197259582126 -0.6665029901427864 -0.07454836180825375 -0.6291867219400817 0.0016907430977919557 -0.001567619849220104 0.4641325838565788 -0.15149130931712168
82918000.0 0.7373296508907121 -0.6741498087564667 -0.08816792490856723 -0.6670377986608534 -0.00016847880190603017 -0.00017426599804123763 0.4747170002386456 -0.14602630907621317
83917000.0 0.7297927727701452 -0.6821965482692381 -0.11090147389578227 -0.6929716490944944 0.0013393029048795948 0.0051172522885022075 0.4706689958790627 -0.16858837212629726
84916000.0 0.7247276722602995 -0.6894698097278573 -0.12896243851375153 -0.7350632608970379 0.0009999219155546397 0.002621617596769891 0.46046650786833737 -0.17814658351071005
85915000.0 0.7172201361403562 -0.6970285931235597 -0.1501601042255389 -0.7599279172520084 -0.0010309223271031888 0.0009919026368026985 0.46179171590421086 -0.19213876137376498
86914000.0 0.7099307556110058 -0.7064134746468148 -0.16457539827444442 -0.8065359164474996 -0.0007990356109532084 0.0012707607851321322 0.4556392160270325 -0.19074378751160212
87913000.0 0.7037257421225113 -0.7119093660537982 -0.18744317943281175 -0.8328524188192761 -0.0012086052364421018 -0.002359622830378773 0.45697034247173746 -0.20005466372784958
88912000.0 0.6975704158457181 -0.7176499902918079 -0.20211893493595118 -0.8727257472438615 -0.0013876727154462848 0.0039747178306020585 0.4705835856103533 -0.2131927670304583
89911000.0 0.6869821924515139 -0.7282841568780081 -0.21982106299306867 -0.9129645239249975 0.0006196793455178862 0.0027337562526837545 0.47114544893707894 -0.2231007335059173
90910000.0 0.6818576288103979 -0.7322161515960035 -0.24381417882314127 -0.9500622459911757 -0.0034131077817766272 0.0009877689851254842 0.46505385959391976 -0.23300385036904173
91909000.0 0.6725077788987394 -0.7377736238424929 -0.26392706072164673 -0.9825024842812523 -0.004053962682488428 -0.0009055247047608545 0.46416645556349856 -0.23191354040378648
92908000.0 0.6656257552004894 -0.7447524938546887 -0.2868232063212538 -1.0202392556888777 -0.0025521558397137187 -0.000792806584376772 0.45440388372922824 -0.24529359864618164
93907000.0 0.6585872080985421 -0.750288461320023 -0.30410001049454344 -1.0590045163011432 -0.0036201836547855937 0.003743870711779885 0.45126455613025157 -0.267055087526089
94906000.0 0.6467384714742435 -0.7595325738078381 -0.32676588196184286 -1.090493432032811 0.0012468212752135763 -0.00452952013501108 0.4497460601556706 -0.26339643191101103
95905000.0 0.6410904006543 -0.7651822894140385 -0.3519169954139993 -1.1294593552349652 -0.0009274259116173533 -0.005249586985988585 0.45372911577487535 -0.2766673738845073
96904000.0 0.6321274503528653 -0.7736340409201148 -0.37858810043074376 -1.1718281695761716 0.0013192656235165713 0.003113358766028649 0.45466132432514533 -0.29027900429225845
97903000.0 0.6236396142948887 -0.778978369460361 -0.4010406668376014 -1.208843676801286 -0.0005203157970435498 0.004006494839000287 0.4440334237531235 -0.29268627433837596
98902000.0 0.617789309185713 -0.7873139842228382 -0.4302242834770997 -1.2488212013857773 -0.003766245805639585 0.0028728686843470996 0.44118329597420225 -0.3022661837161734
99901000.0 0.6075750050050668 -0.790854142814649 -0.4600223639654921 -1.2830853259435244 -0.0010634842890557346 0.003779223163553671 0.450659673958104 -0.3362754943762263
100900000.0 0.6005886407434359 -0.7966768955649162 -0.498449973947712 -1.3188706626866507 -0.00032515872368432837 0.0009084056718349895 0.46782654972589865 -0.32780941935911684
101899000.0 0.5904645280511399 -0.8032700870836312 -0.5227948662599768 -1.3591290936379858 -9.895316279958838e-05 0.00048242647783798944 0.4371223204466225 -0.334647370551989
102898000.0 0.5796209541072735 -0.8110988255772374 -0.5699245704738567 -1.3983773329363538 0.001874805946848441 0.0007488085388954378 0.44530130965876885 -0.3476779972347765
103897000.0 0.5726963551119938 -0.8186741213715243 -0.6154406139155829 -1.4393268460315782 0.00320854448990984 -0.0017609679137534579 0.46177500335408295 -0.343090520566128
104896000.0 0.5652208979051004 -0.8258706121211433 -0.659603035133558 -1.4818464016393866 -0.0008510598810785681 0.002126339012130364 0.4370888441191585 -0.3466619216449623
105895000.0 0.5544279107723011 -0.8292128863004128 -0.7161407069946394 -1.5272674270543514 -0.0001666164327921246 -0.002164968562451803 0.4157785187417884 -0.377828226004734
106894000.0 0.5480805403879531 -0.8372676354058177 -0.7780055562704863 -1.5685314968636273 -0.0012362080305036713 -0.00013798256616632417 0.4192257280455783 -0.3807696865582328
107893000.0 0.5374536887731172 -0.8430313999781796 -0.8354238898327565 -1.6017408780750733 -6.0880253951302044e-05 -0.004224211300382928 0.4162136461081683 -0.39625660312775157
108892000.0 0.5261473227596436 -0.8465400103969449 -0.9005215033885808 -1.6386489260164212 0.00042268712569932897 -0.001501718690628854 0.4121649728855196 -0.3944542208067736
109891000.0 0.5160998719252807 -0.8536610756211794 -0.9589158482750003 -1.6769005356690172 0.002954605437500116 -0.0003679751857269041 0.425276932957071 -0.39787684289567166
110890000.0 0.4976860634354995 -0.8566100166960903 -1.0300177486895867 -1.6690485276002118 -0.0010331749862250198 -0.0005834796161297586 0.41025890193542613 -0.3974151780590902
111889000.0 0.4975261771982939 -0.8592293940121299 -1.0915390846525903 -1.7483206165848941 0.0024266280843951377 -0.004438696633396427 0.40901808266506795 -0.4045199306820266
