! Created with skrf 1.9.0 (http://scikit-rf.org).
# Hz S RI R 50.0 
!freq ReS11 ImS11 ReS21 ImS21 ReS12 ImS12 ReS22 ImS22
1000000.0 0.9719784510655232 -0.001071659363079323 -0.005701957755840493 -0.04537755705148317 -0.01631508265429431 0.007400708150437013 0.3579331547216373 0.2808087575913836
1999000.0 0.999530176399378 -0.015468154357849612 0.006042562748947526 -0.024579636829600064 -0.0032646868526782654 0.00014346761409350544 0.2578355322212848 -0.019175189208109764
2998000.0 0.9970135737073798 -0.02665118848755802 0.012747688353326007 -0.01334902910988198 -0.006833455885115895 -0.005470454336083516 0.19091672935774953 -0.10305582253002406
3997000.0 0.9947674396996511 -0.03269935669338475 0.010630809298601104 -0.0026877663070245393 -0.0029199532914643295 0.0031739828247434845 0.08854634616186523 -0.19264514678151934
4996000.0 0.9903134463240229 -0.046096987670312645 0.007784688727682624 -0.002549579945224525 0.00022174338434996399 -0.0004533472320087817 -0.017064350724681286 -0.2056869302030274
5995000.0 0.9913744219573686 -0.04822587726297327 0.007988355175357901 0.0002000576099368307 -0.005319083360189605 -0.00024507718698005753 -0.1274732149701025 -0.12921215997802232
6994000.0 0.9871835257592525 -0.062153622467087374 0.006876455534775903 0.0022725678112544513 0.005192416919309744 -0.0007969344893571348 -0.15590603851149293 -0.0393465800249893
7993000.0 0.9896508618167246 -0.07027547585590783 0.004875570502017515 0.004086791888212156 0.003943825002001642 -0.0023311721189321795 -0.16952477107332545 0.033093262746767695
8992000.0 0.9877277649880611 -0.07412134578580969 0.003684234391858946 0.008263611154836833 -0.002766423267805915 5.7969723449411576e-05 -0.1776084576649312 0.06717930538561968
9991000.0 0.9858168022586055 -0.08494320818086361 -0.003162473158145505 0.003575804808502443 -0.0023777216401669288 -0.0030037603541530886 -0.16417024316104412 0.07395205083656337
10990000.0 0.982831713471085 -0.09432787562799792 -0.002713954975912815 0.0003028661153762059 -0.0022425169177028668 0.004460041019622627 -0.14455940441225382 0.11452717282799944
11989000.0 0.9816175665224618 -0.10005648293099427 0.004333339521588906 -0.0018836667111343317 0.004234008242861045 -4.149603962898824e-05 -0.14140878865365736 0.14004973733822307
12988000.0 0.9830812833141197 -0.11148325769577914 0.0028278135248617827 -0.0043336865433495275 0.0039051510154271296 -0.0006127059865975362 -0.11878903961800684 0.16416451347545122
13987000.0 0.9809351797521412 -0.11682625409827446 0.001714008921902935 -0.006764074140504163 -0.00091831896487753 0.003205947795424508 -0.10067489362847215 0.1877120021786988
14986000.0 0.98164388150141 -0.1242414039233527 0.0026224281388817624 -0.002383194518057881 0.00033515348032974726 0.000262313953336184 -0.10049363556386592 0.21197420459432537
15985000.0 0.9811557385543923 -0.1363412300948799 -0.0023799396216737474 -0.0002835761810315161 -0.0019878745676336265 0.002669813208270463 -0.07713639759458912 0.21488310603621094
16984000.0 0.9809591597490263 -0.14346615325394452 -0.004554740362753564 -0.0018023803634093238 -0.002903039564013469 0.004008538972215748 -0.07196371859961548 0.2209892216236017
17983000.0 0.9777059302335431 -0.147471343515146 -0.001633462183273112 -0.007803597630626315 0.0025118693297168223 0.0033030956987995306 -0.07143463444057638 0.24014621204705938
18982000.0 0.9753735544480512 -0.1611031836568556 -0.003240615154391348 -0.004912101566379622 0.0003594887793991501 -0.00011183344797559089 -0.03522946763897917 0.24314141697103792
19981000.0 0.9759685353792178 -0.16469716237611504 -0.0020389455263336437 -0.004028977180171665 0.0017003092117194314 0.0035780941948811303 -0.02501944030427273 0.25268995620853424
20980000.0 0.9742207148369613 -0.17725876472141003 -0.00398562336353372 -0.0028293689625169347 0.0009966977412031366 -0.005086301585219419 -0.023423875846137338 0.2628213721085763
21979000.0 0.9724722971799368 -0.1835617430881957 -0.005424630222354273 3.7892112960786174e-05 -0.0009447373152272874 0.0015867947003759299 0.01665211780605149 0.24989963988662206
22978000.0 0.9697012503510514 -0.19249479950275952 -0.0063912314837822155 -0.003673977040661929 -0.00072652357733139 0.005332306285390084 0.012580067797655812 0.2629183255847648
23977000.0 0.9726648305686632 -0.20136244068801332 -0.004646400767748567 -0.0006831802765753122 -0.0021748585202053536 0.0006525714567456807 0.0330410193504385 0.25049627980527767
24976000.0 0.9671703503032455 -0.20894683798587946 -0.00815991672752841 0.0012936379185081244 0.004061838538125119 -0.0028865323359875245 0.05141135060445412 0.2600643006919364
25975000.0 0.9629322987544633 -0.216092856504895 -0.002581962215064611 -0.001897011649009739 -0.02643038637290944 -0.0011334201231772225 0.07800548659895405 0.253312358956981
26974000.0 0.9643101755194117 -0.22672449892925456 -0.005313993341933095 -0.0007618112596219168 0.00028560759930977813 0.00041866031131993544 0.08445115982157747 0.2658524055426814
27973000.0 0.963495120805523 -0.235338194539158 -0.005740105052651878 -0.0013039373576672997 0.0018321778640543133 -0.004365497854972486 0.09717099793687872 0.25703226243012983
28972000.0 0.9625688193013433 -0.2425209755852426 -0.0025311304328502547 -0.0012199022329675779 0.0017578595150119583 0.000761081528819957 0.11689830121416951 0.2626520671196808
29971000.0 0.9584471682160227 -0.2534399577408566 0.0006256257473833896 -0.002790621715108477 0.0013593646989194241 0.0007840601596132168 0.14813984920364545 0.26657998943641886
30970000.0 0.957203108534356 -0.2572960133001796 0.00031314934218178007 -0.001714027340270603 0.0030494494635501736 0.0038302961894941703 0.16076877753128457 0.26006678872185185
31969000.0 0.955448590515828 -0.26769496591142233 0.006076995924298252 -0.005688881791781442 0.002258652358901347 0.0014846244755255047 0.14259599585690927 0.2620778765511815
32968000.0 0.9543095732283603 -0.2756257156012568 0.0031315327168352845 -0.00802367702063027 0.0032037416421346033 0.0013596091076675952 0.16030125576318202 0.24701745608508502
33967000.0 0.9512089641020905 -0.28755100052308635 0.011247111377944746 -0.011192840768192224 -0.0034013993017941013 0.0019166629348309004 0.17604552976379587 0.2474667214398422
34966000.0 0.9478086566629771 -0.29544701332679424 0.016205435741154295 -0.011639035207839134 0.000784667215473231 0.0013120106703996296 0.19327958618542074 0.2572380765594248
35965000.0 0.9452402715176289 -0.3030540536988068 0.015176238917681734 -0.014994862886783672 -0.00180995897573628 0.002114835422001361 0.20932704371213645 0.2548806089382582
36964000.0 0.9446975012697459 -0.31170969915082614 0.01867476818778963 -0.011778464313412023 0.0013780649070622899 0.003292251804164348 0.21821248786333997 0.2582802124156856
37963000.0 0.940181543915378 -0.3196217229881222 0.021212868352389745 -0.019124173905143763 0.0021835031097231683 -0.0010540239771605067 0.2190695111325529 0.23846247308988533
38962000.0 0.9382126645800458 -0.32817741347266777 0.024416371790176084 -0.022246171129744856 0.00658828624451865 0.0010807136269407108 0.23658739193618494 0.23039909361330835
39961000.0 0.9336832936162713 -0.3398846669369944 0.0253819752053192 -0.026825660052579525 -0.0007381302444011919 -0.0006750344549022936 0.24487961818758386 0.22830817930442868
40960000.0 0.9305872058399423 -0.34679417804226303 0.020535663515427426 -0.020880205443940033 -0.001880144215170438 -0.001669921152109026 0.2656969509882483 0.2323797599201539
41959000.0 0.9285236075803757 -0.3556830441431312 0.026843581698547853 -0.030204064477539896 0.0025895330124556305 -0.00014321600653373034 0.26277396757301164 0.22906305047068995
42958000.0 0.9223268446422139 -0.3661210185585325 0.027448540113585846 -0.03850888263703413 -5.966021962399509e-05 0.0021883728558995097 0.2792867486581532 0.20927815674111225
43957000.0 0.9210133060056598 -0.3724779796250039 0.029286736317225157 -0.04286137172752786 0.0019390222687100623 0.005053266352038697 0.2888051462309699 0.20195532857418758
44956000.0 0.9175986235531727 -0.37989672135769054 0.031198739743881754 -0.04902021525935533 -0.0003768610556967414 0.002590693950705899 0.3071552782919183 0.19306416905633794
45955000.0 0.9136942649053423 -0.39147821740562555 0.0311124870766257 -0.054488300373628826 0.0007645858027185938 -0.0006230569253592834 0.3008060848403055 0.1900658720629427
46954000.0 0.9095010253759933 -0.3993645588006235 0.03533733466955549 -0.06258940330752347 -7.53517177451696e-05 0.00362153202656857 0.3191222122931768 0.18540047548781705
47953000.0 0.907815285168839 -0.40532548426026654 0.03461087168366681 -0.06926495133916395 5.958482692569426e-05 0.0015198285538142895 0.33320378488636476 0.17985890341709848
48952000.0 0.9009633854618688 -0.41786014177364167 0.03492607807482494 -0.07537165382689458 0.001925621586005811 -0.0018339876235974072 0.3301319569609129 0.17414060602615913
49951000.0 0.8992922656522734 -0.4204972645131011 0.03739652062866657 -0.0859243139345303 0.0034888638705735525 -0.005051446577952353 0.34639287880216346 0.15612979384201364
50950000.0 0.8955298181152022 -0.429918708265357 0.03339492173767139 -0.08997353678462797 0.0001340958249587205 0.0031515857428013345 0.34627751198945994 0.15662305813764912
51949000.0 0.8904813473023255 -0.4389568697567392 0.03790143412579979 -0.09649816456227372 -0.00047566207478774063 0.0001669968928112791 0.35209043140183405 0.15478984922878636
52948000.0 0.8866914797941737 -0.4511333721389035 0.03985987547168085 -0.10638484281673821 -0.0024513904627926487 0.0006317577776412753 0.36403549662067736 0.1493208294014497
53947000.0 0.8822799068296369 -0.4560862828069787 0.04154912193745359 -0.11521235647093854 -0.004413453926122911 -0.0005581865281527841 0.3633409437141949 0.13204226804655497
54946000.0 0.8760068033044399 -0.4667734751400686 0.040064353578386766 -0.1229457622789253 -0.00018273574988377197 0.00043832739614061946 0.37678815830081486 0.12200521984439892
55945000.0 0.8733656088238116 -0.4734672379424079 0.04384398066761932 -0.13274515065518372 -6.28070300674002e-05 -0.002931449245150786 0.3868353581000186 0.10443766680958715
56944000.0 0.8693807821189061 -0.48164252869459034 0.04120512328116338 -0.1437662215095887 -0.00047615378488137034 0.0009876106765948545 0.38879842339813836 0.11156135383439002
57943000.0 0.861818459500131 -0.49435846952269474 0.042852158447684925 -0.15571010154840467 0.00020537718450927369 0.0007564301671456815 0.3960241803055948 0.10262893211551875
58942000.0 0.8576763483974859 -0.49798580461249525 0.04291464767828303 -0.16618874058448974 -0.0010299449294322034 0.0017927978321642664 0.40931932990345116 0.09624773307356228
59941000.0 0.8573039957582006 -0.5028039991189639 0.04976132155719247 -0.17335011859982014 0.0007222500423274495 0.002150681220087951 0.41506150465512465 0.09956206438289608
60940000.0 0.8465429687439113 -0.5126023531103278 0.04936015453798766 -0.17653075233509877 -0.0007345234667434716 0.0010100471370818056 0.40732867991165583 0.08060172242724023
61939000.0 0.8447153648180212 -0.519646536370019 0.04953210200238597 -0.18254054961151847 -0.001812774399150292 0.0015338976240888104 0.415770413757822 0.06542053001359364
62938000.0 0.8381675607115839 -0.5300829707543842 0.05264908129088569 -0.20161406201214166 0.00016940474235432678 0.0015179027532937887 0.43479894004925046 0.05977390446723681
63937000.0 0.8309185742235163 -0.5393624022699012 0.051627481632331884 -0.21897994035368454 0.002380525088332065 0.0017186410719872887 0.4346660233917944 0.051045480023740014
64936000.0 0.8269241616637969 -0.5424657423825273 0.05552689341581921 -0.23291540146359635 -0.0004702490101997409 0.003562915369476963 0.4280843667971358 0.04283283354513566
65935000.0 0.8229744062227248 -0.5542017935584055 0.05258199049440216 -0.24553501084174656 -0.0013612776328831826 0.0017202774396916213 0.43789500519310753 0.02731051307691589
66934000.0 0.8186594394680484 -0.5603266522483655 0.05412773047956551 -0.2598169672623047 -0.0009161220647434688 0.0008339898777720048 0.43220471149463857 0.009980593743672406
67933000.0 0.8157851001891384 -0.5686083653670577 0.055000309751090715 -0.26879551145228237 0.0008959668883495386 0.0016486585745633462 0.44398027751418134 0.009817830313794938
68932000.0 0.7996781835803798 -0.5727486388596523 0.04696570551018958 -0.28131416966043526 -0.0045891925609919644 -0.0005576435472925429 0.45004051293960057 -0.011763079601074334
69931000.0 0.8006076457052008 -0.5840258728715497 0.05444773544459056 -0.297241858346374 0.003999714183263931 -0.0006443169865883902 0.44843584659358143 -0.015223284625465074
70930000.0 0.7943369099574188 -0.5892796913752413 0.05097656474081051 -0.3087466150834142 -0.0025962547585218596 -0.0015860224061634814 0.4349530265633937 -0.02889224529702931
71929000.0 0.7909597448935632 -0.6009092362103525 0.04768263770822043 -0.3276342630714874 0.0003781716677012336 0.0033936316916732536 0.44493246382075474 -0.023700206399793197
72928000.0 0.7834407613388054 -0.6059313126434983 0.04228527179858501 -0.33936287161426454 0.00015636306857738788 -0.0021381480205896653 0.4688858650175849 -0.05367048294920772
73927000.0 0.7771627130628382 -0.6151765018186314 0.03629522912083588 -0.3624592461954497 0.00027967446462357344 0.0015774654970494657 0.45092078740445307 -0.05015716015483759
74926000.0 0.7722545926932738 -0.6242699754538461 0.03218030627199694 -0.378030917175328 0.0007025042142543572 0.0014336914869091846 0.45965188136857577 -0.052491908559022
75925000.0 0.766022825806517 -0.6275316052187321 0.019757009523939578 -0.39809468418194305 0.0020190149040291653 -0.001789783758532885 0.4655005715129808 -0.06977541602948915
76924000.0 0.7590306727415659 -0.6360007286556247 0.006655245515631783 -0.4187371732723125 -0.003150677312416531 -0.0007596849810604018 0.4624843585331058 -0.087075540769045
77923000.0 0.7518785685796588 -0.64153118031753 -0.005212471951190539 -0.4383602240719932 0.0030390520002463203 0.001007485051850814 0.458232860567508 -0.0911460212303247
78922000.0 0.747759439067908 -0.6524058928166172 -0.017698776707302254 -0.4656931346202938 -0.002005525209215983 0.00239734256162927 0.45290447608332535 -0.10417233951336882
79921000.0 0.7370096096045696 -0.6564028369534365 -0.03557903990497692 -0.48930999397682456 0.004980531960969385 -0.003344847435977081 0.4526315551470022 -0.11116218648985934
80920000.0 0.7325541401448589 -0.6679494961998449 -0.05295553754916752 -0.513579345095652 0.0013960469653781773 -0.004260671693169327 0.46205515935435076 -0.12981785519344213
81919000.0 0.7272790351700656 -0.6727621930393373 -0.06338926435489438 -0.5405548396643447 -0.0009687851578224325 -0.0027933901782570517 0.45799546442636174 -0.13224963171926496
82918000.0 0.7209119509432718 -0.6774662294145485 -0.07791639945542508 -0.5719825739949624 0.0010562067443018153 -0.0005842408682969377 0.47211696158889166 -0.14375991788420375
83917000.0 0.7124993833134147 -0.6863473434333405 -0.09852354214802805 -0.6014480582989737 0.001436544510684153 7.5470189121515e-05 0.47386888292893264 -0.1573508341277082
84916000.0 0.7059585027875461 -0.6937046038098393 -0.11296890049619511 -0.6302163719316413 0.0011977462235796272 0.0018058722445125353 0.45703431497824376 -0.16070508257478172
85915000.0 0.6995180421278159 -0.7008886763179066 -0.1322271860496504 -0.6589773203801411 -0.00174756437105175 -0.0027605990365734932 0.4640850063659689 -0.17883992316957262
86914000.0 0.6909699282859936 -0.7105616316840144 -0.14608471087094768 -0.6928843922529584 0.004763911987333134 0.005394783227836284 0.4496647860950074 -0.16505703834775187
87913000.0 0.6833567248236803 -0.7158885737880252 -0.1645917218303399 -0.7197872766386776 0.0012542067294728715 -0.0032704593074473444 0.45695119189261457 -0.18411039547217029
88912000.0 0.6754261922734001 -0.7223904778774815 -0.17718324024772208 -0.7545067747988204 0.0012361571142014284 -0.0006049774424002907 0.4639192519078571 -0.1986045520708281
89911000.0 0.6687700382932092 -0.7312106188002877 -0.19118806827527626 -0.7886269877820365 -0.0012286264070141622 5.0166434121533576e-05 0.46801793163207717 -0.20854341971117743
90910000.0 0.6618689742256882 -0.7357413090057097 -0.20702227873947687 -0.820653794714016 0.0010676949499194214 0.00024009679500685622 0.4563965564983076 -0.20623440074945568
91909000.0 0.6522709121829243 -0.7416213685985967 -0.2260247929448029 -0.8527996608865761 0.0007511645384602922 -0.001851160029029294 0.46639553313869264 -0.22425382628012092
92908000.0 0.6447759644374483 -0.7496260366267692 -0.23977563877816913 -0.884171679762206 -0.002624112724097764 -7.173290648100702e-05 0.45831861700872456 -0.23565408496610024
93907000.0 0.6413184644601929 -0.754929717174003 -0.2531997440442267 -0.9140550553768291 -0.001236608983541131 0.0001450284819143139 0.4441533929538219 -0.25546832548010295
94906000.0 0.6258177437700625 -0.7643746354050142 -0.2713255048004372 -0.9444351737492563 0.003741416653783091 -0.0007661851497481136 0.45736636858629665 -0.24597991384701282
95905000.0 0.6198426680202678 -0.7703257625754938 -0.286566072673978 -0.978910764350976 -0.003304020656551484 0.0025531300057147696 0.44889290222217126 -0.26087199711650955
96904000.0 0.6115608364475363 -0.7795774438839221 -0.3055625845817246 -1.0128000673542317 -0.0007837381732320007 -0.0046436549547117486 0.44406208933348534 -0.26315585083706516
97903000.0 0.6022259506487998 -0.7832810645267441 -0.32528878188054056 -1.0434366063152443 -0.0008044909637957193 -0.0009480702978424304 0.44382680656245294 -0.2644109213583564
98902000.0 0.599371773658146 -0.7913493543776278 -0.3420055743592449 -1.0853775080824197 2.8537004549188003e-05 1.4897788986276565e-05 0.44491702548652473 -0.2948342729080577
99901000.0 0.585976648489452 -0.7965086770469417 -0.3629409746172382 -1.113529924873099 -0.0006669446822495448 -0.00021249989508951225 0.45326708580117386 -0.3116089630070215
100900000.0 0.579590161778364 -0.7993080784952258 -0.394175745426832 -1.1382930579658304 -0.0014502304686137997 0.0019553117328713083 0.4544289642529106 -0.30563588969888156
101899000.0 0.5703539261720016 -0.8080401187398946 -0.4161121816466208 -1.1754873992664874 0.004340782399394223 0.0032791848127254625 0.4467638879147805 -0.3137305564656866
102898000.0 0.560499649747182 -0.8130015725607709 -0.44929579256459196 -1.2070557237260238 0.0013902722648727564 0.0014359356397922495 0.44129635235222214 -0.33042742909846845
103897000.0 0.5530473511599681 -0.820158198886619 -0.48481928517208295 -1.2441158422676044 -0.0010197844617439405 0.002911696388119067 0.45215956639441773 -0.32302264223737037
104896000.0 0.5466862232619826 -0.8305341115863634 -0.5260279630138442 -1.273020544569688 0.0013972267486658796 -0.00024555546803436273 0.4328551343292628 -0.33124079611182533
105895000.0 0.5346133964135918 -0.8318536190437135 -0.5690778039061544 -1.312881359033385 0.0015210790551762963 0.0005878228413425136 0.437332526522174 -0.35938362510238553
106894000.0 0.5252226934020412 -0.8387746793600207 -0.6138258091707887 -1.3460397177616366 0.0006413163597619729 0.002264533302351205 0.4266911872781062 -0.3712112841027332
107893000.0 0.5172303287499311 -0.8441959916993436 -0.6611431328230506 -1.3837719401006519 -0.003562360293419763 -0.0016108927787926355 0.43796634426685305 -0.3753126371846921
108892000.0 0.507874682106932 -0.8489000652607954 -0.7185701792575874 -1.4228512952454726 -0.0015079440968389993 -4.790786375340771e-05 0.4282037654110246 -0.3791922201216953
109891000.0 0.49456409919205335 -0.8570643461201456 -0.7717158100414158 -1.4534294711502591 -0.000867504250545722 0.0014887517628893359 0.44149321579632267 -0.3657928972490057
110890000.0 0.4785732643154181 -0.8698706804729568 -0.8482315714106358 -1.4632101100874897 -0.0024170158164672447 -0.0019154078799428537 0.42234716435244707 -0.37985453601799607
111889000.0 0.474936615160606 -0.8624103591677146 -0.8869323526205138 -1.5234116709133616 -0.001140038836919582 -0.0008474570458017603 0.4200164709017815 -0.4017816719752319
