! Created with skrf 1.9.0 (http://scikit-rf.org).
# Hz S RI R 50.0 
!freq ReS11 ImS11 ReS21 ImS21 ReS12 ImS12 ReS22 ImS22
1000000.0 0.9670944463774065 -0.006789028958212494 -0.006795922407075621 -0.040010505851406176 -0.0027803622562757716 -0.007564587777551207 0.338754153285345 0.30326769258186564
1999000.0 0.992787436159796 -0.014140409419421195 -0.0002508357173736473 -0.029095550181599 -0.0023969533057955424 0.001991400134663001 0.2446079939063235 -0.03911386035581244
2998000.0 0.9972452291650484 -0.022754482412045994 0.010124980771407274 -0.011428218814786185 -0.0026978865333460544 -0.0026076543846894297 0.18106180517053055 -0.1338212342656756
3997000.0 0.9981909632254736 -0.030995382894249628 0.013979110852833803 -0.006745528453026062 -0.002422221736882678 -0.004074615655871491 0.09555923874302084 -0.21755835065587426
4996000.0 0.9949907070382964 -0.0392516232928151 0.01101730516246263 -0.002609653130508777 -0.0040412596611385885 -0.001976944875623501 -0.03556890896071379 -0.20744624891471156
5995000.0 0.9936281576159081 -0.05259572560604279 0.008582343670795241 0.0026255501080841835 -0.0012183827744992274 0.0003197101007155776 -0.12426831047852228 -0.12581300711299126
6994000.0 0.9926871139638781 -0.0594278322855243 0.008016114100281956 0.0040546593785620024 0.00221994182439462 0.0035895885723023313 -0.15425278476993215 -0.03135173140690931
7993000.0 0.9956261993431265 -0.07036165268326995 0.007491931974345993 0.0017084016807156744 0.0015474775680600777 0.0016292274116128992 -0.17288881932779876 0.022828965578837738
8992000.0 0.9941424834162066 -0.0754892451745117 0.0018153119689000886 0.0006785117093080147 -0.0006682471318547788 0.002027968892743886 -0.17182459766468874 0.06896886224070858
9991000.0 0.9919828766092995 -0.08347476563458758 -0.0031114751263804892 0.004984860228724124 0.0007178771765668312 -0.0009342717761071639 -0.1487449955744888 0.08231277784642739
10990000.0 0.9916162204482217 -0.09565895119633946 0.0006807213815361579 0.0032244789775417214 -0.0018995112196869477 -0.0015268975949890699 -0.14376656947084954 0.11751207245038016
11989000.0 0.9903543167291746 -0.10002792027174091 0.004986777362243354 -0.0036613063547069127 -0.0006610404166096569 0.0007510326217985017 -0.11656116084545753 0.14181003342274265
12988000.0 0.9896528368968532 -0.1138752304191314 0.004309659987495067 -0.0031473841100799916 0.0010083714742063516 -0.0013337854819298752 -0.1397902744085679 0.16518776186744977
13987000.0 0.98719109195469 -0.11691384127769765 0.0023331887715720263 -0.0027918213095952647 -0.0027263242796486706 -0.00030698937717640694 -0.10197055452484945 0.18246446250266024
14986000.0 0.9887248755392566 -0.12640840748495122 -0.0017879086824262149 -0.006852728849575544 0.0010032638759423836 -0.0006688810413235416 -0.08254844685880998 0.2107604986579749
15985000.0 0.9879173867641543 -0.13638401429084213 -0.002669160383193009 -0.0012748232439412724 0.002219826452702875 -0.001608651335834018 -0.06425218822191832 0.21874783969471603
16984000.0 0.9852795186719274 -0.14793275059166242 0.0023792629334307277 -0.005055919783026883 -0.002081024327463317 -0.003073828603664467 -0.060522578744511495 0.22262739041098334
17983000.0 0.983313432013533 -0.1525478643500693 -0.004330812657161048 -0.0019312972528002172 -0.00046987995053475424 -0.004789727162825713 -0.05978929532564391 0.2335467907740822
18982000.0 0.9796232869997674 -0.16254282848766743 -0.003831274552780794 -0.0010520981146881325 -0.0030100938064664437 -0.00032570105420976994 -0.02174462310277126 0.235358168947603
19981000.0 0.9825932414129199 -0.1675630887476449 -0.0072318100216005755 -0.007418551236169868 0.0032269424003350208 -0.0015398485256089493 -0.0193291662490281 0.24806443703916414
20980000.0 0.9782132545856187 -0.179739643468022 -0.0041265429035589555 -0.003512750164584329 -0.003340628848543543 -0.0025615524661381896 -0.01422955698186418 0.24796149477536222
21979000.0 0.980257517444423 -0.187124035809665 -0.005509966414034445 -0.003208844378091964 0.002402569621202305 -0.0009300959646191425 0.009184144729896124 0.24993253280103478
22978000.0 0.9743681893908352 -0.1957774694525017 -0.004871357496970142 -0.003177350961290364 -0.0010378922901018983 -0.0028997607773309573 0.03136407144869352 0.26109116080626177
23977000.0 0.9772909233871542 -0.20352348007560145 -0.007792621786255844 -0.0037160222904162963 0.002420253649930947 -0.0005761509885715114 0.029600539664421433 0.2537335848403498
24976000.0 0.971991078436762 -0.2129188230390641 -0.004989987272019605 -0.0008686397731156067 -0.002327587460551571 0.004428740368917904 0.055467676779844766 0.25627154668477475
25975000.0 0.9647698291357177 -0.22650396053366953 -0.006229999328576562 -0.0025520792568483417 -0.004606158938980881 -0.024889145730557862 0.07617328666715659 0.2602888601266163
26974000.0 0.9691436142219699 -0.22934797892891357 -0.0024572622797263883 -0.0035842631609905363 -0.0012491364933430286 -0.002919937283144739 0.08526034583049669 0.2719265861493946
27973000.0 0.9702467843659336 -0.23660296019611746 -0.004129037173327306 -0.00010149833044837801 0.0039316118769503715 -0.001068390724184171 0.10757706495475626 0.2547896792723759
28972000.0 0.9641449601173859 -0.24715590537198204 -0.004212425733912197 -0.0017331556315213843 0.0008413123684679994 0.001166879318143811 0.11877113400159246 0.2565173255317772
29971000.0 0.9628848108038792 -0.25751249040032564 0.0005369765467929186 -0.004805978664528521 -0.00011323962622820276 -0.0027774289495984764 0.1485959694614372 0.2658318916417209
30970000.0 0.9613279710262471 -0.26087367656311927 0.00038779890891104806 -0.0032617739361806486 0.0014457269827943455 0.0005098388984731918 0.1635064591830068 0.26319944959941644
31969000.0 0.9604467916915814 -0.26993569748988 0.006619860085197128 -0.001259623542219609 0.00011690842628412231 -0.0006989775318386564 0.14646734402710745 0.2470449528054458
32968000.0 0.9586729494584036 -0.27937148559887987 0.007865030241785495 -0.008990434959666834 -0.0012974443415408614 0.0035286585574412833 0.16110677085637853 0.25103282337023247
33967000.0 0.9565011145783419 -0.2874704751437786 0.008297198698246341 -0.009534071701005778 -0.0015800102715339743 0.00384077191278617 0.18845821196786472 0.24776414454047901
34966000.0 0.951396774181503 -0.2993692226115275 0.01279668062508149 -0.012110720037622206 -0.0013104710677346863 0.003642767127779418 0.19017605845063312 0.24846723620063346
35965000.0 0.9470736871719979 -0.3067535105560109 0.020017093045340596 -0.011667597035558653 -0.0012414109499587964 -0.0007313293744397242 0.20947024398749525 0.24834784492284048
36964000.0 0.9461385284846788 -0.31455500415483234 0.01464687907228409 -0.012986833480178548 -0.0006777271069205497 0.001600953886985538 0.21790639936711048 0.2452690978657143
37963000.0 0.9417668918708471 -0.3249350433116196 0.019513047016920297 -0.020760366606961882 -0.0016497612501232446 -0.002470195296751208 0.23060874899773054 0.23885760660004474
38962000.0 0.9394067582981288 -0.3355422883658642 0.022457341592294486 -0.02443779795331405 -0.00048132255619033696 -0.0006045959920967058 0.22733718261471203 0.22952378309187282
39961000.0 0.9373271711308173 -0.3413372927177744 0.025213475960963204 -0.02472366645252946 -0.0016018273797156208 -0.0024843596364643723 0.2552029405536145 0.22581177322227536
40960000.0 0.93296249485654 -0.3490878820527295 0.023503881359654328 -0.02173051426384782 0.0026688998670535012 0.0037129670431801307 0.2672031937584417 0.23267486789571548
41959000.0 0.9306025098193768 -0.360426231202554 0.03149731054162271 -0.03044069265661645 -0.00252413946355759 -0.0005448757853127643 0.2584305600567366 0.2143455800308499
42958000.0 0.927075377744444 -0.367402072178419 0.030839473604469897 -0.03797455065184057 -0.0010093348552155383 0.0009539079332530096 0.2812130350564321 0.2016702429198465
43957000.0 0.9244379131746714 -0.37531083079263594 0.03446259409258641 -0.04574428257235681 -0.0020775486331557486 0.002027869089283793 0.28325173754206306 0.2008602281523204
44956000.0 0.9202350408763846 -0.3827155616685042 0.035968496998334834 -0.05397431458250098 0.0009373803569035711 -0.0009104719167021759 0.297352729324007 0.19278173369788904
45955000.0 0.9170446476123739 -0.39335280021692604 0.03273047559604398 -0.05806647222543117 -0.0001860752235832127 0.0011968714395696211 0.29999963227223325 0.19042719083556536
46954000.0 0.912502259438655 -0.4012495837609676 0.035068982086937 -0.06498187573189998 0.0019689951384331875 -0.0010066400402460023 0.31690249684712857 0.18022619792098943
47953000.0 0.9094078731459694 -0.40818914774173565 0.038512472369097495 -0.06999989056212519 -0.0007842588321416227 0.0024545776872441534 0.3387054336824478 0.17035403611005218
48952000.0 0.9042547839585423 -0.4210844291268556 0.03783162018262624 -0.0797527958492209 -0.0011654971262387707 -4.021468706339889e-05 0.33359320865781683 0.16973421275153197
49951000.0 0.9008310665472756 -0.4270989170945037 0.039067466723150285 -0.08669447765045676 -0.0021601345139271575 0.0013979625398202495 0.35097624024153656 0.15451394393683437
50950000.0 0.8970945981420815 -0.43589643061316463 0.04003702435645979 -0.0958595641657641 -0.0012850461926110935 0.00017311246873559638 0.3501647311997473 0.1463187152274402
51949000.0 0.8938300581046406 -0.4418603328549134 0.0409398358911704 -0.10401967745212459 3.3020671629979746e-05 0.0037800446717758643 0.35717320881543596 0.1330435777836908
52948000.0 0.8901560586924505 -0.45086418436500664 0.04481115034284628 -0.11248111352596411 -0.003065241578392788 0.001641146252529643 0.37371252346279094 0.1470652956515333
53947000.0 0.884087558044552 -0.45859911588643626 0.04340368537289255 -0.11956820257748695 0.002744995464474688 0.0007806209332668398 0.37281343563448965 0.12798934381583585
54946000.0 0.8791926966088025 -0.4681207527110312 0.04256666056234853 -0.13047636416443328 0.002167502434666831 0.0008481631415561274 0.3751250590834927 0.1286338301054825
55945000.0 0.8754291609048237 -0.47597654916442694 0.047760295313364745 -0.14199346880258326 -0.003364556617388818 -0.0036263034301593014 0.3825325309504206 0.10490954049044092
56944000.0 0.8730661752545945 -0.4834479168621101 0.04529742725156336 -0.1516263407691069 -0.00024833731599500567 -0.00022615916353841754 0.40239974801267814 0.10584121321287437
57943000.0 0.8659641964374918 -0.49523659664686454 0.04859152580183651 -0.1632302238389063 -0.001182994113598331 -0.003828469803889238 0.4069123048168914 0.0894086425030896
58942000.0 0.8601144234280527 -0.5001924523291295 0.04599079912002405 -0.17383974798204693 -0.0020379238398081376 0.0012551637753064958 0.4173897997566081 0.09147424657109002
59941000.0 0.8588487788317647 -0.5071889997182375 0.053495333525925476 -0.17865358144756013 0.00031179770151414896 0.00037121756523970364 0.42281575696707235 0.0905210804224716
60940000.0 0.8503505537234345 -0.5153821699430903 0.05056888541519256 -0.18852266647240362 -0.0014007763891496778 0.002822043638146085 0.4080382827966395 0.08319171085107976
61939000.0 0.8474754526601168 -0.5230283152072459 0.051473547905703076 -0.19384641535300384 -0.0012925616156693874 -0.0009724874953345893 0.4220939021072336 0.058291899585183445
62938000.0 0.8410027383307802 -0.532825235852366 0.05425704913772678 -0.21604875960140643 -0.0007292106216327201 0.002512304858635198 0.4424426778002301 0.05667138973169599
63937000.0 0.8373011850153936 -0.5398782088997641 0.056935732409992376 -0.2319675381751243 -0.0018682966074304507 -0.0029725907884644784 0.4362385651814601 0.041711523616634015
64936000.0 0.8287887715208122 -0.5484050529554072 0.052727661711049555 -0.24716664870280358 0.0002233844557821779 -0.0008080504091527335 0.43881094244506214 0.04148873145477427
65935000.0 0.8266108517483018 -0.5571322327643115 0.05587439464771757 -0.2601082317520749 -0.001533328609946806 -0.004048100206864771 0.4494044608515782 0.018589126577092746
66934000.0 0.8216306314740951 -0.5617078358216838 0.05718236760713464 -0.2729326240094476 -0.0005890818972299498 0.0030498656517795935 0.4397224061052708 0.010864656966112437
67933000.0 0.8178549082421711 -0.570720448609641 0.056778946460786 -0.2860615154214967 0.0012763604876265449 4.2310657590471455e-05 0.44556404506998304 0.014750470553989849
68932000.0 0.8111387762300959 -0.5628459045848536 0.056705984657768514 -0.29960929237025163 2.294632060103151e-05 -0.0017900714859356525 0.4573486103043402 -0.006404004816422997
69931000.0 0.8036331123684594 -0.5895838855082312 0.052669184857700876 -0.31698029948289425 0.00020371931235999585 -0.0014247919605375973 0.4537806550124021 -0.016178907802299712
70930000.0 0.7981745362635583 -0.5960085474692907 0.05298814260040704 -0.3260574938688711 0.0012486141767218697 0.0004752874896209323 0.44073508611597517 -0.03099256725577781
71929000.0 0.7948197385111313 -0.6038000224826898 0.04822311911350191 -0.34688402956385156 0.0003700702110459138 0.0006928288106252747 0.44603830601019867 -0.04161816571585499
72928000.0 0.7880987080914772 -0.6106895683164602 0.04129650227591434 -0.3646865197090995 -0.0007873391808531869 -0.002155180254186975 0.4729811234927315 -0.052693733737926074
73927000.0 0.7829243743372355 -0.6177221672245932 0.03307531488563003 -0.3846116953475539 0.0005504749259837051 -0.0006824905067495331 0.47178962014167264 -0.05799799033256456
74926000.0 0.776894762485921 -0.6267228540271562 0.027630084143746916 -0.40303965395175495 -0.0007643058786246004 -0.00039308039686542184 0.45871905866949636 -0.06118250949463528
75925000.0 0.7676523258793858 -0.6322403625402044 0.01538827659045801 -0.42375377219605437 -0.0003232228742142263 0.0008166249303136015 0.47023907646276886 -0.06901564248373125
76924000.0 0.7632416319330018 -0.6398878448988137 0.004171548043267438 -0.4460795448694467 -0.0005506192805311927 0.0025408005320237776 0.46725410717759414 -0.08815067976861755
77923000.0 0.7580753405993116 -0.6479912175880456 -0.006742447452388949 -0.46805357839203815 0.0012810580837244899 0.0008298363275062969 0.46696676029934825 -0.0901201676958663
78922000.0 0.7518368315555529 -0.6581273830509615 -0.022481293221376444 -0.4993318212740948 -0.0031724190358377066 -0.0009059696020593381 0.4642916901439874 -0.0944449382192585
79921000.0 0.7412871103157642 -0.6601106396269522 -0.038373776745091015 -0.5207929968570217 -0.002206788751570598 0.0011609787825974606 0.4677239740311576 -0.10883038434876985
80920000.0 0.7394539111249117 -0.6719817358284906 -0.05990980832216835 -0.5530227299404619 0.0014413187169346764 2.4656857013377998e-05 0.4727397381454282 -0.11696448594420411
81919000.0 0.7319096546935832 -0.6794877000706635 -0.07325604644848145 -0.5814625008431222 0.00537381796844941 0.0015094455919357457 0.47043149008259577 -0.13329227781334008
82918000.0 0.72330251310951 -0.6851239735686288 -0.09031434724846688 -0.6098802249844499 0.0006287267336257434 0.0009642591161271453 0.4730808046451221 -0.13436625344677802
83917000.0 0.7164816239004602 -0.6911941907495747 -0.10902949131237806 -0.640779090527433 -0.0006482714168923216 0.002965161345452456 0.47646992814477773 -0.15588761924768224
84916000.0 0.7093579720750103 -0.7013686671292273 -0.1281307579494532 -0.6742196374419086 0.0030863953743734025 -0.005123348068748254 0.4674031841486406 -0.15350542583802027
85915000.0 0.7033043508259216 -0.7063167680122914 -0.1442608327198457 -0.7029775726500644 0.0002720823170922715 -0.0018449091669727783 0.4721506922194147 -0.17037386991474818
86914000.0 0.692955419173757 -0.7169237510584532 -0.1615985534308908 -0.741085776030038 0.00017121822579257908 0.0020966261745522115 0.4590470975131342 -0.1668842795615184
87913000.0 0.6886535687084807 -0.7215756083281043 -0.17677637141730007 -0.7715845349101632 0.0009669344920947036 0.0002237909623232314 0.4605759222122736 -0.18943931235177577
88912000.0 0.67930215628647 -0.7290630808905032 -0.19548835647876153 -0.8082397781093383 -0.002475097547169904 0.0005143189393192964 0.4617950049098203 -0.2076648846635827
89911000.0 0.6736344291766458 -0.7373467447224913 -0.2101412862901319 -0.8391124962758741 -0.0016718131190774177 0.0003603672722676628 0.47726525143560583 -0.20508796931343376
90910000.0 0.6663679887926246 -0.7413982531389404 -0.22651053983126834 -0.872214223820242 -0.00047516464994631284 0.0022859870932980786 0.46517447170944526 -0.20593980009419857
91909000.0 0.6563897329763845 -0.7471870904988862 -0.24803758343286775 -0.907836762344852 0.0003934733572123066 -0.0016959762282850773 0.4591466309717456 -0.21936391847178444
92908000.0 0.6478186090350783 -0.7571853873166443 -0.26152902627792407 -0.9415732836795663 0.0003140790057533975 -0.0006503846103575616 0.45957753491354586 -0.22883476581321407
93907000.0 0.641912319810659 -0.7632163445834333 -0.2787281434527231 -0.9723063382866524 0.0024514676231187915 0.0001378806744301151 0.46858523799188984 -0.24285214650087808
94906000.0 0.6288232009038305 -0.7704844834732628 -0.2977291689101917 -1.006567453246948 0.0013863162349439593 -0.0011209305002232769 0.4543941032874334 -0.24605500707689187
95905000.0 0.6230669980857901 -0.7761880742039018 -0.32249385027638794 -1.0401932153590077 -0.0008443394460706812 0.0012306274290414035 0.45951806708938225 -0.26460654187385085
96904000.0 0.6157472102323933 -0.7847257899808219 -0.33763159041724666 -1.0809108651231705 -0.000296189536741436 0.0011963843765069376 0.44928332992137976 -0.2828843499113314
97903000.0 0.6053449073860455 -0.7892177470069842 -0.3610889375159671 -1.1090521551773793 -0.0021968237378507606 0.005463886327186485 0.44982075225481016 -0.28281703284441106
98902000.0 0.5994578315862786 -0.7952800627149387 -0.3792307837171731 -1.151073687341631 -0.0026573640210136138 -0.003164902204543192 0.44702547045090585 -0.2825894400046582
99901000.0 0.5900210371727004 -0.802536963219546 -0.41235426833510314 -1.177164276507668 -0.003344367154348478 -0.0021649563954535115 0.4694112347765249 -0.30679403186923015
100900000.0 0.5796705358979699 -0.8063973072262584 -0.44054840481363555 -1.2098542819799254 -0.001827267794041089 0.002996234689883323 0.4636395854799007 -0.31186175595289956
101899000.0 0.5720482500882449 -0.8135371367011938 -0.4662182241111295 -1.2494616835384207 -0.000692085538683597 -0.0034998422466369873 0.4466488257004028 -0.31223382579959386
102898000.0 0.5626756992459522 -0.8207343579307977 -0.5033305805067242 -1.2843414645910036 -0.0012296118732321244 -0.0008703918234580252 0.44743224791790576 -0.3381143719632896
103897000.0 0.554601136708938 -0.8288033024989427 -0.5435948893556393 -1.320821812679678 0.0015292466010893462 0.00018833333305760358 0.4515817264757339 -0.3247293074149537
104896000.0 0.5478101487551789 -0.8374389809179108 -0.5863805115324396 -1.3518579629147265 -0.0017708845665082896 0.0004151597793040006 0.4355954442391694 -0.33175953072380704
105895000.0 0.5346247765621013 -0.838757591414184 -0.6279061501233371 -1.393718504983445 -0.001575740980761653 0.00039707782551699316 0.43305884060588734 -0.3509092886275379
106894000.0 0.52693823731395 -0.8445485021912403 -0.6852211349924071 -1.4332867519337213 0.0008963944172793496 0.0023389651618547923 0.43058488085103236 -0.36726546158263
107893000.0 0.5187228738820266 -0.8526041543421958 -0.7387607117155187 -1.4676027796698192 0.0021453883929699333 -0.0002588165980185303 0.43240477372168656 -0.38495846934532696
108892000.0 0.5070835051801511 -0.8538545505085814 -0.7971976512560494 -1.5103561508600674 0.0019461945908923403 -0.002919157026828361 0.4373393518823633 -0.37397149145371283
109891000.0 0.49570691288106966 -0.8629426684890019 -0.8562786759760573 -1.5420697038943119 0.0006275870360077039 -0.0012729378953916272 0.4356624095102789 -0.37611376073297026
110890000.0 0.48733752604200414 -0.8787741969910468 -0.9343815585166788 -1.5638666713322915 0.0010553108163257733 0.0013562357574351998 0.4268150572194976 -0.38490879534341255
111889000.0 0.4731108692115461 -0.8688275223828348 -0.9801891493155487 -1.609035235836699 0.004502840100780626 0.0009274328684206326 0.42263810206187763 -0.3868951789342094
