! Created with skrf 1.9.0 (http://scikit-rf.org).
# Hz S RI R 50.0 
!freq ReS11 ImS11 ReS21 ImS21 ReS12 ImS12 ReS22 ImS22
1000000.0 0.9949458544725376 0.018191147240127735 0.006417928921207894 -0.05042002877201107 -0.013073025110480767 0.00931367613368853 0.322919826012404 0.2942091261349972
1999000.0 0.9965755734426571 -0.012984709232372065 0.00013169572957881032 -0.032048824093882315 -0.001900601767524938 0.002328893085519617 0.2602055048211528 -0.0660313725946162
2998000.0 0.9982427379527644 -0.020142916982613335 0.00902166995391768 -0.017789045606557394 -0.0031496509206056437 -0.0009768418891652941 0.21367797869715108 -0.13163068115336887
3997000.0 1.0015226277526854 -0.02841434438652114 0.01052375258685023 -0.014091359622504959 -0.007268193291855006 0.002753822053135224 0.10372431488115365 -0.23833947713174855
4996000.0 0.9998284210916607 -0.03788695130842357 0.009154995262629834 -0.0043014524024479585 0.0011240565764147501 -0.006783434241534206 -0.04716039665818449 -0.21991170706511443
5995000.0 0.9974513779442813 -0.04624931811675265 0.007050785378020817 -0.0019857625124842723 0.0007821531901798748 0.0023933375709398884 -0.12575941265598764 -0.1133948209947042
6994000.0 0.995521324705857 -0.05461787861804667 0.010799025375061404 0.0068896680773227305 -0.00023876904933296274 0.0026681037944384085 -0.15962039333903638 -0.03981691050171151
7993000.0 0.9991896306271623 -0.06713610670060476 0.005677786435109533 0.0008718521436930551 0.0012451359813353648 0.0004175011428834877 -0.1571078309517242 0.033194829942243285
8992000.0 0.99810816321611 -0.07251538397866557 0.00013370728516563497 0.001293126393042318 -0.001834987405075552 0.002374082917720881 -0.16964313303747572 0.05560395479342555
9991000.0 0.995894274249994 -0.08220953251884941 -0.0019309187962606022 0.00426633138307932 -0.004629436245830557 -0.0019938471479504826 -0.14478689542225806 0.09017111136402894
10990000.0 0.9960239318482292 -0.09139598071356353 -0.00015046797944878203 0.004917840883351209 -0.002739333076174355 -0.0013907276341459328 -0.16179919803793555 0.10206384589697234
11989000.0 0.9938941939059296 -0.09758366175278706 0.0046751168120947 -0.00015495763239831183 0.0012891320958290159 0.00021488825562019178 -0.1310611037630114 0.13341826121420244
12988000.0 0.990908550455741 -0.1094549802005473 0.0016678413079728733 -0.00392205452185705 0.003899225618727819 0.0038087296590276205 -0.12044224229539248 0.15990170853014038
13987000.0 0.9899912097571508 -0.11849783338345542 0.0012566809139484482 -0.0021826916621725785 -0.00013231651853843357 -0.002971528905842558 -0.10322243873202258 0.18524854755493728
14986000.0 0.9904024453747922 -0.12357723174449256 9.593339177260983e-05 -0.003929053924844531 -0.002391273804398044 0.003110876640820029 -0.09785833372427641 0.19955368552273883
15985000.0 0.9916394029223065 -0.13396038017224188 0.0016101151835569703 -0.0028915597018528433 -0.0006158426159592679 -0.0009731024162304015 -0.06605745066201503 0.21169836155078162
16984000.0 0.9887552535165023 -0.14551055552267442 -0.004058102378032088 -0.006542506402779467 0.0019790879176064366 0.0014630018160563638 -0.060896668766922686 0.20795428906885213
17983000.0 0.9882548998149006 -0.14839748424026844 0.0002722684541984048 -0.004471468671654696 0.003952216698724977 0.0009493012533481907 -0.060725318986499084 0.22291567420259603
18982000.0 0.9847970638852546 -0.1608815689039046 -0.005431900672928722 -0.006957488030197142 0.001437120325798334 0.0025054532402296577 -0.038324352192596826 0.23413531243942637
19981000.0 0.9858997422772038 -0.16579024106003 -0.0002907432350524385 -0.007180948410749602 0.0012241183241300919 -0.0011447942719235344 -0.016588005595826374 0.2415389057985542
20980000.0 0.9860936432214326 -0.17261486866223905 -0.0056910354282239724 -0.004118949922298108 0.001383988696731565 0.0019270487546035947 0.001995329755129648 0.2546309319116835
21979000.0 0.9809586487981705 -0.18348005729524844 -0.005132634158690868 -0.004672084635185848 0.0026602594540012926 -0.002909702366135881 0.02837017415356998 0.23927010614931843
22978000.0 0.9795128276315391 -0.19063951513331823 -0.006145322906647598 -0.005527970358669835 -0.001260858017046607 0.0008968732509520496 0.026705918824756678 0.25002653344790327
23977000.0 0.9808943007081417 -0.19823213293077802 -0.009309347175154683 -0.0015552375655955334 0.0006019711516384754 -0.001268558425030573 0.02718278312832934 0.2578625943336649
24976000.0 0.976121386370426 -0.2095506870599034 -0.006864616000498796 -0.006981948376183822 0.0010825233418862129 -0.0018552571361327532 0.0575633146903811 0.24902687321912903
25975000.0 0.9731593424871998 -0.22396861202829496 -0.005318583143743688 -0.0025953499758386176 0.02306888787002311 -0.007629946616975815 0.07929062928074507 0.24826921800640825
26974000.0 0.972741499476963 -0.22409402807596096 -0.004626430500866145 -0.0033807645749379576 0.0007859866377031844 0.0009259691947624624 0.077047652713339 0.26355897013999485
27973000.0 0.9713260816445353 -0.23088001823040796 -0.002991187650920122 -0.002098570481800162 0.0021442901073374637 6.307411271622036e-05 0.09976683649882133 0.254132499511608
28972000.0 0.9671397090128682 -0.24283688284629398 -0.0043643620464753645 -0.0014532222061974462 0.002887406618418583 0.00027986838337433424 0.11105311592076861 0.25480138871930885
29971000.0 0.9670012659380927 -0.2515340996746292 0.0005817437355173022 -0.0028153028225708465 -0.004181695323576712 0.0003052530799200104 0.1449478797748039 0.2617202930110484
30970000.0 0.9629468455872235 -0.2566282465096467 0.00381032235813844 -0.0013815913430426227 -0.003472325252230245 -0.0005133757784987207 0.168154441028819 0.24406589307661455
31969000.0 0.9617549919403626 -0.26551413696975346 0.0031926944164476934 -0.004016103403572139 -2.4857434168194743e-05 0.0007347775332145982 0.1455877650915198 0.24780581685193842
32968000.0 0.9606188734528127 -0.27607077410557057 0.008422949246313271 -0.008699083983370359 0.0018490265339478373 0.0027743722038970995 0.1524829358598491 0.2428526459060332
33967000.0 0.959845343233754 -0.28289100693107383 0.012818328657822507 -0.009166831193632088 0.0028287200168251917 -0.0023701058421328972 0.18491675885810563 0.2486892846131759
34966000.0 0.9570203144017384 -0.28971625985504795 0.014805965083998668 -0.010447058350627335 -0.0008391314325470566 -0.0012578756748294025 0.1905750645333435 0.24533601182482762
35965000.0 0.9521627689162543 -0.2988993111646993 0.015454259134976785 -0.014698468515766758 0.0006831492337077506 -0.002032879568695724 0.2070224770116561 0.24281027165661323
36964000.0 0.9498342321783234 -0.3088660625177436 0.016784360624427206 -0.013191685733035698 0.0016875085706592975 0.0005782308315953198 0.2165952904072853 0.24638748579906353
37963000.0 0.9480925640528165 -0.3167014536322121 0.0186634207696205 -0.022312806876457706 -2.4968411772396832e-05 0.0023764515093387794 0.22809202235552845 0.2260934772229511
38962000.0 0.9452462456781158 -0.32553172401077496 0.022446301196314713 -0.026600320981791187 -0.0011925299393925166 -0.0033276980390883545 0.24037469093362107 0.22643557697403943
39961000.0 0.9425227157828843 -0.33466058896478446 0.027056590719692138 -0.028873754777601564 -0.0035683520360733356 0.003946670011015778 0.23593784091282305 0.23045975500159543
40960000.0 0.940082682523264 -0.34265129493971586 0.023656068045478453 -0.023444615737471433 0.003556878990534846 0.0004770627190169213 0.2669445411836863 0.2167970855667373
41959000.0 0.9356938257186489 -0.35045447202453955 0.027408697948850917 -0.03343348184064376 0.0006855725568209471 0.0010875540934454661 0.2750012086711542 0.2090354221140625
42958000.0 0.9322338887559756 -0.3603502668681007 0.03307997175158528 -0.0413290166459876 -0.0016482568665477475 0.0005228247892498993 0.28235815826063115 0.19667700250325248
43957000.0 0.9294921648866901 -0.36740095057886557 0.032304099843841125 -0.04719867963618415 0.0015366266730121726 0.0019310889358824313 0.27908252838370606 0.20918316318470256
44956000.0 0.9249913517729489 -0.37517496972779635 0.03228209058681569 -0.05135426919297583 0.0008950242571494932 -0.0019058898294222041 0.3074252470631102 0.18939761944962677
45955000.0 0.921195517494044 -0.38463013369064103 0.037681255071053577 -0.060348159904757656 -0.00044176753025124995 -0.0006865155064444729 0.30260120468892127 0.18954911509372335
46954000.0 0.9188959034655217 -0.3903998699888134 0.036395719481583294 -0.0654919176294136 -0.0003039630796688513 -0.0009049382805088022 0.32768306148299386 0.18076890217936392
47953000.0 0.9174729208524901 -0.39980543537000635 0.03837997897315141 -0.07255555049856942 0.00022209110945956947 -0.0007445693813581226 0.33197545833941833 0.1687459554636292
48952000.0 0.9110118499359242 -0.409756042197458 0.038154051391934965 -0.08183808236897774 -0.00031328350549714786 -0.0012709670987478073 0.3285233846459269 0.15705628459181242
49951000.0 0.9065982075076213 -0.41588805955685726 0.03935416850997152 -0.09112590136541182 0.0008294626676141427 0.00018134329824790957 0.3524299174138617 0.15224482326719233
50950000.0 0.9036351446371637 -0.42408032199286533 0.04075341382078621 -0.09670231494789436 -0.0011869172106083019 -0.001527260248831812 0.3434043981397114 0.13928130574597072
51949000.0 0.8998068107201759 -0.4322548555280618 0.04009770752154859 -0.1053156509258066 -0.0015018771565597977 0.0006354195530929599 0.35930892541630255 0.13351230399548183
52948000.0 0.8957272267215389 -0.4406454179300413 0.041854409430223165 -0.11529272013209355 -0.00220917328111845 0.0022558430678778036 0.37396004354037454 0.1335489290607798
53947000.0 0.8930650685866941 -0.44649807150338666 0.04207217684744909 -0.1237187674413505 -0.002521817632731502 -0.0016741320130875227 0.3738235231105983 0.11845331802098245
54946000.0 0.8867401771678718 -0.45809385944071684 0.0451236490066158 -0.13469519979898226 0.0014846995554052115 -0.0014325390719905574 0.3850268944746609 0.11260423645333396
55945000.0 0.8836530933765094 -0.46484983867817564 0.04706417756576741 -0.1461661775764418 0.00010238999632481545 -0.0021005191252607886 0.38977490501267453 0.08738471967438313
56944000.0 0.8809682766717792 -0.47298509122693866 0.04931201708151503 -0.15502724008109792 0.0009474353927445371 8.966006034603517e-05 0.392994063134778 0.08832639350079972
57943000.0 0.8754827931574418 -0.48250792778382806 0.05085020275191501 -0.16756321917586547 -0.0035073804934380886 -0.0032939671065828793 0.40555917163130406 0.08855280712078231
58942000.0 0.8713528079923816 -0.4875395309734298 0.051132269887041316 -0.18101602868132635 0.0033242693507141738 -0.0035411572716277893 0.41335564223176924 0.08729883349078368
59941000.0 0.8679873539647728 -0.4956199058383675 0.05505230338561443 -0.18864821414958652 -0.001751750389585135 -0.0022593516552737703 0.4211960177042442 0.07791355941898699
60940000.0 0.8603796974809272 -0.5042290885179357 0.05398676821915923 -0.1921552111994124 -8.166933772006743e-05 0.001098760968665731 0.406340814813946 0.06172246531521921
61939000.0 0.8579458983616055 -0.5107363888636659 0.05396892893503606 -0.2004724707262696 0.0020131428935260035 1.9797736941133385e-05 0.4159460738919098 0.05473868129756078
62938000.0 0.850359420379155 -0.5228992701289873 0.054032297096070186 -0.21896955096670861 0.0015808958287575464 0.0011430837781706948 0.44559646337164344 0.051688563041002215
63937000.0 0.8477140126032716 -0.5275202074319619 0.05386867837181007 -0.23753960557078577 0.0023900192921149734 0.0006582867954487925 0.42927101336393897 0.03224128480245502
64936000.0 0.8410832770061692 -0.5327479110203659 0.05689249348497103 -0.25466692079471676 0.0032854161072142767 -0.0007786191743085878 0.43419335206744464 0.030695659711471847
65935000.0 0.8394190326511642 -0.5438641008790556 0.05695330629027625 -0.26986492218783453 0.0011367409395338917 -0.0030030586330725556 0.44295135723786516 0.012952610211580756
66934000.0 0.8326028510338873 -0.5514226216707495 0.05389097013181051 -0.2829264893460178 0.002612516884061845 -0.0006485577838834311 0.42916500690669734 0.005137129511162698
67933000.0 0.8297611809186545 -0.5567881916011508 0.0600205693148955 -0.29645934278137676 0.002141650462656799 -0.001302681074323996 0.4482271235855948 -0.0031543968034986707
68932000.0 0.8259327675573662 -0.555607209967644 0.05312794811186423 -0.3102601988464409 0.00047651729038239253 0.002361059687380991 0.44989886092222325 -0.013852700766494294
69931000.0 0.8157303597328518 -0.5738823624534143 0.05183354167818907 -0.32850327863597567 0.007655394491518582 -0.0020270700388558237 0.4469856640374622 -0.024786658573494345
70930000.0 0.8105899744248949 -0.581403629389126 0.0499680031309477 -0.34442343222746274 0.0015170622381573055 0.0021859964405408225 0.44877004799845904 -0.04328544035482058
71929000.0 0.8081176026336523 -0.5887320144748698 0.046655028527761426 -0.36018963124688047 0.002638985612640944 0.0023612461431994124 0.44769187415621364 -0.04695535673953468
72928000.0 0.7994146055392506 -0.5998051558885805 0.03887527345541158 -0.37896422606247016 0.0021388506427283895 -0.0013966446689836164 0.4585161517506797 -0.06045739365038541
73927000.0 0.7946300454306806 -0.6056415657043648 0.03139391428693941 -0.4017642859298805 -0.0011853224902923034 0.003801580338934224 0.46468796974141496 -0.05764945061673861
74926000.0 0.7900752935616572 -0.6142101119490472 0.02807454008001733 -0.4195248855225344 -0.005450588558385857 0.0008053621469209936 0.46109724845961425 -0.06979506792877814
75925000.0 0.7818128317386078 -0.6188273431595112 0.018915215260940855 -0.4379816867848155 -0.0034932821468808216 0.0025067773356011736 0.4654146920979152 -0.08913862406612959
76924000.0 0.7761637098185526 -0.627462000992651 0.004778748204421406 -0.464764724751824 -0.0020489769173112644 -0.004215184444401648 0.46600580335734737 -0.09788769004462865
77923000.0 0.7721703181489905 -0.6335882807775777 -0.008941037192663419 -0.4860035488932971 -0.00014533970598523812 -0.005380445928958689 0.4586304950551238 -0.10159428625415926
78922000.0 0.7667745264606393 -0.6428128224320533 -0.02220398980971172 -0.5177588436242208 -0.0016811993590990484 0.0030976591767760617 0.45104993810651195 -0.11093690916512747
79921000.0 0.7581361964420952 -0.6486940748406084 -0.042173796500021996 -0.5396718228273315 -0.00488900593918387 -0.002030024703205566 0.4525460496647729 -0.12203554793095672
80920000.0 0.753627506602808 -0.6577861931179725 -0.0499451710260181 -0.5703911848268185 0.000728608635178856 -0.0021527689277762267 0.4714150083634207 -0.14562537697364422
81919000.0 0.7460170523123363 -0.6656509876746317 -0.0759676919092267 -0.5963055169885525 -0.004502509536975644 -0.0012488894932008085 0.465536826684232 -0.14804936523259843
82918000.0 0.7385535727694663 -0.6711177988233188 -0.08958479502256994 -0.631124356482749 -0.0009297739132513432 -0.0008266516148253046 0.46279093607817967 -0.15399511191230147
83917000.0 0.7303895014697266 -0.6801566806610106 -0.11240461115925085 -0.659928480415217 0.00024054391261695967 -0.0011748298450805226 0.471116046421172 -0.16886203398480107
84916000.0 0.7250333730427782 -0.6881963655666975 -0.12638563764224375 -0.6926058036219184 -0.0020698598661666023 -0.0030941024746657594 0.4557638714226566 -0.17308605088461673
85915000.0 0.7183929055515639 -0.6938392286244572 -0.14671355820481138 -0.7259591412874994 5.786092473046675e-05 6.350400527144144e-05 0.456444916579656 -0.18589354576636274
86914000.0 0.71158153581943 -0.7047416942475174 -0.16478112997384745 -0.764251362205225 0.002133368791151816 0.0004202134236783009 0.4475282971618063 -0.18185928217018224
87913000.0 0.7060200911194126 -0.7102920458380035 -0.18447449985943154 -0.7935664836058871 -0.0005403989951989745 -0.0022858004264302996 0.4644652144808688 -0.19530575252982324
88912000.0 0.6995068738209642 -0.7167638167703653 -0.19931415810973968 -0.8271014535950264 -0.0006077948546403179 0.0017927595274776131 0.4506200429179617 -0.20852860835294124
89911000.0 0.6896035449518974 -0.7251191494421978 -0.2169782353484878 -0.868532539859651 -0.0019122499408655105 -0.0008401370565145017 0.4707017188834825 -0.22485754699617042
90910000.0 0.6832383187013417 -0.7298852647636913 -0.2318808645233188 -0.9053810807554563 -0.0015689205210881708 -0.006437594738922948 0.449310761030001 -0.22876123129508058
91909000.0 0.6759948809292601 -0.7360794997535494 -0.2579639337626805 -0.9355279248807506 -0.002303212697083452 0.002260997748604269 0.45280991030620915 -0.23968725231117904
92908000.0 0.667075355285749 -0.7431858957591914 -0.2757264427771862 -0.972776084715511 0.0014503677503935376 -0.0029501500630168607 0.4605819173975048 -0.24628134203069077
93907000.0 0.6623767271138719 -0.7491427616942684 -0.29659132743662137 -0.9993416727573122 -0.0001623219905602043 0.001718062229310994 0.4576009374808937 -0.25410351633263006
94906000.0 0.6484434462072273 -0.7580278658096249 -0.31493830444384013 -1.0406737738037983 2.7584159554880063e-05 -0.0037859392500521785 0.45062574436381575 -0.27353667666614095
95905000.0 0.64217709948827 -0.7625136328898211 -0.3428361532196205 -1.0728153010982706 0.0010862124022008245 0.004910190262067766 0.4485358704838943 -0.29564042338498836
96904000.0 0.6357822804563701 -0.7713115547706372 -0.3504307761334165 -1.1158744562729856 0.004035374371121814 0.0006077491326972164 0.4432898714796738 -0.29590127440167313
97903000.0 0.6269591462433795 -0.7764709244175038 -0.3801608644909812 -1.1485655751808297 0.003937555666440637 0.005810684011937082 0.4320392006110686 -0.3081689389739804
98902000.0 0.6206199746944877 -0.7848037002194965 -0.40218773444186245 -1.187132955607552 0.0011742013198028497 -1.0302853839899723e-05 0.4400621140920382 -0.2957118682532813
99901000.0 0.6095613276341165 -0.7892684444154177 -0.43358193293935837 -1.2155023354270325 -0.003706752646310231 -0.0004234727872438779 0.4547006959679975 -0.3238928213564153
100900000.0 0.603146236508105 -0.7935355697453701 -0.4649175187800354 -1.2491630334669754 -0.002736615061170681 -0.00025928037554035974 0.45213960752113524 -0.332388674349223
101899000.0 0.5956651492972472 -0.8021175643486983 -0.489950585502557 -1.2919164025333456 0.0029737854059582645 0.004462107615769664 0.44508631988286773 -0.3230951215077775
102898000.0 0.584888516444822 -0.8064906557648237 -0.529451931520007 -1.3320072131751892 -0.0016673428379314096 -0.00047612656390904473 0.4401325310965156 -0.36106770507977415
103897000.0 0.5751880539701789 -0.8150555447452636 -0.5725647987487013 -1.366042393534644 0.0035535901582535927 -0.000517112841577357 0.44513253431811556 -0.3471917005654537
104896000.0 0.5675068383297929 -0.825431725604197 -0.6193457169590539 -1.401965505191007 -0.0003841028804342735 -0.00022348701452230775 0.42518452206721163 -0.3605765147932916
105895000.0 0.5541914881809514 -0.8265122031723322 -0.6724642148154389 -1.4441706411964117 -0.0016172459843613002 -0.002701926834643612 0.43074823352017677 -0.38063381764531545
106894000.0 0.5459744260329062 -0.8337798126862023 -0.7280502294218505 -1.4754690735368838 -0.00022374545178986696 -0.0010754046637444661 0.41514606044505503 -0.37782733898032145
107893000.0 0.5404594289880507 -0.8389269942038522 -0.7779270655833541 -1.5184775846185126 -0.0019002511552612326 -0.0022511106154359346 0.42007247352677807 -0.4019634814297119
108892000.0 0.5297716442895537 -0.8444008567213456 -0.8361524523460903 -1.5494790979808728 -0.001423719849006906 0.0014080259923892572 0.4142732650536087 -0.3915378235200559
109891000.0 0.5180629996541009 -0.8517209391516656 -0.8997407923573799 -1.5876181871495787 0.0016178160566486497 -0.001951151151435945 0.43028201940047517 -0.3901126227356007
110890000.0 0.49991312550658207 -0.8652353174173141 -0.983488712229577 -1.5933042620344076 0.0021440192143467717 -0.00019114028114411666 0.4176756556161542 -0.4130276338825476
111889000.0 0.4986658855856904 -0.8585839199292281 -1.0347395996250521 -1.6599423404045655 -0.001541175129070909 -0.004227375186286789 0.40327649281803785 -0.42115554963740304
