! Created with skrf 1.9.0 (http://scikit-rf.org).
# Hz S RI R 50.0 
!freq ReS11 ImS11 ReS21 ImS21 ReS12 ImS12 ReS22 ImS22
1000000.0 0.9878828965599274 0.0036237297062547665 0.0009139473901728012 -0.05675629094654284 -0.00701129738096067 0.009270829888453031 0.319059720371222 0.3419371751384128
1999000.0 0.9933616230764063 -0.013133899412121888 0.0025095781730872582 -0.020766711568172367 -0.0040418965643873265 -0.0034321682794545383 0.22016547047755708 -0.023669433534327516
2998000.0 0.9986104362227344 -0.02303935791054377 0.01021562429874853 -0.016044534916500965 -0.00043832799481653435 -0.006753754096432303 0.16652358908410134 -0.12514200492060756
3997000.0 0.9954807339986702 -0.03400158773394043 0.010805995919497886 -0.010005961337512507 -0.0030048965381383234 -0.0014041837613305175 0.11014590825456551 -0.2125214152968515
4996000.0 0.9965749434289968 -0.04199781554726133 0.015800561311006715 -0.003847237242323078 -0.0015366983145653195 0.00036075030173390903 -0.03397230229606349 -0.2095801689151788
5995000.0 0.9930060271046134 -0.050317764184746046 0.010503429088089822 0.0036600983547397515 0.0023731337889700693 -0.0002998668927450375 -0.14121878293761214 -0.1074072090207151
6994000.0 0.9916677727560581 -0.05817174769361186 0.007162682471595302 0.0060398801761956675 0.004020298061451414 -0.003499644450224909 -0.16500874054913267 -0.041671301215573
7993000.0 0.9929977262768462 -0.06783049138855957 0.0033320763721514475 0.003415691032551107 -0.0013763596099993038 -0.004148477163449567 -0.167575040098371 0.03763515128957709
8992000.0 0.9909217017252909 -0.07489102114501901 0.00310798161681685 0.002602929649765533 -0.0015356060325241296 -0.006314261153743604 -0.17057015328808459 0.0791620305973093
9991000.0 0.9901927256797983 -0.08047209775258563 0.00037076958737583337 0.0030726414385421146 0.0005468040494609649 -0.004000477874281783 -0.15844546798769546 0.10132375120947791
10990000.0 0.9884538848956245 -0.09045896447974303 0.0012315301817379342 0.0017183192223997645 -0.0014320690790987163 -0.0007387835798597281 -0.1590097692130024 0.12338622052655523
11989000.0 0.9878860408193847 -0.10211861968417464 0.0023948019332438765 0.0003973776517462846 6.479987666633665e-05 2.5803442703010742e-05 -0.12452356555461998 0.14283611005122013
12988000.0 0.9844501994712298 -0.1090449782706921 -0.0011040285134230464 -0.0021808351571929725 -0.0020190146709383764 -0.0003678153030864793 -0.11120948332078918 0.1722036870236033
13987000.0 0.9832283881406901 -0.11850069618048822 -0.0018399796972564473 -0.004266216670574066 0.0006749058671120901 0.0007700135832066067 -0.10408679899806925 0.18935364622931225
14986000.0 0.9839989279416315 -0.12345585108337294 0.001956333408744999 0.0007586663479113671 0.004940522042194303 0.002910329904236327 -0.09753109198148154 0.20884244841408509
15985000.0 0.9851252677818146 -0.13363777402668847 0.004024510006818666 -0.003019825819979759 0.0012326361197494977 -0.00207728322401855 -0.06670080614539393 0.2251336424253705
16984000.0 0.9810473784779303 -0.14153851260904451 0.00017192070678939038 -0.0038804410486325295 -0.0004681851850428883 -0.0034644068592772637 -0.06433720381340695 0.2143127657295107
17983000.0 0.9827609870545622 -0.14709203686312403 -0.0017846644957876482 -0.0026929672020793377 0.0008314721046226315 0.0026590789390799232 -0.0557236244220114 0.23171964192591576
18982000.0 0.9794980244382435 -0.16174387336334536 0.004513261027871029 -0.0058259314818147785 -0.0007003004878877108 -0.0023194936782955956 -0.022423248405748993 0.23894021315421998
19981000.0 0.978115974582109 -0.16479016705280383 0.00015298442475019216 -0.003629890564897169 -0.001654342407798268 -0.0010576735797779146 -0.019273894400578258 0.24745932442752153
20980000.0 0.9777002177848351 -0.1739542094963098 -0.0017426946672039888 -0.009238474342714752 0.002062152942443807 0.0004693720614771913 -0.02064998264785906 0.2681271031396922
21979000.0 0.9761925618416532 -0.18461884660573047 -0.0024074754731300677 0.0009648485435430566 -0.0008129670446522908 0.0018707396242196082 0.0069000969980973085 0.2516401715212753
22978000.0 0.9735405627195696 -0.19365597844544805 -0.006393390866923771 -0.0025767342628481723 0.0041389925300897926 -0.0026276791537896906 0.01936264763543294 0.2514606627784077
23977000.0 0.9754428407521017 -0.1983945854993776 -0.005766473763697417 -0.002603397107759272 -0.0008626434929884471 0.0026912591040413945 0.036011868670623025 0.26481094951179757
24976000.0 0.9694824130607141 -0.21136953190082763 -0.010084324716264794 -0.0033510141847701807 0.004664801968533195 -0.00041261007983909746 0.055957743268558804 0.2639653439810803
25975000.0 0.966968649271219 -0.21602914225306374 -0.004048908473315254 -0.0002529839803859906 -0.025878524201285225 0.001755253962563536 0.07322879381533269 0.2661493445848806
26974000.0 0.9671526923763282 -0.22644603902523772 -0.004737954355713597 -0.002334170411339874 -0.003078247768451921 -0.0025646391601979353 0.08641191444105022 0.2650032404455323
27973000.0 0.965824371905964 -0.23348462762342648 -0.0037194749757161563 -0.0008639840240752717 0.002744113262674462 -0.0018292505050195066 0.09901788734872308 0.2680636705225003
28972000.0 0.9612439134332037 -0.24279689847405272 0.0010180522174276768 -0.003428727323628928 0.0008469874120905199 0.004257657218268775 0.11796263950928261 0.2636608510378495
29971000.0 0.9604222633563156 -0.25363932721392385 0.0012364241717798114 -0.0036943716083305167 2.771599021015261e-05 -0.00024583794704014015 0.143859724253079 0.27132549240318
30970000.0 0.9606215946263605 -0.25674840501064145 0.0025038145121658163 3.043709297640708e-05 0.0009832817984217466 -0.00038368518501174305 0.1639122135059012 0.2565030901833268
31969000.0 0.9586665927454086 -0.2663707383439648 0.0029715653719679445 -0.004022198451235469 -0.001786312088517378 -0.0011717928507277565 0.15336329660893464 0.2574764099898085
32968000.0 0.9554634706864363 -0.2774834805638519 0.007073548916991026 -0.009129107231955109 -0.0008998231214080663 0.0003746603946515354 0.15815046275875086 0.2537942591257591
33967000.0 0.9538618553675535 -0.2868121250710445 0.012146772395039756 -0.009805818971564798 -0.0014316178648686654 -0.0008392319986832505 0.1792221231082407 0.2539117094711755
34966000.0 0.9506866736551997 -0.29267794431492794 0.016491740424367338 -0.012083234046615507 -0.000849627631692247 0.0010524637449461258 0.19111842573408713 0.2561492870923599
35965000.0 0.9464723220535999 -0.3011156235409694 0.017286148409343328 -0.014186335276249365 0.0005887238807234731 -0.0015538152292363765 0.2214911370067922 0.25151127913562527
36964000.0 0.9450510375048963 -0.31113064722704403 0.017288794621479763 -0.014893381932465588 -0.0036187253155409178 0.0009717307233299182 0.2115967908537065 0.2538461495973748
37963000.0 0.9422599642433883 -0.3202712851022528 0.0213705687889259 -0.021730983929352722 -0.000506486014005711 -0.0007659472035803817 0.22251465930363967 0.2334260077540315
38962000.0 0.9401314363335983 -0.32839618266101295 0.02399059422478678 -0.025970258854921473 0.0016421945616794356 0.001440523107274051 0.24151755877059558 0.24316774487273576
39961000.0 0.9358158132791452 -0.3378302765438469 0.026881932674267688 -0.027323989172083556 0.0015857767628896082 0.0009283338337555918 0.2397518049134141 0.22391001366120325
40960000.0 0.9322606509451232 -0.34521773061848204 0.023895583047763562 -0.026688103319783416 -0.0008396339124530869 -0.00012928705922775856 0.2638689236409853 0.22208827586693503
41959000.0 0.9294366781859555 -0.3556403935953515 0.02973512214571049 -0.032368125588604565 -2.2806691065142118e-05 -0.0005488470525014225 0.27293094727542566 0.2160252670576727
42958000.0 0.9252164840911129 -0.3638974125108329 0.03096670728806627 -0.04117616675621012 -0.0008412674960472624 0.002843994453351548 0.2692897240815083 0.20199961261375013
43957000.0 0.9242106297331223 -0.36823642401629086 0.03139280786453249 -0.04651566484078828 0.0008415522481982102 -0.0001013554143079583 0.2757797788970176 0.20618298298480428
44956000.0 0.9206335575652629 -0.37665051348661105 0.033515637718391944 -0.05067902858993554 4.336213234252107e-05 0.001076946400816526 0.292768814542591 0.2016354166195164
45955000.0 0.916294195274192 -0.3874718690586725 0.0357149274545989 -0.059095765470317224 -0.0024750985795964978 0.0005245912251919575 0.3031946734953379 0.20183641313959036
46954000.0 0.9115489142581693 -0.39725455497923834 0.033610487962835195 -0.06530039296842027 -0.0020178674426117728 0.0007287740892817364 0.3163245634906757 0.18614721920413807
47953000.0 0.9102643795506151 -0.4040664430738264 0.036799072595934006 -0.07311619321387826 -0.002826386163735565 -4.579284677322774e-06 0.3307795481164906 0.17739920402823203
48952000.0 0.9029317850918667 -0.41660046447503524 0.037166950119706194 -0.0789702947326352 -0.0003092800249603751 -0.0012973287428391116 0.33796074355838895 0.17169935114164195
49951000.0 0.8998337138186051 -0.4220311963509531 0.03933971791349259 -0.08440938362846179 0.0009797313165846346 -0.0014480247444116205 0.3543842485769103 0.15168764862564996
50950000.0 0.8942800559456856 -0.43108970592532286 0.03840939606464637 -0.09415674634118965 0.0025071175261089846 -0.0018336030399399876 0.3481209258171239 0.15175964056767044
51949000.0 0.891499067528441 -0.4396457758035668 0.03918288604402177 -0.10464821040639541 -8.578958355818787e-05 0.0003265144077570126 0.3523656083415631 0.1444745416399725
52948000.0 0.8911925411610002 -0.44583366350803855 0.04202691779536646 -0.10959346608184042 -0.0009267561974954304 0.0006796406650501505 0.36906520660895925 0.1428876787399327
53947000.0 0.885275319941855 -0.4538570375788462 0.042544225183385985 -0.1217504054627965 0.0011321814611345638 -0.003841107842020607 0.3737351994003948 0.13691088188725967
54946000.0 0.8789243071952656 -0.4644414982861917 0.04358970404192107 -0.12739195821694446 -0.0010241555593065892 -0.003499947592427836 0.39125550685399463 0.1264218925559326
55945000.0 0.8757361515708492 -0.4715399551182048 0.044008817375062924 -0.13996239698739932 0.002936906587443141 -0.0034871588810424284 0.3880024315070773 0.11077252338827434
56944000.0 0.8717673443153496 -0.47934327471068444 0.04967333259955115 -0.14911195166925545 -0.0013569985628691908 -0.001388284180732083 0.38814536174742065 0.11097370689926492
57943000.0 0.8677595852216387 -0.48938998462674904 0.04642522495356179 -0.1635495119920912 0.0025401690367205 0.00017888680936471604 0.39382741467904897 0.09108601280227625
58942000.0 0.8627236336238009 -0.49370244029875504 0.04978294633817925 -0.17130229716758022 0.0015943583558531804 0.0021289503888351044 0.41184731231100336 0.09726772569466627
59941000.0 0.8570547987533709 -0.5048771633316553 0.04788330446894654 -0.1789580793188566 -0.0003691159282631199 0.0005765488249848883 0.4185615469006499 0.09551117848971934
60940000.0 0.8506319414417018 -0.5105606865663682 0.04804176508685835 -0.18512154561949054 -0.0035956662655109487 -0.0007490120994366826 0.40451385066156886 0.08789892532306648
61939000.0 0.8474827095061407 -0.518329048845548 0.04851417284530725 -0.1889648072714484 0.001111906591989919 0.0014579266890997514 0.41924173090992634 0.07674205050465428
62938000.0 0.8422135744597916 -0.5280743277424694 0.05525003315938175 -0.21085480366948534 -0.0005200146864547767 -0.0010786321371141045 0.4400443431861123 0.05082450623373534
63937000.0 0.8368544539048409 -0.5366441884429852 0.05267349557222873 -0.23089234238885534 -0.0029977570770739997 -0.0014139714440725985 0.43245795095863554 0.04564011221665013
64936000.0 0.8288107821742524 -0.5421994567285217 0.05559430653376421 -0.2433712699574867 -0.0002857208497752924 0.0019698603366989456 0.4331851547509547 0.04613405335759533
65935000.0 0.8266137304095029 -0.5538962048421034 0.054358743010297625 -0.26162484132740615 0.00011436145016344906 0.0003444373915336617 0.43031925572284 0.02118586926093433
66934000.0 0.8215965746236042 -0.5561165156617452 0.053872143954646935 -0.27279661525785065 0.0038309468316769283 0.001437317733928204 0.4295751511354412 0.018274067258421095
67933000.0 0.8179393183181011 -0.5664642225889647 0.0555826266923058 -0.2836943007181916 -0.004525417639277519 -0.0011273226918415505 0.4430252772133642 0.01731710011717174
68932000.0 0.8099543672078338 -0.5728775964296018 0.046866437280506504 -0.2964450787774902 -0.00592631882498878 0.00027220564715782237 0.4505707572299128 -0.005733912321707191
69931000.0 0.8045895836801505 -0.5822232314863449 0.05313424307821585 -0.31013217804037213 -0.0013200434935485908 0.00282695217668075 0.447053958941964 -0.0156217308681468
70930000.0 0.7999676875628337 -0.5884225376210301 0.050668703162338895 -0.3291287376727939 -0.000933140491557387 -0.0016048225130574527 0.4490741766344141 -0.032251957558774205
71929000.0 0.7944428713699082 -0.5965351238489947 0.04155598059952337 -0.34609069891057753 -0.00046648526579163576 0.00011716760502505356 0.4510036926177348 -0.03496419189582076
72928000.0 0.7876810766948343 -0.6067486104358761 0.03992085537070858 -0.3623290206899909 -0.0019297068866209516 0.0014391389139786592 0.46403168470240397 -0.04614936617656618
73927000.0 0.7799328254215492 -0.6125162428988797 0.033333826102470245 -0.3817004252814733 0.000701305426460238 -0.00043385644150504855 0.45503358526323495 -0.05309023066418429
74926000.0 0.7760562820526415 -0.6225577304319904 0.024215507874973896 -0.3986751240570661 -0.0007102383862700782 -0.006937516815631403 0.46482334323083807 -0.050315877893528815
75925000.0 0.7679343427897614 -0.6259731226802453 0.015924661589983118 -0.4203272767017798 -0.003048069157671206 0.005478590187279347 0.4601734283292083 -0.07292941325516748
76924000.0 0.7644994477658036 -0.6331255840098243 0.004370006973118721 -0.4403940620101671 -6.720673889631851e-05 0.0002704022203340092 0.4590923285152969 -0.07082355527931841
77923000.0 0.7570369535235137 -0.6426132772498848 -0.00812099276036587 -0.46742086935633936 -0.0021859395317121067 0.0002347045745490604 0.455626324802253 -0.07821559249402804
78922000.0 0.7511699881825677 -0.6519955225734306 -0.023946595301359112 -0.4940213671640964 -0.0012879895657008104 -0.001606388024247516 0.4578641584525983 -0.10550344536788342
79921000.0 0.7434364895729285 -0.6561047516094369 -0.04004771597027987 -0.5196411138940544 -0.004192931088699328 0.002458517400776059 0.4609888023069075 -0.11271099794005433
80920000.0 0.7403478401938627 -0.6649738592014598 -0.05329489292316787 -0.5465531071335229 -0.0007463658271781625 0.0019052792351770007 0.4622567797885235 -0.12405339249510469
81919000.0 0.7329278833893518 -0.6697875840237745 -0.0742642276579937 -0.5729324267139726 -0.005559643522126797 -0.003960132084334251 0.47453786090038796 -0.12698531145012038
82918000.0 0.7223781347027282 -0.6796199785140276 -0.08550742002593378 -0.6049665148101244 0.0009090945691056155 -0.00041402261303904054 0.47222017448878395 -0.1351759297611169
83917000.0 0.7146285453947965 -0.6862321139613895 -0.1066660998834007 -0.6312655394053001 -0.00511820160067668 -0.00029626223478478996 0.46946689908380196 -0.14564473323000496
84916000.0 0.7100043358367207 -0.6934794217985543 -0.12536861569583127 -0.661155885485799 -0.0011092028014226066 -0.00655150255316414 0.46908303613482755 -0.15959695465306364
85915000.0 0.7054681144833831 -0.7001809871463667 -0.1428944556200725 -0.6961112220457613 0.0005483176061159454 -0.0022833737753754375 0.47023465127279834 -0.16799933330924186
86914000.0 0.6965362462151772 -0.7088900023257982 -0.15764321074986112 -0.7286604388001827 0.00029037924236430767 -8.117485258952241e-05 0.4588554018292452 -0.17014284638832713
87913000.0 0.6881418576093022 -0.7154319719659018 -0.17433469184870412 -0.7641526187451152 0.0001249726312783795 0.0007987634006815524 0.455525344809353 -0.18808203091555561
88912000.0 0.6827611797627287 -0.7214177577063147 -0.19250431795076572 -0.791721091022786 0.0016384894351058007 -0.0021868666827327805 0.461257998178329 -0.20107170297563168
89911000.0 0.673239205829368 -0.7321099471795489 -0.20421706838853582 -0.8318212314847416 -0.003992038822285442 -0.0008797369648337324 0.468300463326826 -0.20457412092657298
90910000.0 0.6696531114999624 -0.7337174288473859 -0.2161010020280038 -0.8643804819479052 0.002345332849612185 0.0007124091477191942 0.4619269863131513 -0.20566945290842226
91909000.0 0.6575469591060457 -0.7406426301938015 -0.23817848704570427 -0.8959586879458334 -0.0024006744578500792 0.00048400125289840905 0.46496285205503624 -0.21996055597503492
92908000.0 0.6511002556603466 -0.7507516749025814 -0.2531740840249105 -0.9275913503386863 -0.0003273764799384359 -0.0004886612024635462 0.459527658387431 -0.22162423682206903
93907000.0 0.6453022933116311 -0.7541701977980498 -0.2758135091978954 -0.9614278208710951 -0.0038622394394860473 -0.0019483589840115453 0.46268959897712664 -0.24323478289172734
94906000.0 0.6312508095267454 -0.7638930116062251 -0.29564825246209653 -0.9916790382629395 -0.0005448695181960598 0.00023439068800998398 0.4567511785321281 -0.23711621133636573
95905000.0 0.6263793528062465 -0.7671859656061415 -0.31402156003331716 -1.0279019321453977 9.07009239870797e-05 0.0008761235886048782 0.4614781226891844 -0.2698826168397402
96904000.0 0.6176126188000999 -0.7771157752715373 -0.33431323107152394 -1.0663942843875889 0.003597839060980715 0.00048693250610059517 0.45202445426995524 -0.264035076415898
97903000.0 0.6076153273762773 -0.7820646745854332 -0.35226589201707253 -1.0944034827418159 0.0017305319593504686 -0.001080516128971071 0.45178449381613084 -0.2778000519713818
98902000.0 0.6046374781575505 -0.7896991819245337 -0.3739940753605397 -1.133620320600868 5.946291126102184e-05 -0.00011055590895272781 0.45023247475182926 -0.29140960487918627
99901000.0 0.5945396391727694 -0.7944737216279172 -0.4009320850729323 -1.1678802160530295 -0.000583854139717354 0.0017092701326928718 0.4595939136977987 -0.3088260239551395
100900000.0 0.5845741528472876 -0.7990835121912327 -0.42901678836213103 -1.1960734521422347 -0.002364279249001847 0.0019474866724163388 0.46532004450085024 -0.30608371671117496
101899000.0 0.5785623461651727 -0.8058312814403839 -0.4530562595352146 -1.2349109500688542 0.001903291673696912 0.0016584039755548128 0.4542798650354787 -0.31320150739315933
102898000.0 0.5663319928399294 -0.8122418620576967 -0.4965249780048908 -1.2656420899868346 0.0010773872403562468 -0.0030263562856158474 0.45347166154761676 -0.33058333611094753
103897000.0 0.5572403624664714 -0.8193007222493067 -0.5303328739845634 -1.3043820557077108 0.002458175926655211 -0.0017779129779077476 0.4536810300469137 -0.32510100153117244
104896000.0 0.5497588971175169 -0.8296017058927323 -0.5759718134323044 -1.3368631136703946 0.00298225626005696 -0.0014509494969677874 0.44235219873350373 -0.33762905751080563
105895000.0 0.5398026813694073 -0.8322154734997409 -0.6206612775129982 -1.376697496762427 0.0008353165417456459 -0.001532081199047588 0.4320696989076162 -0.34874478783041596
106894000.0 0.5296553082049856 -0.8386345865025373 -0.6761645100942416 -1.4134025999162498 -0.001363608192369753 0.0025818210573550784 0.4476917015661719 -0.3586188894282978
107893000.0 0.5227030324247489 -0.8449171119997344 -0.7251214585282861 -1.4550972029740181 -0.0009155397356431722 -0.0017369330796143038 0.43141386584097036 -0.37377696128192445
108892000.0 0.5120027034499068 -0.8471026925137157 -0.783034395522421 -1.4903802114322495 0.002323619795762751 -0.0018865690007363821 0.4319612084927692 -0.3640333729858657
109891000.0 0.5004245375085504 -0.8561783011221163 -0.8386495196560555 -1.5249324185945643 0.0009889495497394235 -0.002356017708682639 0.44056248883877014 -0.3652883922138624
110890000.0 0.486067293436486 -0.857996886743378 -0.9053295137761741 -1.5252277622328396 -0.001968326165545465 0.0023268306694147482 0.42429321848341367 -0.3722507149838483
111889000.0 0.4793492021785261 -0.8639663658544878 -0.9697039627923857 -1.593528886699185 0.0025322293134630997 0.0006606947101515188 0.419201509587443 -0.39399913819399257
