! Created with skrf 1.9.0 (http://scikit-rf.org).
# Hz S RI R 50.0 
!freq ReS11 ImS11 ReS21 ImS21 ReS12 ImS12 ReS22 ImS22
1000000.0 0.9874755662923078 0.008862114873038597 -0.019158077547557596 -0.02431534715055019 -0.006172235277576216 -0.0010035083268252673 0.36634740954971606 0.3265812664333529
1999000.0 0.9974159815999568 -0.01146885236998969 0.006281653956885196 -0.015145165001951894 -0.006833207824382234 0.0001878786885903018 0.24862092755466508 -0.04356842603879524
2998000.0 0.9955682130828656 -0.021085502765645216 0.013073840367003072 -0.014587417063624422 0.0026178661286383334 -0.004029979332022454 0.201346198375063 -0.1227010569143957
3997000.0 0.9996124739968201 -0.031082734007271566 0.005298556685810315 -0.011174873152038677 -0.0068901367929684 -0.005150270096527282 0.0811458536679284 -0.2231526729487979
4996000.0 0.9929948175143205 -0.035984296029120316 0.013331115957120747 -0.0019055185988860349 -0.0006115320184496562 -0.0018922383858401375 -0.03795620030924343 -0.21453593681032693
5995000.0 0.9971197752786793 -0.0496744334763468 0.0077021076433408 0.003793496792471456 -0.0009600742584141883 0.0013269725212887592 -0.1278070937618475 -0.11818078477125762
6994000.0 0.9942634742958183 -0.05863946783053815 0.004677971861952876 0.006448429929384139 0.0035027773165214457 -0.003617781663528469 -0.15661706504511322 -0.02794128601218595
7993000.0 0.9939460231523617 -0.0697294043396681 0.006591890975215461 0.006871682566691578 -0.002643946118373174 -0.00016880681622323662 -0.16729978653108782 0.0359140663196532
8992000.0 0.9941542552098576 -0.07109964960830355 0.004102516514018045 0.006023348021010344 0.0030307459447959087 -0.0017443556823661726 -0.1597821433417699 0.0619646370843895
9991000.0 0.9923427185201066 -0.08288867792850022 0.0025519846628949735 0.0032099668792915648 -0.003359718056892284 -0.000652418615762099 -0.1469109483343177 0.08422696607145146
10990000.0 0.989708109179453 -0.09540626287845065 0.0007587496846676915 0.0036676156796093943 -0.0032836197375039483 0.003521319159856787 -0.14006476267688403 0.111314992778458
11989000.0 0.9900243040508839 -0.10175869975861018 0.006501295934483777 0.0006110722419204777 0.005303215758422842 0.00228677662180101 -0.13014119770025825 0.13536972845929143
12988000.0 0.9868888598384162 -0.11054490914027044 0.002207812932012719 -0.005043822875730015 0.002457994290730291 -0.0012048189970851617 -0.1229308965702367 0.16706881872581061
13987000.0 0.9870697076076034 -0.11679319369055918 0.0028381589060233257 -0.005848818117086604 -0.004401632211728133 0.0024119748868463176 -0.1002967163831916 0.17681786649838194
14986000.0 0.9867080862675539 -0.12357807286983154 -0.0009408684870203603 -0.002557826405348107 -0.0001563002132191658 0.000535385545322848 -0.10660168492759423 0.20952350061174033
15985000.0 0.987820402823372 -0.13468675882532424 -0.001805204812672013 -0.0036604041329210907 -0.00010585757742367153 0.0009935093696380683 -0.07888778853535248 0.2117568671997475
16984000.0 0.9836473327659513 -0.143904398426281 -0.002067994658116932 -0.005332802233394731 0.001298066373511367 -0.0005514592289916346 -0.06617803677073153 0.21683422191061472
17983000.0 0.985736811991587 -0.14816050255942945 0.0005512227634814733 -0.004118465943146896 0.0039446468744807365 -0.002529126913037254 -0.06640789090911811 0.23835345293637486
18982000.0 0.9799940499111603 -0.16252897700632357 -0.002991614044106596 -0.005424912347347574 -0.0014352688408175618 0.0006411099057994752 -0.03546208653449782 0.2375776918691437
19981000.0 0.9815834179241281 -0.16554452947888804 -0.005070490368160897 -0.0029336359392377856 -0.001830993848177733 0.003656329274359094 -0.01773189524934538 0.242030893101844
20980000.0 0.9809783248338462 -0.17782765849884283 -0.00468075786380863 -0.004522340550798188 0.0020075350722344133 -0.0009130342364937742 -0.017908407769493564 0.2603419473495801
21979000.0 0.9793688975758427 -0.18601183451081474 -0.0038517723668005854 -0.0007725927344774965 0.0013777513117366807 0.00040125722307374776 0.01276001924975119 0.2431301938776753
22978000.0 0.9774785705560433 -0.19272190174631024 -0.009522280438568452 -0.0012517990029380242 0.0036972236337030648 -0.002019867877581974 0.017151983086808566 0.2658634580145226
23977000.0 0.9769253517122398 -0.20014384084182216 -0.006472564156890299 -0.004370090673503122 0.0016658175855235504 -0.0019636225252732484 0.03747239258118977 0.25698233906570545
24976000.0 0.972260297065639 -0.21097422890920936 -0.006225708851582699 -0.0034926442780542116 -8.252096657162011e-05 -0.0003658695918757605 0.06238050708683661 0.24567361866101767
25975000.0 0.966015792004186 -0.2239760154135378 -0.005323083208057919 -3.228529635625144e-05 0.0032719323968361655 -0.02263552977910908 0.06812388466091844 0.26056781708022936
26974000.0 0.9707135435189282 -0.22822994180853157 -0.0029812494092960103 -0.0013325871485843585 -0.0017719349426041757 -0.0017888987833799704 0.08288292605932059 0.27127831497031824
27973000.0 0.9689454488557454 -0.23447325226076035 -0.001788559597661986 -0.0012230306722282951 -0.0007802205912731497 0.003489829068177606 0.10045718565397056 0.2650575771459546
28972000.0 0.9641366564834188 -0.24589020199059167 -0.005630615109688926 -0.0008399170577853338 -0.0012817563784489829 -0.000364856224031259 0.11646328129319258 0.268928935978304
29971000.0 0.9631197113502877 -0.2526393575544762 -0.00047555677254899084 -0.002144184698613155 8.781817612475817e-05 -7.298265962220721e-05 0.14165662690832242 0.2669141475867406
30970000.0 0.9609282698909728 -0.26042757343327105 0.002931930690208401 -0.0014286239718043683 -0.002189121035893973 -0.00025460448858277717 0.1593952486444549 0.26213471023802326
31969000.0 0.9597501748041817 -0.26779070310476166 0.004673817442617138 -0.003093003657787652 0.00021850267436649586 -0.000681756833529147 0.14355820916584117 0.25579371268093476
32968000.0 0.9588766765507865 -0.27678033425790627 0.006642726921935166 -0.007448926241532919 0.00043815108887157553 0.0016570619109932652 0.16861123109341816 0.2521155096362815
33967000.0 0.956058781779107 -0.2844220482224434 0.009943476159639905 -0.00797963943187741 -0.0025636591197826125 0.0013881096835464553 0.1864769974202414 0.25597699872865776
34966000.0 0.9527414657587311 -0.2936866575602384 0.015791571484558398 -0.01091601754753454 -0.0010734239899159476 -0.0022751972543876113 0.19948422471596342 0.2542617422863122
35965000.0 0.9491321533484721 -0.3031724294342948 0.015096368114391117 -0.012528760529868673 0.0003456694597441334 -0.003917982591835395 0.207620630386734 0.2531480952837986
36964000.0 0.9455590132022832 -0.31345749696238673 0.018689208922769554 -0.015568546049360898 -0.000842041173362196 -0.0004337522384896893 0.22583337465624118 0.2526949225852665
37963000.0 0.9412892406535327 -0.32327806705512163 0.022285454296896257 -0.01961844261915171 -0.0013070259601967902 -0.0009952487533012333 0.22569352288003333 0.2392547491587155
38962000.0 0.9421401434993045 -0.329161863745042 0.021580732037174068 -0.024560305168903927 0.0008907486300563628 0.0027801206160979262 0.2432821521284765 0.23510709010520464
39961000.0 0.9378871749132783 -0.33942500723604596 0.025852502621095137 -0.027895762576173985 -0.004155947503592533 0.003488340169963788 0.24828980681374319 0.23409913479847397
40960000.0 0.9352465504811528 -0.34741730284069694 0.02270423845901008 -0.02411011035803046 0.001279763615892353 0.00047966903557258096 0.2615338696977457 0.22970020880687617
41959000.0 0.9320765249539958 -0.35567956043422455 0.029887218978895534 -0.03323081777202521 -0.0012749105053741247 -0.0011369550162986634 0.26695152726866805 0.22379738783534892
42958000.0 0.9276954104557017 -0.36392153882317435 0.028130878725357782 -0.04181493804777441 0.00045962618404490576 0.0035512266594849053 0.27087918819609225 0.20057934509372097
43957000.0 0.9253419335535524 -0.371167426859326 0.03348943159280984 -0.047103551787423724 0.0006095812868646678 0.0026246132382849122 0.2824486231202776 0.20478381225687586
44956000.0 0.9224007779574385 -0.3769961029619701 0.03305374242592059 -0.05211789379168058 -0.0011154931911695292 0.0011251078348560285 0.3097575524249886 0.1903851432378074
45955000.0 0.9177606941778634 -0.388257256839027 0.033494786212806084 -0.0556560480115002 -0.0010843942797277822 -0.002329202731535764 0.30819864588206236 0.1890053371771896
46954000.0 0.9143197253701648 -0.3969930769081831 0.03288225428626536 -0.06440542461014742 -0.0012167590210501638 -0.00521897740766264 0.3299525430935755 0.18817948246044836
47953000.0 0.9118268668217993 -0.4038572098848066 0.03651945966800904 -0.07172023189258844 0.0003400204438161259 -0.0017235103526559055 0.3292503698175327 0.17116126055862638
48952000.0 0.9054531444691235 -0.4167823212613228 0.035273757842866835 -0.08072858962909478 0.0013137546665145355 -0.00022036746656501035 0.3313459265997537 0.1603493993089798
49951000.0 0.9022297715095866 -0.4209602465195008 0.03575234970372132 -0.08715468971841285 0.003921241179892919 -0.0013513886663399214 0.34525174776490064 0.15052852916733567
50950000.0 0.8993533373505844 -0.4315725524710368 0.03738529037320043 -0.09411447161176377 0.001075830248157929 0.00019006246940795235 0.35409604266363526 0.13257283198285008
51949000.0 0.8943316685463719 -0.43915175002163204 0.04163692290373129 -0.10223709591488178 -4.447628460179967e-05 0.0026883889850981423 0.35475997249707314 0.1532175826035508
52948000.0 0.8931003053501977 -0.446516322865563 0.03792401301792902 -0.11253740631175017 0.0004114529454802159 0.0006178874903836898 0.36630208668266756 0.1329564526186056
53947000.0 0.8855198041951999 -0.4579913733719171 0.038993755998516254 -0.12010739637661029 0.00019910066339883604 0.0010056428647756336 0.3681483348442112 0.139606779962273
54946000.0 0.8802493598406331 -0.46483388264750614 0.040052115425800255 -0.13055157218436084 0.002849855205964054 -0.0014806317614922283 0.37425760931175744 0.11931627082777911
55945000.0 0.8777523096054541 -0.47308702582748025 0.04509499896883957 -0.14262734541191727 -0.003405784675251023 0.0016225584696476377 0.3867229780837694 0.09707063708099585
56944000.0 0.8722801316494718 -0.48102880701531814 0.0440327258951565 -0.14963349147247088 0.003697297478781662 0.002347620023426868 0.3939260006996855 0.10151657489672006
57943000.0 0.8708520952455773 -0.4906907996604257 0.04467987384715577 -0.16085928082072928 0.006590755029177229 0.0023212808121110757 0.39761472506929757 0.09298140874189287
58942000.0 0.8617536078749293 -0.49540514052090995 0.045836529308103474 -0.17323878177240618 -0.0001786986535799484 0.000315413375462604 0.41608526343595054 0.08662645333312233
59941000.0 0.8612908161233152 -0.5032194643717924 0.049196211173292384 -0.18024909971981226 -0.0026313066468491683 -0.001755382908868429 0.41329017789705663 0.0944587238028297
60940000.0 0.8522749580203879 -0.5124516250958192 0.04610135314656843 -0.18256658666444248 0.0037385547582205947 0.00019695419485494817 0.4097460803864382 0.07295124936771498
61939000.0 0.8493994062241943 -0.5180922500047518 0.047869650841541996 -0.19269684608108886 -0.00042931238357094703 -0.0006166722765461668 0.41804752948254575 0.07025327291863377
62938000.0 0.843482196354343 -0.5299128737681824 0.05131037437911282 -0.20876498221896622 -0.0013837721870837325 0.0017159194783711452 0.4408311753477754 0.05940303129049031
63937000.0 0.8394237633308776 -0.5358163218635903 0.05294060523972067 -0.22894359211354237 0.0012633523664770793 -0.0013116971927685003 0.42806619428786735 0.04559870455113632
64936000.0 0.8328137861482966 -0.544265758057899 0.0502699307825469 -0.24214230192704445 0.0019612914945125594 8.489406076240995e-05 0.44062019971451966 0.04631362362174704
65935000.0 0.8293345401256562 -0.5517062241370548 0.052563112116440346 -0.25542760057582764 0.000927601756861469 -0.0013450214212284933 0.4382239742738766 0.012950791047990748
66934000.0 0.8236711489927493 -0.55962889251893 0.054598906180675345 -0.26913524042360903 -0.0005327577121587543 -0.000263618906961109 0.43569046685339496 0.007250732696127899
67933000.0 0.8212856223775282 -0.565265202096287 0.056366364277370906 -0.2802841071624303 0.00014443227598477318 0.0007562332012672138 0.44709698865424463 0.0066408957977235755
68932000.0 0.804130267370075 -0.5657021308642312 0.04603967362977262 -0.2900794425464584 0.00019088823742085468 0.002462951507348523 0.44812722987845655 -0.018241711226497977
69931000.0 0.8064324022070579 -0.5833696802976256 0.05037932890768846 -0.31131025613754026 0.0010539663559337115 0.0045528043723687284 0.4458372072785885 -0.020244486647946678
70930000.0 0.8016366804463622 -0.5905194820062563 0.049375309764978 -0.3216740814922807 -0.002289400073017686 0.001736663140210736 0.44193987728830597 -0.03263100696204529
71929000.0 0.7987501611325851 -0.5972167871825684 0.046794560733461686 -0.3412313736044978 0.0003212451629321764 0.0026954440939469843 0.4483301372853607 -0.05049660690877783
72928000.0 0.7910829669673682 -0.6093224549482037 0.03673711215635794 -0.35700897624600586 0.002809921706489531 0.0020701520953540983 0.4548640018027614 -0.04128840438885365
73927000.0 0.7824487494871295 -0.6134796011376641 0.03165571932759383 -0.37693722402596896 0.005052100060304768 -0.0028907866818512506 0.4567079930659618 -0.06322906213088535
74926000.0 0.7795398248018571 -0.6225712550165562 0.023771964393487128 -0.39445862044980684 0.0003567258639514006 -0.0007819220020802119 0.4575483893547454 -0.06142156933128833
75925000.0 0.7735155294573152 -0.6272153015650763 0.013520096502939536 -0.41212404177266965 -0.000251982651500556 -0.0003009535824919672 0.4600346637508232 -0.07740901428559256
76924000.0 0.7669654813515858 -0.6341938425711261 0.0005369585429604929 -0.4340264873563399 0.003233328484056274 -0.0004267482977005987 0.46165916789474126 -0.07520518346985829
77923000.0 0.7588789643759478 -0.6424025807394371 -0.011342468144115308 -0.4570546367045079 0.0021166777069998107 0.001882466951287598 0.46432874910333194 -0.10424900211097968
78922000.0 0.7545291290740694 -0.6508583908875464 -0.031128887907724702 -0.4849383318142507 0.005132695244496025 6.437453381501132e-05 0.4562929734246187 -0.10772121690883457
79921000.0 0.7470710389727822 -0.6564080396903498 -0.04768916519569065 -0.5081692741246248 -0.0030221756390405026 -0.0012658853993672285 0.46232556690214105 -0.12152226149399087
80920000.0 0.7395062638633033 -0.6665299100617604 -0.06039368225324672 -0.5376736813048355 0.0018799084275523692 -0.003679843882180001 0.4621865396746285 -0.13518130979019632
81919000.0 0.7359788699633392 -0.6705566736969264 -0.07539085427188999 -0.5648303241798857 0.0009164029545906051 -0.0010108500319328329 0.4585618231156463 -0.13401806572568756
82918000.0 0.7256101036967105 -0.6804081323200429 -0.09526001020079784 -0.596043678776601 -0.0017669467076450365 -0.0002274507025863116 0.4696846534352934 -0.14171673628533896
83917000.0 0.718134459003716 -0.6859655529612549 -0.11814649162054054 -0.6193336837842405 0.003171683206972217 -0.0006607822843527468 0.4670561821139887 -0.15692612763368816
84916000.0 0.7141882334571144 -0.6932297005498295 -0.12925979911992466 -0.6584789049927695 -0.0010056576685593187 -0.0024919983233276538 0.46561831898438816 -0.17044360054326635
85915000.0 0.7062981624920678 -0.6997311946350032 -0.15019311035928698 -0.6872370118275084 0.0008086622844848574 0.0044108707155222455 0.46110462581641565 -0.17707750273737016
86914000.0 0.698228899012617 -0.7108118515673671 -0.16193090499369056 -0.7228164371684727 -0.006511750403736099 -0.0030750149137268833 0.4601767248346601 -0.18299416174961844
87913000.0 0.6915671600169089 -0.7161118134301006 -0.18450323983986375 -0.7531133832303034 0.005408437974241032 -4.949281188782353e-05 0.4565352115110349 -0.1897291175085537
88912000.0 0.6840732263408477 -0.7237540022947184 -0.19647625669888083 -0.7854874041858313 0.0032757780688619947 -0.001874732230496607 0.46124855280446597 -0.21066548761908246
89911000.0 0.6763058285736984 -0.7321847465375412 -0.21429433798202152 -0.8226631448101022 0.0015402556597178185 0.00044913199197588644 0.4676211889007607 -0.21450322341643044
90910000.0 0.6701593643649673 -0.7368716896223813 -0.2296489156493271 -0.8546230693037067 -0.0016474284195038577 -0.001204494100363726 0.4709786256077464 -0.22589388602978672
91909000.0 0.6607865723075315 -0.7427545890723688 -0.24956754701917339 -0.8846361432706855 -0.0022115581627956153 -0.0024325267005877007 0.46030030284412693 -0.22470850930840383
92908000.0 0.6523790411969761 -0.7503505121534296 -0.2667224553012878 -0.9171556253156018 0.0009669602414825846 0.00013099190282205115 0.45071494700575293 -0.2395676495159588
93907000.0 0.648580060166786 -0.756433244956915 -0.28052492381939664 -0.9532239661512513 0.002428652513179132 -0.005368029505975977 0.4595242686917596 -0.24620145648087363
94906000.0 0.6336481030978491 -0.7656692290855742 -0.29632666480113456 -0.983467182096503 -0.0001780458448486158 0.001346402759601447 0.4540214866218599 -0.2495117822822729
95905000.0 0.6276118171738844 -0.7711053075894982 -0.31641339040522415 -1.017484277300279 -0.0019733312507601093 0.0009244640136173726 0.45725764587070944 -0.2596321795112788
96904000.0 0.6194183922060631 -0.7802908158077063 -0.3384169768969326 -1.0514668316175937 0.004024427279706705 0.0009575932665142784 0.4562932568600004 -0.27407360367079076
97903000.0 0.6091820244138773 -0.7837343632966532 -0.35814614430241065 -1.0841266559426148 -0.00047791461607997015 -0.0022017935638615474 0.4459182811784447 -0.2883467201319646
98902000.0 0.6062557164701695 -0.7923361595056995 -0.37651928417522484 -1.1194045958763865 0.00236251800656989 -0.0014355420022879972 0.44184451124307117 -0.3013095301403053
99901000.0 0.5977954148437011 -0.798177210493915 -0.4012256858979971 -1.149050721966477 -2.7585187517883156e-05 -0.00027589501404739667 0.4549073874694573 -0.3171913361974331
100900000.0 0.5887684908452847 -0.7993933811289445 -0.43187059495426977 -1.178374415079878 -0.00046999549046653426 0.0024342035385452308 0.4567062368657088 -0.3128717802071051
101899000.0 0.5791738489993307 -0.8072689758737794 -0.45332531836053924 -1.2171918492917688 0.0011226002130619397 0.0014406436655999596 0.4464577948955143 -0.32878920278810075
102898000.0 0.5678684302285828 -0.813207398256266 -0.49193027207488443 -1.2509201021313594 0.00048064494012510576 -0.0007241494494682252 0.44279183530399474 -0.33552399693780477
103897000.0 0.5607116791055898 -0.8213625917386244 -0.5304569793491449 -1.2850300680356785 -3.094990926938657e-05 -0.004780524753045132 0.4544881695741737 -0.33690992966981126
104896000.0 0.5514922553976448 -0.8311245759044904 -0.5760551957150595 -1.3127897518695384 0.001868331226404826 0.002622161995270437 0.4336426928473241 -0.3482936577948576
105895000.0 0.5414342319523193 -0.8329718911723264 -0.6170772890596153 -1.3516301385496834 -0.0013637736386217872 0.00035315198389544803 0.42734570287051077 -0.35619153466654585
106894000.0 0.5324797576285438 -0.8391373125251 -0.6679991154777062 -1.3841169332556416 -0.0012460919118261271 -0.0005455083016073243 0.4318874408307734 -0.3739449159390259
107893000.0 0.5258987677321676 -0.8443611571050551 -0.7174251299548687 -1.4222286557671517 0.0014893032268239962 0.002045035957867644 0.4207065865274365 -0.39102432034648765
108892000.0 0.5139613092582793 -0.8499615377853961 -0.7777478133041025 -1.4562984723708554 -0.00378243602411573 0.0031558910389890824 0.4205888435001709 -0.38199039243440236
109891000.0 0.5014539389153995 -0.8558143426855096 -0.8344949798079606 -1.4978471329462535 -0.0035799521278545286 0.000824149276448043 0.44530223116859297 -0.3700090171350868
110890000.0 0.49031391935341967 -0.8585249476504967 -0.8942491832710351 -1.4970381635145733 0.0010039443776747804 -0.001613310979270642 0.42613788778852263 -0.38150094417856495
111889000.0 0.48159639937996307 -0.8643557380900848 -0.9643004782394086 -1.5617382535710804 -0.0024573555114347197 0.0002219879521987819 0.40737744079035254 -0.4061823534954502
