! Created with skrf 1.9.0 (http://scikit-rf.org).
# Hz S RI R 50.0 
!freq ReS11 ImS11 ReS21 ImS21 ReS12 ImS12 ReS22 ImS22
1000000.0 0.9848139170892188 0.005036236785305567 -0.011638760604536932 -0.05184275744557072 -0.02775824192736882 0.0063103178739080685 0.33187465128021015 0.3577465897638144
1999000.0 0.9983809272737849 -0.010375549023904774 0.016805665080858526 -0.027059213525895617 -0.006240512751030363 0.0009073818690206734 0.26223948036696937 -0.05735321244622571
2998000.0 1.0008086573924688 -0.019035001195797752 0.01227326482515993 -0.014246262594501478 -0.0033173181590349897 -0.00627379183728124 0.21154303734299792 -0.10539178055569128
3997000.0 0.9965627689247787 -0.03150159700822131 0.008826299390504245 -0.00620842979115367 -0.002897056352043957 -0.0010477366016235948 0.11248884774789213 -0.22823817795748272
4996000.0 0.9941931864982803 -0.04189786314366997 0.012419602077502784 -0.0026750442626970686 -0.002593236682034087 0.0038876924883731274 -0.04140950227009879 -0.19920914420465916
5995000.0 0.9957023423682826 -0.04879429261005077 0.005696797681242301 -0.001287174745515281 -0.00529960322190901 0.0028004062173248435 -0.11399204947791944 -0.11046994458142706
6994000.0 0.9930003931310312 -0.059250457954157405 0.010056286274023265 0.004600881118143706 0.004679471876012603 0.0002683018600216756 -0.14913139644404524 -0.02304648313515553
7993000.0 0.992003597413453 -0.06880807093159855 0.004165011686610534 0.0044222144121240535 0.001805641162557518 -0.0045449388824689305 -0.16181942986121509 0.037288797297329014
8992000.0 0.9889706419147499 -0.07601125771632514 0.005769272202816169 0.001663533655058614 0.0012086643790756987 -0.002325791931031999 -0.15125655531851123 0.05442994258841501
9991000.0 0.989265645494895 -0.081617369847225 0.002141937945321894 0.0026853428807864033 -0.0016020478363667498 4.835691340755506e-05 -0.14890982294719687 0.08791423339183754
10990000.0 0.9900273275398125 -0.09359714026281363 0.007285364653699937 0.003353758782115913 0.0004421654097565669 -0.0029177282487906253 -0.14226324679174504 0.11370459810082897
11989000.0 0.9876252904972875 -0.09802241738576134 0.00447232301926292 -0.0009568520177493501 -0.0016538472354606332 0.0007877798160452078 -0.13234457410030182 0.1299589038973849
12988000.0 0.9868283947881356 -0.10798858580827689 0.002071447333805876 -0.007124840296446548 0.0009139129196187819 0.003535038294434004 -0.11407180065837044 0.1491220495284215
13987000.0 0.9850421593205635 -0.11612074447781415 -0.0014894060516479721 -0.001677281797019928 -0.00031107335603050036 0.0008282135850376529 -0.09911829873711166 0.1917376961442394
14986000.0 0.9840520611170016 -0.12269857051074802 -0.0007251353072854956 -0.003225843930661242 -0.0028751958257805204 0.0029906478270124467 -0.09972829501722741 0.20554484264327058
15985000.0 0.9858506342866777 -0.13386960895421776 -0.004343988653792765 -0.0021165698733374527 0.005001606927771869 0.00030279219258996294 -0.07586109354096703 0.2181455839489048
16984000.0 0.98357499563251 -0.1415344481442866 -0.0007683253680644932 -0.002111536260675994 -0.0017462966497382739 -0.0019794742575019457 -0.07309022103614209 0.2189569574501982
17983000.0 0.9831968004582798 -0.14723811792671543 -0.0013258028893937096 -0.003453942959759945 0.001114400412920655 0.0004894781981940299 -0.05017319705716107 0.22434755124839958
18982000.0 0.979112954840722 -0.16020255626259527 -0.002284251250556972 -0.006803588282548328 0.0021253473292494355 -0.0031045534851492397 -0.031552292844112755 0.23977707252256072
19981000.0 0.9782603612285482 -0.16551741494474306 -0.0012119442519653288 -0.004200587500937005 0.00318181929920663 -0.0007204232015594926 -0.019815472843004955 0.2353657782002688
20980000.0 0.9783493805659541 -0.175789946047019 -0.0010247915085292276 -0.0051033216716317616 -0.000647935466610773 -0.002120521425779961 -0.012028637219915522 0.2532085146307052
21979000.0 0.9756863803469473 -0.18273452038810856 -0.005758062592478259 -0.006589595972743896 0.0012479429146635928 0.001108286306980708 0.01223161873049518 0.24580836820009158
22978000.0 0.9735952797645958 -0.19429955209700905 -0.004669328470205099 0.003175660326661545 -0.0018127181312752117 0.0004369047509996946 0.010203396395607621 0.26192950507188784
23977000.0 0.97442757655603 -0.20016263629394618 -0.00858859620545435 -0.003064351744065151 -0.0015134445880729437 0.0016354806874227276 0.04418319351057837 0.253305734582474
24976000.0 0.9697260958645043 -0.2090666112137138 -0.005869397782830392 -0.000737075061370735 -0.0002504344030585254 0.001003450845373464 0.06114707098610729 0.25234984614930905
25975000.0 0.9672766508014559 -0.223288744656596 -0.0011502363837425636 -0.001187402014826836 0.01879048856445232 -0.016759957761259024 0.06564301668290054 0.2627780455493351
26974000.0 0.9677124354019039 -0.22754169761499982 -0.0018742709350538724 0.00035750493368942967 -0.00033772113231432055 0.0010607489954788235 0.07952204640061915 0.263890486858503
27973000.0 0.9684954690481639 -0.23215708664216378 -0.003983903575770704 -0.0014885643391742923 0.0019132116417436395 -0.00028550175848251536 0.09985610131210383 0.2593908530822682
28972000.0 0.9656730327428146 -0.24219189670444163 -0.0012561954721424739 -0.004283380555620613 -0.003961562349673191 0.0030215576766548457 0.11823973427069397 0.259201513924197
29971000.0 0.9617240904883764 -0.2537748673121613 -0.0023018403609489347 -0.000524283638751466 0.000567828648165655 -0.0001700010515625265 0.14710131812519406 0.2643744982895106
30970000.0 0.9591042666739291 -0.25806637537630617 0.001504581270286837 0.0010834714829205463 -0.0037959065517009704 0.0026353482047831267 0.16301586614152444 0.2460924238068466
31969000.0 0.9586544393037421 -0.2664793905130902 0.0036699890164450274 -0.0026891516907145384 -0.0016150737612676699 9.216980235251604e-05 0.14792959757098492 0.24477264284124248
32968000.0 0.9567833354408957 -0.27517315785264124 0.007243954474781287 -0.008969934285528305 -0.0027140837141923905 0.0011969167027640806 0.16216002972429597 0.23863539235581854
33967000.0 0.953912344390069 -0.286400261187455 0.008251353432741745 -0.006826587360583693 -0.0019219806009707393 -0.0008438087948867065 0.18592128655010595 0.23621316209634338
34966000.0 0.9501080873367881 -0.29607430558430836 0.014397692293153774 -0.012356349634162201 0.0010381785050404227 -0.0009336594067608553 0.18852775656330054 0.24359957784283803
35965000.0 0.9492533126108681 -0.3026556805270529 0.0143264804375624 -0.01524174758753542 -0.0011193799889866437 0.0019325246994427421 0.20058426321678288 0.24923584196254836
36964000.0 0.9469298508501357 -0.3122389961855179 0.018266653501834897 -0.012791435094386516 -0.00013185103954995527 0.0008364892099292173 0.20848999088130687 0.2453393276918981
37963000.0 0.9430919489895271 -0.32120943401484203 0.021192874414282137 -0.01975083419783746 0.001570067409412143 0.0028283211654799465 0.21915254579539895 0.2338756595723368
38962000.0 0.9402562814658131 -0.32886707935134135 0.02535571507281717 -0.02478971818206315 0.0005423393694766903 0.0018047861306303378 0.23518598752548894 0.22831023850160675
39961000.0 0.937172162807431 -0.33928374617102147 0.025751801957803612 -0.02534389795860262 -0.0013214980167531019 -0.0013147868001001598 0.2558391884445231 0.2339415467505672
40960000.0 0.9331454495019501 -0.34588714641889107 0.021694743946055195 -0.023822410986613033 -5.3417523533987227e-05 -0.00039663471220322596 0.2650401012765844 0.2207881082062571
41959000.0 0.9309894337055017 -0.3550111970469512 0.02981701037753449 -0.029733355001344882 -0.0003784157342042825 -0.0008531803115236743 0.2580012051226337 0.21429350949636503
42958000.0 0.9241399161982599 -0.36453623922605194 0.029344081410406526 -0.03918732485421063 -0.0019847126586834693 -0.0013910028886244608 0.2772632096510969 0.202557875877419
43957000.0 0.9232909298796891 -0.3706936031264892 0.03454427371787118 -0.04341372424251108 0.0029542976526754847 -0.00040713237600579084 0.281462636553504 0.19829727230940447
44956000.0 0.9202410532527643 -0.3784046572562805 0.03289587898405243 -0.05241620935232323 0.0015199683518295109 -0.002479864979073797 0.3033480851015925 0.1902185610349237
45955000.0 0.9167849581999464 -0.387919257872463 0.03378728987419551 -0.05381702319979325 -7.979961939634654e-07 0.0030930270260621836 0.3020184280596075 0.19106028843379178
46954000.0 0.9135615546172265 -0.39797497207030025 0.03654719903837903 -0.06366185249935088 0.0005753438095112804 0.0026909965842143034 0.3218957397051293 0.18027690059374674
47953000.0 0.9089770246080041 -0.4065503477120392 0.03564234356786031 -0.07157633958264845 -0.003763957863582879 0.0006356897252407101 0.32633844063000617 0.16205269050582272
48952000.0 0.9044685671039694 -0.4147329029506731 0.03437452305953539 -0.08078173785998584 -0.0035851598652039147 -0.0003258038925182561 0.33077697309031406 0.16621217893165846
49951000.0 0.9014619126890066 -0.42239236866221674 0.03832856891954348 -0.08595449643729992 -0.001470296345917838 -0.00019714207071209618 0.34615428152113936 0.15006419112361147
50950000.0 0.8958639609991994 -0.4303018799410767 0.038028073534092564 -0.09359622125906393 -0.0014972477229072464 0.0037967785872564477 0.34965346123024393 0.13416102913927833
51949000.0 0.8942648792879998 -0.43912954202833915 0.04050899321252832 -0.1014507427806585 -0.0012061014414217047 5.6859550336651554e-05 0.35100267254028433 0.1394882008973444
52948000.0 0.8920799502814647 -0.4455090867791805 0.04227674235075888 -0.10821279751497763 0.0016161643204696183 0.0018877960791994926 0.37070175641850994 0.13580492435192376
53947000.0 0.8842251669948941 -0.45524719288959004 0.04352555036559279 -0.1202038932912418 -0.0027633904342363193 -0.00014594743841403067 0.36864323656090714 0.12416473394204589
54946000.0 0.8797648303900956 -0.46312705629091283 0.04401608331784073 -0.12821979392713476 -0.0013929354258781798 -0.000578273691743429 0.3759593382785523 0.11298250205369434
55945000.0 0.8763999420848111 -0.47020696331268824 0.04739502839722659 -0.1392181560832713 0.000788784930451174 0.00011026874824326488 0.3767510457094586 0.09872915211926729
56944000.0 0.8732117587044911 -0.479680375693242 0.04942156075471752 -0.14956731937578396 -0.0005681322106371473 0.0011808094881840796 0.39136585016988634 0.10467139953761043
57943000.0 0.8693450495084266 -0.48965244223345955 0.0495492218833642 -0.16020208713369855 0.00014900777625223363 -3.636163559016149e-07 0.39257800065414167 0.09428134280782575
58942000.0 0.8615385345527156 -0.49513393678555234 0.049204277077634626 -0.17227151807991173 0.0015078237355041553 0.0003170640429176655 0.41098028680302673 0.08624417911570549
59941000.0 0.8590654541502479 -0.5033443326577028 0.05167463374667824 -0.1793169764459201 -0.0020196916290542827 -0.00016862027767756247 0.4169735870904723 0.08116265841964729
60940000.0 0.8512218626492593 -0.5099592591236338 0.05364418739514188 -0.1841516723083581 -0.0002855888870430278 0.0017778073535753317 0.4077921203801336 0.07455725947159421
61939000.0 0.8480869022089405 -0.5184090499573124 0.05149992392489685 -0.1904490101217117 0.0002373132202011797 0.0017565461802975027 0.4097097712769379 0.06486586907310483
62938000.0 0.8423625609326503 -0.5291704719076709 0.055571592952828215 -0.20999943673697122 0.0011085517103549714 0.0003831893384399779 0.436123026523314 0.04205965575696964
63937000.0 0.8370537348371968 -0.5348923776341364 0.055892696053031224 -0.2284935107431576 0.0009391613897120787 -0.0014387643766089974 0.42489103360691527 0.030305968271263587
64936000.0 0.8299102655494328 -0.5440724186362235 0.05628484000944602 -0.24080790702591365 -0.0012080372226296707 0.000398172186046679 0.42724775488624905 0.030738183560838378
65935000.0 0.8272159051027841 -0.5540222629190831 0.05379144238277271 -0.25559645603713066 0.005140021534192821 -0.0027572442925925303 0.43286815416697705 0.012108645435563713
66934000.0 0.8223579111681882 -0.5579342812313062 0.05688942628125709 -0.2702521833759709 -0.0020579603339213833 -0.0005551812684215754 0.42895919873241617 -0.0005017873388990381
67933000.0 0.8199578363721366 -0.5663209924750489 0.056249060537313246 -0.28516196249470166 0.004986612530501945 -7.648023170718814e-05 0.4318581530492204 -0.0006229158499614576
68932000.0 0.8136170241576726 -0.5618877849631662 0.05788851176265792 -0.29732898019728016 0.0018997091597534196 -0.0022681976766695086 0.4539200231129239 -0.0016405051669157334
69931000.0 0.8042094155682351 -0.5819842289619176 0.05276670510940634 -0.31266367666401057 -0.0014783900314149258 8.960293919830115e-05 0.4376502099780111 -0.024003423929990268
70930000.0 0.797466677272112 -0.5888595050405295 0.04550435287077434 -0.3256983055023499 0.00024786444859815725 -0.0024160362810324537 0.43915896878545335 -0.03737935324878154
71929000.0 0.7963826320791075 -0.5981966296091552 0.045529122983071074 -0.34638591706729704 0.0027460766680140664 -0.0004210779893187985 0.44674778172212054 -0.041743523061842355
72928000.0 0.7874266537428161 -0.605412577890806 0.0369608810412965 -0.3610684550741972 -0.0013393768763382738 0.0018688917638350082 0.46102827738809365 -0.047550773135428416
73927000.0 0.7817353459294779 -0.612331127209388 0.03343013364460561 -0.3830581437113876 0.0007976162643385462 0.0006436907636378065 0.4635006691929732 -0.06522055133334917
74926000.0 0.7773026778484692 -0.6205754117088422 0.028164090320952257 -0.40227509692032654 -0.0003884783758363398 0.0009833051871131159 0.4617094635493918 -0.06045868143197302
75925000.0 0.7705780571626871 -0.6257827117709299 0.015317388684026927 -0.42209466295772147 -0.001132885773025334 -0.0022290050017388457 0.4674473832166306 -0.08167008904687521
76924000.0 0.7635746138502744 -0.6352713561852165 0.005217338579417041 -0.4430167052777442 0.003969127547710413 -0.0026053598222330688 0.45912610787531194 -0.08090286869615573
77923000.0 0.7572313024492344 -0.6411906805062252 -0.008325722282443255 -0.4655516757915126 -0.004314349870581961 -0.0031873628623533615 0.4486008927304985 -0.10129105689250036
78922000.0 0.7521687557065163 -0.651393784729261 -0.020545067456725477 -0.49154035193395734 0.0012418874251806718 -0.0013198659673156674 0.4537160652965248 -0.10341148739303387
79921000.0 0.7432432238492571 -0.6547780322118046 -0.04022966977324644 -0.5169956736540214 -0.0011195351695637212 0.003434018929578858 0.4527463372303758 -0.11877929815198798
80920000.0 0.7380154513427158 -0.6671382471627658 -0.05603352629354673 -0.5470515700334937 -0.0005897028285115292 0.000519536468578965 0.465433193509228 -0.13303105192699005
81919000.0 0.7346079355298835 -0.6711342650569427 -0.07307558246299989 -0.5743252424233967 -0.000643255699264443 -8.377510211406735e-05 0.4638099406796079 -0.14412152785680069
82918000.0 0.7223559435810143 -0.6791272346108514 -0.08264168085015805 -0.6052180381220149 -0.0023553938944826077 -0.0018931515898981928 0.46365775224094785 -0.14176434924152048
83917000.0 0.7146694009052806 -0.6859211865948502 -0.10618380158965122 -0.6325903874553971 0.0002974868838184653 -0.003648598379389129 0.4627276666143473 -0.15528561839282315
84916000.0 0.7115374941070314 -0.6940053892102612 -0.11840033952569956 -0.6666103321320478 0.0005555883866994286 0.0032227468371202736 0.4616881140770717 -0.17028497082818783
85915000.0 0.7050761733537623 -0.6986791525513091 -0.13670160832308514 -0.7000923684078278 -0.0024544942907732386 -0.00038452184744377805 0.4583188587176778 -0.17973914577722164
86914000.0 0.6981188715149458 -0.7113129004170378 -0.15514339861867235 -0.7327825163478232 0.001212990503635487 -0.0024599986950269155 0.4578542719284475 -0.19240583946926143
87913000.0 0.6900401175262072 -0.715871369607989 -0.17117883508134524 -0.7612749938453212 0.002802078686087296 0.00025091611984975 0.4532613199338685 -0.19295395408440663
88912000.0 0.6827226768180714 -0.7226974262271639 -0.18791977150290728 -0.793087342415257 0.004052000416245373 -0.00042822088102207316 0.4586222933825157 -0.20537859387619167
89911000.0 0.674973619743067 -0.7307687170069213 -0.20143504333679801 -0.8337415576579486 0.004109809965555241 0.0014020262951267458 0.46318085800388603 -0.2118878850967746
90910000.0 0.670011598552554 -0.7361183488862719 -0.21955312934925653 -0.866051133005984 0.0036470572078776196 0.0006231573957227045 0.45052902472302825 -0.2187978744277855
91909000.0 0.6602841864867663 -0.7417235054253769 -0.23933508884237745 -0.8973850403861272 0.0021276629048808757 0.0010385044878491732 0.4591842970543547 -0.2306516027013428
92908000.0 0.6499376412199047 -0.7490792800141428 -0.2574798408688568 -0.9283597747011383 0.001989125548233897 0.0006550170033878495 0.44952808219344553 -0.23624133249599416
93907000.0 0.6447757626216976 -0.7571468458176446 -0.2708253350006529 -0.9606018558730689 0.0005388663172314921 0.0001557818410347592 0.4477967365030067 -0.25649367848400617
94906000.0 0.6355908488490579 -0.7632799564041585 -0.28918398400256096 -0.9957199417860458 -0.0005763031580910623 -0.0004793196479211635 0.4518403712063012 -0.25942620917161
95905000.0 0.626171403746933 -0.7691211870892619 -0.314387421821545 -1.024984453584737 -0.00024014795208994954 0.002468831522373897 0.45281595683516085 -0.280312271278761
96904000.0 0.6199842800796166 -0.7780840643684716 -0.3299169999644192 -1.0654115656827072 0.0009606591435264155 0.00024522767777535617 0.4363241441981002 -0.27349500752809996
97903000.0 0.6107849850870526 -0.7832872681387135 -0.3570207948925558 -1.0993563445049506 0.00352244781869615 0.003397183941894041 0.44139878221792694 -0.2961316782658199
98902000.0 0.6057164371495395 -0.7890804255155922 -0.3757172400464021 -1.1372482246053033 0.0005984860719030973 -0.0010626586815337276 0.4345316581836911 -0.2975620535050325
99901000.0 0.592508502426597 -0.7954977140684889 -0.4056178341707246 -1.163707663310099 -0.0019027199298904981 0.00038918586898999466 0.44443776287779757 -0.3264658889580634
100900000.0 0.5855585240574696 -0.7985759441459767 -0.43830556608976073 -1.1931243205197581 0.002924056083645223 -0.00045998038390605394 0.4548331240256424 -0.3143035791763667
101899000.0 0.5761868388801352 -0.8067855262405971 -0.46445664834696326 -1.2318872311763385 -0.0034942567020611846 -0.003807200540384036 0.4402010795423347 -0.32766337065617074
102898000.0 0.5674612345547325 -0.8121690805384176 -0.4990275596431193 -1.269120296585644 -0.0012299538951507163 -0.0034348867517581395 0.4434520779933091 -0.34526946052817375
103897000.0 0.5583819296006908 -0.81922151064618 -0.5319501962944522 -1.3086642122375371 -0.0015548152301167238 0.0023524408996395806 0.45156067220246826 -0.3397143046694605
104896000.0 0.5523885249014319 -0.8318058210707715 -0.580514700286894 -1.3401006255277315 0.0015665203934779569 0.0011018318802256846 0.42841049377422413 -0.33657850154923064
105895000.0 0.5408446057231726 -0.8334178260441433 -0.6289744873747246 -1.3796645597538202 0.0009155531926535295 -0.001020695611750599 0.42030136333428125 -0.37226400182309394
106894000.0 0.5313682044394209 -0.8397336090182563 -0.681783074981409 -1.417035577841959 -0.0003393334571476327 0.0019978996348990296 0.4271251879309186 -0.38122033148164786
107893000.0 0.5211100061607071 -0.8472249498021099 -0.7334669743510566 -1.4579873603489526 0.0004958702962314523 0.00018783048129718396 0.4343842832527854 -0.38158407473054207
108892000.0 0.5131919081808803 -0.8499319745971833 -0.7933004545351992 -1.4955164607784317 -0.0007450330102472346 -0.0007843773644534524 0.4156514245084957 -0.3873604891468131
109891000.0 0.4987235366910215 -0.8559632913112566 -0.853035612046577 -1.527144871019224 -0.0008400616733635725 0.0010294353095953114 0.44094329227427936 -0.3893070424412066
110890000.0 0.48648209839578954 -0.8725354454699416 -0.9337698846388274 -1.5423561540194246 0.00018949485126084178 -0.003340407552519547 0.4353629172240867 -0.3872246067221621
111889000.0 0.48253969660415913 -0.8621608104496319 -0.9690957146595969 -1.5999739882661859 0.001380002341443245 -0.0008674814189428855 0.40358875036757347 -0.40432289688656076
