! Created with skrf 1.9.0 (http://scikit-rf.org).
# Hz S RI R 50.0 
!freq ReS11 ImS11 ReS21 ImS21 ReS12 ImS12 ReS22 ImS22
1000000.0 0.9854531691781219 0.0034271996907259757 -0.012246354094818779 -0.056216555854341654 -0.024860041859423053 -0.006092532536854739 0.31811567201775626 0.36221034274257174
1999000.0 0.99232780506937 -0.01248538858852094 0.005583181284616777 -0.018304271626631445 0.001984062780810495 0.005480974590180338 0.2698697553728332 -0.04232890990584505
2998000.0 0.9990523555655779 -0.02301920389305847 0.003537933027690151 -0.010286318547647607 -0.0032133102422560495 0.0004257975683835813 0.19310168948995785 -0.1416301283983175
3997000.0 0.9948369278863214 -0.031177244252757162 0.009919384171886161 -0.004712072660415406 -0.009868448521721024 -0.00016058828734109246 0.0941282598364394 -0.22372148149814258
4996000.0 0.9940264540007011 -0.03878965276400598 0.015690645091339078 -0.0038097452557929513 -0.002686834845205879 -0.005834631816069246 -0.012767001785571235 -0.20714983168143591
5995000.0 0.9974928624869308 -0.04694140768520633 0.005460142881762732 7.223046960292423e-05 0.003441169769244864 -0.002458022075579316 -0.11253979794397366 -0.13786958418639544
6994000.0 0.9947428181874969 -0.05908099798070963 0.006719568204346723 0.003826631533259056 -0.0018853256371852726 -0.003762635080667795 -0.1642981494507963 -0.04320950668005592
7993000.0 0.9938236748315933 -0.06880481486406007 0.0007874267780860032 0.005934643278098364 -0.0011253180436927744 -0.005840420993305145 -0.17245602304607463 0.013302704025189014
8992000.0 0.9946475656768413 -0.07374405217659082 0.003955236062146011 0.007313750365667378 0.0037317779992728714 -0.0027454727050442453 -0.16762419577882431 0.05232075284542809
9991000.0 0.9919955386510065 -0.08230597441169968 0.0016928631250524822 0.003902926467157374 0.001095411972523518 0.0010990400593937123 -0.1633747459981095 0.08098290430636082
10990000.0 0.9895811210554617 -0.09040062375678345 0.0006018479941631549 0.0019208835494838794 -0.0005744415989980537 0.001966708889860561 -0.16082816322085494 0.101135365189463
11989000.0 0.989080259794638 -0.09836605868678298 0.0009144701799850065 0.00129692231760703 -0.0012780492047798724 0.003627141669174439 -0.15084048380647996 0.13687889335842487
12988000.0 0.9897355795349839 -0.10626647029307701 -0.0013268498085657677 -0.002058644441789059 0.003453704626497861 0.005604657332211067 -0.1277594906219643 0.16345974841842936
13987000.0 0.9864062843052757 -0.11800440899839204 -0.000706400183220456 -0.004263356625482568 -0.002280321294823479 0.007624097185298373 -0.106584365239996 0.1962100794031416
14986000.0 0.9863945004644716 -0.12636726127223558 0.0012432994791791473 0.0001820798404488011 0.00042484759651083607 -0.002555968101495002 -0.09202564743525475 0.19248243920753444
15985000.0 0.9885756515600951 -0.13133602930092533 -0.0027971172679767146 -0.005960329019088332 -0.00035949634754441187 -0.0004377482866068438 -0.08827877011015633 0.21023407931179514
16984000.0 0.985563004942526 -0.1462665436614217 -0.007745027623329803 -0.001310420465140212 0.002222316436367326 -0.0016823234103024388 -0.08802932735908058 0.21777295391897916
17983000.0 0.9838951218470666 -0.14851395186495467 0.0005666660175938997 -0.0016011946772020791 -0.00043421471171116113 0.0003229943022803858 -0.06420034097431719 0.2174541143684833
18982000.0 0.983531214076152 -0.1603042535021777 -0.004724729501787651 -0.0018209685724189222 -0.0004445879633502311 -0.003292257219527826 -0.03989200932000536 0.23938209386272527
19981000.0 0.9792398696936263 -0.1660942582222807 -0.004251011052048506 -0.006786721303262825 -0.0008926166116062979 0.004911669527451281 -0.032593822161465544 0.24701633353061242
20980000.0 0.9795754528038431 -0.17611509811525483 -0.00720829755072671 -0.004708862099296105 0.0012495260595470716 -0.0033119783248555185 -0.012397602671918855 0.2639184917525122
21979000.0 0.9793712445969903 -0.18413687571353632 -0.005507932148799859 -0.008629568903555783 -0.0009322626109877963 0.0020387115721058283 -0.005811984004675412 0.24666850374623794
22978000.0 0.9747921029375527 -0.19299940622339598 -0.006391474568460012 -0.000300613478204001 0.0026705525425199856 -0.004297878442050222 0.02403237707181334 0.2526754339301076
23977000.0 0.9748834204177618 -0.20131299292287538 -0.008680391504829379 -0.0010343913831867297 -0.00026168252129884904 -0.003979670677701319 0.02910503749610867 0.2559445126639564
24976000.0 0.9715512892515645 -0.21115811452469174 -0.006724443474920689 -0.002174903238743409 -0.000890816000558779 0.003387888528456841 0.03942364001373398 0.25198378300102475
25975000.0 0.9662593243152215 -0.22266530033638268 -0.004139131714183476 -0.0018646828149153313 -0.005148704313165267 -0.02784148096446188 0.06119503707895506 0.26116876948759654
26974000.0 0.9701792436928133 -0.22746355763867063 -0.006970899056964511 -0.0019794903744679558 -0.002123330712035267 0.00202822199806328 0.0680182838424134 0.2649585776994074
27973000.0 0.9682565525480926 -0.2376326297116678 -0.003878330580136195 -0.0017474569715390546 -0.0012099514180166984 0.0025212239620944787 0.08961032471440589 0.26505748913552457
28972000.0 0.9641178918737794 -0.24478605531128447 -0.002640386831056734 -0.0026214158728408926 0.0014996076419468976 -0.0009557691610501281 0.11216476928108432 0.25470134888555485
29971000.0 0.963029194847428 -0.254012359653058 0.001725002333996293 -0.004335449389106894 0.001436024247507626 0.0008766352620503901 0.1300344756075567 0.2714877172147347
30970000.0 0.9598080010254796 -0.25949923369534816 0.0018490293184089603 -0.0010370118715637231 -0.002829232960374925 0.002627557541601732 0.1562240149290709 0.2541552555121405
31969000.0 0.9589763982564972 -0.2688864009893326 0.003912965077524134 -0.00472322356403723 -0.0006664167774483539 -0.002698519972996374 0.13344528271930894 0.2652057483633485
32968000.0 0.9583222507650041 -0.2767188358997209 0.005241850831886955 -0.00733234994363649 0.002303135725680168 -0.0004276494811416083 0.14394013030148536 0.252029493856952
33967000.0 0.9569380771433574 -0.28518613503845824 0.012381678848050448 -0.009891451957813886 -0.0002927343655317796 -0.0017503728089711935 0.17379316756276136 0.25458887908449956
34966000.0 0.9504169014386714 -0.2957357973119161 0.012810059320703766 -0.01140021556156069 0.0006433162197535712 -0.0031919433364647897 0.17717180335785057 0.25816920350019895
35965000.0 0.9485754694643566 -0.3040475403147928 0.017041535139470498 -0.013260518853732394 0.001565656855351249 0.0035824171425577504 0.19343003857359464 0.25031537415511995
36964000.0 0.9439113963590773 -0.31364292548765865 0.016313622459338758 -0.015219625636136986 -0.0014852472183436612 0.0008377330399037735 0.20049682264015287 0.25569895386607094
37963000.0 0.9434602732119162 -0.32099858035183965 0.021184448270434995 -0.022231742636313147 0.002684495048029479 -0.0026691635824739567 0.22002059217817246 0.24587484260608347
38962000.0 0.940836933333342 -0.33113881424096536 0.026026938093975122 -0.02490310312757 -0.00021605135866926842 -0.0010580553102088582 0.2245416886963081 0.24059149639463626
39961000.0 0.9366344308184901 -0.339536192815027 0.025991340446002126 -0.028330768677711764 0.0020964466580999817 -0.0017954189428491106 0.23208927896540676 0.2223264758194975
40960000.0 0.9348024121188332 -0.3473927037529876 0.022160451497758846 -0.023696443981861028 0.0010561053727814599 -0.002395781602438364 0.25018417522175096 0.23091124774166416
41959000.0 0.9315851108739848 -0.35631749475840446 0.03096111843796805 -0.03134097578873567 -0.001833893273523551 -0.000508013701439316 0.2535332647135958 0.22151869478819566
42958000.0 0.9269849282514351 -0.3637018230125905 0.03356575839168029 -0.040407377408727525 0.0005162978677225325 -0.00019225808575757322 0.2720641337340324 0.20988845638707848
43957000.0 0.9248522443963128 -0.3724890264693752 0.0353703921942842 -0.04641326840670154 -0.0015503727353542314 0.001971433851380826 0.2710330104094204 0.21321566255415433
44956000.0 0.9208270657751934 -0.38026349488328187 0.032339280359896916 -0.05377774377773751 -0.0014563499637466376 -0.0021875318429671296 0.28710123347120897 0.19868729063860716
45955000.0 0.9166395554047626 -0.3894427499227057 0.03428073643179438 -0.05965475250961859 -0.00039327845169124555 0.0010022368589766278 0.3010700862703842 0.1965260750972843
46954000.0 0.9135733890494574 -0.3987488647929781 0.03782350116820675 -0.06275647592941037 0.0025992278204317347 0.0030769065793900367 0.30852150282147267 0.1845497483303081
47953000.0 0.9095426221706562 -0.4077781882542603 0.035871543614508804 -0.0737462326718619 -0.002820260561506634 -0.002567635951261449 0.3283194865229531 0.17038882979028996
48952000.0 0.9051278216275468 -0.41551762167298234 0.03887312987046557 -0.0771795231508586 0.00017303118267685544 0.0013628004191610188 0.3243384821283279 0.17136257446330672
49951000.0 0.9017405003830902 -0.4234936015607015 0.039787800766124454 -0.08689844371756716 0.003693402517472372 0.0013610435239288818 0.331813807797569 0.1639954756079506
50950000.0 0.8984016165677426 -0.43175079823257634 0.03899575267659162 -0.0961889220087017 0.001672853948254955 0.00010362679984492685 0.3337933661003025 0.158151571931579
51949000.0 0.894157634676582 -0.4393228412609343 0.041559536168921 -0.10668155192808244 -0.0029444437519790777 -0.00031381666733998077 0.3371598853080405 0.1615728537504645
52948000.0 0.8906485743720487 -0.44996125119729713 0.04454821137407793 -0.1147401895735338 0.003972703441390377 -0.0038759805715799264 0.36326355700776686 0.14675460606081472
53947000.0 0.8848805727278253 -0.4549228422687477 0.04422024780699426 -0.12354939640361672 0.0003939378711937289 -0.0018343342543340768 0.36212304812361673 0.13513536654651426
54946000.0 0.8798298364917022 -0.4662623252118754 0.046875518193076796 -0.13299850554788398 8.390812000424205e-05 -0.0010867046828555418 0.37751545286752 0.1250233914122925
55945000.0 0.8774190994766429 -0.47326362427044505 0.049999364276531795 -0.145379110694187 -0.000851998914565257 0.0032988053973583564 0.3794000556484069 0.11367926805304364
56944000.0 0.8724672469766188 -0.4808092168189371 0.04859459857153316 -0.1555358647218112 -0.0012424440024419612 -0.0011359260526970934 0.3899858981599694 0.11150315091337977
57943000.0 0.8686509177891255 -0.49071615326389034 0.046737902060902885 -0.1646492055114614 -0.00013089649434579835 -0.0007697808218402043 0.3906403024211012 0.10200280496001377
58942000.0 0.8643348973524757 -0.49442816834469 0.052263339733583464 -0.1758905027824187 -0.001945327423727213 6.497560360507621e-05 0.40524663631009183 0.10315142865887092
59941000.0 0.8591218652220317 -0.5046241056027913 0.05342169764233909 -0.18261394996029331 0.0011263996087655156 0.0037293963205823127 0.4067871310872418 0.10094190194548137
60940000.0 0.8525280265493338 -0.5113731533439141 0.05507923038243798 -0.1910644573993769 -0.0010173992552975958 -0.0004961711938725358 0.40097920588970587 0.08357329657145798
61939000.0 0.8493030972461365 -0.5196293559154638 0.055501242432110326 -0.19682154762602116 0.0013058120612805348 -0.0005457095255859849 0.39885514611117573 0.07034787400933046
62938000.0 0.843735655546809 -0.5304526732103408 0.06176267828869403 -0.21432699246902448 0.0008567048833653069 0.0006016546688890861 0.42230795940040694 0.053941449334943194
63937000.0 0.8379457983329466 -0.5373043220198035 0.059472319985639364 -0.23526587691319736 -0.0018555219717944597 -0.002754071574013283 0.4321066640454277 0.04830704702361653
64936000.0 0.8326639910025736 -0.5422359769331672 0.060406109669180384 -0.2522785096862691 -0.0023724898386402894 -0.0031244263803054434 0.42863554549216354 0.045320734599467914
65935000.0 0.8293950585963087 -0.553315492764323 0.06104656232062635 -0.2647263602911389 0.0017013419677821572 0.0017274422998071854 0.4231336702749671 0.027701082883849332
66934000.0 0.8232497122837606 -0.5602962305894135 0.05765992647166891 -0.27714643160957664 0.004033579059168113 -0.004182801132153008 0.4249363879585108 0.029533632826295102
67933000.0 0.8207055936365535 -0.5672100341352155 0.057627307390658244 -0.29440382073973254 -0.003189348796578104 -0.0007237966182504576 0.4295901927268881 0.020022652390857838
68932000.0 0.8143664726632497 -0.5627908070766762 0.054016625125673345 -0.3060132170221451 0.0009557278414248436 -0.0015358209292978817 0.4531981772489204 0.008558623677677861
69931000.0 0.80745771132317 -0.5818793829392379 0.056397278665770885 -0.3243126533749422 0.0003900570797222416 0.002491120118617839 0.4395766633146642 -0.008166789983608284
70930000.0 0.7988072000230431 -0.5924011059150263 0.052739212449842254 -0.33913376621500024 0.002185684782670317 -0.00019114830166237697 0.4392734277949429 -0.02113966543943168
71929000.0 0.7961582796535068 -0.6014787819500935 0.04504896431046523 -0.36095978657711225 0.006990057127603292 -0.002684257945735174 0.43043197901906066 -0.023547584134575493
72928000.0 0.7882687914115055 -0.6075207577092689 0.042163938015916315 -0.3737156330369389 0.00550167110393593 -0.004542289610902899 0.4612910721726118 -0.039847694858451736
73927000.0 0.7824090328675621 -0.6135812455675663 0.03441245224689715 -0.39579067860107825 -0.0021363941186564226 -0.0006769627231386144 0.44896974618620217 -0.048745815503561454
74926000.0 0.7790760517497394 -0.6231137672801312 0.027761759511836247 -0.416646393913992 0.000598454839294386 -0.002862425132279643 0.44826891185992346 -0.04943641908512571
75925000.0 0.7712684916506384 -0.6276550550134598 0.020192089244111536 -0.4337033304268804 0.0014945710512432279 -0.0025156083377357676 0.4599807493466906 -0.06319830646201717
76924000.0 0.7655018095013488 -0.6364260015517598 0.010950238187675671 -0.4611778938217693 0.0022286962395075874 -0.00040082728803530755 0.4543955865617654 -0.0739402458353308
77923000.0 0.7581378659593285 -0.643214044932661 -0.008746411533342867 -0.48350754323127104 0.0024504930597724255 0.004914901260016032 0.4529092191079722 -0.08878234197748353
78922000.0 0.7535906623810571 -0.6529113230018909 -0.018052678465297383 -0.5139428476457168 0.0008414712720640843 0.0018442116787643582 0.45279240536340676 -0.10050014709551583
79921000.0 0.7449932661479387 -0.6548059060853273 -0.040317296013059514 -0.5426851192325485 0.00014008778748763877 -8.987216200146824e-05 0.4510544567046677 -0.11324256398040909
80920000.0 0.7393219828732257 -0.6663697054529129 -0.05246580436731888 -0.5680505838497926 0.0015020852977551318 -0.0023151719449034185 0.4634114726081699 -0.12696683882072266
81919000.0 0.7341810106696282 -0.6732228004681092 -0.0688566852431344 -0.5952390789735902 0.0006436661979379266 -0.0009826952441592122 0.45899248120580705 -0.12278482836465138
82918000.0 0.7254388057459595 -0.6806314639390952 -0.08058672252073308 -0.6288807927432403 0.0014875567113023624 0.0014755498843344133 0.46419025692048427 -0.1372227091450056
83917000.0 0.7161381045819164 -0.6883760288525598 -0.10056489018899187 -0.6583733167628196 -0.0003535627317690779 -0.0023364147330242947 0.4728551256107248 -0.14731650983058786
84916000.0 0.7107770888989158 -0.6969069863427849 -0.11974674617239003 -0.6936667389360147 -0.0015868756129044847 0.0006614219041111477 0.4561610611316706 -0.16493210619896995
85915000.0 0.70593031760283 -0.7014889964262929 -0.14204374675990492 -0.7215265101896173 0.0034887168085913295 0.0027787453240720583 0.46018719984982603 -0.15429600079838846
86914000.0 0.6969176692527731 -0.7134121303056757 -0.15537084932670348 -0.7636155951946626 0.0008191355803531194 0.005479725546110824 0.45164538505176083 -0.16809302711131924
87913000.0 0.6906933932916808 -0.7180093665149665 -0.17380524760915664 -0.7925571467960653 0.0014377945226136007 0.001150014130742022 0.44721403367517865 -0.17398870046349604
88912000.0 0.6844620416619492 -0.7231561330397165 -0.18595484738727175 -0.8262422810853828 0.003956963770913338 -0.0009319803344917156 0.4576338741882932 -0.20717035850819351
89911000.0 0.674768613899162 -0.73436788671728 -0.20465093623598946 -0.864226302086284 0.001292248428433136 0.004151290188195965 0.46863439079613123 -0.20435973472075883
90910000.0 0.669376680142424 -0.7359071910957977 -0.21999356679953225 -0.9008883670071557 -0.0016409900980575288 0.0008076681697740364 0.4675285099527486 -0.1993509250802781
91909000.0 0.6600142162273128 -0.7446260994478007 -0.2425228901899639 -0.9324627917332181 -0.00015898934560229445 0.002968639014564411 0.4615632567379735 -0.22005572256688885
92908000.0 0.6517249646802831 -0.7503230729422385 -0.2587637566820507 -0.9632361399100392 0.0009664685018385776 0.0006601839133929993 0.45156461507731105 -0.222921547594843
93907000.0 0.6476133441069944 -0.7568958949971625 -0.27648517543908613 -0.9977415095361212 0.0020653158940513697 0.0011039499353085681 0.4584732215733694 -0.24452035031084043
94906000.0 0.6341218193965712 -0.7642308404495217 -0.29163870740638154 -1.0336960117908625 0.0023960178795292054 0.000676831028378848 0.44963445050745116 -0.23990874338144183
95905000.0 0.6258804103624902 -0.7720333024458731 -0.32170791887135575 -1.0682600820139547 0.002643617697534862 -0.0013637475440052948 0.4504390066291063 -0.2655682596903928
96904000.0 0.6183046473146508 -0.7795102055868834 -0.3417154770696989 -1.1127184722291743 -0.0017254365061638026 -0.0015124080073833414 0.4488852713393532 -0.26372740690454466
97903000.0 0.6095763949629581 -0.7855626351227277 -0.3694732726909237 -1.1422984395362965 -0.0034381413178717203 -0.002281193621318302 0.4428474963723004 -0.2870470891557435
98902000.0 0.6020135063558678 -0.7933753006636352 -0.38384051025952326 -1.1842468633307452 0.0026056105455063787 -0.00159377131535423 0.43904079984931965 -0.28592447289567513
99901000.0 0.5924597828146996 -0.7963356761197875 -0.41680540367067376 -1.2111039070186862 -0.0025573835504676453 -0.0018206727086155544 0.45534164706931274 -0.30088331349080394
100900000.0 0.5866171768946274 -0.8008011145148198 -0.44682886142572137 -1.2463613550034331 -0.0003894494544617261 0.0009607955602127146 0.4502102031541537 -0.3032195898847824
101899000.0 0.5759621816723539 -0.8112022704191739 -0.48120080783666314 -1.2878966207818634 0.0001998924993070636 -0.0012815748912502248 0.448189032920721 -0.31909852402446
102898000.0 0.5678604077853822 -0.8149222940666303 -0.516968984700917 -1.3233143180538411 -0.0011460743744332355 -0.0012013015143865708 0.45003322640028914 -0.33876015283493144
103897000.0 0.5579063906525707 -0.8224484414958917 -0.5569735898848517 -1.3641050527634524 0.0029589426687229655 -0.002555446965935825 0.4515667629693707 -0.3229872430953956
104896000.0 0.5482128959744323 -0.8325939835311845 -0.6064446312949636 -1.395394978466497 -0.0010090218293667813 -0.0016606704939756453 0.4386687863897239 -0.32178549422770253
105895000.0 0.5405499275630264 -0.8342817975609961 -0.6511194084937512 -1.441657410225726 -0.0012970609472070843 0.0006514060851383422 0.42250248954188435 -0.35609902708082464
106894000.0 0.5316996012989487 -0.8419125539743063 -0.710252118164785 -1.4820668327600601 0.00029019527013829263 0.0014820739775697309 0.4251555239277011 -0.35609078787826276
107893000.0 0.5215460957991442 -0.8486354060500126 -0.7642122145069864 -1.5214384296209056 0.002378090329943346 -0.0022106470021081947 0.4235610934953956 -0.366430202371454
108892000.0 0.5121043870200395 -0.8523965921587378 -0.8242862176142098 -1.5679812454080118 0.0008849322617004805 0.0021259609869190154 0.43000026520797224 -0.35747537943342833
109891000.0 0.5004157080696297 -0.8605937502545387 -0.8852451613628647 -1.59923575347215 0.0019672928111081176 0.0014584235232477298 0.4279229709834736 -0.3660656530360056
110890000.0 0.4844051654251458 -0.861418866795032 -0.9476304693584134 -1.5990773069628474 0.0005433540349584907 -0.0013675042441686706 0.42862134762181436 -0.3740167396612881
111889000.0 0.4801477882655515 -0.8651260314362869 -1.0193957292631157 -1.673501377250739 0.0017465766580012706 -0.0014808717147089794 0.41833861432064506 -0.39398286679154276
