! Created with skrf 1.9.0 (http://scikit-rf.org).
# Hz S RI R 50.0 
!freq ReS11 ImS11 ReS21 ImS21 ReS12 ImS12 ReS22 ImS22
1000000.0 0.9856553593735462 -0.0009965617231021077 -0.013257940711595046 -0.04766800826736765 -0.011320400558405523 0.006895075483861791 0.4420370787646019 0.32361664720971495
1999000.0 0.9972203256245177 -0.010877097328376226 0.006884095912255208 -0.020559700577872507 -0.006934969459011851 -0.002324245755588869 0.25223637824725964 -0.04438039330994472
2998000.0 0.9981023175750602 -0.02468080389804555 0.01051350695122466 -0.008929320693594265 -0.005943192691282577 -0.005370788405065439 0.19690483553107865 -0.1285659315156191
3997000.0 0.9989241010308583 -0.03012396895798524 0.013371009661465068 -0.009391148546152799 0.0012978064120538282 0.0011926806664954242 0.08316719686544562 -0.23656656536069126
4996000.0 0.9978647927280394 -0.036678968691432556 0.009386774876502687 -0.0016648229149846417 -0.0019092546924810172 -0.002254976180370697 -0.05901221303256146 -0.2012244543701376
5995000.0 0.9969381925014396 -0.051870733953287486 0.011750536212561329 0.0020750495841991073 0.0026665065363595452 -0.0018802647721934851 -0.12639934477123285 -0.11269619355773738
6994000.0 0.9956958509552427 -0.056218534261532976 0.0028325461787159253 0.005731061903438298 -0.0004548212022466641 0.0030371859091907595 -0.13966958657762443 -0.019774307667412158
7993000.0 0.9972793781039606 -0.06759659048781635 0.0034064910127129585 0.005458177416757891 0.0034033764650781137 -0.003638741886071668 -0.14890165401383218 0.04242554541717784
8992000.0 0.9958671580028788 -0.07362449801200227 -0.003139274775711761 -0.0004985262749102326 0.00645658026816129 0.002770877068960348 -0.15099775867359266 0.0627012792576952
9991000.0 0.9948121954048472 -0.08133180357399004 0.0014868019896904215 0.0008074923010639815 -0.0017411524118565143 0.0017774427699327603 -0.14149180642134426 0.0934545303723412
10990000.0 0.9923663563764701 -0.09397121659363945 0.0004524888754416222 -0.002118605134162942 0.0006865822365485781 -5.8813521174237346e-05 -0.1369147871421674 0.11572802202498318
11989000.0 0.9911730672883681 -0.10000618270471173 -0.0029334809349307444 8.049153028017676e-05 -0.0006157507665836113 0.004814182836991206 -0.12506225548856623 0.13549594260387499
12988000.0 0.9900588356341768 -0.11205555186914197 6.331667836688895e-05 -0.0052163451879236504 -0.002199552590310231 -0.006744287218413786 -0.1112204945080566 0.16468005679918668
13987000.0 0.9877983970190504 -0.12009156476453572 -0.0023176510770142383 -0.00500819975034091 0.0004116336248758391 0.004202259302867992 -0.09194370338011937 0.1868676528155385
14986000.0 0.9848703256686949 -0.1273764417278127 -0.0008244981840339017 -0.0068054951769629364 -0.0005992609615671683 0.0012830988466542993 -0.0795783888355226 0.20354247908275158
15985000.0 0.989270620453855 -0.13736299364765137 0.003065866360492326 -0.004581588377015284 0.0015017448589117832 -0.00013299060922120822 -0.06484366540589515 0.21384392644295117
16984000.0 0.9839594741530286 -0.14470620747741067 -0.002602950236542136 -0.004709154554884055 -0.004524884294541299 0.0048571587173072165 -0.05476752955604839 0.2103389978880221
17983000.0 0.9853508714811893 -0.15047294497437383 -0.0026904069993975797 -0.00204002319854273 -0.002436944263024796 -0.0014021206077262163 -0.05525083114079956 0.2304120430756406
18982000.0 0.9837191780475877 -0.16146767197609072 -0.0015614214620734525 -0.004014514230361675 0.0013685458694931243 -0.00010874397826688201 -0.029054152321623897 0.2387601402288956
19981000.0 0.9800204782623233 -0.1698969224544312 -0.006143312858522683 -0.0038735986290153834 -0.0037789408766003315 0.0007049182169784775 -0.019505102018836817 0.24483779722429455
20980000.0 0.9808678985301784 -0.17853020247003487 -0.0008701429087964267 -0.0053868996346978 0.0010993607901576138 0.0012586636548196767 -0.005543722534569004 0.2667349870577873
21979000.0 0.978312451531922 -0.18747701257381066 -0.008635642671434145 -0.005513218937409048 0.00124153065366237 -0.002618974719793356 0.015456847404252088 0.25080642759969624
22978000.0 0.9750603155653343 -0.19881879175679196 -0.005897105377469332 0.00024087927004681444 0.0009831388625556215 -0.0024062448146389514 0.03432295313841402 0.25665875593912285
23977000.0 0.9792242152401566 -0.20308238188799008 -0.0036322214564620207 -0.0026201004625237023 0.0011989316756069713 0.002050336059119641 0.03129420314075078 0.2540298012965908
24976000.0 0.9719922777231038 -0.21635888169578962 -0.003500544351721156 -0.003317417297271043 -0.0008863735649546878 -0.0002091025756764319 0.07006992278800775 0.25309441015684764
25975000.0 0.9664345202366214 -0.2212089722864142 -0.007657032733008145 1.8766741268311015e-05 -0.027407079356489825 -0.01276586983158881 0.08152931323590897 0.24888865392695392
26974000.0 0.9699763883027088 -0.22967078433538882 -0.001821091183535088 -0.0018111570240458925 0.002475612007740063 -0.002559529082240172 0.08917220495252076 0.26671101020234544
27973000.0 0.9681833559907926 -0.2383190197349049 -0.003869924133949465 -0.003835188130036841 0.00279382526815686 -0.0030981694227250147 0.10958684404209361 0.26381952273835585
28972000.0 0.9674217820084792 -0.2458760497965156 -0.0018268574424184277 0.0022416648312315562 -0.0010160282282736983 0.0005411844861144946 0.12163659151387161 0.2541324300947983
29971000.0 0.9629216372451461 -0.2571736485297967 -0.001150276408773096 -0.00261672742675275 -0.0016056676536005813 0.0018728236053031806 0.15050114340082188 0.26720020529753574
30970000.0 0.9612383495279924 -0.2632157578996767 0.003933615884432231 -0.0021033427215607155 0.004711159540276275 -0.002901894096148901 0.17362249642617053 0.2399764949317837
31969000.0 0.9587806026450547 -0.2716459170843282 0.0028094469665185637 -0.0024509380168661224 0.000978703477809172 0.000394465288142355 0.15462720125893803 0.246920101068803
32968000.0 0.9574401603913255 -0.2815947001895329 0.004764644059478313 -0.008088303815620307 0.002829018393439494 -0.0011575020150656427 0.16403716173071017 0.24741625879544138
33967000.0 0.9545188481863438 -0.2916373598255469 0.01001843126814786 -0.011618025805781172 0.0008618799787227148 -0.0021993777810046487 0.18407804653161514 0.24786876170486774
34966000.0 0.9511471313662515 -0.3004867692390976 0.01258675946220788 -0.011514642932393534 -0.0033319696278919287 0.00229406319930505 0.19799512280569112 0.24572726236655001
35965000.0 0.9475435125342571 -0.30624122828130484 0.012036734733051033 -0.015963203351024594 -0.003732412390305779 -0.0015855572007631572 0.20951836880780045 0.2490007201036144
36964000.0 0.9456149736020948 -0.31658879133271556 0.01595782034771039 -0.016201055260389684 -0.0006029363406462833 0.0012938327688511637 0.22139250261964366 0.2413416675209879
37963000.0 0.9436000877311176 -0.32492769906985025 0.02048007424910434 -0.020394709360056433 -0.0015904453805624386 0.0033567832381087106 0.22985411039953965 0.23329993392291443
38962000.0 0.9398507539857718 -0.3355851582778598 0.023791811078128396 -0.02253460525908202 -0.0007571702496239716 0.0018844341156698402 0.2415157697668088 0.22707100092249957
39961000.0 0.9380654599670161 -0.34049872155541294 0.02417051363009704 -0.027153802783354178 0.0007263486367486741 0.0024928633879315056 0.24695388137811772 0.22181484693834758
40960000.0 0.9338061396616514 -0.3500351114034195 0.01943555644650502 -0.02302652845013154 -0.0006501545883162328 -0.0022014935561285092 0.2668411585902002 0.22817067534466304
41959000.0 0.9322466735304077 -0.35896623952746515 0.02612885265159573 -0.03292191618604845 -0.0013576748417053275 -0.0028162757071530506 0.26936540241337675 0.22154296112645872
42958000.0 0.9247868760064575 -0.3700593491295915 0.030731081018807022 -0.04303469607834495 -0.0031486002061298125 -0.0035612089662584116 0.2803948653234289 0.1987558304082076
43957000.0 0.9246530598984742 -0.37332184489845843 0.034432090254300454 -0.046277792174753835 -0.0023718666958161155 -0.001493592065250195 0.28768968828508507 0.20966459128672776
44956000.0 0.9210059949795552 -0.3842972249609924 0.03272869210172906 -0.05262488583968822 -0.0027719015346478323 -0.0011412815546310174 0.3072854805792211 0.19431137728449435
45955000.0 0.9161531378785285 -0.3915994638560247 0.032592423405418416 -0.05977309238020009 -0.00021612231430850025 -0.0009488790152521753 0.3085245264715177 0.18979732823863932
46954000.0 0.9130083490279424 -0.4011581598712295 0.03424665512414089 -0.0664571857082299 0.004074690179450828 -0.0001365374889580987 0.3297491511986077 0.18043121492911848
47953000.0 0.9092768676258731 -0.4087602165236738 0.03447176259198816 -0.07348063391623405 0.0012773736838767719 -0.0006690685889018288 0.3371307041724359 0.17012662465410147
48952000.0 0.904699479808679 -0.41871243047574486 0.03658584286592232 -0.07937567801990758 0.0019734687113943275 -0.0001807036027549341 0.32524111015299806 0.17269916664085377
49951000.0 0.9005654231122044 -0.42434975657438057 0.03855088736891816 -0.08599395536617087 -0.00017150034456108704 0.0028794749582681835 0.3529545465070095 0.15716050327302744
50950000.0 0.8976553324795039 -0.43456711161351275 0.04036155205773256 -0.09450905035572489 -0.004922922645768627 0.0013599054731040765 0.35390324655234395 0.14165042635908603
51949000.0 0.8932252026292992 -0.44167777915336365 0.041196339601242894 -0.10231441805639646 -0.000829466035652262 0.0023886443400505065 0.3623054763795059 0.14823308622375547
52948000.0 0.8911600780585075 -0.45304284315255977 0.04161160732368714 -0.11166943580756225 -0.0007318668292574957 -0.0005868436033242415 0.3717139148778603 0.14745555674905847
53947000.0 0.8861716653179208 -0.4578588362952743 0.04135616910297347 -0.11994228146544596 -0.0034928124758015623 0.002803850360822589 0.36669196641837587 0.12858115090955088
54946000.0 0.8812589863833038 -0.4668342444258691 0.04205158137407878 -0.1308985759475604 -0.0026834423567783624 0.00272639566421453 0.39070836105875034 0.12088952222498527
55945000.0 0.8769633161937268 -0.4744990507551111 0.045635140282941626 -0.13893721175569287 0.002666575126867788 0.00016830657532801836 0.3917687669280591 0.10308599499460677
56944000.0 0.872660656845929 -0.4846008521682888 0.04622502706089645 -0.1499473504196036 -0.0010975560426692789 -0.0012822287065107191 0.3954561563216437 0.11094602471166629
57943000.0 0.8657948882248985 -0.4957088600576307 0.049332097612102256 -0.16358391529178537 0.001506593658016268 -0.000914892358053755 0.40075806422042504 0.09326926311651501
58942000.0 0.8620687263082757 -0.49920509714868416 0.050709074885990496 -0.17187215177441342 0.0018402790533324875 -0.0016318165960565799 0.4224800242684359 0.0904404980962723
59941000.0 0.8590278720000467 -0.5088418063122088 0.05030560591744571 -0.18097374081141898 0.0005082197126796466 -0.0016455469867630087 0.42359892319564235 0.09511358881096992
60940000.0 0.8516168090267794 -0.514356599610665 0.050950268474943945 -0.1883125713231624 -0.0005508902909287049 0.0010765489567876078 0.3987325374612698 0.07841628467185287
61939000.0 0.8479838887056889 -0.5223065958798319 0.04940109880931824 -0.19586430900304927 0.0003707680126092677 0.002187323235196338 0.4213245176992168 0.06774917047707929
62938000.0 0.8410051619609564 -0.5331824068562517 0.053228781490712036 -0.21300789138063414 -0.0009607109691086557 0.0028492141368207666 0.43959098769640714 0.058014501060573126
63937000.0 0.8359451536702438 -0.5406996490929438 0.05230419305530106 -0.23097557105573696 0.0010637549145695348 -0.0028080192282434894 0.43305756913352866 0.040495892738018034
64936000.0 0.8304226779671524 -0.545761892966945 0.055119591307485144 -0.24522263844159212 -0.002808259873201148 0.005927989522550481 0.4359397391099116 0.039851508694054114
65935000.0 0.8258084229433057 -0.5596719614925248 0.05264729237865484 -0.2611304900095668 0.0017605082349261075 0.0029308000775824616 0.442213942758201 0.026023539503488607
66934000.0 0.823006895927094 -0.5618065584402245 0.05303887387421735 -0.2753228123232161 -0.0004248384899570542 -0.0001543483194758206 0.43933152238018724 0.010095413783845101
67933000.0 0.8180715709937877 -0.5704958706675765 0.0552789132838948 -0.28440103154074814 -0.0028667971047397147 0.0023224032411181283 0.4400672903562476 0.01074161895945217
68932000.0 0.8137987474905074 -0.5639217381657505 0.052340808579461766 -0.2989814371199124 0.0006702634049687309 0.005045185067453891 0.4489854904574489 -0.003609534054984918
69931000.0 0.8047396247098507 -0.5878153238219028 0.04878337877438765 -0.3169770294850474 0.003567583533634671 0.002693348478574347 0.4468577587993823 -0.013953004768976856
70930000.0 0.7976632775549215 -0.5938917894451314 0.04890138245245271 -0.33011633529754164 0.0011186961157279667 -0.0010064407208848223 0.4482320048027823 -0.040833303246718834
71929000.0 0.7956742782703312 -0.6043097398553059 0.042210036126804205 -0.34994295608880865 0.0025915384877667094 0.0020506560404962696 0.44877561281772227 -0.030658643278655227
72928000.0 0.7879541729316786 -0.6109174774816598 0.037697026251133164 -0.367419188127171 -0.0022299933460953347 -0.000921281069506767 0.46234590370645035 -0.03618865087877345
73927000.0 0.7833414719407097 -0.6186118540173333 0.03361508668975184 -0.386897249620083 0.001001977042959986 -0.003137815529265887 0.4545230522263017 -0.049540821965795276
74926000.0 0.7792934202097834 -0.6262975010869338 0.02906257297956128 -0.40577599684535715 -0.002046310842670718 0.0004273357249204151 0.460806742485483 -0.04756026720034071
75925000.0 0.7703757763206946 -0.630449472902696 0.01404527832622857 -0.42737301397746064 -0.0026238353353690916 -0.0005682682230686202 0.47395947277968414 -0.06454275334972813
76924000.0 0.7636653131951548 -0.6396107254514622 0.0021980678944435793 -0.448349899544866 -0.0029317825331685744 -0.00019145094994597783 0.46273049893089896 -0.07974752194370249
77923000.0 0.758127848179409 -0.6470740573217713 -0.010928350389314312 -0.4722130135270823 0.0016795329024317878 -0.00022961715664351982 0.45191019112820885 -0.08981206577328993
78922000.0 0.7520604979646489 -0.6554806104242628 -0.02599760045586036 -0.49967246290795075 -0.001133821938084061 0.0033685112254554393 0.45612926561959705 -0.09995354520139384
79921000.0 0.7441305945972962 -0.6607533286191408 -0.03943922366938304 -0.5220977952673199 0.00041271132420983553 0.0014064784041089872 0.46439496936289487 -0.10470059102238113
80920000.0 0.7391943194900384 -0.6718230500285466 -0.05750647436280824 -0.5563095113265274 -0.003354916691327836 -0.0010189872953800193 0.47081366457334567 -0.11689393387176741
81919000.0 0.7311244841604568 -0.6777913722032067 -0.07515421436514683 -0.581699284626651 -0.0008260652355946855 -6.191142105707771e-05 0.4705750620858883 -0.1392787289389963
82918000.0 0.7229178692593162 -0.685287601526228 -0.08563901817393954 -0.6126475641477762 -0.0033346264338374883 0.0008010870263287723 0.4722823033801243 -0.13182622574421318
83917000.0 0.7150672243490673 -0.69257137407398 -0.10431323963453654 -0.6388347602799551 -0.0006526912884721891 0.0017257429409032834 0.47481062509841315 -0.13600901860778997
84916000.0 0.7090019300300322 -0.7008411530894068 -0.1272980322728325 -0.6721671277714084 0.001885970603789142 0.0027381789784714987 0.4690384871450426 -0.15671809717352267
85915000.0 0.7034492588513189 -0.7046896458090826 -0.14094569841180482 -0.704740570244972 -0.0038268510704073688 0.0029816599976727684 0.4665591491536973 -0.16711258747616248
86914000.0 0.6947457980408531 -0.716405723537702 -0.1559175159027778 -0.741246267787371 -0.004263522647519914 -0.0028465769215295735 0.4626334973124248 -0.17374960151170024
87913000.0 0.6885094511351857 -0.7212901348178313 -0.17512721408564222 -0.7701294840191497 0.0015467430881788502 -0.0024119647743843513 0.45563737481901917 -0.180045672394625
88912000.0 0.6805433440461359 -0.7307763029850535 -0.1920888528472715 -0.8075105929068791 -0.0015184442967623843 0.005144731956169708 0.4585259381453365 -0.20176088580777765
89911000.0 0.673057598656104 -0.7379821458167393 -0.20764464327559617 -0.8413065925950839 1.2084084620031276e-05 -0.0032341641907052115 0.46739346778351615 -0.20282203186364953
90910000.0 0.665425218415875 -0.7448416793421171 -0.2296509720080128 -0.8757043393975931 -0.0045352190860153754 -0.005525600819308418 0.45894276743732665 -0.19644852547669547
91909000.0 0.6566084987797697 -0.749455768863765 -0.24336237256409843 -0.9099826431273143 0.0007912480321602667 -0.0008431303299505396 0.46817496818189325 -0.2124769943238166
92908000.0 0.647194101595834 -0.7567052951813944 -0.26340873947656607 -0.9385014693474735 0.002537684648298188 0.001838750613403488 0.46228441509864526 -0.2236012427490138
93907000.0 0.6443665956813457 -0.7617289566210761 -0.2806057032745188 -0.9722343722142377 0.0018404849843865919 -0.0009770486055194424 0.46107959709537055 -0.251206061016391
94906000.0 0.6282880040166579 -0.7707527096687784 -0.2954015336775705 -1.0060962895557957 0.0009346442175106461 0.0027064103692666258 0.46677957596726133 -0.24351073851849683
95905000.0 0.6228885045150221 -0.7758226702559285 -0.3167616418381668 -1.0396428414671979 0.001774789064328099 0.0007128629868427666 0.4581616645532733 -0.25880808775572267
96904000.0 0.6153000533847616 -0.7837119301514489 -0.34102400557578494 -1.079044948621255 0.0010407890092691552 0.0012285805444839709 0.45777837932103493 -0.26563124918429054
97903000.0 0.606998199640769 -0.7881105944788873 -0.36338270698230196 -1.1092901838212643 0.00387057869175735 -0.000963478917731964 0.4522345938551372 -0.2818713258451081
98902000.0 0.6018612467025616 -0.795457208922415 -0.3844767730778858 -1.152052627905347 -0.001525740945319013 -0.00046901251278195637 0.4538418483157425 -0.2805421264469038
99901000.0 0.5895101104510194 -0.8027239762807804 -0.41673285803953547 -1.1782510277212577 -0.004263081657803535 -0.00439693299094938 0.45942845957210576 -0.3043359738516004
100900000.0 0.5813968506338179 -0.806817567184849 -0.44715835828029493 -1.2118594313929614 0.0013766692265827594 -0.0014380730373246095 0.4560422934945933 -0.31455211326931387
101899000.0 0.5718287200529146 -0.8155335917003331 -0.4803382679553433 -1.248850888288374 0.002370133585695611 0.000827371670992951 0.4519697018984328 -0.32216865611949563
102898000.0 0.564227256532843 -0.8202012172500243 -0.5137909392461121 -1.2879759549326213 0.002312935666404829 -0.0002715114304802864 0.4579829062434118 -0.32399504344177593
103897000.0 0.5542646798655781 -0.827174865889014 -0.5535224800569623 -1.328504052188246 0.0008415839866527543 0.0015257678502018767 0.4603120890284702 -0.3245240814473492
104896000.0 0.5470037689166639 -0.8377896852891931 -0.60231762555379 -1.3603280848542547 -0.000860499391563396 -0.0012218488641886217 0.43583746202766843 -0.3345581568849887
105895000.0 0.5346443848538531 -0.8390650658275822 -0.6440164644820994 -1.3970007591268434 -0.0038019745185738935 0.0021713443160896453 0.4387182511154864 -0.3554165685926431
106894000.0 0.5249806328705459 -0.8462077414275061 -0.7009986609949485 -1.4352976219541678 0.0010685984323725566 -0.0004912099404683445 0.431198368269934 -0.36014796685577216
107893000.0 0.5175889511426408 -0.8535282042440432 -0.7512456515157219 -1.4803479739871022 -0.0029111822203385473 0.00020475844254565735 0.4385815964102898 -0.3678823842414878
108892000.0 0.5089714317856682 -0.8528270982555883 -0.8124159103285626 -1.5122126668987446 -0.0008394363255404651 -0.0009598048726346008 0.4222099510708144 -0.372149284252678
109891000.0 0.4961867821856806 -0.8629897264372385 -0.866662625900757 -1.5516986282351366 -0.0021610079572591447 0.001765346357846714 0.4467748669771414 -0.3651519559067945
110890000.0 0.479101709702712 -0.8771443984680848 -0.9559378907229188 -1.5570508777751022 -0.0016441677870052752 -0.0008490596320042404 0.4324193001269948 -0.3872217109133732
111889000.0 0.47718784813609694 -0.8684947569267424 -0.9889655043100063 -1.6201170629879977 -0.0005922410064539904 -0.0011798751078293688 0.4119817160138733 -0.39732759756058256
