! Created with skrf 1.9.0 (http://scikit-rf.org).
# Hz S RI R 50.0 
!freq ReS11 ImS11 ReS21 ImS21 ReS12 ImS12 ReS22 ImS22
1000000.0 0.9900197746589646 0.015861611737237716 0.01626741684081091 -0.03223949899094745 -0.008553196963026786 -0.0051527746525701435 0.3152375502280373 0.30056475609629557
1999000.0 0.9926295421509298 -0.019183670796939136 0.007316422222330264 -0.02658812704607438 -0.013719440728675368 -0.004717447298482887 0.25916931253293896 -0.07074789729174877
2998000.0 0.9960425483761627 -0.021402815733443197 0.014850006729675038 -0.009009228487956452 -0.0034828857090132823 -0.004730480968987302 0.1982207010260111 -0.12776441670025623
3997000.0 0.9963419922731254 -0.032972554777868264 0.011163517352024995 -0.0031691239120515374 -0.0033995902854011425 -0.002385569976422025 0.08166853075300441 -0.21294374848709594
4996000.0 0.9932442133564543 -0.039902348326362705 0.013318667372419875 -0.005324145703841903 -1.9881899759670722e-05 -0.0063888981942559 -0.04852382020780775 -0.18494364491717566
5995000.0 0.9953813863556129 -0.05225800680841228 0.013879970688956304 0.0009699012862605642 0.0006452073709227602 -0.0012029004449562479 -0.12641076778056543 -0.10212410395752788
6994000.0 0.991626114301586 -0.057695932589636595 0.005562948246869135 0.006072723275010614 0.0004971729233956165 0.0010137030062455454 -0.1542748810309348 -0.02137857566936818
7993000.0 0.9928416726339581 -0.06988306507798982 0.003761110697901696 0.005558196325853327 -0.0023015779389785364 -0.004019557389478014 -0.1636287491441968 0.03817044517615057
8992000.0 0.9912403496172224 -0.07343039635713967 0.0025116263175141013 0.0007370482642992625 -0.005654439865395388 0.00024387441389450858 -0.15221920825892246 0.07511989950756584
9991000.0 0.988870681420417 -0.08462708538027322 0.009343879910686425 0.0021790080520206092 -0.004090208978442491 0.0018992346809092433 -0.14695029411277907 0.08651430659479233
10990000.0 0.9877128544245433 -0.09514491356620661 0.005877671252036142 0.00023082518462441064 0.0013695232476359602 -0.0016338700421651205 -0.15257935080897922 0.10375019325143665
11989000.0 0.9852671479348752 -0.10190852194628712 0.0033933125030006527 0.0008413790117892451 0.0007878866676533846 0.0024816066588873517 -0.13265654515597156 0.1408231930623705
12988000.0 0.9849058289701578 -0.10973581237502301 0.0027876444767244413 -0.004664300297406646 0.0014400585572108776 -0.00026765754920742566 -0.12044200678632119 0.157578961369479
13987000.0 0.9817783682582455 -0.11805398784105976 -0.0003986502332009072 -0.0012299004194851965 -0.00042725832126597397 -0.0028528264941473365 -0.09634127419336196 0.18104744542812376
14986000.0 0.9833241202221692 -0.12423517164755311 -0.00466486090159701 -0.00055586465119805 -0.0018812284508364992 0.000203541618477169 -0.09125253647394346 0.197951239756238
15985000.0 0.9858399883887304 -0.13339372801862895 0.0028886544523518305 -0.003901057034523841 -0.0027957458874616724 -0.0032934074321804077 -0.06040107175992331 0.2149722588127654
16984000.0 0.9826233721354425 -0.14720066140534802 -0.0015139852979936595 -0.0028717764847493 0.0031074325474914023 -0.0018751521162271327 -0.054042103218526365 0.21085202443590184
17983000.0 0.9827764086707456 -0.15156006329251703 0.0022707323793035444 -0.0018971098555651603 -0.0022221327427198382 0.003972479999978905 -0.05187457679712016 0.22221504144292228
18982000.0 0.9775385646918194 -0.16465193775433526 -0.00845571483895216 -0.004353903203704031 -0.004279701877860406 0.0011161443576608303 -0.021527506004724774 0.24665045000927233
19981000.0 0.9784730524035405 -0.16697003687218334 -0.004644541412040025 -0.009074420262537176 -0.0038207893417966845 -0.0008473559570905591 -0.02947965100535534 0.23635803897564486
20980000.0 0.9759398061215165 -0.1789060152049025 -0.0033888721583861716 -0.007227496625154178 -0.0003797227598060901 -0.0031232195845219152 -0.0032577416813516454 0.2669637202649079
21979000.0 0.9765192855533138 -0.1843446703554121 -0.004479996361809101 -0.0054464808051325414 0.0018410336666310914 -0.002896950511439724 0.011272054843009569 0.24516847152418722
22978000.0 0.9715025450793259 -0.19686115053100844 -0.00274365276367503 -0.001257986124159711 -0.0033120380218969532 -0.0011051923964219617 0.03863368686876839 0.2552736400753825
23977000.0 0.9725623613513442 -0.20313887758796279 -0.003062746806485878 -0.0026197415272237365 -0.0026658519033265727 -0.0002668037801664191 0.03651175408902391 0.25731591151266303
24976000.0 0.9721730980466625 -0.21117039549935548 -0.003850635591030241 -0.002094215568749116 3.096020002413144e-05 0.0005227007010465031 0.05817097100097616 0.2517455297433573
25975000.0 0.9693095169943667 -0.21785428561804218 -0.0033444934833376555 -0.002297469121166148 -0.015794403234781765 0.021170882779589405 0.07923281522372853 0.2589952564579755
26974000.0 0.967533892058304 -0.22861720088066478 -0.004384826141317723 0.000870189456277617 0.0016390593679036297 0.0035943971229383314 0.084309784202132 0.26542488771354866
27973000.0 0.9649983055998034 -0.23521127537494563 -0.00032660410113998244 0.0021594603117498002 0.001835094760874554 0.001474109290761972 0.09852906219835232 0.25419519872592644
28972000.0 0.9629234871210012 -0.24507169719641445 0.0009374538240933125 -0.0002629789908278318 -0.0003134706786253448 0.0006684720398544474 0.11677782172409687 0.2548363605814034
29971000.0 0.9613200738486892 -0.2552140711041435 0.0012572965564640413 -0.003349502673577626 -0.0007017654402541872 -0.0006428246815033215 0.1567696212961345 0.2653167667198335
30970000.0 0.9577162055796573 -0.2612805258703822 0.00324070705520284 0.00026489595179907767 -0.001854605055653968 -0.0036676120986334883 0.17009140838711334 0.2557831598950335
31969000.0 0.9572612196138918 -0.2690102243471879 0.005725215179264825 -0.003923971128794864 -0.0009789709889235921 0.0008714925822237182 0.14426229958328965 0.2442740834471418
32968000.0 0.9559806810682314 -0.27821340619086016 0.011418185254052044 -0.00955057907951913 0.002402620787310125 -0.0019750226371829955 0.1677789407283292 0.2422308289257992
33967000.0 0.954064946123119 -0.2870407342244129 0.012727748609914123 -0.008893564578234597 0.001767523061554451 0.0008893608519364793 0.18467849886505117 0.2423724031835128
34966000.0 0.9491185462190007 -0.29760052751319294 0.01563191965722253 -0.009940825164448866 -0.00025183775803732403 0.005772355877847978 0.19809970118295717 0.2502407036659366
35965000.0 0.9469121160231394 -0.304917313463143 0.019147146153220142 -0.012862716215762017 2.49885188274771e-05 0.0031352953733616244 0.21000566681825514 0.24578166967701234
36964000.0 0.9425966983242396 -0.31503675836042133 0.01607802240483044 -0.01626002326412144 -0.0003519515180611597 0.0007061018194194413 0.21614822657829935 0.2526312381417946
37963000.0 0.9408540111596527 -0.32398216881456904 0.02289422775969709 -0.02032045757696207 -0.0023907510128452682 0.0012034612892732886 0.23468317130440675 0.23657597738677205
38962000.0 0.9373785272428476 -0.3338132398453209 0.025195704668094003 -0.027136786711182043 -0.0028927951895464316 0.001333535158530522 0.23641010746217084 0.23761328485108915
39961000.0 0.9351364904496143 -0.34106429610057165 0.02817950224232833 -0.027888442550178603 0.002289188525800341 0.0010906822921493043 0.23760777558387366 0.21813710354289462
40960000.0 0.9321557568503507 -0.34750950225389465 0.025868542344188145 -0.024277077217757185 0.0007221956843393597 -0.0010672924284363698 0.2682838140663725 0.22560056052678615
41959000.0 0.9299823684861065 -0.35860147567734807 0.03143840544231782 -0.03332865174207384 0.002316004122752482 0.003212325834141597 0.2706073150564233 0.20659991649067444
42958000.0 0.9243460688217341 -0.36664666645669386 0.034899048269700896 -0.042475838274000983 -0.00023878742814598792 0.004530999625083726 0.2802967288346809 0.2030992540842466
43957000.0 0.9228547370611763 -0.3716311882293347 0.035455462279895135 -0.04731513105729427 0.0009756286399000153 0.0002666732784229539 0.2940616010600805 0.20358021707175297
44956000.0 0.9194684750831634 -0.38233299417816685 0.035407279960969075 -0.05577106278327103 0.0017858930401725465 -0.0013096363035450947 0.3071229322843202 0.19054785990685083
45955000.0 0.914528644202405 -0.39264000232058754 0.037207045177518674 -0.0599202464167003 -0.00017435167835597737 -0.0012681823338461446 0.30479470152188826 0.18277290243683014
46954000.0 0.9115032817511239 -0.4003231715525985 0.03994341514818197 -0.06549734249265377 0.00028808201340375667 -0.0012435788644787422 0.3208945482781671 0.17511555418737393
47953000.0 0.9095418337479216 -0.4071698722357391 0.041023389479585816 -0.07503090317533308 -0.0008739710448236712 -0.0014375472696554435 0.334632583944238 0.17063847944353738
48952000.0 0.9014155662388997 -0.4204041587831924 0.0425470587869714 -0.0808086485229644 8.032916527924035e-05 0.0025835345139971597 0.33024902191278765 0.15412570353334037
49951000.0 0.8983275281021482 -0.42421471612131045 0.04139798331455274 -0.09047586831226331 -0.003197727118774992 -0.004070133304801084 0.35294984701659393 0.16037046758977458
50950000.0 0.8959919253120989 -0.4347189852301347 0.041277421644776546 -0.10039857718812221 -0.0033244860128163224 -0.0007738117026858874 0.35948282797298053 0.1392499478296077
51949000.0 0.8917697042515991 -0.4425086807555479 0.04574642816410821 -0.10559278516672477 0.0019509552678940384 -0.004149613120518165 0.35282422714301187 0.14155161865177082
52948000.0 0.8875069720057257 -0.4512854262506467 0.044298604914758566 -0.11480542932725842 -0.0007371239584682915 -0.003097138862604006 0.3655374090483771 0.1387678766364876
53947000.0 0.8842747638661699 -0.45693726541772595 0.04869509325381107 -0.12535466542431778 0.0030787372730194844 0.0016204983980617038 0.37367977949440867 0.13058592855667925
54946000.0 0.8772029965623317 -0.46913858458569146 0.04772977516167517 -0.13624021921068663 0.0016960199427545363 -0.002676604605947412 0.3869713099088444 0.11235258573096202
55945000.0 0.8745188989424016 -0.4761111454488011 0.05433574933477207 -0.1473165569196783 0.0005900796381989832 0.0016887066346464555 0.383727788708783 0.10306605916938702
56944000.0 0.870358887093398 -0.4835647749480328 0.056603225533676194 -0.15534577479247316 0.0013897571037744087 -0.0005341589871232795 0.3970322778096463 0.09930062977868713
57943000.0 0.8649050502882785 -0.49430230630943894 0.05453925558687131 -0.1661714663474747 0.003093021221016042 -0.0004299759463335512 0.40844064609352204 0.08723044697647887
58942000.0 0.8582044463050316 -0.5005871413073593 0.05518381825249943 -0.17797634253190817 -0.0042044302851488215 -0.0005847717353911681 0.41765162115205784 0.08585995136626824
59941000.0 0.8550865816570984 -0.5075474371868882 0.05984638453093038 -0.18837600945613012 -0.0005819895005839788 0.0009492334544188857 0.4145632502682312 0.08014845575580304
60940000.0 0.8479057169202551 -0.514537321432516 0.052952042606568106 -0.1954814756443234 0.0001833952570405618 -0.0011419942128154707 0.4120491519585685 0.07528075978272607
61939000.0 0.8462510576156629 -0.5220024488538078 0.05711608481325362 -0.2004673042462666 -5.248239340299897e-05 0.000708202358539551 0.41696010985208487 0.06195693312404434
62938000.0 0.839221264751168 -0.5326141034646473 0.0585614868056694 -0.2222078792927906 0.0009361328918915069 -0.0013294004740313748 0.4352507888171917 0.055200030650556904
63937000.0 0.8325307404204115 -0.5408814378697435 0.06419290579964393 -0.24149134419386142 -0.0036980663350924766 -0.0026884147862552203 0.4331053404011577 0.03705593949473273
64936000.0 0.8277115832075062 -0.5448591669818208 0.06111926843438812 -0.25762932233628844 0.0022502691890889234 -0.0007791447476130991 0.4346716037282861 0.03990372759742915
65935000.0 0.8238863173149861 -0.555580643862032 0.05886528982612113 -0.2700830962660321 -7.140337408818258e-05 -0.00240221392829486 0.43040682112563755 0.006433879888018116
66934000.0 0.8202600673750404 -0.5628460010339364 0.057823114523377524 -0.287425098423409 -0.0018787491556245036 -0.0016464649694239517 0.4334578701423434 0.009612268216885864
67933000.0 0.816389024162328 -0.5694217169728268 0.0611562735865017 -0.29900557021450774 -0.002977536817920264 -0.0007780112226762996 0.4480183630922447 0.017102709318571673
68932000.0 0.8100081605225279 -0.5754895564751029 0.05589219963278016 -0.31571455745882143 0.0025470202826333296 -0.00013414668945014284 0.4488186960644272 -0.007449891856083217
69931000.0 0.8014934587707437 -0.5855978525829052 0.05648007467836107 -0.3343020240513311 -0.0007253236136670363 0.002226246983297449 0.4513637522590215 -0.019422158739353667
70930000.0 0.7971113853485167 -0.5923358174040877 0.053071017697057736 -0.3474783468807928 -0.0004585256013224398 -0.0014210820937609113 0.43788829833687987 -0.032258530438810266
71929000.0 0.7921557399561896 -0.6013764297571542 0.052393646156606216 -0.3670754232421674 -7.167113465579426e-05 0.0012913604507880018 0.4495145164970031 -0.03486848859680473
72928000.0 0.7839723917994137 -0.6114076448150665 0.040080992945879634 -0.3841175522695426 0.002515853854165605 -0.0031558907182410597 0.4580652775175475 -0.06028613675242591
73927000.0 0.7782439869619006 -0.6157720341479023 0.03604813757200562 -0.4048337825795389 0.001483495326682807 -0.0020353988885253604 0.4616683858782873 -0.06092775855303429
74926000.0 0.7718982655991833 -0.6251742298439473 0.02328785877915204 -0.4276159827935484 0.0011542280756655164 5.737385268542659e-05 0.44718160063404416 -0.06966226873002511
75925000.0 0.7655191768861109 -0.6315979379356864 0.016326815839188484 -0.4482106199912751 -0.00027859311357398826 -0.00039764049402211396 0.46215944832393113 -0.08056170528184997
76924000.0 0.7601239570044797 -0.6394351540108284 0.0018559845803523148 -0.4744280282669622 0.0028975170434881493 0.0006757616148736879 0.45185585391577 -0.09291250184474796
77923000.0 0.7538520526525269 -0.6465924842615881 -0.007415827608425438 -0.4978590694796793 -0.000228481104337275 -0.00781376076032443 0.46237262493658654 -0.0974622668690335
78922000.0 0.7465318151758455 -0.6556529665114442 -0.0256479066724219 -0.5264712091364186 -0.0025021256939958053 -0.0008916672873370492 0.44985523559322005 -0.10723896737365811
79921000.0 0.7380726418220815 -0.660653758677549 -0.04182478427674415 -0.5543225170299451 0.002956454938394082 -0.00013517959213300265 0.46288575320618436 -0.1104764925617362
80920000.0 0.7330628881268059 -0.6708656883215791 -0.057209747530065296 -0.582206092610294 0.0036608971955954333 -0.0033112305960596423 0.45901417531286554 -0.12726009893855147
81919000.0 0.7289675435756066 -0.6754325936393256 -0.07171768339747586 -0.611167970038597 -0.00032624768580801676 -0.0011298741236659565 0.4676416695871449 -0.13553752025084267
82918000.0 0.7196657394910733 -0.683212126647915 -0.09097427249654115 -0.6449626973412688 -0.0032310250164071137 0.002399612020192308 0.4662162051959039 -0.1419200877315498
83917000.0 0.7106665021250181 -0.6904765029784806 -0.10789896314500551 -0.6696095803266503 -0.0011489111838790705 0.0030448090232306183 0.4615193603007886 -0.15544725332906617
84916000.0 0.7053779079226443 -0.6995717958642083 -0.12156757617547494 -0.7109741663329407 0.0020733236111890423 0.0030437952535914813 0.46286990631419667 -0.16874130891304223
85915000.0 0.6994251790201894 -0.7036970827064555 -0.14480605487691517 -0.7411515888102674 0.001572834080066157 0.004180111703481432 0.47009617759082567 -0.16384978272641954
86914000.0 0.6918367187659139 -0.7146698195161271 -0.16025265148127235 -0.7787905567341079 0.005361844582052027 0.0013709001023033457 0.4577008793878562 -0.17878394093313624
87913000.0 0.6843647706236387 -0.7198528396299165 -0.17874793199885794 -0.80678371504086 -0.0010895587294443433 -0.0013918188192403595 0.45929976774658193 -0.19401509357247407
88912000.0 0.6781297545222652 -0.7264009892122754 -0.192873810131493 -0.8415645901327842 0.0032261092014088965 0.0027710545515894944 0.45390643187962215 -0.21310466890077734
89911000.0 0.6693614453826306 -0.7349701239079556 -0.21235080572982606 -0.8815691995021682 -3.4461819187730116e-05 0.0029821915284983414 0.46087350510636893 -0.20811128244275878
90910000.0 0.6620301205815491 -0.7388378853170563 -0.22867234015748172 -0.9225782807691177 -0.002275365581846636 0.001485780072940716 0.450926724341667 -0.20530756679551357
91909000.0 0.653982143022228 -0.7453648164765051 -0.2524150173428223 -0.953369259952209 -0.0006317483341844015 0.002226446233519066 0.4618599830159317 -0.22495887456493754
92908000.0 0.6453623409120602 -0.7533474234153229 -0.26966113795521773 -0.9826245179078817 -0.003260485829061135 -0.0005523716551304253 0.4527662741284887 -0.23373724523876416
93907000.0 0.6378518653494784 -0.759702060791723 -0.29249768557732986 -1.0178445891278813 -0.0004567805469810162 0.003501724528720454 0.46304028254631563 -0.2558746437309257
94906000.0 0.625031738158971 -0.7677423610736712 -0.31344837498866635 -1.0484789958248877 0.0015225987773070325 0.002079757649401278 0.4491526200980301 -0.2503827660784078
95905000.0 0.6189489680079989 -0.7747006679788221 -0.3362075964654332 -1.0864281490181191 -0.002271941210000348 -0.0008712228251177514 0.4486268412517899 -0.2683408910480124
96904000.0 0.6108470856231627 -0.7824018526292538 -0.35491725646567934 -1.1283761967375399 0.001530545351175437 -0.002621395675970199 0.4484911311522203 -0.2719599813204177
97903000.0 0.6026796933479103 -0.7882859894575501 -0.38278296629074177 -1.163469820981043 -0.00044769821006163335 -0.0005382736024398834 0.4385292886405439 -0.2952631619393427
98902000.0 0.5958335612898353 -0.7934777944723294 -0.40400854895159727 -1.2021097400395793 -0.0038044228970914315 -0.000357369048922035 0.44124206851061104 -0.29334766360323583
99901000.0 0.5886034123389282 -0.7992585055286991 -0.4368057154226573 -1.2373878867558468 0.003120453614885612 0.00023012134293089135 0.458609109956097 -0.3137358976388844
100900000.0 0.5801419838951043 -0.802295149527437 -0.47066955689572115 -1.268566926838149 -0.0014470059648374208 0.003162587831274402 0.46364492235198757 -0.3223887174099296
101899000.0 0.5694144805709795 -0.8121856829913229 -0.5081254403171562 -1.3076444349847156 0.0004299661196711439 0.0013776637297337618 0.43618139622214247 -0.3212812729598511
102898000.0 0.5593885914153012 -0.816099042719329 -0.5401373232842228 -1.3468098824924604 -0.0006837726673212026 0.004263375968821592 0.4492111444579829 -0.3429619704511701
103897000.0 0.5509010112456608 -0.8260139053318101 -0.5848054133751686 -1.3828297463578436 -0.0001952606261456203 -0.0011877094958268291 0.44875308822987237 -0.33824634239582313
104896000.0 0.5438735149096664 -0.8345445939419923 -0.632770386579898 -1.4237427073469162 -0.0036727425761364867 -0.0014702602184424095 0.4316715247828023 -0.33738091650490626
105895000.0 0.5297202962496045 -0.8366798883881643 -0.6892493696973125 -1.4632064796862598 -0.004052144404983438 0.0015925143188246138 0.42226469242870135 -0.35403022536655576
106894000.0 0.5240913769482786 -0.8425079456352073 -0.7389840774196099 -1.5062749244109748 -0.00012494273853645021 -0.0018020253880497944 0.4288074037737849 -0.3593676202801056
107893000.0 0.5153359715459535 -0.8492837691889491 -0.7951683599386888 -1.5452837755821471 -0.0003765427519188629 0.001279467790286793 0.42870174676700057 -0.3905061719664908
108892000.0 0.5062198781663966 -0.8522955696295731 -0.8577985961774824 -1.5864612855332905 -0.0019354258000797893 -0.0002014910514998308 0.41725482127401836 -0.37492993771848493
109891000.0 0.4928603070770323 -0.8607487723208982 -0.9196499787507956 -1.6275864278998093 -0.0018973445131659126 -0.0005123171302183894 0.42855360558480465 -0.37722139774443286
110890000.0 0.489155782674519 -0.8701384512318018 -0.98793533531904 -1.6476507676167471 -0.0020106319342057806 0.0006267252589068999 0.4187918534722614 -0.3759177748434729
111889000.0 0.47363043877870864 -0.8660647181073063 -1.0547118181140618 -1.690279925110196 -0.0030104435069930715 0.0005893676691542015 0.4141736208562986 -0.4065694368343285
