! Created with skrf 1.9.0 (http://scikit-rf.org).
# Hz S RI R 50.0 
!freq ReS11 ImS11 ReS21 ImS21 ReS12 ImS12 ReS22 ImS22
1000000.0 0.9909869693891554 0.0035738530659465604 -0.008808766404635255 -0.03832220894932166 -0.013003132901193726 0.010329221425349212 0.3673461327431356 0.3403721610012525
1999000.0 0.9939225632116209 -0.009894117721219653 0.00971993560637965 -0.025035522889730762 -0.008151148892706102 -0.0012945761095571292 0.25796719492060655 -0.06562552845534894
2998000.0 0.9956039876299991 -0.025799294168728025 0.009649711483374887 -0.012763757783275381 -0.004568262955291443 9.791849941603547e-05 0.18116734431955478 -0.11079287057026678
3997000.0 0.9979234069067096 -0.029466255372984845 0.01595613754035418 -0.010527802055666701 -0.00033544422410055377 -0.0040000167144859005 0.09136871610325425 -0.21342823556721105
4996000.0 0.9946721812087747 -0.03703179575538624 0.012433257708037111 -0.003961147197673391 -0.00395434300714973 0.0043097950292683325 -0.05241194210851381 -0.18622895053268113
5995000.0 0.9951928061687166 -0.049686198222395395 0.008290746323189675 0.0044630822268155535 0.0015422230574898025 -0.00029969720206035486 -0.123612155277195 -0.09436175731840007
6994000.0 0.9918030789841834 -0.05942858373487997 0.007717411005674338 -0.0014942799770781212 0.0006721172909023832 0.0037517014189510124 -0.13440484474125203 -0.01361330839729776
7993000.0 0.9902254236381045 -0.06978601930685306 0.0030371078287013834 0.005202186894532025 0.0015093067820743324 0.006375656843838479 -0.15333792434057494 0.047366503659063856
8992000.0 0.9912880595412863 -0.0732480816480627 0.00013092453994131606 0.005052005309116486 0.0027353733855385366 -0.003845027365908784 -0.15338140247690213 0.07638873685320738
9991000.0 0.9893624815482633 -0.08339328966207252 0.0038987015356628536 0.0019125243617585906 -0.0031745342006720976 0.0032505655949177773 -0.13911588041383516 0.08998802538073339
10990000.0 0.9881969038064978 -0.09254316257969207 -0.0027944016259850006 0.004790794220762607 0.002365914029610449 0.00015525661754801115 -0.14617603175781574 0.11703647652137363
11989000.0 0.9864807849597174 -0.0998498735615618 -0.00040128247214281707 -0.0012694067454945043 -0.004688157499663788 0.0017615856969066769 -0.11017153609631894 0.1443153718360504
12988000.0 0.984755880186588 -0.11133580155070698 0.0014280658079056769 0.00024294858466495801 0.0017750800177110653 0.003196654273912474 -0.11813777173561478 0.16449106537846905
13987000.0 0.9836465596295036 -0.11743230785878889 -0.004123145182910701 -0.004836275378092142 -0.0013901486420584638 -0.0014090082039445366 -0.08939881932696848 0.17993780312625818
14986000.0 0.9822409256702828 -0.12519109400986259 -0.0037612901903242356 -0.007025796477935486 -0.0011281987473659753 -0.001288723196982907 -0.07513431669211519 0.19262279452759204
15985000.0 0.9837058831053016 -0.1372134134296597 0.001461805661654995 -0.00483833217352358 -0.00011423348380167681 0.0034043597312361884 -0.06035539781716855 0.22563498837188645
16984000.0 0.979819510311602 -0.1469452169440454 -0.0006643288270977261 -0.0029203273011035864 0.0034600675509099885 -0.0011852960793151018 -0.057082996840659046 0.21709876239974124
17983000.0 0.9807285216453161 -0.15095439693958215 -0.0055819531721067435 -0.009750958349034593 -0.0014733400802243164 -0.000793899329457838 -0.04998641188741381 0.22083309104086238
18982000.0 0.9800481619811445 -0.16388801927346688 -0.002028701733911651 -0.005886759271095078 -0.0007624859837181826 -0.0003994405559020206 -0.031768047706724534 0.24663740625199837
19981000.0 0.9798493770863812 -0.16649737698663827 -0.0017144668844458774 -0.003666241056441658 0.0013978669656457 -0.0019960111273378423 -0.0012778084282207244 0.23988922221793305
20980000.0 0.9773357872367633 -0.1764659886218764 -0.005455877687403431 -0.008310197097866776 -1.3123143634038226e-05 0.00350057438819436 0.005467955315570609 0.25347833061164604
21979000.0 0.9746428791817271 -0.18475056089320363 -0.007184499663789077 -0.001578606003477322 0.0014842046262246627 -0.0018906590534502276 0.009774783731492279 0.24602634112885668
22978000.0 0.973741238370171 -0.19666008002216875 -0.00831613559511235 -0.003251627933897935 -0.003486341203352121 0.001724081984799239 0.02902566511794797 0.2514413109668949
23977000.0 0.9738851122708728 -0.20293039016655282 -0.005340318422262459 -0.003973987849836006 -0.0009056473106539021 -0.0027157177174504635 0.042814994839341744 0.25475286187335977
24976000.0 0.9710321157718315 -0.21159151952921063 -0.006164260169971213 -0.0010119557547098941 -0.0007986751947585879 0.00047653071315218674 0.06306332152962728 0.260559479012261
25975000.0 0.967982558515898 -0.21738419392866667 -0.004870948218411207 0.0007862297356121098 -0.02752047770057092 0.00362295344917359 0.08040288499549203 0.2575569261832453
26974000.0 0.9676239766134624 -0.22779621685346216 -0.0028761902105915466 -0.004095760806675282 0.0007504353905107142 -0.003821052866466654 0.08247490806165275 0.2527451748229072
27973000.0 0.9653015843697403 -0.23626021102011435 0.0017907868373787624 0.0004707313041385405 -0.00024775453518285684 -0.0001445023488678525 0.09986004225832135 0.2557788312843076
28972000.0 0.9621474419555658 -0.24666545843988993 -0.0026407111153935953 -0.0029934312091372192 -0.0022687827032505173 -0.0003192125590516042 0.1251201381541005 0.2611746100701575
29971000.0 0.9606028417905509 -0.25443645733447456 0.00019164269266032263 0.00012363760298509963 -0.0007448806862433147 0.0005065307576117056 0.1538245340907352 0.27232769243279
30970000.0 0.9579475598878903 -0.26121444119695403 0.0015110739122392212 0.00030795529180557135 -0.0009192484142128447 0.0001100779487098588 0.166320155333808 0.2511334297514729
31969000.0 0.9570390714091431 -0.2688329810817956 0.003370538427944476 -0.005209895935069105 0.0012642518975800755 -0.0030431907418308796 0.15290590641336962 0.25439114497542137
32968000.0 0.9556800223083296 -0.2772302249715041 0.004138263265750633 -0.00733150901004281 -0.0012509683340266504 -0.0007670697269424643 0.16371489860238914 0.24977181636767876
33967000.0 0.9520815645027972 -0.28897414968627566 0.014806203930626784 -0.007895062063314766 0.001638134490404308 0.0012019292705262726 0.19030066489039105 0.24162504304039983
34966000.0 0.948352904989799 -0.2981786646147063 0.013962958813256108 -0.012086830337160919 0.0002928578334170283 -0.00013849874156931567 0.18690953218480802 0.2468267770714033
35965000.0 0.9465089040191419 -0.30542023301916793 0.01838153285508299 -0.013441819080299532 0.00012919032203160071 0.001360059907648693 0.21174624430059122 0.25125819585954673
36964000.0 0.9453606418534415 -0.31426783627894417 0.018516598897664202 -0.01686741043767599 0.0007982873721164522 -0.001621292159279261 0.21516778228710198 0.2499235147453122
37963000.0 0.9413313524707477 -0.32222434479814366 0.021700111689035687 -0.021416370059685108 -0.001369733417809385 0.003112251080718942 0.23946899114372425 0.22870119221728366
38962000.0 0.9393692174597593 -0.3315694313730372 0.023560257399169116 -0.02389097844657889 0.0030375824199317977 0.001345424679096264 0.24371776049261396 0.2385862890579944
39961000.0 0.9357924002921286 -0.34193900649749914 0.02587196490698848 -0.027601464700837096 0.0036864598510244046 0.002314410903120949 0.2547222355625116 0.21738834614586938
40960000.0 0.931963507066693 -0.3484009785691625 0.024944037184011437 -0.024051162147860024 0.00010885801154394071 -0.001714582103342543 0.2644987211378352 0.21371166753701046
41959000.0 0.9295582151585262 -0.3573672374690987 0.027435402329181565 -0.03146490290539507 -0.0001373303814542917 -0.0003497722060293224 0.2728993822478726 0.21922632120420563
42958000.0 0.9240828404023833 -0.36696705809086383 0.033397492768478115 -0.040957413680302764 0.0017252944653988111 0.002963221492474741 0.2682056200842981 0.20420477576490992
43957000.0 0.921811499930808 -0.3740508901303591 0.030883415833178687 -0.04204342568814972 0.0038523066502531705 0.000455072553749612 0.275802505941515 0.2021517859564455
44956000.0 0.9187467447288725 -0.3811510270484652 0.032375479172467685 -0.05225076003651154 0.00046562291795850555 -0.0011474271664013392 0.3066245523084359 0.19377150061258053
45955000.0 0.9141964290988087 -0.3916202424836933 0.03458510688211989 -0.057993549713759925 0.004126581738996701 -0.004348438711523822 0.30162647392627695 0.19014649307521025
46954000.0 0.9121573253444172 -0.39983016751805905 0.03492606003912866 -0.06582477150733741 -0.00394818641301903 0.0022093053987739973 0.3290570838047671 0.18175845406446017
47953000.0 0.9087266786897324 -0.4069861136138772 0.034858758591434565 -0.07386908586488725 0.0018474153743576747 0.004335371937329817 0.3345895082565671 0.1691162542679698
48952000.0 0.9026833471654144 -0.41629575379799866 0.03537508089661448 -0.079826298340885 -0.0015684860955175366 0.00026556728840192796 0.3385589599633812 0.1628930517410539
49951000.0 0.8985192575266255 -0.42522078263391766 0.036143106043757485 -0.08714974980732705 -0.0029412779152001023 -0.0009480153277754227 0.3487113854091499 0.15245823053555138
50950000.0 0.8943195793317517 -0.43233104387364873 0.037152400002196516 -0.09749239114826751 -0.0003826835346511241 0.0011710839552017275 0.35691664422755653 0.1459444767140567
51949000.0 0.8924735200040063 -0.4407318731163637 0.03660917833105853 -0.10472631321193712 -0.00243415389003371 0.000318354214637968 0.3584817239791462 0.14389967860610123
52948000.0 0.8896118338867829 -0.44880080767596114 0.03900908309652129 -0.11627454075066776 -0.0005596872470960489 -0.0017021589197727825 0.3658528011847603 0.13426773921632945
53947000.0 0.8816963957615724 -0.45787839129516966 0.038862835991166376 -0.12552780918300016 0.0017254826399389195 -0.002330221113235698 0.3765935928127892 0.13709631947778592
54946000.0 0.8784658819135058 -0.46434943710521126 0.0421663837696258 -0.12957774773390932 -0.0006479239419049716 -0.001276501514361547 0.37989005160355 0.12005856041387525
55945000.0 0.8736847272675564 -0.4735074053279585 0.041631351472005744 -0.14052971620071794 0.001371254925876155 0.0010852652243674725 0.38673159959888015 0.10191937866613703
56944000.0 0.8692884805784757 -0.48400436895710475 0.045368327177830015 -0.15420920806156607 0.0007844147555141486 -0.002259311358624056 0.4000193981341562 0.10401164550004698
57943000.0 0.8662417383618258 -0.4930218435048107 0.04320561319722082 -0.16239637741693053 0.0015062199466921405 0.00261191849579705 0.4091892868023785 0.09416126590998469
58942000.0 0.8587223280186058 -0.49845222034143444 0.0452701455961801 -0.17117427110378083 -0.00039895455632665464 0.001974464295654698 0.4162300729924179 0.08928410627366136
59941000.0 0.8563389599416918 -0.5078455674139348 0.04581313020143896 -0.1829674531530294 -0.0007209518746396839 -0.002393333235584741 0.41565192150153185 0.09700141032631629
60940000.0 0.8481594526052653 -0.5148638979199617 0.04667756671250527 -0.18796956372958262 0.0006566363266422844 -0.001104536051579 0.39894530308810894 0.08176434759659544
61939000.0 0.8452892556880631 -0.5213301795238027 0.04680745953820629 -0.19445952642508715 0.00010914508323602709 0.0004937540672920079 0.4168401182233999 0.06380422769152554
62938000.0 0.8385847005944599 -0.5319876634640134 0.04932597973407376 -0.20983260064459416 -0.00016694803615872444 0.000964522394101135 0.4431522948496232 0.04741249906092929
63937000.0 0.8329776251387507 -0.5401997846965572 0.051136842109746616 -0.23151538070729308 -0.0011696711445519242 0.002931895593230187 0.4374001257672432 0.041383171343069264
64936000.0 0.829009634971364 -0.5446133710942523 0.04975143893521308 -0.2453717272341615 0.0017841527116811578 -0.002215995890858277 0.4368529375255099 0.03793597021525798
65935000.0 0.8245909137927145 -0.5571935895534837 0.05228331923314014 -0.26282877165562674 0.002878270962461575 1.6232408925328884e-05 0.4384249248070959 0.02456596367294983
66934000.0 0.818845956660848 -0.5609650066458518 0.04854484676431778 -0.2690203281387466 -0.0020962187000612186 0.0015233386957645542 0.43057028010911064 0.0008882228616636117
67933000.0 0.8167425183810217 -0.570316203885727 0.052321919423388256 -0.2859925645121083 0.0019443534371737703 -0.0006326210436703362 0.44118979704523603 0.010899551771673427
68932000.0 0.8090751111181197 -0.5733223398710382 0.04672383688775964 -0.2993443415489527 -0.002722043803391899 0.002494458680538879 0.4483951518499575 -0.002024153883384088
69931000.0 0.8033525400615805 -0.5841462845500317 0.04809221068902213 -0.31182179083220385 -0.004082831631818231 0.0014273951102355925 0.4533764876071124 -0.02705432141965245
70930000.0 0.7957450029422549 -0.5923291751259859 0.04607453750399634 -0.3261545621998761 0.0017687271557244963 0.0016200654775356254 0.4551157893148852 -0.03379819673146747
71929000.0 0.7924002083072345 -0.5992289986813483 0.040772456587704585 -0.3482564798604668 -0.002088060357763301 -0.0015217942616652872 0.4533997133765089 -0.03912279275230164
72928000.0 0.7853441801313601 -0.6115023959223724 0.035804567142819245 -0.3598626776503795 -0.002030240982029488 0.001303794255198243 0.46444552939519435 -0.049031288427469066
73927000.0 0.7781247970992919 -0.6162509013284976 0.032485193573701915 -0.3792754792247536 -0.0071976665407864895 -0.0010856003710696888 0.45476976367169275 -0.04882885560232503
74926000.0 0.7733422128021384 -0.6272575611846317 0.020634080564352772 -0.4008047610939194 -0.006365640811585522 -0.002217905250540882 0.4567557515402044 -0.06476914495925547
75925000.0 0.7666728589038274 -0.6315996118525026 0.011852411896631224 -0.42011095507781343 0.0015694882610450627 0.00029152613873672704 0.4789667185075704 -0.07169128714209179
76924000.0 0.7604055620218002 -0.6383737588844877 -0.0011945477997874158 -0.43964252505876183 -0.002442304877305537 -0.000757498665685019 0.45956539534339785 -0.08222190111440125
77923000.0 0.7517112121998144 -0.6451026003211318 -0.015474737818317486 -0.466661954188055 -0.003125156162186336 -0.0025245693406497614 0.46192783589914416 -0.08738185235810333
78922000.0 0.7463675818743303 -0.6562406462053877 -0.02885179310521288 -0.4903228454654892 -0.0025595404987075678 -0.0030712557229048538 0.4594325722126645 -0.10545421857400902
79921000.0 0.7380603560928495 -0.6594063377137773 -0.05128723426951188 -0.5163682914651364 -0.000612616836247161 -0.004756081079706959 0.4583094331867137 -0.11394058206395638
80920000.0 0.7345533979862812 -0.6701396316028534 -0.061739370524486296 -0.5428312711563696 0.0027981891569170392 0.001915959218410431 0.46788113484564176 -0.12859334934418024
81919000.0 0.7304477357675936 -0.6758389630215142 -0.08397350568386841 -0.5743568568513493 0.0017507080500767172 -0.0022231628545602723 0.468821595304686 -0.134615095564982
82918000.0 0.7170389575220558 -0.6844636271422196 -0.0970550924035574 -0.6025641654060893 -0.0010547403388176581 -0.001291520005757097 0.47469891013611715 -0.1499282973877265
83917000.0 0.7110337153345927 -0.692095632515829 -0.11688996051303804 -0.63128928442059 -0.0005014841158098314 -0.003713662758560534 0.47241757472181906 -0.1535154574202693
84916000.0 0.707042418577379 -0.6992915080116806 -0.12865255402417902 -0.6690026510650431 0.0005146879053795544 -0.0022507126434780623 0.45801708437330085 -0.1713502627665934
85915000.0 0.6994277888727597 -0.7040855736184078 -0.15303120108148052 -0.6964090163550148 -0.0048919928006910945 0.001923276039362653 0.4667943661185382 -0.17757620534855492
86914000.0 0.6910444816131218 -0.7144523240133325 -0.16694006862772595 -0.7328194716924287 -0.0017501250612652788 0.0017182965819762328 0.4620730891326864 -0.17491741342809874
87913000.0 0.6857414037836645 -0.7216313618093444 -0.1858507971635254 -0.7627806849355077 0.0004855764905752222 -0.004631076994852774 0.4608189955945486 -0.17947982158513368
88912000.0 0.6763484185391463 -0.727307038943386 -0.19979364405570374 -0.7941854874876163 -0.0024519606413506995 0.0005839290527376301 0.469937583959995 -0.2109162276801921
89911000.0 0.6693657441668764 -0.7355380733075099 -0.2175481554632701 -0.8258010616029317 -0.001910957462308804 -0.0015650118270947014 0.46992090382426877 -0.21479528038106968
90910000.0 0.6621479805543525 -0.7394125765618222 -0.23438926664889265 -0.8624810182982546 -0.003729326586850526 -0.0014718714825384075 0.4643928271228778 -0.20715095522063356
91909000.0 0.6538442631866188 -0.7461933417633446 -0.253323169671819 -0.8984921752961585 -0.00015960746003143737 0.0023329790457323686 0.4640498960248021 -0.23640619014605
92908000.0 0.6461516317124941 -0.7545633629830442 -0.2716002479553617 -0.9284764010762934 -0.003921838848340951 0.0005065974155951889 0.4634400328317281 -0.23815853499911938
93907000.0 0.6400410309434211 -0.7591242494018239 -0.2897126962966456 -0.9620527160574558 -0.002196332483747397 -0.00268382406191911 0.45601399963153416 -0.24543489524729595
94906000.0 0.6261407474675321 -0.7670342845569552 -0.3058442251527126 -0.9921875870729975 0.0019006619941418757 -0.001874533117585451 0.461543610045625 -0.24515445773644842
95905000.0 0.6216778640659851 -0.7721546681153681 -0.3259066586745922 -1.0251224112717285 -0.0019801952443317186 0.0020179755170284014 0.46293728022230474 -0.27083064072843616
96904000.0 0.6117238589063844 -0.7814011460739497 -0.34713648296333516 -1.0589380338607381 -0.0006109249889244768 -0.0023260688132090215 0.44629326925322826 -0.27505084512734274
97903000.0 0.6043809114147966 -0.7848757146755275 -0.3602527300613316 -1.0923136198145464 -0.003235858363642333 0.0002318248384167695 0.452623267750883 -0.28592889464954824
98902000.0 0.6001289016575091 -0.7936610105355759 -0.3814028842545281 -1.1344224769275013 -0.0029863398419919945 0.0016791142787288868 0.44839656475739037 -0.28507751363755685
99901000.0 0.5888609874720547 -0.8002422123197681 -0.4129177999367683 -1.159875650155817 -0.000957841442180827 0.0006263868718978338 0.4612296738913724 -0.32040349425694203
100900000.0 0.5786968423363594 -0.8030288053562754 -0.44643379630696195 -1.1869197452292022 0.00240251781320347 -0.001125210631899653 0.47266830015203903 -0.3226674037525048
101899000.0 0.5690156006173733 -0.8120813049159856 -0.4711499407734064 -1.2272748828054845 0.0001744372546822114 -0.0010279841430902636 0.44881995364034627 -0.33027331668676685
102898000.0 0.5603961832413569 -0.8148596445944046 -0.5059424038926936 -1.2658704113562662 -0.0006346440100153379 0.0008442557038679998 0.45631232432604246 -0.34766711130787836
103897000.0 0.5506891261986178 -0.8232827902249645 -0.542473154680337 -1.2954696097119236 0.00277669913918607 0.0039032768741460474 0.4575572307390592 -0.340308995948393
104896000.0 0.542943018464301 -0.8320660289609676 -0.5909732348160609 -1.326424990971989 -0.0017685218090843849 4.246406641967474e-05 0.4411948392718697 -0.334622879858609
105895000.0 0.5304616279761198 -0.836092001263572 -0.6395294189054628 -1.3669173868758275 -0.001334342258767652 0.001373642958147 0.43646817683659334 -0.3598349926034714
106894000.0 0.5241624978506013 -0.8429664669730453 -0.6881567100288513 -1.404419216548701 0.000321794380247309 0.0003788476457604697 0.4361671300817995 -0.36719171522272476
107893000.0 0.5151127941517537 -0.8508885884469088 -0.7435282237303205 -1.4442320900525076 0.0009404998389413394 0.0024456368065293986 0.4315523606885556 -0.379969221303693
108892000.0 0.5044537969724593 -0.8536948359431893 -0.8001801280074471 -1.4774012608370772 0.0006047420390988275 -0.0006342527866794062 0.41748796004440347 -0.37872217720376844
109891000.0 0.4920504431094299 -0.8592450701050391 -0.859756069183141 -1.5132180100708403 -0.0017775901777979043 -0.002601787231922782 0.44823143371958185 -0.3788773155860457
110890000.0 0.48392209439355205 -0.8618183206452263 -0.916500551841586 -1.5183466570497226 -0.001851748535411485 0.0016374223360212904 0.42578860877696817 -0.37869470574035496
111889000.0 0.47374546705418713 -0.8665689496967972 -0.9787333597211325 -1.579003268257854 -0.0023830790971335375 0.0010785422722384154 0.42132487355444254 -0.4029573877140522
