! Created with skrf 1.9.0 (http://scikit-rf.org).
# Hz S RI R 50.0 
!freq ReS11 ImS11 ReS21 ImS21 ReS12 ImS12 ReS22 ImS22
1000000.0 0.9681608105368166 0.005100734803407218 0.009230955995783994 -0.029578452239290672 0.002835385369824733 0.01335355455837448 0.4173935518242607 0.32082770745764494
1999000.0 0.9948720142325538 -0.015059182197956565 0.011124794040675677 -0.02380090484272703 -0.008907627444830797 -0.004757076266636595 0.2559877683062205 -0.06932105687199795
2998000.0 0.9962027457194998 -0.021211142023227894 0.011067817204152298 -0.008785667479222646 -0.002551169024253919 -0.004687123103022504 0.18102372674788217 -0.14615637982759452
3997000.0 0.9978837330108725 -0.02916707258272258 0.008267561589118294 -0.011540692142979807 -0.002978578448011114 -0.00027597353153464464 0.082688094980327 -0.21326912265073542
4996000.0 0.9951337197096608 -0.038251599105193004 0.008922593926220143 -0.004224059487303581 -0.0036799135368301974 -0.00024595397591798703 -0.04090666973196416 -0.18464576375235367
5995000.0 0.9991293737819162 -0.04675707336559804 0.01110169342544833 0.0021956295929544474 0.0007497428992053127 -0.003117018121337637 -0.12469972274461287 -0.0959446841688307
6994000.0 0.9933619776432857 -0.06073899066810687 0.006366557014955301 0.0016071140817700044 -0.0008966150994893274 0.0012490614631649414 -0.13838032581327786 -0.019972784193773768
7993000.0 0.9942019707261318 -0.06918680786946103 0.002824622917321221 0.0018508823977075785 -0.0037466961300699235 -0.0002689340212767022 -0.15343383645973205 0.04215398922211514
8992000.0 0.9930343413312924 -0.0723057356394793 0.003715069108312583 0.00503017724656513 0.001200404274882708 0.00080044566802021 -0.1422823524681848 0.07155492933180237
9991000.0 0.9924368126861594 -0.08704366855399082 0.007879926363190433 0.003969501986546471 -0.002208948336056268 -0.00198183326320209 -0.13467567700769825 0.09290813324896877
10990000.0 0.9925150598163108 -0.09434097365845302 0.002138168219005337 -0.00020897535811560444 0.0017217702323220282 -0.0023627062846637856 -0.13085021049383222 0.11007708483930614
11989000.0 0.9880654633507782 -0.10089043706126045 0.003281470778334034 0.0010994083983396847 0.002679013176179277 0.00031908578937148326 -0.12343393378178655 0.13613035762515846
12988000.0 0.9890714654729665 -0.11303465664635001 0.001823030035800055 -0.003073725876777376 -0.0013585713886916915 0.0022445795609040745 -0.1197845534392402 0.16774924278625467
13987000.0 0.9870047660933507 -0.11832975888596307 -0.0013982931038190756 -0.0027953463099787863 0.003970420966438551 0.0009767053864217004 -0.09723125818670589 0.18438962291916033
14986000.0 0.9834181054546464 -0.12757193456632276 0.0013615216830064518 -0.005752540393496015 -0.002954371054045343 0.0010764779588635373 -0.07344499728965875 0.20314926806417988
15985000.0 0.9889481332695793 -0.13654000032083888 0.00042994763474662643 -0.0004398695384699667 -0.0006880375890536984 -0.0027680130056938266 -0.06734596716667131 0.21858379859924576
16984000.0 0.9833180081210048 -0.1478083264837932 -0.000464341798980156 -0.0029145782224206766 -0.001822605267198104 0.0002880887755635893 -0.057915891139408295 0.21683413940922264
17983000.0 0.9849372957212111 -0.14970010599324093 -0.0036364325555369244 -0.006291497579593525 0.0014388714420634937 0.004164931078435046 -0.05220332372584331 0.22382698525920597
18982000.0 0.9832125718332989 -0.16066084166949335 -0.00533821736448588 -0.009292312237866387 -0.002826796551456442 -0.003139771725981678 -0.026234817258362374 0.23629042797013666
19981000.0 0.9812689818164525 -0.16893164328479857 -0.003662470348355564 -0.004582504047070365 0.0024651019149536726 -0.0041382524799112655 -0.009301318267098744 0.26408733664063816
20980000.0 0.9802003004093149 -0.17988238061991735 -0.0055878996888350085 -0.00651070859175233 -0.003091576239108629 -0.0041631134529674955 -0.00980817323633346 0.2555533933214939
21979000.0 0.9772271117852904 -0.1888810501923885 -0.0035286003756211464 -0.004183846120409582 -0.000956512848054142 0.0016876303689245325 0.012918094996131224 0.2539633603611374
22978000.0 0.9749579245368879 -0.19771951514133357 -0.00656187529578631 -0.004279854744678763 0.003318417403917906 -0.0036545863809567766 0.03708948480895662 0.25743350606392745
23977000.0 0.9763539180309058 -0.20544699325787025 -0.004554994926206201 -0.001534776478297661 0.005734966256722994 6.135711278651464e-05 0.035813185225163094 0.25703993862913244
24976000.0 0.9728821941906972 -0.21433755300388774 -0.00864281876572529 -0.007130189840195474 -2.2276059529513597e-05 -0.0025021494511162693 0.051716427451713655 0.2575094518985112
25975000.0 0.9676979766428246 -0.2208958542421819 -0.008945924236248877 -2.7255015519623837e-05 -0.027558697005606172 -2.3050545099951855e-05 0.07769087274919566 0.25446839354363493
26974000.0 0.9694799936868956 -0.22993470361356244 -0.003941547981988614 -0.002664119767893607 -0.00028909988612875736 -0.00014633631306459622 0.0806850148602764 0.2668252570321014
27973000.0 0.9671505920906464 -0.23992966703538832 -0.0006456657961836029 0.0009493746610056506 -0.0019174367062126318 0.00360542849311541 0.09686459986735507 0.26306850465712767
28972000.0 0.9644177186749886 -0.24761322666959948 -0.0023359590996938004 -8.701901339528139e-05 -6.100466465572307e-05 1.1954781702012476e-05 0.11984163077096054 0.2522465122992918
29971000.0 0.9616186710599707 -0.25698711134774055 -0.0006577661911957139 -0.0030648967998594804 -0.00041582762791578655 6.620229445585839e-05 0.15535690598914043 0.2661493743473416
30970000.0 0.9608731143307001 -0.26259499767973754 0.00047084201344432954 -0.0013258138949263166 0.00603338757695706 0.0028027176596689546 0.1674319324585619 0.26008047868533224
31969000.0 0.9595123828137024 -0.27119974695447435 0.007061063024735853 -0.00436190786971804 -0.0008922987634641568 0.0009764660654607189 0.14978126522186616 0.25630200327062796
32968000.0 0.958153567521187 -0.2797438327531499 0.008440866860764515 -0.005721430187011583 -0.0009085468878442187 0.003256588384446764 0.16240977697050668 0.24195315007949428
33967000.0 0.9555519721941476 -0.2879741384584303 0.014502879267572951 -0.012921683001846263 -0.00046631965572144793 0.001347050518240437 0.1864594381428548 0.24345974548875815
34966000.0 0.9512874515809028 -0.3008783752111668 0.011756561465908264 -0.011968628325264385 0.001461915208964258 0.0014480408358533918 0.2078839258593138 0.2575187448503881
35965000.0 0.9487567238265321 -0.30631429236479574 0.017637341574515172 -0.015488483847164596 -0.0028922494761719083 0.001888237049838637 0.2101734848561814 0.24944491934174262
36964000.0 0.9461417505150552 -0.3165515075028185 0.018172934533268334 -0.015733733321101617 -0.0023511185851602203 -0.0014735959328846576 0.21983536580640034 0.24101626016882374
37963000.0 0.9406811458827419 -0.32613638574794385 0.022492699264247545 -0.024020595292958875 -0.0005493121172643581 -0.003739104891828464 0.22782920889622757 0.2344761847047992
38962000.0 0.9394705561345148 -0.33287585032306777 0.025343574820828496 -0.023748423918042813 -0.0015795092431682698 -0.0018622375501653914 0.24361887125736906 0.2286328729148226
39961000.0 0.936225427656802 -0.34373461232881175 0.026908977623337292 -0.03076415130499674 0.0014438365626987515 0.0006539309259816771 0.24200507752806227 0.2273163118754054
40960000.0 0.9324968748800546 -0.35027750721953527 0.02086163702304175 -0.024957607896768746 -0.002023758326290853 -0.00012600240399823803 0.26284526830756927 0.2316333023602649
41959000.0 0.9283412695364495 -0.3611361392126983 0.02765995022722209 -0.03466581318240777 -0.0003669123985506372 -0.0003705113057921693 0.26804764945677617 0.2207351863154066
42958000.0 0.9254600959885212 -0.36912722314253277 0.03168990347253956 -0.04320076459498287 0.002021034966350183 0.0012392749371265097 0.27834413554154147 0.2046467308794157
43957000.0 0.924792818343432 -0.37315093095209073 0.03300641013719386 -0.04609537094877691 -0.003064127212286066 -6.046456656803061e-05 0.27997391043104813 0.2080765166325778
44956000.0 0.9197415725822295 -0.3841393991039805 0.03393688342770231 -0.052611117403211886 -0.0004022899132735254 0.0006674345746808292 0.30123569277503776 0.19118581677086574
45955000.0 0.9154516160248821 -0.3940415899970863 0.034378567688591065 -0.061117131371334524 -0.001996568144846066 -0.0005030920527169335 0.30766150374038936 0.19141838738794753
46954000.0 0.912260879823564 -0.4023027033559892 0.036556703764515176 -0.06667519377942206 0.002557832540181758 -0.0023471208448836486 0.32983164381215246 0.1853029176056691
47953000.0 0.9094819073615802 -0.40943999862610153 0.03437118710566472 -0.07455006304972107 0.0011630007686444443 -0.0027685102595317273 0.3384698260317802 0.16099045030999956
48952000.0 0.9034700911793191 -0.41937713236230795 0.032265445417394005 -0.07973962835546179 -0.0009524380931864835 7.316821083158536e-05 0.3302816436687778 0.16361513411799802
49951000.0 0.898994379584455 -0.42811266213178123 0.035219631638785415 -0.08733933649821406 0.0016243913650711994 0.0018180759212921022 0.35311643569518564 0.15122783507981524
50950000.0 0.8946550349696213 -0.43542801570352085 0.034049721653054275 -0.09604789618054904 0.0013547781515202578 0.002464413256652251 0.35184243208099814 0.14737787515542564
51949000.0 0.8927529657643135 -0.44434913037387896 0.03699873815525953 -0.10468208207620129 0.0017301543945200855 0.0001910378263995829 0.35704284071326153 0.13999198005744667
52948000.0 0.889047697242179 -0.45241347578225255 0.03993279246525752 -0.1144802920242898 0.0016528367363512202 0.0010591548321604576 0.3717937035697779 0.14132851090586113
53947000.0 0.8830797382558269 -0.4595147273069931 0.03954232463865522 -0.12398192654258602 0.002343827364432317 0.000313216185715647 0.36905586913490607 0.13457654830645305
54946000.0 0.8794908536522351 -0.4677728240151013 0.03934754668347503 -0.1352371257458238 0.0032919750545621664 0.0019247331873899884 0.37881768566336893 0.11253402628209411
55945000.0 0.8755352451045999 -0.47766141299944676 0.041683488419602656 -0.14218176626917692 0.001974865496865624 0.00041927155910423045 0.3990456248266922 0.10596173109743356
56944000.0 0.8717899388520143 -0.48632261991542347 0.04558057533605351 -0.15313610293655233 0.0018938992057487727 9.031621884915137e-05 0.399572410132629 0.099165069490482
57943000.0 0.8671573932493254 -0.49479551233720265 0.04477023746145092 -0.16268731129564254 0.0012272931539055148 0.0012615211763885115 0.4075740587504257 0.09592773388314034
58942000.0 0.860679480067023 -0.5001698250280188 0.04606341356124885 -0.17432696077223783 2.167887787306163e-05 0.0016855070198000257 0.42195616005911624 0.09006190114674163
59941000.0 0.8560847629828464 -0.509668270051809 0.047955561723595656 -0.18164444681031242 0.00043207401126793305 0.00026742690433993006 0.4211208939362043 0.09058577436806609
60940000.0 0.8484582658810149 -0.5186532166748616 0.046528564291528914 -0.18618861804581147 0.0025013027829670974 0.001270522476275431 0.40789160547610165 0.07873730384524387
61939000.0 0.845693746917052 -0.5241949191010892 0.048455452372992786 -0.19472844956743898 -0.0010613995616045359 0.0026812018293574428 0.42116791530431846 0.07069521727404504
62938000.0 0.8413038923237726 -0.5343145200000371 0.05238750477276394 -0.21269263363871732 -0.0005921141495894808 0.0016912036555899843 0.4444869777595725 0.05699117359031432
63937000.0 0.834685489030034 -0.5435355357257634 0.052033410470343926 -0.2306274404025564 -0.0005469586837796083 0.002004308977007806 0.43843816704431643 0.047089765616109204
64936000.0 0.8300898996549658 -0.5472562528951209 0.04969507967406571 -0.2457379241670855 -7.75454520012988e-05 -0.0013246472392508556 0.43091552176133213 0.042635077208431564
65935000.0 0.8255742992780706 -0.5604086643562202 0.04663860083149426 -0.257682774033579 0.0012971556673842732 0.0002057831598961895 0.4409924815593528 0.026967172936308622
66934000.0 0.8214186612833778 -0.5641453424654177 0.049604122166931 -0.27094288389123306 -0.0013809768786370695 0.000897151590351272 0.43705167064038275 0.009873850690098072
67933000.0 0.8174000347484278 -0.5727347152515455 0.05412505823054027 -0.2838209189604258 -0.004699133133670443 0.00043573068384106575 0.44141056452119404 0.013573884011982984
68932000.0 0.8107618545900958 -0.577640972346689 0.04466345659108859 -0.29841486507098797 -0.0007365092098175673 0.0006572195050193678 0.45654189912555593 -0.013167809931446974
69931000.0 0.8025805330655915 -0.5885035499996163 0.04923601071692886 -0.3119748133996917 5.984652731568156e-06 -0.0027873180155110907 0.44669268330492007 -0.01966293647094388
70930000.0 0.795874697120341 -0.5979308913290947 0.04439066067042622 -0.32744137768756887 -0.0003462102496191221 -0.003412172427140028 0.44572241665793005 -0.020222688948420567
71929000.0 0.7943964831505811 -0.6026145508888651 0.04317172275172659 -0.34504225551792644 -0.0013177742253027635 0.0003975730314391325 0.44464033117356827 -0.03434972603761949
72928000.0 0.7870119045066059 -0.6134858256307842 0.03881063398497562 -0.3631143342963045 0.002844545406202106 0.0064494314197884525 0.46863620863677297 -0.04680942533893218
73927000.0 0.7803012768465433 -0.6197357889751521 0.027986402316233422 -0.37980765313617826 -0.001747925820320283 0.0018975038699980736 0.4524800871309304 -0.059781147158829644
74926000.0 0.7731554481118971 -0.6289131966972006 0.020344760249135334 -0.3978286054116335 0.0017964613880248445 0.005329187274194429 0.4566502342161314 -0.06443483454314423
75925000.0 0.7678446087957349 -0.63376054387152 0.010837350208857904 -0.41657973887655714 -0.0010963711570278264 -0.0004459075761258888 0.4662738112298347 -0.06979724125067198
76924000.0 0.762551767563751 -0.6397401013641392 -0.002447614611327864 -0.43930240823204514 -0.00018590738648292565 0.0012154096805752075 0.46648939645467435 -0.07691366848846609
77923000.0 0.7554302886608475 -0.6496881257301758 -0.017280288540275898 -0.4619992617694587 0.0016847409634190246 -0.00022049493187358457 0.4615891849724099 -0.1025036960138823
78922000.0 0.7495862099786508 -0.6577561587015677 -0.029981103876893022 -0.4895857291782134 8.629397012790755e-05 -0.001008678104416059 0.45499642681007524 -0.10825755996725507
79921000.0 0.740879043985188 -0.6607511799222108 -0.052583303204053244 -0.5135810459939021 0.0017671609292647266 0.00362108574466005 0.44362385959070205 -0.10353924704598269
80920000.0 0.7365331474781354 -0.6729459166827239 -0.06482839425091133 -0.5442390440136102 0.0025800336886442083 -0.0008785012815363226 0.4592441279683921 -0.12497261499845128
81919000.0 0.7310271042092459 -0.6780471888271822 -0.08324168348907285 -0.5694829141685508 0.00018685357998937625 -0.004868926349045152 0.464889151735102 -0.13767576029213477
82918000.0 0.719701364219375 -0.6871545081462905 -0.09726457681146301 -0.5966182540139775 0.0009698525795792439 -0.0019808161129404433 0.4763523296080639 -0.14580512954615285
83917000.0 0.7120857001624586 -0.6934164856196751 -0.1175148897540945 -0.627160187734428 -0.0019295169111029895 -0.002252788962301524 0.4764755334201827 -0.14552529814761556
84916000.0 0.7072054937769104 -0.7002610127714923 -0.13133797776953599 -0.6648014502476728 -0.0019335579387215918 0.001262378862349457 0.46885071939675943 -0.1680757152896905
85915000.0 0.700406521101501 -0.7087105766696958 -0.15548267454262465 -0.690516256062138 0.0008544938927555371 0.0015234473215636594 0.46962798166344405 -0.17495000982200565
86914000.0 0.6930309752333305 -0.7180035604313805 -0.16968288731877149 -0.7259408998473397 0.002882841971689035 -0.0016874403129201578 0.4569514601889887 -0.16907883218236125
87913000.0 0.6833616606264759 -0.7241352852318584 -0.18435302789151775 -0.7538942426098167 -0.0020587836928305948 -0.0006015138013909731 0.4575165911332544 -0.17649588211288827
88912000.0 0.6797600614689879 -0.7285099842951213 -0.20079448531500618 -0.7935589367923984 -0.0009938709338588596 3.865235990878708e-05 0.4667003800931587 -0.2092459650886994
89911000.0 0.6715504860207051 -0.7374943994643993 -0.2176390966762633 -0.825222342590129 -0.0009257827812790687 -0.001097451578481799 0.4719276368420807 -0.20232991810814624
90910000.0 0.6629352846582917 -0.74217098357456 -0.23661089170241445 -0.8600878563477038 -0.0025431211206724787 -0.0012541014276678563 0.46928504586043024 -0.20824202296552402
91909000.0 0.6542571182919965 -0.7493313068144507 -0.2563287877530343 -0.8898842219418547 0.0021686066346992133 0.0033404968473624633 0.4755962213163886 -0.2279110912495763
92908000.0 0.6470273408986188 -0.7565637188067259 -0.26845408812538346 -0.9204540867391316 -0.003819091713016133 0.0017661900081450753 0.45275668132524 -0.23055917334245263
93907000.0 0.6420780861715977 -0.7634173582983416 -0.288010018211748 -0.9512677734364119 0.00024376763257586066 -0.0018043511472025534 0.4650004778382456 -0.25621414839583556
94906000.0 0.6257462911453374 -0.7736729657670963 -0.30307680862452385 -0.9819330558423898 0.0014601412266646392 0.00039912951219282566 0.4574056201112645 -0.2530437989195341
95905000.0 0.6209841421387768 -0.7781453447789606 -0.32753608675538304 -1.0180252134352912 -0.0021484939669024067 -0.0019858296691015473 0.46931643917032767 -0.26830847239228983
96904000.0 0.6113864860493413 -0.7848685786335434 -0.3445271508289443 -1.0583354678374384 0.0016171837846025207 0.002145877685801003 0.4518492270659993 -0.26812538501391286
97903000.0 0.6036788078629859 -0.7930511904171913 -0.36626814362627336 -1.0899113124564603 0.0037108069852097515 0.0018978334476498495 0.44845305061821794 -0.28531557086358605
98902000.0 0.5979889492431522 -0.7994132080864507 -0.38298322863611683 -1.1214177580671958 0.00023747381676696757 0.0016222551528197186 0.44949017782041983 -0.2890507398415844
99901000.0 0.5884632018409772 -0.8028409863753003 -0.4091567444791861 -1.1518440020780567 -0.0012254174632195147 0.00011613803279567216 0.466360427881255 -0.30848568617427413
100900000.0 0.5794771442597608 -0.806692457483366 -0.442664883637707 -1.1825361738209175 0.002009730298789272 -0.001071672131544151 0.4637832487999722 -0.30776033353494914
101899000.0 0.5677777915404231 -0.8164848851286103 -0.46999911801682026 -1.2161050369702493 -0.0010618992316933106 0.0005734160970091061 0.44679498997995887 -0.3113017523028235
102898000.0 0.5599603876904441 -0.8189626296343244 -0.5006910148232303 -1.255642390929951 -0.0033060936573997084 0.0017850865107891603 0.45253017702020576 -0.33575915989896876
103897000.0 0.5498665733523276 -0.8271699569071457 -0.5441036402698183 -1.2885844357313696 -0.0028574036547007685 0.0007925208561310497 0.46096694836551527 -0.33011148077518365
104896000.0 0.5431847492426045 -0.8377831485356154 -0.5847896982832422 -1.3183360083445321 0.0011483773759455754 -0.0008779261329498938 0.447432037159886 -0.33445153370100494
105895000.0 0.5341560085078811 -0.8393968014824266 -0.629983105562639 -1.3643642463468666 -0.0002333723560011951 0.0021021961449275046 0.4363721517224247 -0.351372455384797
106894000.0 0.5217751945000372 -0.8465724740047059 -0.6823769993577513 -1.393723759169123 0.0012542932029342795 -0.0016904893103692983 0.42707812245934745 -0.3604468154133125
107893000.0 0.5166301710289782 -0.8523854038705547 -0.7315081861838983 -1.434154491261992 -0.0018626863425501709 0.0004230375810032329 0.43588580901289253 -0.3692341491278619
108892000.0 0.5038830097450007 -0.8570867673901631 -0.7969541222392685 -1.46947869289583 0.00020412217042740976 0.0022429424568608538 0.43265923350850316 -0.3645060315067976
109891000.0 0.49042950704659766 -0.8638688896603647 -0.854658197721467 -1.499489918194682 -0.0008313717383576852 -0.0005634092363860576 0.44595430151976523 -0.37172854912290276
110890000.0 0.47337131074048105 -0.8768302126414433 -0.9323765640337882 -1.5036684678946177 0.0003747489834258063 -0.0023765991988176477 0.4267818070757845 -0.3820973844115239
111889000.0 0.47342691544672116 -0.8697778669399464 -0.972726091643344 -1.5737428376441511 -0.0022298788977982223 7.926170524724856e-06 0.42601668711791324 -0.38958855135909476
