! Created with skrf 1.9.0 (http://scikit-rf.org).
# Hz S RI R 50.0 
!freq ReS11 ImS11 ReS21 ImS21 ReS12 ImS12 ReS22 ImS22
1000000.0 0.9860952780405683 -0.00022346540516651948 0.0053831624439835525 -0.05926087645153491 -0.013736296983066163 0.012918083831706905 0.3394391107536913 0.34375431840159226
1999000.0 0.9987278844405686 -0.015364898061045535 0.011965646785625991 -0.02465328290515562 -0.005759573058620832 -0.0039251002231929155 0.27247641498019665 -0.02022013611575574
2998000.0 0.9979748617928582 -0.022188616643126033 0.014392662473455546 -0.01875831548740943 -0.007560918819927452 -0.00889455112194915 0.18164853222967697 -0.128472649279152
3997000.0 0.997195529042174 -0.029668929432299866 0.013312385236459438 -0.004249952967798211 -0.008101931258679878 -0.001058571894500275 0.08698622910727466 -0.2240908971903739
4996000.0 0.9963778457532824 -0.03769308820325591 0.012540499338783118 0.0010675993749066925 -0.0028355101958931974 -0.0031903688663046034 -0.03884001097912573 -0.20920681495867047
5995000.0 0.9932300952069391 -0.05104021001352506 0.013174506398410316 0.0030168540808507196 -0.00245910627200506 -0.002302530396213126 -0.13525220341949243 -0.10319030555324586
6994000.0 0.9915931230939279 -0.05739044082179781 0.006643007241230867 0.004444708373083015 0.0007941537601643591 -0.0016611050058794627 -0.14802240440259992 -0.026414543506053132
7993000.0 0.9961726545427622 -0.06852162601096569 0.009008378192093514 0.0027277896312424784 -0.002105689288738246 -0.002844725855296608 -0.1734128648280573 0.038292428145600035
8992000.0 0.9940654942891741 -0.07572903281872796 0.0020589530329409595 0.005800410959470305 0.0007792312603635282 0.0019061719384917163 -0.16145510598580298 0.07044801690859105
9991000.0 0.9910310846333852 -0.08342476638874186 0.0016562287485076869 -0.001551149237538626 0.0015128804042407113 0.00262819464014073 -0.15024309566083946 0.11087508311720824
10990000.0 0.9900769968681793 -0.0966967429724878 0.003082421157429371 -0.002850227225859682 0.001223230839907205 -0.0007427409490804408 -0.13866960520369737 0.1073194511850052
11989000.0 0.9887081827862357 -0.09991451814696219 0.0014865825248308799 -0.0010312252818213132 0.00266815367303176 0.0028984006692635038 -0.1271798324548486 0.14078564323735798
12988000.0 0.9879820921950985 -0.11137317903245718 -0.0028267551557369297 -0.007187991177965837 0.0006291755502160471 -0.002333483661391126 -0.12908208003778301 0.17180601430427103
13987000.0 0.9884731549345644 -0.11935721896353249 -0.0014873486228511614 -0.006301441596095512 -0.0021720225915166343 7.02128673489607e-05 -0.10474914947732883 0.1998182102356445
14986000.0 0.987918390445446 -0.12825372339109342 -0.0007818504504270429 -0.00466338837547936 -0.004489579253938502 -0.0013140293629158393 -0.10502814408086221 0.21099262354861997
15985000.0 0.9889704915694273 -0.1331576542258291 0.00030465585554047725 -0.003554240510008418 -0.0015871705591023902 -0.002708255173634605 -0.07857670555863676 0.2267708140982682
16984000.0 0.9844135550381136 -0.1454196186840794 0.0018700393199197788 -0.003193517721080309 -0.002788129954322666 0.00011280166724693044 -0.06552128745320546 0.22796742402563666
17983000.0 0.9857852592255495 -0.1507611068864122 -0.00471044891438861 -0.00168519976825751 -0.0007001870180789135 -0.0023698952145185153 -0.05030122483973862 0.23118837832828462
18982000.0 0.9805704334908435 -0.16411722981021584 -0.0019525918826713898 -0.002939029660946925 0.0029357394969358086 -0.0011380010627987495 -0.02806181729904899 0.23930498622821214
19981000.0 0.9818623032619833 -0.16875598833248234 -0.0025136220734368474 -0.0011322258984544757 0.0020438323369257605 -7.24799184090622e-05 -0.01792571391143214 0.24410477374841624
20980000.0 0.9784315462983042 -0.17903093074189608 -0.005864169157999 -0.00630667424021356 -0.0015205108747207213 -0.0013928060749278872 0.003967055810338082 0.24994268292499897
21979000.0 0.977987235887876 -0.1875400426052852 -0.002091557521913014 -0.0029897052972206297 -0.001674268842880491 0.0015096268519934396 0.01281827960415726 0.24882142317292466
22978000.0 0.9740505784813868 -0.1964790421929922 -0.007898860975428306 -0.003648200360911635 -0.0003649848716053412 0.0005568451457741485 0.029842884023218424 0.26456077156635815
23977000.0 0.9775873047463959 -0.2031423238216924 -0.0027222480549924043 -0.002630690921334179 -0.0015379115729284743 -0.002163211621629439 0.037748476334032305 0.2595348131618358
24976000.0 0.9717580296743409 -0.2137514743912722 -0.006112108425738227 -0.005184788322055181 -0.0014570050584463018 0.00014585362586473015 0.0608942904281049 0.255715057940489
25975000.0 0.969486361380686 -0.21916772692355496 -0.002430730184837808 -0.0034770438948938157 -0.026440077924920296 0.010473752687749633 0.0824879884989214 0.26934028802866056
26974000.0 0.9696989127067641 -0.22844438134548092 -0.00619533394371112 -0.00664773125317208 0.0025105947843310494 -0.0006393156661413299 0.0926327563580475 0.2676083602899405
27973000.0 0.9683345093595104 -0.23732334224739943 -0.0039367293755198365 0.0011881682847219928 -0.0013448524507770944 -0.0007357738612915271 0.1010452273561651 0.2661475574010419
28972000.0 0.9642018914645765 -0.2473997984258131 -0.00226624784873407 -0.0006878372226982197 0.0006730114028647986 0.000166187206363654 0.1162837853111577 0.2636335457006725
29971000.0 0.9622029209548849 -0.25743400961389584 1.7795502913456266e-05 -0.003713685098253762 -0.0029836360262663524 -0.0018485443351365773 0.14640184745955923 0.2706800819887344
30970000.0 0.9606900288139137 -0.261073500820213 0.00029879671967331914 0.0004715983475993782 -0.0003105227132926199 0.003538236756139757 0.1719313240683348 0.2616881254568293
31969000.0 0.9589657367108592 -0.2700570488148739 0.006477482117000245 -0.005501883445652227 -0.002303267207493707 0.002087685081635672 0.15293917286897518 0.25020039452437665
32968000.0 0.9560215743774045 -0.28120270054526303 0.00602886298772818 -0.004360318735345071 -0.0004824499271175605 -0.0006862920980349842 0.16855931773914926 0.25112355903083355
33967000.0 0.9541624854622603 -0.29172238693230573 0.012608576050490424 -0.012991875107889518 -0.001510368007093795 0.00022190576254689338 0.1813732337002317 0.2556935610982825
34966000.0 0.9497677246217796 -0.29983745495979586 0.011694817298699622 -0.01210120531352295 -0.00112499589538346 -0.00017305820284334024 0.19585924605021432 0.2573534194481232
35965000.0 0.9482032300271082 -0.30717322228859584 0.018088543789995557 -0.012862587470544683 0.0011434627790886138 -0.001115270923605087 0.2088160885302004 0.25265311061007645
36964000.0 0.9444569519394933 -0.3177401999608514 0.014680611139287017 -0.013691337169065771 0.0025031571216883185 0.0003738250224972286 0.2142801477531324 0.25251171198163413
37963000.0 0.943727480420489 -0.32500704705466843 0.018645421351513307 -0.020504718793110322 0.002415186447835123 0.00019781261945096476 0.22609223088153177 0.23645862471056567
38962000.0 0.940257418927782 -0.33477880064942195 0.02411618165439558 -0.024567664416915873 0.0009787152726429891 0.0018511689467996593 0.23676080182138817 0.23408132201628848
39961000.0 0.9366460274965032 -0.34206950399154257 0.023690304016174023 -0.02750352835676268 -0.0009933656658912412 0.001120776439886408 0.2485632341322241 0.24238610321288875
40960000.0 0.932652873027454 -0.34891132802996755 0.02090384133556976 -0.024389204979812788 -0.0018542305581550984 0.0011960834571650225 0.27596702421255576 0.2446343133582586
41959000.0 0.9311124541082945 -0.35904693216963907 0.029540684787543216 -0.02915004978251346 0.00038491237959350225 -0.0013426973586537167 0.2729394999422078 0.21967913526163008
42958000.0 0.9253813853680868 -0.3695006259253703 0.029856048475819612 -0.040819831951877376 -0.0030188020594311966 -0.0022623183223573922 0.28154175080549115 0.21185826009475944
43957000.0 0.924667751938112 -0.3722589318521695 0.03186815722104305 -0.04428593310821034 0.00030660474102008414 0.00013627327275004124 0.28462569723506037 0.21410311895312442
44956000.0 0.9199067997383946 -0.38116312559725 0.03405133253903701 -0.050628204785138485 -0.0009771762555336751 -0.001166731323836463 0.30713763288103474 0.20282728093931224
45955000.0 0.9150913368572086 -0.39348859820570015 0.033526803567513454 -0.0558133821114199 0.0013680512718001047 0.0029163805180267744 0.30796665047734867 0.1939149567278464
46954000.0 0.9134895577424149 -0.40099321086966944 0.034037703374400555 -0.06350975485810288 0.000444254764168737 0.0016980598421122795 0.3250434157775233 0.1856150991047875
47953000.0 0.9082271301950418 -0.41176736672383196 0.03678380992664377 -0.07236820392189197 0.0004846897006674027 0.0017834397212656064 0.3341214991491685 0.17702648792288747
48952000.0 0.9032345675035058 -0.4201811377093868 0.03415425053741806 -0.07739606046897528 0.0007356516416525651 0.000948822129460989 0.33012102797842235 0.16993814001709473
49951000.0 0.9004867201808491 -0.42604639556031604 0.03647037960674953 -0.08521167841933164 0.0004007606662897677 0.0012085388393556003 0.3424756928768952 0.15503457768669066
50950000.0 0.8975606982669857 -0.43576890542520474 0.036505556083163394 -0.09236057069696468 -0.0024101292474872234 0.003301843309790255 0.36123103031689974 0.15044472878167262
51949000.0 0.8920185299865022 -0.4438190699166943 0.03571744428984213 -0.09946400980375779 -0.0001458956321104577 -0.0010931234615390386 0.3576801681154499 0.14860865707253898
52948000.0 0.8912172677165511 -0.4506520513709498 0.04232657359798573 -0.10815567408020854 -0.003635294707226712 0.0008420778178466969 0.3796564644290762 0.13920563816603712
53947000.0 0.8842503775143762 -0.46075196767423904 0.037124859854567205 -0.11898559986514648 -0.0004984415793512883 0.0021535431425206684 0.3676454711066255 0.1319888552408399
54946000.0 0.8791119110802205 -0.46790532128720513 0.04290967970660009 -0.12736364720546045 -0.0008582821516143223 0.0010789537473016577 0.39200144223736927 0.125337067960051
55945000.0 0.8750046114005104 -0.4768684811788693 0.044099415552754505 -0.13539222966221318 0.0020317641714597827 0.001217998470841545 0.38888052216708807 0.10942666930896196
56944000.0 0.8710596987094811 -0.48402445209425954 0.04487407801302944 -0.14745305432048722 -0.0017673253715236562 0.0026106903347905453 0.39990238280246765 0.11713257196932306
57943000.0 0.8664412393103191 -0.49453866893034604 0.04442154256210298 -0.15990029459185895 -0.0031811716140963415 0.001883568710975969 0.39723850577587116 0.10038475808210731
58942000.0 0.8619077945781346 -0.49869060615922584 0.0442797477052987 -0.16912237733027846 -0.0024310289833044236 0.00022629136179461425 0.4242995932474304 0.10235573138356807
59941000.0 0.8583927281964371 -0.5075775712277659 0.04971568351231081 -0.17776162913124346 0.0007066055589068607 -0.0010365217318739261 0.4237881011682297 0.09907131236052309
60940000.0 0.8487870554088123 -0.5172159924590863 0.048255637232664225 -0.17988590300418072 0.00207810591928383 -0.00041118271076677026 0.4111381177403329 0.08637708462535769
61939000.0 0.8469742132353286 -0.5217880474784721 0.05164325384756748 -0.1850833737062184 -0.0008783409357167436 -0.00031249855414423156 0.42461548332331295 0.06999976482102878
62938000.0 0.8420657361147248 -0.5329943976427582 0.05361052062251581 -0.2078881290106359 0.00018396179244298516 -0.00048710204257646465 0.4474698860564238 0.06402275266919664
63937000.0 0.8374598555275709 -0.5405165854881235 0.054228522338168425 -0.22424583365364623 0.0016198580514525005 0.00029002921033666386 0.4312123068076966 0.05050272417003811
64936000.0 0.829896501310747 -0.5485280477215192 0.05359855956114841 -0.23957099338580207 0.0010890704795688067 -0.0017629865903326573 0.44257981942310304 0.05262508643853775
65935000.0 0.8263399183123713 -0.5595334058262323 0.05175384228174252 -0.2506089058049744 0.0021750196755521995 -0.0013536713937883171 0.44547935737216104 0.033697874024050986
66934000.0 0.8210951216073349 -0.5623155809842333 0.05679582795150481 -0.26252467494228626 0.0012475430846643678 0.00012746696701421926 0.45105655590274707 0.01727864244982442
67933000.0 0.8174301312330731 -0.5722285737677567 0.05556320795817814 -0.27841986851436495 -0.0011766746526361278 -0.0020289054090922146 0.451626655664927 0.027845694675912844
68932000.0 0.8010671197764112 -0.5676240587555508 0.05149214780186817 -0.28880968321389533 -6.355427909853132e-05 0.0005277092502548217 0.4636161758962754 -0.010346251154589885
69931000.0 0.8032041129513992 -0.5896048974134763 0.05267387341040043 -0.3062957063307207 -0.0010823122059491189 -0.0027033782085852417 0.44468651529509967 -0.011236025585193814
70930000.0 0.7992470652307406 -0.5929733371611646 0.049558245034321595 -0.3190927392876844 0.0029856218223636437 -0.0038894467344759973 0.45301399455293334 -0.020175876972387093
71929000.0 0.7946385323646977 -0.6031800923797793 0.04727182949598582 -0.33931462520725875 -5.2638208725698814e-05 0.002774651384657746 0.46637302392050056 -0.029835793055459036
72928000.0 0.7878965284985081 -0.6137510903908845 0.041145665156373044 -0.3512503020056917 -0.0005192227147803301 0.00123595793866828 0.46634923613684254 -0.0347690325984705
73927000.0 0.7811840890582732 -0.6168120017737949 0.0341632798980738 -0.37346082606263536 0.0037866573451253035 0.0009302871351886955 0.459775970541923 -0.04529156328581237
74926000.0 0.776979736884545 -0.6275495004761165 0.02602050498281157 -0.3930568428113205 -0.00045066068468341475 0.0013596918944586956 0.4696644222688286 -0.05641186310987641
75925000.0 0.7690575274731329 -0.6322524240878096 0.020944285611016154 -0.4081596143010773 0.0035469894990216686 0.002919268805100005 0.4712727064112448 -0.06672469989614559
76924000.0 0.762114122796243 -0.6393387946765885 0.0067753135965479 -0.43353394652008326 0.004246250161844529 -0.0011560325947114595 0.47024558699126984 -0.06828241176346998
77923000.0 0.7547949515291266 -0.6480012449611062 -0.008551257065988251 -0.45414742523518875 0.00403050931386446 0.0003792546138053929 0.47348652164702304 -0.06742767473080478
78922000.0 0.7496282922328091 -0.6567383207557802 -0.01778798682827688 -0.4836514250000687 0.0004600954075206893 0.002445946875461193 0.4658179655211125 -0.09626127229458219
79921000.0 0.7414947459079357 -0.6608843007031758 -0.04038649860312371 -0.4997087033018135 -0.0029875915513968266 0.0025670033999436585 0.4611263461339444 -0.10034894395636519
80920000.0 0.7382468427103511 -0.6714476985240163 -0.05126866518428717 -0.5337698727169053 0.0024703353612151612 -0.0007105242822915761 0.46588489435675756 -0.1168385429693164
81919000.0 0.7318011234712217 -0.6771286322518475 -0.07251094232822426 -0.5589488084571547 -0.0012192765677765548 0.0016833640233089883 0.4755788624297077 -0.12910208749305782
82918000.0 0.7194242755369548 -0.6868847714930996 -0.082197269310811 -0.5902505405561658 -0.0038252536814082027 -0.0029638316484026203 0.4796716141699332 -0.1339440321687035
83917000.0 0.712707594665486 -0.6947447759595874 -0.10388961781769339 -0.616687013542278 0.001364027736839114 0.0046994197407375276 0.4738235788783441 -0.14716580724787132
84916000.0 0.7074164648502492 -0.702078821123936 -0.11860438608196414 -0.6504227149509159 6.58404355957508e-07 0.0034786664932240493 0.4668050759007265 -0.1494219347429183
85915000.0 0.701300939466551 -0.7070926332874166 -0.13929357341546938 -0.6821843385340572 -0.0035537026313397654 0.0020575754820926556 0.4726069140479559 -0.15208955473361102
86914000.0 0.6930696350606351 -0.7171576222434773 -0.15181111849489237 -0.7156055691750378 -0.0015971158334545813 0.0035754999691971303 0.47235893891928216 -0.16002779858527666
87913000.0 0.6865343772041301 -0.7218023534887769 -0.16946582174166586 -0.7441984863189537 0.0029472152359762446 0.002058920498326609 0.4771954925486912 -0.1683313191067307
88912000.0 0.6800130760639135 -0.7282203489817448 -0.1822537436702948 -0.779374670006129 -0.002298808057899367 -0.0006269191935472554 0.4734646591434542 -0.19015032320554362
89911000.0 0.6708280296328161 -0.738038350535359 -0.19705424110108619 -0.8149922315961515 -0.0019248725574116123 0.0006909966683745155 0.48492953386485854 -0.19611743617182795
90910000.0 0.6648855161776789 -0.7417884786454569 -0.21512013110507108 -0.8478863489839527 1.7097835986633304e-05 0.0006813353939183141 0.47569741069421445 -0.19760882127278592
91909000.0 0.6552006182849216 -0.7463738794250884 -0.2332465153377344 -0.8782256782443817 -0.0011777487343839113 0.0021204095192594507 0.47477116707566525 -0.20960327440813217
92908000.0 0.647103624140403 -0.7567614986515607 -0.2521956188303655 -0.9127164292006411 -0.003764012149977589 -0.001827841116405112 0.4653114772765589 -0.22578863630551999
93907000.0 0.6406417395359102 -0.7637534495689057 -0.2662008968974657 -0.9396195633808319 0.0020679141970710766 -0.0017655084457888855 0.4678921550921999 -0.23944311480637054
94906000.0 0.6307357017070133 -0.771123882157829 -0.2818952102701565 -0.9782506214364212 0.005100523025388521 0.0007118804687379274 0.47350058310160303 -0.23646041291607767
95905000.0 0.6224617465289161 -0.7765856274115376 -0.3019295619928926 -1.0091571952469942 0.0026097173309121927 0.0007627729778253429 0.47368115086654367 -0.250340825000132
96904000.0 0.6141251813651136 -0.7868404642710405 -0.3229271493000426 -1.045555719876252 0.0020249368556602833 -0.004560201706261319 0.4603179310145081 -0.261756028262049
97903000.0 0.6037763933079555 -0.7899366848254593 -0.33959856710865816 -1.0804089699362671 0.001088865164977536 0.002974570539338148 0.45733208492197036 -0.27222298231766484
98902000.0 0.6004975215666916 -0.7975109678551519 -0.35625326612874586 -1.1172914850085456 0.004548822504505166 0.003653953467835538 0.45757697101676614 -0.2749771301838055
99901000.0 0.5886844747965263 -0.8029997039834685 -0.387328252365247 -1.1473738960355004 0.003520038157560366 -0.0016888108271263013 0.4675231210346397 -0.29318594991409397
100900000.0 0.5790112732108712 -0.806534441136723 -0.41627359667867425 -1.179494344002209 -0.0005110513746294326 -0.0022135777971314602 0.46940885087701517 -0.3006249250483403
101899000.0 0.5696214139559987 -0.8142956895254749 -0.43889449424011917 -1.2152994634417107 0.0005148744063815147 -0.0009802279627807414 0.4548131903089198 -0.29625852816420706
102898000.0 0.5592924487103581 -0.8224889566921683 -0.4795755347643161 -1.2514317142763005 -0.0002696864001660087 -0.0003392978137838489 0.4615057062331853 -0.31858410588604197
103897000.0 0.5518999381769542 -0.8292402275392061 -0.5119425407526906 -1.287319392708616 0.0010120155498998349 0.0018881808632810932 0.46760139223696096 -0.3239734774747091
104896000.0 0.5450479606188604 -0.8382971800204397 -0.5587091328409058 -1.3196613242344275 -0.0009585356473149305 -0.002253138999823701 0.45714556558423064 -0.32490920109574284
105895000.0 0.5335004221747124 -0.8395634134860829 -0.6028102215966277 -1.3555032925624433 0.002119916502439627 -0.00222555788780794 0.4447987002056525 -0.3544971188322439
106894000.0 0.5236794733183169 -0.8462571865449949 -0.654308333400856 -1.3945740040751493 -0.0005245257629696959 -0.0008458121377558131 0.4371512797916425 -0.3431403852106731
107893000.0 0.5171171418128683 -0.8526076929967791 -0.7023343289099065 -1.4325279748136408 0.00374478496546072 -0.00041939529405484794 0.4454888846706683 -0.36793921634542304
108892000.0 0.5058956500916237 -0.8551518728619925 -0.7590776372353009 -1.4702957882049696 0.00023548739106085787 0.0019160758966889466 0.43677527238187047 -0.35591732333892223
109891000.0 0.49414094539357123 -0.8631418639410023 -0.8167159730132235 -1.507543085781983 -0.0015295685121468148 -0.00045779883686285146 0.4522857980044295 -0.36990842762567117
110890000.0 0.4777429641214363 -0.864523759995909 -0.8769864768091447 -1.5025974229626122 -0.00030715107109604103 -0.0049353364951271106 0.43510891916728744 -0.37063788402033987
111889000.0 0.4718202474020234 -0.8696174213287665 -0.9384527273312241 -1.5693791810663817 -0.0015686489365923468 -0.002343216368227164 0.4385076785485671 -0.3798853076705475
