! Created with skrf 1.9.0 (http://scikit-rf.org).
# Hz S RI R 50.0 
!freq ReS11 ImS11 ReS21 ImS21 ReS12 ImS12 ReS22 ImS22
1000000.0 0.9857154801113358 0.01821309120711471 0.008019217969012582 -0.029327539212574 -0.015231661567534343 -0.0010031991092207125 0.3321403300732073 0.26712079036993897
1999000.0 0.9938599045277001 -0.012518803252731822 -0.001150613600208111 -0.015425673400896187 -0.004719145870017573 0.0010765437390074248 0.23109737581763773 -0.05226482452090987
2998000.0 0.9999428843858927 -0.021236352460608576 0.00832157790998999 -0.01736004294754096 -0.005166544180068184 0.0018892297739564609 0.1916309317376416 -0.14734307410381847
3997000.0 1.000055762693192 -0.027557099632911544 0.01155840884479745 -0.011536934658587093 0.0026508558778507857 -0.006744131466086937 0.08777663704189008 -0.23235413700880453
4996000.0 0.9970679191717378 -0.03541240841048769 0.013280233906486642 -0.0034125242468592823 -0.0033166568658209304 -0.0030611885004688745 -0.030713091774869652 -0.1973215519267686
5995000.0 0.9936948323056208 -0.04743058457740169 0.010800627395985654 -0.004979515506902668 -0.004519759005606799 0.0016921219763469297 -0.11199759841871611 -0.11823141080711166
6994000.0 0.9949829873791574 -0.05940366306927229 0.009362885780801933 0.007034997560757003 0.003991933871434385 -0.00224647137709228 -0.13973627780721234 -0.028336388870594947
7993000.0 0.9946619325772832 -0.0672137402235134 0.006657829050760834 0.0012262095666504503 -0.0024082046681515572 0.001740338104706395 -0.17651081384673048 0.03714995537231321
8992000.0 0.9942787945862955 -0.0748772816911984 0.002683667704576778 0.00470538339491179 0.00045245503284081415 -0.0020467511258152556 -0.17062160091693945 0.06435194424437114
9991000.0 0.9899730777038867 -0.08643605112737637 0.001303352402456143 0.006173220137012108 -0.002401765756918512 -0.0015862026315366035 -0.156560171058105 0.08072370471712076
10990000.0 0.9912955734791955 -0.0943187234092621 0.003915145218848154 0.00018716421253926218 -0.004441409784527445 -0.004004751986466063 -0.14180211680465044 0.11001393296633058
11989000.0 0.9900690565893654 -0.10138589657957402 0.0038830083403537993 -0.0011893516603775493 0.00045256228033915564 -6.605863884723857e-06 -0.1258852375742391 0.12996184380762446
12988000.0 0.9898869192380086 -0.11195165888223468 0.00015791206777183384 -0.0011089048102592143 0.0022389943018983082 0.0031406253150872534 -0.12269099273723238 0.15903505552598268
13987000.0 0.9884121315026105 -0.11981650116518264 0.0018748154463018006 -0.0028046519440579755 8.901782287665567e-05 -0.0014417895540592258 -0.0880740033920825 0.1869158399775991
14986000.0 0.9890697558087034 -0.12563600629402363 -0.002693791709559069 -0.0008426223513263975 0.0026825033636470254 -0.0018869009357203664 -0.08874602185399275 0.19204515292061045
15985000.0 0.9881934771652262 -0.1349094706019553 -0.004993527170334671 -0.004810346001290282 -0.0008785083929694386 0.0038567609077130066 -0.07435154203890958 0.2111393554804179
16984000.0 0.9852813836701605 -0.1471274788848568 -0.0037940129293680615 -0.00716591459228255 -0.0009246988276852135 0.00023296175464567506 -0.0648143059712078 0.22783509793556972
17983000.0 0.986342548701153 -0.14965273445785685 -0.0044362134085891855 -0.0046892612569522625 0.005601616967126604 0.0017352747148792753 -0.053420316945943284 0.22088712629792384
18982000.0 0.9821953047383798 -0.16563461223693962 -0.00671999842442066 0.0012132746508041127 -0.0016281520191510682 0.0008117492345486378 -0.023666840108955114 0.24092948330071012
19981000.0 0.9811768960929481 -0.16710550385432602 -0.002395668996740981 -0.006145599568638854 0.005135073311311755 -0.0008233067143068451 -0.02249705313127831 0.235144046002463
20980000.0 0.9828532039019076 -0.178170774339551 -0.001415814568671859 -0.005327756644032883 0.0007472428884289303 0.0008278564568120425 0.006174020580837786 0.25146816658819343
21979000.0 0.9772126347943842 -0.18723971920299776 -0.0051276594667026346 0.0014045938224393742 -0.002404727920503233 0.0008051891324876389 0.014487892620903301 0.24883709270744822
22978000.0 0.9767514443011599 -0.19804902971637622 -0.004558607464564351 -0.003897924577120264 -0.0022725672774758896 -0.00043682201437865144 0.02225275927300646 0.26212300930637056
23977000.0 0.9783559379279037 -0.20529475222521365 -0.008724009812080167 -0.005277471670784123 0.004093191795216081 0.001457863671121465 0.04014886523934488 0.2601231802778886
24976000.0 0.9732654811874035 -0.21548386058833263 -0.004953130398013552 -0.00016034905025933362 0.0019326595370779737 -0.0010102231720969146 0.0652348543255095 0.2576540400993929
25975000.0 0.9750778026694137 -0.22392168583321234 -0.0059144311447356665 -0.0025261357827679716 0.019290151343469956 0.018411244887460064 0.07694075851700291 0.2533877605584537
26974000.0 0.9697129814105998 -0.230035984019383 -0.002136104781392384 0.000629226711041891 0.0003076840506495212 0.0018968835645808374 0.08296287890687447 0.2641511799230382
27973000.0 0.9683240441759965 -0.23664723391293366 -0.004405297977358885 2.028756214344126e-05 0.0005876511085703179 -0.0012016514295855834 0.10515478951974898 0.2541681716562034
28972000.0 0.9645664045290429 -0.2481206175611261 -0.003127115265276355 0.00038105254184245176 0.0005458417720233948 -0.000439226629051974 0.10675653150312923 0.2510346553972606
29971000.0 0.9633646626140716 -0.2560200604219833 0.000828765297313263 -0.004119005264902469 -0.0030777295060177598 0.0015307367454881569 0.1478467417872635 0.2652306896022597
30970000.0 0.9606467466527573 -0.262360584210878 0.0009444656735346891 -0.0007546001210897506 0.0004820295707184476 -0.0032257312340574795 0.16596883608649507 0.25302646429591935
31969000.0 0.9591322684956385 -0.2725250707282001 0.0046196457886369825 -0.009058960386486332 -0.001353753494012115 -0.0009809934826873169 0.15359013716860276 0.25214370548266674
32968000.0 0.9567211051092495 -0.2810462756265176 0.006995746519601211 -0.008643116747006692 -0.002144964450486266 0.0006161236782815215 0.1684802989550924 0.24468246626393705
33967000.0 0.9539545433960005 -0.290613013642074 0.012627716383382372 -0.010710806838929384 -0.003979749045076342 -0.0011230954899998243 0.17798389503299825 0.2515521940053051
34966000.0 0.9507290300807978 -0.2994930281686462 0.011529632576157413 -0.014383943900711295 -0.0011052134161307714 -0.002545235658658064 0.19263478872600745 0.2489640001616428
35965000.0 0.9488084408361883 -0.3070826635972818 0.015134969655559473 -0.014590719028728294 -0.0003910541206756814 0.00041997135996704537 0.20734006919233736 0.2441645097292331
36964000.0 0.9463257700192167 -0.31592816023035464 0.016448554809479127 -0.012189305212339267 0.000822276474710139 0.0005697508895572399 0.2015897334684537 0.25067419129243795
37963000.0 0.9445120589376779 -0.3241872333256021 0.02079532513326504 -0.021710255528017062 0.0005186488550594217 -0.004813272051021692 0.2282905154958464 0.23385341651265376
38962000.0 0.939342520694728 -0.33464044884005634 0.02788863122128581 -0.0234977982639464 0.003385091160271975 -0.0008857898820536007 0.23687372125064957 0.2304810724134838
39961000.0 0.9361931809962826 -0.34315851411419435 0.024167227779803135 -0.028131676033416705 -0.0016827726904891965 -0.0041202726095664775 0.23806524990581557 0.23176799923044075
40960000.0 0.9338160660148697 -0.3499113395669146 0.02178184240212666 -0.02250397945295269 0.0011195916176019126 0.001961923611228412 0.2704583574727975 0.22779229294055692
41959000.0 0.9312205237711647 -0.35989705565947283 0.029622936933746992 -0.03372697928868295 0.003631102756122609 0.002049087535679917 0.26157507129175395 0.2148993977742
42958000.0 0.9269581336380509 -0.36820055750672265 0.03072109689284644 -0.04124912827867203 -0.001032763103525446 0.003980695386077725 0.27621769571481863 0.19611719286945717
43957000.0 0.9254309732689777 -0.37332904128587785 0.03575829720156406 -0.04620479345538313 -0.001292758565227146 0.002529738164322911 0.28706471946793627 0.21680861032208812
44956000.0 0.9211827544853907 -0.3823312246870614 0.03427682522649161 -0.05166617950925488 -0.00038569426250321785 2.7713908888117804e-05 0.30405693648708465 0.2000337824645852
45955000.0 0.916770228028298 -0.39483349427441244 0.03524961740337634 -0.05969355976288889 0.002484380858684876 0.0012514769289124746 0.30031428461507165 0.1955033073534505
46954000.0 0.9134362791029258 -0.4011430320516637 0.03572665912038224 -0.06553333863153936 2.839756037336677e-05 0.0019178955092991488 0.3256152248978375 0.17893115548369634
47953000.0 0.9104686225592858 -0.4100141328600719 0.03741046280859977 -0.07343823336332629 -0.0013908538158395897 0.0018699652350149326 0.32884765280480893 0.16812330614691065
48952000.0 0.9035552729470495 -0.4202242888215563 0.037772197251987334 -0.08050750871867146 0.003409906510399455 0.00018293736375518145 0.3300034122803617 0.16441777494333648
49951000.0 0.9016073842558532 -0.4267899465209065 0.03782534402296469 -0.08734202367792017 0.001179890634567597 0.0006944461011192109 0.34702950655327197 0.15799694008870097
50950000.0 0.8983356702190416 -0.4345897071918585 0.038145389375922385 -0.09600678165931441 0.0027031582346986193 -0.0017609919679490433 0.35128996641985094 0.15167624597391643
51949000.0 0.8914773027064418 -0.4421970939516078 0.040622927291841776 -0.1041467370825017 -0.0021294594543880656 -0.004645433378256251 0.36588141595623325 0.1431689894490488
52948000.0 0.8900018768856124 -0.4507863835267068 0.04064652545997733 -0.1110898314284049 0.0008735088423825249 0.000911433654696567 0.37493723218020114 0.13812307039394228
53947000.0 0.8851620446256687 -0.45761026828088713 0.044296236116051046 -0.12191358834125528 0.00021613567636888747 -0.0009561064502374009 0.37175263700014693 0.12562669355450293
54946000.0 0.8791179241782048 -0.47023574374732957 0.046075040777977375 -0.1330208661810534 -0.0016629363349672335 0.00023637156646844111 0.38677043953735146 0.12549548434937402
55945000.0 0.8757043483077623 -0.4771957628016801 0.046015565597034506 -0.1428879640663797 6.669630941652903e-05 -0.005167314773016562 0.379370266359385 0.10387192405539271
56944000.0 0.8717544273125907 -0.48489792628851 0.04675484007870423 -0.15219461107563825 0.0025380225187892243 0.0014819957400137166 0.39586862806949713 0.10327036493890261
57943000.0 0.8669189453592785 -0.49549110891837017 0.04567217400100371 -0.16518201541409414 0.0016924251712253859 -0.00040031355310896386 0.4010396213949315 0.09373119471045935
58942000.0 0.8630724761386804 -0.49911209027817266 0.04734382711239934 -0.17317601283769424 0.0014444312730582558 -0.0007949023281336561 0.41986615287714374 0.09315313820321326
59941000.0 0.8578716671326699 -0.50991443779816 0.049286874085379885 -0.18449988673357476 0.0001724664756758423 -0.002149994555923053 0.41732048853766257 0.08574848844549182
60940000.0 0.8506806946139873 -0.5157102446181034 0.052258169435443404 -0.18782221197786086 0.00037628707907587584 -0.0010427273283277587 0.4116053072177287 0.07805056751721394
61939000.0 0.8471202133689762 -0.5238611909759113 0.051211562087990145 -0.19627808584698886 -0.0016939457703186091 0.0004944492684236613 0.41952619768751803 0.06739692497246122
62938000.0 0.8404043336558976 -0.5358827161622092 0.05431843996530849 -0.2106884337180026 -0.002109406926934585 0.002277170017543791 0.436673558670316 0.047815518364356775
63937000.0 0.8373010861230872 -0.5410970924012607 0.05576530883045918 -0.23515666562545812 0.0025860317483781476 -0.0017202780591753948 0.4435254986678164 0.04025020003322768
64936000.0 0.8297890251362495 -0.5489244349966875 0.056480621508730504 -0.24678687851309586 0.0004281730973240686 -0.0005894757334114049 0.43058544797341025 0.0374863059468074
65935000.0 0.8261058208485399 -0.5598904917786692 0.05278624401328082 -0.2607148285448689 0.0002934442781396923 -0.00026999683769273104 0.43491208944424736 0.014811907034508513
66934000.0 0.8214048066057477 -0.5637519138849768 0.05511726943907757 -0.2762163374129419 0.0017604059195085297 -0.0019310908024635527 0.436783230634856 -0.008631578878637499
67933000.0 0.8189081645827966 -0.5722955918034276 0.05438289999283083 -0.29023326765927393 -0.00046220028503835394 0.0036983500341512382 0.4476079378438826 0.0014288490322380324
68932000.0 0.8082854047575483 -0.5785969086556947 0.050181123576350066 -0.3021495393874118 -0.003361427450219791 -0.0007677790627738406 0.45578409251049745 -0.0121343390154684
69931000.0 0.8055296584040406 -0.5871730686062412 0.049796923390768084 -0.31877272912602483 -7.036619019916388e-05 0.00028811164980622545 0.44828778042551565 -0.020482785497208923
70930000.0 0.7984375311015272 -0.5938558945211354 0.04858885406483016 -0.3346757055059071 -0.0037741848529122624 0.002079575035445378 0.45202592076868814 -0.03573613821077533
71929000.0 0.7951050640515179 -0.6033410308313462 0.04562714517040675 -0.35363341009666865 0.0014770930547828318 -0.0034215950631996655 0.44753651403995953 -0.036307009809692925
72928000.0 0.7865097675874084 -0.613971504037118 0.03881433344118994 -0.36662525362896137 0.001568347616180987 0.004054862756804404 0.46289460744264765 -0.0447053951258366
73927000.0 0.7820119455686398 -0.6191791719405221 0.032209420989881096 -0.39027716240541455 0.002783648646379793 0.0017582960995543228 0.4604702614985663 -0.05538485380365258
74926000.0 0.7776966849302586 -0.6286102971106073 0.02318822576144287 -0.4059217672764623 -5.2268524164642526e-05 -0.0027626635661653865 0.4566633692205939 -0.06367126105509102
75925000.0 0.7695641764692719 -0.6331557926696805 0.014943710214537685 -0.4265428913647887 -0.0003580019526054233 0.0029869784434212033 0.4679269204226174 -0.07523600930940891
76924000.0 0.7619470276020435 -0.6411341356458964 -0.000454017763954352 -0.45151540261713113 0.0013984169903262151 -0.0002941448727888528 0.47451643755734896 -0.080658176484982
77923000.0 0.7551733685140378 -0.6480211845080077 -0.014996406637415733 -0.47710185041557457 0.00036656444621498184 0.002863359510110476 0.4552046358611039 -0.09515756957572995
78922000.0 0.7504533441139998 -0.6591158760954817 -0.02890718943172151 -0.4989972212981938 -0.0009197080679361869 -0.0004555027027857095 0.4639692839386149 -0.10567527900833242
79921000.0 0.7418390406097831 -0.662740472882226 -0.04313418789526658 -0.5242473648008408 0.004472970296700087 0.001667835020149995 0.45872213317641575 -0.11864815391348774
80920000.0 0.7385608088046386 -0.6741998479188781 -0.059146223262682776 -0.5543558131550177 0.0006691805557289226 0.002540783070006239 0.4715369308943185 -0.13751736566254721
81919000.0 0.7299648547835688 -0.6822764378335247 -0.08073862331328817 -0.5806968008612369 0.002991569622617229 -0.0004224201110065774 0.4648826339173141 -0.1462740898693289
82918000.0 0.7215979171961499 -0.6874378609410297 -0.09447038166790382 -0.6138861584467601 -0.0030731524949741693 0.0010115062103289519 0.47038400954584947 -0.14977710910740047
83917000.0 0.7149740660238467 -0.6952557726148902 -0.11760628056279271 -0.6386288309724089 0.000748672133207377 -0.002379993296095331 0.4771362450558901 -0.16132003968188702
84916000.0 0.7082321782160186 -0.7013530086792197 -0.12926059548783875 -0.6775630776068967 -0.0011193189326758515 0.0008407088504223045 0.47244473762927225 -0.17073387366427356
85915000.0 0.7008333151818575 -0.7091334440401237 -0.14663954440765095 -0.7090756142788416 -0.00370317676677083 -0.0015146649637952094 0.46745107728764174 -0.17638253603070572
86914000.0 0.6926981531778755 -0.7176543577976522 -0.16431460421601135 -0.750230790471396 0.0001045723990446835 0.00040399121085741397 0.46453869223882005 -0.18135007526617355
87913000.0 0.6858609268023993 -0.724994106855879 -0.181483779895616 -0.7695481785026845 0.0009930422345147793 -0.003186382750136257 0.46284193208349217 -0.18836586125203256
88912000.0 0.6823044080128141 -0.7289022873220273 -0.1980432803585786 -0.8081639825399382 -0.001604942012334433 -0.0018507104589978146 0.47103445620270956 -0.20877178339712893
89911000.0 0.6734059382751143 -0.7379310330998508 -0.21194223751292085 -0.8431378360991852 -0.0030987270005637256 0.0038981137269168196 0.473930955663226 -0.20570554659790113
90910000.0 0.6648935757211201 -0.7433097478667847 -0.22523039371996384 -0.8796575108584874 0.0028481940177155145 0.0002530346752371408 0.4612955324897819 -0.21204737788986822
91909000.0 0.6565079851702598 -0.7498247065472609 -0.25102345298444567 -0.9090902666411987 -0.0013264607969996369 0.0013518117728526736 0.45706096620766273 -0.2317377758530485
92908000.0 0.646910435500334 -0.7579142705931642 -0.2713657884027845 -0.9405165448760245 -0.0008242482570316933 -0.002066948321506906 0.4560129167606211 -0.23744770459297093
93907000.0 0.6421152223585055 -0.7623855981985016 -0.28742883944121 -0.9773348912908406 -0.0034992743473538975 0.004919087537912998 0.4646806525721226 -0.26849273662083717
94906000.0 0.627170613939462 -0.7717756683264886 -0.3078608969124326 -1.005608383026053 -0.0003442418321758357 -0.001118903149341007 0.45252053140510223 -0.25315443947686145
95905000.0 0.6198633466455216 -0.7777961607840539 -0.3220572182832485 -1.0455415751545492 -0.0022112127119195504 -0.003581830412686422 0.45185171888738995 -0.2735960323625164
96904000.0 0.613907497569117 -0.787271850136549 -0.34696042618778317 -1.0816380701605284 -0.00022574116380817214 0.00026552571268999916 0.4468269562108878 -0.2728306056737648
97903000.0 0.6030368447178249 -0.7903788226804725 -0.36743133086884067 -1.1139019151258125 0.002679402885190056 0.0012025843161958352 0.45126355446719296 -0.29353914022943306
98902000.0 0.5998444344368569 -0.7985994669138763 -0.39227719979559295 -1.1521545446443062 0.000635492670249166 0.00017787751321790167 0.44004174945097413 -0.29753643659243834
99901000.0 0.5870069462918599 -0.8045344088788904 -0.42702976206436705 -1.1791217219864325 0.0005965741443900864 0.0010984217293855017 0.4524814953519202 -0.31943968657806154
100900000.0 0.5803227109445439 -0.8080722005687211 -0.4546559583949669 -1.210222613284413 0.0006074084493905254 0.0032861799247652277 0.45022629378513546 -0.3107334391041636
101899000.0 0.5696610776306252 -0.8170702085455783 -0.4844228795215701 -1.2488865162696052 -0.0015785085270842148 0.0024762842032413045 0.4489035492462412 -0.3175926039002286
102898000.0 0.5605795722701383 -0.8202713280167903 -0.5144950445171983 -1.2925604701487843 -0.00020652193609247834 -0.0006364528471659266 0.44746608387180886 -0.3435550881044077
103897000.0 0.5523837322266191 -0.8288308227059311 -0.5603800800627922 -1.325274934946639 -0.00036436808202905256 -0.001654885501397142 0.45540144498841373 -0.3372279375592492
104896000.0 0.5443930752833732 -0.8387700417310525 -0.6086049417441173 -1.3535826781857985 0.0021199938060440216 -0.0002944109906898573 0.4334656737616183 -0.34183502409698496
105895000.0 0.5322645748034949 -0.8395952140372495 -0.6544156719867873 -1.3998794262271597 -0.0014121307922354306 0.0030059349208059268 0.4287838215494437 -0.36552661177738455
106894000.0 0.5211955568996329 -0.8484235162117334 -0.7166808310028927 -1.4348887590897086 0.0022490759566543604 -0.0008095772830924012 0.4358914211296508 -0.3816473156797692
107893000.0 0.5137903000833954 -0.8533191345664378 -0.7650353700291934 -1.4700987473177762 -0.0024587366910324374 -0.0015382162436962036 0.4280331790547604 -0.3786245233344974
108892000.0 0.5043603573411046 -0.8550497152866336 -0.8236883110817411 -1.5059959454750564 -0.004178248123025974 -0.004546888940729686 0.41129294653186604 -0.3836408749561699
109891000.0 0.49208153430956153 -0.8644142986100749 -0.885870039186656 -1.5400968320438273 0.0006506491994119794 -0.002283479789327804 0.43959858769148485 -0.386120146210544
110890000.0 0.4776027644437775 -0.8643715987315072 -0.9407492027761867 -1.5424101756588515 -0.0028558310495273207 -0.0003466620043110734 0.41760333209782513 -0.39126161875373566
111889000.0 0.47324901181265405 -0.8711392571474129 -1.0047521173694662 -1.6083169041708087 0.000625910932080141 0.001813224129091208 0.41204072177606277 -0.4022521397037699
