! Created with skrf 1.9.0 (http://scikit-rf.org).
# Hz S RI R 50.0 
!freq ReS11 ImS11 ReS21 ImS21 ReS12 ImS12 ReS22 ImS22
1000000.0 0.977850851158664 -0.0005817021997295916 -0.01909294117372547 -0.053789050911376556 -0.023220418612681672 -0.00451311929780574 0.35404727891221227 0.33720988043036076
1999000.0 1.0027284600351567 -0.009978720072404955 -0.003430041932484506 -0.015688179488975062 -0.0028535172461417358 -0.0014994017937069713 0.23913218386374763 -0.03197666010021702
2998000.0 0.9982503147377911 -0.020368598356077475 0.00426637084156033 -0.019086420500145744 -0.002984714961176192 -0.0036921652901963915 0.1858482724518552 -0.13501068341676156
3997000.0 0.9973006400509584 -0.02901213315060618 0.013994279248993248 -0.011233095768807325 -0.007473436365304704 -0.001217369148016003 0.07899704363072264 -0.22314012151653878
4996000.0 0.9972437222484193 -0.037493555515682085 0.011194138408888419 0.0018021555634986294 0.0017741868920299196 -0.004598607703060701 -0.05421385269318885 -0.1956826397522305
5995000.0 0.9993807621914949 -0.050624515303920814 0.008048424674282614 0.0007523651532200257 7.423504231811652e-05 -0.005775849491059174 -0.11882006115778643 -0.09932794767209223
6994000.0 0.9943485526846887 -0.059523757869145814 0.006604357332232656 0.004040154977112235 0.0009947253962115988 -0.004179220359523613 -0.1392341502509295 -0.01905086192253753
7993000.0 0.9986708926447272 -0.06556190461841227 0.007041778684248288 0.007160822231033701 -0.001983557009401468 -0.004289299263580743 -0.15359569465626804 0.03227802317844864
8992000.0 0.9958073193987175 -0.07241411731106567 0.005248234616412133 8.674855584635411e-05 0.001407484993058626 0.0006787953192353049 -0.1520391352907061 0.06979114158791479
9991000.0 0.994287372906562 -0.08281504000226846 0.0020653913229538683 -0.0003932039811037892 -0.0015939402351477984 -0.005928600410853896 -0.1400361408355563 0.1019615623942878
10990000.0 0.9937429141965501 -0.09076432220398063 0.0023058305963293488 0.003925855238127285 -0.004159420961620527 0.004225627006188758 -0.1412972169793357 0.11173255923809554
11989000.0 0.9920906116255475 -0.09929718355244156 -0.0013252272560708902 -0.0022569250884924867 -0.002964502878372765 0.0028711025803024853 -0.1237079518553809 0.14715783304244037
12988000.0 0.9925760904261339 -0.10949452064999134 0.00014805668034333444 0.0007517393420073952 0.002760443952994159 -0.002147513572035804 -0.09482894887864884 0.16528209787551285
13987000.0 0.989780123089166 -0.11941441530483458 -0.004395544045128381 -0.0030115904065852695 -0.0028682563850640514 0.0007670571609334616 -0.10262644892370035 0.18611749873214803
14986000.0 0.9902919925246967 -0.12244655045964445 0.002634021075623526 -0.0017684458457275657 0.0011490091378893637 0.0023334328410191583 -0.07442417173493168 0.20612558047755594
15985000.0 0.9909290809301007 -0.1311527983537744 -0.002472495819584329 -0.004236137106366839 -0.0016351084700811148 -0.0009967920074945406 -0.06953490482198689 0.22553960651665422
16984000.0 0.9867655292187192 -0.14381718426426376 0.0021990044891673174 -0.004914990599708405 -0.0017597719085473726 0.0011712636422204603 -0.06483817632347932 0.2193770619227439
17983000.0 0.9896208476444568 -0.1500797432949121 -0.0020350839881470104 -0.00667298924645377 0.0021185248774630645 -0.00016645455910280031 -0.04998998286720326 0.23006109620313195
18982000.0 0.9852147929530731 -0.15894555639725608 -0.0008489716215442338 -0.002757741300575809 -0.0016218783395582988 0.0028605836577474215 -0.026634335350845258 0.2291481817684328
19981000.0 0.9846332481517959 -0.1644216134151583 -0.0013939693000863521 -0.00303435347057932 -0.0012507751939209394 -0.0014198638994889743 -0.010898532018981626 0.2478967735705345
20980000.0 0.9814446602759661 -0.17534144445850097 -0.0006103453525789231 -0.007516497883452726 0.0033979375721377046 -0.004409187568368454 0.0032825356508527316 0.2529470085695994
21979000.0 0.981391300545431 -0.18324391016824412 -0.007074120209689754 -0.0027752103112843518 1.7257954501466257e-05 -0.001665675172405732 0.023243316622516715 0.2436066486310984
22978000.0 0.9792468108428652 -0.19115182370063252 -0.006881490951538806 -0.003640181850552187 0.004517727583665627 -0.003464824566552646 0.03045267718588269 0.2591013584067293
23977000.0 0.9809987236400413 -0.19810497220062334 -0.003978285474664336 -0.0009021012121240923 0.003834607942066479 -0.00045554239412999077 0.041932844291446954 0.25980140299990545
24976000.0 0.9752883934071669 -0.2089022738250285 -0.00374285133689342 -0.005172636173172741 -0.0016365391372181197 -0.0007782788567566082 0.06015695683769822 0.26577200676955676
25975000.0 0.9723875397238476 -0.21192674832310038 -0.0034204884495759045 7.771623860447187e-05 -0.023297031133755388 0.01592420378677792 0.08307042057973292 0.2607372737740929
26974000.0 0.9719082750597453 -0.22448528894872016 -0.003954134478310999 -0.0008455524436652052 -0.0036778408065574293 -0.002044038460039585 0.08945086701132848 0.2714085542766322
27973000.0 0.9701715717932379 -0.23137568646951276 -0.00028395928820387274 0.0007643197058997955 -0.0005494102581449359 0.0010018527936209564 0.11083262208511918 0.26347894131360317
28972000.0 0.968251595457292 -0.23970046872588416 0.0007310324944797974 -0.0023015687996398556 0.0029784964529211786 -0.0018378424879559071 0.12417750836740848 0.25531793097951855
29971000.0 0.9651816416257598 -0.25114145560939066 -0.0017227486010880071 -0.0014472184320099416 0.002233503840993995 0.0021882354003774527 0.15363492589381086 0.2709864103061318
30970000.0 0.9647073306320079 -0.2565097331893389 0.003929105402530967 0.0011277256661981077 0.0018169669259731716 -0.0026325954308285965 0.1589717797027282 0.2445599183495678
31969000.0 0.9621874231234326 -0.2647900849882572 0.0027597271220298515 -0.004358447794448482 -0.002257039437113089 -0.00017561931412071407 0.1577788537079665 0.24974173300351726
32968000.0 0.9612215956274217 -0.2730986640840145 0.010125824860674561 -0.004384016795479345 -0.004445748995366627 -0.0003249514661078271 0.16810722263251987 0.25028229629116877
33967000.0 0.9576496662767819 -0.28376293966966193 0.010491568261002806 -0.011799805494359581 -0.0021667258355190172 -0.003987561431475937 0.1922691058671044 0.2421571911157383
34966000.0 0.9545600702986479 -0.2900467276344283 0.012327103601449816 -0.013203115652342176 0.0009876794360717043 -1.259589647940927e-05 0.19742395403055316 0.24370933126152972
35965000.0 0.9517629363584719 -0.2974428830251273 0.012710513029646932 -0.013413628677698498 -0.0001288834063043943 -0.0010929599108637869 0.21372209839269732 0.24494042971429236
36964000.0 0.9504550159517774 -0.3090716069329347 0.015241832863164063 -0.011178185110802737 -0.002737900593971692 7.804351331440906e-05 0.2141256521402548 0.2527839986639
37963000.0 0.9478639143550865 -0.31646872994255415 0.022380425948694337 -0.018698804900982552 -0.0006350638635345534 0.0006254594010849674 0.23282981293003155 0.23506360088275363
38962000.0 0.9438289711542054 -0.32795612453953976 0.022619037095359736 -0.022073948738020124 -6.018471081567741e-05 -0.001601555631255135 0.24142541014585658 0.23453262527184765
39961000.0 0.9407929217826524 -0.3340501483724562 0.025726726391215312 -0.026506536746273467 -5.592228896002466e-05 0.0008313728888762922 0.2522138024369863 0.2262501843032991
40960000.0 0.9374133960629324 -0.3420881344007124 0.024001012486372576 -0.023701706349311385 0.0020673353967872185 0.0011768343792100196 0.2687246150911834 0.2209297357919376
41959000.0 0.9351806966621495 -0.3505718967722552 0.029370129457818587 -0.0315005912370066 0.000558391768328292 0.0004612304846301935 0.2704765599181224 0.2153752806820187
42958000.0 0.9285000406968872 -0.36025890674746497 0.03175905785300486 -0.04075628037811461 0.00011499574341712744 -0.00031123034464836845 0.2839029664483514 0.1975264020930526
43957000.0 0.928903112192541 -0.36556873172634946 0.03452955769955587 -0.04680959209791346 0.0023020290247959744 0.0013985606635026218 0.2930650319623155 0.2095335253889625
44956000.0 0.9246516112437998 -0.37414422952151083 0.03515452888685603 -0.0517753643157941 -0.001555502491627621 -0.002975003522660144 0.30886070270555765 0.18319668539913359
45955000.0 0.9209464583235787 -0.3853484390084601 0.036071429722920656 -0.05663289792227126 0.002086420975809026 -0.0006166182833042759 0.30846328930339423 0.1908427583879737
46954000.0 0.9178906929538396 -0.39178920645893267 0.03535997709805226 -0.06208119202113648 0.0035194583114439766 -3.8899919754586845e-05 0.33509216350245824 0.17065688001437787
47953000.0 0.9173316442461856 -0.39972814422878633 0.03703592564046544 -0.07075539530278885 -0.001294377116472771 0.0017110726714408232 0.3409069053222655 0.16343784706302253
48952000.0 0.9107892088544499 -0.4097453207777792 0.039158435803821744 -0.07826409101432132 0.0020039012160205333 -0.00202807787262507 0.33450774983211123 0.16930148966638692
49951000.0 0.906641792076796 -0.41521959834980793 0.03723813937494463 -0.08539098389872435 -0.001089992153961448 0.001049438999467088 0.3545030602602209 0.15712759468705115
50950000.0 0.9040447588504416 -0.42401647689688526 0.03918591626779384 -0.09295042168830354 -6.884734274871838e-05 0.0016666704910558545 0.3508014896080188 0.1356836683532512
51949000.0 0.8993629389769602 -0.4325838279821894 0.04029253668582558 -0.10454842527011776 -0.002509444660971452 0.0018909401625704272 0.3637120896265826 0.14217238222476525
52948000.0 0.896402799632586 -0.440022301374444 0.04240234248311318 -0.11243954803606591 -0.0022666044738926094 0.002575216145322565 0.37499420574930176 0.130255036906257
53947000.0 0.8932479640837548 -0.44777501364661587 0.043628382834398516 -0.12107558689205335 -0.00033543752258821257 -0.0018974258722637579 0.3762794237693189 0.1226139768575726
54946000.0 0.8850910472003597 -0.4596888234999526 0.04347283395553583 -0.13015150142462595 0.003514076690810072 -0.00044009076602597895 0.38381960803333476 0.11982665540328351
55945000.0 0.8843207089578122 -0.4669864412232461 0.04572676174320938 -0.14011530564278038 0.0017426799598320903 0.0005460661997410423 0.38816447000798643 0.0937143170064158
56944000.0 0.8786881091698927 -0.4725011613112064 0.048517794046091925 -0.15188861400269937 -0.0030251790882252784 -0.0022967879569225527 0.4013514420782885 0.09522852704084137
57943000.0 0.874296244159759 -0.48309322555086487 0.04518330417189681 -0.16317963782224743 -0.003885809142808787 0.0015357635237768991 0.40225495304962433 0.08664085633310953
58942000.0 0.8688149344665607 -0.4894774385994372 0.051100028997930515 -0.17336725780195827 -0.0017510711271633943 -0.0009996133400544034 0.41818222448973796 0.08473624343440292
59941000.0 0.8657870295551444 -0.495513146799436 0.05165222178097558 -0.18026665821457086 -0.0024553513842421886 -0.00253822295590832 0.42648084732320607 0.08436542273965206
60940000.0 0.8585868843916351 -0.506513261503255 0.049749501519077186 -0.18683297152401482 -0.001692596427246044 -0.0012453925794599578 0.4140718168140756 0.0719429541334701
61939000.0 0.8561100416986517 -0.5108444273433284 0.05341164109651752 -0.19407579227061475 -0.001005861707632035 0.0006567147949091499 0.4118146581339298 0.060950116467850673
62938000.0 0.8510062101767139 -0.520882683915166 0.05326429887682894 -0.21117323448100572 -0.00026111025898580703 -0.0007836957978593254 0.44118385524717924 0.04637592345696181
63937000.0 0.846244644427681 -0.5284896924316196 0.055060457186398376 -0.22963927113121307 -0.0007915747238170631 -0.00231805634002777 0.43291987645061414 0.026966199943772678
64936000.0 0.8400325796892523 -0.5349514173507911 0.054282628982438096 -0.2469586987501452 0.0033833946463529135 0.001200834251148111 0.43039070596088835 0.03572944528226173
65935000.0 0.8355329423967234 -0.5469623009265571 0.05261415968057657 -0.2614671660268394 -0.0018009511942816221 -0.0015739890934550972 0.44148323461451516 0.011171557847721747
66934000.0 0.8326579977340043 -0.5498278816162371 0.05438907731830208 -0.272357821207091 0.005076377068678702 0.0011643995422113648 0.43807522949627165 0.00011946044931340857
67933000.0 0.8273385158264522 -0.5588338374285179 0.05461333365007225 -0.28799885422130744 0.0014841253091869427 0.0015893164390488011 0.452666550487753 0.004051520894504443
68932000.0 0.8249521570067962 -0.5533949803348727 0.055786296133068326 -0.2987230971528543 -0.0004716741390516006 0.0008807883616254993 0.45096300440607323 -0.011086584419378789
69931000.0 0.8160446311977366 -0.574146107493859 0.0537223383885322 -0.31739228310240636 0.0019425456165854818 -0.003309784406193934 0.4451526516822685 -0.030895407174125006
70930000.0 0.8091635208745602 -0.5815551030460356 0.04857766075541902 -0.32903991371189517 -0.0025524318444097027 -0.0019157859104929444 0.4519394015699736 -0.04081019936074985
71929000.0 0.8061893439567326 -0.5891459510338783 0.04689821389160514 -0.3474717631457084 -0.0014933801734452674 -0.007119923516019016 0.4582739444300485 -0.04280618181436929
72928000.0 0.7995225897426539 -0.5965501592047396 0.04126064032925979 -0.36276588535370785 -0.0018856163507753082 -0.001544791200159041 0.45437863899325426 -0.05859917681100905
73927000.0 0.7924428654244614 -0.6037545626253014 0.036260671307756454 -0.3842666750580264 -0.003558454322243571 -0.0033616337849632053 0.457713922091777 -0.05730537267414509
74926000.0 0.7892362880284062 -0.6131244496096551 0.03786511874203704 -0.4001109200198633 0.0004459702123833398 -0.0008792563540013565 0.4637344867597527 -0.0655342015253007
75925000.0 0.7813957194795758 -0.6172620433916183 0.0173077129914813 -0.42095350696317624 0.0024648954494450974 -0.0035801258463083177 0.4659396834124254 -0.08301762544501483
76924000.0 0.7773969631569281 -0.6251973226041406 0.009929630700629423 -0.4436953166319869 0.0027367773151372138 0.004217103624035144 0.4627173261347616 -0.08948974258369902
77923000.0 0.7703991659607481 -0.634639161325539 -0.003661384125895839 -0.4662119958149111 0.0009564969378998209 -0.0010840203096424282 0.4632733201419527 -0.1084615826809281
78922000.0 0.763962060274228 -0.6433170346396534 -0.01932688765131481 -0.49198875461661057 -0.0006774263637473091 0.0001275192633530262 0.46935556558658825 -0.11853728596898895
79921000.0 0.7553953083166307 -0.6469235559099873 -0.0312781755085541 -0.5197202790221449 0.00018028679564847477 -0.0014984131643627585 0.46166614800870726 -0.12935223462624215
80920000.0 0.7515911147668964 -0.6570528083004089 -0.049771712749071 -0.5456713669636918 0.0005630153083959799 -0.0015334527471431193 0.4752966773585734 -0.13084876630637446
81919000.0 0.7477711445667575 -0.6637279087987196 -0.07060375782828833 -0.5736703180900371 -0.002658939408992829 0.00040129415870264766 0.4720492565279175 -0.1358535825381145
82918000.0 0.7361667666199718 -0.6726491898265364 -0.08355270872546355 -0.6046966852477678 -0.000838388894420313 0.00030645619047048995 0.47930563418411065 -0.1544898193712696
83917000.0 0.7283961538422741 -0.6801671800004631 -0.1014722779593555 -0.6326180171491634 -0.0023663710495549564 0.002475799175928487 0.47030232622969226 -0.15729862516862678
84916000.0 0.7255631627650417 -0.6859481618725933 -0.12183159378277951 -0.6647215133041414 0.0017958679373768771 0.0011915084385776382 0.46848048937450243 -0.16516533186000837
85915000.0 0.717383971094606 -0.6918818078057359 -0.13815704321526254 -0.6961618967129817 0.0014498219498528088 0.0021680401532547778 0.46077148021051556 -0.18123968842560514
86914000.0 0.7100414276948687 -0.7035544390244672 -0.15563816003144568 -0.733004526867349 0.006766946330508421 -0.00022126716046356058 0.4642063516836357 -0.1878892278885853
87913000.0 0.7038304895690123 -0.7084427935430245 -0.17528038365873125 -0.7643207549042796 -0.0009436516584833428 -8.606241080196696e-05 0.4614018116930545 -0.20090504278481194
88912000.0 0.6971860604263189 -0.7147808568143309 -0.19092769104237692 -0.7987740132742344 0.0012559288378831417 -0.0009039003583766859 0.46151917005539933 -0.2171553075850909
89911000.0 0.6880358018201449 -0.7244381916807742 -0.20674594730644846 -0.8309737861872414 -0.0039821104529331715 0.00011239557538164519 0.4672871083143366 -0.21014052696285263
90910000.0 0.6844612034074817 -0.7280280165316317 -0.22221076231585582 -0.870303477412337 0.002978082679793773 0.0016202202829591844 0.4689320166243145 -0.2254703101622333
91909000.0 0.6735047577533707 -0.7331985581420446 -0.24464425981722035 -0.8999240381268213 -0.003277715546095481 0.0017254720355265128 0.45939728260869944 -0.23533252027023965
92908000.0 0.6664394977685407 -0.7438954267435816 -0.2622128215002104 -0.932787291823221 -0.0004334618125614815 -0.0027632356295835348 0.4584305737050302 -0.23773424835407472
93907000.0 0.659545432315384 -0.7486897167030634 -0.27778498804417084 -0.9662695341561276 0.005441460987501805 0.0007459261343135024 0.4655587997559098 -0.2589618285922399
94906000.0 0.6497844258577437 -0.756785431675797 -0.2969043768353608 -0.9967286946707243 0.0010784990214882217 0.00247409715525663 0.46523309204823576 -0.2559774422116874
95905000.0 0.6429050621089153 -0.7616262212474908 -0.3183972532096195 -1.0345854830068753 -0.0001251223886909188 0.0004181088326399224 0.4705854497661726 -0.2726704243759652
96904000.0 0.6349469628067159 -0.7703120701913784 -0.3366552747713278 -1.0709662213686488 -0.0007888823241916488 0.0025173094990761434 0.45185966925559035 -0.281513135603347
97903000.0 0.6246405614126396 -0.7750372126673032 -0.35576955616116784 -1.1041025368460509 0.002485843151105458 0.000642904117721366 0.4537536066846889 -0.28963622765399477
98902000.0 0.6210965949799214 -0.7826178003810974 -0.3820464633440853 -1.1443949363791666 0.0023259042634255866 0.0012956101616916568 0.44848205247781053 -0.2987451658944299
99901000.0 0.61055276958281 -0.788467211077138 -0.40732197482919036 -1.173474324279082 -0.0009153444943749933 0.0002926354952263785 0.4527103618803402 -0.32370441164459196
100900000.0 0.6015980360495222 -0.7919236105833427 -0.4365439083305516 -1.202093157165237 0.0036852458037771444 0.004174226658117998 0.452050877878644 -0.32294020055444833
101899000.0 0.5945076817982997 -0.7989349806516244 -0.46000294533554054 -1.2425364894873823 0.0007895125634598974 0.0007963625574950027 0.45415132301977 -0.3310303494898806
102898000.0 0.586850105577953 -0.8053725162061003 -0.49183799969489705 -1.2822658120222665 -0.0003490210147671129 0.0002505863786719755 0.4417019991100571 -0.3441210154279728
103897000.0 0.5762210266011911 -0.812307405821632 -0.5323176819877568 -1.309139276779664 0.001553287590610195 -0.0001657350289479429 0.461903542878229 -0.33949021188620454
104896000.0 0.5693027271766096 -0.8235920038181981 -0.5741107010782696 -1.3487701899906512 0.001692728993267477 0.0010395339085670433 0.4443220630646953 -0.3403826952048722
105895000.0 0.5583139087344039 -0.824045533802418 -0.6184574305140049 -1.3865069936754788 -0.0009611475686656916 0.0019220727082264685 0.43915760614672267 -0.36368946551760345
106894000.0 0.5490582248793814 -0.831362170306842 -0.669128405107521 -1.4238899151153732 0.0004896784165185383 -0.0014752656498732343 0.4285640501667793 -0.37303111944534373
107893000.0 0.5430983486305392 -0.8370517000614606 -0.7141207124143035 -1.4633187129815186 -0.0013125361310898395 0.0029048152350164575 0.4333362979722602 -0.38303037970074444
108892000.0 0.5310780428207014 -0.8412481918362341 -0.7807926601610757 -1.4983608280059215 0.0001340274062476894 0.00025546176205553116 0.4292062866516253 -0.38616123110913514
109891000.0 0.5215197216575354 -0.8475362514702524 -0.8329378943850368 -1.5333619981339768 -0.003519255438879531 0.0016833086480847303 0.4353600866933781 -0.3854084049931116
110890000.0 0.515088197645768 -0.8548877861866049 -0.8913912760596803 -1.5514499617663133 0.0002839782990379478 -5.400402185211681e-05 0.4348623453039043 -0.3913658862481348
111889000.0 0.5007649541066606 -0.8554708654253248 -0.9599286212899819 -1.5974886878248353 -0.0022813798366432807 0.0003047414482105731 0.4334170468695662 -0.4130230752619812
