! Created with skrf 1.9.0 (http://scikit-rf.org).
# Hz S RI R 50.0 
!freq ReS11 ImS11 ReS21 ImS21 ReS12 ImS12 ReS22 ImS22
1000000.0 0.976556301642931 0.007614284748635158 0.006220136908894138 -0.03686640365114982 -0.008103516780291318 -0.004951759749254506 0.3291782742643128 0.31323717170439536
1999000.0 0.996584679456406 -0.01064697440695137 0.00629766550195957 -0.0234749501716261 -0.0052901702682035265 -0.0021996515453851844 0.2572554909885161 -0.05455397746404481
2998000.0 1.0010699070189832 -0.02409994982659808 0.01265066789509473 -0.01838409173220204 0.00017531064290598366 -0.0019465898054096787 0.1919770092857419 -0.14212613186427805
3997000.0 0.9976329624565299 -0.031175606510510386 0.015986695085967628 -0.0038963028201614985 -0.0007117017587348179 -0.005625045311296414 0.07566792469488326 -0.23591324574378922
4996000.0 0.995780981129257 -0.03714234722004594 0.013997101721203411 -0.0036846088267663488 -0.003536781486308118 -0.00412585483677118 -0.05481477117904523 -0.2015617890649885
5995000.0 0.9980532465006937 -0.05163407202405681 0.011164347334664216 0.001153415026725416 1.1260359976353565e-05 0.004902002712989319 -0.11879617465935269 -0.08329029693376394
6994000.0 0.9927125368318691 -0.056711953435541654 0.0023376057024362736 0.004985975380247823 0.0012171729811622904 0.005097988448675468 -0.13422825961858967 -0.013064298284044533
7993000.0 0.9935535237112207 -0.06906105227772462 0.0035985931682473407 0.009787846369326786 0.003775983268749451 0.0021262387430681924 -0.140524746206048 0.03656580402186999
8992000.0 0.9941796926412113 -0.07359812732425103 0.003949072451709137 -6.1432767924726425e-06 0.0035312935404578213 -0.009130734657491743 -0.14473880472598452 0.064730846906659
9991000.0 0.9941652691748977 -0.08284379507297522 0.0028777838476040348 0.0029968090885756 0.002802700297824303 0.001976313616781396 -0.14462201492650098 0.10302076784609462
10990000.0 0.992752289621514 -0.09500440415181555 0.0016471469801527042 0.0022275281781099486 -0.002240178546393496 -0.0015491251120481916 -0.13160518538588273 0.11395488407500327
11989000.0 0.9893155744291837 -0.09939625625170369 0.005819956789721919 -0.002075102426163521 -0.0012543978325275271 0.00294227176036651 -0.11010585548642932 0.13937979172247872
12988000.0 0.9886489775310602 -0.10915969446086438 -0.0004690980178907057 -0.008127192577215087 0.0003382545916324119 0.0014296170028799985 -0.0979492623126943 0.15446181811256465
13987000.0 0.9880332651081544 -0.11860068281725733 -0.0016984370184750979 -0.0007457831775452037 0.0015135015819233068 -0.0011771683038612824 -0.08252300933219875 0.1801404327287959
14986000.0 0.9864821218856017 -0.12782674490919735 -0.002936919873969624 0.0011068717956395158 0.0004171208826168843 -0.000758319129163251 -0.0726583136929881 0.1907126562503164
15985000.0 0.9861988064430496 -0.13440995712857146 -0.0020011175037740934 -0.005916416607524265 -0.004087276158299794 -0.001218622260913559 -0.06511202280315484 0.2149142160847473
16984000.0 0.9846479723585552 -0.14463482666075286 -0.0018456133873333321 -0.0029383663252725966 -0.0015887049048480528 -0.0005485950475867776 -0.054537026168369744 0.21588311663479048
17983000.0 0.9850761926545153 -0.1488993578168967 -0.0033965947314263684 -0.002645908167519545 -0.003944957145143507 0.0030333973737348002 -0.04800583217596971 0.22185592822077715
18982000.0 0.9812605528027419 -0.16313355489676898 -0.0037154805844127245 -0.004339874326665701 -0.0005566591508653535 -0.0016560360178323004 -0.008745487173467239 0.2407375928762293
19981000.0 0.9815435170248584 -0.1679095692075686 -0.002319506265214684 -0.0021267063613084505 0.0005229544499033857 -0.003354236774607637 0.0006692239418485806 0.23395091453308695
20980000.0 0.9798049721236349 -0.17609535268939694 -0.0037095866211914264 -0.00452696963422305 -0.004050741919513759 0.0007684388199004463 0.0010033481839936771 0.25527626254116187
21979000.0 0.977623119964682 -0.18376945596731006 -0.005607989792181691 -0.006571124621652367 -0.0030983524928746716 -0.0015565004447147797 0.020199134244174664 0.2505621652655201
22978000.0 0.9762784014822294 -0.193264763786115 -0.004218055363449741 -0.0003218046037409555 0.0052098171356413795 0.0062067907863224666 0.025743758733217846 0.24922271703337132
23977000.0 0.976571710618467 -0.2023069205853349 -0.010434155650851243 -0.0012343034104992537 -0.0009882021211538839 -0.0032145212530557275 0.031519448437164574 0.2540816206601865
24976000.0 0.971229173273287 -0.21296347191217443 -0.009247215067960671 -0.003375763512359996 0.002385394080887857 4.515406702321023e-05 0.056409242841416664 0.25083213582405683
25975000.0 0.9714569692948696 -0.21846065235283635 -0.004855278455137893 -0.00039547976838113407 -0.013265809258472278 0.019533635445503513 0.08218627264214728 0.2575391567781502
26974000.0 0.9689926908540295 -0.2296178661961373 -0.0009868213978471013 0.001144698953109984 0.0018146882039328572 -0.004612132661687752 0.08993609240222472 0.2669664255585494
27973000.0 0.9673436163356353 -0.23818878029557827 -0.002334031822003087 8.16840203280401e-05 0.0024517292769896592 -0.0017672798876668526 0.10376767887809765 0.2574886619916536
28972000.0 0.9647516952240074 -0.2479759892154963 -0.0005145295762474847 -0.0009768918387496048 0.002549368940123578 -0.002178762019022083 0.11890607599314455 0.26020503208991275
29971000.0 0.9629584680287259 -0.256143198388654 0.0022713712223638833 -0.003027307668526144 0.0012678682719436236 -0.0009743322315815534 0.15032399361003157 0.27541240219919505
30970000.0 0.9599818069942274 -0.2590062413168801 -0.00174247349549525 -0.003466771332810482 -0.0021538533281705292 0.004346386806800419 0.17434899503807788 0.2573441230302575
31969000.0 0.9596329700510069 -0.2695777319366033 0.003707800223139521 -0.003989999259935585 0.004490669003601407 0.00011965146456085673 0.15136396564364338 0.2527506027898449
32968000.0 0.9568328349394201 -0.27973673011564365 0.00754542772372991 -0.003671626552424426 0.0017402027815892175 -0.002363923379014039 0.16344482444464647 0.24459065964843937
33967000.0 0.9551040769326271 -0.28924985897433786 0.009242497609073157 -0.009914902059157063 0.0021790937745432316 0.0020304947891208514 0.18822600892931693 0.24488981005248195
34966000.0 0.9532977319386055 -0.2952733509575676 0.014661726534467581 -0.010660125209325133 0.0004170365659222983 0.0010499494095468297 0.19976774226839314 0.254538700401312
35965000.0 0.9484525109242021 -0.30415085632228 0.014928193628361343 -0.01461985448094993 -0.0008071728536318538 -0.0012976923637984506 0.2183069974620964 0.2501526521228273
36964000.0 0.9470544489395415 -0.3135432988022892 0.016109549174868502 -0.012127790744916964 0.0027192551702966395 0.0027948815437894674 0.21086097934775844 0.2524301741640729
37963000.0 0.9425629776042176 -0.32401147225039906 0.015849433561771552 -0.020667042326878552 0.0017947650676159803 0.001643003915079147 0.23348308574105084 0.24593977387327393
38962000.0 0.9416633173122875 -0.33092146079760115 0.023093774098299713 -0.02565563247216294 -0.001663750845627527 -0.0017117940145279422 0.2361555684322938 0.22519598901494717
39961000.0 0.9375611557149954 -0.34043580715806365 0.02313540700232457 -0.02293061958946577 -0.0017137855242872263 -0.0023430716119750917 0.2459283248640512 0.22155920884170377
40960000.0 0.9336764035650755 -0.34707568366393243 0.020497440957063514 -0.019124767625037828 0.0026029166436934647 0.0010768559738630545 0.2688366863563799 0.23197795546758618
41959000.0 0.9285025165437538 -0.35856224267191905 0.02732830479267231 -0.028989089637461954 0.00029889361863293866 -0.0003202992984717692 0.26464689740717945 0.22253944419530178
42958000.0 0.9268240409738943 -0.36592249864940146 0.030999948744926672 -0.03414963831568234 -0.0009424292467258638 0.0017189616488682117 0.27677573658337984 0.21263060291671923
43957000.0 0.925871281528166 -0.3704084533935365 0.03224745154896764 -0.044626185827235834 0.002500622767826455 -0.00031705756178328177 0.2894475037167504 0.20548616216704663
44956000.0 0.9222806152700245 -0.37887437182679046 0.03075940644076509 -0.05078435049758753 0.002458680329706724 -0.0014310684242597326 0.3012494731201384 0.2034882193858873
45955000.0 0.9168792532487179 -0.3907219910819885 0.02970356990951611 -0.05585437499319538 -0.0013630791145570079 0.0009210888025480951 0.3039687745408514 0.19913581384103923
46954000.0 0.9131929610242787 -0.3986786898853638 0.03535577077614767 -0.06063889587611654 0.0019978764013409366 0.001470439038336846 0.3316614737925888 0.1763235392729171
47953000.0 0.9111873261051144 -0.4060630538665293 0.03616789711397717 -0.06657807527589515 -0.0023361924639991876 0.001576976322603927 0.3466123342857009 0.17420398414220487
48952000.0 0.9053372968958405 -0.4152105644926832 0.03742732067247502 -0.07610040687676856 -0.0027404825379881343 -0.0010916058569768268 0.3432986224887221 0.1655290388703622
49951000.0 0.9009909589508112 -0.4240132164578101 0.03942689822691964 -0.08429281072015644 0.0027663009370727785 0.004891669904802476 0.3490448456992977 0.16894435152367027
50950000.0 0.8984399359972034 -0.4325120022928163 0.03728058916977437 -0.09157856273366874 -0.0005375814794466735 -0.002404355114690824 0.34418244232253153 0.15445983829428678
51949000.0 0.893485666927608 -0.43795703697614863 0.036802726042133777 -0.09544209789918517 -0.0021120466388586242 -0.0019474992271592791 0.3607387989704249 0.1582914122224431
52948000.0 0.8911553625863183 -0.4481698241946321 0.040432208573217436 -0.10685503709667524 -0.002112031825315043 0.001551021579784242 0.3705528987836503 0.1507605217456939
53947000.0 0.8851306064557257 -0.4550994891903516 0.04397587656149359 -0.11453228897083248 -0.005366127375251413 0.000706908320135914 0.37005440202968864 0.14296315507308024
54946000.0 0.8804930643155608 -0.4638181636268612 0.04506805682205452 -0.12316066444110337 -0.0003449016349036389 0.002635632185575559 0.38824493046816805 0.1374448732247492
55945000.0 0.8776056427523972 -0.4731226043914533 0.045948204772622674 -0.1326312482587084 0.0019028293447321764 0.0003770597584934203 0.38252320252714667 0.1189565942381319
56944000.0 0.8740466083856749 -0.4812910358094139 0.04471439834659463 -0.14242176999497674 -0.004108564214798858 -0.0004119088998483101 0.39941669494713283 0.11150943734554067
57943000.0 0.8695074696545612 -0.4906264877642894 0.04925127111643201 -0.15452034137816845 -0.0004945328433297499 0.00010190363150149766 0.412531351862955 0.10751224212675903
58942000.0 0.8620930638427577 -0.49595504473611973 0.04790159862464027 -0.16345528685914035 0.00018230525876868702 -0.005185959134841526 0.43010482000628153 0.10248468396523544
59941000.0 0.8596857866646013 -0.5062706512616209 0.052286440617155865 -0.1706165543893049 -0.0021281866676403664 -0.00013974606727432207 0.41865003728411454 0.09638554283713653
60940000.0 0.8521415626157468 -0.5112315531036726 0.05034573425138931 -0.17436277975258505 -0.0002865973421816266 -0.001690488945151499 0.40600202664702906 0.08142609802455932
61939000.0 0.8491126634789461 -0.5193206813614207 0.05529422286822372 -0.1820781685052033 0.0015088120957537643 -5.80030095200279e-06 0.42293696150542365 0.08329927040382656
62938000.0 0.842803978692106 -0.5299175430968069 0.05566628217582739 -0.19971193096778458 0.0007251087646218068 -0.0024016831426249045 0.4381601897581808 0.06482786748987715
63937000.0 0.8365247202120184 -0.5384639262515218 0.05756992041108659 -0.22001415898180546 -0.0007513198114348695 -0.004325672729223221 0.43718159873781604 0.061741809744185625
64936000.0 0.8327669939462471 -0.5425509299353668 0.056615617472687674 -0.23161896483653127 0.001253169878916807 -0.000696662630216115 0.4413036509580427 0.06041436561242705
65935000.0 0.828148761608308 -0.5546288993341636 0.054315175657369215 -0.24501583750761732 0.0015633379363894661 -0.0011132422296362666 0.43994631179469396 0.04040581460205794
66934000.0 0.8243767594552128 -0.558864553016312 0.0580494518259382 -0.2561710707783923 -0.003551857127771892 -0.0033685404080841903 0.4414124801714284 0.02281933149731576
67933000.0 0.8205857334322594 -0.5679125820207199 0.058580040525433724 -0.27176137301904874 0.004984985663722674 0.0006432185107569644 0.4479754730720302 0.019349765022769055
68932000.0 0.8080844620133313 -0.5742771819266588 0.05545799979764344 -0.2844966414568976 -0.0012863907591715404 -6.82776918203746e-05 0.4610345770181782 0.0048955154488129924
69931000.0 0.8038250415207665 -0.5851006887469352 0.055752324508327844 -0.299725486864244 0.0002338127125293485 0.00043249866475593673 0.4546947012036528 -0.004739178782333367
70930000.0 0.7993936977818618 -0.5923467241267074 0.05387521323169314 -0.3145696967560601 0.0010124730302383041 -0.0024372603524195086 0.45632994211711925 -0.00563354918205142
71929000.0 0.7958068587730919 -0.6003875696129161 0.051797156399659 -0.332204336925136 0.0012686922009906816 0.002851217265177352 0.456512902277459 -0.021445249051973776
72928000.0 0.7887318199283602 -0.6077035406203396 0.04343465371689771 -0.34589477690260545 0.004255048972863179 -0.0069920542719100805 0.46858472325251366 -0.031590402395746654
73927000.0 0.7838068306540749 -0.6159958176513982 0.041441792583338244 -0.36268503062811897 -0.0021472048309947637 0.00203047990631593 0.46291840802721673 -0.04229050312963071
74926000.0 0.7788676103034698 -0.6249647438233313 0.03427486878118923 -0.38315331399879954 0.00020562144064503182 -0.0014580250255101768 0.47040851626792657 -0.04309565519919454
75925000.0 0.773506026838751 -0.6286162075934166 0.029063634268401292 -0.40563628271616453 6.058865048316737e-05 0.0024584996654497693 0.47318079929590356 -0.05934738167720487
76924000.0 0.764507008253901 -0.6374960648573995 0.017213071960989486 -0.42793630840338354 -0.001569080726423803 -0.002686211057915098 0.4720856761087274 -0.068892930428061
77923000.0 0.7600007576172327 -0.6427254257855624 0.00291795019155846 -0.44532662996245753 -0.002365667228848811 -0.0014703895962807905 0.4594660651662436 -0.07077855552107021
78922000.0 0.7542870643331855 -0.6538019993297854 -0.007102998263800671 -0.4722719813411277 -0.0002714842479228067 -0.0008945926971140486 0.4651422338893166 -0.08900981914629592
79921000.0 0.7436370672018899 -0.6582044836434736 -0.027905992535294764 -0.4960913299825548 -0.0006556197164606971 -0.0018406468150454598 0.45818049814265027 -0.0846025222481742
80920000.0 0.7418486672344345 -0.6683036080199578 -0.04170143172243941 -0.5246738979122734 0.0024592522287920798 0.004060521856631385 0.4790515407152846 -0.11144086192376661
81919000.0 0.7361766369544742 -0.6734460150089243 -0.055164623184215056 -0.5534714421051402 -0.0027509676352472363 -0.006113872383548926 0.4743382477720858 -0.11428910888403751
82918000.0 0.7248076192487721 -0.6831716105108049 -0.06947897134330858 -0.5814726117110552 -0.003257801386868184 0.0010226657991346622 0.489285261588488 -0.1361740997263608
83917000.0 0.7176295924313896 -0.6913910593656515 -0.08761351146878137 -0.6101507324039771 -0.000269952719041564 0.0010174079813261082 0.494607524483608 -0.12838116591306184
84916000.0 0.7116602503242677 -0.6975306937235096 -0.10368254229831327 -0.6428125537110788 0.0021287981872098968 0.0006924115659929841 0.4792080843635917 -0.14920459383536683
85915000.0 0.7058793164124633 -0.7020340467712899 -0.12153545515301173 -0.673368013915682 0.0005613894503679578 -0.0012848346869307984 0.4703009311804885 -0.15966389978879214
86914000.0 0.6973698620852784 -0.712792696982201 -0.13360448810409822 -0.7085240683586139 -0.002470304218381152 -0.0008684391696816111 0.4750137654494993 -0.16329937635364086
87913000.0 0.6917271579848319 -0.7175036990756406 -0.15165067384879757 -0.7374203259818688 0.002753207637986575 0.0007345869775686092 0.48290400448643744 -0.16261450666826385
88912000.0 0.68253498310491 -0.7265958484811071 -0.16677476816465253 -0.7683307506703259 -0.002405246331838144 0.001359839114078998 0.47171638181887426 -0.1845881451792342
89911000.0 0.676024622379694 -0.7337070632182793 -0.18366336532092845 -0.8020669961692671 0.0015365944154457818 -0.0018895740174231961 0.4875272399791823 -0.18581675211961057
90910000.0 0.6698306579652559 -0.7381718961839664 -0.19557429035249604 -0.8380587263683361 0.005538111348310289 -0.0008020518331235238 0.4765690369283492 -0.194686791719895
91909000.0 0.6593714572808801 -0.7437492927776728 -0.2123796858267793 -0.8723356967367084 0.0007679293345759291 -0.0007365518790518227 0.48616508226108845 -0.2099311489990684
92908000.0 0.6527056726482453 -0.7531033988011218 -0.22754865656584125 -0.903378238094698 0.00027470235775430897 -0.0005569547542495923 0.4693745249461509 -0.20717432896856483
93907000.0 0.6462373322620473 -0.7573450557730157 -0.2460265877039861 -0.9332804044014494 0.0035207409223780186 0.0008209544973923829 0.4769240851552689 -0.22619064362791358
94906000.0 0.6327015257203285 -0.7661205374816474 -0.2648400554232527 -0.9630758598518647 0.0022822137416255595 0.002316257167336016 0.4715221667821881 -0.23428761820256408
95905000.0 0.6279909041565117 -0.7698846130906156 -0.27698899916123354 -0.9981995637675154 -0.00021113647301910325 0.0037588569171653832 0.4766722652287541 -0.2353330923641813
96904000.0 0.6193810235246819 -0.7798023840502911 -0.29851197973578025 -1.0333528687279216 0.0031342706105149895 0.0033139340767525827 0.46844496139504727 -0.25346697148858005
97903000.0 0.6078358493932615 -0.7854290794421686 -0.31601379186182743 -1.0679430388616753 -0.0011581485173460969 0.0034429931843227685 0.4632708166593577 -0.2673886845039852
98902000.0 0.6055568350732087 -0.7935380599978293 -0.335492810004788 -1.1068693169747237 -0.0038835401315419965 0.0010541707129316275 0.4608194524786781 -0.27773971085577825
99901000.0 0.5933203068343784 -0.7993653293031662 -0.3614005514621184 -1.1427147839014233 7.360762744943093e-05 -0.0007614171545155229 0.47093228759711847 -0.2935315180684093
100900000.0 0.5857119630753383 -0.8029529039890407 -0.387497833329997 -1.1702362856366053 0.002292629941844908 -0.0019182292086860255 0.476677488606789 -0.29165473187576546
101899000.0 0.5763288733145367 -0.8103575916402567 -0.4153953771188512 -1.2032224555539541 0.003039746462976992 -0.0013655503172416853 0.4681037067345169 -0.30048491564537044
102898000.0 0.5657725332930941 -0.8158403709176906 -0.4473907789548943 -1.2434137900132574 0.0026074865815261666 -0.002328089816064017 0.46990116045536456 -0.3151105610967391
103897000.0 0.5584949164736184 -0.8229959589458056 -0.4820858419911941 -1.279471273948986 -0.00011586131525710935 -0.0020381462665343456 0.4785125825755474 -0.315718418517007
104896000.0 0.5511957628563899 -0.8335156478760086 -0.5247260008211936 -1.3097893498052262 -0.0006864486142528588 -0.0033194739007996925 0.44790832320334983 -0.31628697874898914
105895000.0 0.5395245462641433 -0.8357371250814878 -0.5659525761053319 -1.3509729731655402 0.005061797254962443 -0.0006604906210951668 0.45378299576053566 -0.34111598938131543
106894000.0 0.5324540270583773 -0.8417179601061848 -0.6128237288993882 -1.3871548404189957 0.0008846888549654136 -0.0010311134097644086 0.44747320865452656 -0.34841548564095504
107893000.0 0.5239525533668874 -0.8479577726870123 -0.6634585146112468 -1.425958554472688 9.073147225391038e-05 -0.0015690447498282634 0.45187821076112483 -0.3481783766337657
108892000.0 0.511928400664047 -0.8515140788146435 -0.7216414353228923 -1.4654436353453228 -1.690681167035214e-05 -0.001853433358088481 0.43635493549085236 -0.3503860376024909
109891000.0 0.4995565406325245 -0.8578317530939646 -0.7730547684957902 -1.4964977961032622 0.0001241243177852892 0.0017997149688057095 0.4627417694891977 -0.35584089403553126
110890000.0 0.48901252407683476 -0.8594582811032792 -0.8251259425810108 -1.505071749047134 -0.0032367454399417498 -0.0001079631247986347 0.45178982889806996 -0.3676010541677658
111889000.0 0.47832440788091857 -0.8669790020169859 -0.8961523944104607 -1.5678433637619538 0.0023893892177126877 0.0009797143248306372 0.44299627570967126 -0.3785010849553287
