! Created with skrf 1.9.0 (http://scikit-rf.org).
# Hz S RI R 50.0 
!freq ReS11 ImS11 ReS21 ImS21 ReS12 ImS12 ReS22 ImS22
1000000.0 0.9737125450307397 0.0021218310875046336 -0.008368501784141481 -0.03986184091094792 -0.0333719066081203 -0.0023880025438212703 0.3523340061156264 0.33149246175367814
1999000.0 0.9980086283749171 -0.005973657063037892 0.0071771924235805055 -0.021347583022379803 0.003546028699962338 0.00012290324790015692 0.2599875507912222 -0.05517001803218536
2998000.0 1.0004490559311299 -0.017916771158921208 0.006288060550932634 -0.012422010070061319 -0.0001827089994332049 -0.004672194747741806 0.19901528307598584 -0.1579911120512329
3997000.0 1.0006650924258853 -0.029139170416193197 0.013408992739903957 -0.008109552511162558 0.0005911711467656257 -0.00011674457328636318 0.09863452504072855 -0.24016630964194352
4996000.0 0.9991640112771163 -0.034739652369915004 0.015871301334897156 -0.003542690644763062 0.0002065005637401413 0.0009225813932575293 -0.04173769464465471 -0.2212323159066947
5995000.0 0.9968901942609616 -0.04641048810023549 0.010094436831222062 0.003792532005055134 -0.002683006291081825 -0.0008438265618688193 -0.11741350984909286 -0.1105304126198621
6994000.0 0.9996526805153892 -0.05919392882920514 0.002856577448824781 0.00775825956445553 -0.0023088263570512513 -0.0017408490286884288 -0.14637120653143457 -0.02355741356308301
7993000.0 0.9995170355115468 -0.06616705340914905 0.004824705348003772 0.004655185893231741 0.0025760329438444594 -0.00026743995841505854 -0.17007540760284723 0.04307363727345735
8992000.0 0.9979386677326486 -0.07127724681296614 0.0007960283575722104 0.0035621418094514273 -0.0028188262321756424 0.002613911449781433 -0.16288088894261846 0.050082182848518
9991000.0 0.996051430248118 -0.07940919250337744 0.002462629684771428 0.0035899956734490052 -0.00046793363885878263 -0.0005376984817947494 -0.14647804724767338 0.07420489492451533
10990000.0 0.9955687314452456 -0.09116323494427091 0.0024553813831760724 0.002274954992093768 0.0027226822117058227 0.0044661849289254355 -0.13805715074709188 0.10865887678691855
11989000.0 0.9951123267137868 -0.09710118744008021 0.005515396168820029 -0.0008519830714335504 0.0014055322167564955 -0.0017454493060125153 -0.1310698055184322 0.14690483769896878
12988000.0 0.9927915738749741 -0.10872408773060382 0.005404958144495095 -0.005174133698819169 -0.0004220451079036694 0.002531007881698233 -0.11883270027175721 0.15213154640350804
13987000.0 0.9916780817568815 -0.11679960022616398 -0.0029185513918090944 -0.004434472253872969 -0.002214555047945703 0.0022634176426188355 -0.10046492146839532 0.18617950252205306
14986000.0 0.9916153285471181 -0.1248128386440721 0.0002501813609388594 -0.003694124407044622 -0.0016659000127797617 0.000786620082835666 -0.0933922384078969 0.19821792571460975
15985000.0 0.9927080728452833 -0.13334176106833012 -0.0012064519158341768 0.0017481346224132866 0.0007619585085705769 0.001629513693080823 -0.07061487721796202 0.2138113071244179
16984000.0 0.9910062328077199 -0.14141753802570356 -0.008959267142573559 -0.005768601417579638 -0.0025936446572177897 -0.0007551618053037476 -0.057124869683892195 0.22220066432458824
17983000.0 0.9910034066607094 -0.14580004721147596 0.0034302699862237803 -0.001883449759380989 -0.0029441984298397557 0.0022876952245063408 -0.06062024660169104 0.2253595067979165
18982000.0 0.9863050619066458 -0.161796288515305 -0.006537004112028693 -0.00276545883140935 -0.0022394826690928698 0.000765348068507836 -0.020066479026011698 0.241205754575028
19981000.0 0.9850378363997941 -0.16345458221112108 -0.005567129354631021 -0.002239644096749657 -0.0027633430068621924 -0.00046468258733765595 -0.00798839807504619 0.23774246803498675
20980000.0 0.9845963219142364 -0.17423190450074622 -0.007261844494026269 -0.005407280515738052 -0.0019038640712470342 -0.0007698500947351168 -0.006401496587339775 0.26438973483454814
21979000.0 0.9811985726168689 -0.18635606712854547 -0.0054350550223734835 -0.010345061667548085 -0.0025123803106030223 0.004953459408019234 0.015576327945392628 0.24511556066128806
22978000.0 0.981924005704882 -0.19205456046779704 -0.008897488402574167 -0.0071226845906974005 -0.001951348213956785 0.003932264619107883 0.03010324945494655 0.2507572132335643
23977000.0 0.9827533240072802 -0.20070965616442496 -0.006302666350920523 -0.0020038590835620602 -0.003182891939772948 0.0015655404570398045 0.04401449736122285 0.26302230590236814
24976000.0 0.9768622830733582 -0.2108061985395738 -0.0067646772663967755 -0.001293271686264972 -0.002698283029048909 -0.002185964493317914 0.06669777171497253 0.2500917399318646
25975000.0 0.9775186728535888 -0.2227157869181223 -0.007875635969353803 -0.0007119646505386329 0.027260806198666367 0.003644266197144942 0.07876479239965191 0.2579871660189509
26974000.0 0.9750339287234538 -0.22534765208252486 -0.003532601765471665 -0.00020992571727989107 -0.001984727070657041 0.0019440493669403357 0.07893836380278305 0.25932008466545636
27973000.0 0.9716401763002877 -0.23306114925518107 -0.00017491284416460543 -0.0035209792594429255 -0.001951624259333364 -0.0034775354657546626 0.10066237841609507 0.2515685266813297
28972000.0 0.9696294617603501 -0.2410548558385284 -0.001254812931550754 -0.005348795730387636 0.0016912565740095 0.0023796235792388778 0.1088290169676684 0.250520882225117
29971000.0 0.9682370485324592 -0.25201868855136966 0.0015766817330508142 -0.0010353331985230075 0.0004932473876358659 0.0006921089250424341 0.15238895252815562 0.2691539713925313
30970000.0 0.9653545115158466 -0.25749299200755194 0.004503616149778251 -0.0008212248934101569 -0.00237736097286301 -0.0009073487853542562 0.17592105138143188 0.25230347067143494
31969000.0 0.9643580601733406 -0.26617845374243115 0.007064426755505347 -0.005216806790298085 -0.0014769496738633201 0.0021459210603782778 0.15001946419251813 0.25222650187557566
32968000.0 0.9615871813432108 -0.2736125941224545 0.008503010769460901 -0.008848325138924987 -0.000285000823939376 -0.0020223033629114292 0.16108630324979495 0.2414156241408478
33967000.0 0.9615912331601404 -0.282240188703807 0.012582707682114506 -0.010754446215703374 -0.00422421555893123 -0.0022488788136721186 0.1907534104716234 0.23909841791915803
34966000.0 0.9573682872194675 -0.29075034878648554 0.011659684241040667 -0.010861799362869299 -0.001227319630951329 0.002395103029909464 0.19488017065949145 0.24580966912985233
35965000.0 0.9530400793111736 -0.2990264782633003 0.01859482755730301 -0.015968119583850963 -0.0009706094948038654 0.002499262505561508 0.21616190689339865 0.24508404196970812
36964000.0 0.9508010739850105 -0.30944889175589324 0.014880364279290159 -0.014355632917277646 0.0015773352598866686 -0.0021382305181664243 0.22013181150349012 0.2556518933103995
37963000.0 0.9479187049386316 -0.31714130929992007 0.02193608845591938 -0.019084362409681928 0.0017691356344393418 -0.00018815884050691714 0.22798459152654554 0.24117553605511935
38962000.0 0.9451404468216488 -0.32791855362387484 0.023016941504850768 -0.024574471429560353 -0.0008237218487712559 0.002198642768721846 0.24411153560912666 0.23364068917796418
39961000.0 0.9412896678026841 -0.3348857148818274 0.02871058138656456 -0.02714369262730207 0.0007601782588459806 -0.002348129191825461 0.24889650931218793 0.22756630562147803
40960000.0 0.9390225924033396 -0.3423521195101782 0.022052037371892454 -0.02414308579280326 0.0021191031920785026 0.0013851376806017157 0.26886779468334643 0.22816173223858968
41959000.0 0.935694180998438 -0.35250577133809097 0.030216980060146684 -0.03353112119426814 -0.0007684603589269328 0.0014097860143063874 0.2763877462600028 0.2170003139221607
42958000.0 0.9321514311717951 -0.36033927838271274 0.03219342114171023 -0.04314877216147043 0.001769310167001159 -0.0018531185661598481 0.28048147876663754 0.19455101118698992
43957000.0 0.930618729593363 -0.36461879386838386 0.03433161403266026 -0.04625381796687107 0.0011345144288649087 0.0011378501604769103 0.2921026223143718 0.19923574894598486
44956000.0 0.9268836337614291 -0.3733451265989809 0.03579987392017983 -0.050442159441078924 -0.0019325643663335472 -0.0006868736598369574 0.3112490449135886 0.19507065417529842
45955000.0 0.9222950156956659 -0.38416171325488874 0.033952717944163255 -0.059488559129164446 0.0005447898293971373 -0.001141282730536758 0.31247073214263693 0.19680331028274006
46954000.0 0.9196696523865073 -0.3931020725362317 0.04003694910159384 -0.06379717755956281 0.000544228154082391 0.00114663241642868 0.332539040270858 0.1791892060023054
47953000.0 0.9161073024206485 -0.4010172551992774 0.040794390870180344 -0.07202032629182506 0.0030962399375228395 0.00025039983823589655 0.3338978844135634 0.17881307853774758
48952000.0 0.9119592228660284 -0.4096013860262068 0.039120298095699814 -0.07918383504676688 0.00035213991783196376 0.0028512686043993293 0.33439028422741107 0.1588331608679725
49951000.0 0.9079862213385558 -0.4169629491349697 0.03840557735995558 -0.08868002521971037 2.5269062243720004e-06 0.0008685798457844986 0.3559420812923315 0.15693885553069162
50950000.0 0.9048494071869374 -0.42309266898688747 0.03780607515741946 -0.09704738429371268 -0.0054431370712196255 -0.0012921477737529226 0.35516024432242665 0.13535396039212952
51949000.0 0.8998036449577788 -0.43387758655258446 0.0410791665302973 -0.10533687294611561 -0.0007901332978305827 -0.002914537464741939 0.3618579421312131 0.13498712933670245
52948000.0 0.8991980175196098 -0.4391883313725485 0.0441214716276773 -0.11579946196268819 0.0012627368650809344 -0.0017871440073943606 0.37308333456929765 0.1332032248808322
53947000.0 0.8937001076474084 -0.44724566858160936 0.044741357568368764 -0.12451471620796223 -0.003499957190118139 -0.0006875257640476768 0.3717898094530985 0.12799912200803867
54946000.0 0.8874641445280778 -0.45972074642553057 0.04532149062343663 -0.13411045296944513 -0.0008989406464395173 0.0012248536579232243 0.38735822677356607 0.11984940207960375
55945000.0 0.8853451103137262 -0.4651244887904484 0.047049677313145195 -0.14345987299220264 0.00044042607509866313 0.0012844887897670366 0.38708698596063823 0.10187371829436029
56944000.0 0.8804739559826679 -0.47191882106590227 0.047229625247841425 -0.15492865843448222 0.0005316837450387499 0.0036986798586065234 0.39879229573513186 0.09948408454654002
57943000.0 0.8775161198224438 -0.48327447045934707 0.0509309247693701 -0.1655939629924556 0.0021033038436322057 -0.000573152413630956 0.40301610186506875 0.09214713100213466
58942000.0 0.8729015865635708 -0.4872373639046998 0.0506233158639868 -0.17767211313029693 0.001384359732273916 -0.0012013737789124965 0.42132631490564076 0.0800081099816937
59941000.0 0.867127945395688 -0.4985315998317986 0.048542033731228465 -0.18877690866066293 0.0029508368541352726 -0.0019699881479026842 0.42632147103793044 0.0901011706211137
60940000.0 0.8600204523445035 -0.5047344239827073 0.051464203202819636 -0.192885190170575 0.0005461465063166051 0.00261677926793877 0.41966588375204633 0.06634512452338874
61939000.0 0.8577106238584197 -0.5103963316506109 0.05750706891015459 -0.19811134626397028 -0.0009703219265355976 0.00280970653277175 0.4187216736313479 0.06358788416202442
62938000.0 0.8525307504724532 -0.5207026703416028 0.055897765521305966 -0.2148702879946064 -0.0004398184560563814 -0.0015674108860832187 0.44307709572995313 0.05251432219233135
63937000.0 0.8472972362063719 -0.5310050865453585 0.05791345198436405 -0.23915989425592402 -0.0013712009147989184 0.0020399493760764283 0.4338832299532547 0.038811910859182105
64936000.0 0.8415854693765167 -0.5349064326957642 0.055214950210751665 -0.24984017100183112 -0.006300069658135477 0.0003149973307343182 0.437897188446679 0.033015409598907926
65935000.0 0.8382805820914874 -0.5450629483769347 0.05848047647521622 -0.2691823689032989 -0.0007967224961442727 -0.000542942327308011 0.43947901702387127 0.00789126299979212
66934000.0 0.8344563511438985 -0.551010251276336 0.05654357921560622 -0.28057877596092057 0.0010058496185743559 0.0010056089511707935 0.434181269410229 0.0070427479240833726
67933000.0 0.8316176102603317 -0.5598518825286694 0.059335986548373486 -0.2935095738877545 -0.0011242405876211396 -0.0004498768024095871 0.44960035650367713 0.0036482335254766603
68932000.0 0.8216820253440534 -0.5496064873748256 0.05583660213091342 -0.302683819753161 -0.0036396398494542115 0.0036070929209912135 0.4537155383890129 -0.015335574167867485
69931000.0 0.8193182918457393 -0.5751338260578837 0.05732847561804157 -0.3269571387856849 -0.003787991779740685 -0.0010780586958593678 0.454085252307393 -0.027688692799250725
70930000.0 0.8116386398458441 -0.5807540742837612 0.053594345518704595 -0.34030928578782815 -0.0023844466193540677 -0.0009593089708404471 0.4422425013733898 -0.03492089572301031
71929000.0 0.8080125526543006 -0.5913944549909824 0.04792398456852888 -0.35801507129677573 -0.004050041171880432 0.002656310534062872 0.45556895247764695 -0.04138957158306254
72928000.0 0.802734620755503 -0.5985915476470737 0.045612148215090305 -0.3722213050276067 -0.0034991647607869937 -0.0015896610458102395 0.47088494682855386 -0.05540185706842338
73927000.0 0.7975509351723283 -0.6042298135599934 0.04175510144507175 -0.39456967129971066 -0.0024776555252197883 -0.0016069366891224607 0.466180555934334 -0.058988365183358725
74926000.0 0.791765780549609 -0.6153074504308138 0.031642218102928374 -0.4119115148347945 -0.004232964273642391 -0.0031955284278139574 0.46065400896548486 -0.061212845256833306
75925000.0 0.7844258383884727 -0.6194386215312554 0.02033599418672835 -0.43154108552309794 0.0029127713013457714 0.0005084961830933048 0.4776276939802716 -0.07874588130872628
76924000.0 0.7794952576267699 -0.627788396767076 0.012277165406600312 -0.45614274795110904 -0.0005571168462322006 -0.00010742491237183572 0.4709000937634871 -0.08113970713860773
77923000.0 0.7724129614255233 -0.6355785642348655 -0.0038634506028486838 -0.48084050977733706 0.004782839072621394 0.002709166642254796 0.46150246918830706 -0.09890778265685538
78922000.0 0.7693570083937414 -0.6453659877352016 -0.021741898495912425 -0.5052427708524718 0.002274144109794891 -9.124589232509569e-05 0.4702188820227824 -0.1083322606024846
79921000.0 0.7582795817776697 -0.6498259395169466 -0.03776593001180515 -0.5352673275200284 -0.0007564307191763685 -0.0003966873809781726 0.46079125939208004 -0.12125132758391066
80920000.0 0.7548686104256639 -0.6604289343654071 -0.05237036698814699 -0.5637014058539919 -0.00022385790896707015 0.002186877478491772 0.4605459943828292 -0.13366535355854556
81919000.0 0.7491891959546081 -0.6644386965739487 -0.07239355726931687 -0.5879932044597914 0.0007179915726857343 -0.0015597899786898447 0.47040484389553694 -0.14091148932793054
82918000.0 0.7407457777347565 -0.6732803753861617 -0.08758298954501867 -0.6188623858487097 0.000258645780663942 -0.0006942835682419252 0.4679263005959673 -0.15596991804695054
83917000.0 0.733427543945712 -0.6795169034231309 -0.10812790299030947 -0.6500157798630108 0.0017294942016750883 0.0009903768287819784 0.47094379398026104 -0.15940321328153156
84916000.0 0.7264840617704532 -0.688485203264024 -0.12667863862641696 -0.6853311932939852 0.0010816076228484497 8.85808746634153e-05 0.46743234702522274 -0.17506326081588833
85915000.0 0.7206482891339456 -0.6923542151914126 -0.14370852425933184 -0.7181512342704739 -0.0012334502935177176 0.0009473287855444153 0.4716152835984845 -0.17420219710532095
86914000.0 0.7128626882327662 -0.7042234390075027 -0.1616133579885312 -0.75508097346488 0.002034309192706778 -0.004195756546377387 0.4641889644295517 -0.17851226944336462
87913000.0 0.7058732094610757 -0.7097515259230658 -0.18376206800992734 -0.7842445535021043 -0.0005508363412643649 0.000771605237038013 0.4562265428624513 -0.19929969343623158
88912000.0 0.6999739471276565 -0.7166942500672994 -0.20091093774646604 -0.8229810769384892 0.003992268581224866 -0.007276853963723938 0.4644194009243718 -0.20601116190645502
89911000.0 0.692502077119291 -0.7243750256120565 -0.2146299053519764 -0.8578018513343286 0.0008826072454005164 0.0032772657045724127 0.46580556801234607 -0.21355400544287528
90910000.0 0.6844153437301772 -0.7305762148932193 -0.22874497589326395 -0.8927371135180783 0.002242533514454758 -0.0036682241340664002 0.46644709401839735 -0.20786922668300956
91909000.0 0.6754677689003239 -0.7367758918190922 -0.25388086328381937 -0.924605620661189 -0.003104685802630011 0.0014314971999091187 0.4681921210385486 -0.21936265248766715
92908000.0 0.6682902021493211 -0.7440585165806649 -0.2707367704981047 -0.9559861544134708 0.002406932337408276 0.0013259743720141547 0.45902079779883087 -0.2189003937162398
93907000.0 0.6629094192618921 -0.7487549227129404 -0.2905494213826566 -0.9926910866000578 0.0016199044760814394 0.0019446323742474609 0.46201858097067816 -0.263247373942915
94906000.0 0.650844163412163 -0.7573827434166437 -0.30474025660966847 -1.0258719696782213 -0.0031003822286018684 0.0006351607977470821 0.45229235354191655 -0.2555576804803838
95905000.0 0.6424760734200297 -0.763284793436094 -0.32810786519736806 -1.0630388385000924 -0.001479563468219247 -0.001969251552852259 0.45573990468567693 -0.2735302157826263
96904000.0 0.635198322356819 -0.7722087977354848 -0.3514898678591513 -1.107402507635483 -0.00010813391109677154 -0.0005940664797275769 0.45334428901411583 -0.27237898971155206
97903000.0 0.6258013093843864 -0.777468915804219 -0.3677714093286664 -1.1378319717886323 0.003722793881229572 0.004055411198778697 0.4510252814491584 -0.2813216311869876
98902000.0 0.6209814213243133 -0.7859694035839027 -0.3927240157327231 -1.1764410870994622 0.00012098870112437143 0.005268503112337434 0.44671242911809494 -0.2992995828537203
99901000.0 0.610876544927426 -0.789979150734075 -0.42191870205902426 -1.2040950031608086 -0.0016710438903163847 0.0021216795162173484 0.45454848846870416 -0.31028698224678447
100900000.0 0.6018171897822683 -0.7948726859708877 -0.45231921236385486 -1.2328684883845242 -0.001168015587103572 0.0002644222482679891 0.4609073597636158 -0.322420306698776
101899000.0 0.5941210611321316 -0.8017571621589855 -0.47701541766221245 -1.2749589527857534 0.000979945096072295 0.0010237734904947778 0.4346406018334689 -0.3269489228042202
102898000.0 0.5851899900636444 -0.8076015165378975 -0.5150350512060762 -1.314718633504962 -0.0007429136646054317 8.665032754426402e-05 0.45038327283489965 -0.33576500977249607
103897000.0 0.5764409242765062 -0.8166831061098592 -0.5553935098883203 -1.3488609253822028 0.000297414090264154 0.00031006674602308723 0.4469458649596088 -0.3428872264994821
104896000.0 0.5681640334877784 -0.8240495163131271 -0.600874940389872 -1.3800156324594544 -0.0007514523607961138 -0.0026521927326561222 0.4289137274662169 -0.33854261393366103
105895000.0 0.5572161928124196 -0.8288460358339373 -0.649247496200606 -1.4303644368751778 -0.001631708257588889 -3.770183751797702e-05 0.42613548437596094 -0.36065667907812987
106894000.0 0.5496331724690344 -0.8344014617158965 -0.7001090457094858 -1.4638075886935253 0.0008920885938723752 -0.0011704480973421284 0.42819967945548343 -0.3729750660355478
107893000.0 0.5391109837066325 -0.8413360222906583 -0.7577419101157487 -1.4997244942132328 0.0006177319106236227 -0.0013240125029871466 0.4235015585135356 -0.3868056650911494
108892000.0 0.5305325881512097 -0.8446885621947173 -0.8174249516689436 -1.5359124748790294 -0.0015717557358825027 -0.0014081042960024134 0.42700306314631153 -0.38519041692215955
109891000.0 0.5194968639887245 -0.8510749839907649 -0.8680932943994398 -1.5695251422703391 0.0004256810380362659 -0.0031206625340753154 0.4323691161690871 -0.38525820072279116
110890000.0 0.5159004359098843 -0.8603505092257407 -0.9327218621956646 -1.5964979178759526 -0.0021154055518138636 -0.001400853483221954 0.420480445970859 -0.39143710123357955
111889000.0 0.49875678504143894 -0.8596390589195724 -1.0008980080016805 -1.641526350710907 -0.0016174685506553615 -8.479351558347091e-05 0.40698281458018365 -0.41345418229157127
