! Created with skrf 1.9.0 (http://scikit-rf.org).
# Hz S RI R 50.0 
!freq ReS11 ImS11 ReS21 ImS21 ReS12 ImS12 ReS22 ImS22
1000000.0 0.9927929967177063 0.012157909846533593 -0.015786237802109755 -0.06582007858203484 -0.0080915392597846 -0.008626617339847901 0.2898546120134546 0.34161780039618794
1999000.0 0.9951981532284082 -0.00921825094992973 0.005263114044781385 -0.022202097042108994 -0.006104135018808163 3.824701849010812e-06 0.24312058532863753 -0.047945289120732947
2998000.0 0.9978079150758846 -0.018256322072267742 0.00972978833570259 -0.017938463493633615 -0.002731833816636039 0.0024808408612371274 0.20347308872977848 -0.15024303701590863
3997000.0 1.0004498612127442 -0.02466927781290956 0.010104935969720138 -0.008366343008265687 -0.0015495817688609395 0.0009275515291469266 0.06726330436858514 -0.2245999112884488
4996000.0 0.9976084174714963 -0.03671679529897119 0.008848700466786055 0.004426049477502515 -0.007304492665690925 0.0009531268472183956 -0.05649177161994149 -0.19006700243727306
5995000.0 0.9976539192356771 -0.04831150997622638 0.010602828359225432 0.003934552974825085 0.005220469034888402 -0.00120243613895764 -0.11386034963434488 -0.09320578564759133
6994000.0 0.9973281603899078 -0.05441720270808082 0.005234854564058973 0.0030081145224959333 -0.0012819644742576666 -0.0017960495446788945 -0.12750172375400562 -0.008197387387261806
7993000.0 0.9985777107531183 -0.06626935594187998 0.002887226049874841 0.00726349123132424 -0.0012665669512173796 -0.0041453539372753095 -0.14394078798554147 0.042612362454355894
8992000.0 0.9973038119180544 -0.06790651405217424 0.0038423500982151582 0.009844531606188584 -0.001689021013060909 0.001360586122756917 -0.16143065934119719 0.06296772224208479
9991000.0 0.9937334495129972 -0.08247414524715814 -0.003624782838342263 0.004889093236312784 0.004188711106839711 -0.004259520209182912 -0.13232105260106655 0.08951537632047235
10990000.0 0.993334853116533 -0.09140017293723118 0.003607109845876706 0.0008781736080521441 -0.0016434246967110765 0.0011004314193715599 -0.1404137615570577 0.10585434500953533
11989000.0 0.9911791865145194 -0.10160861887859449 -0.002067274962708578 -0.005495299186828525 -0.003680092187842881 -0.00017724553923243415 -0.10913948310120107 0.13326257704773176
12988000.0 0.9929403457719583 -0.10807040055567405 0.002674789226326637 -0.006611333133924424 -0.0030760055962635547 -0.001068019017038223 -0.10556977709936034 0.16096249549876945
13987000.0 0.9900496872373589 -0.11753106744264634 0.0012772574339140193 -0.006923286949362375 -0.004336865190944447 0.000519918294571739 -0.09167370572452233 0.18354000280531133
14986000.0 0.98953308359973 -0.1255114951970918 0.0017663633361121723 -0.0016834869476294364 0.0004146670882928445 -0.0013598598612782622 -0.09789125561728616 0.20876298465942456
15985000.0 0.9903874362305636 -0.13110917474246897 -0.004531713452350304 -0.003052089008988318 -0.004873056925067387 -0.0015506052281457005 -0.060128841857179316 0.2165561488998969
16984000.0 0.9886827491043532 -0.1437494206299933 0.001730758181648489 -0.006629592442847208 -0.005283431610992395 -0.003693780691982987 -0.055891616043315245 0.2248472448633219
17983000.0 0.9882403498181415 -0.15064497134759391 -0.0037966028962535016 -0.003947176345320731 -0.005317713015632553 0.0027197658773269683 -0.048889564103848024 0.22988643986841792
18982000.0 0.985211029118285 -0.15852756257726863 -0.001978087974468434 -0.004389054502995306 -0.002720924868226358 -0.0049165609311761175 -0.012194374870967792 0.2314111066522009
19981000.0 0.9855875085335056 -0.16172796976316958 -0.0020107444936200824 -0.004073977332580107 0.0004176276485064363 0.0006404736168867415 -0.013732129876918 0.23755954666098572
20980000.0 0.9839768275566787 -0.17471306013144589 -0.0055376612371647585 -0.005300881545073694 0.00011807377060044388 -0.0005543080737109949 -0.0029973884518356333 0.2604932019138872
21979000.0 0.9818739177201903 -0.18466011695492016 -0.005692039134202895 -0.005586793814309131 -0.00013728435763796543 -0.0028474183819754925 0.010883939079784933 0.24320696761301377
22978000.0 0.9786444766360795 -0.19440824589428857 -0.006057648411729569 -0.00798317583696302 -0.002200864853339411 0.002974412423426733 0.029093306625604356 0.2547657483078103
23977000.0 0.9795285186703034 -0.19928426620423648 -0.009376178082043496 -0.0014500616658636133 0.000488597500290422 0.001388437649882036 0.04657598212441972 0.26710889186229975
24976000.0 0.976323803271842 -0.20801803041276382 -0.0033439956983296742 -0.003817764114236582 -0.0004766763560370722 0.0003495198147175899 0.07149389423459464 0.2534765085763621
25975000.0 0.976585474644375 -0.22163318306521956 -0.004238093704026585 -0.000815917414518908 0.01569222124379123 0.021156962838174746 0.08581404545552722 0.2625116087906337
26974000.0 0.9727867935924466 -0.22606350730740835 -0.008106334133203443 -0.008250995125399166 -0.0022693796517944684 -0.0018828688880857365 0.09515719437549804 0.2620014837430958
27973000.0 0.9697782100568678 -0.23203625330516225 -0.00293620059837391 -0.004230967242760064 0.001993627233737187 -0.0014552086859971013 0.1131203041592719 0.2514996486914322
28972000.0 0.9679471354418141 -0.24223676072385586 -0.001807408734058668 -0.0029889692569259464 -0.002016377179487712 0.0012144213765168902 0.12587173729426795 0.2476893270218214
29971000.0 0.96724367686065 -0.2532694733936375 0.0018194625848331775 -0.001048208089117887 -0.0032187260002199567 -0.0007742681876772666 0.1533638199129976 0.2595671853522583
30970000.0 0.9639525833420666 -0.2555443200506639 0.0015641191324618857 -0.0011156970897007296 -0.002331668315369963 0.0018694741776499075 0.17300199661510623 0.2478162522377957
31969000.0 0.9608896031187407 -0.265621757541262 0.00318465700211153 -0.004897066517028536 0.0013289876627627989 -0.0008158892615301867 0.15811771308583172 0.24532514672879865
32968000.0 0.962293312442072 -0.27332263745117213 0.007635115731196872 -0.007585183664284606 -0.00034027655238485545 -0.0005431486212640852 0.17887259230758049 0.24612319533551913
33967000.0 0.9591859734442946 -0.28264599370541416 0.010866818850912514 -0.009481861550953612 -0.0010975788245423232 -8.232021318328736e-05 0.19016104932646832 0.24551231192153372
34966000.0 0.954715222843355 -0.2935056401351821 0.01678943830985563 -0.012869675582529348 -0.0021068621685303855 0.0018093107010172245 0.2007451511322604 0.24572218739439447
35965000.0 0.9506239772718941 -0.30069132268119325 0.01589398594349574 -0.016027397127043427 0.005283444285941879 -0.0011437606394032443 0.2156030422574535 0.25186442214479343
36964000.0 0.9508613018017347 -0.30935995014531276 0.015326412481605187 -0.01483362095186798 -0.0026135577611553873 -0.002245067661431263 0.21965112330493067 0.24774851125865952
37963000.0 0.9459627555730766 -0.3193997782679126 0.025706543216478535 -0.023249208739209198 -0.0003467616192579697 0.00018676511821694896 0.22981481935738202 0.23791537484940706
38962000.0 0.9456156472022514 -0.32577859343773224 0.02447679300292368 -0.02386123838659734 0.0016258832423368546 0.0055853910279216965 0.255400181926663 0.23147420024017246
39961000.0 0.9406115622987222 -0.3357162917449151 0.02894275410587013 -0.02640868993451091 0.0011684929059191031 0.0024595952576423486 0.2596157436320152 0.2269190957663012
40960000.0 0.9378934637420651 -0.3425686685029905 0.023019170223834592 -0.021678772116199913 -0.002886838871742049 0.0010655819147766608 0.2778309278963755 0.23220757800993272
41959000.0 0.936168783597091 -0.3516472502997047 0.029842313490484565 -0.03131864572512105 -0.0021271235793300734 0.0014990427345002602 0.2793790353738706 0.213065711726607
42958000.0 0.9304594181501953 -0.360124080950719 0.03597708840021834 -0.040309474354460084 0.0002663794005289838 -0.0008274968004136447 0.2868433821840648 0.19230153460179805
43957000.0 0.9299973102258858 -0.3640586805140311 0.03655043191407071 -0.044926136186799796 0.0011537061899027394 0.0004940078496179027 0.2898137123411721 0.20464013865571043
44956000.0 0.9251989888429708 -0.37307347148912173 0.03717938251581866 -0.05191344538356551 0.0027653271709792756 -0.0002906004973838768 0.309138394250261 0.1913896665663279
45955000.0 0.9221561946753472 -0.3835306659315305 0.03900209734830345 -0.05939059177212719 0.0016019183339199938 -0.001209912025748563 0.31663258436365904 0.19786018827492902
46954000.0 0.9165741608325885 -0.3938014994728136 0.039517271241793106 -0.06701225972523649 0.0016018703381849423 0.0018072439152597138 0.32880420078851036 0.1735479792703705
47953000.0 0.9154783251436456 -0.4008838476094858 0.04142123018879766 -0.07502202630492354 -0.0020516981031921096 0.0011940381944719777 0.3476035201141371 0.1612596048062277
48952000.0 0.909283997868718 -0.41147361817360906 0.03982615664714004 -0.08013443253538059 0.0018687335167524013 0.0003091789240798965 0.3407759063728066 0.16129458948083836
49951000.0 0.9077134062810616 -0.41579850680303376 0.04192245448210844 -0.08846977577814667 -0.0007597094076310765 0.0001779434756343679 0.36856833141700723 0.1487902840123747
50950000.0 0.9032024782730033 -0.42577870940960044 0.04240714058565854 -0.09814060336373621 -0.003502654698420669 -0.0023774490660015443 0.3513701620204978 0.14258874747570052
51949000.0 0.8997161767824918 -0.4342077824312867 0.04339518710657478 -0.10572024365477677 0.0016422090688687392 -0.002189961861933963 0.3697549057165318 0.13443574731654767
52948000.0 0.8960448652676802 -0.4421816505797416 0.045620781760588265 -0.11457161226286719 -0.00034636281351076696 0.004073411165136402 0.3846683587515325 0.13146863020280672
53947000.0 0.8925263643503869 -0.44845290288889916 0.04679748420766118 -0.1278210007893605 0.0033226043475614274 0.0013575590604338 0.37940756351514854 0.12624608805225826
54946000.0 0.8867814296981708 -0.45762841746931343 0.04619404950435155 -0.1328578770797935 0.001062015686326284 -0.0007887044121931309 0.39662631081981264 0.11805460395120297
55945000.0 0.8837761183572286 -0.4659382112495496 0.047319109237410346 -0.1477069060187032 -0.0016797744913247042 0.00023555701055971782 0.3988356184787447 0.10641339033146728
56944000.0 0.8795956630836747 -0.47494300055521466 0.049592327307995863 -0.1583306176839357 0.000676901875121658 -0.0012253669440036251 0.40812532628395326 0.09753623271060201
57943000.0 0.8733727921092299 -0.4846056640819707 0.050753303205013325 -0.16792335799328212 0.0005394505578261038 -0.0025036869088346696 0.4166820575778834 0.08495911688519056
58942000.0 0.8680078150034307 -0.49025195275181715 0.05181545744408077 -0.18028533516698095 -0.001207820695808322 -0.00017541732747394442 0.42817049956258124 0.08269575325819097
59941000.0 0.8666456483812917 -0.4971284014887607 0.056472862849449815 -0.18833735217103703 0.0011598673860840228 0.004158248699103821 0.42746684521518463 0.0838045857249911
60940000.0 0.8589963096240472 -0.506029349342771 0.05497666706251226 -0.195480933155609 0.0004006863801210548 0.00029016099524830274 0.41604438496633106 0.07906885913807883
61939000.0 0.8557426734076647 -0.5123819580060397 0.05482020385078411 -0.20185408496614202 -0.00031982962580490507 0.0023842273615705145 0.42347195145147176 0.05782471983401513
62938000.0 0.8504035326576572 -0.5230120668793187 0.062287143932545794 -0.22227912449759268 0.0018575423809306384 -0.00258199352376154 0.4494700149169734 0.052393922407333676
63937000.0 0.844227226029854 -0.5301340351599185 0.0594323527540869 -0.24121935605254355 0.0025377780233993463 0.003480163346992682 0.4409397072220799 0.03842176882792464
64936000.0 0.8398245559453005 -0.5350290454510661 0.059093715644457374 -0.25717067862138177 -0.0023509273164977265 0.0025535331063146214 0.44468972905814147 0.03896374138871529
65935000.0 0.8360970709314776 -0.5462544923392427 0.05656811632262308 -0.2703239403670163 0.0017198289945337334 -0.0011579057189430783 0.44700370609767354 0.014249471240531084
66934000.0 0.8327673135292112 -0.5494620523433263 0.05688630960488713 -0.2859209587816656 0.00059125442102611 0.004735490082189707 0.4566191859819444 0.002567763646933389
67933000.0 0.8284450971485875 -0.5601940718853309 0.05751636434717162 -0.30244885169610647 0.0010276064403625079 -0.00047455895788563055 0.44790350773279813 0.005147428862571335
68932000.0 0.8140957399756088 -0.5520382057607661 0.058498664118542196 -0.3098197735796668 -0.0009242708276865863 3.2533625663190746e-05 0.4576225876220132 -0.007940480487533732
69931000.0 0.8154026992679223 -0.577456231871807 0.05425559558694372 -0.3332212697193804 -0.002731459998967229 0.001950593697657701 0.4526063050776435 -0.021486100084779115
70930000.0 0.8096074771304413 -0.5818057339357201 0.05289340349426975 -0.35079259590288153 -0.0003494692653295575 0.002344455359479045 0.4545442914077189 -0.043614926030714526
71929000.0 0.8055031828289887 -0.5913511412539667 0.050635634383087096 -0.36896435903266095 0.0004875229395428709 0.0008293323472031451 0.4495347183369705 -0.04856335469209886
72928000.0 0.7983237028263882 -0.6014180465454663 0.04286478616872196 -0.3813635735467531 -0.0012291703406136698 0.004504019474497826 0.47477050389479464 -0.050813941153218925
73927000.0 0.7928068348538891 -0.6085221045762907 0.03561669563601527 -0.40642129470595095 -0.0028842145779496477 -0.0026586632921155573 0.4692347990859227 -0.057278478701461785
74926000.0 0.7893107457948139 -0.61723407684835 0.02862760403640178 -0.4256552415343618 -0.0005268656834870896 -0.0020075871272970153 0.4682318708666486 -0.06097578879332472
75925000.0 0.7814958128292327 -0.6227490580919224 0.018535511268365636 -0.4451895203385001 -0.0005871059501014567 -0.003446986817369116 0.4763624615117011 -0.07631146807337058
76924000.0 0.7753089142735659 -0.6301638197460597 0.006578354150863017 -0.46892223598903454 -0.003436200277971721 -0.001998482494536058 0.476306846656218 -0.0837482952925612
77923000.0 0.7704441692658907 -0.6353156660945735 -0.006760113119815835 -0.49535997296654616 0.0007860952342255145 8.827668465078141e-05 0.4680897350607514 -0.10189883102251736
78922000.0 0.7632224368472552 -0.6475423153624307 -0.019125579516215317 -0.5254007631752822 -0.00030639437023836946 -0.0044446556609580275 0.4641579109358082 -0.10483508252825634
79921000.0 0.7566583520098022 -0.6495105745858262 -0.03624172899795512 -0.5500854722986228 0.000960498423411832 0.002265267669354636 0.4717091559785607 -0.1139233197286397
80920000.0 0.7499254423147468 -0.6600457333382523 -0.05041901415211039 -0.5810820253294101 0.00470713628924694 -0.0006432702426504316 0.47381681462774555 -0.12734086503953315
81919000.0 0.7456696083007456 -0.6657284193142221 -0.06851004649707575 -0.6072758847994613 -0.0009826676466215844 -0.0016384949143293662 0.47850826394000695 -0.14210572531084237
82918000.0 0.7357634173786317 -0.6734797501130361 -0.08836861838462667 -0.6406147425331329 -0.0006476009144536993 -0.005244889867346952 0.4772467709349199 -0.1557738934038439
83917000.0 0.7289061338592775 -0.6823312644217038 -0.10392609249986152 -0.6712696929757146 0.0015122460014159033 -0.0011018143582753 0.4774729933777114 -0.14748281579535963
84916000.0 0.7228934116503067 -0.690984436089251 -0.12544510922193236 -0.7069392188217438 -0.0013696634158526116 -0.0009397120559958544 0.47560106257135787 -0.16948439441433943
85915000.0 0.7165792314745246 -0.6950170976079507 -0.1419349396234292 -0.7375047361380763 0.0008208847969269563 -0.0020734148824765367 0.4758702293262646 -0.1760929326377647
86914000.0 0.7103751736225574 -0.7069430307165644 -0.16083701915765378 -0.7767400197739784 -0.0029798824726266285 -0.0010661645106345495 0.4734475614387315 -0.1804855204212199
87913000.0 0.7041029914143768 -0.7086529809457701 -0.17523639589807521 -0.8048739519431928 0.0014473071405694414 0.0015762942151948372 0.46592395324812724 -0.18808974232965742
88912000.0 0.6953222692151112 -0.7177464979458613 -0.1986761341028661 -0.8398413525493609 0.0013455991432449817 -0.0015120460477771075 0.47386426300519713 -0.20406913377221303
89911000.0 0.6902540644797405 -0.727686877687923 -0.21242571403811394 -0.879743100493205 0.0019450358417129406 -0.0027718418031792568 0.47514377772441896 -0.21675019463836223
90910000.0 0.6814384230595697 -0.7328755850941461 -0.23041470062577268 -0.9158437379430704 -0.000245801356564328 -6.567494710386981e-05 0.47931071646701573 -0.21579550837743616
91909000.0 0.6729273082240912 -0.7361668593466286 -0.2496454264704292 -0.949649621040517 0.0013194033128907012 -0.0019170031300790936 0.4695126313646123 -0.22807754649039372
92908000.0 0.6643718883088846 -0.7443614697913151 -0.2735694209813484 -0.9855749069258661 -0.001366837601716757 -0.0002638082588210304 0.4595846966140559 -0.24183476360351133
93907000.0 0.6569409378304379 -0.750063385323177 -0.29558601151979613 -1.0166984146436044 0.0016269533612886336 -0.0021019157834441457 0.4614221971487968 -0.2580319216770997
94906000.0 0.6445865353316405 -0.7583335592799199 -0.31279322861431236 -1.054055480671219 -0.0032708105462404434 0.0007357488578878619 0.455479789655661 -0.25663711367461023
95905000.0 0.6404978796631438 -0.7635592555650262 -0.33644220841935035 -1.0864551598178873 0.0008188780987266991 0.0018552850666271605 0.4669152232330057 -0.27007402548611076
96904000.0 0.6310684863343521 -0.7738842712290189 -0.35988643826784683 -1.1286653182298476 0.004563727088751104 0.0073177042556391535 0.45752651440170544 -0.27697396705724175
97903000.0 0.6234233969983256 -0.7769814430519356 -0.37799168355288054 -1.1647119819036202 0.0050858514203479775 7.896321434982013e-05 0.437222543727483 -0.30004917548373505
98902000.0 0.6161473964297993 -0.7852348633745063 -0.4011965304304986 -1.2048517997743664 0.0013706625822658166 0.004300889535023703 0.4482934699266427 -0.3001412377483812
99901000.0 0.6089631163100196 -0.7920895504417347 -0.43724694314717794 -1.2404571615970656 -0.0010635035019936644 0.00021738517366925439 0.46188904244133805 -0.3255874525786027
100900000.0 0.5984606955104871 -0.795151058389602 -0.46935154113124017 -1.2671828862629615 0.001698373147231154 0.003384670790322767 0.4606498100318961 -0.32318041467511305
101899000.0 0.5887551569707745 -0.8039971238843574 -0.49782118923808183 -1.306241413976215 0.0011789635402732696 -0.0007745384168363235 0.44499052500518466 -0.3263928838311431
102898000.0 0.5813416090518592 -0.8082340776718062 -0.5347308628801946 -1.3478920072781808 0.0005053665234116658 0.001084997375441437 0.4495294030223373 -0.3425099772552342
103897000.0 0.572245884405435 -0.8147204697502337 -0.5745265314009522 -1.385366809412002 -0.0001503243249856888 0.0002607569695628422 0.457379550806 -0.3417708172291802
104896000.0 0.5644526881459915 -0.8252979248015617 -0.6230659262485785 -1.4205548145875966 -0.001282727035725314 -0.0020067644337887166 0.4388895298063112 -0.34873873460141347
105895000.0 0.5526836297042836 -0.8278686558306808 -0.6729861353149619 -1.4679107756314183 -0.0005728209859949524 0.00018080937877159635 0.43667882207432773 -0.36362901287132954
106894000.0 0.5469092317215412 -0.8348120318124035 -0.7299624470624749 -1.5068568266851243 0.0024195795790944575 -0.0011388222567324045 0.4348609124058149 -0.3798990660775336
107893000.0 0.5364259968441136 -0.8419823531255266 -0.7818275775969178 -1.5474091177619884 -1.7775388874508026e-05 -0.0038600983152990236 0.43445437359257216 -0.38073663692805526
108892000.0 0.5287463120140181 -0.8441859713455173 -0.8450375318832642 -1.585380335252283 -0.0019339355222689743 -0.006001541614735853 0.43028090951107617 -0.377990497255316
109891000.0 0.5148211857997513 -0.8523559611463616 -0.8988150577964399 -1.6193277853104302 0.0006642928719956979 -0.00262601196355152 0.4491908995104631 -0.37908021964352223
110890000.0 0.5127311396956447 -0.8611753331502275 -0.9710326387308947 -1.644307060320339 0.0013734610008117256 -0.0011141552255180842 0.42273020806353134 -0.38605649127499914
111889000.0 0.4965131321358828 -0.8597602844919131 -1.0317896697823878 -1.6922078950088701 -0.004530313361478605 -0.0010929853496751095 0.4250352374196932 -0.40232973535594535
