! Created with skrf 1.9.0 (http://scikit-rf.org).
# Hz S RI R 50.0 
!freq ReS11 ImS11 ReS21 ImS21 ReS12 ImS12 ReS22 ImS22
1000000.0 0.9814914204552989 0.005388838090026711 -0.0045339779029679225 -0.04362091885498858 -0.009749083649382411 0.007973144956028614 -0.9573175743355276 -0.1390692972526343
1999000.0 0.9950650575953125 -0.01614694648772472 0.000947557498289462 -0.020686485815491342 -0.00467568989613444 -0.004082560326325418 -0.9659053937608822 0.024086623982720417
2998000.0 0.9967048694737363 -0.026245579924864135 -0.002634771817166431 -0.014252426355900441 -0.0022406044696736825 -0.0023248333472054112 -0.9726266393010273 0.030040128824612034
3997000.0 0.9972219499395438 -0.0322473219908879 0.009447785518830982 -0.004127724368010489 -0.0026466714739682385 -0.004490436990247475 -0.9188452954357829 0.04313276313348044
4996000.0 0.9926010527027634 -0.036448460044506456 0.012160702355629889 -0.005386029283978842 -0.002047749813235736 -0.0047111384229815405 -0.9239163811407664 0.0216391816848596
5995000.0 0.9938581769527508 -0.05140495419864402 0.010109543914795748 -0.0012831411788716935 -0.00387045321414274 -0.0006015000274381821 -0.9006061918633459 0.03810514113098289
6994000.0 0.99153832947358 -0.06139696890720656 0.004350700779098776 0.0002221581406865485 0.0014647123365350762 -0.002428760916126155 -0.8937604100950921 0.061687677694518786
7993000.0 0.9915288597502164 -0.06883418206149934 0.005475378511722316 0.00519031624498638 -8.464999305780889e-05 0.0036119166620451975 -0.898934326005854 0.029170757046244857
8992000.0 0.9902172521199833 -0.07168053028479497 0.0007068592735791584 0.007689883396507658 -0.003761191181418658 -0.0010713722682702408 -0.8969453359620525 0.046420983629936095
9991000.0 0.9901322580663698 -0.08365805439192117 -0.00018892942487497353 0.002937151324402849 -0.0010276866091121373 0.0020345794641526286 -0.9034654162051893 0.06101454887995147
10990000.0 0.9872227385923609 -0.09319021909620777 0.002768437545830574 0.0036279653770309866 -0.0060579735037490385 -0.00039393638144197827 -0.8801003401958677 0.05920310147921293
11989000.0 0.985238655622472 -0.10164096225550032 0.006651703668700617 0.00331848041467699 -0.0036270274411856944 0.0007647817532832186 -0.8898696688609665 0.06071318319865851
12988000.0 0.9849437794416893 -0.10791682233609741 -0.00031516789127588023 -0.0001508624250259651 -0.0008815461765617831 0.002668828612161017 -0.8896820270440896 0.058082220865941725
13987000.0 0.9840364503960294 -0.11844487153094882 0.0013449670828010398 -0.0018858775450918497 -0.0006086654166661198 0.002434796792397809 -0.8914675403721658 0.06524788302474543
14986000.0 0.9817222313179371 -0.12478187992305127 0.002687984068837797 -0.0006265764640482449 -0.0016770777297683368 -0.0020915370147370285 -0.878766768555494 0.07747439674076138
15985000.0 0.9851183192443298 -0.13247763924235229 0.00215790279627183 0.0008929194070391892 -0.002217726880020131 -0.0017064552587560489 -0.8851220446318159 0.08976979930797334
16984000.0 0.9812294478342906 -0.14208634082068985 -0.0003277428821836922 0.00044981429220838063 0.0007382378483130485 0.001893640140519608 -0.8805266578594763 0.08320590128897466
17983000.0 0.9832913356652521 -0.14658253185712372 0.0012596133115494814 0.0005734181330332594 0.005157111540873696 0.0036897088650444123 -0.8694856621712974 0.10058672886390278
18982000.0 0.9794539710980166 -0.15895606000818419 0.0019488727936774943 -0.0012597924040347592 0.0053132164606698945 -0.0021102829021404867 -0.8728590226418736 0.09447415380236639
19981000.0 0.9779070407802009 -0.16619055509417674 0.001267345933660279 -0.0008755272109938989 -0.0033627230491845776 -0.00460475426593893 -0.8856333600857019 0.09041759267039545
20980000.0 0.9783880919747594 -0.17342879242498838 -0.0003393256279567249 -0.0010976353044981626 -0.00025506028943480147 0.00229280606400311 -0.882812957245318 0.10574890022963009
21979000.0 0.9742621898429524 -0.18629499723936468 0.002046417192292933 -0.0024576644717267467 0.0021334580352010387 0.0002085721717418795 -0.8705926685577227 0.13130469858898156
22978000.0 0.9721329541375348 -0.1941885036371356 0.0011679366231123135 0.003158710658875391 -0.0018044970982247805 0.0017319789809632066 -0.8690568020569629 0.11381268484894268
23977000.0 0.9741106714314649 -0.20082664016594132 0.0004113627194591678 0.0006826286597610432 -0.0002540046331099665 -0.001310804697751603 -0.8654622047115078 0.12767495345562524
24976000.0 0.9692697147375856 -0.2100081324651959 0.0034847179621763772 -0.00034119042276317506 -0.0014467060970223536 0.00044477021455392957 -0.8630084349364975 0.13188250591514178
25975000.0 0.9625919028840938 -0.21757420408444386 0.0016025024742965378 -0.0012005874894706649 -0.015708767633860813 -0.019235332779948648 -0.8702356774473846 0.1454473657296392
26974000.0 0.9667976792581832 -0.22711491172309947 -0.0009457497686040469 -0.0010859463736121557 0.0011023948624450108 0.00015646548498261773 -0.8817197761233343 0.1339206171656073
27973000.0 0.9653590180620795 -0.23540130568715598 0.0016532000433825418 0.0037807681741360397 0.001201278212246461 -0.003730321509814127 -0.8723890316069526 0.13504129128486422
28972000.0 0.9621884269527554 -0.2437033637030516 -0.0018245234058198601 -0.0009909624982331563 -0.0033151998578473487 0.0013210856791021994 -0.8652483974796807 0.13783380535574133
29971000.0 0.9616687941429173 -0.25133604130070025 0.0002579120852192743 0.0013107084146517277 0.00012217285964167022 -0.001294250829905091 -0.8599764490166535 0.14215196079093442
30970000.0 0.9587184884334051 -0.2581721872335726 -8.52628181619514e-05 5.359889743457426e-05 0.00038677323567834753 0.0015221058472021259 -0.8743744230144422 0.15885228598657655
31969000.0 0.9560441874915884 -0.26771735435632193 0.0033355771361114083 0.00307164002668783 -0.0012235876006387088 0.0018355099449916383 -0.8541274075077279 0.17027970547345855
32968000.0 0.9559695958421 -0.27615172408205635 0.0027215015127150834 0.0024456269425015566 0.0004794334333375774 -0.0009570609078424125 -0.839307846639827 0.17966770785206956
33967000.0 0.9552079300258498 -0.2854135926208337 0.0014031328287681859 0.001114827989661629 0.0011061179344409588 7.995470975543845e-05 -0.844186391809502 0.17812515711615276
34966000.0 0.9499695183121891 -0.2969861737904772 0.0022641137334887206 2.0986093413644e-05 0.0022987029608882025 0.0035234887000817543 -0.8505464290690272 0.171653514458418
35965000.0 0.9470816139202165 -0.3039886114318722 0.003295555641735959 -0.001287508178118605 -0.002450591522376535 0.0026682864124108296 -0.8608635901650231 0.17091662674587063
36964000.0 0.9444363416511488 -0.312680499157838 0.002584149698520034 -0.00061194722642955 -0.001508749562354093 0.0013523975355997709 -0.8503409187445559 0.17657762494343543
37963000.0 0.9416036972512248 -0.32092405047740435 0.0050023794650602095 -0.0026488150546128994 -0.0002966804795661961 0.0009883039815463518 -0.839478340095367 0.18114868565829395
38962000.0 0.9396983357030461 -0.3298008697592007 0.004586544749660254 -0.003481361962934042 -0.00021700425043222373 0.00041945958352903175 -0.8482915037413685 0.188279710112927
39961000.0 0.9358515218442389 -0.34045438208638495 0.008362423688348141 -0.0006054184753456536 0.0010439870271743827 -0.0007084031546376644 -0.8399052367032499 0.201106022046725
40960000.0 0.9317814387092483 -0.3461006307447635 0.004782633066657166 0.0006791601260869785 0.0009651049000047133 0.0038617205818244917 -0.8364054779629846 0.20579468249328342
41959000.0 0.9302033638916096 -0.35672026674935875 0.007074571287100957 -0.0014633583801402573 0.00041641298106896414 0.0015194962072335879 -0.8442959385559435 0.19643889126885844
42958000.0 0.9242165976051322 -0.3643122281507899 0.011727655391298513 -0.0007990368305321805 -0.00012519433086659513 0.0021364586766236845 -0.8276365464983446 0.20846589761947498
43957000.0 0.9228465682755438 -0.37197033166645427 0.014181145821469624 0.0009166126499975703 5.489357658522787e-05 0.0024438844751038624 -0.8273741667445162 0.21099876501017126
44956000.0 0.9190592849884297 -0.38056121302171103 0.013903270032897132 -0.004649291480563958 0.0006203948780287261 0.0010852203235379083 -0.8270759300545985 0.21423246322002878
45955000.0 0.9140329965278817 -0.39082510111591007 0.015038610144559424 -0.0002454279314877476 -0.0008936384600404816 -0.00028678271892929096 -0.8278375345944489 0.2105609922435412
46954000.0 0.910564887031935 -0.3999519797544692 0.015175062183097362 -0.0011232458275588384 -0.00025362030187472463 0.0014572989694630178 -0.8147125998541765 0.22484707265127674
47953000.0 0.9086786687649521 -0.4063909934183515 0.0210046489726108 -0.0020998078929749683 -0.00014876453312234923 -0.00047011335046974516 -0.8233193688321357 0.23282656119062917
48952000.0 0.9021074644149851 -0.416799349923637 0.020130452511188345 -0.00294158070064223 0.002346058433215434 -0.00037290410504946616 -0.8147207893791756 0.228147108667572
49951000.0 0.8995172022895723 -0.4236672955080916 0.023147109416523166 -0.008178042340383457 -0.0017499298929060784 0.0020970985290905434 -0.8163607808032181 0.22715228157859244
50950000.0 0.8962002245392522 -0.4317957219111764 0.023749176511265187 -0.011373653343001534 -9.548354043360934e-05 -0.0028289964175211083 -0.8165539364458858 0.23270000143688926
51949000.0 0.8911829240615058 -0.4396828339782945 0.026545423128710464 -0.013044769431374543 7.774546513418888e-05 -0.0006631976670302065 -0.8123028827833458 0.2401735561690044
52948000.0 0.8904942648410256 -0.4477877106366829 0.027636843636264966 -0.013480649245293816 0.0007380009407266542 0.003052840638417042 -0.7881667388161839 0.24298728734825067
53947000.0 0.8831546938616033 -0.45675321057570883 0.028208849319826826 -0.012527826773678894 0.00389375030799346 -0.000994346397489747 -0.8154765945408765 0.23240913385023146
54946000.0 0.8781951006642664 -0.46533915904346485 0.026810136192515856 -0.0134226117648076 0.0003002496559401298 0.0012051462954715637 -0.8106704898629788 0.2581385289535793
55945000.0 0.8751269450919549 -0.4753462527242878 0.028449193340160328 -0.018516932035955013 0.00028969165218250485 0.0005398688277172249 -0.8018826720405452 0.24954560135397155
56944000.0 0.8695993043528164 -0.48309775240017183 0.03152058695959934 -0.018885944140877253 0.0006274431673266048 0.003642117472223426 -0.8003946318143086 0.26609115224080143
57943000.0 0.8654894903683628 -0.49154290876780227 0.033146205089974914 -0.02122178209843181 0.0009368766268480841 -0.0017956910685557122 -0.7935258126397979 0.26005147359388
58942000.0 0.8587891811726618 -0.49745231401792567 0.034759848652487636 -0.02508728288568041 0.002032121458087545 0.0010473122965019318 -0.8047849167853839 0.27898326871112306
59941000.0 0.8565742848071579 -0.507469531235232 0.033552431973281165 -0.020150240821844793 0.002333889901129139 0.002028513672176606 -0.8056808331788978 0.254872554372096
60940000.0 0.8483998355565512 -0.5131321329137525 0.03174239894438056 -0.020794790260682802 0.0007115995278487624 0.0015304642958809652 -0.8022296191130269 0.26933066195249245
61939000.0 0.8455114667987563 -0.5206182727726867 0.0342824196496229 -0.0198217569215534 -0.0005395973138088815 -0.00011026169658648242 -0.7941184298194354 0.2644309431403869
62938000.0 0.8395550616544861 -0.5307324529584866 0.03768954230522482 -0.024243075656208896 -0.00010201690587165316 0.0029113192141536756 -0.7837175058155033 0.2897941099182775
63937000.0 0.8334726611560832 -0.539226663768027 0.04521809904769146 -0.03168799366626364 -0.002397641757399401 -0.0008422042419738304 -0.7917027227082977 0.26663700023865483
64936000.0 0.8295410865842786 -0.5424120678023069 0.050932887298485746 -0.03336781157252824 -0.0006023613926014035 -0.0026571135503510755 -0.7831026502853294 0.2788769810796386
65935000.0 0.8253911930460762 -0.5542724366789087 0.05957455277717031 -0.03955485294373055 0.001100281676131651 0.0008589470732198377 -0.7755356482807922 0.2840058959523397
66934000.0 0.8205679421657291 -0.5604778291412611 0.0668738993953256 -0.0385874696729893 0.0023424161515376756 -0.002093114596436474 -0.7732454189482723 0.27680090960925485
67933000.0 0.8168539647574796 -0.5684823473741171 0.0723040774030334 -0.044320289720467226 -0.0013565519940787975 -0.0004798410135345229 -0.772819749303052 0.2866970513489247
68932000.0 0.8074597849372163 -0.5588596794197489 0.07528931350914121 -0.044574593320099366 0.004271653443357174 0.0011053037406065344 -0.7703657712638045 0.2903869851407319
69931000.0 0.8039932393322474 -0.584040183444632 0.0837879492525691 -0.04828066054538715 0.0005709584800732999 -0.0006742057380966044 -0.7624272877728006 0.3010887476864774
70930000.0 0.797562041098675 -0.5901906063667188 0.09009948010735848 -0.04821265870892948 -0.0013623357706146254 0.0009430306856639688 -0.7513670956666265 0.29308777706260364
71929000.0 0.7925094808805058 -0.5987385371591769 0.0980470908357551 -0.05368533681337195 0.0006897625946788803 0.0026747035571213977 -0.7592636525769122 0.2929749290904699
72928000.0 0.7857968077445064 -0.6092767092319737 0.10160728144971028 -0.05864317130049639 0.0023252117199625837 -0.0001871202514231013 -0.7695984396051148 0.3079028217057658
73927000.0 0.7795045595911654 -0.6144146128255605 0.10702347897724727 -0.059075345133961885 -0.002928363997755944 -0.0006343069097588528 -0.7564166084821689 0.3082183182459038
74926000.0 0.7732151189375407 -0.6245208346455742 0.11800759289741782 -0.060487867854614526 -0.0034065055710837786 0.00048633754914070057 -0.7601683114754835 0.2976757191282356
75925000.0 0.7670865107734965 -0.6270571378425914 0.12085144375918752 -0.06793623467252168 -0.0009062895044851224 -0.0008379221406724562 -0.7490135408954588 0.3109596764859502
76924000.0 0.7612514702155441 -0.6363632484200142 0.12181611429816444 -0.06991999364371064 -0.00018608655905668717 -0.004897632107496688 -0.7491556670619944 0.32311264372181114
77923000.0 0.7557147216330053 -0.6445396001272143 0.12357993179366386 -0.07409387525810339 7.77174975481626e-05 0.002014673533759465 -0.751982714965147 0.30908506129971175
78922000.0 0.7494173839231645 -0.6542101643751497 0.1291419799839898 -0.07931759335295531 0.001429230582169492 0.001125525071118567 -0.7371538945761738 0.31251656524443516
79921000.0 0.7393574498683788 -0.6573990468186943 0.13476830886969918 -0.08572130046640312 -0.0004786491213805505 -0.004946186585661991 -0.7401757716376742 0.3149455742911362
80920000.0 0.7359793747980814 -0.6683238884678785 0.13539824178860918 -0.09077474021749293 -0.0011823734961229472 0.0014010061586823947 -0.7291578925862947 0.32584130302819736
81919000.0 0.7284830396181461 -0.6761466951133508 0.13449169578435277 -0.09794763665882453 -0.001498115396394466 0.0024432324387961644 -0.7265064616048669 0.32959668867022346
82918000.0 0.7201021880373072 -0.6807460214866353 0.13667767495519373 -0.10354106436985477 -0.0025490902953103174 -0.0021054956213810466 -0.7197447712304637 0.3413935965427698
83917000.0 0.7130509680239768 -0.6898196343639905 0.13906142932238721 -0.11486332255256551 -0.0012796160673328157 -0.002717093560778447 -0.7232957844202725 0.33230740292816635
84916000.0 0.70649611374531 -0.6967231583410831 0.14124756387458867 -0.12080558584558082 0.0013509454270250454 -6.220917184080175e-05 -0.7258581727821396 0.3344136392708489
85915000.0 0.6998230066605275 -0.7007783058789844 0.1408895067740269 -0.13075957512156205 0.0012927001242020505 0.00023491506338249758 -0.7175699782168057 0.3323909472878783
86914000.0 0.693191698070192 -0.7128066777917867 0.14608651900562647 -0.1418094334302861 -0.005078465167878698 0.00019952981136608686 -0.7092258416137873 0.33292194955607096
87913000.0 0.6868918791143117 -0.7174324653455612 0.1458932301257638 -0.1557604132617493 0.0020559093892414198 -0.0040849243137822 -0.7201671135749842 0.33958007716895866
88912000.0 0.6783669367409423 -0.7246873119978784 0.15364976342894665 -0.16382403860004405 -0.0015108881851717169 -0.0025407953994189525 -0.7078395098399475 0.35759648254637916
89911000.0 0.6715703006720398 -0.7336344056328508 0.15829761310124957 -0.17492861442441915 -0.004417529229619565 -0.002307667429322687 -0.7061037537313417 0.34896339186726855
90910000.0 0.6638851751247414 -0.7395714728317956 0.16125927052725297 -0.1893676791826373 0.001000268475660029 -0.004602220068178157 -0.7121319383290192 0.35175419995183266
91909000.0 0.6540131141741746 -0.7427583194426016 0.16827516991374178 -0.20432178164723735 0.0017369556683678434 -0.0008724211363354391 -0.707827124395552 0.3690099508765635
92908000.0 0.6476646227429361 -0.7520580831300534 0.16876058996709412 -0.21268682543815057 0.0006479863986507786 0.0014515798961216686 -0.700274023651833 0.36005192594884416
93907000.0 0.6415103119505059 -0.757617753360601 0.18353664246686213 -0.23279358890654875 -0.0035707608676265423 -0.002882024978383592 -0.6808360651707842 0.36513073983542343
94906000.0 0.6270934896399734 -0.7647863409738438 0.1924464864118675 -0.24271704784115783 -0.0013235010473382667 -0.003048712345154018 -0.690021001438939 0.3663840017020447
95905000.0 0.6225430651953474 -0.7707825733643577 0.20398677002944546 -0.26480306863583386 0.0005853332031278721 -0.00032668770233521975 -0.6824456257135647 0.3642202927713131
96904000.0 0.6142912302650562 -0.7799719734788191 0.21751244211303616 -0.2779359412239142 0.0007153737618872443 -0.0007245087975616945 -0.6834481275870219 0.37092893093258966
97903000.0 0.603651503534829 -0.7840001222220188 0.2243661763896885 -0.29421974405241935 -0.0011351641360831475 0.0005543842643145651 -0.6810985150255007 0.36527703267938677
98902000.0 0.6009944838031598 -0.79194520065417 0.24303847177133872 -0.31383063236250885 6.651882134017464e-05 0.0030153201321611793 -0.6817645496927487 0.37158691822000894
99901000.0 0.5872624153443442 -0.7992088662245477 0.25359649775277976 -0.3316719794126787 -0.0033080433939804165 -0.0012864075565960902 -0.6597685731843926 0.37357066243915715
100900000.0 0.5820033542789095 -0.8005316764501567 0.26343828403312314 -0.3512656833533324 -0.0018982229589032135 -9.289065996497816e-05 -0.665016584097433 0.3894290598753281
101899000.0 0.572407096040477 -0.8090910262007039 0.2801154411937935 -0.3685353625214362 -0.00014643360914755855 0.0009801905413053013 -0.6626643539735666 0.38095349681791296
102898000.0 0.5624570067496272 -0.8141940617913213 0.2916019801249865 -0.38972242407794166 8.248060494685285e-05 -0.00041938398235150944 -0.6585276780445679 0.38982605153995276
103897000.0 0.5546145648401803 -0.8233589247856232 0.3106421114582198 -0.4101147482629452 0.0009461850070337374 -0.0007595624967239801 -0.6482887428052012 0.40207979774797403
104896000.0 0.547403589997796 -0.8315915665340317 0.3151891687119758 -0.4304275192359959 0.0011798241668445769 0.00036873804771070173 -0.6519221317423228 0.3871410259899427
105895000.0 0.5338142464461185 -0.8337069081009 0.3285096559577733 -0.4546710428777111 -0.0010401046175250992 0.0005884701061965401 -0.6552771400648791 0.3904449025667935
106894000.0 0.5244530972013417 -0.842170273518319 0.33477754609045757 -0.47663749708520786 -0.0019752246611047784 0.0033654657350452276 -0.6439823931259151 0.393808002076925
107893000.0 0.5182873156204755 -0.8465295663725643 0.34596905050551297 -0.4974199341706299 -0.00023603297355897997 -0.000544227291603339 -0.635817454841587 0.3873576359951698
108892000.0 0.5090121587443275 -0.849666296883335 0.35370407994481445 -0.5245454934497028 0.0021534756683448866 -0.0008685340786903783 -0.6387106601535194 0.3932596751464043
109891000.0 0.49631220874559817 -0.8581382748835211 0.3601646004737203 -0.5498333363698544 0.0008878484575967889 0.0008354629593967664 -0.6289450988054025 0.4050726543555643
110890000.0 0.48155975388332256 -0.8728641041083279 0.35803363427184465 -0.5730677148383906 0.0019114082432805013 0.0005055374117464978 -0.6457802529966621 0.4062779694797234
111889000.0 0.47389215377703414 -0.8645159682050784 0.37112923475987214 -0.5959213731555126 -0.0011217537759934985 -0.001561397773965471 -0.6115051357239184 0.407920815778347
