! Created with skrf 1.9.0 (http://scikit-rf.org).
# Hz S RI R 50.0 
!freq ReS11 ImS11 ReS21 ImS21 ReS12 ImS12 ReS22 ImS22
1000000.0 0.9647305331973529 -0.0025647525546648163 -0.005428188428666347 -0.02900643292711106 -0.008555373565790992 -0.0024564653775424423 0.37034225326567755 0.29305980951863864
1999000.0 0.994442948019146 -0.01003096267763808 0.0009923365537955204 -0.02732660073085568 -0.0051708439699294775 0.0022856732593798186 0.25010268151462245 -0.07152523339518253
2998000.0 0.9965413626248147 -0.025409958479258688 0.011076980228633699 -0.011368151240833232 -0.005038091260709851 -0.007732736046753375 0.1754439374739662 -0.12226318682919661
3997000.0 0.9963832481305442 -0.029799774419219306 0.013485902014408867 -0.006744725147651524 0.004188500633768019 -0.005651074449458696 0.0986352811253832 -0.21256237360409444
4996000.0 0.9959231597794139 -0.039885320322619044 0.009663755772173861 -0.0033707367207594804 -0.005079117262293648 -0.005132902146044738 -0.025222821586117727 -0.22075336502892742
5995000.0 0.9961915078780635 -0.04571248082734229 0.010135608844635836 -6.850969928274788e-05 0.004307450533081357 -0.0023662748668650336 -0.12355222835079425 -0.11402201748589258
6994000.0 0.992452752205717 -0.06031166813923903 0.008101556401400202 0.0035063958829874586 2.1042258787044317e-05 -0.0014292273374235033 -0.1503801384715465 -0.027267639995395634
7993000.0 0.9977580163891355 -0.06711450721496327 0.006157317489622138 0.005314861108071717 -0.0008754824236104477 -0.0015220142587811642 -0.170293358710788 0.0269895392394699
8992000.0 0.994889171932573 -0.07259852165443466 0.004252388360419371 0.005788838290388656 0.00482995226158615 0.004668384036226973 -0.1637717797161639 0.06427677432082515
9991000.0 0.9927744777407677 -0.08315456810390003 0.0036369825678118704 -0.0012350047676962924 0.002067711401771253 0.004070474548438445 -0.16117084689577266 0.0914602208061483
10990000.0 0.9940392758893256 -0.0921972818982497 -0.003319357197172479 0.00852944589540137 -0.0015941376481151443 0.0003021738985864222 -0.1393650930377806 0.11216987896744277
11989000.0 0.9893289035262891 -0.10042917799858019 -0.0008071391426365933 0.00026603988917428366 0.0036658032125530897 0.0007164119011856572 -0.13352217976326916 0.1472493202573962
12988000.0 0.9888754124380579 -0.112153073860956 0.003115051444961173 -0.0025362173719429702 0.006238858569222142 -0.004309340226489833 -0.11586641339151581 0.16897062665974336
13987000.0 0.9885488341760599 -0.11739836275328976 -0.0034671645009437015 -0.002373996884727487 0.00026567162133492853 0.0016694476489864155 -0.11749762652966973 0.18146605033971022
14986000.0 0.9857178732734992 -0.12634444363789665 -0.005846652278664446 -0.006275829242975612 -0.0006575839647936682 -0.0024136556169657344 -0.07715019493767367 0.18921959836676264
15985000.0 0.9871062224027458 -0.1373694027313979 -0.004888833216320609 -0.005524989975303148 0.002549739353454994 0.002498522970245202 -0.07277986305824052 0.21449706045133524
16984000.0 0.9832775280256051 -0.1458107243307416 -0.0019051369788429368 -0.003347170799995902 0.0009754794597687191 0.004694401746726555 -0.07333891876490138 0.22722914285671014
17983000.0 0.9854645190675551 -0.1520075713869294 -0.005223568539709282 -0.00977955720497914 -0.0025507654083532657 -0.003833208682102814 -0.06767925709778191 0.2282027995236963
18982000.0 0.9812102492705884 -0.1615413292360497 -0.004314108569119658 -0.00586111041762125 -0.001268203451703317 -0.00020830063466968207 -0.023354705293807315 0.23466886379884191
19981000.0 0.9834349699969634 -0.1672554379865468 -0.0026952585755680267 -0.00442898252714176 -0.004873756392340291 0.005604477030778353 -0.02097951319969519 0.2416600692372321
20980000.0 0.9813552021752691 -0.17696622511806284 -0.003886925233090726 -0.005435690410275644 0.002522119875763533 -0.002512747051113291 0.004426942849713364 0.25885582642344634
21979000.0 0.9785451744079833 -0.18704165058309752 -0.0013050536261356015 -0.007149245100387195 -0.0026254460610239507 -0.0005701969759739366 0.01275833507278704 0.24024160799466127
22978000.0 0.9740812012026284 -0.19382268486594756 -0.008029126815291871 -0.003534487152071853 -0.0037517089126594128 0.004739775761918694 0.016718895661562806 0.25102549509732625
23977000.0 0.9777672790959808 -0.2034664692111266 -0.003706416976178235 -0.004727370435368672 0.0029620626368599815 0.0034092056893531802 0.03679300328621453 0.2582911365580139
24976000.0 0.9731310779000694 -0.21404367735125696 -0.010524650753533859 -0.0011246460370868462 0.0022454664260051125 -0.0030138697335292757 0.0528976603373654 0.2566755078776951
25975000.0 0.9733255150621958 -0.21904714081428084 -0.007492840265564531 0.0007725414742852635 -0.015384189711675473 0.026978645959632196 0.07086657082699362 0.25934590657433304
26974000.0 0.9675803757767928 -0.22963617255049448 -0.004710096821776585 0.002511579635526241 -0.0008043690097170809 -0.00014071684676243574 0.07335723806983183 0.274120412860418
27973000.0 0.9681355445019334 -0.23551374201932435 -0.0037252582870501223 -0.00022680452726608024 0.0001565663648838531 -0.0042035422759899655 0.10215460869113678 0.27377654652500955
28972000.0 0.9661972741057744 -0.24907130227421012 -0.006958262474907393 8.61258964519205e-05 0.0015777640166190128 -0.00038861562804684 0.10139555928201717 0.25522979566243226
29971000.0 0.9646079129259283 -0.2545926821742619 -0.0027398661645725714 -0.0005797306907999493 -0.0005210978093381216 0.0008922981175011021 0.15202799368990638 0.26816328171959297
30970000.0 0.9603778352650301 -0.2630378697234579 0.002270160471531705 -0.0006509690805437284 -0.0032672387401228627 -0.0013464149957351079 0.1647534870739436 0.24518698110009
31969000.0 0.9572314125168382 -0.2702227702378515 0.0010586286827186518 -0.002302558248026393 0.0002477849036219556 0.0005368374999960958 0.1533899757245956 0.2500731711563797
32968000.0 0.9569106931691205 -0.27843075036998605 0.008577201792920671 -0.007849321325950315 0.0016802799977429365 -0.0006849377735137675 0.16682259483400533 0.24451174705901005
33967000.0 0.9557449459408057 -0.28706394225260395 0.009882457146933088 -0.007447589317143579 -0.00028027168165449843 -0.0028182154936745984 0.18952648458122523 0.25226950253108793
34966000.0 0.9502265698123733 -0.29812596610763553 0.014543565425585735 -0.011243220675220567 -0.0013491993902189426 0.0008548612714480828 0.19647617050789154 0.25322061795113354
35965000.0 0.9480448102973535 -0.30494236702900934 0.01439308833460012 -0.01366376886522887 0.0011261341701063997 0.0008360223767267061 0.21165474006832655 0.2605190129388048
36964000.0 0.9457013033412592 -0.3161287128870829 0.015255979059348054 -0.015401729009131854 -5.1239054638290307e-05 0.0009193003798159633 0.21413733630523898 0.2525340254383495
37963000.0 0.9433023276833772 -0.3234334009222339 0.02311515724105161 -0.01959587528745423 -0.0026239687042135546 0.002662737051195225 0.22749564493468258 0.23892645493070216
38962000.0 0.9404335952715935 -0.33211624475406853 0.02356806195122268 -0.02250485197003815 -0.0030013365553284077 -0.0031748779661192354 0.2336845114686902 0.23415168298485403
39961000.0 0.9373048518597015 -0.3404912177505659 0.02390999568515746 -0.03088782241913068 -0.0038132217280792864 -0.0006887780158839433 0.24915751131416775 0.22841540055944212
40960000.0 0.9336302008517723 -0.34710838395878474 0.02465061241050153 -0.026538749573919787 0.0018033192846894088 -0.002108032071854524 0.2691257267759977 0.22781272394511023
41959000.0 0.9306411507763936 -0.35905560219496635 0.0314838398681206 -0.0335407148292719 -0.002606936089624911 -0.0026129934429330627 0.26833992471815293 0.2201977263898427
42958000.0 0.9239673950880588 -0.37030902897335227 0.03207541797399258 -0.04186519952387273 0.0029556993401633016 -0.0009700912576960079 0.28222246995132944 0.20719687817042742
43957000.0 0.9239404720192198 -0.37370837758056924 0.03479676644884985 -0.0485624413323115 0.0019959486192300292 2.5404327253021227e-05 0.28761696853797636 0.21072956163297238
44956000.0 0.919637089141184 -0.38144664137062473 0.0351634475838708 -0.054598653481073796 -0.00018564675155924732 -0.0003079475057530083 0.2982028448451731 0.19754456149245317
45955000.0 0.916421613217952 -0.3928898789024812 0.03628529433185885 -0.05683604784518688 0.004446329753242885 0.000629511167039201 0.3064312962826656 0.19878223404651943
46954000.0 0.9137292834450463 -0.4000063427997138 0.039510709271512276 -0.0686266088466568 -0.004416990903273582 -0.001577079365789315 0.32576319424380745 0.17857602864346425
47953000.0 0.9104006759260171 -0.40719835228356605 0.03911204157955814 -0.07325079106227396 -0.0005291011368638413 0.002283830140657004 0.32681297917516505 0.18217827797971173
48952000.0 0.9044471507552584 -0.4170798723454476 0.04137620518766334 -0.07988707969808623 -0.000616111896343721 0.0012002064630773925 0.34201434354123506 0.17106234236692205
49951000.0 0.9009504796907056 -0.42538238643611853 0.040425281200964135 -0.0897075026908172 -0.0028718843861691 0.0014528455313893946 0.3517774578333129 0.15560664122823223
50950000.0 0.897804807076016 -0.434680752913213 0.04382120918608873 -0.09695834490604227 0.0006837194336767739 -0.0008280867339625188 0.34780810390267186 0.15232203495761273
51949000.0 0.893549034465079 -0.44163615053177513 0.04659893785225817 -0.10667302702464847 -0.000494644364433081 -0.0023715207309147847 0.35959006005820726 0.14761689209685633
52948000.0 0.891772891884204 -0.44915381381157565 0.04844334301704642 -0.1163972843939788 -0.0001860336893726878 0.0011034072342192551 0.38006569093070613 0.14383706469253665
53947000.0 0.8837756005527795 -0.4580280156121173 0.05018098493778205 -0.12551927500333998 0.0013366046989008304 -0.00012940996674221136 0.37022427767876515 0.13582508003397825
54946000.0 0.8792609286745743 -0.46581670553590643 0.052612760926204066 -0.13110212377430083 -0.001744212396735592 0.0011081035825561984 0.39232933567537065 0.1322804054783714
55945000.0 0.8778495481147877 -0.47566932977401755 0.05318060852449812 -0.14526227373607392 0.0035604739528164193 -0.0015397787595352206 0.3883696157831822 0.10115637936078697
56944000.0 0.8726022563735394 -0.48345486465316284 0.05144567048378195 -0.15628373278583452 -0.0009734661110405443 0.003053683620343732 0.40020900153514166 0.10589907780620653
57943000.0 0.8680974974829484 -0.4929312505449845 0.05379785180467206 -0.17127282595465207 -0.0034782057664379945 -0.0013497394043360674 0.40918560473693005 0.09749090486975105
58942000.0 0.8604945839561683 -0.4984793107783921 0.05490843850640296 -0.17894110469712812 0.0020540888607835403 0.0008432650889376234 0.4249741947318212 0.09772884488752587
59941000.0 0.8575949986488165 -0.5063370400637667 0.05932809400407582 -0.18665248947081725 0.0005820659364163876 0.000453794472077078 0.415003758066849 0.08189433601783618
60940000.0 0.8511071002905369 -0.5160842876624261 0.057896161200486844 -0.1927111097173623 -9.616518333415894e-05 -0.0012036909107699981 0.4132333288227479 0.08270479381850084
61939000.0 0.8480111817235537 -0.5216156399541927 0.05823140516220093 -0.20501972783367847 -0.0013333853679284337 0.002840342779594455 0.4228109937469891 0.06854360149950932
62938000.0 0.8412956773566953 -0.5316519239896901 0.06162082580451889 -0.22046312318086017 0.00030870985332088666 -0.00015272343038183974 0.44634192045886867 0.05924058141957246
63937000.0 0.837356513414943 -0.5395660170225424 0.062442824333343326 -0.242862994058554 -0.00107977780515806 0.0005633638375366691 0.4358486878277713 0.037655275115977195
64936000.0 0.830504319567996 -0.5456550442467293 0.06031480656590681 -0.25900085502352543 0.0015273677963080544 0.0017056033826189129 0.4310013679894958 0.046361461845732185
65935000.0 0.8266877476266126 -0.5570949899945592 0.05983170857767874 -0.27283305071777086 0.00016594909725501148 -0.002913852510332384 0.43667959607677376 0.02112814452947933
66934000.0 0.8231216139373084 -0.5619906366250603 0.06055891966485858 -0.28915575648260095 -0.0028088172635060814 0.006579104905527058 0.4383398190373801 0.015165654465495752
67933000.0 0.8189332760710654 -0.5676281375280053 0.06381164758732387 -0.30263224035056335 -0.0018226511653904398 -0.001126009222770787 0.4542541968038421 0.013439004072334606
68932000.0 0.8046552156621741 -0.5763299750148867 0.05648312976781325 -0.3168003543208126 -0.0008252316022986015 0.0008415231999699611 0.4581637258485649 -0.014468595817184484
69931000.0 0.806135150414961 -0.5845383108517765 0.055182769140786216 -0.33398876385249054 0.0036206432837037226 -0.0011715661160477137 0.4564962579109147 -0.01922225182780682
70930000.0 0.7996122816890286 -0.5916958623322168 0.05664124507557645 -0.3512481933969888 0.0055034273582469095 0.004300621026200687 0.4597411648679386 -0.03129683765224347
71929000.0 0.7943267003703367 -0.6019733174184493 0.045837314790322686 -0.3695299830836638 -0.0033138899332486823 -0.0011502782720950809 0.4573838839627795 -0.03921663676913971
72928000.0 0.7890167556109882 -0.6093179128378797 0.04660881988335505 -0.38437912450195705 -0.0010435567669672048 -0.00032580122594299 0.47288770578539197 -0.03941922795081838
73927000.0 0.7811465113167927 -0.616663085980995 0.032902366289603746 -0.40871357024001925 0.000779590523593064 0.0010384548880774227 0.45802304886937756 -0.05753013966748031
74926000.0 0.7752259200352442 -0.6255410076433912 0.027957070109762353 -0.4318565769338783 -0.003645587061819152 -0.0018062445435479673 0.4660755779806446 -0.06681109453749495
75925000.0 0.7713089796719271 -0.6297887918107551 0.022354715731942948 -0.45104506256309246 -0.002080475212186406 0.001638276745753882 0.4676966127940452 -0.0802881004008503
76924000.0 0.7644117300868726 -0.640449392145542 0.008030015027498364 -0.4786443899127077 0.000152096498238968 0.005958332716900966 0.4718061562341364 -0.08513111781581177
77923000.0 0.7592862646914268 -0.6443588760783394 -0.007127853823360898 -0.5041534413553406 -0.00828903075903817 -0.0034618452842695158 0.47214303103819494 -0.09014644007982829
78922000.0 0.7525339412545662 -0.6553768007366976 -0.02130638208358385 -0.5325563207446404 0.0002722696237089921 -0.0001372617860854355 0.4588966402612119 -0.09839442410508768
79921000.0 0.7430597965776625 -0.659766663731173 -0.03895615362594426 -0.5552663805525432 0.00046133566868445763 -0.0005830237860975008 0.4608574618884841 -0.11560866591525236
80920000.0 0.7380650905640109 -0.6712831805696746 -0.054557129746704645 -0.5880357172033015 -0.005241103854583437 -0.0007454724639251493 0.4696670234532499 -0.12480398015113302
81919000.0 0.7331388375787092 -0.6752482913341868 -0.07161481016043712 -0.6170140235875393 -0.00023830929058616906 -0.0005564300071674036 0.4656121241726282 -0.1316239965942879
82918000.0 0.7243616806232004 -0.6828611467573277 -0.08617993569889434 -0.6515650206195346 -0.004792421598003702 0.005921821474807193 0.4793909389096572 -0.14210796421143077
83917000.0 0.7166065632788013 -0.6918692019729924 -0.10660905603800379 -0.6810566349546019 0.0014040046904768802 -0.0005761413343294506 0.4792627672945553 -0.14155218610168105
84916000.0 0.709177320804807 -0.6989359289356327 -0.12588673896650443 -0.714407570006351 0.00074340279146865 -0.00010601480404933471 0.46880706814904305 -0.1682805971302055
85915000.0 0.7042076288096296 -0.7051056986979463 -0.1421841176566263 -0.7491487806432088 0.0011039113405443334 -0.0017529149948091072 0.47250371181354484 -0.1698894794047666
86914000.0 0.6975675614517943 -0.7147894611045948 -0.16031877288815094 -0.78767204832953 -0.0039369467247329926 0.005751755454295165 0.4600082512874067 -0.17234733003009378
87913000.0 0.6891593008644987 -0.7193255505540973 -0.1777027082416244 -0.8142082693909416 -0.005312130973352723 -0.001492377874877088 0.4642549133769205 -0.1770036087524433
88912000.0 0.6811573188903838 -0.7264103698785308 -0.19603761504758263 -0.850614891313017 -0.0032300291089769257 0.0008469213633282185 0.4678720723812469 -0.202126026663261
89911000.0 0.6761467817659935 -0.7355734862904522 -0.2105042005814933 -0.8918358044632131 -0.002283399276700787 -0.003921247617182868 0.4701685630458636 -0.21390562993850304
90910000.0 0.6676819061459379 -0.7420548696089306 -0.23347131728907625 -0.929143324903808 -0.0015186908281091982 0.0021018577896748858 0.4750289716295035 -0.20599230081392925
91909000.0 0.6575992380275035 -0.7469026216406305 -0.2493864760392767 -0.9600994221770531 0.0020412320315669657 -0.002464932597172791 0.4692396409432506 -0.24359307693251314
92908000.0 0.6517133108871064 -0.7555950711582003 -0.2736825895460476 -0.9982738464271061 -0.0011946561447322625 -0.003141169289524754 0.4541989990991556 -0.24274065771173398
93907000.0 0.6429568761214806 -0.7593128333289956 -0.2889196205394322 -1.0283523439586992 -0.0033103616338107824 0.002915118523266869 0.4746115094547717 -0.24808822492424562
94906000.0 0.6324408457840958 -0.7683153786993318 -0.310242954325758 -1.0649183569552296 0.000571667718211477 0.0011487288131542986 0.4598280892471866 -0.25984362562949553
95905000.0 0.6246510652245522 -0.774430332385575 -0.3380611875368853 -1.1005160585912188 0.0020288191392440246 -0.00021990653517604876 0.46066798507596973 -0.2745476938002688
96904000.0 0.6158893319527349 -0.783784942269124 -0.36148622054181606 -1.1431039288089222 0.0028699104518723362 -0.002071211479963821 0.4612209327756742 -0.27258047840140165
97903000.0 0.6074295644743241 -0.7871829952225423 -0.38078796708947515 -1.1789337172296264 -0.00044858427440506326 -0.0023296755602223848 0.4468295562264203 -0.2910787667616796
98902000.0 0.6028706377043975 -0.7961657389538268 -0.4120892317361305 -1.220158218915533 -0.00019480334289536432 -0.0006929043854968672 0.447299109969317 -0.2787635582221192
99901000.0 0.5901799542551829 -0.7997405434797903 -0.44265381446251556 -1.2505512139044066 0.0014767531903222817 -0.0011684664523523823 0.46332594583840253 -0.30895305191072264
100900000.0 0.5844633793675849 -0.8033141957336636 -0.4746122967399239 -1.2862290107050356 0.002174189486485662 -0.0029158870383221664 0.44982114298588766 -0.31268966961968797
101899000.0 0.5758984630640221 -0.8112932481029885 -0.5006891217184519 -1.3264165330746618 0.0012814725359902373 -5.588310757062667e-05 0.4405039619859091 -0.3168082992042928
102898000.0 0.5634609469578831 -0.8171738451824836 -0.5458412327581879 -1.362599623361544 0.00033095412387434313 0.0007848958010230185 0.45170241033418596 -0.33892615884331906
103897000.0 0.557497298379424 -0.8257909657683618 -0.5912432757408628 -1.4026738270158228 0.002644432537810325 8.477658326475582e-05 0.4550285008674536 -0.33518866644371753
104896000.0 0.5481433172640876 -0.8354053888386894 -0.6388376546922646 -1.4457177544151856 0.0010819649700418777 -0.0027890133489602157 0.4397943890040087 -0.337568300719411
105895000.0 0.5395111023140259 -0.8380110268516189 -0.6886925099844582 -1.4902375093237006 0.002363104203946152 0.0008199808681262171 0.4420339337278052 -0.3634792563463867
106894000.0 0.5310979841550856 -0.8441613120342607 -0.7455946332473611 -1.5335961152277782 -0.00010671381911880362 -0.0018782704553844418 0.4309111293903206 -0.3664105944054543
107893000.0 0.5212951040250463 -0.8493725390972539 -0.8006212173567828 -1.5708906165036263 0.002596797840268904 0.002643444278072597 0.4350193871421419 -0.3825556446198059
108892000.0 0.5089693368537956 -0.8535184256825434 -0.8689347272916202 -1.602066947448401 0.0009488018510166094 0.0006766594613662442 0.4235806429347044 -0.3777931152046348
109891000.0 0.4968170520457328 -0.8594433508362186 -0.9271705297740759 -1.6368229917796426 0.00099641397927924 -8.252578138321573e-05 0.44986872723881177 -0.3776022991422743
110890000.0 0.4850300254759211 -0.8612593835139488 -0.9885089408354643 -1.6464739172815184 -0.00021629436664335003 0.0009297338373186985 0.42311712669562757 -0.38582270717757955
111889000.0 0.4779750832005671 -0.8661898174582816 -1.065624593310713 -1.713191553980867 -0.0013497286580976178 -0.001417761542012621 0.4235712673234963 -0.3947844873699664
