! Created with skrf 1.9.0 (http://scikit-rf.org).
# Hz S RI R 50.0 
!freq ReS11 ImS11 ReS21 ImS21 ReS12 ImS12 ReS22 ImS22
1000000.0 0.9832525168526336 0.005678224719411975 -0.014852338931778763 -0.06319829348214688 -0.027842502778699763 -0.005843940835745695 0.3015304395682046 0.3466684569784297
1999000.0 0.994650161813794 -0.012744789872089674 -0.0018526734760491144 -0.021619740202711596 -0.004634481685876202 0.007360751305952272 0.24632827733721888 -0.041706678308373886
2998000.0 0.9971995499163342 -0.019679381481654882 0.013202007916765865 -0.01571731564153534 -0.0066086105363364085 -0.0003695953993049749 0.1853029850119159 -0.13126502371413978
3997000.0 0.9986094569230676 -0.028369169974924422 0.014085053517533043 -0.008811827476223649 -0.0041259004882129345 0.0014442708175284415 0.09140267441688822 -0.23084416109375677
4996000.0 0.9988368107495572 -0.038919783767941266 0.010787273806579584 -0.004071222925053601 -0.0010552502588019237 -0.003561128137626962 -0.06126641604275138 -0.20638086680583181
5995000.0 0.9978751592442644 -0.04777087228923046 0.0090703822292198 0.005888663618245964 -0.0019537200729965753 0.0010817389576373115 -0.1322947089035592 -0.10689613859313407
6994000.0 0.9983474926543652 -0.05916630986044496 0.006804060032392141 0.004253131440715634 -0.0013744188686290115 -0.006818829114793576 -0.14303256210220078 -0.032131748325917156
7993000.0 0.9975173642725413 -0.06519475574593352 0.004111842557061478 0.002717727872863309 0.0031082357165110376 8.705770874630144e-05 -0.16629716135225145 0.03835860638492026
8992000.0 0.9953498946047634 -0.07275183346092556 0.003666900766309061 0.004401631761442797 0.002027674781007507 0.0006917603239758396 -0.16940396120565807 0.05948194035875003
9991000.0 0.9947837613081024 -0.08368044378941993 0.003365602022824109 0.006004955815296418 -0.0010301948818384162 -0.0030529198789411315 -0.14459115552731475 0.09565031547170075
10990000.0 0.9948034257388351 -0.09145441731965695 0.001064412853282402 0.0019692861939716168 0.0005190868000387951 -0.0028972532551826535 -0.13835520532460155 0.11999763639583633
11989000.0 0.99175939388161 -0.09614640399714083 0.0025760779914305865 -0.0007954365794379545 -0.0045953425759245525 0.002309556875137543 -0.11444822252089581 0.13774916849043958
12988000.0 0.9915848200800927 -0.11001752743872306 0.0010760977021616578 -0.00293737925011436 0.0005840366219496537 0.0011690487553231632 -0.10796344460987761 0.17404754287541635
13987000.0 0.9877607258175553 -0.11603825244451359 -0.0016287418238966629 -0.0038572244976005448 -0.004739448022593291 0.00043349927012342466 -0.08916879711847271 0.18249890426754525
14986000.0 0.9886620636003537 -0.12355846264214386 -0.0011437043392361502 -0.0008055411263916954 -0.0019334463926095737 0.002013280633941783 -0.0960292878631292 0.2098181387204411
15985000.0 0.9916296691821107 -0.13177831022508116 -0.005259645087963911 -0.005999064671234767 0.00015769422968500794 0.0017088504808145306 -0.06522559253380307 0.2272467151402948
16984000.0 0.9882093982411347 -0.14020590218637113 0.0014034500202730594 0.0008346539598663326 -0.0016140142987570985 0.002412948502435896 -0.0777831531605651 0.22016034282849417
17983000.0 0.9887535757565724 -0.1481768141127076 -0.004302392678289906 -0.007367043330875515 0.002202512174947431 -0.0025014986028795497 -0.04991237886075924 0.2335046308781692
18982000.0 0.9830184025525215 -0.16017525603878027 -0.0012019774547885552 -0.0013838030327615368 0.0007116331674263607 -0.0026412633974737783 -0.01789325790343327 0.2463374970863373
19981000.0 0.9839544314971354 -0.1608566578825667 -0.0065705395847808785 -0.0067119375943782075 -0.00018257710914848895 0.0015563359721139844 -0.020642448449324134 0.24757274295145454
20980000.0 0.9826898396485577 -0.1723767022555308 -0.006581957489036061 -0.0059194133880919415 -0.00067411416769119 0.002634463877949746 0.006835864681285393 0.26004971948315797
21979000.0 0.9819238562038758 -0.18172066545032833 -0.004833478915218489 -0.003455796817108654 -0.0003055466340997236 0.0008371289190628464 0.0036579324505339205 0.25535165044147906
22978000.0 0.9798309513955072 -0.18905998125561924 -0.009689290841047386 -0.002564282362785974 0.0008909537983001593 -0.002791120367005966 0.03455275662126373 0.26293094951199963
23977000.0 0.9801510786591823 -0.1991585162131945 -0.0067358983832317846 -0.004099355429915223 -0.0035743038780602734 -0.0029078858982572358 0.04661418522354649 0.26130850922292004
24976000.0 0.9767309975950664 -0.20858649042290853 -0.008025666372583366 -0.0005859944720810665 0.0016345196644274862 0.002607009647297044 0.050684264457267356 0.267639780437785
25975000.0 0.9734682885454846 -0.22134312819991772 -0.005253242758574896 -0.003994997867869322 0.026095230052827094 -0.008488419467729528 0.08442820549340466 0.26026832720122406
26974000.0 0.9713056364267358 -0.22398601279466857 -0.005863868544430769 0.0020856325228897294 -0.00048790695250446227 0.002208086439810228 0.09565181754103998 0.26982546162676274
27973000.0 0.9710342242788863 -0.22824722859237828 -0.0011058830391655421 -0.001734721487439982 -0.0009259792582854672 -0.003112516281395183 0.10619109025747246 0.26331854401642385
28972000.0 0.9666073452959012 -0.24100647117870197 -1.9681034401574193e-05 -0.002539770233770379 -0.0024172429579329986 -0.001845124895182797 0.11205864906532599 0.25036620348132876
29971000.0 0.9673702232419755 -0.24796550968586448 0.005978389193903326 -0.00216330854327808 0.0016134261060814512 0.00045521639342607805 0.1533908521231111 0.2627138215339
30970000.0 0.9650438538266164 -0.25398697078683435 0.0007832458476636103 -0.0015856902203828188 -0.0005599305326387378 -0.004487156423624531 0.16575427912651264 0.2498993459000046
31969000.0 0.9619475173925472 -0.26248476608617693 0.0018047367107785737 -0.006247520782587933 -0.0020082936054068613 -0.0004545343391548218 0.1582728708828792 0.253266022439828
32968000.0 0.9612825322009543 -0.26989268580367537 0.00963588163453996 -0.00911556077418913 0.00020569902883249113 0.0028331490324298805 0.16976292219956743 0.24341887739504428
33967000.0 0.9579398406091469 -0.2821758735535733 0.011808265431320153 -0.010038140065942967 -0.003145950023825112 0.0008752702664524708 0.1857255865931836 0.24746051502738342
34966000.0 0.9543565678961894 -0.2912073079945041 0.012857190075844264 -0.013726279899652773 -0.0011634078956297158 0.0007554325574705105 0.1916335819529471 0.25543383386091023
35965000.0 0.9518236156121574 -0.2962244504138713 0.015178861450025364 -0.01172202687596876 -0.001178701329172012 -0.00033834354701860685 0.20934163019901425 0.24828765474469158
36964000.0 0.9511855129637855 -0.30587000356658106 0.015133946992048116 -0.013813002151664125 0.004801001912876069 0.002345909029941341 0.20899456643804656 0.2547370991519943
37963000.0 0.947849614471042 -0.31491437878746836 0.021008085525493974 -0.01783460421662142 -0.0003089345611821602 -0.0025010667563076334 0.227567444360147 0.23034110514059664
38962000.0 0.9443525896347011 -0.3244728156691001 0.024840299845986756 -0.021788839210510284 0.0011675560080249645 -0.004466289471342494 0.2408378048092343 0.2331449769127981
39961000.0 0.9417562843696502 -0.3321652445218652 0.028188952953547737 -0.027422849425299923 0.0035277256169189636 0.0015377942375473118 0.25122927651113136 0.2276724338247683
40960000.0 0.9385130622525597 -0.3407989601411996 0.022955726110380822 -0.022620810849197696 0.0004586511538538462 0.00032169865340336053 0.27064934604436125 0.22244678449184113
41959000.0 0.9365369284880442 -0.3493796349577066 0.02765973517007495 -0.031559275991874705 0.002763292327465624 0.00032370737135507783 0.26443647616821875 0.2140909811475838
42958000.0 0.9309273520434489 -0.3580105323064847 0.028425453141090136 -0.04278782208694069 0.0026155085044096463 -0.00041530372705986447 0.2804179313887825 0.2047581935470131
43957000.0 0.930322658023217 -0.36392840077358113 0.032554409960274824 -0.04447899048931259 0.0038802897274634734 -0.0020784274279948872 0.29525947598379426 0.20543356436029447
44956000.0 0.9255122183857311 -0.3717945315947005 0.03430842949063329 -0.05037109543067576 -0.0021275374994842956 0.00031669205431951 0.31014830746752414 0.19921360651328537
45955000.0 0.9221044216701509 -0.38210760178823516 0.0354710118190084 -0.05652478029807605 0.0037218336059421453 -0.0012971951303407231 0.30705803283242183 0.19721897382119033
46954000.0 0.9181591606356935 -0.3901461476943719 0.03492251795912835 -0.061243483956371705 0.00040296756483070256 7.07728073045963e-05 0.3208819168527965 0.18502010632867708
47953000.0 0.914758592456236 -0.39862937697124845 0.03308983723546226 -0.07032339206217669 -0.0005482197630492569 0.0005952763034215429 0.33662184836852155 0.16600299343373331
48952000.0 0.9099666813903992 -0.40936630419386494 0.0365348295656625 -0.07830083236829602 0.004525708900989829 -0.0022777015454403656 0.34353197200365154 0.15732086638549375
49951000.0 0.9075516860687729 -0.4127075892090275 0.0352049058821338 -0.08679937710508125 -0.0018529469011741185 0.0007731188843801655 0.3559634170992496 0.14910905829300128
50950000.0 0.9044977297081411 -0.4236144303795829 0.037144088053700244 -0.0952030089727681 -0.0011975431454642567 0.0009880467906185288 0.35808599214163145 0.14380268601783303
51949000.0 0.8999249537077508 -0.43078718654818693 0.038226897928642256 -0.10248053388640775 0.0008381218816554539 0.0008140120181123382 0.3663914272466047 0.1420823604610932
52948000.0 0.8997413071746718 -0.43749809666970313 0.041298397641806886 -0.1096438499573469 -0.0009177847938355641 -0.000677068721759624 0.3737363994762272 0.14226349177686437
53947000.0 0.8918976014393648 -0.44651475862137846 0.044149813419802605 -0.12088778246024955 -0.0001274656882975048 0.0022268622971837308 0.37028717064236705 0.12988598967814266
54946000.0 0.8879438747927524 -0.4562865182919968 0.04257537776625882 -0.1303921487772571 -0.00013665547965858356 0.0011052434747780837 0.38700696806491663 0.11861417322647658
55945000.0 0.885057527783117 -0.4633151413146748 0.04277942577184034 -0.14006665472424762 -0.00032669134296804534 -0.0012684803067603118 0.38808512767769565 0.1006828032039069
56944000.0 0.8800992012655089 -0.46999573996985694 0.046439022277309026 -0.14772521362640703 0.0034271389509777494 -0.0008950877840698833 0.3955609914984296 0.09389078686718574
57943000.0 0.8783288377362953 -0.4802106071150537 0.0474750593084042 -0.1626315311863708 0.0033071561646849127 -0.0016963860110206573 0.404042086162605 0.10006425683359703
58942000.0 0.8698286146509008 -0.4845873562398162 0.0462717293801352 -0.17032539958521023 -0.0016562952815172348 -7.181508451087439e-05 0.4153940335044677 0.08520585927704223
59941000.0 0.8676757636996753 -0.4937954389280903 0.048208829120030286 -0.18255979914843168 -0.0009699937104982651 -0.0009655070333507716 0.4179610053113662 0.08239508298892677
60940000.0 0.8615991498888063 -0.5002003337692672 0.04950338093222483 -0.1846256708950276 -0.0024765708700220197 0.00100218075328674 0.4097732676009403 0.07412860827405438
61939000.0 0.859078928825213 -0.5076753269615578 0.050219658123571057 -0.19350896254272476 -0.0016035800590659427 -0.0017169844883009478 0.4239696773135861 0.06264792612508154
62938000.0 0.8524967568151681 -0.5182048992489555 0.05250808957472495 -0.20925450106246857 -0.0015647404191517261 -0.000634270034900657 0.44454735366378567 0.05914117850343409
63937000.0 0.8466030473730538 -0.5260825936948104 0.05434236999120506 -0.2288947315485854 0.0028074100155474034 -4.948041989644589e-05 0.4403005356687724 0.02658118663814011
64936000.0 0.8422455028008413 -0.5306954656003366 0.054222934742921315 -0.24371813605243844 0.0001290640273120644 -0.0021732159245751795 0.4297469638845022 0.03989960581023785
65935000.0 0.8398879705288719 -0.5400938036405277 0.05323382286128701 -0.2572784583750127 -0.001081127353679422 -0.0021860847894869338 0.4329467080401392 0.019297792711087024
66934000.0 0.8335146168519891 -0.546622815519149 0.05545874512593192 -0.26901245193131285 -0.004170244596066342 -0.0009634455876013296 0.42770239423988815 0.010892230555183511
67933000.0 0.8308493047403829 -0.5549791817756973 0.054138131277701555 -0.2837500354977922 0.0002762315485547188 -0.0030327343513357813 0.4428100289500853 0.0025193103549590442
68932000.0 0.8272771463448377 -0.5549952020626321 0.05150959751518651 -0.29390643152798385 0.002762850933266553 -0.0006339699545507956 0.44553500250055644 -0.008450334477945562
69931000.0 0.8176280121013183 -0.5713357819052178 0.05216075151525571 -0.31279500279256983 -0.0009649257686818004 0.00019675458174801575 0.45452090684776675 -0.018119018751956754
70930000.0 0.8105749619652682 -0.5775314605361374 0.050213754099338995 -0.32521775109630946 -0.003441813730040329 -0.0004979378607566156 0.4556383462147247 -0.038841284886968246
71929000.0 0.8077123839260679 -0.5870436724481988 0.04625533191588909 -0.3453907734832402 -0.0009006426580789547 0.0003379598992461606 0.4565025601855278 -0.04155707065107591
72928000.0 0.8020680650763202 -0.5945471461429511 0.04142089243411304 -0.35750020855932607 -0.00016618575819433697 -0.00429896797369059 0.4562139736274817 -0.050186772277797075
73927000.0 0.7967006866643808 -0.5991873504243094 0.03783354130772385 -0.37642499853746 -0.0012004343286782892 -0.0008699546578590777 0.4544359421550933 -0.0633149593608232
74926000.0 0.7898552886553305 -0.6111619389157054 0.027395015292065183 -0.3957525771715105 -0.0013083611454685143 0.0017039714616824773 0.4616358595567022 -0.06983669839951413
75925000.0 0.7865256630263867 -0.6153943434139632 0.023146738470545616 -0.416582626142136 0.0021864737486840275 0.001687787884633497 0.47143109455960447 -0.07805430512363341
76924000.0 0.7784508267872171 -0.6213149222578659 0.006318167372240461 -0.4346796238339984 -0.0006195527563335986 0.0018755410528486015 0.468495991340764 -0.0888601407754611
77923000.0 0.7718601668158448 -0.6334004533287106 -0.006810048221233743 -0.4598262026946534 -0.004982155735237898 0.0003114678611753058 0.46355556311430507 -0.09979041413772946
78922000.0 0.7684758985686266 -0.6386109398836993 -0.02365275585443806 -0.4843253955294212 -0.0002058421229797631 -0.0014885483694781919 0.4548020989211625 -0.10537336827635882
79921000.0 0.7579796964695518 -0.6426106159759005 -0.03631144272005428 -0.5084353970459061 0.0007352437148948904 -0.001740423790404958 0.45586599224471447 -0.11280915999927447
80920000.0 0.7525586230755146 -0.6535447795558353 -0.05306413952427245 -0.5380974280749803 -0.003309162559500198 0.0030870892130455347 0.47095043185248603 -0.14252149413669826
81919000.0 0.7498993835267188 -0.6593717939093595 -0.0714745386568014 -0.5647410521768339 0.004136469653583079 -0.0024177819260608026 0.469846958428467 -0.13808075924443047
82918000.0 0.7389105528887148 -0.668782756597906 -0.08435801978777321 -0.5958512786379548 -0.0019981916946422346 -0.0006574767506853712 0.4765747970264957 -0.1449525045804813
83917000.0 0.7331549262225154 -0.6756424795205359 -0.1065065752057643 -0.6238146114880115 -0.004559013709137323 -0.004545687964697747 0.47570865325976974 -0.15234184223573036
84916000.0 0.7277907827579628 -0.6832489843743287 -0.12395899295025098 -0.6575207765514027 -0.0006971344637071888 0.00437015912508191 0.47253221269312723 -0.16963708175790204
85915000.0 0.7214787964632908 -0.689132809042554 -0.14603271008586183 -0.6850326153191384 0.0006753133090150026 0.0005928425796416851 0.464149869993182 -0.17854708383592335
86914000.0 0.7134693412369522 -0.6987114116914863 -0.1558982069600707 -0.7283641361946886 -0.00043689702546681236 -0.0020338702668297824 0.4730188335171714 -0.18549022644348281
87913000.0 0.7083865325853865 -0.704025277947925 -0.18032420359287896 -0.7536486813254528 -0.003392174037046204 0.0028442171811923324 0.45953060263362905 -0.18583916064482678
88912000.0 0.6991672489754991 -0.7128593238501075 -0.19569339028620522 -0.7894505070283323 -0.0005032227119182663 0.00038390690432659 0.4673629619357803 -0.20947730364794734
89911000.0 0.6926325079351054 -0.7197915827137227 -0.2073609227904109 -0.8266618880954348 2.2158128947002006e-05 -0.0018153597843142742 0.4804485696357527 -0.2101418998675876
90910000.0 0.6873358938244517 -0.724890043936694 -0.2216072891516077 -0.8583015046519933 -0.002185797831727724 0.0003918446469449073 0.46352588492076363 -0.21924073609943714
91909000.0 0.6779083654729472 -0.7315899637083583 -0.24333310205138414 -0.8889412615055342 -0.0014691341327676783 0.0009446651466191406 0.45396603296993693 -0.22278668509033067
92908000.0 0.669565871976094 -0.7388974118061944 -0.2625151331562877 -0.9250834210647905 -0.0017850575580814199 0.0009779881386481116 0.4515196237948411 -0.233857234511069
93907000.0 0.665241882294509 -0.7440403082852828 -0.28294567196386666 -0.9518903628837284 0.004175411642713283 -0.0008551194477348527 0.45325447743301606 -0.26377985040355817
94906000.0 0.65287380831014 -0.7521114776684468 -0.29570991622353854 -0.9893130737360484 -0.001936975131194793 0.0004341102754104248 0.4603765263797205 -0.2502806540896489
95905000.0 0.6454122371223164 -0.7586114080771307 -0.3198267975434547 -1.019321010792036 -0.00029003150762213676 0.002112635668614546 0.46252198360372127 -0.2822874518505543
96904000.0 0.6368508255811777 -0.7669715882596776 -0.33076182132949633 -1.0612952128106459 0.0031358367015749196 -0.0017558330654010728 0.45104394745960236 -0.2777764400107747
97903000.0 0.6283797083633179 -0.7730114648840802 -0.355773991075781 -1.089824683214236 0.0020898488495484867 0.0020058409926115447 0.45226886236586883 -0.2938049502770211
98902000.0 0.6251189425891572 -0.7801603535941914 -0.3749549195382494 -1.1273981121037346 0.0033280880005647257 0.0004300358005632623 0.44533499961891737 -0.29914258293398965
99901000.0 0.6143309018394865 -0.7844633422417412 -0.402191088627387 -1.1558323916246322 -0.0015348833303623027 -0.002031756668667763 0.4601561415584047 -0.3236969964088043
100900000.0 0.6069032045316117 -0.7890432161005255 -0.4278961297426519 -1.1881814620314777 0.0022729951717422796 -7.258318536194328e-05 0.46151763171495364 -0.3220381180733431
101899000.0 0.595759254145689 -0.7974809188719015 -0.4592036483641292 -1.22411077741562 -0.0035369074667749743 -0.0009906766578437344 0.4430589060800531 -0.3266333049784524
102898000.0 0.587398998934364 -0.8026760650043747 -0.4890927598142768 -1.2648138138845788 0.0020654082089764203 -0.0012906323263008781 0.45106272234123373 -0.3407422734151357
103897000.0 0.58081919257037 -0.8117324391096512 -0.5273015106482736 -1.3001881788529877 -1.4922479390003794e-05 0.0006112303269104904 0.4597031192307347 -0.3350115066300454
104896000.0 0.5725159759666546 -0.8175047430045583 -0.5717309388541372 -1.3243461753174535 0.0004964681428285284 -0.0017675699875075363 0.4322090426273756 -0.3479033298778951
105895000.0 0.5611436276428158 -0.8211968428926532 -0.6138016391844263 -1.368482348017508 -0.0011603646433740308 -0.0024892753369821223 0.4316132284853178 -0.3739294834717916
106894000.0 0.553059723233429 -0.8288114692419277 -0.6672429011864761 -1.4071434941256895 -0.002239638635995956 -0.004035386926659471 0.4277399295417834 -0.3615229420833347
107893000.0 0.5450371043878021 -0.8356205889149454 -0.7130154795868746 -1.4440496990888159 0.0025209173208424122 -0.0003378860825200047 0.42452011304072257 -0.38151386552246314
108892000.0 0.5366285617901625 -0.8384607045861016 -0.7692328279344876 -1.4825191600731207 0.0009790810899017578 -0.0012454053356742078 0.42580344687057464 -0.3693461004398689
109891000.0 0.5244280131685002 -0.8466653929930876 -0.8251465766508852 -1.5153374085695652 0.0016195084778706406 0.0023769873584445333 0.4351033403752316 -0.3802986213060933
110890000.0 0.5097865542678577 -0.8505548501735233 -0.8877627960855804 -1.5181382951451794 -0.0008644427802576831 0.005211129763972527 0.4198880616575842 -0.3791085505148054
111889000.0 0.5036091080259478 -0.8523126473385861 -0.9468503324309371 -1.5843839840693366 -0.00022652948185350813 -0.002353641240328521 0.42610849315804333 -0.402207052349386
