! Created with skrf 1.9.0 (http://scikit-rf.org).
# Hz S RI R 50.0 
!freq ReS11 ImS11 ReS21 ImS21 ReS12 ImS12 ReS22 ImS22
1000000.0 0.996149396227506 0.01542168824789769 0.0008186573088820725 -0.052894297499426625 -0.013628048469211783 0.007547094230027499 -0.1855419348669235 0.33233895489069337
1999000.0 0.9957661021260231 -0.012229270256084262 0.0065546149259712505 -0.02804537414688267 -0.003442405815336581 -0.009541002426655013 0.01787920415553794 0.21910916457915353
2998000.0 0.9967212110322351 -0.02251287852862765 0.011176598916616825 -0.01877445297091448 -0.005436148719751522 -0.003666508215679312 0.09461414315787688 0.11487492822483407
3997000.0 0.9964849793161425 -0.0315394326632077 0.011543989050871128 -0.00910670519772478 0.0015681103939415193 -0.0041752287341069805 0.06981773958695324 -0.02439312327641507
4996000.0 0.9969416445983392 -0.040237209045966116 0.010850253033804116 -0.005241271564231769 -0.0033671375021954025 0.00277356821767724 -0.04179067457114992 -0.09356429461123641
5995000.0 0.9940946796464298 -0.047768342351624526 0.010695917948115146 -0.00298220706504231 0.002588471265643376 0.0015445303428351868 -0.12450639582588703 -0.02068168051821566
6994000.0 0.9931193764619486 -0.059145988547325515 0.004160751546834488 0.006861072133392449 -0.0038255720585339877 -0.00024112941009554655 -0.16045737258941561 0.051276438614157455
7993000.0 0.9953591382036716 -0.06499290373143832 0.0033698826147667256 0.006837090177377579 0.0042251142301576545 -0.008002015747055193 -0.18692522595659716 0.1071576226410193
8992000.0 0.9922651714743321 -0.07038956152913763 0.0024107203588499323 0.0058500844788025455 0.0016150639521644945 -0.0009577372131956677 -0.17608775735632898 0.11369406885681684
9991000.0 0.9905855234196598 -0.08381693346388143 0.005153063412435712 0.003205715022333772 0.0037790940985369934 0.001024142313020446 -0.18815372397935792 0.1506904706764817
10990000.0 0.992361328723501 -0.09351423987354791 0.003484655715818887 0.003809080077369175 -0.00033942069494536704 0.00023717969496523959 -0.15229162993613424 0.15897465125420324
11989000.0 0.9892672435348137 -0.10116531592414255 0.0019273303801197559 7.440496182868121e-05 -0.0025299807366195833 0.0015893682646994777 -0.16236117312747902 0.17801427733097364
12988000.0 0.9886388118740945 -0.1097559776649029 0.001632828463555824 -0.004083275276319479 -0.004331075314398195 -0.00021075444676584427 -0.15180657661280192 0.1938587437365194
13987000.0 0.9884934492788718 -0.11691935491080332 0.0011151496943767882 -0.004348072751016404 -2.6621628825448145e-05 0.0006550217254848652 -0.12179644771765222 0.2299332810259559
14986000.0 0.9860174641017065 -0.1243187165250668 -0.004075034335656073 -0.0061345974306570485 -0.0019523536342584062 0.003623931810740648 -0.11881948342763331 0.24263345266263342
15985000.0 0.9883455551709321 -0.13553722635077842 -0.0035838622159260662 -0.005263348047987849 -0.004281974040759652 0.0008299981706368167 -0.09572062332081421 0.24238443698867054
16984000.0 0.9876823524653635 -0.1433943709511826 -0.0036266401426322896 -0.004356479682134193 -0.00037708507032557575 0.0015707758797529187 -0.08411866296981171 0.2539442147270365
17983000.0 0.9829191493446295 -0.14924273830451484 -0.0011590119288692848 -0.0033487973560128565 0.0014966468111360706 0.001698857836552615 -0.08989804415748444 0.2576708862487552
18982000.0 0.9825095807534204 -0.16308036487492278 -0.004625270896352334 -0.005892918845924832 0.0015562712662381475 0.0019843630496160507 -0.05301712820581246 0.2590501173029043
19981000.0 0.983019184329633 -0.16680388480159222 -0.0065318106719522324 -0.005097134121864062 0.003606347627683387 -0.00016108738756155904 -0.0470642296495259 0.27267100777078723
20980000.0 0.9806062046640441 -0.17503537796508076 -0.00274677545876932 -0.004851501738513817 -3.357105308866034e-05 0.006094151305289648 -0.03527404475361294 0.28679323766018283
21979000.0 0.9789164395208207 -0.18509331303123694 -0.006709188273101594 -0.0004668623283710814 -0.0027719004726297868 0.003537394636004692 -0.013998617676920724 0.28157701169775834
22978000.0 0.9761232156116938 -0.19335479903246947 -0.007223196497745898 -0.006921101879090597 -0.0020697744576993406 0.00042692044604984697 0.0018602387632383772 0.287252147797795
23977000.0 0.9772571398921659 -0.20045988926162736 -0.00806669152280268 -0.0008510678009491167 -0.0010430801308632179 0.0009647648488011844 0.016540939019283173 0.2799908266115166
24976000.0 0.9719705824624105 -0.21221811131871443 -0.005538099228169508 0.0006742757262042777 -0.00038904665127871275 -0.0002568388027008763 0.03802836062068323 0.2811269656243301
25975000.0 0.9645850848912935 -0.22296433603887467 -0.0049348318886274145 -0.0028573181878443266 -0.0033892636822362124 -0.028008745821308648 0.046265340975782644 0.2861582471267333
26974000.0 0.9695095676800787 -0.22886282424585025 -0.003520850362396607 -0.0018623691210154028 -0.00020658889383028253 0.0005655774698332495 0.06321445328506106 0.2862423690659907
27973000.0 0.967829327873605 -0.23806968242875004 -0.00222987325900052 -0.0011856308792345114 0.0016413920191497018 0.0006540181486263706 0.075407791991858 0.29061276813038117
28972000.0 0.9648453077762765 -0.24542309777831028 -0.0004496773163930539 -0.0017983300964688161 -0.0016714805985902225 0.00529774770900205 0.09771247490721562 0.28182465731817496
29971000.0 0.9642902088343602 -0.25338994441805696 0.0025579769769649772 -0.002126416166773831 0.0023280921188072326 0.0017855203889476175 0.12544697397077775 0.28538927880804316
30970000.0 0.9624160099480754 -0.26029699961318403 0.003990485159493506 8.273034347232766e-05 0.004181810833816375 -0.0005835162838790304 0.1434889649827109 0.2771249149755221
31969000.0 0.9576339323670633 -0.2692638110259062 0.005167472467298025 -0.00672679473459811 -0.00117161891130747 0.0016831693905447244 0.12372760028049906 0.2774261684878142
32968000.0 0.9573169525966571 -0.27996664987110514 0.006555288221237416 -0.008842827969281432 -0.0030276378572758216 0.0001463498517739997 0.14019086383458404 0.2704874199853167
33967000.0 0.9542508741591125 -0.2888659618171891 0.013989552424295107 -0.01239333868043228 -0.0005239826328372934 -0.002360743708399728 0.16183703184579837 0.27905357946520243
34966000.0 0.9520151395483628 -0.2946383188635034 0.012294584720846394 -0.012245820455646506 -0.0017967512440381771 2.800548187905472e-06 0.18415462332251262 0.2697221272141822
35965000.0 0.9492025664750702 -0.30399392745109255 0.017619989025934098 -0.012992382859812975 0.0013765927379099092 0.00023503280241213062 0.18712204298759816 0.273424286238709
36964000.0 0.9469325941122179 -0.31314306337025205 0.019507810166444598 -0.01569072699654037 -0.0004547528828244055 -1.8008409653775624e-06 0.19388735342910624 0.2753911574438382
37963000.0 0.9423099214849457 -0.32296242859044066 0.022105833744785953 -0.020360746995576627 0.0027069023547406337 -0.0012062889239314166 0.20571561824733997 0.25818050820523747
38962000.0 0.9402447934422292 -0.3331160181630111 0.027074925200453234 -0.023376758594164902 -0.0008079997975077015 -0.00216351788662551 0.22065371735917727 0.2560659747342007
39961000.0 0.9374695594351797 -0.3384057534342612 0.028245461793881217 -0.028848230327533027 -0.002202599863835523 0.0003368867918095568 0.2412986358075237 0.249443185696519
40960000.0 0.9351538343068736 -0.3470059383903284 0.028213133143193934 -0.024689134889955378 0.003352203546672893 -0.002317793608795588 0.25179856519484534 0.24678465396133778
41959000.0 0.9325652345422726 -0.35644420148617406 0.031228817020840325 -0.03329227299027319 -0.00045120542411238815 -0.0008603294905032374 0.24798033536188627 0.24947582313884933
42958000.0 0.9282295064248073 -0.36467281074184626 0.032371666708466085 -0.04371827720365921 -0.0014526197719668217 -0.0012225534870062165 0.26641574643378174 0.22477738455220736
43957000.0 0.9260677337292975 -0.3686039655069963 0.03577094964362742 -0.04597887108882809 0.0032820040214887928 0.00042944070012097287 0.26911280024303313 0.23301870014733442
44956000.0 0.9212430080415736 -0.37950184074193 0.034769791728966416 -0.055758539043489104 -0.002996077835669496 0.0012729449728523185 0.27929144939263395 0.218920015359861
45955000.0 0.9169194029098008 -0.38988267647785313 0.0402347370262182 -0.06116216012920952 -0.0022347109118128566 -0.0017663709143394975 0.28677721753026175 0.2232478621478846
46954000.0 0.9121736726420493 -0.40000246599704287 0.038429840920377635 -0.06856318663039568 -0.0016072602437792374 7.350450578506688e-05 0.3043006669839453 0.20908179630500118
47953000.0 0.9120597969962164 -0.40532489497836244 0.04148942603741358 -0.07752849545125964 0.003292785086387347 0.0029692868074615276 0.32066854935422334 0.19916252771808765
48952000.0 0.9046685982138079 -0.4180139060831155 0.04133266156544651 -0.08371372523079032 1.2410394790749184e-06 -0.0035307327134130404 0.3166354282283138 0.1912348562048048
49951000.0 0.9019913429090686 -0.42189317567139556 0.043082167965641856 -0.08954729900896076 -0.0022759162926552223 0.0010134070552480416 0.3416762872200557 0.1799957165949178
50950000.0 0.8994161754107162 -0.43169438587449777 0.043151921297553276 -0.09857520837964164 -0.003330286204785984 -0.0012807367947834428 0.33357158062518005 0.1794023718271835
51949000.0 0.8963286552879187 -0.4398224876410382 0.041161562304284506 -0.10939600339441338 1.4615647503570479e-05 -0.0006339630207451073 0.34805164758515184 0.1697251027345728
52948000.0 0.8916418421225694 -0.44914448857830946 0.04719925528086815 -0.12053424214874146 -0.005427455910215196 0.0007349406324119932 0.355622158589326 0.17016154971458228
53947000.0 0.8860311194248859 -0.4538921394513056 0.04815011394289884 -0.12839208991073345 -0.0018550969618417981 0.0008919900731876619 0.35629398876286394 0.15522269008572226
54946000.0 0.8810497169481575 -0.4650941776732663 0.05110099042765526 -0.14165000930646873 -0.001601633355628744 -0.0020591474847949597 0.37488271141483515 0.1470620224370026
55945000.0 0.8794532533476836 -0.4740810531841311 0.052474604826189195 -0.14939893788342434 -0.0011641790135269712 -0.0005149683677657961 0.37100506437147945 0.12540156829447713
56944000.0 0.8748656552396474 -0.4808695061532831 0.05221048018590116 -0.1582530954059592 -0.003104019100097849 -0.0012728408327154427 0.38314788178478365 0.12926897719032762
57943000.0 0.8693074971582193 -0.49058554877667626 0.051738162721390576 -0.17208813848381563 -0.0011228384896388984 0.0003883323585402555 0.393037057122935 0.12264724184890076
58942000.0 0.8628301060000775 -0.49830431140006703 0.05552057842224788 -0.1805184217494132 -5.856105265905394e-05 0.0006644897013413176 0.39779598210113154 0.11457978306440551
59941000.0 0.8605699560458658 -0.5042063234036405 0.05729938009410088 -0.19261862539547353 0.00029179035850922306 0.0012530148843912666 0.4057966116254369 0.11363694126152075
60940000.0 0.8529569087744336 -0.5125980770301058 0.055952317156074814 -0.19583119351287223 -4.513290806316379e-05 0.00017669480964547886 0.3929233398376817 0.09238873998865736
61939000.0 0.8501642847343076 -0.5189703376226846 0.05442288399348893 -0.20571629398091257 -0.0008227230546328089 -0.0017091205607260888 0.40312552608431024 0.08707925516107796
62938000.0 0.8438118566029573 -0.5294169573231199 0.05890194600406479 -0.22285906039219996 0.0023304658941036348 -0.0021174926054462967 0.4339950243272807 0.07782110554446676
63937000.0 0.8376875301606134 -0.5385664446569349 0.05792622704028958 -0.2446871613486838 0.00033079682609860793 -0.001053640902294082 0.4248050118764218 0.06347402910453334
64936000.0 0.8320928003450967 -0.5417859488975835 0.057720082715464825 -0.2613039177886162 0.0018157899874110307 -5.689568157469914e-05 0.43265464848312807 0.06241439814939249
65935000.0 0.8290560354327821 -0.5537325003117277 0.06057028545392966 -0.27243221523048533 0.0003151896525656406 -0.0020954184104468375 0.4274575346460311 0.04719476182095978
66934000.0 0.8239295698845935 -0.5580387555302845 0.05909632367449323 -0.2858740862708083 -0.003665139048421695 -0.0015098382959226177 0.433882545657142 0.038697378736654055
67933000.0 0.8220290329051655 -0.568110487633346 0.05909195898193615 -0.3057804181517959 -0.0003770086819492436 0.0009449498548536287 0.4415672627949528 0.031535361210139626
68932000.0 0.815599056269856 -0.569902157908461 0.054429208967688054 -0.3186660666530902 0.0021720289302578585 -0.0003681436877740852 0.4448333383291194 0.014886840593664723
69931000.0 0.8076173367195004 -0.5818677324951961 0.05555062922883914 -0.33378970929811486 0.0009908090277018302 0.0005180080614049879 0.4429994248560709 0.006313108691474592
70930000.0 0.8003279278895781 -0.5897594216500269 0.05201892017885341 -0.35318147034536806 0.00040389437740412506 1.2616824195265463e-05 0.43835906301385963 0.0012609793222066446
71929000.0 0.797230355513036 -0.5983502296728549 0.0480657960401574 -0.3730927665080576 -0.001314764719207882 0.0005363086047325921 0.44831014938112285 -0.016804835324551452
72928000.0 0.7908369687491595 -0.6095215500928912 0.04135173336998069 -0.3867748432862465 -0.002771995064385737 0.001400939619512959 0.4644346465222552 -0.02131981237506297
73927000.0 0.7846744789802026 -0.614959686683727 0.0340677890457166 -0.40699992773887284 -0.004397174841335062 2.5812078516111175e-06 0.453810418112766 -0.02791707575797491
74926000.0 0.7800290856470803 -0.6235705411744367 0.024066474088481643 -0.4300703039726278 -0.0012463658486175039 -0.0009320561144394523 0.4558799428917543 -0.033189594558698784
75925000.0 0.7721343154336968 -0.628597557627085 0.014800730729673032 -0.45244507705783216 0.0006972983208880239 0.003837344557566696 0.4670328874190905 -0.050998647907049034
76924000.0 0.7656292226643866 -0.6370559593962898 7.751926721104004e-05 -0.47787479054770526 -0.001708959690293294 0.0018836540079995182 0.4543527873099326 -0.06393402093709658
77923000.0 0.7613608841478118 -0.6405847060886345 -0.014209064418990783 -0.5008390875208294 -0.0011715900254672862 0.0014590910836289705 0.45547472078991763 -0.066324300576686
78922000.0 0.7550502277049147 -0.6549136641479978 -0.027389521284845647 -0.5299214145189709 0.0010733433329511723 -0.00023681038582433207 0.4521119132088805 -0.07943494708631517
79921000.0 0.7452726752888307 -0.6553853442028049 -0.044491679601795266 -0.5554669563753105 0.0014276351334024573 8.8281779772258e-05 0.4528680665017687 -0.09112969070478387
80920000.0 0.741051274927011 -0.6671150919249629 -0.062305417099572824 -0.5849863662727947 0.0013445545317046078 0.002527438493924749 0.46300063041462336 -0.10108628498793149
81919000.0 0.736266347444182 -0.6728438023985976 -0.08245179224209859 -0.6159742239136844 0.0014477587129051337 -0.00015952158271303137 0.45986396590774953 -0.114950505521273
82918000.0 0.7253933797744789 -0.6812005487140761 -0.0944516503358462 -0.647033598440479 0.0012385670374897059 -0.0009699675032412031 0.47399194111564674 -0.11498527835954159
83917000.0 0.7195629870938377 -0.6892236329933802 -0.11786365730191992 -0.6752212306506776 -0.002135109846312325 -0.001642725930482672 0.46603909530437315 -0.1356196112731541
84916000.0 0.7135975124033 -0.6964222345960974 -0.13627790909219636 -0.7153234048271168 0.003872352018885727 0.0006214967604265015 0.45730590077835137 -0.14172837418915332
85915000.0 0.7078470242603103 -0.7031722782176668 -0.15403401287077403 -0.7461177068378194 -0.00010026842726609797 0.0032444735677908646 0.4612133466068349 -0.1520730937303624
86914000.0 0.6997626330429492 -0.7131067354259101 -0.16555139340020902 -0.7843423414990734 0.00041697354893732084 0.0010358983819852292 0.4677743529909501 -0.15370325149748137
87913000.0 0.6912948085154353 -0.7194182170140033 -0.18863906107293463 -0.8129838349300198 -0.0024492509059989604 -0.0006179215454629106 0.45726734727775975 -0.1620621868652915
88912000.0 0.6859591678605684 -0.7236360633944638 -0.20164625687440169 -0.8502840531978374 0.0014356277683397775 0.0028739526542675945 0.4632638827475278 -0.18008538952864792
89911000.0 0.676340810254691 -0.7338081880307878 -0.22587078084498535 -0.8841248213218972 0.0010703103251516024 -0.001735225092896559 0.4629203399454335 -0.19165593911174342
90910000.0 0.6710364048724498 -0.7369107402079695 -0.2401902957208863 -0.9261531247712297 -0.002520831021319919 -0.0018854889079363939 0.4537111898438031 -0.19586154261242925
91909000.0 0.6606717822360104 -0.7443464569184792 -0.26489202691720204 -0.9588348048546718 0.001636423739058478 0.0004945330581415877 0.4632115603592297 -0.2079033515977259
92908000.0 0.6535125444822042 -0.7529958913894518 -0.2810528701780232 -0.9907788963001257 0.0007814518592688445 0.00064879692537054 0.44723732904731844 -0.20546136261258607
93907000.0 0.6472101117259592 -0.7573556913073746 -0.30249693397171007 -1.0266100394612918 0.002101639629702676 -0.004270148155446507 0.452817458921643 -0.23557437698049027
94906000.0 0.6327190808591068 -0.765761047819623 -0.31831336207048194 -1.055457652550488 0.000649607594259869 -0.0024445659553280425 0.4561881789733304 -0.22507677644527577
95905000.0 0.6263632929230849 -0.7730912071829235 -0.34919022805600153 -1.0962899897176832 0.002447512911396754 0.0005769308652925276 0.467354151835565 -0.24718686998111294
96904000.0 0.618431460583418 -0.7820301935620263 -0.368350461682999 -1.1340884105456337 0.0004878830279831312 -0.002310903650217164 0.44627173667111614 -0.25812375260240195
97903000.0 0.6111741774842703 -0.7830862351117057 -0.38914052589098974 -1.1680596463512827 -0.0022126575249770547 -0.004498425871253455 0.45477842670778934 -0.2718327891281474
98902000.0 0.6048187950062651 -0.793001743990623 -0.41397491736079056 -1.2106906423658053 0.004514405759174891 -0.00395810975271386 0.43642833395120323 -0.27399096880294616
99901000.0 0.5964384159996182 -0.7988750923873309 -0.4475838821517035 -1.242551541562365 -0.0010921431141833397 -0.0005624352444485645 0.45422726658325396 -0.2934639686321058
100900000.0 0.5870868860719323 -0.8027201127661884 -0.4840746142136455 -1.2729510549502328 0.004817768175878972 0.0007194372922581949 0.45079174010653505 -0.30481585890127527
101899000.0 0.5779589830678844 -0.809453780159891 -0.5099796146591722 -1.3153123417075057 0.0004412215062562398 0.0013706963344657982 0.44459527539099014 -0.29367655455281
102898000.0 0.567045978329138 -0.8173058151302673 -0.5551987643626431 -1.3526805895743437 0.0033013137984796203 0.0012727390395411238 0.448906726610919 -0.32374223466280955
103897000.0 0.5582099368086259 -0.8234793424276714 -0.5929451443275852 -1.3907414668421803 0.0005436681676554735 0.003517106317896452 0.46573130015092257 -0.32319286515752677
104896000.0 0.5484748153395506 -0.8313775986224586 -0.6456112541187392 -1.420709088081099 -0.0020177433880975318 -0.0001056521091966084 0.44593828384709183 -0.3092470058133313
105895000.0 0.5399163550410201 -0.8347110374232625 -0.6980519734311352 -1.468771790864019 0.0011556813370683604 -0.0013729829902995472 0.43519487276925545 -0.333290988125019
106894000.0 0.5323128007484242 -0.840767391787032 -0.7574214527254138 -1.5090562213805434 -0.003955708736336404 0.0018255494928573833 0.4317147313793929 -0.34424595581505185
107893000.0 0.5222309850274104 -0.8483501557301093 -0.8120531274244295 -1.547531044135853 0.0021402604484024403 0.0003889995516362253 0.4361003704261266 -0.3610026303494134
108892000.0 0.5126955243479874 -0.850178167794576 -0.874987501207529 -1.5900361483094039 -0.002786673357850968 0.0013920093747685793 0.43077974725864665 -0.35952957921258233
109891000.0 0.49991023977573285 -0.8600224274002215 -0.9386258529281105 -1.6217209100874836 0.00040378766795115756 0.0015253351055540436 0.4386266152730822 -0.341877537091982
110890000.0 0.4830035148804643 -0.8658395908025441 -1.0118952650580353 -1.617894688121921 -0.00194582650414997 -0.0011097887451688754 0.42688449057804756 -0.3671233595318076
111889000.0 0.478058048905689 -0.8663498383687076 -1.071594268787964 -1.6949446179450198 0.0015434176566870947 -0.0017885022559187668 0.42595423168976443 -0.3759109653396433
