! Created with skrf 1.9.0 (http://scikit-rf.org).
# Hz S RI R 50.0 
!freq ReS11 ImS11 ReS21 ImS21 ReS12 ImS12 ReS22 ImS22
1000000.0 0.9929607875385521 0.01656912767493858 -0.015759313836842034 -0.04778027178901265 -0.000604134578600382 0.018524720554548815 0.3415185132680921 0.3781251831882558
1999000.0 0.9986588368046532 -0.012487879940842864 0.012243548329892336 -0.016787726373562045 -0.011170151410253229 -0.006108247261769765 0.24035911656088893 -0.025700300369237192
2998000.0 0.9964455412595111 -0.019731610483938976 0.008636172110919318 -0.010577423330044957 -0.00439214661768274 0.0012414936576471405 0.19194902496595334 -0.1372611892255776
3997000.0 0.9950395540604187 -0.033434246300512276 0.010799735119593451 -0.010866898996338368 -0.0016761123308011905 0.003417026628771892 0.09994044181234021 -0.21791676337242674
4996000.0 0.9948596686073823 -0.03910353571864498 0.013284170140874326 0.002193879954601654 0.003100558890626003 -0.004748645120269575 -0.035576907239455266 -0.2010612213354808
5995000.0 0.9918264735505207 -0.05085277766404077 0.007386973869080687 0.003581679127437172 0.0018166361612295175 -0.0008062949096715683 -0.11783255714467057 -0.1105724426869007
6994000.0 0.9907023093000973 -0.060172791812366934 0.009140017647934406 0.005458862694778795 -0.005900367368413466 -0.002608163711687122 -0.14548218417842265 -0.04314535164262205
7993000.0 0.9901153420604849 -0.06745460465126972 -0.0004746563071185045 0.004127649746002393 0.00043832199942022077 -0.001624357409964094 -0.1504172165808688 0.020013493846752668
8992000.0 0.992244938700899 -0.07029170834891744 0.005992734177098611 0.006236346103579741 -0.001296865501799046 -0.00269815212149788 -0.17278763970785746 0.0695948731935596
9991000.0 0.98902892001196 -0.08306932105016854 -0.0032690191649651502 -0.0020883742139977094 -0.0024871892737867675 -0.0008930172793003789 -0.14756082910053928 0.08263662295133704
10990000.0 0.9880390222391157 -0.09398276058284466 0.0036500701475976954 4.361593123228517e-05 -0.0035334173064379753 -0.003971416368383528 -0.12950619752241024 0.11151330283552031
11989000.0 0.9889928586680478 -0.09613721121710929 0.0012830771846908773 -0.002504836968472346 5.32079481797989e-05 0.0029011734527767306 -0.1300372954975162 0.13828400338322455
12988000.0 0.9878869514978104 -0.11021071602327387 -0.0008700984591437762 -0.004559060066115781 0.0027794583722552807 4.63315379453147e-05 -0.11520242891567196 0.16387296301687337
13987000.0 0.9850927523956415 -0.11569067199467425 0.00207437109159344 -0.006207953116395246 -0.00026872372912865145 0.0022226223825949814 -0.10171282831851379 0.18002248226265669
14986000.0 0.9844388235888005 -0.1235416463023634 -0.0022622202644310167 -0.004827487367782298 0.0025073468450961534 -0.0011371953222232163 -0.09082616374181213 0.20835285353984367
15985000.0 0.9854792226460575 -0.13153033056265945 -0.0012591704381410477 -0.0030348081579255845 -0.0012307543315514902 0.0014563637028459767 -0.06536990517308144 0.22291535654616157
16984000.0 0.983032344869003 -0.14319681246923616 -0.0014242968007059432 -0.006511030644045442 -0.0019344845427576017 -0.0019947857538672948 -0.06353186577779003 0.21114157936816438
17983000.0 0.9822908660737394 -0.14772906689647425 0.0031742524712206352 -0.004657846216756162 -0.0017881826967032545 0.002544320081320563 -0.04625063861009764 0.22922897104896697
18982000.0 0.979109506894703 -0.16176719970813427 -0.0022048570491912745 -0.0031882196941759745 0.002521166135827862 -0.002109308197313708 -0.02051262425919774 0.24548243243980003
19981000.0 0.9783901625309188 -0.16339795802800638 -0.003538348912828598 -0.003162773856772671 0.0008622924043840727 0.0008154840380206927 -0.017695992310053015 0.24576412230307854
20980000.0 0.9789347160611581 -0.17201113692799033 -0.007148782537223733 -0.008562684280620476 -0.004635805802958636 0.0019067130355024686 0.0006556584603032285 0.25645097392364696
21979000.0 0.9744991611818902 -0.18502210856217327 -0.0031093524692931297 -0.004800163825850189 0.006247890967724429 0.0012698452435739938 0.01130333916917162 0.24542513274240413
22978000.0 0.9757189755245678 -0.19061637869366824 -0.004469253067490706 -0.00425925946019081 -0.00039863916142793477 0.0007167113055345459 0.026150449857304164 0.26127355691860715
23977000.0 0.9741934613601648 -0.20040162389836338 -0.005009887770087951 -0.0025775634480499554 0.0009024968849679568 2.9169416148606735e-06 0.03620340918387017 0.24382125619622516
24976000.0 0.9727650154358224 -0.20892534253685988 -0.008435907463245976 -0.003400460431846081 0.0016246230168836177 -0.004660410978488053 0.05830660820743308 0.26255821800984425
25975000.0 0.96991217568595 -0.21648548230804499 -0.0074431302907630136 -0.0030302176304229525 -0.012852071906709867 0.024644395280768384 0.0671132203590273 0.2529514123562876
26974000.0 0.9668011112772199 -0.22566875225013489 -0.004999347080092848 0.0004011153738653202 0.0019010712576423125 -0.0015963480717457194 0.08163817183909257 0.25503974546985964
27973000.0 0.9676450877483985 -0.2328028579987672 -0.005175157342018482 -0.005739383523990378 0.0011459765226585184 -0.0033866458939658113 0.09985264002540929 0.26169848238947824
28972000.0 0.9625039615640427 -0.24353743929532387 -0.0012165381590224108 -0.0026828053258934692 -0.000307602035992305 -0.000169547211697476 0.10326666402435286 0.2521090119398381
29971000.0 0.9618512314336021 -0.2522251743812724 -0.001549975956020539 -0.002797054281464379 -0.0003276111599686456 -0.0007521775742954576 0.16085944123106005 0.26687743128977975
30970000.0 0.9594218581243042 -0.25712673466270947 0.0024678559050633794 0.0009703591590070182 -0.000558430152841584 -0.0013463698824993542 0.1580618988818574 0.24322976867739993
31969000.0 0.9587125644846656 -0.2650273387015688 0.0020105129973529783 -0.004737210545571597 0.00029482946912201476 -0.0005852695548943503 0.14992667212350216 0.2417762586483046
32968000.0 0.9549701349377014 -0.2759696199893536 0.010228774973024749 -0.0034902515318129355 -0.0020415587127831625 0.005331265832310292 0.17227105646241445 0.24604129205140265
33967000.0 0.9534540429916684 -0.2857312800007061 0.012340832613657511 -0.010014532846403128 -0.0024797084581242735 0.0013645153429723458 0.1800908620012837 0.24043881584227325
34966000.0 0.9507312656993235 -0.292341360670642 0.013725795845342966 -0.01667309434903928 -0.0009932410964087251 -0.0005483834458741377 0.1884678629824479 0.25239897655860105
35965000.0 0.947169474023291 -0.30104146067185206 0.016478094846423076 -0.014381459568565538 -0.0021007105090454004 0.003571252457736111 0.2122826345660828 0.24784961983969828
36964000.0 0.9454121873381995 -0.31062129489524903 0.02134969143331886 -0.013478831917939745 -0.003381542410833086 0.000981172471809703 0.21944494516871943 0.2481652853279397
37963000.0 0.9414174737580807 -0.3213014704167308 0.022193202135898128 -0.020190090193091433 0.00013718349596264983 -0.0030275185875595326 0.23236789333616964 0.24477242521066478
38962000.0 0.9399105124987308 -0.3305323948834261 0.023051569310504748 -0.025145106541492244 0.002944005269815319 -0.0012155445140757425 0.24407084739640886 0.23466817693116995
39961000.0 0.938071565227388 -0.3357229163117084 0.02325924797362587 -0.027894849680207653 0.0018573937735677634 0.0032941436877604027 0.246463933916949 0.22891791504201198
40960000.0 0.9333918975847803 -0.3437755620984176 0.02464505344471467 -0.025515685696197887 -0.0004837487366166608 0.0023529719425574936 0.27683904944548365 0.22311680035156714
41959000.0 0.9314945054709315 -0.3536001291847398 0.02888779032423084 -0.031835895643648464 -0.0005614221886551008 0.0014277605010188917 0.27467560986679773 0.21778064577529094
42958000.0 0.9264748887967 -0.3620685129518203 0.03129876196983721 -0.04076835113817423 -0.0005605331512717159 0.00269837830235021 0.2845105818507789 0.19986199787586245
43957000.0 0.9240033943295791 -0.3699634282107033 0.03169674197825203 -0.04700970272852313 -0.0002435362999641565 0.0020588264810526818 0.2842622886665372 0.2085086185989977
44956000.0 0.9196007586863134 -0.3775452086724933 0.03534138101135874 -0.049655055388046564 -0.0017245022006340267 -0.0008549835554982329 0.30335451182336703 0.19040796984476957
45955000.0 0.9163121437982107 -0.38706587663203684 0.033514123750253706 -0.059433156556359015 -0.0024585354572094283 -0.0023972830491712964 0.30118374195806913 0.1977837759300171
46954000.0 0.9126671147515079 -0.39501230328580655 0.03540416931938494 -0.06722670991045392 0.004798854190458413 -0.001082436043246774 0.32102590650389307 0.1789864246342546
47953000.0 0.9101770037971988 -0.40412342971888415 0.03460738592648676 -0.07182059217846373 0.000335415275683757 -3.740041857826309e-05 0.33582608724912383 0.17255015589660852
48952000.0 0.9032421696273643 -0.4146376179603724 0.037976150430332256 -0.08032419785962866 -0.0017377167332731766 8.55052870084651e-05 0.3279439404024798 0.16224899450626734
49951000.0 0.9009378662399977 -0.4201905908988443 0.03711454227966585 -0.08905785057237176 0.0018717145478051981 0.0006181002560874594 0.35048556029867683 0.1538434685877908
50950000.0 0.8977138407573448 -0.4288865139529295 0.0373725358968876 -0.09700452941799083 -0.00015551808993673292 7.961031279671154e-05 0.3441880252211758 0.15096249446914706
51949000.0 0.8917129470019036 -0.4377361997849617 0.04001984369421807 -0.10407745805048448 -0.0024714435739769947 0.006220128753743593 0.3642382333620398 0.1421399238718674
52948000.0 0.8915806611441862 -0.44507786136550953 0.041198334406036825 -0.1153522328228126 3.740770819396787e-05 -2.06654715350255e-05 0.37263030619411913 0.13840668544068607
53947000.0 0.8841595816705228 -0.45441978273420947 0.04278629098877805 -0.12357494407457206 -0.003984303947180362 -0.0011220847937598074 0.3756664668847227 0.11745466352001323
54946000.0 0.8805996269158415 -0.4606706807576113 0.042781330144946665 -0.13247682641609088 0.002031530539719726 0.000635986636060129 0.3859017815452304 0.12286987027020621
55945000.0 0.8771596964165734 -0.4710691897071858 0.04202101520827127 -0.14387764142877182 -0.0023729968161986296 -0.00010121926329374509 0.3853504223611702 0.10170775589318519
56944000.0 0.8735737383188293 -0.4777183388029661 0.04907354955847955 -0.15220358817985025 0.0018381592717694594 -0.003630231580437806 0.40785223976241036 0.10391733093760326
57943000.0 0.8674135227610812 -0.48887231120325414 0.048230678896518185 -0.16329127562775958 -0.00025590451845381454 -0.0008004359737336404 0.4034092262158858 0.09162777444039687
58942000.0 0.8641039724203728 -0.4925207086004927 0.048052049542856176 -0.1749322588993262 0.0016768401901283885 0.0021705662345503744 0.421988715685805 0.08883191572765288
59941000.0 0.8592867663439722 -0.503338772719845 0.05326792499363919 -0.18559350483686662 0.00082168628400866 -0.004263054236309461 0.41694036635281034 0.09044660136607847
60940000.0 0.8517067722179824 -0.5112877875238425 0.04983837784194419 -0.18704599442843892 -0.0007081050625966686 0.0025416239038703126 0.4048722889028361 0.07495441706522998
61939000.0 0.8486522886360828 -0.5171875250136443 0.05470308319426509 -0.19857249304808386 0.00033201045529844124 -0.0008858484729526387 0.40962380214226457 0.06580646065178472
62938000.0 0.8415188459562926 -0.5283013107956385 0.053487618537376436 -0.21186830223393519 0.00016754478245135853 -0.0016951268861496523 0.4395546218051428 0.04873440161218614
63937000.0 0.8366647760067529 -0.534149156921145 0.05604760662654615 -0.23170979372265635 -0.004159563561685683 0.0005536565990735757 0.43634486657760463 0.036769767951571476
64936000.0 0.8312735858819806 -0.5393191062468615 0.05703307009581479 -0.25125619228129664 -0.0004058636498492355 0.00033894973516298426 0.4358461905929504 0.047993103945291694
65935000.0 0.8268462947305826 -0.5522417424410315 0.05387657373005286 -0.26355970945603613 0.003986802639372917 -0.0017398990527008015 0.43844307551342165 0.01362029750563686
66934000.0 0.8234038522827131 -0.5549975927587326 0.05687682241499174 -0.27278959315418083 -0.0015790570925235119 0.0017147980329330894 0.4270316911488964 0.016308490477614696
67933000.0 0.8208378194846101 -0.5650778586440549 0.05538790300411001 -0.2912612979882623 0.002844088635807625 -0.0002263284935352182 0.4483918808246553 0.008634202905775209
68932000.0 0.8130508285796281 -0.5700643172090148 0.05299682812201066 -0.30475067693116953 -0.0010065138530718067 0.0021182399221286396 0.45056616429764595 -0.010991189783946862
69931000.0 0.8044087564503254 -0.5816913531986194 0.04920426055107724 -0.3179866056189029 -0.0009906474196545413 -0.000951569651699653 0.4467020120657563 -0.017658773537392505
70930000.0 0.8001437907455432 -0.5875166299717416 0.05071881505336135 -0.333322490269023 0.0025024646347924584 -0.0016272112959333366 0.443001414128863 -0.03553771402436515
71929000.0 0.7969662896927672 -0.594809845619879 0.04355571813412879 -0.35438833809547166 0.003545640399814612 0.0010086905176546854 0.45175575670385937 -0.042270340888303844
72928000.0 0.7900552378383067 -0.6053233441923883 0.0417069401638509 -0.3674760095728822 -0.0017061010590290057 -2.951218297763323e-05 0.4639507037687184 -0.04555115975033907
73927000.0 0.783439578618846 -0.6103857511684927 0.030778670953775178 -0.38782030680121965 -0.003724642082891759 -0.0023900965532906286 0.4613783713853051 -0.060009543608775445
74926000.0 0.7773456168750839 -0.6200661217717794 0.023336448929707463 -0.4074005055536396 -0.00026813886905921024 0.0024821843196615938 0.4689398496670238 -0.06593944486784174
75925000.0 0.7684428920694775 -0.6261964556829569 0.014633035228300227 -0.4287742827004638 0.00019460428578883766 -0.0011841972643537337 0.45846819458231525 -0.08071235658455495
76924000.0 0.7663330169113204 -0.6319337076787359 0.00039118455804968967 -0.4507902615792088 -0.00042355269079655196 -8.554702616947266e-05 0.46595112490735396 -0.0900953975382283
77923000.0 0.7584936431631768 -0.6389469902597956 -0.011746067508758194 -0.4742238540659039 0.00022925556459795572 -0.0007738195881068614 0.46275540729849163 -0.10034566948806092
78922000.0 0.7525240252842461 -0.6503603358784998 -0.026490018631163424 -0.5060288143418027 0.0009735359197689231 -0.0036652830987801855 0.45550474261448975 -0.10502489975576015
79921000.0 0.7439833156492448 -0.6537248612249317 -0.04500021631595598 -0.5278207939694658 -0.0015501022643681604 0.002464145178698021 0.45874491202139045 -0.11428349194212936
80920000.0 0.738423253984968 -0.6653255635155255 -0.056568578473382376 -0.5561892395484658 0.0010398758741534697 0.001640553048259506 0.45914891650950146 -0.13897779217612727
81919000.0 0.7349686944585866 -0.6703770339196004 -0.07514266976915333 -0.5874072835511694 -0.00035198984403879825 -0.0033183102125656583 0.4664489239033403 -0.1386176141996964
82918000.0 0.724900694833462 -0.67734465977002 -0.08905925149387044 -0.6155297010350935 -0.005598729874254673 -0.0006550379366397461 0.4689992287197474 -0.14539730933302036
83917000.0 0.718047385827096 -0.6853213175524848 -0.1120741729407261 -0.6450156584522985 -0.0026266885378673525 -0.001045515872498007 0.46961900252662875 -0.14901678609772226
84916000.0 0.7118707010581764 -0.6922495104764903 -0.12589776810316552 -0.680478462998383 -0.0035614811216305776 -0.0022295940374805917 0.4674134199460394 -0.173753480984835
85915000.0 0.7049613791544557 -0.6995633008939561 -0.1517152678083712 -0.7093282344668328 0.003927593076262717 -0.0011905421260472741 0.46207017367894293 -0.17568665863209848
86914000.0 0.6970128093904895 -0.7093354779591793 -0.16425683361249638 -0.7458865675768647 0.0009504567478253178 0.005526320217198179 0.45467760397654233 -0.17831522909485473
87913000.0 0.6921668680255042 -0.7142632585068086 -0.18357392461216504 -0.7756339653099825 0.003946000014757807 0.0006968925246552656 0.4549346340081514 -0.190091365568953
88912000.0 0.682590248309001 -0.7212113735060316 -0.19429069379094155 -0.8098092101996832 -0.003152590664297602 -0.0027197591248828644 0.45506523425091044 -0.20482311270255613
89911000.0 0.6764916042298564 -0.729350031665534 -0.21016028023438238 -0.8476395745697612 0.0018413713704033454 -0.0036298598931995855 0.47243938051320145 -0.21987818458706285
90910000.0 0.66990242322377 -0.7355879134542116 -0.23104280643408634 -0.8783582839958085 0.0011180174527532533 -0.0010766938886420446 0.45883134137826975 -0.21275089417677592
91909000.0 0.6605415868668963 -0.7396281901640598 -0.24551620938509783 -0.9151252742582148 0.0029475995366002525 0.0030682101326887606 0.4710411191773769 -0.2131690596900126
92908000.0 0.6518848454027752 -0.7480824390688501 -0.26752742514763383 -0.9493872030546214 0.002014853258916468 -0.0008120897639631277 0.44817851155187344 -0.24818867145006285
93907000.0 0.6478635230268337 -0.7521945876781215 -0.2813050139278762 -0.9794923004041622 -4.4698261093371185e-05 -0.003941991255238427 0.45698419110778477 -0.2513485348625761
94906000.0 0.6358108374953766 -0.7608786854916016 -0.3008489497360663 -1.0137390144157943 0.0019295938396840554 -0.0007756802800396199 0.4604230272528237 -0.2560850123520422
95905000.0 0.6301131611059435 -0.7670532117696108 -0.3214526581933815 -1.0508070364921474 -0.0015570855317406684 -0.003376010569495285 0.4595739622917447 -0.2748169671699075
96904000.0 0.6207297916771248 -0.776076863218118 -0.34086450153547054 -1.0888777284144329 0.0016835702216415173 6.447751559987912e-05 0.4560127132756336 -0.27985929112322633
97903000.0 0.6110113325269036 -0.7827250903763706 -0.36934716159989084 -1.1184547451918223 0.0019895241963970457 0.00112980665427793 0.4418081557065069 -0.2858018337681109
98902000.0 0.6066604391366298 -0.7876666857063027 -0.38224809358322415 -1.1564288577564943 0.00029513950033800766 0.000419831703306493 0.44683133504247746 -0.29662989784773414
99901000.0 0.5961396170611184 -0.7941031777616958 -0.41247363051460867 -1.190374186752257 -0.0022065848383450177 -0.0008199703793497005 0.45205255132743205 -0.30824554346552907
100900000.0 0.5874474746274367 -0.797404480640689 -0.44369753122295147 -1.2171155992060319 0.0007965122792851351 -0.0002634464380875149 0.45299585157788985 -0.3147732843527583
101899000.0 0.5777932504154384 -0.8059699779714892 -0.4738905797252825 -1.2588081440091003 0.001687875873006346 -0.002612591845528702 0.45267734604925963 -0.3208190010688251
102898000.0 0.5669983804775337 -0.8127889064036578 -0.5084509320335743 -1.2948258620100965 -0.00039503614859613613 -0.0037902393488067915 0.45439696195002854 -0.34115903425174643
103897000.0 0.5597978420673049 -0.8198287971410793 -0.551657409358253 -1.3304162593655195 0.0014073886668574667 0.00034969952638967455 0.4559779611080242 -0.3411695378895502
104896000.0 0.5507515468755458 -0.8278921485061889 -0.5973438998680631 -1.3606445541310241 -0.001793244856056925 0.0030291976788954164 0.4377857509518756 -0.3360037834853982
105895000.0 0.5393948222746968 -0.829964015980963 -0.6431887587361196 -1.3995695183989574 0.0003585233807125005 0.0007826697176762875 0.4388698083055748 -0.3614069010891021
106894000.0 0.5309958263841638 -0.8371350862486885 -0.6961920159022709 -1.4418902101373503 0.00023186003343063483 0.0008371470291373821 0.42173228486664177 -0.3725324452865303
107893000.0 0.5246705115227625 -0.8435081819096023 -0.7458833754506249 -1.4850431251456577 0.0032605989633849542 -0.0014145704507633977 0.42808496984877686 -0.36868273155868286
108892000.0 0.5148343592798087 -0.847477244594183 -0.8082834589108527 -1.51921319154196 0.0007338984972104453 -0.002721358994602008 0.4215493604481097 -0.37104905608125416
109891000.0 0.5017395267336858 -0.8550192203062204 -0.869486548643747 -1.5528016515085195 0.0014119691912807067 0.0007071091672882675 0.4338185337831436 -0.3714445324987884
110890000.0 0.49603296317240986 -0.8666284679840598 -0.9381758108199317 -1.5753695818100473 -0.001232947588508438 0.001452021221914896 0.4372995007864764 -0.3860289185914684
111889000.0 0.4833340834619194 -0.8617225873098757 -0.9939672197090864 -1.6226164315215685 0.0014299467000347791 -0.0021284915601570155 0.41520641122743407 -0.39603752826801014
