! Created with skrf 1.9.0 (http://scikit-rf.org).
# Hz S RI R 50.0 
!freq ReS11 ImS11 ReS21 ImS21 ReS12 ImS12 ReS22 ImS22
1000000.0 0.9829388217702109 0.015878211016351975 0.01683896503413839 -0.02948637106307022 -0.0036777233617314147 0.00594520398738134 0.32455305524636774 0.30481648029469827
1999000.0 0.9955730565835644 -0.016790123091236172 0.013037833764964224 -0.014962836833206422 -0.005166734457285217 0.00015321775648284027 0.2658357176186003 -0.038327128048600174
2998000.0 0.9986705642798572 -0.01968312211112576 0.009691265762958172 -0.011506140087562587 -0.003317183446567306 -0.008503787477725431 0.19217460780669232 -0.14683603630697745
3997000.0 0.9999960712671032 -0.030895060119193244 0.012744469767113463 -0.006911996033565913 -0.0029511657400189827 -0.004687121078598057 0.08921158968928262 -0.24564748381929558
4996000.0 0.998686718512222 -0.03772441214359522 0.010549798732318627 0.00016545713997677113 -0.00278315745785389 0.0005537434534947332 -0.038734987972542434 -0.19806271331620445
5995000.0 1.0010370443642258 -0.047740313359830706 0.010545205667844311 0.0024092735852252662 -0.0038313490527622208 0.0028269593532447607 -0.11546695712501924 -0.10942674940474549
6994000.0 0.997870601456588 -0.05516048188791759 0.005306858559579327 0.0023077953026903477 0.004792822800092203 -0.007838008425066684 -0.13592373359539084 -0.013407322159522462
7993000.0 1.0001137284202295 -0.06949556506193443 0.00374208884531268 0.00308953464196251 -0.001997658519475151 0.0046507474455261865 -0.1500892944086915 0.03737320982015226
8992000.0 0.9981893212649914 -0.07292707398474023 -0.0046938962687248335 0.004696813430705023 0.0036879363167182442 0.0027679340195948805 -0.1571150508358716 0.061153560819068274
9991000.0 0.9957558311568359 -0.0842715863857396 0.002826879231614374 0.0030146411672315704 -0.0016276317972058925 -0.0016790135134430325 -0.16075971057925031 0.09068796859824169
10990000.0 0.9959881403914612 -0.09227235447607723 0.0029529684103699583 0.00819329869221531 0.0009802495924826889 0.0005824854921382351 -0.13223659215854333 0.12391940193244591
11989000.0 0.9964369639991051 -0.09911375496996452 0.0051405799923884485 -0.0014512646173443272 0.0028416879532529356 -0.0006411169315484829 -0.12528342162628073 0.12702322492604087
12988000.0 0.99283232129193 -0.10915266286755347 -0.0006675659380395451 -7.425218323485289e-05 0.0007396165350649116 -0.004863633308153748 -0.11569737482299057 0.16701607727721435
13987000.0 0.9930428455964372 -0.11635229645662724 0.0002689529657404828 -0.011643444341702305 -0.0010059767814592875 -0.004493454420205553 -0.08671106632774774 0.18653959998119687
14986000.0 0.9910544832438419 -0.12553306190514685 0.0034820711071916807 -0.0042362701220603136 0.00019600319917889128 -0.0014954720683488674 -0.08642262020140035 0.19821929161061622
15985000.0 0.9937016923834123 -0.1360224709022077 -0.007942681723174796 -0.011317625131680454 0.0005669323373733434 0.0006422151431922152 -0.04823211782713283 0.20881772102901033
16984000.0 0.989342840638321 -0.14575407425762676 -0.0031087545813596362 -0.0010912237723196257 0.0012319718745018114 0.0021768600592221112 -0.05912101427961907 0.21130955685275826
17983000.0 0.9883723824566544 -0.15031990922681188 -0.005785513071175704 -0.005696027033227202 -0.0028695940779172907 -0.0012916463485730194 -0.051616381471485444 0.22468231734357758
18982000.0 0.9878607689667729 -0.16040593440822634 -0.0037392652511492887 -0.003952768942721981 0.0012696564404347246 0.0012482544912647523 -0.024354074080122072 0.24317870056059582
19981000.0 0.9858661834926165 -0.16434860351613176 -0.006394976085744029 -0.0007316005121389518 0.00309684470491292 0.002521400159802646 -0.021822648346079117 0.2348585085972475
20980000.0 0.984822503773654 -0.17558207551453317 -0.006452470225376239 -0.005018912669685847 0.0047988973722206795 0.0005238125635276998 0.0008068437460183826 0.2595720579689954
21979000.0 0.9833039077046949 -0.18539345496990156 -0.007038022649953872 -0.0020773453146832083 0.00024905785097769896 -0.0035942058932308496 0.02669829561082842 0.2515297467467552
22978000.0 0.979856660316881 -0.19302723875310562 -0.007186149589888582 -0.006617333743566526 -0.0014813266346209231 0.001525474758513772 0.032909092794874376 0.2548132552589608
23977000.0 0.9823022529372343 -0.1970411087829989 -0.007095539277714272 -0.0016451082066885495 0.0037529402488285187 0.0034776276053831486 0.047230555459117425 0.25376524649233045
24976000.0 0.9765753645465018 -0.20930996768875346 -0.006346315831193428 0.001001906189093405 0.0025539635242208167 -0.0013362664712734448 0.06522082455174164 0.2525047534662287
25975000.0 0.9737987018498485 -0.21426707809775628 -0.005305454976503499 -0.00014245946069988568 -0.02380338637898138 0.012661084601759982 0.060788130431184605 0.2629652235549243
26974000.0 0.9739794244660288 -0.22642518202228168 -0.004830843009045472 -0.0014432470706557802 0.0004024150069680485 0.0014149066335991593 0.09554429460844946 0.2630773849512227
27973000.0 0.9721206018591888 -0.2334087931568312 -0.0038937808088063113 -0.002358970788706734 0.0017597634618972424 -0.0014816385463976812 0.10397567842211526 0.2531935950091568
28972000.0 0.9693045864429817 -0.24114490598103105 -0.004254450442260732 -0.003029765114798086 -0.00026792642979938834 0.0024680230119032425 0.11270821458692512 0.2531055498692742
29971000.0 0.9672929392302269 -0.2518307454072052 0.002832983511472219 4.909788098798678e-06 -0.0010529633502601925 -0.0015494767528132945 0.1483451354770603 0.2687736456673024
30970000.0 0.9648913125628835 -0.2590447599444465 -0.00177992918797134 0.0008456052888958806 0.0027552104103191247 -0.004070805547390973 0.16893413955780315 0.2551394895657368
31969000.0 0.9615063872171832 -0.2653118359771388 0.0041194171641748415 -0.0020835334626786556 0.000465224971622987 0.0008889791392864013 0.15552817817354306 0.2523101396377455
32968000.0 0.9608431375592545 -0.27653965747119774 0.010283028730663652 -0.005975245205909618 -0.0018451795452475276 -0.001660008768711818 0.16809438975679022 0.24792807172301465
33967000.0 0.9595072546046531 -0.28413631696430763 0.009914515992166544 -0.009618074271447162 0.0026889418254647237 0.0029322945548778756 0.18728749022801316 0.24253643724210158
34966000.0 0.9556375622467657 -0.2942414791290632 0.016399453894060147 -0.012940654561365722 0.0006954146833128396 -0.0001934517702630374 0.1905733776871851 0.26002610311639385
35965000.0 0.9531031654019738 -0.30092043447851424 0.01693473094699391 -0.01511565665536654 0.0005646880410490137 0.002003824121553892 0.2130747117788555 0.25338491350977793
36964000.0 0.9517366939585765 -0.3103108431843764 0.015351538886907023 -0.012662195366277582 0.0005078001316052306 0.004454443952059753 0.2104761672821904 0.25526362449671397
37963000.0 0.9480298605227719 -0.31872053963021213 0.021802120600999567 -0.020248423513682997 0.00239647457952992 9.547379231942075e-05 0.2324569874003472 0.24024545210836942
38962000.0 0.9456417083058364 -0.3278578747604204 0.021967745797920074 -0.0207030187230743 -0.0032096037448403657 -0.0004079436500384586 0.24196013691205523 0.23694009952622938
39961000.0 0.9406388193945184 -0.3365748615153641 0.024844526469119613 -0.027463271452163426 0.0010128129277364622 -0.0006651284133721068 0.24604292802038125 0.2327428545501612
40960000.0 0.9387907109660248 -0.3426173759880044 0.02416499935781 -0.0224538294339082 0.0013769273208818756 0.0016566674364546013 0.26952110858960493 0.23002392394190305
41959000.0 0.936498198638905 -0.35086997317394664 0.032981181249675286 -0.028244671997140765 0.001061169727382726 -0.00018399466890774637 0.26985386143669965 0.2138567657491867
42958000.0 0.9324063735401747 -0.35967750093613043 0.035633140676462484 -0.03820971231953252 0.0023701849478543445 0.002273425118794261 0.28179140336224834 0.20389642864977958
43957000.0 0.9295985242137526 -0.36770217755897666 0.03345009130561393 -0.04368149541872498 0.00466613154837839 0.0032176683566563996 0.2836830569872101 0.20259299554128546
44956000.0 0.9265630680624095 -0.3758682610846182 0.036517342346666065 -0.05252636720111519 0.003987909998510021 0.0022472633320961308 0.3025092760300186 0.1930454327400522
45955000.0 0.9229720707086946 -0.38476265793564796 0.03721083399325562 -0.056875422640068105 0.00030452427853010363 0.002184474037082089 0.300211116831334 0.19413862541978372
46954000.0 0.9195368684701017 -0.39373489275678725 0.03807346273919308 -0.06608404769244447 0.0013985718591095343 0.0007310463520262589 0.33404173195869613 0.18270418504794741
47953000.0 0.9167116125371739 -0.3997645128941464 0.041173418174855474 -0.06985211141725411 -0.0010541480261019522 -0.002738253401251491 0.34026161674672945 0.1791225955676777
48952000.0 0.9103034980028258 -0.4111047666092174 0.04190974670755354 -0.078801586996638 -0.0012061855715491724 -0.0002862628718898 0.3458590716781235 0.15692071128422352
49951000.0 0.9092196763831294 -0.4149035769847706 0.04672067006061868 -0.08529299014764818 0.0013155509918004588 0.0018443838377281531 0.36398095902903377 0.1578585912179152
50950000.0 0.9041170173055997 -0.42514940792552663 0.046770474240040556 -0.09448234230818849 -0.003150803696668409 -0.0009605003815807109 0.3513925878676376 0.15020044650294664
51949000.0 0.9006834937998133 -0.432815595020052 0.04494246637222305 -0.10286305412062001 0.002678675675177186 0.0015278014273177147 0.3617288562825261 0.14961007578547497
52948000.0 0.8994659967228912 -0.44066674577541687 0.04778772170894845 -0.11007385878471826 -0.0005386078830326774 0.0015699430777053856 0.378740307396049 0.14061593008456152
53947000.0 0.8913789341393697 -0.4492965431622651 0.04601783954894588 -0.12008637111715664 -0.001960991973095566 0.0005836757176127502 0.37770045365541105 0.13365533126103385
54946000.0 0.8886481331614849 -0.4560833209739285 0.05026604714818156 -0.13102712570436242 -0.00033604940243492 0.0005473426193054339 0.3930339146522599 0.12337582974845616
55945000.0 0.8839450253414688 -0.4668552016697149 0.05208347520692096 -0.140458181568252 -0.002003923102821914 -0.0028083795111196403 0.38638394130882825 0.10884296220654771
56944000.0 0.8822662975241699 -0.4739432362403678 0.052519290406302335 -0.15087019255790218 -0.0015319509144460445 0.003602775753516714 0.3990523669688857 0.10768922082775888
57943000.0 0.8747691745298241 -0.48455866264097497 0.054132060166570434 -0.1632735319530168 -0.0015940769435373297 0.004809164021748757 0.4017396119625151 0.09763879557480101
58942000.0 0.8708275335003457 -0.4869101179865788 0.05510704634978904 -0.17353322512375607 -0.0027246481624695696 0.0016233735192959136 0.4215819630050293 0.10097786779644395
59941000.0 0.8679073026254056 -0.4974613978375532 0.059434559104434494 -0.18417407713169484 -0.003984803479406273 -0.00066234714765043 0.42976717463873626 0.09237237910678682
60940000.0 0.8600383543529939 -0.5050979848690688 0.0596383063006638 -0.19058409135570106 -0.002056184737412754 -0.0016107575268893962 0.41190787546932445 0.0765725319918149
61939000.0 0.8583674011084256 -0.5123453862018933 0.059296783909827705 -0.19662429637242496 0.00036835497687427845 0.0007462681771427412 0.4194399926702384 0.07619879628281755
62938000.0 0.8512924274489803 -0.5207671690976906 0.062078374928456845 -0.21526936588955692 0.0013809252781108606 0.0016710978731284537 0.44367583084682993 0.06397278332373195
63937000.0 0.8463390803129905 -0.5295781642335353 0.06279832172932259 -0.23716088810666167 -0.0009677929031376551 -0.0008501824672747546 0.4318534704904144 0.03381476468031058
64936000.0 0.8413995381501452 -0.5348766740153494 0.06336075267103301 -0.2531080942931699 0.0003574520646353604 0.0013986491628042105 0.4337802616200822 0.04883405175759043
65935000.0 0.8371982219123313 -0.5461194200720488 0.06450630390132879 -0.2645758656654068 0.0020491738032855683 0.0007325424639958821 0.4586727847673828 0.024053277260425568
66934000.0 0.8328613564290994 -0.5521079952627752 0.06481901373326167 -0.27935698647659996 0.00044335610403854276 0.0015992400402043358 0.4428336018598169 0.01636877729310253
67933000.0 0.8306002531664733 -0.5576290380573724 0.06308525146631859 -0.29179002772231843 0.003884907679431177 -0.002142902785638365 0.45103312817912455 0.010282641304324417
68932000.0 0.8269991775933918 -0.5590905947633655 0.06304659903197958 -0.31206043475734113 0.000368216882452876 -1.3384229206229782e-05 0.4574293330278103 -0.001165987745503562
69931000.0 0.8154982259617731 -0.5760690766350863 0.059205845559171556 -0.327349640141277 -0.001912362662838078 -5.424298807676716e-05 0.4563135345644228 -0.018268364523494847
70930000.0 0.8115948948089879 -0.5808589092576508 0.05818648232808484 -0.3432391417030457 -0.0029316699418725787 -0.0031478138843363712 0.4494151405921262 -0.02863122655859133
71929000.0 0.8083288078949616 -0.5897569985418656 0.05470402187358795 -0.36029097402580595 -0.000626850184549479 -0.0023178332996139483 0.4563015620570996 -0.03554057951484308
72928000.0 0.7995134834906635 -0.5990275106283722 0.04931423422041676 -0.38015862249443183 -0.0005484837819246747 0.0011374859980244176 0.4664489176583962 -0.04471688614607124
73927000.0 0.7958325747157079 -0.6047069784592926 0.04591101780195328 -0.40044717877521463 0.00017031490506148466 0.0005719360747180557 0.45531704952031177 -0.049572961068691246
74926000.0 0.7889360936164965 -0.6174865045514295 0.03559835240369349 -0.4209957559181162 -0.001399719527418905 0.0019504652160605678 0.4650154398911897 -0.05745077836211906
75925000.0 0.7833068625481596 -0.6192896817152362 0.02697078635583453 -0.43785120540501526 -0.0033211923280387886 -0.0036492950508113606 0.4759274014596292 -0.06921568435618392
76924000.0 0.7794487483158313 -0.6279347589343051 0.01853415378124412 -0.46448928570754267 0.00450459937669052 0.0014317421974361793 0.46897212636213736 -0.07921937729732194
77923000.0 0.7724932098058692 -0.6330636914354077 0.003711096070336605 -0.4907304205750004 0.002712104019574336 -0.00012603538097585873 0.4703133312162495 -0.08967628741910755
78922000.0 0.7654007290246491 -0.6450933367610735 -0.00690995417975871 -0.5210382603467079 -2.470428995483159e-05 -0.0006897970388759562 0.47567092608314 -0.10145406312320854
79921000.0 0.7584798519533029 -0.6482366189524437 -0.024588587641376232 -0.5411649606802461 -0.001651542970814728 0.0023301663522917117 0.46503200331052524 -0.10791816550516241
80920000.0 0.7520810630488469 -0.6571222034084043 -0.041202983540918406 -0.5730337352493018 0.002521636866418958 -0.0027090255676934425 0.47969992148423485 -0.1247376735914971
81919000.0 0.745987468725017 -0.6648410779195594 -0.054135645983176287 -0.6002893893814418 0.00047341044121355875 -0.0008023532108254965 0.48670522674940675 -0.12758558944022058
82918000.0 0.7399330066009838 -0.67142915441499 -0.07011098293877588 -0.6300409715441995 -0.0038991923592207344 0.003220652824194909 0.47565515919413154 -0.14244962978191775
83917000.0 0.7307607308589722 -0.6812379127085195 -0.08805522940440229 -0.6623140799534146 0.003218226999064968 0.003810365041762966 0.484168184721125 -0.1476570164700972
84916000.0 0.7262778541567272 -0.6880058616112944 -0.10328957714998996 -0.697271252768373 0.0003714727637300098 -0.0031438539060732115 0.4742156894668001 -0.17076775498766564
85915000.0 0.7192835387082581 -0.6941569101948967 -0.12738379949247788 -0.7283521053747701 -0.0009762854705813214 0.001056127831900953 0.47911778883478606 -0.17618263346614313
86914000.0 0.7112309812155839 -0.7059900677772442 -0.1430913576121925 -0.7678313789509384 0.004140965547505623 0.0010223814984204546 0.46944543029897895 -0.16622810009564123
87913000.0 0.7042984275569046 -0.7096932682686736 -0.15709043144050208 -0.8001628257610053 0.0015554461518114263 0.0020560863027156775 0.4696291781499301 -0.17507123955756185
88912000.0 0.6985487469444968 -0.7156230916112709 -0.17407741893697806 -0.8333013597980262 -0.002066385878891753 -0.0023450103227100633 0.46908867636875723 -0.21116610194727595
89911000.0 0.6925127767340861 -0.7240703117819746 -0.18864215108102317 -0.8762272168110988 -0.002735612405275795 -0.001504678891923849 0.4816740682267192 -0.2045564398862128
90910000.0 0.6829025492140339 -0.7301079278531182 -0.20475800915350328 -0.909116538771292 -0.002001169401057457 8.971478415700891e-05 0.46773495433158346 -0.21009579215784294
91909000.0 0.6748995672124447 -0.7356840141510856 -0.2307338722866541 -0.9400159129613743 -0.00026250386631897503 -0.001213650759251437 0.47560814076072355 -0.21915998902201042
92908000.0 0.6672443481657127 -0.744872813482888 -0.2490498695486197 -0.9754762896671633 0.0011554655199975947 0.00017769932464049523 0.4707635351434938 -0.23232171603016474
93907000.0 0.6618227427895401 -0.748627410970591 -0.2701261572496763 -1.009255813919109 -0.0003182262520157342 0.002310743208975852 0.46448220922049016 -0.24729117574764528
94906000.0 0.6494552885853976 -0.7575394970946782 -0.2881443181760137 -1.049328269738255 0.0010679444018200622 -0.0001862309226368958 0.47704977632457757 -0.24144029226015787
95905000.0 0.6439385059177725 -0.764062965775326 -0.31155894677665535 -1.0872460523650667 -0.0004953387856671195 0.0010654265101816378 0.46309115203790385 -0.2580943229232425
96904000.0 0.6336149041552686 -0.7740507292757433 -0.3364521702962159 -1.126533561997585 -0.0008870137137627387 0.000992709269849856 0.45964406647233824 -0.26026786140008273
97903000.0 0.6273404234155943 -0.7767822244623926 -0.35772599370572794 -1.1617679309497442 -0.00156045509458021 -0.0009313172685474419 0.4683685574668786 -0.2823785673123852
98902000.0 0.6214774698465243 -0.7858421799083849 -0.38437653637719493 -1.2035019197623538 0.0036271557250287575 -0.0003875239508212505 0.4554387072109017 -0.2975749522709574
99901000.0 0.6102513804977872 -0.7907210142228074 -0.4087925355704221 -1.2333480695695376 0.0005308851983640811 -0.0002650841068621999 0.4674727428470659 -0.30504164729433425
100900000.0 0.6018522050639289 -0.7943126074674167 -0.4406839727984511 -1.2679597561908555 -0.0025916492372471053 0.0015985524371682324 0.4643845170954249 -0.3053340880741111
101899000.0 0.5921172282494124 -0.8024225122759414 -0.47196420345138895 -1.3101660814814646 0.0003789287386841265 0.0049209646043880725 0.4581862974044672 -0.30808234271990514
102898000.0 0.5833536710317699 -0.8085460145067549 -0.5137854737804727 -1.3498418217465984 0.003008335344373557 8.826317228512801e-05 0.4578963144199448 -0.3242789623173712
103897000.0 0.5766373953345743 -0.8144298965937816 -0.5548247542958469 -1.387247353987584 -0.0003389688198220968 0.002157530910975186 0.4711515992838591 -0.3344550855006721
104896000.0 0.5672710080603697 -0.8267319798424227 -0.6014805620699172 -1.4278041558869536 -0.002125985939498726 0.0016752613341964643 0.45180685150086514 -0.33166350200447925
105895000.0 0.5576100350119237 -0.8290483556843963 -0.6477507659950524 -1.4783912603667622 -0.0020060020731125267 0.00226109821033237 0.44993056818622573 -0.3526972136147663
106894000.0 0.5477229221993807 -0.8345187728717499 -0.7067548593548623 -1.514366816950995 0.0020174901424861347 -0.00263352084075127 0.4440017681727656 -0.3688108536044699
107893000.0 0.5406062868280651 -0.8401054872139403 -0.7555135439066428 -1.5488142056407623 0.0016783454778218163 -0.00019180187000928794 0.4449603850000801 -0.3826471555239637
108892000.0 0.5293569362331577 -0.843916210223411 -0.8181572705918349 -1.583638703286428 -0.0014901895782472442 -0.0015211891116436841 0.4333789642441273 -0.37400376214108794
109891000.0 0.5181161056654456 -0.8520082312531216 -0.8724957218916429 -1.6247256235379501 -0.001114440946957707 0.0013778242877014505 0.44403127827264766 -0.36706485578376813
110890000.0 0.5163542356219113 -0.8619267131533351 -0.942674657691337 -1.655870494557627 -0.0007649049175233471 0.00021120690373565345 0.4338362379740601 -0.38789526386192796
111889000.0 0.49871202976218193 -0.8599587743633323 -1.0088148703419921 -1.7005593973092705 -0.0005294773957543818 -0.0009031467314950311 0.4312724415606697 -0.4035476883533081
