! Created with skrf 1.9.0 (http://scikit-rf.org).
# Hz S RI R 50.0 
!freq ReS11 ImS11 ReS21 ImS21 ReS12 ImS12 ReS22 ImS22
1000000.0 0.9633478805623655 -0.005672620289280048 0.0077962699989725225 -0.010923682373665072 -0.017733998009781374 0.014838508719850194 0.3864574069717626 0.288401154022763
1999000.0 0.9937078362364209 -0.013567132707048242 0.01167523871122426 -0.020192735782848505 0.003037196417462237 -0.0036307593236339078 0.24378115411806991 -0.04988124884023896
2998000.0 0.9982553337000137 -0.02539946832286718 0.00767366699758018 -0.014077047215106895 -0.009112553626803363 -0.007724469373441315 0.17350570865548864 -0.12180535820708663
3997000.0 0.9961903325508076 -0.03446422631296791 0.013552390553568166 -0.005802291060534307 -0.003046423289012168 0.002249214474225232 0.09094649611962595 -0.20971371442910658
4996000.0 0.9923596288939731 -0.045257663007008175 0.008887586874489047 -0.005027242833264574 0.0024273572468306946 0.00031341253003591045 -0.04088597338733026 -0.20908491342375837
5995000.0 0.9924623595818226 -0.05286311428142479 0.004983411252854818 0.0008547769187156249 0.0013349126767813258 -0.004885993918279935 -0.1182073477526096 -0.11454749954186526
6994000.0 0.990520664435402 -0.06409295716387059 0.007572817380882427 0.005095403568394267 0.0033897714977750362 -0.0025083808647954533 -0.14286508205629397 -0.03110792345831501
7993000.0 0.9915789955212083 -0.06982958359578942 0.005616814610307568 0.002785889714747416 -0.0020203115950662176 0.004448920657602357 -0.1665031532107468 0.027255215654413478
8992000.0 0.9899783479663941 -0.07741218982156073 0.003939117218289378 0.011621162648439105 -0.0001396844722555713 -0.004386000194720319 -0.17479913863045712 0.05978025678106641
9991000.0 0.9873171726158989 -0.0847446142460235 0.003334620411713371 0.004868226306272598 -0.0016345849207713753 0.003693116870515586 -0.14468160361750101 0.09184349573354834
10990000.0 0.9868938443372333 -0.09502049300165037 -0.001918594439558218 0.0031431719059091074 0.0041328520569197166 7.27322129232348e-05 -0.1446574950981702 0.11811338478734269
11989000.0 0.9870594605682845 -0.10095832227036584 0.0034023042887179507 -0.0036683123002508164 -0.0011597989029243625 0.0017239652966563582 -0.12140794232228105 0.13885913621749804
12988000.0 0.9861371475737971 -0.11056757345630266 0.0015347179857580701 -0.0013619231484524714 0.0031593897733852034 -0.0012867400719760752 -0.11745065933083694 0.1737396281069799
13987000.0 0.9828158908728313 -0.11873481368092115 -0.0032821782471658574 -0.0013898289261384876 -0.00045262314458229577 -0.0013699925342455098 -0.10160466863118653 0.19354287714342983
14986000.0 0.9840484557706388 -0.12553126887123006 0.0010103314040138748 -0.003834512616706242 -0.001039920737009152 -0.003025014332071559 -0.08961247959907279 0.20074636806942675
15985000.0 0.9815710851312911 -0.13442946253027938 -0.002765148614299739 -0.0030273730295647793 -0.002480246476373587 -0.0033675468933537364 -0.06777387240444799 0.21873572488888415
16984000.0 0.9814592273892877 -0.14358930501058437 -0.0005392000775945287 -0.005284381447833894 0.001100699069633847 0.0013722882947497523 -0.05793033358278941 0.21360255167161915
17983000.0 0.9831676741474058 -0.14806811350382104 -9.573435532158172e-05 -0.0065330849178727324 -0.000217669465394678 0.0021146074156825883 -0.06001863491566739 0.22264072184149025
18982000.0 0.9776195004642829 -0.1612595917518267 -0.002771717766543352 -0.0011177576204293707 -0.000571628402952035 -0.0002664562173350548 -0.03185674577123228 0.24261233276902286
19981000.0 0.9784132055704206 -0.1663324607147202 -0.0009633783519759854 -0.0038237339051435094 -0.0015764442264093496 -0.0004677546374432077 -0.008307614304488372 0.24109537426456437
20980000.0 0.9747741270891211 -0.17716247931670465 -0.004747373185509868 -0.0023688092291279782 0.004923125025426754 0.0011711544394386335 -0.011176018264510406 0.25351049093604044
21979000.0 0.9742100218895724 -0.18785133733864895 -0.007498750325962278 -0.004495345037111237 8.795787106210564e-07 0.0034648587841075214 0.007712995400825678 0.2472322323841227
22978000.0 0.9714670843403524 -0.19578973672859995 -0.008138746770903706 -0.0038632940168597703 0.00029645070365449857 0.0023096359424677197 0.02030588474844969 0.25942762303616146
23977000.0 0.9735058861233833 -0.20233377510718858 -0.0025269090809758696 -0.004092760700527418 -0.002693551530177976 0.0006845503655691702 0.028474173742504817 0.2649410971611079
24976000.0 0.9677601545887298 -0.21250840448179448 -0.0032486752695249648 0.0010381331121185268 -0.0008068405311944298 -0.001242653348624181 0.050702336187445234 0.26908876797795794
25975000.0 0.9699874539691049 -0.2261511304073752 -0.006157366540830654 -0.002636527176563737 0.025678835605838647 0.009872539252958857 0.07487097044496764 0.26452588083194956
26974000.0 0.9662946320012827 -0.22969373072747434 -0.0032338888489851173 -0.00355231518888875 -0.000358734260022654 -0.0009863686229148812 0.09025542178919876 0.2604262073983796
27973000.0 0.9642664997780894 -0.2347705745248153 -0.003676752672277694 -0.0033661329612180856 -0.001464650231414229 -0.001691640422080959 0.09565890440777292 0.2658123334525781
28972000.0 0.9611690763866836 -0.24440625375380554 -0.0024272586186252494 -0.0025897812214952533 0.0002913374305693169 -0.0014681467370754426 0.11873839064853864 0.2565845034509977
29971000.0 0.9597156318580151 -0.2569068256340627 0.00034479039383017614 -0.002833910571869097 -0.001698791034599476 -0.0011129979454448434 0.1597395409507197 0.27345589580379015
30970000.0 0.9575672221335559 -0.26047622497346135 0.000285454985221732 -0.0020660902132472484 -0.00496845586805846 0.0016231605557231398 0.1706457937359811 0.2512787308651828
31969000.0 0.956672575466218 -0.26976930673231436 0.005737140391493037 -0.0024567623933337795 0.0004671650231272243 0.0014863680456947868 0.1511662620368299 0.2451819118671124
32968000.0 0.9538763618016431 -0.2776478441480515 0.0069890328496283755 -0.006801168457060556 -0.002114596255736443 4.69241937002047e-05 0.16191601144444276 0.24670870846997495
33967000.0 0.951390252594603 -0.28810000733769114 0.012919726128379163 -0.008099521454214243 -0.001473959698502971 -0.0045952220621085366 0.1979019944035634 0.2498986452566159
34966000.0 0.948068044915293 -0.298290730389823 0.01402662010513568 -0.012419449248102891 -0.00021251393596547697 0.0009682394485087153 0.19143335982338902 0.2524613022063557
35965000.0 0.9463588987526483 -0.3062588404481979 0.01760032156152127 -0.014018862202441735 -0.0005591349654898491 -0.0005032600852359198 0.21313217442497778 0.2560620243005215
36964000.0 0.9426870217468941 -0.31494396461429597 0.01763130247278436 -0.01594773696839737 -0.001409064197651883 -0.0005053454973230248 0.21630768210856247 0.25088754036584016
37963000.0 0.9387141725815641 -0.3235712042665563 0.020736427355001478 -0.017957370997190723 -0.0009528491138912822 -0.0046325899432883766 0.226722750971912 0.24121864796845283
38962000.0 0.9364041834683245 -0.33410877192318716 0.023330137489713878 -0.021711170994698725 -0.00043575069506301137 0.0024659735843964555 0.23994761937871817 0.23477625428370263
39961000.0 0.9348939810497768 -0.3426723623899361 0.027182961699652227 -0.026615782404341228 0.00027532148468492303 -0.004330319815692491 0.25003258535676104 0.22516746961498235
40960000.0 0.9308636108348469 -0.3491151559135043 0.024222614528130626 -0.024423886189990224 0.00321932773557568 -0.0004531383196653807 0.2699929886669678 0.21956485823254734
41959000.0 0.9285596658006452 -0.3596026819841506 0.028210894786406853 -0.032289619492342776 -0.0017768924917411716 0.0007269344606894422 0.2727080264912706 0.22124058011864917
42958000.0 0.9224683536176075 -0.37010371051371593 0.03283117569910087 -0.04303786685135275 -0.001980768602592588 0.003018611795508559 0.2862931488535146 0.20236598267628714
43957000.0 0.9217076003508895 -0.37429974727269727 0.03188697084557433 -0.04568736070089289 0.0032369491520623486 0.001815321717124224 0.2797971819194452 0.20681363578578876
44956000.0 0.9175795408425238 -0.382600268259476 0.03277687028400267 -0.05287593990309451 0.0005720894037925607 -0.003631248909729581 0.30354189908898477 0.20024934795013086
45955000.0 0.9129983121737014 -0.3915791470609389 0.03214222721651506 -0.057871834680282244 0.0031438935034745173 -0.002947052449365421 0.312187181853626 0.20117665073832763
46954000.0 0.9105499370995909 -0.4006995742297852 0.03656683033386754 -0.06497229036977337 0.0018304056864818547 -0.004216160968641365 0.3247358670186508 0.1852389186149745
47953000.0 0.9052809084672214 -0.4098345569736188 0.03687264309589854 -0.07114158226953125 0.0007792427547126386 0.0015799944137217254 0.3367979385473438 0.17316018708773573
48952000.0 0.9021912928875501 -0.41863491680805914 0.03538213318067865 -0.07913071148413059 0.0039601616867165354 0.0009776123366076342 0.3322678674092842 0.16181695719326317
49951000.0 0.8972268823717751 -0.424329863749212 0.035198164734583016 -0.08740527110236063 0.00045205609771487124 0.0010011454214467561 0.3535035111922426 0.14972755891871084
50950000.0 0.8933381678072634 -0.4359541553016346 0.0378412652821987 -0.09544054681791311 0.003285478216141757 0.000536239887996948 0.34916443286421645 0.15166185487000375
51949000.0 0.8889663522656985 -0.44179338875702734 0.039513933382060565 -0.10512036972270446 -0.003972864639908761 7.692028795209575e-05 0.3612463508085981 0.14133274434635193
52948000.0 0.8882853585620549 -0.4498027424108057 0.040039465654116625 -0.11273662828354773 -0.0017869329809610923 -0.001795100194210202 0.377714816565026 0.1362448611443704
53947000.0 0.8806116431052966 -0.4610652724781922 0.03944486903884958 -0.12220655680755435 0.002687661064167309 2.353322086001877e-05 0.37133358816726464 0.1267008146257328
54946000.0 0.8755298528479422 -0.4683678186607838 0.04245454674949793 -0.1305385343579998 -0.0002689640737080056 0.00047259201456054524 0.3836491484363976 0.13014943351788738
55945000.0 0.872858600715452 -0.47750224386285667 0.04703358364483345 -0.14151499695302425 0.003920542428952173 0.000515707238197986 0.393954424667275 0.10537694626798774
56944000.0 0.8684776439042168 -0.48524484341781576 0.047820845102300905 -0.15036227925534296 0.005314875043085187 0.0008585011425654789 0.3960668440162254 0.10260014796025864
57943000.0 0.861761533085646 -0.4963496207935261 0.045374323129423 -0.16453333097748526 0.002867569298371572 -0.00254811616539293 0.39849709304644265 0.09431587889626457
58942000.0 0.8570513296039144 -0.5025026482568649 0.04686606221368302 -0.17406625077867102 0.0018727098845604433 0.0009841115227201699 0.41171918790753276 0.09520757024003783
59941000.0 0.8540700921955255 -0.5078707298940611 0.04903985340375776 -0.18261639102801794 0.0030134347205163247 0.0008963444735790479 0.41965007085860156 0.08298741018329635
60940000.0 0.846510748300751 -0.5162292751997919 0.046737287523912686 -0.182882026401495 0.0012074868352395514 -0.0006180349441772466 0.4093895976078395 0.07136448472273371
61939000.0 0.8432965484324811 -0.5227138625776668 0.04864835788310562 -0.19738946942346564 0.0014474803073564364 -0.001765017732691464 0.4145834796096285 0.06874336518372352
62938000.0 0.8371896750951769 -0.5338907351537693 0.052421027503174775 -0.21214580179386391 -0.0005917479794070606 0.0004048116536522399 0.43866516110310044 0.05752118006048687
63937000.0 0.8306781154943453 -0.5429944115759968 0.05433003982008432 -0.23032769319254265 0.00044910060347939695 0.0031186709208075227 0.4332725179721095 0.035141549696449566
64936000.0 0.8245952946844376 -0.5495382330041154 0.05178858528877796 -0.2439595343669662 0.0005048781452607803 -3.197737742599325e-05 0.4385238937256936 0.045756375704557616
65935000.0 0.8205675534046092 -0.5595462655166002 0.05171715279927402 -0.2591148906910341 0.000508936830776015 0.003372439653411854 0.43890563539850547 0.021618978817303874
66934000.0 0.8181608705189359 -0.5613276662357708 0.05226592504098274 -0.2727103145545661 -0.0003161302053698045 -0.0017826294582817385 0.4371598102535863 0.012158445322424822
67933000.0 0.8147424307728734 -0.5717274088884575 0.05319292045492889 -0.2849096252464729 0.0014408280683147934 0.001206190483321876 0.44604057651195683 0.010702471647763417
68932000.0 0.8008399437078018 -0.5795121937242433 0.04733815610089345 -0.2986708200909614 0.0026414761073778868 -0.000544430628668857 0.4689482189312628 0.00017094629687227454
69931000.0 0.8007944582591304 -0.5870139158882571 0.04982107711310092 -0.316770384940402 0.0005641752475859953 0.0011622582345396744 0.4436645564079629 -0.017360271046718216
70930000.0 0.7927211462550728 -0.5969314480139604 0.04590921576885197 -0.3285097306362918 -0.0002606263806028009 -0.0007154450404824147 0.4451218071043283 -0.032545247496632956
71929000.0 0.7882998632688464 -0.6062495203547117 0.04062873210099789 -0.3484298884009742 -0.0034348714366420697 0.004572571782305932 0.44568082008218335 -0.038512175686690214
72928000.0 0.7785012590463831 -0.6129128100547386 0.03596792994002302 -0.36171851876375366 -0.0006483033906806011 0.0005934404735001111 0.45451227574357045 -0.05411274172180331
73927000.0 0.7742267418950771 -0.6170235400700153 0.029089590394273373 -0.37994890947929433 -0.003728586777264671 -0.0030815846921522466 0.4683650637685771 -0.06106735197588566
74926000.0 0.768023765713979 -0.6269494401524885 0.02108912651359528 -0.3974915993073358 -0.0008453060125883578 -0.0019367139875526205 0.46096739114067437 -0.0688541119647224
75925000.0 0.7622031133438908 -0.634470767826919 0.00856835051855186 -0.4195860493005472 -0.002788288612576435 -0.00042066857151156324 0.46672301359463214 -0.07233168936327171
76924000.0 0.7561701990051979 -0.6406650201348904 0.001993378034656303 -0.4402073513011464 -0.00580208392139271 -0.0023941912240287295 0.4666261629067933 -0.08839221443024699
77923000.0 0.7501543868247148 -0.6464389478625466 -0.015922420776094716 -0.4670604199071775 0.00159016695054596 0.0038171251859994535 0.46268629048484905 -0.09832660414338487
78922000.0 0.7450484543539768 -0.6553596583592478 -0.03204039483581208 -0.49449253697009954 -0.001744236589761603 0.0011821005720059582 0.46313667689862603 -0.09834564589903146
79921000.0 0.7353932383627653 -0.6601818253112736 -0.046208640272539694 -0.5181015496726514 -0.00046988948341069366 0.0025507779459176825 0.4526038689307771 -0.10873401135749532
80920000.0 0.7310238561558967 -0.6715031533179595 -0.06005780327845536 -0.5461107853882455 0.0026956091174063193 -0.0013432530334065594 0.46357925241054454 -0.13270965746124364
81919000.0 0.7274625307664732 -0.6763406891433031 -0.07978188402065613 -0.5730134530280372 -0.00040154371204519687 -0.0031369535598572327 0.45929417384267057 -0.1293573160636024
82918000.0 0.7147342065323323 -0.684461419118417 -0.09532114828246228 -0.6062162658681411 -0.0005043591915909796 -0.00173726253730019 0.4723142120652845 -0.14425772633086045
83917000.0 0.7071601113464647 -0.6944436018817192 -0.11223427316180887 -0.6328137565546758 -0.0016378387293348644 -0.0030533131511181026 0.4795147474774077 -0.15494072261570863
84916000.0 0.7021152775141728 -0.6988494560427131 -0.12829070246017316 -0.6661500647919171 -0.002115752724927676 -0.004910797208627242 0.46791709962327327 -0.17106877377868732
85915000.0 0.6952346368269936 -0.70681313680211 -0.15011717215609338 -0.6955326446176756 0.004310837617917028 -0.0011794667573320771 0.465012150857173 -0.1757701049188565
86914000.0 0.6883753688021107 -0.716715848212915 -0.16827319382749756 -0.7320993305939388 0.002161440473608839 -0.003808899440093634 0.4597762318334621 -0.1769099152592146
87913000.0 0.681601319004546 -0.7215759450094376 -0.1806154591194239 -0.760161444670854 0.0008975186845571198 -0.0026057319103775537 0.45891584248386635 -0.18179069095342357
88912000.0 0.6719915485189341 -0.7290541888015767 -0.20270467379886167 -0.7911053259927512 0.0015363355239489168 -0.004736260117735576 0.4693068899409417 -0.20736598120222322
89911000.0 0.6655065461230382 -0.7386247107106454 -0.21600229947851302 -0.8268879862895547 -0.0013888706753995613 -0.0015222240749361332 0.4672066767591289 -0.206446571712128
90910000.0 0.6592579919939653 -0.7416855779082431 -0.23172975949569535 -0.8615869071742369 -0.0030417548783948766 -0.00020313520294860235 0.4632499038885408 -0.20916494516112796
91909000.0 0.6506354409241422 -0.7467444258656687 -0.24933504045694888 -0.8957029224633198 0.0003743173532720303 -0.0014518479969044356 0.46710430507994954 -0.2278559493117908
92908000.0 0.6412059047949484 -0.755242239449762 -0.26464609066413886 -0.9249331536436504 0.0028938608265837986 -0.00018038528613147323 0.457390479720084 -0.2382084964782562
93907000.0 0.6366584808811927 -0.7599989808329034 -0.28548775547957217 -0.9601192476475181 0.003152259858674048 -0.0001619227380829284 0.4616336950758342 -0.2612077225497587
94906000.0 0.6218135188237486 -0.7697521760677443 -0.2996411527102939 -0.9900433449518493 0.005872406356737679 -0.0018135468675903876 0.46083734363118406 -0.24548925282576836
95905000.0 0.6177292833870839 -0.7735293228437301 -0.324383986024625 -1.026724220561576 0.0026851027824001702 0.001937292010216029 0.4611696382104841 -0.2751671719133865
96904000.0 0.6089064318883554 -0.7834165013771357 -0.3426020409254047 -1.063423625840026 0.003600009005115695 -0.004110088995032334 0.45833925499923395 -0.2678572014464931
97903000.0 0.5996158769520945 -0.7877725860170375 -0.36518341619931105 -1.0941666938035541 0.0007978412559997044 -0.002798878937933153 0.4527052276980624 -0.28274266606906967
98902000.0 0.5972247224479176 -0.7950933314209143 -0.38539931668946564 -1.1314851739480696 0.0021931940581546134 -0.0005283625525681192 0.4516198544709937 -0.2855529223271905
99901000.0 0.5842196971907222 -0.8013688864183467 -0.41309399637441324 -1.1617681183366222 -6.650658018995317e-05 0.0015005627055249765 0.4692637261700611 -0.3049709281390439
100900000.0 0.5777955595144105 -0.8040285789680794 -0.44526043566735785 -1.1882433364838683 -0.002287478570042293 -0.001194492191189741 0.46362582261481583 -0.31381586868852784
101899000.0 0.5663166035187953 -0.811507006507606 -0.4730515556353408 -1.2252927312177218 -0.0003838913750860784 -0.0006417985627769199 0.45132227483866527 -0.32537247996020235
102898000.0 0.5570579703953562 -0.8163742983485005 -0.5076547172294852 -1.264411533692908 0.0017323776837747736 0.005323136447514675 0.46342601610808465 -0.33349797335844383
103897000.0 0.5476084181995655 -0.8245514679715087 -0.5494871418428824 -1.2932662955982193 0.0008232042656945667 0.0008343645181137973 0.4524158650732163 -0.3417339507161285
104896000.0 0.5388203415729015 -0.8345183407782372 -0.5930452054371318 -1.3254562192004042 0.0010795923372206497 -5.758578664440443e-05 0.43653796408360485 -0.34038623005453866
105895000.0 0.5308456237758798 -0.836795014226302 -0.6370901559265291 -1.368665241595077 -0.002899561036878094 -0.00013956857496740722 0.43716153170388816 -0.35653406833472506
106894000.0 0.5189842196843242 -0.843171399236628 -0.6954180726330945 -1.4019772922808957 -0.002671002142183524 -0.00095197883970182 0.4468497608022105 -0.3659108807715442
107893000.0 0.5110276250556159 -0.8490288348460355 -0.7423339034508729 -1.4452728820923024 0.00028709830968260693 -0.0010538281958490149 0.44211977675710806 -0.37357429787693486
108892000.0 0.5019647052577285 -0.8512290615342745 -0.8023536471882241 -1.4784496326083467 -0.0011467503527700514 0.0022901929163943293 0.4248592199870982 -0.3620946596843904
109891000.0 0.48931632781704726 -0.8611067960698254 -0.8592463769300139 -1.5157339420665634 0.00015323998961557482 0.00036441610788166123 0.4449058456958768 -0.3668506316999286
110890000.0 0.4789968155814414 -0.8778197222595528 -0.9414685931785097 -1.532824119251285 0.0020226162643430107 -0.0006652550538734174 0.43573291567521627 -0.3867598776116453
111889000.0 0.4703314479205918 -0.8665287831006653 -0.985753334934026 -1.579453654770043 0.00021507824791974008 0.0014534895540924179 0.4295133626425337 -0.4106793725919325
