! Created with skrf 1.9.0 (http://scikit-rf.org).
# Hz S RI R 50.0 
!freq ReS11 ImS11 ReS21 ImS21 ReS12 ImS12 ReS22 ImS22
1000000.0 0.9873686367847447 0.006667673102448106 0.00026381119053419636 -0.025895614969520184 -0.01356662991049066 -0.0013793213098767818 0.2831822969842289 0.32105422735534245
1999000.0 1.0008217085735482 -0.017086648118443994 -0.0047405626266720504 -0.01967779961095753 -0.003101914099201489 0.008104502940166968 0.20510926201428678 -0.011765208540211005
2998000.0 0.9979827620160846 -0.026932425242392338 0.014199864901445902 -0.013835048166185934 -0.00044375573570988564 -0.0021681157185585317 0.19228551651559606 -0.10072616102746311
3997000.0 0.9958536135709958 -0.03487301591488379 0.007113815804003366 -0.0068672222462296895 0.0016168231213274807 0.0014563931047766132 0.07459745444219441 -0.2028738456153349
4996000.0 0.9894617505614042 -0.03927717493916396 0.012421312352006933 -0.004582715680279541 -0.003110920318748754 -0.0025459334369335247 -0.05197177078081023 -0.1800609318100873
5995000.0 0.9903164323756439 -0.05156946982262555 0.005022621073455406 -0.0012652109181403959 -0.004133315737543142 -0.0046412451122062265 -0.13311850738593664 -0.08101770232208719
6994000.0 0.985479427496431 -0.06225410406066895 0.004145748133815766 0.006039585682136076 0.0037060417568811417 0.0044486242686872695 -0.13247011543646933 -0.012278936332536535
7993000.0 0.9877380263934303 -0.06887028124540327 0.0026343249714416237 0.001138301367933416 0.003410460173194546 -0.00011447254204753134 -0.15419048831411192 0.04617790704076695
8992000.0 0.986192026387144 -0.0747876209239119 0.0019354229071891816 0.0032836160760855364 0.0034854827561829303 -0.0033028974562270995 -0.14186989134476083 0.06450330512799912
9991000.0 0.986908126944363 -0.08481573947781768 0.00290896238309415 0.002533705387203335 0.0064969985827642565 0.0015639081677513015 -0.14354249588942858 0.08520296459938101
10990000.0 0.9839977865847005 -0.09510403636760222 0.0021742797937178257 -0.0008837284553947384 -0.004022935669703887 0.005001185324243059 -0.1304672721203832 0.11826222309117093
11989000.0 0.9812929037075362 -0.10043698267686096 0.0038561939406213438 0.0011060365150008524 -0.0008730615831344125 -0.0038551949604525627 -0.12393275194442825 0.14295042224659854
12988000.0 0.9828737106327351 -0.11260921576868543 0.0018498573316535582 -0.0022514161351974843 -0.0013617398869126042 -0.000681394945877388 -0.12305506760042276 0.1773750719516567
13987000.0 0.9805300898077173 -0.11830746547310478 0.004529239511925567 -0.004686103278942138 0.0010984216177193898 0.0018555546186320463 -0.10192707613589198 0.1915417075626822
14986000.0 0.9783106670368196 -0.12693688668772815 -0.0015241200704101299 -0.0016132427391663724 -0.002845533045415907 -0.0021712028790387312 -0.08589208118619339 0.20667052813305137
15985000.0 0.9820139731981493 -0.13187091720915753 -1.855850895230234e-05 -0.004228547519898935 0.0013401810321349334 -0.0018142413484169477 -0.07786340377760834 0.20945321094976113
16984000.0 0.9785879171125544 -0.14192706607026132 -0.0005154372517396258 -0.0053110945182000945 0.0018309352385904674 0.0028301105039534535 -0.058965851008543776 0.21995862193169016
17983000.0 0.9798475177328928 -0.14869984951131746 -0.004062230440221276 -0.005804839342328059 0.001491289601679691 0.001322657849302694 -0.04565706033701067 0.23394507768831674
18982000.0 0.9764492089523422 -0.16100058059940395 -0.0033888530022671477 -0.005099286661291453 -0.0005874316451760168 -0.001969308598307994 -0.0199414051695457 0.23378041396811672
19981000.0 0.9766771766411682 -0.16660609835248022 -0.006006375301175837 -0.004794917693394212 0.000352588339865858 -0.003426312117483554 -0.01578900131344598 0.23991211605745133
20980000.0 0.9742617657624029 -0.1745343859258824 -0.005656746890375116 -0.006395888814100152 -0.0006759189782308384 0.004635064813861008 -0.0037525938028605097 0.25230592180275374
21979000.0 0.9711321196157502 -0.18585303641216164 -0.0023579427967135393 -0.0034754006970026835 0.002011691884551948 0.0014335435139638528 0.022378414228546993 0.24850941066749477
22978000.0 0.9692500410346434 -0.19513967136218613 -0.004925177945693546 -0.0029210178216084034 0.000808610739563073 0.00012033683915439286 0.023832742824390924 0.25881063408798805
23977000.0 0.972247160703522 -0.19917321893502596 -0.0012760214646605017 -0.001264715814966219 0.00047223622014457717 -0.004131626070307496 0.040659315292604956 0.25980300221317026
24976000.0 0.9683297212955905 -0.21051128386289442 -0.008713976535752373 -0.004352088636879661 -0.002076673500965502 0.00011700112472828757 0.060459585739696745 0.25438806523369817
25975000.0 0.9679722085631737 -0.2236767258418538 -0.005424148883518021 -0.002764124639724158 0.023622493492201305 0.01650320421799679 0.0737352611243904 0.2614467978679562
26974000.0 0.9641588866102905 -0.2259776758806166 -0.004260740969791025 -0.0022501470622259866 0.0030490064965770147 0.0005531254818891999 0.0843287791824662 0.26629159367909994
27973000.0 0.964350738194298 -0.23206620678184198 -0.002683570257705162 -0.000592988906402347 -0.001200666057829147 -2.9343506055422424e-05 0.08816245521360287 0.25478125082578085
28972000.0 0.9598411230990517 -0.244236934334165 -0.0030441886661266944 -0.0023002491757906965 0.0033103997267303915 -0.002062122369517229 0.11782611717593565 0.25549761518112585
29971000.0 0.9590762658331347 -0.2536437620296828 -0.001719735302771948 -0.0009164547210723923 -0.0017686198820625275 -0.0006684906603043388 0.1616470342606242 0.26150553086071543
30970000.0 0.956102787663766 -0.25890519165628073 -0.0011962351344046449 -0.00149289927885839 0.004095286143141338 -0.0006100268540839349 0.1726161231165882 0.24839195028261055
31969000.0 0.9543895104121817 -0.26709072147904384 0.0065600616818956145 -0.005326534584345142 0.0013494343616211955 0.0021831854145436193 0.15927737150526808 0.25639826569493956
32968000.0 0.9539063458404013 -0.27612884547872363 0.007057413767439503 -0.0065446757221160595 0.003867214767745939 -0.0006435266481014749 0.16852017688124993 0.24983285457463802
33967000.0 0.9519709551128747 -0.2841019027135883 0.011602607560476486 -0.0086571445510153 0.0012609780648194478 -0.00018173917377714905 0.18677894449397775 0.2525765733192918
34966000.0 0.9472463002598833 -0.2967620902355336 0.017162335779549048 -0.014046371504769855 0.0006565832604704753 -0.0008491048491864594 0.18987367994883078 0.2599774012403559
35965000.0 0.944936513081817 -0.3021321666055719 0.016548562671935687 -0.016429794928209444 0.004101947867989998 -0.002071021567051464 0.21027722216288297 0.25907617635062774
36964000.0 0.9433103941021262 -0.31180153435942437 0.015785976518087257 -0.013343266501887675 -0.0035636526793337087 -0.0016357936645792703 0.20797494268957079 0.25128960351409235
37963000.0 0.9386093442377488 -0.32146780320676455 0.023744156740176863 -0.021720554755068153 -9.141944295825589e-05 -0.0024735671089875857 0.2280157809420353 0.24266016227513276
38962000.0 0.9368871159095556 -0.3305341454731639 0.025181708589037576 -0.024584872890189836 -0.0011585309710636371 -0.002230273405097758 0.24168384353773506 0.23231998665381248
39961000.0 0.9352423115738574 -0.3369068845393158 0.02691100929824985 -0.02759834653017296 0.0038371079507754893 -0.00014287970918407255 0.258001994128894 0.22192386824880764
40960000.0 0.9311082096021563 -0.3467793092911785 0.02352746816707481 -0.022704679400010943 -0.001468028977188912 -0.002764657775970414 0.26441321889660846 0.23906940691509276
41959000.0 0.9275916532321294 -0.35516583809832414 0.027509609087044445 -0.030788459761378156 0.0004903068693860558 -0.0011866169197436234 0.26941571821995236 0.21660839799284612
42958000.0 0.9233490098780772 -0.36437846662800283 0.02969045928931072 -0.04393663964426254 -0.005933645415711217 -0.004268576858650815 0.2812549834683017 0.20907426036517587
43957000.0 0.9215872379363492 -0.36954715872652943 0.03365698000028669 -0.04528712515495217 0.0016934443498762542 -0.001491510077831253 0.28126020078264075 0.20783865715431432
44956000.0 0.9169850762930164 -0.37978006048355273 0.031552357560762766 -0.05172720883333815 -0.0005565549842424467 -0.0039368217302128234 0.29968180632870073 0.19977452179036026
45955000.0 0.9127823247081136 -0.39119723684281316 0.037744986220434616 -0.05537116665873314 7.659142829139605e-05 0.0035444609027017473 0.30246375091295075 0.20045035896368077
46954000.0 0.9096512926295726 -0.3993636913320335 0.03271393459637682 -0.06342865687829106 -0.001718508709586481 2.3603624653633886e-06 0.32010787682654634 0.18923401320481645
47953000.0 0.9067094126369329 -0.4062146321350183 0.03611259943220837 -0.07240648867290048 0.00022247796845046176 -0.0015526521510210054 0.32946966098530117 0.17181521497885663
48952000.0 0.9013387972899763 -0.4195043029455822 0.03703276352887476 -0.07921890056289876 -0.0024921202012034046 0.0019180708643722999 0.33833890156279994 0.17174987364850652
49951000.0 0.8988624834756584 -0.42121703689424955 0.03578710224324664 -0.08820972796937657 0.0007850094328075149 -0.0013449346642763816 0.34817381910321177 0.16388663131898207
50950000.0 0.8943390324441114 -0.432154208989026 0.03564163447644451 -0.09281770773051619 -0.0023397479925365314 -0.0002118742352114377 0.3507556732095998 0.14988417684425664
51949000.0 0.8885856472210294 -0.44037930365740857 0.035647032597300954 -0.10354440770513378 0.001956487497151149 0.0012708476421236467 0.35442180107779814 0.14657284415187455
52948000.0 0.8885900441808772 -0.447585105904594 0.03836496777351894 -0.11438709209953214 -0.0028935741387279704 -0.002422437171070631 0.37483242331693667 0.14478052644728437
53947000.0 0.8797564403341324 -0.45775333554941583 0.04123131370816967 -0.12122042362514042 0.0012347636942862889 0.0011614394808910518 0.3647102578673847 0.1274026555896924
54946000.0 0.8751870608203367 -0.4653111180496984 0.0407541188316688 -0.12870479360852968 0.0022299822339612915 0.0012470583202950085 0.37362910470556304 0.12329930383793511
55945000.0 0.8718321214741722 -0.4734059717323432 0.044145143369359575 -0.1417162677532424 0.00018123214351759535 -0.0003860917781538707 0.38562124251799706 0.10945154055784732
56944000.0 0.8687149590137557 -0.4826386856062502 0.04327549961335629 -0.150336310309833 0.0006096474679032431 0.0006284775819734258 0.39910412894947656 0.10523704109314166
57943000.0 0.8625771282965582 -0.49324938266526286 0.04597075014441324 -0.1601251049050396 0.00014958269055734646 0.0015158981212751814 0.40124009346698464 0.09834316556881553
58942000.0 0.8565750928455841 -0.4997154072285332 0.04495977982826949 -0.17416199537153199 0.0008559229629866204 0.0010694421619854926 0.41763736911623234 0.09852443484248924
59941000.0 0.8534906775362878 -0.5043448758623889 0.04854318994970627 -0.1782190961307647 0.00045316589647508297 0.0023898446365209465 0.41272023670467356 0.09350496752514396
60940000.0 0.8463630830081583 -0.5143138922194552 0.04696434234291214 -0.18623335114242495 0.002255497897927171 -0.0002759046450317802 0.4110160092393562 0.0758086146223729
61939000.0 0.8428766806505306 -0.5210931232261116 0.0485773096728039 -0.19477292830935852 -0.00046335330862868316 -0.00021424073246666307 0.41435678601841913 0.07595312930647433
62938000.0 0.8371605148943412 -0.5312751635751871 0.052060283345941094 -0.20544438445026997 0.00012246096401425413 -4.048365359635365e-05 0.4425946716999302 0.06349711285122361
63937000.0 0.83316285062743 -0.5377092754076078 0.05146120943397131 -0.2303926549175406 0.001470488743947507 0.001060602422863857 0.43679293117137247 0.03762514293940527
64936000.0 0.8275732520617655 -0.5440021836131852 0.05365827108777443 -0.2423682838200595 -0.00040158774108405086 0.00027878714864751087 0.4274509290541129 0.05511084561695389
65935000.0 0.8234549903798896 -0.5532524801918703 0.048895808916401245 -0.25578616360931405 -0.002366419431858276 0.003607224731205911 0.4314442371258145 0.01946345907849763
66934000.0 0.8171066935132982 -0.5603700573172739 0.05245727913461145 -0.2672325947168186 -0.00031680047797478123 0.0017546679708936247 0.4290191017166906 0.01516859177688738
67933000.0 0.8132562029934791 -0.5676339917355452 0.051432114077051234 -0.27954219689114057 0.001476114933474652 -0.003425416159005081 0.4413076529355312 0.01088895558732501
68932000.0 0.8087830267627518 -0.5715703253935439 0.048468159120058626 -0.2954065865489676 -0.0014518960560516033 -0.0010729921039927552 0.44846783279818503 -0.0029624627236732206
69931000.0 0.7977786921611731 -0.5844412363819035 0.04719914860183865 -0.309880991742026 0.004664381771502979 0.0019926232085797687 0.4478332661481524 -0.024458765599230676
70930000.0 0.7923604037960247 -0.5908562957625152 0.04715912697565117 -0.3219356935223779 -0.004078135264281811 -0.0019555522181524915 0.4476112855834124 -0.03065178092386825
71929000.0 0.7906127415391888 -0.6009764424009378 0.04013091513262883 -0.3441874590137005 0.002061787637148627 -0.003430635873566456 0.45104966687748194 -0.026820459571054642
72928000.0 0.7822805747184335 -0.6068231383024194 0.033608353700201446 -0.3559251004812481 -0.00127082570621484 0.0016739892644290029 0.45636835739364234 -0.04289428834050931
73927000.0 0.7769465336022732 -0.6144499404373085 0.03035142272627636 -0.37338776948581665 0.0033933684993647573 0.00025903823282091685 0.4541472282271235 -0.05478659458874051
74926000.0 0.770336468324528 -0.6238534182476629 0.020489137447810394 -0.3944859490929997 0.0035786585110739594 0.00124444375928441 0.45940823655385105 -0.05096004162803298
75925000.0 0.764385685190549 -0.626551681444376 0.009685415381842834 -0.41063328715184694 -0.0004540819472139324 -0.0017707812056655683 0.4673323269730518 -0.06966544815008809
76924000.0 0.7577092150909088 -0.6369240350389666 -0.0019306736268686168 -0.4350183465017959 0.00010458587717551335 -0.0032716186390928004 0.46547000006182054 -0.06992804947550547
77923000.0 0.7515084176931799 -0.6407045508229929 -0.014366617857392409 -0.45655706223602505 0.00139128699139399 0.001850549227169561 0.4615489404959048 -0.0846986618554733
78922000.0 0.7460972194755796 -0.6519332036725914 -0.029261330300980073 -0.48333830929081856 -0.004122402660036702 0.0017181812784227164 0.45391033352486976 -0.10724029580498864
79921000.0 0.7371580988597742 -0.6560852823265 -0.048288435832257046 -0.508806690553774 0.002661678812726913 0.001451948837900513 0.4531401064902586 -0.1130227413886119
80920000.0 0.7320957512480321 -0.6656354701370562 -0.05913532482537153 -0.5337273628200055 0.001785187601865185 0.0035477117178608 0.463366884266369 -0.12318122963859945
81919000.0 0.7264190717460038 -0.6720599431484324 -0.08119908628575832 -0.5614694366671777 0.002361559971244843 0.000631852422797488 0.4604029112581354 -0.12187464098422411
82918000.0 0.7171136591865965 -0.6801721266282601 -0.09036499397809322 -0.5953154609661496 0.0002758334560381939 0.001974290328105526 0.47344820430952417 -0.1410293027852264
83917000.0 0.7104301296752005 -0.6861765851810143 -0.11211774198091526 -0.6211889820844385 -0.0019010909791983806 0.0007946068829500169 0.47633134060083715 -0.14307622925702687
84916000.0 0.7034327997668062 -0.6959578888009191 -0.1273448636301704 -0.6546861462250544 -0.0007509525290234231 0.0033167949825942404 0.46775662385006134 -0.1734386618617436
85915000.0 0.6971155560383967 -0.7022466028955049 -0.1506043185100055 -0.6810123080709605 0.002756124305349254 -0.001581430902778585 0.458996438206309 -0.1656913020979737
86914000.0 0.6882599932875009 -0.7107930994008659 -0.16148132525506145 -0.7186823347194984 0.0031546729100008445 0.0010408517260449752 0.47326610042491496 -0.17758921959847193
87913000.0 0.6822616693569251 -0.7154828749776627 -0.17981070561254725 -0.7461738178602342 -0.0020442119518917427 0.0038881639761644514 0.4552432784680427 -0.17910059141071566
88912000.0 0.6740735277361235 -0.7234283524602677 -0.19990583346047644 -0.7798496942574719 0.0018237360228021493 -0.0023234513079541386 0.4648818752027979 -0.19999077730218023
89911000.0 0.6691471126854412 -0.7305339564748085 -0.20836152140187603 -0.8156595187902215 -0.0008344183532972905 -0.00351434002028555 0.47425247896700706 -0.20641210074665817
90910000.0 0.6606620998735883 -0.7366941165929185 -0.23379939628175292 -0.8487122481661779 -0.00038730620824449567 0.00019933047751729118 0.4654446444541416 -0.21686572095644277
91909000.0 0.6517964905801158 -0.7415082795063349 -0.24830317094267576 -0.8783837857843304 0.0008294826904404511 -0.0007596332487428857 0.46883147453987556 -0.20855321127656123
92908000.0 0.6437215348592485 -0.7498687777741205 -0.26293036219026034 -0.9079490495223279 -0.0024812819654775058 -0.0025286212545171894 0.45731964151964977 -0.23223392444761176
93907000.0 0.639221589522664 -0.7543817313198398 -0.2794504404795412 -0.9394139621486316 -0.00010557324741942646 0.0007342602828763154 0.46329932624686 -0.24071506928567138
94906000.0 0.6250564129580031 -0.7627612363859835 -0.2925087445767769 -0.975807040964615 -0.002588842275409807 -0.0025369460985702817 0.4699455857521368 -0.2530465784417586
95905000.0 0.6206137434873685 -0.769018847266824 -0.31632773709237116 -1.0064876867145567 0.0028024136727476793 -0.004601129668385457 0.45846074282131527 -0.26416710428766077
96904000.0 0.6125114785796658 -0.7786817153889974 -0.3307889259787246 -1.0478099018685794 0.002518203051185536 -0.002484426576496044 0.46482374158010564 -0.2568124197473151
97903000.0 0.6021120430692565 -0.7840144914578848 -0.35581041482565834 -1.0751591677875387 0.002265141066158109 -0.003025034898080368 0.46144244203459933 -0.27873390271394216
98902000.0 0.5985957854674239 -0.7889312825573833 -0.372507838491968 -1.1152246356456812 0.00042967438221802194 -0.00484148370529795 0.45151596948632405 -0.28494470122433385
99901000.0 0.5854112998138697 -0.7948734985016392 -0.4057584138134359 -1.1376837120850436 -0.005601487825916024 0.0005375207101261947 0.4678741747702093 -0.3136396064643233
100900000.0 0.5782561521832879 -0.7998784716931556 -0.4327247126648479 -1.1670473752222421 0.002421583340868134 -0.0006937826077857018 0.46066315186155304 -0.31031853370203294
101899000.0 0.5705122032069999 -0.8060181085074299 -0.457970629978257 -1.2061272997765693 -0.0005287676989157836 -0.0033021611692963 0.45362984225688047 -0.3169508092464786
102898000.0 0.5604295884790158 -0.8135846586767974 -0.49236598553189226 -1.2432984931946989 0.0014021854115997714 1.2602654354526666e-05 0.45894580104253513 -0.32855206808575377
103897000.0 0.5535893172268513 -0.8213057914895697 -0.5280660023579279 -1.2754990316792547 0.001349213783020148 -0.0010630074403824561 0.4629112060326206 -0.3389998994829123
104896000.0 0.5431998757571285 -0.828682077819015 -0.5738420847502935 -1.305753976158387 0.00013531866748832773 0.002387965555328046 0.4550659333882214 -0.32789513008507293
105895000.0 0.5348690704866504 -0.8307689878767422 -0.6116400332587639 -1.3501114844231266 0.0034844805508385656 0.0033528619077629438 0.44603096615502724 -0.3552173206303613
106894000.0 0.527700372609857 -0.8371776352957704 -0.6643684866147689 -1.3846779671758347 0.0020441423527277356 0.002505637672107585 0.44555254801203925 -0.3557933630929327
107893000.0 0.5180320624930715 -0.8426043083121368 -0.7176926437850264 -1.4188156129384322 0.0024063763522820347 -0.0013646879570355297 0.445027794650343 -0.36221505177815594
108892000.0 0.5077908924263239 -0.8483807664167532 -0.7757226544130115 -1.4543717309596031 0.001282221063719053 0.001183030083410891 0.4393174484632916 -0.36932019712669806
109891000.0 0.4968914361293699 -0.8542952165131749 -0.8304694218587744 -1.490544353804191 -0.0003184466324137929 0.0018094945209821457 0.45409150962913125 -0.3700627957843595
110890000.0 0.4850282747694691 -0.8561492619953325 -0.8912294733994807 -1.4982657433660038 -0.00016355822365580797 0.0029930562750532367 0.4359688543868719 -0.37197463845482603
111889000.0 0.4756403999150597 -0.8616675375071537 -0.9565447749784342 -1.5550225654508865 0.00035761343996624237 0.0006697299929639637 0.4281039343621469 -0.39356972215942965
