! Created with skrf 1.9.0 (http://scikit-rf.org).
# Hz S RI R 50.0 
!freq ReS11 ImS11 ReS21 ImS21 ReS12 ImS12 ReS22 ImS22
1000000.0 0.9841728355100522 0.000806112603608027 -0.005010818659757421 -0.05280157073408542 -0.010007755887455623 -0.0014419473281633037 0.3063203810477261 0.3468058360016103
1999000.0 0.9939896679677717 -0.01207653855866186 0.0023022095463333036 -0.026112000096646597 -0.004108660636935846 -0.003718881810032947 0.2752210041128972 -0.07112223247830905
2998000.0 0.9979970239447751 -0.022227224013179073 0.014017689473027778 -0.012647866392706961 -0.001591898172236578 0.0005503559167355632 0.19040685004728114 -0.14469133165491352
3997000.0 0.9975023257897362 -0.03106213536312461 0.011919295225583326 -0.003840072833981999 -0.004886592826784785 -0.00434446434042397 0.09759211618431717 -0.21774511828869264
4996000.0 0.9942068267977581 -0.03769796516488166 0.011182706089459612 -0.003780846333079787 0.00034785837981203213 -0.0009121454656416091 -0.035906952366882905 -0.203974718068594
5995000.0 0.9932534406474937 -0.0497699694888978 0.012386334996688085 0.004598272316361874 0.0008322295857369493 -0.0009035749138450591 -0.12396659831496837 -0.1075831372623762
6994000.0 0.9956725631981691 -0.05853947330432804 0.006226483363776267 0.0037990328630083453 0.0015724079725316748 -0.001959403629097086 -0.1311317228000615 -0.016995494525839077
7993000.0 0.9947714224570602 -0.07199581476979836 0.003279865460127305 0.007564246972003485 -0.0017221712612469232 0.0008753320077800088 -0.16642925463414718 0.034296519749563506
8992000.0 0.9963011697732311 -0.07441750011994125 0.0015252489303204644 0.0034519028999895522 0.00247778040352447 0.0020334225543182393 -0.1590955377858864 0.06251635100539377
9991000.0 0.9920577128190388 -0.08289026233971931 0.0032602489354782676 -0.0005434752244967776 0.002713283799526739 0.0009218940009186211 -0.14443636100037338 0.08923137366543123
10990000.0 0.993762844650298 -0.09542291404871102 0.0026034906380234513 0.0020941488838008256 0.0026172308221855613 0.0007866392690445168 -0.13303685409865215 0.11186977743579336
11989000.0 0.9919348003054848 -0.10171264477889749 0.0007016392228967756 -0.000626577723409322 -0.0012568111727011694 0.0047058347291286705 -0.13419603521023704 0.12699397459664308
12988000.0 0.9899971016545042 -0.11185063989839897 0.0023892346591838044 -0.0041762697047311075 0.006181401941296301 0.0037431555568314717 -0.11233656475246981 0.16225799069572555
13987000.0 0.9882861625420324 -0.11961492780143909 0.0036020482206846546 -0.00295900710204665 -0.0026576594060946468 0.001702506596285797 -0.10548840803910756 0.1931684898822133
14986000.0 0.9875716429271533 -0.1259324836019812 -0.0016242872680204195 -0.003797962522530569 0.00024034454648902146 0.0013248979201213905 -0.09189839632306922 0.2046152165468104
15985000.0 0.9874239874743259 -0.13467262124983811 0.0005787786367076976 -0.00387339809399186 0.0002166074896622675 0.002131990380617654 -0.06607026305997041 0.21658274926398527
16984000.0 0.9842653827087813 -0.14482497176294026 -0.0009395000547433928 -0.00410558097695529 -0.0021575476650080817 -0.002220545041587352 -0.06605768332533685 0.21318062394994888
17983000.0 0.9864578155547161 -0.15264278087095304 0.00024846478899387896 -0.00421820922860095 -0.0018406637714371735 0.0013958864432749105 -0.04734047414094448 0.2268612210039445
18982000.0 0.9835699882402367 -0.16417358853086148 -0.0033437681095788434 -0.003607854962268235 -0.0016460163542723245 -0.0044257393857374885 -0.024558646674847598 0.22970781160086828
19981000.0 0.981311513772316 -0.16726880443730602 -0.0014652876836042902 -0.005198032700356701 -0.009229317111321113 0.0005208670466292681 -0.028651276962347302 0.24243873518618442
20980000.0 0.9821346714285472 -0.17921931670146418 -0.0067500894211404705 -0.004954379236948612 0.000933735353937875 -0.001805657490561959 0.001547198988033034 0.2575628183866521
21979000.0 0.9790231606015547 -0.18761922585849902 -0.004270597903322344 -0.005622258431078992 -0.0017366100304801893 -0.0029950772917798963 0.00703525051012031 0.2524769760254385
22978000.0 0.9769752047694215 -0.19355851568646348 -0.008834235035797465 -0.0035535089231333804 0.004709086742663442 0.00040691468647790466 0.022517647645119786 0.2496498178847528
23977000.0 0.9789260823509145 -0.1997445040022141 -0.011820183712625233 -0.0028664856845777437 0.001783421811222364 0.0012326789657312817 0.03157985668422222 0.24552196008667734
24976000.0 0.972852842417212 -0.21155187759684668 -0.004515935220315358 -0.0015678396231806606 0.0006726654883107867 0.001772684258469232 0.05039234140506932 0.25693187099415077
25975000.0 0.9675034004912453 -0.21848933536188267 -0.009474541430244765 -0.002917432680675853 -0.02185033089906916 0.0017144662084985563 0.06930128378456549 0.2609231358014293
26974000.0 0.9689489672605213 -0.2310835599729443 -0.004962941816373124 0.000293323950878622 -0.0007016276651244129 -0.0016185933600991525 0.08646599622374378 0.2613604887767
27973000.0 0.9697082562699781 -0.23516893526960242 0.0006632870040399958 -0.0018181158615007589 0.004021818374899875 0.002595945958358481 0.09701069392863394 0.262142855411863
28972000.0 0.9638401296467853 -0.2465247410635857 -0.002097249241198674 -0.0023023201458510466 -0.0006449143259564955 0.000728797663380639 0.10759744508066646 0.25325908169523353
29971000.0 0.96325996893723 -0.25717446469866867 0.002645749501838331 -0.004210832035135363 -0.0024139307390322415 0.0012083670478605648 0.14211912052184683 0.2761977903877885
30970000.0 0.961272440825417 -0.2610242235551044 0.0015723063985278985 0.00048304072994337583 0.0013599559808626803 -0.004560561483262321 0.16338587732723556 0.2550570309774062
31969000.0 0.9589707066318455 -0.26969846786183066 0.0028480915515893645 -0.00574867216643681 0.0011128762260504375 0.002469061555022826 0.14864581453093847 0.24748112050706786
32968000.0 0.9581415644418357 -0.2781176562786903 0.005698641370744621 -0.004672620770203578 0.0008946051573084113 0.001580439902722401 0.16342524202654335 0.24508729888259354
33967000.0 0.9570358023403106 -0.2873249072997989 0.01285713742613005 -0.007210972890290597 0.0036098485850904033 0.00011704544706746537 0.18361799605090448 0.24366292973542367
34966000.0 0.9511962310017739 -0.29936302317089913 0.013158716303259956 -0.008225980948915492 -0.0034153258619814266 -0.0012272329537951715 0.18604018768081768 0.2558851086028379
35965000.0 0.9486663709329375 -0.3043613649840109 0.014407033944043343 -0.011961452322990836 0.0010153002750656075 -0.0034518760555414933 0.21600151418624997 0.25013083779743606
36964000.0 0.9461080066494924 -0.3150872939420506 0.012920985694916851 -0.014543535564702075 -0.00013777236740655045 -0.00025833227873650345 0.21412677939487754 0.24361484943651823
37963000.0 0.9442468726779464 -0.32306072444962747 0.01985689492144362 -0.02000361381472724 -0.0002028646585957021 -0.00040492766803695845 0.21914628036995554 0.23997993362781989
38962000.0 0.9405551606957215 -0.3321416582870107 0.023161306852884513 -0.02448635855341755 0.0014411380041244226 0.0012282775231877673 0.23745265531688042 0.22887818491058246
39961000.0 0.9381933567822105 -0.3423184177950813 0.0278235530473148 -0.025087689931583165 -0.0010282990557282236 -0.0038687707972414756 0.24718165349103408 0.23436488884523285
40960000.0 0.9347835497139313 -0.34736073173895476 0.022461119545690744 -0.02301239930133729 -0.00011630581114592324 0.0006373400284124471 0.2606413510825962 0.22720201035166662
41959000.0 0.9302180483030813 -0.360617119501011 0.03019676762108059 -0.03252043574936318 0.002651060231017722 -0.0008545952953417564 0.26457061246138097 0.2193323581959802
42958000.0 0.9254531484165609 -0.368246049078432 0.03371818499684417 -0.03808097226343615 -0.002957817319638515 0.00282265672254818 0.27578652920185037 0.21120473940420215
43957000.0 0.9253956761913181 -0.3731138039371005 0.03407310756482573 -0.04288945962781316 0.00010136585240276417 0.0014135878412350825 0.28551244095634215 0.20410715779009625
44956000.0 0.9212063989858745 -0.380670453499451 0.035657089839056764 -0.0526797196067845 -0.0009665136047591677 0.0002784174740357357 0.29922825852830914 0.19210623447227154
45955000.0 0.9171989840327193 -0.39117438054446735 0.03525210728504137 -0.05700230567594554 -0.0006931732588793552 0.0006969642394926547 0.295669323778658 0.20012619863793724
46954000.0 0.9142974921119114 -0.40046302311557985 0.0365165061984809 -0.06464001414221926 0.0024023813363544446 -0.0011488518609619922 0.3198036139593525 0.18834852514298447
47953000.0 0.909856414294157 -0.4107027300137893 0.03459175569587682 -0.0730853548818556 0.0015218793883878601 0.0014913068191690778 0.34174667928349617 0.1771850499582378
48952000.0 0.904342448455743 -0.4199076696204438 0.038028273874875625 -0.07807885396691891 0.0016546998149357358 -0.0001384149940455931 0.3374256107162169 0.16820171724981897
49951000.0 0.9011024458013793 -0.4239733331010007 0.039826045700954396 -0.08861466302026709 0.002857550069390146 0.000960806162815567 0.3554274421359469 0.1566779556501109
50950000.0 0.8984299385314851 -0.43402856684821084 0.03796962164247649 -0.09397787751325937 0.0032162423405512823 -0.0024075927712437608 0.34321826873872485 0.15534603200916478
51949000.0 0.8942636946429209 -0.4412612574400712 0.039578696873675406 -0.10207914450083189 0.003128546138079048 -0.003012364284529791 0.35749187181703096 0.15901507862386974
52948000.0 0.8927627627247229 -0.44908836368483224 0.041302087388205906 -0.11272512364946424 0.002427512985068686 0.0007066396209864795 0.36909888588267464 0.1552469933530705
53947000.0 0.8850201295408403 -0.45942012465880727 0.04285134968846496 -0.11749934703595971 0.00236021050926804 0.00015844566092215888 0.3749339246102849 0.13854931860290476
54946000.0 0.8796948030926299 -0.46583744172062747 0.0466427522984718 -0.12859643155960201 -0.0022837814552863346 -0.0018846408641940858 0.3774107695844079 0.12644597441874128
55945000.0 0.8779064625232793 -0.4729806450118884 0.04781352139546105 -0.1406984074201829 0.00010755214145966651 -0.0019408155199967048 0.384022373339598 0.10207739881047322
56944000.0 0.8724636476055518 -0.48273661844924876 0.049001366284318414 -0.1486477379671822 -0.001867517777571556 0.0023785707497264393 0.402692038892811 0.10761900806363504
57943000.0 0.8680579373188361 -0.49238265233735395 0.048185617379029926 -0.15739730125136114 0.0012419374273190367 -0.0003065153634080552 0.41216107946866265 0.09464924148172969
58942000.0 0.862820436029975 -0.5001052296357674 0.05144067442286407 -0.17127346303420998 0.0009913334229658005 0.0010977362855489972 0.40821089631139706 0.08427231489247124
59941000.0 0.8592578667479872 -0.5069699584508911 0.05256348071775651 -0.18180889796795988 0.00042044302207726536 0.002166094494487149 0.4094886850589821 0.10004742029235818
60940000.0 0.8510226043783257 -0.5139216262370478 0.05159509445088697 -0.1830899208704948 -0.000579306739236891 -0.0027812151135602078 0.40643078789666864 0.08852378981772753
61939000.0 0.8485307624340293 -0.5207102666139061 0.05502704410781926 -0.19230880324601918 0.001462504920662197 0.00019648292679167083 0.42105921168346544 0.07235615071124638
62938000.0 0.8435298743873566 -0.531567091046888 0.05491099949704116 -0.2093773763732031 -0.001969720177618102 -0.0030540656240467578 0.44558004191301964 0.04712790776420738
63937000.0 0.8383958100587596 -0.5399145546620465 0.058103869722007304 -0.23061248834936934 -0.0014029125523856265 -2.329538904347835e-05 0.4365100598977671 0.03712263701648607
64936000.0 0.8317057709803686 -0.5472034148431008 0.05573522481224061 -0.24610234654535296 -0.0008865376486393797 -0.0005453105102461896 0.433871581204518 0.04837926313929691
65935000.0 0.8276361438503232 -0.5564368155474321 0.05585549711321557 -0.257651662428162 0.0032196989799472067 -0.00032810876843345155 0.43707638733793913 0.025166243535788103
66934000.0 0.8240843970624966 -0.5623602156475345 0.06025249654813151 -0.2696499808601466 -0.001232424858196613 0.0023685701890590154 0.43527944446898664 0.012629100988604279
67933000.0 0.81995592614795 -0.5693669244097846 0.057080231493409725 -0.2857973106919461 -0.0017445249450894578 0.002151844836241829 0.4492616561804935 0.015001111662807659
68932000.0 0.805492856753644 -0.5631088537537423 0.05507075998329757 -0.29576121967031455 0.0014687796272706492 0.0012576847256425964 0.4435041161003014 -0.010196191156034434
69931000.0 0.8056382465415445 -0.5871021206225245 0.052829580429446424 -0.31505430481245394 2.888562746747703e-06 -0.0009260758350621715 0.4498657604601761 -0.014550519001997074
70930000.0 0.7986476004856404 -0.5942902168137457 0.05156378407500381 -0.3300180695342399 -0.004352715608490861 -0.00023074418483688778 0.4491697025781534 -0.03130644523517776
71929000.0 0.7959789544844669 -0.6012556710275713 0.045749316338226896 -0.34579681071327834 -0.00010816431183846574 -0.004742343744402077 0.459214526069251 -0.03127621968450155
72928000.0 0.7898354910602703 -0.6100784660997154 0.04647590415595565 -0.3607790135984166 0.0014785657973366366 0.0015152611629505575 0.4691925485145737 -0.03666986936490805
73927000.0 0.7838249662742439 -0.6161608270428918 0.03479383143116285 -0.38261227875205134 -0.0021900656103962125 -0.000545887319559508 0.46178117369459104 -0.0477831846307463
74926000.0 0.776967244172788 -0.6241531592193883 0.03203118696780319 -0.4005022993891871 0.0003470281828729505 -0.004608422475859059 0.46436034178914454 -0.05466721450484605
75925000.0 0.7710895186781523 -0.6312955585054398 0.018771836990182797 -0.4189428996575834 -0.0010442440830711953 -0.0011617618130971594 0.45899038699069133 -0.06704638236613077
76924000.0 0.7644910184968953 -0.6380369126434454 0.006507933711515773 -0.44376711141111674 -0.0005128754316032315 0.00031764391414097466 0.46107304309091485 -0.07978302037328104
77923000.0 0.7598463943050261 -0.6438700204596041 -0.011141507952316339 -0.4639140064868795 -0.00013087689701344647 -0.0011554630612997249 0.4594318802947009 -0.08827701134993002
78922000.0 0.7528617242265351 -0.6542950871316766 -0.021646088637695453 -0.4949947781669308 -0.0029745332852850587 -0.0018150342773433441 0.45876552093653017 -0.10453678323840891
79921000.0 0.7444439100531376 -0.6580414234907982 -0.038361484288696256 -0.5187061460464664 0.0007009419729830827 0.0012572677075864086 0.46600306345635606 -0.11383037192810802
80920000.0 0.7397891004408166 -0.6697163576873179 -0.05502569024552832 -0.5453490449968746 0.0016737511641379988 -0.0022265226396663233 0.47377883800182147 -0.11808159314069136
81919000.0 0.7326925849587663 -0.6750268785992459 -0.07098935210608713 -0.576098681144609 -0.001585163620412792 -0.00165188192889801 0.46057119529034146 -0.12508390966797506
82918000.0 0.725535040778767 -0.6829861545384014 -0.08736609498333427 -0.6061660761477528 0.001822767992182071 0.006326969502690569 0.4823166841407159 -0.13891850519101087
83917000.0 0.715959067493711 -0.692551757617823 -0.10853144189987501 -0.6321856987184493 -0.0012330267344804922 -0.0037792118875972507 0.4678509006086956 -0.14523620669665138
84916000.0 0.711940520066473 -0.7000723913592648 -0.11846868798604197 -0.670123551380539 0.006997163528710258 -0.00011983257638483868 0.4674390610161361 -0.16069224174288235
85915000.0 0.7037727018217829 -0.7041902515311242 -0.140753431251557 -0.6949775101540432 0.003719507567499514 0.0017814678789733612 0.47287404834151175 -0.1681260262990523
86914000.0 0.6963064670199338 -0.7150715352684779 -0.15007764859837086 -0.7344103820461582 0.002718395919602532 -0.001986513947921913 0.4606298128803225 -0.17555187277223536
87913000.0 0.6916100164231521 -0.7199465322370594 -0.1711570850595983 -0.760206401810654 0.00498724093957054 -0.0009559855733072319 0.45972498124154676 -0.18229798226107566
88912000.0 0.683231725741248 -0.7272998305112108 -0.1879208192104009 -0.7986180721955219 -0.00339062733370088 0.0009984578012417259 0.4718727362786816 -0.2040627564791523
89911000.0 0.675917232354571 -0.7353444795924812 -0.20530054158517366 -0.8356488081112988 -0.003507566950448432 -0.0006659821339930135 0.4669790667263884 -0.1997944728198237
90910000.0 0.6681920451962419 -0.7403523954830317 -0.21726257259682127 -0.8725312459497431 -0.0002715879151149816 0.0012187106475913376 0.46363264083754085 -0.20891117276729804
91909000.0 0.6586955274576076 -0.7451656779209198 -0.23823472134125076 -0.8988636574300113 -0.0019203203158580798 3.553057019982915e-05 0.46974648103172106 -0.2128227114955424
92908000.0 0.6510216446680261 -0.7545781553104611 -0.2558556722917474 -0.9332298779272651 0.004159566565931724 -0.0009056741601607944 0.4567958983143778 -0.21733425874482057
93907000.0 0.6443180702945219 -0.7590492134828567 -0.27096110350147945 -0.9624008074883669 0.004615809959255374 0.001798205184743638 0.4743337396201831 -0.24233031029141264
94906000.0 0.6312604982565858 -0.7686102629381466 -0.2942222573684149 -0.9926712675674834 -4.1423200661302305e-05 0.000491415828840569 0.45748196137766983 -0.2464678998166703
95905000.0 0.6257256198423644 -0.7727403695536353 -0.3116043395394464 -1.0326174750710861 -0.001575459712870818 -0.002448690771600408 0.4635041987222818 -0.2562642383787005
96904000.0 0.6167284775954697 -0.7831446301653191 -0.3323826785303868 -1.0695801473610875 -0.0032830402000385934 0.002550874813751265 0.4650348607668423 -0.26776094447391613
97903000.0 0.6071043686369855 -0.7871672577711089 -0.35323456959498617 -1.101747896928805 0.0014794386115680532 -0.001123004988680634 0.46230299871219466 -0.2733033808969668
98902000.0 0.602873054133905 -0.7960816012044605 -0.37276523866063427 -1.1433034858563496 -0.0011063076587874373 -0.004667127159367768 0.44942717942680416 -0.2895994047688413
99901000.0 0.5914802409691492 -0.7993788426897959 -0.3997987317828159 -1.1706489721491462 -0.0012006715254897602 -0.002078398249609081 0.4642865538018714 -0.30269098313590703
100900000.0 0.58461757994751 -0.8044346457241365 -0.432961696995261 -1.199712344813949 0.0027916041862336488 0.0032833970670028273 0.46253021921919785 -0.3011611307141757
101899000.0 0.5756426230429991 -0.8116926562697089 -0.4569839503592197 -1.2453590759195046 -0.0008007627475726718 -0.0012275083221126712 0.4603159830005656 -0.3133703887466443
102898000.0 0.5643035729761521 -0.8199052040738299 -0.49406370936201716 -1.276246323135328 -0.00025225210734231376 0.0017418856852014636 0.4618129510041803 -0.33197514507837866
103897000.0 0.5569143862856349 -0.826855642005964 -0.5358944182169446 -1.3125295244404687 -0.001387522371901974 -0.0027343749839353632 0.4562329960973748 -0.3247226811942966
104896000.0 0.547442883806734 -0.8359052017755164 -0.5795411397706085 -1.3470339274771013 -0.0005950739887073573 0.0005531524552561581 0.4460515577833137 -0.33083249105261586
105895000.0 0.5353878796760388 -0.8380107482998027 -0.6314720575362877 -1.3881387711795559 0.002860487581599048 0.0006590296474921503 0.44134994011517203 -0.35210212429398097
106894000.0 0.5269293353797637 -0.8433150571152164 -0.6863328347904553 -1.4228544404180976 -0.0005068952943971728 0.0009251129655334008 0.43611697198217975 -0.35699434393571927
107893000.0 0.5195430382135333 -0.8512200602452054 -0.7365974022233055 -1.4639081218993484 -0.0002622210477175048 0.0009355560282772667 0.4335866604690962 -0.3729196319963012
108892000.0 0.5103760616931529 -0.8536332439142627 -0.7943341369823398 -1.4931062789183902 0.003935944990531251 -0.00025435922514418873 0.4201398577292211 -0.3823636011929874
109891000.0 0.4968456393859854 -0.8620304974814589 -0.8447355665091674 -1.5243111024900513 0.0024154819251902865 9.640430872128245e-05 0.4423416384525591 -0.3743660211251891
110890000.0 0.4810322124649919 -0.8768940465461234 -0.9320557560580915 -1.5370665828450567 0.0008399409817849907 -0.003523735682644637 0.4264437926893803 -0.3897439275700096
111889000.0 0.4765987789487872 -0.8671552228687348 -0.973300689895599 -1.5966035011701407 0.002037792857796922 0.00067553943339812 0.4235170945805634 -0.3954893684336383
