! Created with skrf 1.9.0 (http://scikit-rf.org).
# Hz S RI R 50.0 
!freq ReS11 ImS11 ReS21 ImS21 ReS12 ImS12 ReS22 ImS22
1000000.0 0.9899581924304734 0.014273294088955293 0.0010366196329801229 -0.04750654631938593 -0.00856565842888266 0.0028170385863014766 0.33063548546351196 0.3260665171806327
1999000.0 0.9921042568959615 -0.009281723180650342 -0.0014999168828541012 -0.023791951154267046 -0.0001895307508102777 -0.0005007488362825143 0.2376082387392925 -0.08464295112158712
2998000.0 1.000897898285514 -0.02137613537665123 0.010798606662283262 -0.013614459196137449 0.008945601569368248 -0.007076163153525809 0.20072521495259385 -0.13900281465580114
3997000.0 0.9973089165310974 -0.031147717346997537 0.008925454984149988 -0.007024244014868229 0.0046417013744435185 -0.00733427286308528 0.09510660414892684 -0.22349487889886724
4996000.0 0.9995240241572869 -0.03521152341809577 0.011946157059678868 -0.0033735052398928865 -0.0026604612300621475 0.0021830185036632666 -0.029882500371845526 -0.2130732697495785
5995000.0 1.0020917940665433 -0.04866703525741444 0.01757456302344175 -0.003941382095797616 0.002976971888498034 -0.0010258873464432869 -0.11363055297183029 -0.11676573596871674
6994000.0 0.9976146997039925 -0.06020959730975324 0.008412240872661757 0.006345341858309837 0.0030815674029866097 -0.0020832488510378116 -0.15464143725486212 -0.029074535677127134
7993000.0 0.9985869836006718 -0.06777702775772661 0.0037340832807299324 -0.0009191943737307074 0.0016184768961909537 0.0008715710500682647 -0.1590196892513318 0.03906772190466023
8992000.0 1.0007115399647335 -0.07203271453201952 0.005527688799548166 0.005551914105806192 0.0033315899453666997 0.004813701801070721 -0.16128318569156283 0.042058640777738646
9991000.0 0.9974028417250554 -0.08273940369487896 -0.001515820604764206 0.005840559095837681 0.0005963723817427575 -0.0012538110699317783 -0.14970631252510977 0.08923293727668145
10990000.0 0.9970838380599005 -0.09095403182233251 0.0008012256036490065 0.0017664288787611249 -0.002421356324760353 0.0054945298015974964 -0.14192899645136642 0.10048135327167929
11989000.0 0.9953119850636889 -0.09931726269677037 0.0025039973779183086 -0.004442397991882113 -0.0025440055450823298 1.0593075857273659e-05 -0.1282434971334267 0.13024403802089668
12988000.0 0.9936473103708323 -0.11212782215762016 0.003672998350309906 -0.002709625099883877 0.002594754103688031 0.0037311490780179398 -0.11410871537455286 0.16081778153105236
13987000.0 0.9925305220630546 -0.11808952833439786 0.00300908680831406 -0.00707739840761634 -0.003761505240604709 0.0042680880098942805 -0.10143085081153992 0.1891075266858967
14986000.0 0.9919574223364925 -0.12552252649043225 -0.002493806500461082 -0.001157181442669235 -0.003175182102503601 -0.004045843959724697 -0.08909196650762222 0.1888534946163685
15985000.0 0.9924136765363072 -0.13294773592539988 -0.0010196491777727799 -0.004746183126130649 -0.002658337472294444 0.0006651840487498068 -0.06888543958008142 0.22096179108682784
16984000.0 0.9909938738326054 -0.1444320328848357 0.001087971711513337 -0.004322464377522011 -0.0014631125151798319 0.005195683428118398 -0.07222167671753708 0.21131457459370276
17983000.0 0.9897251699887111 -0.14957808519571578 -0.0015098676065060219 -0.010129852893469073 -0.0010036297354768286 -0.0015195774242093463 -0.04422083957144764 0.2319840946542592
18982000.0 0.9854932433161733 -0.16230849118628923 -0.004098472247587932 -0.0026683408793764588 0.0007035222008109567 0.0016088571789289155 -0.02556685012808668 0.2362868161377777
19981000.0 0.9878183012976692 -0.16762683063992842 -0.0015439028504679834 -0.006227298262032809 -0.0006990053287817191 -0.001003886394797619 -0.02133298261908224 0.23778199776018358
20980000.0 0.9846393251707933 -0.17764268091088006 -0.003675681166657075 0.0005382073133203274 0.0018412290689498849 -0.00428220016307668 -0.00804686394818849 0.25463972429119724
21979000.0 0.9812136205124687 -0.18683886994630652 -0.009859330547747066 -0.006335035547174265 -0.0021879997951909894 0.0014802641468481862 0.0277360140968564 0.24079183246586455
22978000.0 0.9817924935147951 -0.19361243515590854 -0.008057756366567248 -0.003096124226390953 0.00145586470040789 -0.0005268101166513841 0.028731343937982087 0.25146027449869174
23977000.0 0.9813823557568272 -0.20165487310050353 -0.008498368914103967 -0.005937589383090696 0.002961131481715998 -0.003032112075796411 0.028393533207355392 0.26156932662048277
24976000.0 0.978513768629504 -0.21128114743981635 -0.005089824770246465 -0.004464146809356241 0.0041087671659110194 0.0019521113407619797 0.05820143780993664 0.2468145795735456
25975000.0 0.9777907031913116 -0.22610159398518304 -0.006241317528258729 -0.000772936390685772 0.023451808645502427 0.009939463248301571 0.08079810826876865 0.2435465052699963
26974000.0 0.9734119869866834 -0.22871783457053974 -0.002170484509210368 -0.002181345708749034 0.0002320686622125125 -0.0032177895354380927 0.08782914871449171 0.2594244037132546
27973000.0 0.9741108859541088 -0.2349487760208621 -0.001295086626833826 0.0011206324574525685 -0.0007791651173713729 0.0016686906660171189 0.10046528678193996 0.25113785292110496
28972000.0 0.9682438336873196 -0.24780913321240267 -0.0027108047248556658 -0.00041222874291975116 0.0005100804652493194 -0.003118445119181519 0.10837548901144518 0.25045399879724445
29971000.0 0.9670938971102093 -0.25218394539936106 0.004065195108941834 -0.0007434563749544353 -0.0013681991522654974 0.0015842831482534851 0.14408483836468372 0.26485887000140845
30970000.0 0.9649137158012425 -0.25951433219118925 4.728431891415954e-05 0.0008134995345829241 0.0011632469008714063 0.0018081880414970862 0.16404504259837308 0.24582524225737676
31969000.0 0.9638185682948124 -0.2669384363165748 0.004945833145775956 -0.0032030453805938983 0.0027834780014809237 -0.001207325051579632 0.1497721147127013 0.2437620063658105
32968000.0 0.960607159189794 -0.27608110735491087 0.005677668350464527 -0.0071145235574515756 0.0019477592169904517 -0.0010565027239097598 0.15145378633238973 0.2437979444039322
33967000.0 0.9585433476678771 -0.2851206357222489 0.010092599252525234 -0.006707261928598517 -0.0009781718721530116 0.0006578074931001261 0.1819741336897622 0.2387357180604958
34966000.0 0.9552344027669208 -0.2958191950204109 0.014176110397226967 -0.010733771942128894 0.0016733732895251089 0.0007592277834964393 0.19739010217480643 0.24740489726038056
35965000.0 0.9525966549596927 -0.30361922905607297 0.01722134678311071 -0.018933743323121355 1.1833648036166966e-05 -0.00014451158023562027 0.21031222187562887 0.24676884409247504
36964000.0 0.9496226072994645 -0.3109127456663154 0.01673188415436505 -0.01628030182444133 0.0011377323262994846 -0.0019171361976117304 0.20844724658981828 0.2540520524501298
37963000.0 0.9460158089199806 -0.32348019814120776 0.01789819562168346 -0.02012788565294306 -0.0026565370336072485 -0.0011575454892025633 0.22849303299599913 0.23294944152173716
38962000.0 0.9435409657490622 -0.3310323849132091 0.024939474377406175 -0.023770555666595194 -0.0038381997854175934 -5.9128019587826234e-05 0.23882935061241498 0.2393354922176236
39961000.0 0.9417916613576238 -0.3365505837868163 0.026916062372326792 -0.030616049974629553 -0.0013398821758784615 0.0020036272870379863 0.2585316894394523 0.21600632327221947
40960000.0 0.9378902343921319 -0.34582776769928675 0.023058087850627886 -0.0238684288172206 0.001751339050121297 -0.00045318160202752347 0.26913732430238335 0.22073860205082776
41959000.0 0.9346379579642305 -0.3555664998301349 0.030837856363379008 -0.029647240652067523 0.0019033263607967264 0.0010655786178528973 0.26180722314993116 0.20736472583234147
42958000.0 0.9300328381965688 -0.364240458307469 0.030141574917697245 -0.04188954905057877 0.002231411071508102 0.0014638338705437392 0.2826595613109762 0.20266848655991512
43957000.0 0.9280907692423236 -0.37120712191604294 0.032731160371510276 -0.046447208681517936 -0.000588480075000273 -0.0036442978363202794 0.29391982609723194 0.21483809285360206
44956000.0 0.9246993869342888 -0.379566380154184 0.03465367161600816 -0.050712809543446424 -0.0017159551027988783 -0.0021077911529557413 0.308120382583012 0.19430384453710195
45955000.0 0.9209415475910905 -0.38777649417354726 0.03489666901233792 -0.05552899596880295 -0.0030483480548296037 -0.0013292883796289542 0.3101850694668819 0.18435348654372027
46954000.0 0.917575769664299 -0.39739529826354175 0.034313034084584026 -0.06317390759554276 0.002034373332619735 0.0021183632711425284 0.3352191681899841 0.17380218044666515
47953000.0 0.9156035364972656 -0.40318665440053986 0.0337169321268267 -0.07252903655919443 0.0008533372824538053 0.00017201589447011766 0.34269336885042884 0.1719373479932267
48952000.0 0.9105833557676435 -0.4132289409503371 0.03619379109925695 -0.07715097523611317 -0.001868770372611536 0.005462611704757107 0.33394756483222093 0.15570368143248767
49951000.0 0.9058480656065377 -0.4212568578514702 0.03930256885146126 -0.08498826709191185 -0.00020058938802474123 -0.0025617137743785628 0.3539880593328167 0.14544436366798913
50950000.0 0.9023722190858156 -0.42811696317728487 0.037884381846996835 -0.09270155881144038 -0.0017483294960487605 0.0008040890976595116 0.35242883759343135 0.13941351976240596
51949000.0 0.897911939987221 -0.43417462241635596 0.040541719340971664 -0.10114632308259103 -0.0030918975223089154 0.001432955682789942 0.36025872711885804 0.14389967472756907
52948000.0 0.8968624141080211 -0.44381542654163403 0.03797662330310585 -0.10943928309114602 3.173655715475572e-05 -0.0029232480976532343 0.36572440663174316 0.1353251637606967
53947000.0 0.8920800940826672 -0.4518289875809869 0.03994322912031344 -0.12038274989566464 -0.0008134434072857086 -0.0021419220701146945 0.36967791099070063 0.12070668819726453
54946000.0 0.8849017983839724 -0.46139655734499274 0.042613113687545154 -0.12695975588013056 -0.003122292346627755 -0.002321522579319389 0.38532237750007514 0.11695965205137877
55945000.0 0.8840250789348232 -0.46775640998203294 0.04509024701038642 -0.137589409002991 0.005814795513780025 -5.7677447670016756e-06 0.3766337437918523 0.09995045076208182
56944000.0 0.8783345584842631 -0.4766201684625343 0.047368058570160534 -0.14539814933710069 -0.0003142278711412543 -0.00033691304941043065 0.39689714527173686 0.0975306142674998
57943000.0 0.8752303716692427 -0.48734629159738074 0.04965099537735187 -0.16178770739916606 -0.002774702488935561 -0.0011621611106446485 0.40398256543918354 0.09673308308647975
58942000.0 0.8682284257334659 -0.49525618824845324 0.046979319197532635 -0.17273934944805236 -0.0031389078524009 0.0006234668031258512 0.4223629538686839 0.09069340473992574
59941000.0 0.8672716502432293 -0.4998339599650925 0.05249720031313279 -0.17834871858043388 -0.0020437341742627043 -0.002603537212764731 0.4259544223336622 0.08094994608618424
60940000.0 0.8585032995511623 -0.5068700829914576 0.050417005572140024 -0.18249515241884867 -0.00133062136450583 -0.0016010538989117897 0.41167483591762355 0.07781817488098619
61939000.0 0.8551724774950238 -0.513662835291812 0.04866151602836284 -0.189936132249926 -0.00047701195336719075 -0.002126402921255945 0.4152206205624011 0.05972938587273899
62938000.0 0.8501194087129762 -0.5256280673732138 0.05533662971377926 -0.2088264911072589 0.0012392320079643898 0.0013232475482828398 0.44472424291676543 0.05055515502616708
63937000.0 0.8459194185991282 -0.53317536732009 0.053856885889650166 -0.22899192304583407 0.005268632134291795 0.0018264505320451131 0.43236115862018965 0.041554708740372336
64936000.0 0.839300931456841 -0.5384121975899869 0.055650165050868394 -0.24310544371685944 -0.0015859897671304528 0.0017013845746207683 0.4437987010620621 0.034617655550837415
65935000.0 0.8355571912820176 -0.5505796510605034 0.05583503058784838 -0.2563120372177125 0.003561204615977445 -0.0022897956736881438 0.4397433459965464 0.014975614835394621
66934000.0 0.8311462099571189 -0.554661960920268 0.05552523532520328 -0.270151515499952 0.0022546210298957678 -0.000506484724228429 0.42925068851832127 0.005561018543138657
67933000.0 0.8280579793378077 -0.5647991966176891 0.05556549254802242 -0.2832788938906421 0.003922567616454267 0.0001621133408708239 0.4443866066944866 -0.004517672732689995
68932000.0 0.8182008598621072 -0.570922716893371 0.0489488756984467 -0.29496033025996565 -0.0006352912817456831 0.004663639216747681 0.47382389852514745 -0.013943646567193952
69931000.0 0.8143942988367547 -0.579208422092765 0.05371944188357215 -0.3124048572482949 0.0007348673273133399 0.0014789453064205412 0.44848369046268005 -0.02519366132452821
70930000.0 0.8093723444088264 -0.5856499673577726 0.052128102555011 -0.3264299521647244 0.0037323275495682105 0.0011931498579433166 0.4435109737464374 -0.03668296904691452
71929000.0 0.8054383707538985 -0.5950280224588633 0.04789224789198752 -0.34351755270415574 0.00038390790840628125 0.0016551708858870476 0.44864485251125863 -0.042165838641143594
72928000.0 0.7980984590951214 -0.6021454455154442 0.043947147150264425 -0.3585806322119378 -0.0004633566942772487 -0.0017013954532878184 0.4607074943237032 -0.050524469127987456
73927000.0 0.791818385432643 -0.6081015195769883 0.035184888971771036 -0.378261845850998 0.0019164868997599215 0.00316956419470384 0.4588095804255441 -0.06265152188882726
74926000.0 0.7870712088979367 -0.6196629727883864 0.02953704841692025 -0.39483508737733103 0.0007342027134150298 0.001863297423417423 0.45894483259669266 -0.06316872583354614
75925000.0 0.7798198915957704 -0.6239950605073414 0.018617258041893504 -0.41489577014871 0.0029631346538844462 0.0011903249504140049 0.47924877967283014 -0.07600276680557809
76924000.0 0.7738201578576647 -0.6339705546112838 0.011220380196167752 -0.43468721849809827 0.0014836659864318048 0.005562615351397698 0.46221897396661293 -0.08334900206512134
77923000.0 0.7691925956660548 -0.6377741630996955 -0.00594844955933203 -0.45946609766024094 0.0012117944341687005 -0.0017998597771264736 0.4627080637491291 -0.09940618786842148
78922000.0 0.7617794642356631 -0.6502985562884375 -0.017594055736802082 -0.49094872242189436 -0.00016733438869766834 -0.0013888394998804495 0.4742636961995142 -0.10462458501315515
79921000.0 0.7561840200696233 -0.6555739312643111 -0.03583486662837276 -0.5134266738233286 0.0011511840453588531 0.0019827286352678787 0.4559079401264713 -0.1201965162500056
80920000.0 0.7505360662201025 -0.6637043466611123 -0.052170413113619675 -0.5389968242406946 0.0032843970194531484 -0.0033221831385863237 0.4622637393527736 -0.13662512250530995
81919000.0 0.7439084285168022 -0.6681091080315115 -0.06645065440400375 -0.5663415380450914 -2.602275853933595e-05 -0.0005133685985835553 0.46564252361855957 -0.14094992862410097
82918000.0 0.7341842552449974 -0.6772005686998118 -0.08298812142524294 -0.5967651913670143 0.001529575536154453 0.002321895488345205 0.4650689558069702 -0.14340816399917558
83917000.0 0.7262777001278158 -0.6867704824969187 -0.10098389958796605 -0.6231040236886676 -3.2336928559048835e-05 -0.0010218624535388151 0.47645353068196555 -0.15714575664232658
84916000.0 0.7213281096090478 -0.6930279956111712 -0.11908833596943863 -0.6584932530679644 0.0015175153172541395 0.001528604627625819 0.4632350700229002 -0.16914916868219831
85915000.0 0.715305269534486 -0.6973465614894764 -0.1343608059741755 -0.6940858697841139 0.0019717214711666526 -0.0016469951619359458 0.4540952678583303 -0.186404622948765
86914000.0 0.7086240715480782 -0.7103028681419105 -0.15500205447692056 -0.727771214844977 -0.00036711879996058686 0.0019121212648983586 0.4660424408548851 -0.1781041210135828
87913000.0 0.7000198592732163 -0.7141601475419266 -0.1703483351170342 -0.7556784717463206 0.001057594688906541 0.0018114225929353638 0.46113859625353953 -0.1965747234394979
88912000.0 0.6945229285725929 -0.7209682737818279 -0.18704523430554873 -0.7914490232614999 -0.0015236024294677838 0.0001975955836142762 0.4641776221474607 -0.21043387012914339
89911000.0 0.6848914497278761 -0.7318677646779151 -0.2045559065545082 -0.826847850232232 -0.0011499066083934693 0.0014109577261466864 0.4690088998332648 -0.21535102693553732
90910000.0 0.6781990313073143 -0.7362123891152746 -0.22195597862519248 -0.859066323356662 0.004558229087602248 0.00048733897417791046 0.4714133092101607 -0.22114674530167844
91909000.0 0.6707556405315152 -0.7391820801400402 -0.23609444357630044 -0.8890464921146685 -0.0003165643462949376 -0.0017337768137851133 0.4685803236223067 -0.2298474431748465
92908000.0 0.661485110079457 -0.7499895035913294 -0.2545180469981109 -0.9203969236542826 0.0004927622955941522 -0.003195435956454421 0.45583471188633046 -0.23928204886390053
93907000.0 0.655814049681078 -0.7545368230503431 -0.27380730400008607 -0.9524613068026462 -0.0007408591014561594 0.0012180271013235182 0.45341929485260274 -0.24966854103064023
94906000.0 0.6413025760742278 -0.7624514189904555 -0.29566200874569915 -0.9885939778637427 -0.002925803957408512 -0.0020024975906633917 0.45455334496393723 -0.24997122849459275
95905000.0 0.6376956675430746 -0.7696103034275156 -0.3169403597211462 -1.0212861872975814 0.002287113325630109 -0.0023050189793199496 0.44860901340089704 -0.271466651273179
96904000.0 0.6310888507003891 -0.7775721663322717 -0.3326323887853272 -1.0653506675808522 0.0012066242559361342 0.0015086140228655473 0.45292645888326605 -0.2838913754756651
97903000.0 0.6211310992018119 -0.7825198066019473 -0.3530780899498417 -1.093475640091434 -0.001997588029742882 0.001593650825566238 0.44709021547814265 -0.2857834677823544
98902000.0 0.615025150886407 -0.7888180938918378 -0.37178288628337564 -1.1340780113567155 -0.0010936436278747204 0.002023465193186683 0.44703650121176103 -0.30300850537624724
99901000.0 0.6056268414656 -0.797025212723789 -0.40186395429465915 -1.1617758810986996 0.0004264645006636421 -0.00420465273176315 0.45358212262519515 -0.31880577283327616
100900000.0 0.5975827873251685 -0.7984958409263522 -0.4315496153067408 -1.1931283726060677 -0.0007621669628014348 0.0002810858781565452 0.4538999564806806 -0.32346392311792094
101899000.0 0.5887393131394151 -0.8075268063025088 -0.45405272038355426 -1.2258670134302063 0.001301670375925962 -0.0029630712933435745 0.44507820948512106 -0.3301638832254653
102898000.0 0.5763484672537522 -0.8145929380244163 -0.4926928895914838 -1.2639713403910684 -0.0016308884191919473 0.003871245117962126 0.4482812460141108 -0.3398313609925316
103897000.0 0.5693334737652715 -0.8214926192068733 -0.5274280625156161 -1.3044453955053172 0.0006257682023179508 0.0016396685862001994 0.467718105332445 -0.33132215088826744
104896000.0 0.5610133919812147 -0.830420517493837 -0.5708206067180537 -1.3356097605105441 -0.0012587977613059663 0.00100855925980137 0.4302061590099583 -0.3421391708572676
105895000.0 0.5511062917858828 -0.8335047969832049 -0.6142131770317173 -1.3754765239947224 -0.0029558337893381102 0.0014197687085603455 0.4353938048442 -0.37127769777255776
106894000.0 0.542965136139052 -0.839133857356799 -0.6691235030680778 -1.4091401013887528 -0.0028125409229262602 0.0022677129526166005 0.4317027192981771 -0.3690936764827587
107893000.0 0.5335572235418439 -0.845524804217664 -0.719202416413843 -1.4425733872318212 -0.00023426690611560473 0.002795831102525743 0.4311989964327355 -0.38461511505062007
108892000.0 0.5242024195984646 -0.8469118876530871 -0.7794889101693743 -1.4790009160237059 0.0012207538510693508 -0.0014709108982189742 0.4190648183037195 -0.3892707720315906
109891000.0 0.5102729453889976 -0.857826386190724 -0.8315926179985764 -1.5150702252170603 0.001786959701622506 1.4459146800701545e-05 0.42455820645813624 -0.38770810918789217
110890000.0 0.5072554384122584 -0.860060191699504 -0.8897132908060238 -1.528333812314285 0.002205583716340962 0.0004977590083570465 0.4294421432892204 -0.39284642098937433
111889000.0 0.4927948815324483 -0.8624656891659055 -0.9519906603488761 -1.5855814935248551 0.002056649122722907 -0.004552888979549479 0.41301062715600184 -0.4110841347074903
