! Created with skrf 1.9.0 (http://scikit-rf.org).
# Hz S RI R 50.0 
!freq ReS11 ImS11 ReS21 ImS21 ReS12 ImS12 ReS22 ImS22
1000000.0 1.0019385562504601 0.013851606585284308 0.002230025184826708 -0.035066239855756395 -0.006486238608266903 0.0038542349978987825 0.30949610011529566 0.3349890398676096
1999000.0 0.9963727309802265 -0.011903653315485667 0.0016558543977093212 -0.020656349716636446 -0.012983519258806418 -0.006850702727910677 0.26219930099306843 -0.061671670909310784
2998000.0 1.0027420566963068 -0.019088014899949407 0.005531293364019862 -0.011987113744815715 -0.0018537480733189246 0.0026226717654266947 0.18975333017849716 -0.13381899883114592
3997000.0 0.9987228029255653 -0.029937992885172033 0.009077364597263183 -0.008147170501306143 0.0023476531974627917 -0.00015790971308545561 0.07494572337969344 -0.2329435652948037
4996000.0 0.9978124104337104 -0.0376539350278095 0.01807158116214035 -0.0027227831983237315 -0.010802923590393547 -0.004355506874362456 -0.03937952288293284 -0.22192257964775142
5995000.0 0.9973089427992516 -0.04772996535342329 0.0083307855215136 -0.0023540538407265414 -0.002608678533421071 -0.004369317074299837 -0.11380298255308208 -0.12454668636307789
6994000.0 0.9956417664499203 -0.058213924457060265 0.006237826581384018 0.0028438418279818174 0.003200703550214677 -0.00567685117140155 -0.14917878405407076 -0.04404189341648393
7993000.0 0.9979160846857018 -0.06720708574673585 0.004981621466148349 0.004973656209692219 0.0034395732752461943 -0.006458430736921483 -0.16568265869222282 0.029055364697700807
8992000.0 0.9959826281055493 -0.06775713673269636 0.0022441837286893912 0.0017403539263856022 -0.0020856548324334977 0.003515792840320203 -0.166830038582298 0.05694660868637356
9991000.0 0.9955431682939666 -0.08255083516701091 0.004410648338812223 -0.0010052438306366186 -0.0024248642610165193 0.0023862914481983986 -0.1582270721667477 0.08662675354957508
10990000.0 0.9925781735759595 -0.09293232895829347 0.003743022479979626 2.567114437843996e-05 0.0008098239013274859 -0.003887042492401997 -0.14821185690355138 0.11540287321900271
11989000.0 0.9923343395513445 -0.09966071167815764 0.004211258263025798 -0.0012551099249854306 -3.925436796604703e-05 -0.00205592933976506 -0.12975017015226573 0.15239518991903286
12988000.0 0.9904537118830544 -0.1060398065779043 0.0028095380171291387 -0.004703200154182902 0.0013393517195368296 -0.003949558514096701 -0.12163283760375022 0.15836783343362293
13987000.0 0.9909257773136961 -0.11426238954812333 0.0010552983389555256 -0.005738051967453215 -0.0013511655670969515 0.0036308918815205135 -0.09676520805721481 0.1885774527957516
14986000.0 0.9885572832846325 -0.12428086009883743 -0.0029808519202877233 -0.008464848537045246 -0.0003717129379762258 0.0021371918995312707 -0.10321917332765766 0.20798090236739278
15985000.0 0.9912875995316958 -0.1324360323200917 -0.0003694018844509803 -0.007912560808282239 0.005135374591592911 0.0029957061936247923 -0.06440504233440386 0.21637661138686792
16984000.0 0.9871156761949883 -0.14099281900902325 -0.0013276137545455771 -0.001768592457052047 -0.002676751078237574 0.0030446674415531795 -0.07893226631180754 0.2231224970658089
17983000.0 0.9878496251809181 -0.14981786358081461 -0.00309885406738708 -0.007179049209515042 0.001835629901917576 0.0014695544100801676 -0.061227463347693835 0.22185909061360728
18982000.0 0.9855511243679198 -0.1566148092682463 -0.0026368786912127178 -0.00844869004378361 0.001309233025528223 -0.0033439780373331124 -0.04124916945913152 0.2505064219072474
19981000.0 0.9834992562643871 -0.16419689492617492 -0.004186795466886119 -0.0019189413079512992 0.0003970710405291792 0.0022748517661757817 -0.020904967997879293 0.24706333614287582
20980000.0 0.9835924759473444 -0.17402582375260517 -0.007535781920829051 -0.0031005181468112754 -0.0008219849356481624 0.0003361454298253754 -0.008393016042455246 0.26253990818969825
21979000.0 0.9826070873075058 -0.18161984750037574 -0.0038059287984388616 -0.0031921792395342903 -0.002167273108496615 0.004724329089086346 0.002495690325711542 0.2416862713613625
22978000.0 0.9792669425284735 -0.19345587138139664 -0.004864501560261954 -0.006736854531427038 -0.004810978456893885 0.004053966544645248 0.017391752046011864 0.24897837888977434
23977000.0 0.9807661241905797 -0.19886088389924306 -0.008332262042005496 -0.003907113880174775 0.0012487696142112488 -0.0020453647435904163 0.03594606724690119 0.25948364959095455
24976000.0 0.9767322487106763 -0.20958469001953722 -0.007022970177194427 -0.0008499726836091158 0.001030527852982447 3.522892251939882e-05 0.06446879922293165 0.2575002884320585
25975000.0 0.9710286679892676 -0.21289607211263595 -0.0014612555416794733 -0.001256457282246806 -0.023103245356308068 -0.003239477903726105 0.07075979422625163 0.2530681053683939
26974000.0 0.9730287072854605 -0.22370832265113774 -0.0027210720377070213 -0.0035957879719623292 0.003157526497548073 0.00031718068068972905 0.08747145162958972 0.24859673255988773
27973000.0 0.9706581966129785 -0.23139608952841084 -0.004179880678063993 0.0004414382753492183 0.002752543709394687 -0.0025267802069771986 0.09895284851977078 0.24603750719722248
28972000.0 0.9688532451428679 -0.24024577749699128 -0.0007789139067583549 -0.002166948102446027 0.0009487591957852415 0.0018795445138961038 0.10644020660906268 0.25591120522755556
29971000.0 0.9668196581675201 -0.2500642593371545 0.0013937812540118651 0.00018201387810030416 -0.0022395297446054815 0.0010038637390738369 0.15309684933109816 0.2639209066006159
30970000.0 0.9642874195363141 -0.2553063983765318 0.0019288908940950607 0.0021475810241006407 -0.003478994337361412 0.002895478372066908 0.15861418921458167 0.24789785619242632
31969000.0 0.9629461651325965 -0.2624215308800448 0.005464839173608832 -0.00857250946601929 0.00020820628514207855 0.0004787068227457548 0.13956508786669267 0.2461250357699565
32968000.0 0.9616710972192587 -0.2727899112395968 0.009777738312711351 -0.009282558303686359 0.002877026452835091 0.0009876016531917774 0.15205384101668076 0.24288696230978304
33967000.0 0.9594148093893848 -0.27983919212528163 0.01162908887755763 -0.010199315289168455 -0.0034124264297991655 0.002234014629877818 0.18262361875167046 0.2453505672767938
34966000.0 0.9563700463036366 -0.28944852042838254 0.01522495879900007 -0.012668515770158333 0.0009564002840046828 -0.00022854239649737232 0.18758548465256839 0.24109281042300085
35965000.0 0.952978275832107 -0.29965366749309885 0.014125200937722907 -0.014587448119837544 -0.002252966874360831 0.00043582855009945 0.21004857545306332 0.2502505440456399
36964000.0 0.9491482107321252 -0.30824136533081525 0.01588690898196595 -0.012707703182272146 0.0009250029890908484 -0.0008813049170593546 0.20057110152120858 0.2521694691562978
37963000.0 0.9470371688649283 -0.31550097331276383 0.02076529454334014 -0.019614646592236332 0.00014119181213347872 0.003070779993859291 0.226014751666763 0.23145391932091242
38962000.0 0.9439928433641378 -0.32644384880449273 0.022754519112228734 -0.02005343596322628 -0.0005066736292595255 -0.0021917159740627848 0.2324325709829184 0.23338935024390167
39961000.0 0.9429221534035289 -0.33035048437356934 0.025756843487274587 -0.027564722023304365 0.0006559885676790247 0.0028676313749335745 0.24529011634790446 0.21807497574694693
40960000.0 0.9389772731014461 -0.34065366634306526 0.022390005704269453 -0.024412623649718218 0.002625002242593307 0.000586281338079345 0.2634290023290168 0.22697087132039404
41959000.0 0.9357472935263597 -0.34996324581031785 0.028594616330367424 -0.03273177260429207 -0.0026145715189638047 0.0007647717884103103 0.2631638795198571 0.21852550454594116
42958000.0 0.9300419155096556 -0.3603365086917097 0.031414797816119125 -0.04012028176411972 0.0014188180192917642 -0.00042855675208540927 0.27937980378164873 0.19564857768950805
43957000.0 0.9299633747894545 -0.3626729791081885 0.031895741069293895 -0.04318851737372515 -0.0005224591779660814 0.001999932651283039 0.2794488674178497 0.209950983288674
44956000.0 0.9273617092730274 -0.3694489492666191 0.034290846107727264 -0.04982867260238995 -0.0016372306435829568 0.0048825097370218265 0.29942271866347614 0.19884172238283596
45955000.0 0.9225029811706467 -0.3801224694690774 0.03111002096007352 -0.0551731119592124 0.001985277826989478 0.0001472351424939966 0.30557354092220096 0.1878858378118691
46954000.0 0.9185380490362907 -0.390810518509424 0.03271271256645133 -0.0620759327695101 0.0008739540446383034 0.00016648323418696085 0.3193706496482717 0.17801616490712538
47953000.0 0.9161181322306197 -0.39763598802331873 0.03496295227195867 -0.07251686906457519 -0.00041570093489730163 0.0017347723498342684 0.3270681545472175 0.1714815684645946
48952000.0 0.9111040062251227 -0.40767238382374094 0.033802298692579356 -0.07938563494372045 0.0031244982520957938 -0.0024237840657018784 0.33397173191788326 0.16420061976061331
49951000.0 0.9078472573161926 -0.4152753348423991 0.0368906394061624 -0.08589910163281395 0.0028683052265674617 0.0010795800276342574 0.35521891479031437 0.15804193449901635
50950000.0 0.9039906429553902 -0.42364647761323354 0.036680836699575864 -0.08907871789192438 0.0011787958537689154 7.078549341041431e-06 0.3513569715560764 0.14803002039769664
51949000.0 0.8994488628095907 -0.4299824738934529 0.037621768901021556 -0.10053006622199215 0.0009384885648549239 -0.0005523890772313891 0.3592992603273776 0.14472823581526642
52948000.0 0.8994565523078436 -0.4375099569318253 0.03981679603590726 -0.10768776639026813 -0.0021414213006848972 0.0013660850665946844 0.3718830885769637 0.13944267049385634
53947000.0 0.8920756240246057 -0.44768581282983516 0.04392161344483193 -0.11790505632776213 -0.0029442658951472755 -0.0011760406747951427 0.36271996831848835 0.12808474205788445
54946000.0 0.8861275912522936 -0.4546357490468695 0.04216492362283193 -0.1266060503162892 0.0005893878216789872 0.0015013305585931094 0.38226717160059615 0.12682436582329273
55945000.0 0.8860351485783541 -0.4638921920756311 0.045184157556145056 -0.13923781755956768 -0.0013571535400456974 0.0002731422993284473 0.3788616182420587 0.1059296757515029
56944000.0 0.8814211452500201 -0.4696121436953511 0.044819457336570216 -0.14447991407740857 -0.0016177065418876817 0.0024976238513502785 0.39911568925038254 0.10562311131259129
57943000.0 0.8766414318148619 -0.48156056646863116 0.04543067680155392 -0.15687915133054725 -0.0022341309114003853 -0.0007096392685451407 0.39996463656216885 0.09709465811223707
58942000.0 0.8698220253120605 -0.4859894566572663 0.048844888784972035 -0.1708106940085243 -0.0014397612838448082 0.0010304436394299062 0.40831117740885503 0.10120417824776046
59941000.0 0.8695181750384586 -0.49389346677475726 0.04740132515132199 -0.1763645793476078 -0.0003904508469052932 -0.0010592649734863036 0.4170986248736951 0.09588412224384489
60940000.0 0.8613412248795543 -0.5013062183426303 0.049504737630984605 -0.1774201702067084 -0.0009021388420579819 -0.0010838009526265805 0.4103115783685871 0.07508894233959383
61939000.0 0.8577720557198264 -0.5084133260715961 0.04825070693522212 -0.19036406698676436 0.0011085310735787057 -0.0011480548498701807 0.4206199167578523 0.06220585348484012
62938000.0 0.85089591158236 -0.5184931604856756 0.05360382126892558 -0.20508780386392822 -0.0008517238645790861 -0.0012835327004916807 0.4366292482988349 0.05970603904333591
63937000.0 0.8464247136489235 -0.5277517872374644 0.05237038555477175 -0.22706391200737858 0.0019836975092808115 0.00013064582920914588 0.432167609663431 0.03699951557637395
64936000.0 0.84269880309269 -0.5310859842879944 0.05423269248769649 -0.23862703817217562 -0.0009462867076539594 -0.004005614038748295 0.43366896068160626 0.03849577768204502
65935000.0 0.8379221122564653 -0.5418960850427539 0.054956674113964724 -0.24961638279452233 -0.0012353678006315223 0.002636529418774392 0.43786529466655516 0.024045400333206964
66934000.0 0.8352591513743468 -0.5462316936707408 0.05673158443916498 -0.26304753358378385 -0.0019549021372217714 -0.0017444982645121066 0.4250156576065858 0.01632646154722562
67933000.0 0.8300480597201587 -0.5562076146869976 0.05533722909640323 -0.2783238482847314 0.0003113499017407415 0.000656986931613583 0.44120442835498963 0.01292217319597682
68932000.0 0.8200207638980759 -0.5466369233650576 0.0531668086130846 -0.2875058458151758 0.0025385922860584006 -0.0035686524678181794 0.44197314773983765 -0.0003746365568031188
69931000.0 0.8169545029594277 -0.5733615060808619 0.05191991166516874 -0.30542142832311403 0.0019777404912013656 -0.004888089175052209 0.44855027645290046 -0.01909401750985293
70930000.0 0.8113658748406578 -0.5788631011871926 0.048081581895400065 -0.31983512109855283 -0.0005359983882712719 -0.0013799811905934076 0.4409302478603012 -0.030519650549495566
71929000.0 0.8080185514754621 -0.589631774925246 0.04587508896673901 -0.34048277611266003 -0.0006666760681596699 0.0013279603913367158 0.4380340170777513 -0.044873073631502745
72928000.0 0.8015431500104511 -0.5955466886251015 0.045095009472249065 -0.34996122971931876 0.001136303392533012 -0.0005273641031990781 0.45929060006212347 -0.04771505606802236
73927000.0 0.7966045693796228 -0.6009669361816053 0.038203095538114504 -0.37236024434184123 0.000273568838642733 0.0011672590575072298 0.45202695867161735 -0.06096634412278614
74926000.0 0.7895448053680773 -0.6122609972073061 0.029057490182366315 -0.39416691639646495 0.001291767781620641 0.004711577938819106 0.46651914889028206 -0.06201853685574024
75925000.0 0.7850064157764755 -0.6153314721674582 0.023102137794718203 -0.4078467205232425 0.0019496280657195443 0.002370645802256986 0.4661362351305288 -0.06261920417688452
76924000.0 0.778405088405778 -0.6232280309846412 0.005668373815665744 -0.43079346196219814 -0.001476578593966774 -0.0010153985454825628 0.4611057540252669 -0.08553618869689047
77923000.0 0.772634507765099 -0.6306529961235284 -0.0003575063120637747 -0.450974370671823 0.0027309079742674634 0.002928493175095749 0.45773273864480785 -0.0928058553687431
78922000.0 0.7671547336407483 -0.6409139668556091 -0.01793222141439947 -0.4791001082913517 0.0020603830917474077 -0.0014220714551109567 0.44838995750699917 -0.11140738149185406
79921000.0 0.7585969090309942 -0.6440910330299761 -0.032961561072405346 -0.5027990750149408 0.0033633649033607146 -0.0008691670089467106 0.4561045683394503 -0.11812500898575076
80920000.0 0.7545919222278425 -0.6559744115356098 -0.049588328662517896 -0.528343933119155 0.00019270948665541546 0.0006560196977698203 0.45719986856858164 -0.1301412010313093
81919000.0 0.7502486375723952 -0.6608680714944282 -0.06599551674123938 -0.5559687260971221 0.004190316465684059 -0.0009225349895895849 0.4613061786631658 -0.1301887662134768
82918000.0 0.7371961036977102 -0.66940338851093 -0.07800989832071382 -0.588315392569319 0.0011694960184243052 0.0025488251739555806 0.4696458272265677 -0.1427530540782681
83917000.0 0.7317425923980054 -0.6759401860339763 -0.10396679143720326 -0.613807966125606 -0.00023243360953883842 0.0016702602707963652 0.46563264893063794 -0.15387416098824802
84916000.0 0.7272085767770634 -0.6842627462772453 -0.11611649194130386 -0.6473662606139164 0.0036344841907077403 -0.001814092201542 0.46044392719622124 -0.16977253191585784
85915000.0 0.7203062011220284 -0.6886483122255888 -0.13413543250365448 -0.6782113349311242 0.0007543438769325397 0.0033949122748840486 0.46158581673368015 -0.1877944180940995
86914000.0 0.713362032737604 -0.7001162087892793 -0.14962160553391235 -0.7136743749802525 0.0023514996673184092 0.0012122266880008085 0.4556364932313377 -0.16817371749428975
87913000.0 0.7053101774737428 -0.7043896311104795 -0.16914804226004757 -0.7444112633494964 -0.0006446651849814857 0.0006793268908418 0.4568541025847335 -0.18597090846553868
88912000.0 0.7007119007615777 -0.7117792614168361 -0.18666943164738403 -0.777851114695764 0.002147114530486663 0.000634770716859273 0.45361848932550763 -0.20721279980262886
89911000.0 0.6918938219211642 -0.7211691878722525 -0.20062082424985783 -0.8108434592017794 0.0015656256497024621 0.0014494456312651892 0.473153033362813 -0.20814429242611662
90910000.0 0.6842463688848733 -0.7267468033846902 -0.21943006249154523 -0.8423941426748862 0.0035325870914280507 0.001056242052876566 0.45680622436254753 -0.21557003971014596
91909000.0 0.6770208685739119 -0.7307368088254662 -0.23210361382362193 -0.8793308911098342 0.0005373235661911462 0.0021468362497441737 0.46869290189878027 -0.2258864614617272
92908000.0 0.6674833734232868 -0.7415394537773894 -0.25006443353842905 -0.9105689450141073 0.0004397615519203469 0.00019357405281082495 0.4585979658892043 -0.23286002330216365
93907000.0 0.663740200650724 -0.7469306468884087 -0.2679863766558691 -0.9402719170372251 -0.003399227070070122 -0.00210695414888471 0.4663994507271572 -0.2404779150741415
94906000.0 0.6512988909370641 -0.7550965170765591 -0.2801007254999514 -0.974862623606219 -0.003876754639309399 -0.0021402664822617414 0.4521984601395759 -0.24997586141945066
95905000.0 0.645084072441694 -0.7587085314131109 -0.2995226215189387 -1.007180348332126 0.002066165093277683 -0.002196591209720376 0.46016649410155164 -0.27548267042826247
96904000.0 0.6363458582682608 -0.769392509161501 -0.3235980349741616 -1.0464337805426873 0.004877943073460635 -0.000264203029086374 0.4445899327143636 -0.27063915070262407
97903000.0 0.6290546044119449 -0.771914386799554 -0.34229913706687265 -1.079453175588119 0.004200945473265129 0.0029329938949055503 0.44673070550012683 -0.29061436310058547
98902000.0 0.6239845881273461 -0.7786364638491741 -0.36173370957647427 -1.1165439984528343 -0.00042249212422830354 -0.0030225827929911296 0.44487498463333824 -0.2994060430126404
99901000.0 0.6136721398344045 -0.7849762336733915 -0.3896744339563312 -1.1413627862103324 -0.0011523556323454922 0.0005077626118991241 0.46077788752525467 -0.3145183921057141
100900000.0 0.6044876110022518 -0.7909096300152063 -0.41971057700182546 -1.1741685183604584 0.0020813908864227774 -0.00026323001945105924 0.4519976402916336 -0.30964438516917275
101899000.0 0.5956319262923828 -0.7986584045906142 -0.4429506635484524 -1.2093377844696598 -0.0009947998604021022 -0.0008062351439424841 0.4423754511313991 -0.3230089669239712
102898000.0 0.5880494029740758 -0.8023096791624995 -0.4736037712370532 -1.2489982124462953 -6.80038724090116e-05 -0.00042790753038755803 0.44669128130006286 -0.3356634051136765
103897000.0 0.5785448543237257 -0.8134121907400571 -0.5152872536528195 -1.2826346255703278 -0.0007602038136169839 -0.0007728634317977492 0.4559952578012493 -0.3315248101104535
104896000.0 0.5720479629913641 -0.8201571330314886 -0.5549809386462926 -1.3131493546509778 0.0005398530035862341 0.0008903717470062274 0.4333417120405056 -0.3371728644639179
105895000.0 0.5589064247364087 -0.8213621945045713 -0.5987202532765792 -1.3480523995325364 -0.00425653089917008 -0.0026317901946983444 0.42364367873068737 -0.35784080805370727
106894000.0 0.5523563323267915 -0.8297513741480005 -0.647702452736638 -1.388476820630414 0.0012057534740014062 0.00136797588517983 0.4360180932749398 -0.3608415132851069
107893000.0 0.5471821119355953 -0.8361970198474171 -0.6896939042051535 -1.4282650249485398 -0.001689950267385138 0.0011526242689900732 0.42939898576966773 -0.3829669398133221
108892000.0 0.5344370544969551 -0.8399271522612057 -0.7524966243392396 -1.4626881888861512 -0.0026349319449451717 -0.0002683771760644779 0.42496152462406606 -0.38512071425228384
109891000.0 0.5225355170279762 -0.8465991256700574 -0.8082281503725917 -1.4979344705341084 0.0014314749775334358 -0.003988668966998345 0.4364153093169148 -0.36830407927665093
110890000.0 0.5185971061013259 -0.8521463505316033 -0.864138811435288 -1.5179409395201142 -0.0041848288712241855 -0.002339047503444191 0.4204316411698757 -0.38514011567766465
111889000.0 0.505482699856729 -0.8540249985442769 -0.9282538597285218 -1.5657773400132924 -0.004199533576912762 7.742066444630401e-05 0.4121081465819007 -0.40339261750908467
