! Created with skrf 1.9.0 (http://scikit-rf.org).
# Hz S RI R 50.0 
!freq ReS11 ImS11 ReS21 ImS21 ReS12 ImS12 ReS22 ImS22
1000000.0 0.9843053597467002 -0.0002831100266884027 -0.010862886903985755 -0.04981016793197163 -0.027919743533544185 -0.00949967736426967 0.3707632760865184 0.3345962007892381
1999000.0 0.9972175590679055 -0.01274811238608274 0.01585146609162809 -0.016048468242357745 -0.0027143524909917487 -0.004826444038331625 0.27230976365047643 -0.0670562068500125
2998000.0 0.998099598936513 -0.025463022185356992 0.012272501928357004 -0.016180176601893862 0.0023170646557932276 -0.0037561700569161945 0.18993311797351936 -0.13280255367219854
3997000.0 0.9982863140520143 -0.030521442201886108 0.011296498440335525 -0.01077032501865645 0.0007800269163898933 -0.005819351862103827 0.09613683979920798 -0.2027752018011853
4996000.0 0.9985875185045882 -0.03663721534531482 0.00863849649269808 -0.00048175307797975684 0.001822135851988676 0.0019502829521373306 -0.0196951715244022 -0.20840865802368763
5995000.0 0.9944920726735251 -0.050913019472095894 0.007476927473725314 0.0003014252084474488 0.0022373322911869715 -0.0006789727888016241 -0.10782631151641421 -0.10515796261703246
6994000.0 0.9935265312814149 -0.0562986676674482 0.007506355397154716 0.0031968806042932322 0.003465929685632846 -0.002798870429878633 -0.13447289509700353 -0.021635887605325692
7993000.0 0.9947438675471053 -0.06667098991193333 0.002821053524723198 0.008156903713912946 0.004971474352486929 -0.003092531137363803 -0.1680184256775767 0.029115080625659297
8992000.0 0.9941195892168577 -0.07120589417959705 0.002682511537594991 0.0025754886551234814 0.002680351586733684 0.0035741693305709824 -0.15654547813496658 0.058896348123247025
9991000.0 0.9923394113514648 -0.08422585482877766 0.0021511082918024755 -0.0035321988911637793 -0.0024290718988388953 -0.003672041353085665 -0.1453166849645421 0.09319900076586675
10990000.0 0.9924663353159107 -0.09006721759112059 0.007975804212740082 -0.0011893846900971814 -0.00038355183596877927 0.0016270034910638572 -0.146286008493905 0.10906101884688754
11989000.0 0.9905206106628287 -0.10123630072823211 0.003372145431383162 -0.0003831138054817016 -0.001241267512893224 0.0003767573448320151 -0.11828924049366052 0.13506220549596007
12988000.0 0.9898665226621866 -0.10901354435422615 -0.00036989871910656636 -0.0019090104570701862 -0.004848344817069051 0.00031605528868960974 -0.1368110917153213 0.1625080285821656
13987000.0 0.9873137506651899 -0.1176105742543383 0.0018618197254921583 -0.0009338032060971435 0.00047553091713990075 -0.0019838906027752857 -0.09868304149116601 0.18340746995404197
14986000.0 0.9873524041989326 -0.12597108904263604 -0.003016503830516394 -0.005470321235848944 -0.0005474623124131947 -0.004486911621147802 -0.0847182170971455 0.19249892719348055
15985000.0 0.9889421594308527 -0.13640710068483158 0.0016805480304778807 -0.0009294372414966575 -0.00046584263225501256 0.0007190824838770035 -0.07167688300261979 0.22673399487123397
16984000.0 0.9830730707325426 -0.144405185923115 0.0012040549416044344 -0.003157588480343495 0.003241096117017416 -0.0064267337748466465 -0.060062943646805346 0.2148834546011411
17983000.0 0.9863751177913967 -0.15086729950525474 -0.004558470930681348 -0.0019473269033814327 -0.0019793858558962278 -0.002196960366524157 -0.058109608637363384 0.22125510492879583
18982000.0 0.9812852771597282 -0.16353704059189533 -0.0016344899293859016 -0.0047821330775017195 -0.001512867739740137 0.0013356338039498584 -0.025487220425019563 0.22579256180673107
19981000.0 0.9822389383820246 -0.16773606089077314 -0.007062102361386288 -0.005803567356230322 -0.0004691534465367974 -0.003155455544545453 -0.008936984100833458 0.2400120083102126
20980000.0 0.9791654077436819 -0.17898136887159266 -0.008409973740119736 -0.003667009364958926 0.004851473231326693 -0.0009166983652873709 -0.008556535598829984 0.25594483736255824
21979000.0 0.9797034042692946 -0.1853402310027567 -0.005385499102215972 -0.005234374148198709 0.004267625123946333 -0.0015400532871501717 0.012103859046738025 0.2428252975215447
22978000.0 0.9743342499797788 -0.1977085585535991 -0.00036622897674658283 -0.0018444402579807651 -0.0003068798662106873 0.0007137626512255392 0.03185578916252737 0.25891976435929454
23977000.0 0.9774179215260065 -0.20396847049429384 -0.00632585171383883 -4.521923770183781e-05 0.00015473293713403653 0.00058836914573325 0.03672412372346205 0.2570993949350793
24976000.0 0.9754916790914322 -0.21095731136269755 -0.008289135883167306 -0.004228853180897647 -0.000945471643891919 0.0007724811403758103 0.06102485875053198 0.25222309769971035
25975000.0 0.9722643816831215 -0.22822676264482555 -0.007997468381162501 -5.741226201817748e-05 0.02775050989999797 -0.0032405354248510533 0.07518699943335155 0.2561509490132121
26974000.0 0.9706449363677947 -0.22840065226167763 -0.004260694678299104 0.002162157726742824 0.001307827597088884 0.0033739457160411926 0.08477281320128206 0.2670784822545248
27973000.0 0.9676248090947864 -0.23606715176254028 -0.0013473592430028778 0.001969241643779329 0.0010137747113170609 -0.0007853099403821462 0.1102346623286516 0.2542766946739086
28972000.0 0.9662401015790623 -0.24575984582613003 0.0013058184293899303 -0.002851367591519132 0.0004560671898858008 -0.0031829473816182806 0.11707240452915779 0.2567175833143519
29971000.0 0.9634517053279112 -0.2543019004858983 0.0017825831818786934 -0.0005554716728576111 0.00042347970390096756 0.002423592753731523 0.14759666754403955 0.26538007123726204
30970000.0 0.9624935588470682 -0.260931235506417 0.0019231440318584632 0.0034276407017111896 0.003220465176804762 -0.0013074005460790795 0.1615958769242767 0.2609089096122898
31969000.0 0.9598735796096164 -0.2695859805913903 0.008313250218610298 -0.0068651284869822955 -0.002294666525683599 -0.0007092399943292533 0.15440381311019832 0.25139355585621315
32968000.0 0.958725100888854 -0.2785061600946319 0.006188907891942201 -0.008461990748272863 -0.00044190109069717066 -0.0005902167296050248 0.16334200463366977 0.2427428465933738
33967000.0 0.9562736411113588 -0.2877816339807393 0.009822238630218617 -0.009631751208017217 0.0021266328913846304 -0.001667579864768415 0.18526258479384763 0.2526647677625482
34966000.0 0.9514937742888421 -0.29775154279797467 0.014718170883928251 -0.011429782980944419 0.002227589582222038 -0.0016864301005306585 0.19878579104226973 0.24844918902604426
35965000.0 0.948996053479452 -0.30530097044297955 0.018330801620535693 -0.015490242987073055 -0.00288440773743739 0.0029435240652679086 0.20426350831360932 0.25063033668017143
36964000.0 0.9468201610557694 -0.31437552424501347 0.018369719784408125 -0.01524697321084827 0.0009128612624306972 0.0004987682632630445 0.21617872030274227 0.2486350779682318
37963000.0 0.9430316886133497 -0.3259523236073861 0.022392917659136462 -0.021960785468901938 0.0034864641507070912 -0.0003246068091680794 0.2210785345091053 0.2381701905682286
38962000.0 0.9405769935907657 -0.3345971167624678 0.02155393831369384 -0.021513069361424945 0.003113712580261337 0.0017739252353248395 0.23004612250544518 0.2323984543197517
39961000.0 0.9381480744823275 -0.34081159348106277 0.027967125347034362 -0.02802719958367707 -3.4406965292368113e-06 0.0016242318289329892 0.2400581774794843 0.22761625553819395
40960000.0 0.9349927622523075 -0.34899943827576546 0.02353244675535087 -0.02392658902991766 -0.0006317022761409345 0.0006940628063621926 0.262142102231775 0.2142891381696833
41959000.0 0.9299715837591085 -0.3594746129458595 0.02858406735197053 -0.032586244046806205 -0.001580876198598515 0.0006752784350330679 0.26031526453432424 0.21146995817946526
42958000.0 0.9274400000533758 -0.3675013474111276 0.03413479476825854 -0.043718208120517354 -0.0029081918956266684 -0.0030816716476469983 0.2841011459385908 0.19963017416307471
43957000.0 0.9243045727468105 -0.37282031752619915 0.031576164973838645 -0.046339218898735504 -9.934556097097534e-06 0.0003373533191848595 0.28328744358199937 0.20810216926494432
44956000.0 0.9200500168509615 -0.37987357185324866 0.03660724159148419 -0.05323557906506428 -0.000529170796154531 0.001352279433054123 0.3031484047500099 0.19208106305027614
45955000.0 0.9161975066312583 -0.3923040690034521 0.034107193330539305 -0.05969273042434243 -0.0020573026612673924 0.0010588361775279993 0.3084692363649366 0.18814068071906423
46954000.0 0.9139926142253957 -0.4008709195170273 0.038862510481574956 -0.06543882931715295 -0.00014668544435003945 -0.002180790172967549 0.328233742638141 0.17208159536324216
47953000.0 0.9092960685195066 -0.4105970625503411 0.033926181552615335 -0.07232402591890873 -0.00017387760473656954 -0.00040101413615366884 0.3368373072647399 0.17066859721295888
48952000.0 0.9048544349140235 -0.417625275511939 0.03761778788851674 -0.0814276012349287 0.0006677997216000894 -0.001281188623219408 0.33236424778284185 0.16865064403300004
49951000.0 0.9016244945729164 -0.42587451643780355 0.04274059263953547 -0.08868611260254498 -0.003164437499970654 -0.0006824899840697137 0.3580652375385611 0.15836087912250862
50950000.0 0.8983053406313206 -0.4331542211709901 0.039623236068186546 -0.09627669400464872 0.0029870176513822587 -0.004710741061492429 0.35022148110092766 0.14617113660867714
51949000.0 0.8933563507340729 -0.4401191383433582 0.04042470346058827 -0.10393013534492054 -0.00016883518625876627 0.0008793800301718067 0.3573155230398719 0.14069734049633897
52948000.0 0.8906501314592489 -0.4504956018083003 0.04410200603727538 -0.1118398925391925 -0.001438368613785752 -0.0017083365241883856 0.3621830451247472 0.14436303710495052
53947000.0 0.884585305459979 -0.45711836185202137 0.04416778370484918 -0.12127830495720023 -0.0013905344486141754 0.003135357805995557 0.3717220169259613 0.13161713063463795
54946000.0 0.8806084767936937 -0.46573295551108546 0.04677673267777642 -0.1292282592718475 0.001748225970900092 4.885901914888093e-05 0.38358436676058694 0.11617485089712623
55945000.0 0.8771231131311941 -0.47574336499949466 0.04745851883173298 -0.14295976324794346 0.0019516849088291241 -0.0007931936054486659 0.388539000438651 0.09691455217919509
56944000.0 0.8733726405191363 -0.48288874958693273 0.04862745517182594 -0.15264959427644104 0.001877755980575903 -4.356450862145221e-05 0.3986072501320083 0.10204476221422908
57943000.0 0.8679049768226985 -0.4931425365960549 0.04953950619731638 -0.1627353017644483 -0.00028584766332067946 0.001370938299660166 0.4050344153180852 0.09829904323591787
58942000.0 0.8628672229960328 -0.4980614280358544 0.05034349899586107 -0.1711150771687397 -0.004412733430832711 0.0035848789416256964 0.4169192809834059 0.09806874504285147
59941000.0 0.858363147635168 -0.5053993924035197 0.0528659069497959 -0.18297590879232034 0.0004544966813719015 -0.003075435330212282 0.42421499399585527 0.08436685092177186
60940000.0 0.852236854320532 -0.5151878118781967 0.05157849479275372 -0.18484935745399245 0.00014947587771560315 0.0007200204671272547 0.3980204781511905 0.07448839467989417
61939000.0 0.8478063732897051 -0.5218462337646571 0.0507264110170628 -0.19967799944565254 0.0017050720423995764 -0.0007329733603694862 0.42011742696389426 0.06704617608400171
62938000.0 0.8431060426023403 -0.5319287699348673 0.058747859670616076 -0.21657885936342353 -0.00045536060585835733 -0.00044565277326783203 0.44001536749533204 0.05046612117636854
63937000.0 0.8367506342664223 -0.5397288004903388 0.05644391436782595 -0.2363311860955459 -0.0025062448639151863 0.0007088366363575955 0.4302279109065438 0.03699915478265784
64936000.0 0.8311146108612872 -0.5442639293926166 0.05808564505282127 -0.24853450434917013 0.0016663047764906781 -0.00012189902764317293 0.43440469353540945 0.03745401435116163
65935000.0 0.8274311551513219 -0.5582373586969516 0.05449859142958667 -0.2632208398329262 -0.0008932267447003507 -4.7163070424377635e-05 0.43752966457527864 0.017367686795326517
66934000.0 0.8240656408088486 -0.5608453304363884 0.05594322823310985 -0.2736014397551815 -0.0016944375810912585 -0.001487620261318595 0.4356031998493429 0.017227081778613127
67933000.0 0.8188704296663744 -0.5695608274486645 0.0580315499253431 -0.28826285624031134 -0.00041989431707332514 0.0018890986371321444 0.44225632756257777 0.010509399409667386
68932000.0 0.8104927752289764 -0.576718598616892 0.053437309971455765 -0.3017506190816757 -0.0002952502834521384 0.002720190606431513 0.45963553433500715 -0.005908621007686703
69931000.0 0.80411220004353 -0.5870228294761234 0.05097681701585373 -0.3178062801654054 0.0015697152627495259 0.0026380757620643094 0.44823894840715306 -0.019619050327158147
70930000.0 0.7999443404983937 -0.5911854478466042 0.05086308004435514 -0.3357327301953319 0.002840596410169994 -0.0002567880063366382 0.4409655769664532 -0.03918605197583714
71929000.0 0.7957079340130551 -0.6019956473137289 0.04697684809190251 -0.352931020294845 -0.0006386635336555321 2.9455953195730624e-05 0.45436377117157706 -0.04773475243449759
72928000.0 0.7897745932930659 -0.6114176361643262 0.04078115061431266 -0.36951330427725504 0.0014613512099991136 0.0005010152696057539 0.4603783241383974 -0.05125644773841357
73927000.0 0.7825349227087053 -0.6171181527967563 0.03085926680505976 -0.3857972541511743 -0.0016919462717181286 0.005592308663317783 0.4628472614453203 -0.055443456646004294
74926000.0 0.7787693720063992 -0.6261907561548308 0.026769172335755976 -0.408192347185828 -0.0038772876415397606 0.00018950511921064995 0.4643503958612938 -0.06230496195344102
75925000.0 0.7709238443801836 -0.631326299796768 0.02190625102136327 -0.42865748442334356 0.00015436376489926318 0.0029731525757031247 0.47105616353175406 -0.0600908773124958
76924000.0 0.7630634276165643 -0.6398769260342652 0.0057571342692950165 -0.4516516906571869 -0.0029952068830535845 -0.001720489931359213 0.46257362061512797 -0.0855418379683978
77923000.0 0.7591728741572367 -0.6466588733798065 -0.009732272890237936 -0.4763318379924125 0.0026213078697354254 -0.006914313593738943 0.4662655285840925 -0.0858996222238308
78922000.0 0.7529565985773252 -0.6542342606772168 -0.02318166056877389 -0.502046080535606 -0.0002186384086815338 0.0016839014193002057 0.4621031152701062 -0.10152204045261756
79921000.0 0.744054123843167 -0.6599558813019073 -0.041175055383892385 -0.5289630968556629 0.0017248047667191495 0.003201973162536329 0.4660515467869534 -0.1122599521222427
80920000.0 0.7397913101134138 -0.6711341870555237 -0.05399564960951429 -0.5604043132205948 0.00021815535584878348 -0.001369050106024513 0.4717012870865981 -0.12638766966301246
81919000.0 0.7343383536674251 -0.6764167643346931 -0.07501271355760246 -0.5873900387525525 0.0011930762570275437 0.0011097450292374127 0.46344826790841526 -0.14094142757432881
82918000.0 0.7243461664153404 -0.6842915597429212 -0.08875760049423216 -0.6180544766042118 -0.0022002493116780445 -0.002971843100074479 0.4822632721125733 -0.14196574265390244
83917000.0 0.7140741210939863 -0.6927227607469318 -0.10715343416508033 -0.6449744892665368 0.0036987772948930795 0.001097375833537642 0.4719396335174289 -0.15535626382104756
84916000.0 0.7104979377384354 -0.6997652297945578 -0.1244772735993926 -0.678992582665129 -0.00433079813001317 -0.0004916543009667217 0.46118776639756376 -0.16733332904782036
85915000.0 0.7044235891962146 -0.7050423416823437 -0.140988176323374 -0.7142496949484887 -0.0005870180599609097 0.0037007532811328733 0.4702903928910492 -0.16939415188955784
86914000.0 0.6968367315567601 -0.715247505496029 -0.15945274100016982 -0.7472993602623602 -0.0009424745044221759 0.0007229124474417176 0.460636150879442 -0.17639691113217362
87913000.0 0.6877403307582598 -0.7227545745898252 -0.17372040344871825 -0.7784673312731978 0.004849431944480907 8.212567998477867e-06 0.4542032891117733 -0.1956666109126614
88912000.0 0.6824271249144176 -0.7275223940065638 -0.19039346612633026 -0.8099770956671565 0.00023744675220380788 -0.0014510133491926335 0.46542419669304386 -0.2004413063259039
89911000.0 0.6727980393179849 -0.7369898721901648 -0.2033853561232128 -0.8495576421618689 -0.0015739269753927072 -0.0025587127872880077 0.47598090030477325 -0.2080240624953217
90910000.0 0.6684534525624509 -0.7425933388533318 -0.22516523130971602 -0.8812825335845719 -0.0011759551090112419 0.00023606516302571666 0.4517000245628388 -0.20140828753288878
91909000.0 0.6585461185433161 -0.7465210324783439 -0.24498523465700436 -0.9142305643397909 -0.0017474997362763962 0.001405903848175232 0.45896213749735865 -0.2221061712241595
92908000.0 0.6505958798778727 -0.7560810319998357 -0.2603533293349101 -0.9491663812489504 0.0028365892789682856 0.0023032960888566155 0.4585252751189832 -0.23093287194130843
93907000.0 0.6442220458733927 -0.7602612433135733 -0.27996328849160806 -0.9813188865241332 -0.0008788628425698628 -0.0009494215925030464 0.4576865897374698 -0.25569506280623605
94906000.0 0.6315553422632539 -0.76935982281683 -0.300130196858127 -1.0179307943838334 0.0003467288638268744 -0.0029407023124417976 0.46340912409984475 -0.2458163907493045
95905000.0 0.626367750045064 -0.7734306628266584 -0.31950068885553096 -1.04968641849118 0.004662414957157154 -0.001293953983832986 0.4691350178629568 -0.2694370539397341
96904000.0 0.618073061029775 -0.7821921279930424 -0.3383808468237089 -1.091076292553307 -0.0013650775588164965 -1.348582483925044e-05 0.45279342742873424 -0.2666013644513838
97903000.0 0.6084740514971477 -0.788608713237843 -0.3613902379523827 -1.1237480514429024 0.000674154534297061 0.003115654408368603 0.45019836145600634 -0.28734535165950925
98902000.0 0.6003407502181285 -0.7947905857598809 -0.3818227171701716 -1.1601345251602448 0.0020782549472837587 -0.00020578873709603627 0.45052662030606705 -0.29650447527919854
99901000.0 0.5924000324640681 -0.800726834383344 -0.41328998434452824 -1.1931957741466819 -0.0005572737627619555 -0.0009307598622126609 0.46479817778824783 -0.30489324513134813
100900000.0 0.5856758380936465 -0.8038357720345026 -0.4449078560479442 -1.2226318441079564 -0.0006813111736540257 0.0001544952361924924 0.4562743291639057 -0.31163252811930253
101899000.0 0.5743256885982492 -0.813314249211304 -0.468646039327079 -1.2648991534502037 -0.000909758455517547 -0.0009616741936140989 0.4480562863690806 -0.3120867188108914
102898000.0 0.5636686616267383 -0.8177004908093926 -0.5087764564678303 -1.300201367460071 0.002063234259642452 -0.0001117000104819333 0.4465226216757164 -0.34212841046578557
103897000.0 0.5550431396693895 -0.8260583139046219 -0.5542002516394985 -1.3354233557429331 0.0007113538057110994 0.0008590854374835692 0.4592658425687211 -0.333751154945781
104896000.0 0.5485742921454786 -0.8358521624408752 -0.5937712484440323 -1.366871420341436 0.003308309410124078 -0.0005194575353775066 0.43712248031151124 -0.3478070581605734
105895000.0 0.5352836685524476 -0.8365268732910098 -0.6433790353969333 -1.4099486961502223 -0.001151817914791686 -0.0017057835329152796 0.4385348700301533 -0.35342398299158556
106894000.0 0.527025692724662 -0.8427868003006987 -0.6970955688017724 -1.4441776034480431 0.003254708354480661 -0.0012599455796477041 0.4262782089859793 -0.3640219970080184
107893000.0 0.5194610365006863 -0.8500227746823213 -0.7495578094975132 -1.4888951473983283 -0.0019164387013585226 0.000975753912231593 0.4283644828243051 -0.36865379202670034
108892000.0 0.5096453797322492 -0.8548836330025106 -0.8093138651269108 -1.526094699155115 0.0002884299851971645 -0.0006565584528320106 0.4299952963850167 -0.3751227146518345
109891000.0 0.49763309933996086 -0.861718204636704 -0.866230939140164 -1.562046234071306 -0.0012255510548427704 0.0010220006446542843 0.4409362564884233 -0.3813928883172514
110890000.0 0.4824279306380885 -0.863039908002667 -0.9289385179173036 -1.5577785920757812 -0.001239365639693317 0.004346367315442584 0.4243410062009651 -0.39107766854341414
111889000.0 0.4743377760952036 -0.868794819189811 -0.9994649708466611 -1.6337902192602582 0.0007382340913758855 0.0003385466551546786 0.422048874998424 -0.4011112395864328
