! Created with skrf 1.9.0 (http://scikit-rf.org).
# Hz S RI R 50.0 
!freq ReS11 ImS11 ReS21 ImS21 ReS12 ImS12 ReS22 ImS22
1000000.0 0.9662097855024244 -0.0034586935695202084 0.0029679516416482475 -0.04083832919431006 -0.001948888483764494 -0.0003868032444720848 0.38000390567789355 0.26986540151443383
1999000.0 0.9936896239030899 -0.014921288946525299 0.010211071416347644 -0.021432289562486037 -0.0032396051838510863 0.005281830463557608 0.26280065590855345 -0.05239400593192045
2998000.0 0.9985704758262488 -0.02257212143218114 0.013266453937728346 -0.013367248836545689 -0.001510986720232516 -0.0024802702466225294 0.19766806714144694 -0.12490488146011117
3997000.0 0.9960240558182936 -0.030660396777062747 0.01442036366777037 -0.007870681255498044 0.0009695664707246957 -0.005285989030696758 0.09327948266341894 -0.23654458286522842
4996000.0 0.9946209962035817 -0.035861124966802445 0.00997371187328368 0.0018536414044038197 0.0022144094350117776 -0.001451829218582826 -0.021598020650029394 -0.2142251787100688
5995000.0 0.9974828159989404 -0.04836644209815187 0.011796731173453019 0.0018719418246520747 -0.0005545853671138475 6.037065381656083e-05 -0.1252446809181896 -0.12068714496457719
6994000.0 0.9928527367598685 -0.06020594871604633 0.014129428602492153 0.005536171898882535 0.0005271412886641966 -0.001646502320086264 -0.15123927382819183 -0.030300148008404318
7993000.0 0.993606146028063 -0.06992111753790559 0.001181779980077511 0.006496215064519338 0.0016764684981201243 -0.0008992831845063348 -0.16816304715494834 0.02329940432119712
8992000.0 0.9945204670812313 -0.0757240080314002 -0.0007479798328081955 0.006006868967448285 -0.0012009897565393255 -0.0032558547788081107 -0.15125464891751153 0.0491948901172706
9991000.0 0.9915018553656256 -0.08397733921440899 0.007404021293626695 0.005293625684719544 0.001558441407317084 0.003406546626711507 -0.1461283080153025 0.09180382678622322
10990000.0 0.989954215663309 -0.09313520990711685 0.003589842090014957 0.0037726704909463063 -0.00031420662917303055 -0.0030389333629338967 -0.1403187194127784 0.11386463019901291
11989000.0 0.9914732927584664 -0.1006132318519019 0.0019161150195293145 0.0002525095159695464 -0.0018814582948955072 -0.0024051976241400395 -0.12553410027988632 0.1409132152103537
12988000.0 0.9882538991665774 -0.11180031012504525 -0.0005822235260455317 -0.001186067286020531 0.0007000737261606001 -0.001871558529349433 -0.11823399563113941 0.15897458407586953
13987000.0 0.9853069099609849 -0.12024435298231557 0.0029164465526311956 -0.0021849250077166536 -0.003685146592495887 0.0026240936883076328 -0.10426639076734127 0.1873922579973679
14986000.0 0.9888114342203521 -0.1268156820787169 -0.0026665134957611133 -0.004648306406738249 -0.0007204737009438154 0.002706168916785004 -0.093691246931769 0.21508623042775263
15985000.0 0.989015408822405 -0.13297460384919763 0.0027493324391789542 -0.004263466997887787 0.00041785954169185063 0.002308822459353052 -0.0761001702708595 0.22181055297022323
16984000.0 0.9851494520798761 -0.14456489033897493 -0.0007980481183386759 -0.004061252600531651 0.0035322146560488005 -0.0037501282006478197 -0.06128208709047466 0.22307195802385263
17983000.0 0.9841475667943711 -0.1516285862814762 -0.0008228197171393813 -0.0026799952650201956 0.003574611098078442 0.000894664500158262 -0.04788651474695343 0.23354333598773439
18982000.0 0.9800892014813277 -0.16200626563405904 -0.007016183244060022 -0.007341380418379869 -0.0016845628987724182 -6.879583697955798e-05 -0.02168501594689191 0.22993740221336992
19981000.0 0.9834393366788473 -0.1687709081881969 -0.002207048308489198 -0.003827029078344581 -0.0035630806956857925 9.56042055856788e-06 -0.019291151776802785 0.24672590144385806
20980000.0 0.9792764672379017 -0.1773123899056546 -0.003976506449198507 -0.0036607097751641935 -0.00043810099629760173 0.0015505863720822032 0.0024277222333563843 0.2631662404852313
21979000.0 0.978882652285743 -0.18571864767984186 -0.0018711781696625167 -0.00706675145083499 -4.491434483455607e-05 0.0033739379315566435 0.012943576708712969 0.24223461380908318
22978000.0 0.9745202605496311 -0.19419076079535558 -0.006506420046074245 -0.006945378304465728 3.953481343802422e-05 -0.00022774897868844686 0.010464889632046372 0.25437427311665994
23977000.0 0.9773437774958212 -0.20316050288183163 -0.003457345279656215 -0.0015135043033103308 0.0024219031766934416 -0.0018390354018403823 0.04084568853476204 0.25991400538703413
24976000.0 0.9735370651479607 -0.21243350861645005 -0.005576514203222586 0.00350871598681865 -6.892622193515497e-05 0.0021581516220873357 0.06216003624335044 0.25623532761209056
25975000.0 0.9712857951766359 -0.22652219658587552 -0.002505216865274963 0.0014621149305173954 0.028899001342367853 5.292369360892214e-05 0.06929392812298295 0.2575390610010972
26974000.0 0.969509097598711 -0.22964539934066447 -0.0018453572528525353 0.0002891650252788963 0.001534851842364402 -0.0025853860608409337 0.07467074257243897 0.2661646577528477
27973000.0 0.967469362175026 -0.23856314640498985 -0.0041487884492633345 -0.0015444620555258516 -0.00028530236712988446 0.0005487178847960805 0.10307494714662033 0.2585937555389175
28972000.0 0.9635412989437795 -0.2486816242803921 -0.0013270135725225215 -0.0017330163312678317 -0.0033048235464189246 -0.0017100271521631003 0.12037156169680605 0.25272133670244784
29971000.0 0.9626939209782605 -0.25520546502671676 0.002574346297522104 -0.0025141328306464306 -0.0006348786354985955 -0.0005653506966400955 0.1499542253584788 0.2649408103221143
30970000.0 0.9608230785979247 -0.2618104287372949 -0.0009020597303639074 0.0008107625129529576 0.0008283997438934239 0.0030454867975417835 0.16461720019926288 0.25890743848633596
31969000.0 0.9587565577459933 -0.27122056682533086 0.005360397336389761 -0.005446488663150374 0.004258039677708064 0.0009383149967509861 0.14665531029956225 0.2433237946953382
32968000.0 0.9570466132448158 -0.28191719149712746 0.004681705271912601 -0.00951206701991979 0.0008363548458105818 -0.004554516497339005 0.1616563493738617 0.2405254257165258
33967000.0 0.9546689111425569 -0.29085634823205253 0.009824496439754724 -0.008299396340725436 -0.000915774552848991 -0.0009716702384426676 0.19157006326474538 0.24513702777373603
34966000.0 0.9505955377211175 -0.30032455194455815 0.012875557959071677 -0.011051515219759955 0.0013993589575079807 0.00011974789706156457 0.18960729310097996 0.2438883162431507
35965000.0 0.9478746885091766 -0.30703156964656164 0.0119121427950685 -0.013120922911133107 0.001661664444553806 0.0010870841948099929 0.2010821575137204 0.25215227527553136
36964000.0 0.9448373181833248 -0.31530027239623937 0.016690281089429375 -0.013525175496304522 -0.0010723744768961973 -0.0016470978832484752 0.20833095854262035 0.24561124259632944
37963000.0 0.9410671385848024 -0.32633316896357994 0.0231784466160291 -0.02037686308826482 0.0002911274543088795 -0.0006167544285302144 0.2286846286576862 0.24240961939802672
38962000.0 0.9393415003344123 -0.3331352681336743 0.02636555838912018 -0.023231843008463503 -0.00047873347942706024 -0.002761581663163279 0.24386535276608545 0.23465003976192442
39961000.0 0.9369501057718054 -0.3407204015482532 0.025976278617236125 -0.027752452448202142 -0.0023883134283592734 -0.003839432788839879 0.24516155793314565 0.23329136011389892
40960000.0 0.9336960834264784 -0.34902475670080285 0.021157181648482185 -0.023575536167670257 0.0009352237106910443 -0.001903336304400847 0.26511121232391477 0.2266015651140657
41959000.0 0.9317456377814698 -0.3594063976561941 0.027248706537699886 -0.03210470485244042 0.003053196542527002 -0.00045247428722764213 0.26216248148341015 0.2185678935513188
42958000.0 0.9263245989502441 -0.3669122893671859 0.027486076644569053 -0.03943025132482515 0.0010493207316925762 -0.0009268827012028852 0.2830138486563086 0.20547587708230877
43957000.0 0.9238465610478488 -0.3751118040052372 0.03126880223463063 -0.04589241325133772 -0.0009740656890970151 0.0031184331168270965 0.28184746340023453 0.20549183555521974
44956000.0 0.9208155598365589 -0.3826419224338657 0.031851145413418935 -0.05238801384928849 -0.002915134052313082 0.003585770841791861 0.3064424733036861 0.19062069242482468
45955000.0 0.9153629422257717 -0.3928979244177532 0.03452597141093247 -0.05792977098652707 -0.0034284960820185903 0.0017917089237047344 0.30951294719666483 0.1913720718590739
46954000.0 0.9141774022731357 -0.40140995047848727 0.0300194446029309 -0.06528630051344281 -0.003323834013199532 -0.0009378606172848371 0.3270506848520684 0.1699763185940707
47953000.0 0.9078641202519133 -0.4113617933258016 0.033065860679388395 -0.07361397191587529 -0.001031415715883243 -0.003612902493291101 0.3303046507195542 0.17312204019428984
48952000.0 0.9038651942777446 -0.42050473448256775 0.03578087892743251 -0.07742239677089836 0.0037261832477024463 0.00028773795011874604 0.3263654182411259 0.1616756815148616
49951000.0 0.9003547304898892 -0.4245619890386785 0.032614827866483675 -0.08712505155286647 0.0028701302414049826 0.00210498919127215 0.3555173099552806 0.15373604236535082
50950000.0 0.8976633831779621 -0.4345815748861139 0.03535202547368268 -0.09566172564985481 -0.0027299945082650385 -0.0005981549207719765 0.35422592606609393 0.15361836619564131
51949000.0 0.8929318537899281 -0.4419177176005531 0.03517343888296449 -0.10220919478063784 0.00014253758319268263 -0.0015816945006434174 0.35250256465929347 0.1359777884384823
52948000.0 0.8891926077487032 -0.4510018770626801 0.03720814099858752 -0.11283030824401409 0.00022675506208872262 -9.542951996703931e-05 0.3757873239091229 0.14474147700372522
53947000.0 0.8833992050265458 -0.45782482258115603 0.037282973144284054 -0.11835063121425503 -0.0013848498515888117 -0.001942751697220838 0.3723184412702893 0.13214337012526264
54946000.0 0.8794427048155169 -0.46860598347734284 0.03984335624971813 -0.13043947269104567 -0.000660528630250288 -0.0023476019422303427 0.385662808729911 0.12069558487184234
55945000.0 0.8766786868863504 -0.4751031593193463 0.038986137923026284 -0.14156112248356456 0.0004352945506108533 0.00178281342018998 0.37683706584797 0.10572110446004956
56944000.0 0.8726399045694186 -0.48339868980695005 0.04290597698279291 -0.14978921924291497 0.0022456003911123187 0.00040725857392104244 0.40028387953074107 0.10610073108729813
57943000.0 0.8667678665198576 -0.4940516158880713 0.043159410065078965 -0.15976365034589177 -0.0029321726448596134 0.0018235006843807266 0.40042773443277935 0.09683577509201627
58942000.0 0.8597917492915308 -0.49988197946136176 0.04482163432525466 -0.16918398204692178 -0.001998054377693721 0.0030068177710461533 0.420846625541362 0.09494302600827835
59941000.0 0.8586808713987175 -0.5066361226126097 0.04815150724790426 -0.180807041435656 -0.0003825504327422355 0.0014055285085805725 0.42445282282266067 0.08542634397938968
60940000.0 0.8502073349319017 -0.5146577354203403 0.0428023296123527 -0.18205730484590701 0.0026100367384957277 0.0008401419035446239 0.4003718106214088 0.0794700239168504
61939000.0 0.848110444103058 -0.5218338668544942 0.047226217623397036 -0.1916026810186839 0.0006603783919736327 0.0014788405800350217 0.4217732363466722 0.06243211938973532
62938000.0 0.8401504809495802 -0.533155474184772 0.04924946342619199 -0.2067400856576251 0.0018656881455271295 0.001029118336035531 0.4451154048274371 0.0517690710223466
63937000.0 0.8354287187067164 -0.5406395497714296 0.0490403353801715 -0.22796819410621805 -0.002249696590255533 0.0025837850005549275 0.4291407521921297 0.04706090255427653
64936000.0 0.8307824532911872 -0.5452471243624091 0.05016261500767827 -0.2416519177057808 0.002236204016832587 0.003534156344518703 0.43393098678446135 0.04145072158013227
65935000.0 0.8260952947799126 -0.5574430526677046 0.04931645136871703 -0.2532883321964061 0.0007418635901816911 0.0006270814973532004 0.4472597348108786 0.01741349309065025
66934000.0 0.8228044206120743 -0.5632437931972519 0.05378774691686517 -0.26508444749644827 0.00022300957933461823 0.0014167978985335195 0.4384353212430949 0.026108471717155288
67933000.0 0.8174472689353066 -0.571101860716815 0.05164893689864226 -0.2773998776749551 -0.0025980957308078365 0.0028356191930790165 0.4483319693745194 0.010434372861124594
68932000.0 0.814858025109207 -0.5735926762757027 0.04752295123911794 -0.2954361875929969 -0.0003947302976315113 0.002677826960732851 0.4572696307086292 0.002202752086351788
69931000.0 0.8046398646204781 -0.5866967189208907 0.0468625969666495 -0.30949366468790823 0.002041499759218806 -0.00017659172027747295 0.4466188983946486 -0.011214159708180156
70930000.0 0.7978281413329108 -0.5960621343335551 0.04403393629686083 -0.3225682555044808 0.001856184786740907 0.002995029053226632 0.4450687498219277 -0.02622299553038041
71929000.0 0.7952370881629437 -0.6043398199151884 0.039541114886046225 -0.33936663539536194 -0.0035052874530151065 -0.0046838814436677275 0.4609449431549216 -0.03232123148808043
72928000.0 0.7861416763553907 -0.6123696679515861 0.03135652886974865 -0.35376635591695704 -0.004223524761037349 -0.0018393048396349123 0.4695113072021086 -0.04411597634165241
73927000.0 0.7822667664109959 -0.6173048402360736 0.025256362151638453 -0.3730221311574504 -0.00013458653348738788 -0.00240471220842076 0.45305659206638077 -0.05216704956624513
74926000.0 0.776070409501405 -0.6256160445779196 0.018705831810280984 -0.3927694083585119 -0.0011930129096486728 0.001345535161603593 0.46415111322771624 -0.049554691114280236
75925000.0 0.7714909169220481 -0.631476011961482 0.01245983344267552 -0.4106856491965488 0.0009362304866331218 -0.003475970669574573 0.4716910152705619 -0.07716819433566233
76924000.0 0.7628634227973974 -0.6400272825183623 -0.0012666151003881234 -0.43097929585054023 -0.0037249483566230025 0.0016724695279112238 0.4612749820721828 -0.07024685045827615
77923000.0 0.7579194051778229 -0.6457488703481371 -0.015199836020307202 -0.45466777717204215 9.886399800467257e-05 -8.82954374140142e-05 0.46681478715980135 -0.08846672487409826
78922000.0 0.7512255489941676 -0.6578319517896736 -0.02942319348680462 -0.4825125452815067 -0.0016614424602309087 0.0028928978804897117 0.46518469877792024 -0.10532509081835939
79921000.0 0.7428304793138099 -0.6585848728899075 -0.04907501586341038 -0.5067599943025949 0.001976467564842528 0.0017130585663150712 0.4568645822605815 -0.11773589704446259
80920000.0 0.7383526652747578 -0.6697408120061533 -0.05967900728989562 -0.53509652401496 0.0019429961228797105 -0.000991080440819217 0.4627121759698922 -0.1223752624888195
81919000.0 0.7315965148954261 -0.6766891503629022 -0.08328859277604601 -0.5587320693869164 0.0010618942005066851 -0.0011730891624217095 0.4722169591116636 -0.12125218029105067
82918000.0 0.7215720317437636 -0.6848575092317942 -0.09329986042850602 -0.5878490109450055 0.00034984996937947757 -0.0007305294555972255 0.47657278499123484 -0.14592519796011325
83917000.0 0.7143688990396179 -0.6934290906718036 -0.11580094048152602 -0.619351790530708 -0.0010274034243338468 -0.002744719613907236 0.48038289291482345 -0.1462817753644838
84916000.0 0.7095515483233985 -0.6994048743102009 -0.13243584905082184 -0.6495761258291348 -0.001978901410973036 0.0011190514273477013 0.45712184088982755 -0.16564758803404037
85915000.0 0.7013509907261244 -0.7059977283274246 -0.14915345493441806 -0.6835058942204716 -0.001581727689884836 0.001987761798091406 0.47111864542306736 -0.17043891920489918
86914000.0 0.6939034541752376 -0.716684975775043 -0.16494924157987934 -0.7187551657847217 0.0035679754842657223 -0.0013516447704477628 0.46349763832077867 -0.16624033894353277
87913000.0 0.6876698653264228 -0.7211007234408654 -0.1807719729105781 -0.7424173884143725 0.002535449659889874 8.8500535773901e-06 0.45618285243340423 -0.1727527008348145
88912000.0 0.6797980394861284 -0.72892649080193 -0.19903313401529446 -0.7816624037428498 0.001194723716752187 -0.0012607531949711014 0.47020969680237984 -0.20163665761466595
89911000.0 0.6737574178946176 -0.7365419517209986 -0.211855525404215 -0.8134256850829731 0.00032808505053650926 -0.0014950331877799422 0.4703047319039018 -0.20247113270241518
90910000.0 0.6654626192092798 -0.7427772541967914 -0.2284671804317427 -0.843864099330911 0.00032179803423706006 -0.0030104687327936457 0.4603910066052767 -0.2020086442085586
91909000.0 0.65750264139246 -0.7474344017550558 -0.24989384557511032 -0.8752997828313925 -0.0015329325013479064 -0.002300769600875162 0.4735939713151808 -0.21861764372281509
92908000.0 0.6471945807291457 -0.7554284585550278 -0.2640598365159711 -0.9046040491116313 0.001026628878774391 0.0005233058719548604 0.46054105432522124 -0.23610000017580174
93907000.0 0.6414508761915833 -0.7599385474898941 -0.27597039509286764 -0.9327682139509721 -0.0021575659405143853 0.005594029849163506 0.45095267096779784 -0.2516903751775364
94906000.0 0.6309235266707465 -0.7695995915743119 -0.29614447568111046 -0.9691640973898901 0.0025558902372108693 0.001375716582850613 0.4587463757467329 -0.24280513224237535
95905000.0 0.62181612064869 -0.7755779482846413 -0.3192118866161893 -0.9964683719912705 0.00284921471344035 -0.0006205413860815607 0.4675180739100691 -0.2702338407702099
96904000.0 0.6135270819704983 -0.7841506252211787 -0.3362377272604368 -1.0425678833077183 -0.00017304986567330953 -4.6672307364105315e-05 0.45426431562020075 -0.2677900519326859
97903000.0 0.6048196710246482 -0.7901673720722948 -0.3609816965917327 -1.0663623348406273 0.002588134463576849 -0.0028377764805822487 0.448918201356083 -0.27919685565603936
98902000.0 0.5994256305864886 -0.7967596505276799 -0.37379958461043383 -1.1055989456462354 0.003072378512340757 0.0004827721719732811 0.4484992205346264 -0.2864678725089998
99901000.0 0.5915811211260936 -0.8019044222656426 -0.4045515539641824 -1.1386825185248808 0.0013031874626744022 0.0021918275528034254 0.4656611666989154 -0.31292734789021703
100900000.0 0.5796337633357703 -0.8064015237021891 -0.4381760434825036 -1.1612771852499384 0.002236330412026407 3.2113118359976926e-05 0.4567261515648432 -0.3034389646992751
101899000.0 0.5726950470058196 -0.8124128170191569 -0.4603629406658611 -1.2027930691945647 -0.002466718277687755 -0.0037966793980426052 0.4543029503684108 -0.3181467496589541
102898000.0 0.5622510488472622 -0.8191923326265655 -0.4983187560801205 -1.2356953789117129 -0.0029707119020955896 -0.0014536522307442054 0.4537117220471636 -0.33562350832591775
103897000.0 0.5543269356932526 -0.8270616527629174 -0.5308836168687797 -1.2678996722017568 -0.0012180461270971516 -0.00042677037876664975 0.45553739866169735 -0.3327170993224332
104896000.0 0.5448828879491303 -0.8335088357331407 -0.5752545501983779 -1.2959928885981828 -0.0006803784687052201 0.0026244046267727733 0.43327973791567675 -0.33722226430904956
105895000.0 0.5354354794204695 -0.8385192935429524 -0.618116397712677 -1.3409171768113433 -0.0036308112668410526 -0.0015416253290537459 0.43836965024927854 -0.35177220109799073
106894000.0 0.5274533569606412 -0.8448126910433759 -0.67313163471521 -1.3769800519145619 0.0013550579493612025 0.0009203900750345004 0.4350953160523415 -0.36064594073178347
107893000.0 0.515301651204268 -0.8511592635542157 -0.7222529244815851 -1.4094359732881794 0.0011065189755228258 0.0015023944575603024 0.43183628566989163 -0.36989254543290234
108892000.0 0.5068698754920623 -0.8559816185273262 -0.7807080864847594 -1.4428320381102249 -0.0005616664999430777 0.003602409192355401 0.4366512258556882 -0.3618120051335013
109891000.0 0.4947492009990447 -0.8627571639040773 -0.836567782166794 -1.477949970073592 -0.0014126953346328408 -4.207867346496095e-06 0.4392647213875931 -0.3831073504506018
110890000.0 0.4912053783464015 -0.8719565443487242 -0.9035710462713793 -1.4991956783355684 0.0018212890422927832 -0.0018421256241701422 0.4340529406017504 -0.37927400660337024
111889000.0 0.4768060477428686 -0.86989845684472 -0.9584952007332092 -1.5462195921250659 -0.00215629943428007 -0.0006534953019513213 0.42599802091958083 -0.4004130623213987
