! Created with skrf 1.9.0 (http://scikit-rf.org).
# Hz S RI R 50.0 
!freq ReS11 ImS11 ReS21 ImS21 ReS12 ImS12 ReS22 ImS22
1000000.0 0.9683747043448853 0.0023181243726212424 -0.0027180035061185066 -0.037849536235859314 0.003871113014725978 0.010438538298096106 0.3271023645473245 0.29965531826508474
1999000.0 0.9916349147838183 -0.010380518451864525 -0.000700253248148106 -0.02930427915483604 -0.01409579720348955 -0.002508222751211732 0.24836817681444912 -0.07854823122054717
2998000.0 0.9991951334034986 -0.020105379305167377 0.015466096642735884 -0.018999532929194703 -0.004129768579324238 0.00264696240457364 0.1832928053367233 -0.13269427585541907
3997000.0 0.9994500604129557 -0.030830438411241185 0.011920481883428468 -0.011158674014722971 -0.004016660978854756 0.0009155031393881473 0.09218928264631286 -0.21721133971042636
4996000.0 0.9940386031963058 -0.04238715573788191 0.0112369712480301 8.961591636991903e-05 0.00329952218854872 0.0011193587472632092 -0.04372573568119983 -0.20105046415113756
5995000.0 0.995657440613251 -0.050117515823418446 0.008231827684551767 0.0008883007025304602 -0.004699036934394899 -0.0034845802641484077 -0.11738398010747468 -0.11761214890532351
6994000.0 0.996364384039305 -0.05841559702019829 0.007318077666676085 0.0066731046123522375 0.002496046377303053 -0.005381558385231206 -0.1319393899323909 -0.01849695240515332
7993000.0 0.9952428597423224 -0.06675691452489346 0.005082650207542446 0.006682345291719721 -0.0001360536639555402 -0.002074241702250071 -0.1540728481954208 0.028521397124804667
8992000.0 0.995240633947148 -0.07032811990753812 0.005511241288217381 0.0032866336249037596 -0.004307222952901521 0.0018861338837151253 -0.1666533257287786 0.05871192938703013
9991000.0 0.9924624702857445 -0.08236935310276339 0.0028550867441368972 -0.00246481771002518 4.70083913086288e-05 -0.002110930430662712 -0.14529901111759247 0.09818275509319208
10990000.0 0.9941777659468918 -0.09242317900747272 0.007162633410809497 0.004171019440179525 0.0024523795502036016 -0.003157707784048927 -0.13410789070347767 0.10645103952082427
11989000.0 0.989806078253828 -0.10019714076148606 0.006571723459423875 -0.0016667567338570744 0.006279580858832799 0.0034232432729621675 -0.1271111269249857 0.13725317532523676
12988000.0 0.9897640142882052 -0.11162783891170501 -0.002525676874717916 -0.004335119584869043 -0.0038018512323234814 -0.0009819404579934708 -0.11348751694546957 0.17003120277628975
13987000.0 0.9873079665032234 -0.11879691465383174 0.0015923772301699784 -0.0012374731603296244 -0.0019325363079848992 -0.0010200154802595379 -0.08588818060079292 0.17705729241038218
14986000.0 0.9879102320248804 -0.12710164117172978 -0.001675867201035899 6.707328509705631e-05 0.002191053065585067 9.090046111593439e-05 -0.07654482586203275 0.19586726602408858
15985000.0 0.98915058586455 -0.13678153281718178 -0.002528809073392642 -0.00503471459870637 0.000844500046468323 -0.001343092350139781 -0.06128550041850427 0.22541773101070267
16984000.0 0.9847899627403904 -0.14446440444545713 -0.0036737196968025456 -0.0035992918588834953 0.001760532091157864 0.0015025108665508273 -0.06378403257978925 0.2146561685196826
17983000.0 0.9868157929066257 -0.15287584784742078 0.0001711083535179403 -0.006019573262306135 0.0014096512325895202 -0.0017276289546539923 -0.05509355381550311 0.22837830023719033
18982000.0 0.9819782128321694 -0.1622451821809777 -0.005034406546023913 -0.009006463569012621 -0.0006978677027403013 -8.174033064414711e-05 -0.024002218987104338 0.23646917933146192
19981000.0 0.9834160791853226 -0.16661571606474362 -0.0029212807395741936 -0.005324296138720389 -0.002683998157484255 0.0012813487311115282 -0.012188588351782588 0.2425385719088005
20980000.0 0.9810176752888888 -0.17814564048211848 -0.00949534366900374 -0.005410246782172753 0.006246272385830908 -0.0019667657053157738 0.002785039035126046 0.2567497946653421
21979000.0 0.9796029575532856 -0.18571749809281762 -0.00593803027674112 -0.006056134722866209 0.0043890891064782165 -0.0006940157402035278 0.025071969386538093 0.2471018415356723
22978000.0 0.9756038917220541 -0.19758367922675843 -0.007643643261858839 -0.0027580999527101933 0.002237922563161005 0.002234572722310661 0.028522345159100328 0.2455997936717886
23977000.0 0.9787970170998975 -0.20147380650929028 -0.006459080001617936 -0.003689404220900612 0.00272934162282542 0.0014533621413855198 0.036204754998034896 0.24894945313362765
24976000.0 0.9739829089326211 -0.2158270025857507 -0.008175093670849351 -0.004121659200144871 0.0008479809582090525 -0.00254742957263098 0.06875483984226025 0.2556428020921285
25975000.0 0.9662167359954728 -0.2217142197745894 -0.0055670569459088165 -0.0015544286249321324 -0.018386933500489946 -0.020440088602023246 0.07417323670767423 0.25333075490180285
26974000.0 0.9697684668755959 -0.22917327586295108 -0.004178956739890304 -0.0011134232087819998 0.002372425335546389 0.0022376920243987117 0.09108837927781172 0.26614785714580064
27973000.0 0.9705578757674941 -0.23629254895296548 -0.002725629293193898 -0.0013176910240960634 -0.0023323317666544053 0.0030120607491142576 0.10049498684624486 0.2510901877309687
28972000.0 0.9648040484321632 -0.24818103589700025 -0.0005198500771045812 -0.003236247756795416 -0.0022750043652034757 0.0018523503448605858 0.12066659117851167 0.2525688945661321
29971000.0 0.9639166111930209 -0.254361461686244 0.00047042439348331916 -0.000859396984532673 -0.0011426954915691203 -0.002582807419465804 0.14817824789459474 0.27106360968578574
30970000.0 0.9615243428266402 -0.2598161766264714 -0.0024761018830033823 -0.0021199888568544656 0.003036036622643386 0.006157373074815928 0.16927402589033078 0.2602113098308366
31969000.0 0.960113926296178 -0.2703039509739681 0.0019598003804381986 -0.003341721648093134 0.001037603349209044 0.0003542494106052608 0.16082651281779808 0.24759478336157775
32968000.0 0.9580408770008981 -0.27866888584904864 0.008279925399680697 -0.010047643285473586 0.0013054488576848071 -0.002357182359082435 0.16892225680446968 0.2507220366343669
33967000.0 0.9549768489006547 -0.2899637098186187 0.012137881116186728 -0.011596618235904707 0.0012369556257899505 0.002662177632376659 0.18316972999973594 0.24885775163298376
34966000.0 0.9511105067945271 -0.2992480781392886 0.012319192275255419 -0.012722817812312144 -0.0007743051993757234 0.0007480630764318749 0.19402365982806896 0.25303819984524434
35965000.0 0.9494445360753885 -0.30637276723395346 0.018103516184630467 -0.013811575393228054 -0.0025198148866572424 0.001615905432994316 0.21102169072754864 0.2545126694144848
36964000.0 0.947740102477894 -0.31473744796606423 0.015453140508858425 -0.013238352198951305 -0.0014286324554220308 0.0009331403559142746 0.214119930982501 0.2528196073963588
37963000.0 0.9428473290060586 -0.3251029140858952 0.02137490363375849 -0.021107907321606712 0.0024736510815204613 -0.0005999739504917294 0.22155632402634529 0.2394570698077906
38962000.0 0.9407930777495086 -0.33411562674560297 0.024016475668872692 -0.023627775292363984 -0.0006008689455328437 -0.0027542700447977585 0.2431661839003131 0.23129777725771408
39961000.0 0.9388692274918065 -0.338521711751165 0.02604433600717117 -0.029121071986888927 0.0006386829589854835 0.00157544474021863 0.2575788442896274 0.2303271348287472
40960000.0 0.9356730614836559 -0.3487931303606804 0.024608725984489908 -0.025867975627410257 -0.0010454378804966625 0.0008936896769593156 0.2655426270869911 0.22668034520164984
41959000.0 0.9314184211254817 -0.35847499320052306 0.03154103627272549 -0.028047132607142124 0.0008500914013269446 0.004308295341592773 0.2742398331936194 0.2195606133848596
42958000.0 0.9268955575091263 -0.36661144667733125 0.030801492478573497 -0.04039874829313874 0.0010772504794876372 0.0005694441423420352 0.2894911301518905 0.20313381443861378
43957000.0 0.9250967986714396 -0.37450781155117985 0.03221237379947549 -0.04576869634862746 -0.0026554456521246774 0.001560570197816217 0.2859552843843213 0.201129203005635
44956000.0 0.9212633564823629 -0.3828632099482145 0.03471195866842473 -0.053681263809653115 0.0005902768989834569 0.0006024528740104689 0.304725454775756 0.19601030867969332
45955000.0 0.9171018483624862 -0.3928560980182329 0.03499455272426774 -0.05588410164795033 -0.0012453439031682612 0.002201882533388564 0.3001509152080131 0.19372413691843388
46954000.0 0.9146662570578317 -0.3998685297054731 0.035045971777604816 -0.06455419429009494 0.0018335452892215558 0.0003814396392582207 0.3299869732934398 0.17945930410439753
47953000.0 0.9107198167897979 -0.40766700899061853 0.0370566148825116 -0.07411596869898698 0.0010411951031064968 0.0011353571042042462 0.3353086586079989 0.1754547199949447
48952000.0 0.9039439462643974 -0.42067374076824454 0.037615391489655495 -0.07888704752416555 0.0010269641080008812 -0.0003349860973517468 0.3308131256415773 0.1613661530347985
49951000.0 0.9032069923242217 -0.42237545515409997 0.03881579523365141 -0.08783602651116024 -0.0009670738526099571 0.0031953339475928235 0.3519223030406165 0.15541088662184668
50950000.0 0.898342089992361 -0.43408998048003444 0.037724865286992315 -0.09484351680098269 0.0004955486397435943 -0.001478848153479347 0.3542000227665149 0.14706545210959754
51949000.0 0.8942029265028287 -0.44064704881659733 0.04146619199608636 -0.10336223201650449 0.002780345958357386 -0.002525187877217406 0.3711900588507744 0.14632778852753378
52948000.0 0.8922449092486763 -0.4490014569684841 0.04214958016766779 -0.10988957956079978 0.00018524293435193625 0.0012705743524472244 0.37867419862463525 0.1449607471041395
53947000.0 0.885247388357975 -0.458937612037175 0.0431252153552391 -0.12069854356111448 -0.0019101856280760911 0.003617085001598877 0.3772963743526907 0.1341806963699111
54946000.0 0.8801405783886298 -0.4659736048047445 0.04564788717433047 -0.1279346581280053 0.002902274024779007 -0.00024173086801041108 0.3934337919703419 0.11912717589235344
55945000.0 0.877598510228657 -0.47520554105086116 0.04228969215735643 -0.1425186603004885 -0.0027613096055520273 0.0015539036829501718 0.3862378367995888 0.10798862301679849
56944000.0 0.8734831255648997 -0.4831668378007475 0.049053570477058425 -0.15065560186004456 0.002142477080433648 -0.0017959122470255927 0.4012465960626335 0.11333390610863012
57943000.0 0.8668906235619989 -0.49388312046200655 0.04762444339450701 -0.1626530544465839 0.0003755915512183113 0.00019405657232472867 0.4126029262737598 0.10670776247274787
58942000.0 0.8627788929537925 -0.4978911259406299 0.045585538576361904 -0.1722314119780507 -0.0002739857564089178 0.0013199306396345352 0.42484926085198016 0.0864942293495705
59941000.0 0.8601918509741185 -0.5062501838574676 0.04926478765256613 -0.18021431600968213 0.001836772154077187 0.000315330894959011 0.4212535330805398 0.08770875371165952
60940000.0 0.8524734031800352 -0.5142683247183801 0.05084444114726626 -0.18804329299741637 -0.00034803435322589623 0.00024391269916023656 0.41376089745635614 0.0847003369367603
61939000.0 0.8489993493914549 -0.5206043078326249 0.05088952692371982 -0.19379766801868387 0.0013074375873672636 0.002754276465142755 0.42011993189210883 0.07066601577179654
62938000.0 0.843470654885674 -0.5319196659334305 0.0567177534095872 -0.2112231038556608 -0.000751958673487696 0.00048373046957848816 0.4403725869953186 0.060239963434090396
63937000.0 0.8377309516423126 -0.5400354400874681 0.05461080145590202 -0.23395988664331768 -0.002354995114621213 0.003185024596861101 0.43942563614670316 0.04761939900991242
64936000.0 0.8305375247640429 -0.5468901261933853 0.05702580109589667 -0.24262990966816358 -0.0015278702345714356 -0.0002854447676988078 0.43370300510786464 0.05281523349420655
65935000.0 0.8289608798304631 -0.5546361099682429 0.05357639244769122 -0.2585691362226571 0.0027909807722558155 -0.003225863815615646 0.4524693175158724 0.01742013085608611
66934000.0 0.823850380361326 -0.5621250706208526 0.05710964278693184 -0.2741748356904934 0.0017619168639356325 -4.882240448016786e-05 0.438855500910406 0.004456257357542731
67933000.0 0.8212019581254013 -0.5703089123668036 0.05599931456795587 -0.2857722090930451 -0.0005600742683222874 0.00014649069064365266 0.4538859568253095 0.011462935156985175
68932000.0 0.8073263761847623 -0.5766180695524374 0.049432911250451794 -0.2987068065244998 0.0004503098847890021 -0.0030638268730805132 0.4627137048162656 -0.0036808511523585097
69931000.0 0.8072722171422816 -0.5852305357123678 0.05487528406459429 -0.31728084447011623 -0.001522407483909978 -0.0005491958536659667 0.4643895405763317 -0.006572464343274563
70930000.0 0.7996417055089695 -0.5946153140339615 0.04664129903439217 -0.33131058074693964 0.004001901685664136 2.75348677598286e-05 0.44780865429843786 -0.031602220606504236
71929000.0 0.7958627145088129 -0.6009307060016686 0.04744840347837536 -0.34825439109450335 0.0007689776500652476 0.00016093705923478138 0.462887431827298 -0.03573592938946046
72928000.0 0.7885685182757475 -0.6104182983572757 0.041914665587316366 -0.3641230100637194 0.0023369066575436967 0.0019165034547132822 0.46732559166276094 -0.03676198751442031
73927000.0 0.7829931444297691 -0.6169609972866864 0.030875917383751773 -0.38626752975529294 0.0007537401820192862 0.0033713167086035587 0.46684400154509326 -0.04546991848821564
74926000.0 0.7768261502578955 -0.6264817101651871 0.025289358985758337 -0.40253431792131644 0.0011822448809057813 0.001728111499751123 0.4608135534593158 -0.055898956484073226
75925000.0 0.77236461603703 -0.629861261560807 0.018344899792823076 -0.42205069142015544 0.0008558256220458144 0.0009498892300789049 0.47766754871428174 -0.0588662479570364
76924000.0 0.7654970355201596 -0.6367634674153722 0.0056168304990860925 -0.44774288433657383 -0.001610053476507967 -0.001161918273883585 0.4713547703871315 -0.08030368994818664
77923000.0 0.7583525520386492 -0.6440265077855631 -0.011297270118499464 -0.4670352923417133 0.0006156771043036216 0.0023655020717598847 0.46088189280417363 -0.08353810665344447
78922000.0 0.7546782763610786 -0.6535191616568495 -0.02159377645246988 -0.495915814776017 0.0029822345462886374 -0.0040251496492705215 0.4688812437896406 -0.10182695646183089
79921000.0 0.7453203199908234 -0.6596627459822 -0.047136266092639295 -0.5207684531388242 0.0008350978476595527 0.00110379258999795 0.46195811264882236 -0.11095063705061801
80920000.0 0.7387418674790566 -0.6703577882165286 -0.05420492742440856 -0.5515246007930331 -0.0011405461432606237 -0.00017279658428859813 0.4773742491439706 -0.12461274952520014
81919000.0 0.7343824289018979 -0.6748061537754001 -0.07098669381666418 -0.5802918563059275 -0.0055612006610550446 -0.0008448820272469626 0.47089500519089994 -0.13051010964006698
82918000.0 0.7239803205505868 -0.6845214571183796 -0.08586593447302536 -0.6062864357892845 0.0014995926071838244 0.0016385443520636298 0.4896949045595128 -0.1293202239150924
83917000.0 0.7164482301673015 -0.6908940360251646 -0.10670563711844608 -0.6350568117256491 0.0001500216983187443 0.00503066393133576 0.46961490434190467 -0.14372332737918272
84916000.0 0.7103769331885949 -0.6989709736023139 -0.1209842633867498 -0.6718679347682591 -0.006211712620754421 0.0012481368891512812 0.46898332098957407 -0.1570622464075634
85915000.0 0.703779967364893 -0.7036333608669151 -0.13738161663834123 -0.7034151981794505 0.0002317656528500747 -0.001239160639311941 0.47711145105400393 -0.16145173201035298
86914000.0 0.6966707623255886 -0.7164283620556094 -0.15539115565238742 -0.73903906822983 -0.0018481832766164864 -0.0008695890904813309 0.460197913071947 -0.15934677337249314
87913000.0 0.6896255487509412 -0.7206191153605094 -0.17530088227583313 -0.764348682659501 -0.001381747484392872 -0.000383640478186244 0.4617582601944398 -0.1752895597781112
88912000.0 0.6811234688629924 -0.7288232194750962 -0.18991992024243676 -0.7978331313928411 0.00019827931043418085 0.00040471699526304267 0.4732990153874872 -0.19199519695355705
89911000.0 0.6748250078936067 -0.7379218997613458 -0.20955124181615944 -0.8358998709446638 -0.0004864724318421506 -0.005459022242486065 0.48337105860357815 -0.19473562292106752
90910000.0 0.668010712115345 -0.7424422862250974 -0.21958822534107528 -0.8700373455280854 0.0014036484092522204 0.004167591169513117 0.46757794727621516 -0.20148190348257325
91909000.0 0.6589957859269209 -0.7462087837887998 -0.23731015784029286 -0.9063047081174275 -9.102561783706001e-05 -0.001260761131726935 0.47765663846523554 -0.20962551985646036
92908000.0 0.6503560858306487 -0.7565147782562068 -0.2576613770020664 -0.934082381592437 0.004314708672742595 -0.0011537566748495251 0.4711498822322672 -0.22160599126043662
93907000.0 0.6439913945285184 -0.7601111701410618 -0.2784083356653947 -0.9675153688670919 -0.0005486209637920743 0.005443821577910381 0.4729649599427748 -0.24427038224747874
94906000.0 0.6314798289362664 -0.7672916113340635 -0.2913083400588719 -1.0006463315743204 -0.004180814126763054 0.0011498130748771676 0.4720212191833389 -0.2452164880298109
95905000.0 0.6248296424885789 -0.7760520201362758 -0.3179544715989733 -1.0355207185721673 -0.0005377302406204986 -0.002598934521630397 0.4671682847229779 -0.25037433016383814
96904000.0 0.6157742419835792 -0.7841841643864971 -0.33467453433526434 -1.0769894051491287 0.0026058119252496035 -0.0018961923649057743 0.45599000257992167 -0.25724314387785535
97903000.0 0.6059663432818012 -0.7886364351909455 -0.35803167842823264 -1.1018550782797447 -0.005444309944722843 0.00015784636611574545 0.4598176524049795 -0.27799151759860125
98902000.0 0.6034200185407728 -0.7951300509232773 -0.37470401821614613 -1.1462212024010348 -0.001348395178660185 0.001962376933279121 0.4581114474410696 -0.27707425558584137
99901000.0 0.5915338618480115 -0.8012455804328519 -0.4046409053226024 -1.1771640831543853 0.004190438148541508 0.0011734420259105302 0.46561646940416124 -0.3080801608552615
100900000.0 0.5810903795878439 -0.8042491366333293 -0.43694270085377296 -1.2044024016663246 0.00033947066836696857 -0.003341310706646044 0.476130767098758 -0.2980254592747879
101899000.0 0.5731782938495902 -0.8126333855753608 -0.46131644787698695 -1.2436315721543736 -0.002716523964536834 0.0003040185018927047 0.4586251834264004 -0.30924359025386533
102898000.0 0.5642099706844164 -0.8183535792445036 -0.49444985983743983 -1.2865128458090638 -0.0012510007919271772 -0.0036190161196929718 0.4653220028152851 -0.31938536639140475
103897000.0 0.5548314486610492 -0.8268351761298509 -0.5346238575585588 -1.3151976137593184 0.0009585520258308744 0.0033730268996074618 0.466534182455103 -0.3207291788938897
104896000.0 0.5475276352891675 -0.8361160742161656 -0.5825817049024331 -1.3556099160311472 6.599524878712112e-05 0.0001822349221926631 0.45591461902967095 -0.32656519825148245
105895000.0 0.536206684891763 -0.8376438450173114 -0.6244055954114163 -1.3922040807665073 0.002635637612656413 -0.0010929416641572431 0.44308808234606345 -0.35571856696395265
106894000.0 0.53013737942645 -0.8443768637805373 -0.6807404814360429 -1.4349019125164009 -0.0027912817910061205 0.0012254442917561225 0.4479305618189917 -0.3492919946728273
107893000.0 0.5208580035802262 -0.8503756882392752 -0.7365287981626771 -1.4699154322361685 -0.000569256961327917 0.0009679025918261126 0.447356862260613 -0.3696218273294192
108892000.0 0.509461819601557 -0.8547094759514898 -0.7940931648231311 -1.502549591759681 -0.0008526786698987012 0.0013145046879656922 0.43665048846246135 -0.359128477332965
109891000.0 0.4978137852827691 -0.862844823290052 -0.850935971064076 -1.5364146880478715 -0.0015239387462999297 0.0006643730393399472 0.4484521742514416 -0.36987470937353184
110890000.0 0.48018948460611155 -0.8780936959765266 -0.9384154750001661 -1.545529825425641 0.005485386536399862 -0.0005290628760205278 0.44349778588369 -0.37073958561538134
111889000.0 0.4756092946545905 -0.8686022041511079 -0.9782080186927858 -1.6057855556285014 0.00032772419967605477 -0.0021468847095168155 0.42721941211122794 -0.3793491940262122
