! Created with skrf 1.9.0 (http://scikit-rf.org).
# Hz S RI R 50.0 
!freq ReS11 ImS11 ReS21 ImS21 ReS12 ImS12 ReS22 ImS22
1000000.0 0.9779778455799247 -0.001748194367285235 -0.026376739971049654 -0.0277121577741545 -0.026945415925923817 0.023588082805284776 0.4095732889589102 0.32633679171123364
1999000.0 0.9916600753209959 -0.017391291860207908 0.0034415887743568935 -0.028152162887904734 -0.0031043988217014785 0.0009916176060596504 0.249397198245314 -0.06585483839770277
2998000.0 1.0010027299116386 -0.019353660860083943 0.014653554425364177 -0.014740858487648877 -0.0028672915834574322 -0.0020448044739617946 0.18651804415991038 -0.14379204998803555
3997000.0 0.9985011219089835 -0.027977536824229245 0.01262586816966531 -0.005421935691303646 0.0008992188075940542 -0.003969004402053256 0.09942025839091387 -0.22059960579938467
4996000.0 0.996365624921475 -0.03864660563359258 0.007211423626452023 -0.0006412765302726731 -0.004975630445391656 -0.006405999268450757 -0.04022942268246711 -0.199291897658674
5995000.0 0.9991764214358005 -0.050558358705139715 0.008337698789428503 0.0024408417107142557 0.0012668423116972273 0.00015768010113715992 -0.10758542975179115 -0.1173807760117576
6994000.0 0.9960064050139892 -0.05966177621659706 0.004435409149530864 0.0009939808993204556 0.0018892859947791918 0.0040554851149068715 -0.14456660633856258 -0.02642252479894914
7993000.0 0.9959492105793648 -0.0698740490947819 0.006087542886808955 0.0027466584524584964 -0.0019728237239615746 -0.002555418175851926 -0.16104488256856192 0.027288979228217786
8992000.0 0.9955362775366082 -0.07240969475701009 0.002075645441143555 0.007793533947905788 0.000433500693128998 3.611280099034559e-05 -0.15801136265355703 0.05796440812823056
9991000.0 0.9947873290794275 -0.08198585194445909 0.0031418189576902025 0.007269112952981157 -0.0010573333931286537 0.002403844472834099 -0.14993595168353616 0.10189777231496433
10990000.0 0.9930239738534712 -0.09077405786490171 0.002014464486830418 0.005091196145602628 -0.0029501165254754796 0.001320002686026238 -0.14235767399081362 0.11144791046011239
11989000.0 0.9936572656710627 -0.09935317553106708 0.003583090446181009 -0.0013737195417138014 -0.00037681288771221864 -0.0019548723354180903 -0.12524297770890155 0.14957373403979587
12988000.0 0.9904442444510535 -0.10635893095449014 0.0002022180096574135 -0.005544244403795633 -0.0017075810532543817 0.006077599322608118 -0.11944772353241652 0.16563171982420333
13987000.0 0.988764142617289 -0.11665433257405193 -0.0009588754634176528 0.002732837128617727 0.004430920703388878 0.004462995980692769 -0.10419247494510243 0.18075002749325988
14986000.0 0.9871919092348039 -0.12426030033096866 0.0009978448136515165 -0.004599168132250089 -0.00025566516541684664 -0.0016364066164888166 -0.08656853153772248 0.20499800398775186
15985000.0 0.9903804352637074 -0.13228337914821062 -0.001488624696370161 -0.0025338783775581742 0.0006692478366514147 0.0024308415236977917 -0.07371948839913106 0.21852768310749646
16984000.0 0.9861681900184076 -0.1466991342776698 0.00030087875611960494 -0.0035356888156121598 -0.0028759915873021913 -0.0009551375863696406 -0.07620668867206401 0.22394785586035226
17983000.0 0.987200697937764 -0.14989281978864602 -0.0025560749376582607 -0.006762956144407216 -0.003894141976470293 0.0005568463431827873 -0.052731730701045525 0.23347370434143633
18982000.0 0.985003990717929 -0.1603191470996337 -0.005500315409276681 -0.004992008777533701 0.0006999517504943507 0.0003336752991605677 -0.015469717427040805 0.24020578104926515
19981000.0 0.984002660561584 -0.1652144685665389 -0.0032616926691172382 -0.006687572141310093 -0.000305778835483358 0.000661614111145947 -0.019835270345722907 0.24621889414192424
20980000.0 0.9805716974826124 -0.17551908443547715 -0.00846659342593728 -0.001433976326016444 -0.0020102048223267334 -0.00020022596073024018 -0.006523859441837003 0.2500474538564631
21979000.0 0.9809822767638493 -0.1834066017356367 -0.0035894746084158624 -0.002037288064348729 -0.0029285655593909708 -0.0035717027742029495 0.014883414963304836 0.24331066981714977
22978000.0 0.9790538542057592 -0.19079853524031046 -0.00399364112224952 -0.0022003987031394097 0.0006256586129692704 0.00021193425196123627 0.026191361844745433 0.2529562859211204
23977000.0 0.9796495188103098 -0.19942982363660744 -0.007515227799283224 -0.0024863977200923885 -0.0022205653956939584 0.0017204450569101395 0.039354963816484685 0.2556034701018224
24976000.0 0.9746722201759997 -0.21049775323548575 -0.003612079842360722 0.0007608639257845922 -0.0030036603676527793 0.000697646761658772 0.05488593481913939 0.26051803213696967
25975000.0 0.9697164835234514 -0.2166510450722817 -0.00506356894150526 -8.003113321891937e-05 -0.027581735121431958 -0.002096617220492769 0.06859712925288802 0.25607435053021727
26974000.0 0.971453004974284 -0.22574008819532657 -0.0038557009681192563 -0.004667959569549016 -0.0011893260261851034 7.466479692432383e-05 0.08999099803828214 0.257052029783785
27973000.0 0.9718958020731086 -0.23325210858139933 -0.003701110609170632 0.001488095470856824 -0.0006130249413409887 0.002778178706246752 0.1059654807289931 0.2591051987492211
28972000.0 0.9666897565861386 -0.2448286016551825 -0.004336712515599166 -0.0038791974627164255 -0.0018379008607242997 0.005183067065179543 0.10614466107144653 0.26223393982859605
29971000.0 0.966025227931258 -0.25064474327294645 -0.0016127398267907894 -0.002422999218650888 0.0021068746574300174 0.0007122446130285207 0.1516815289753392 0.2731976826726452
30970000.0 0.9634629331952803 -0.25666263518234733 -0.002221637498813997 -0.002203822020051412 0.0024264558018505652 0.00037553353546884466 0.16527729085696963 0.25516485842878256
31969000.0 0.9599310277544865 -0.2659439970035332 0.0036796999455712518 -0.002884234157235319 0.0007744586448043345 -0.0013771593011136488 0.14258119908499547 0.2455175465776018
32968000.0 0.9586439437234493 -0.275496042373302 0.010505167226640922 -0.006999609102679196 0.0004935904287844813 0.000874297074119176 0.16433434287259455 0.24597085241270464
33967000.0 0.9565633562421455 -0.2856331734808867 0.010725427659505543 -0.010367854017621653 -0.00237609447378831 -0.001549990729176357 0.17983203793516042 0.23375959680211422
34966000.0 0.9557838238105156 -0.29089263267767584 0.013963760271014038 -0.012458849170515308 0.00020920378855923975 -0.0017502929529300117 0.19520027604859902 0.24570688031789165
35965000.0 0.9514651742646484 -0.30104370261731483 0.01633043901213171 -0.01632725537501777 -0.0007128814587434453 -0.004682099924636361 0.2124868015262648 0.24906852305768734
36964000.0 0.9492406092141459 -0.3083795229238759 0.01632091370645649 -0.013600164587107048 -0.0003366327767396778 -0.00015023906187651147 0.22639937993124198 0.24911938598139874
37963000.0 0.9470033466786308 -0.3168977990211878 0.02419082476566565 -0.02117686394457068 0.0003690869180504139 0.0007298900990587877 0.22715330457977148 0.2364881351748742
38962000.0 0.9445017213799419 -0.3261908109317715 0.024453524734145048 -0.02364858569400201 -0.0020102523342749594 0.0009237804575888567 0.24467454157897897 0.22722349475376988
39961000.0 0.9399854558148514 -0.3360468075098262 0.025615083139791505 -0.030066185885502153 -0.004877759014018461 0.0020622110915620756 0.2558240995858881 0.22421234930099102
40960000.0 0.9372208872947456 -0.34362379073406674 0.024686240212547964 -0.024240362327910447 -0.004050512059605451 -0.0010589441473070286 0.26359170118398934 0.22444293103577678
41959000.0 0.9345581015853804 -0.352244230581751 0.027648313092598395 -0.03373913112149826 -0.0020686453077029326 -0.0020314783729635517 0.2695883371837418 0.21412671735798205
42958000.0 0.9294183863739732 -0.35995107852040076 0.029116949391894492 -0.042503499620147225 -3.3831496920999834e-05 0.0015123837151157522 0.27450653648120005 0.21029574420110264
43957000.0 0.9282557137971409 -0.3647694237020976 0.03239975556496758 -0.04516056166535523 -0.0010317931033138612 -0.005114157818062907 0.28923427075789515 0.2120990083054341
44956000.0 0.9236840332304965 -0.3759486254836466 0.03020898711787897 -0.05185436369112847 -0.004555400138046244 0.000576446375921703 0.30204336002803645 0.19720499032218722
45955000.0 0.9196484772357839 -0.385272215024525 0.036477267339998266 -0.05713151273208417 -0.0006060149923579275 0.00135541018996554 0.30220807501505403 0.18972930959842618
46954000.0 0.9163724992177066 -0.394163859229248 0.0354482448587479 -0.061556004718908236 0.0010492705241370514 -0.0001444871346042876 0.33023067548390606 0.17557287678466496
47953000.0 0.9140624745126189 -0.4017484301622945 0.03218181171596692 -0.07063169385579009 -0.0012883633382974248 -0.000926135789212422 0.3369487372550103 0.16903933887783054
48952000.0 0.9092991058055476 -0.4114279481588865 0.03728338250435588 -0.07882211281870011 0.0018679109206218355 -0.0007734563263182262 0.3353142499008535 0.1587044463221744
49951000.0 0.9061320487092329 -0.4193710599838864 0.034871720883297944 -0.08800871130477575 -0.000212664617918063 0.000580426327603051 0.3607450914258567 0.15265453310383642
50950000.0 0.9024650546877171 -0.42523221196599825 0.036784192575876125 -0.09381493112010936 0.005186879550825124 -0.00013663233504977964 0.3510021764002566 0.13835449103763542
51949000.0 0.8988205592574141 -0.4346428574234129 0.037533544732499514 -0.102765039343998 0.0023017407230089414 -0.0012241531777282923 0.35341193537242815 0.1481255450262199
52948000.0 0.8977474094916862 -0.44129092437865386 0.037942148975476396 -0.11075911949416516 0.0025932053779978118 -0.0005465868664944532 0.37062342834149997 0.139384480364182
53947000.0 0.889717699791025 -0.45252732719093053 0.04207869679701766 -0.12081949816612655 -0.0005119665348507755 -0.00038342754179882503 0.37422273843985365 0.12446710352770676
54946000.0 0.8851941707007032 -0.45853573046655194 0.03913407298996265 -0.12804736889704638 0.00119455770651392 0.003035373806750695 0.3839281856053165 0.1304285282053342
55945000.0 0.8829815879699344 -0.4668060749852051 0.0445897985679421 -0.13836676691055674 -0.000517875922533532 0.004306722292817247 0.39060754518627655 0.09748853487416306
56944000.0 0.877956001104652 -0.47519585939834147 0.042866772849638274 -0.1518036158425336 0.001031238533770976 0.0022102056394294827 0.4045747664615883 0.09827182264922793
57943000.0 0.8721496524459283 -0.4860508171410128 0.04534516574959431 -0.16190625893532287 -0.0004077248519402219 -0.001409777696357239 0.3998132514535464 0.08855961232742211
58942000.0 0.8679850851260524 -0.4910941572119539 0.043638498087849246 -0.1718695621159453 -0.0010175100572351842 -0.001362096330670211 0.4259676039820763 0.09054214519470494
59941000.0 0.8664649985814012 -0.4972377708162688 0.045886649052494316 -0.18113782726968772 0.002251448068131521 -0.00017068083322928487 0.41975841729071145 0.08640746441851521
60940000.0 0.8584459419619358 -0.5050736378609406 0.04670785345207997 -0.18551782354886825 -0.00247828399551718 -0.0012416938818257117 0.4112720611933939 0.07494473934638275
61939000.0 0.8553281429162598 -0.5126291795093431 0.04596176089316338 -0.19433342611092327 -7.474739398195063e-05 -0.0013808028421092228 0.41510340480750474 0.06316839470041072
62938000.0 0.8487720737225463 -0.5238677863094164 0.0494880082064433 -0.2089636251800753 -0.00017332599505824733 0.0007378585117467091 0.4382161710294939 0.05086772469856869
63937000.0 0.8451524617930166 -0.529525728672558 0.054151220596349046 -0.22849641489208436 -0.0027622336111331447 0.003072332883417152 0.43701870707872964 0.031827477386628784
64936000.0 0.838678171673686 -0.5349273149158523 0.05253458003403965 -0.24262552492902945 0.0018619314548220542 -0.002007661361520969 0.4294684414278483 0.04232405173686509
65935000.0 0.8351574040014427 -0.5456994031026339 0.05420602243686303 -0.2558003960504642 -0.0006963689313895095 -0.0013145884873645563 0.4473247331801645 0.012697960202121323
66934000.0 0.832727230826185 -0.549689708612553 0.05007625404468717 -0.2690428534168153 -0.0010092707627034102 -0.0007096377966829816 0.43681265181452694 0.010597459773495497
67933000.0 0.8283880505648576 -0.5609897072837923 0.05252221482082051 -0.2832643706294097 0.002119455215460172 0.0022736302462270943 0.45571310108634777 0.004145116889085266
68932000.0 0.8210262417458541 -0.5542099449745361 0.05355534967047307 -0.2935715270503482 -0.0015962007432834963 0.0021898193509377007 0.45245312223214873 -0.01357383239141776
69931000.0 0.8132135180921349 -0.5768806349819803 0.04801455912673329 -0.3136257575803133 -0.00040113251516243995 0.0019555495757877 0.4580772849480939 -0.033923897739393305
70930000.0 0.8087124943282262 -0.5838685850655253 0.04689622498996106 -0.3265004956571749 0.002529465715835101 0.0007155056973496575 0.4503733058633973 -0.029390665695672145
71929000.0 0.8040780453082519 -0.5918984985842258 0.03840010721400124 -0.34353854220911395 0.0016099982455148013 0.0004871947805706267 0.450209116841335 -0.04584155285006282
72928000.0 0.7995319604933668 -0.5999681798584267 0.04064748233440165 -0.3551952192691851 0.0011772041981906256 -0.004121101972068559 0.4638832265070552 -0.04314014990752965
73927000.0 0.7910496086232859 -0.6070177838078108 0.03427521275410782 -0.3771040477731718 -0.00046127022361836174 0.00029521664010700093 0.45640749588576623 -0.058074923490042396
74926000.0 0.7850837371869855 -0.6161155942917823 0.02293951557188345 -0.3930804181594268 0.0002765729196252077 0.001183179612254618 0.47381216704761603 -0.06295567012630407
75925000.0 0.7817293184455515 -0.6204301003244874 0.019989331753723198 -0.41494044679703856 0.00010040309300537975 -9.675526367751989e-06 0.47584058225367765 -0.08155754766102886
76924000.0 0.7735147488439069 -0.6294418340044993 0.004867877308707194 -0.4370722244320124 -0.004174944853114341 0.0004543820277289508 0.4620349797825286 -0.08609224579111859
77923000.0 0.7670035824693336 -0.6364154658469637 -0.006841222860809272 -0.46033232400604757 -0.0005563491926540834 0.001866868576935492 0.4721237583552659 -0.0855711936839642
78922000.0 0.7619102413500389 -0.6461704257979667 -0.02239274807649638 -0.4850886322486155 0.0012248804993344026 -0.002149054740868716 0.4734616607693045 -0.10987907539459923
79921000.0 0.7545882383822059 -0.6497410340591391 -0.042628957454004156 -0.5060256106494955 -0.00010894692792076689 0.0018809080063996715 0.4590775272891027 -0.11890437801495418
80920000.0 0.7492630852941594 -0.6581047706448245 -0.0561301202407881 -0.5371443924586708 0.0029464642998331 -0.0002217456831553649 0.47348297363872366 -0.13143735429181355
81919000.0 0.7438037647844155 -0.6660824715315138 -0.07302400935182501 -0.5629833930616289 -0.0008510750830566848 0.005615323494276092 0.46444803126493145 -0.1352066091991409
82918000.0 0.7353472642662984 -0.6716515757266343 -0.08829745436996597 -0.5938835710446819 0.0006889101800365986 -0.0012055645395937708 0.4761832938761875 -0.1359090778359724
83917000.0 0.7274083119916428 -0.6811001711462631 -0.11434529058023075 -0.6160131374428004 0.0011535529831867908 0.0030244913266168996 0.4715007874163461 -0.144312274996847
84916000.0 0.7227778415755575 -0.6882706878404589 -0.12373413551565676 -0.6571879115125241 0.0016255302994249566 0.004960850897945978 0.4721064884053971 -0.17364683172901452
85915000.0 0.7157363152372727 -0.6942838103402466 -0.14901079532657938 -0.6829468460847742 0.0011758674889515404 -0.0022436510516180537 0.4667965509187619 -0.17964598332094087
86914000.0 0.707606118946448 -0.7053967596534202 -0.16523953577887474 -0.7225016554144232 0.000740396016261336 -0.0008099579104727255 0.46546032413787997 -0.17400133024048908
87913000.0 0.6991017748510538 -0.710026282765016 -0.1802102157346247 -0.7483969721971624 0.0013601091748527666 0.0010582112857753538 0.4595526043183365 -0.1783898875980208
88912000.0 0.6946309601850205 -0.7173988460726964 -0.19861637880514044 -0.7830306445595427 0.0007070221918667344 3.807941971457367e-05 0.4633827262994125 -0.21867351973278285
89911000.0 0.6852179293136559 -0.7271860218314884 -0.21547646674719725 -0.8183433052662825 0.0011072049718900843 0.00013455671490385652 0.4623513659985725 -0.22267277407948638
90910000.0 0.6794602094269364 -0.731632003241728 -0.22926615677634135 -0.8508197910309833 -0.0016622151870570748 0.0011834940398738026 0.4513706694237516 -0.21090710002499763
91909000.0 0.6696802534824199 -0.7365872882997112 -0.24596604589080026 -0.8827658742514036 0.0003297120844004974 -0.0010915489500820746 0.4693107690034523 -0.2199213292552321
92908000.0 0.6633548643044602 -0.7451724754475375 -0.26657805030342296 -0.9207007299673579 0.003314511690774035 -0.0010154859624447042 0.4651178062060737 -0.2361122121408575
93907000.0 0.6561004299723399 -0.7508160071010146 -0.285078901383102 -0.9492040506820457 0.004774361519078239 -0.0012819162483348621 0.46065597268823183 -0.25216768966633885
94906000.0 0.6429954041374896 -0.7592501434402672 -0.30389076224528705 -0.9791771530887444 -0.0016278278741149411 -0.0008419965299663838 0.47669918753016977 -0.2559494350845027
95905000.0 0.6383350625209347 -0.7637234262364841 -0.31942416296369763 -1.0144769234275077 -0.0036045659600505865 -0.0020936149900458293 0.4552766731418608 -0.27093274999135714
96904000.0 0.6298663007533457 -0.7746952310485046 -0.34343137270240254 -1.0520845011655402 0.0034578007932159764 0.0010215438643034185 0.4537135793015683 -0.27817703435467034
97903000.0 0.620280937203282 -0.7784986808172626 -0.36163041317082684 -1.080634544790651 0.00206396138910014 0.0010286702470319734 0.44919723145841106 -0.2916091568968621
98902000.0 0.6146376219405613 -0.7848024642629836 -0.3830006422341383 -1.1198394596245649 0.001850755847133277 -0.0022393764156795944 0.4550285145726157 -0.3056685133536636
99901000.0 0.6061246228447841 -0.7919695510758404 -0.4080757316445505 -1.1484093436953413 0.0007358136503047843 -0.0005897053294681578 0.4669879509825315 -0.32012809770018125
100900000.0 0.5985213474563382 -0.7950163500325319 -0.43827338181987435 -1.1781837485265916 0.00045836169171776863 -0.0012745641001089846 0.46190469563612563 -0.31776298889156074
101899000.0 0.5897305958757484 -0.8028762742322347 -0.4586959199942825 -1.2169712698764086 -0.001878341762080057 0.004503846553039522 0.45424258693021 -0.312862210154807
102898000.0 0.5787777178165585 -0.8086332164115299 -0.4971067813182422 -1.2499097787486173 -0.0007164342131901365 -0.0019742684501383367 0.4579488323009479 -0.33184888516190364
103897000.0 0.5703986897972115 -0.8158402452095781 -0.5292559519389233 -1.2844988015791312 -0.003711721153260176 -0.0005799933497980396 0.4572522855970006 -0.346819358064568
104896000.0 0.563901610930206 -0.8261615861369486 -0.5727074604212643 -1.3175055579016834 -0.0015553832768060395 -7.896406743998892e-05 0.43624164053126574 -0.3389161953987888
105895000.0 0.5527003411800627 -0.8281974881991869 -0.613183598504823 -1.3525545413349054 5.539608406568677e-05 0.00106311915971785 0.43005894610944384 -0.3629142071567803
106894000.0 0.5415967717006133 -0.8346096027481793 -0.6718361052749249 -1.3862511108197604 0.00014765322368983595 -0.0022859869998135504 0.43131360263338153 -0.3676935603371556
107893000.0 0.5349063293896263 -0.8397585258328234 -0.7163273787987748 -1.4301523394615265 -0.00047071636122130264 -0.005215766190465556 0.43110696912174207 -0.3837659372282346
108892000.0 0.5255561828913597 -0.8452713423331372 -0.777143754423493 -1.464164813283176 -0.0027661178527279874 0.0001773488201130936 0.4320774218047094 -0.37106489377411495
109891000.0 0.51542583809834 -0.8515327931211011 -0.8326898631629027 -1.4982096002568355 0.0006784485616278726 0.0018800116916939827 0.4414697285473488 -0.3764429961114035
110890000.0 0.49594898112447117 -0.8681123268573019 -0.9137588322619986 -1.5054102079709666 -0.0007976539514963169 -0.0005408005653282098 0.4261762772178141 -0.39811962189618955
111889000.0 0.4960534574406448 -0.8593341246925915 -0.9540332336612487 -1.5646508056655521 -0.0008896535970381761 0.00028183910414638106 0.4228467246979901 -0.3978146207320467
