! Created with skrf 1.9.0 (http://scikit-rf.org).
# Hz S RI R 50.0 
!freq ReS11 ImS11 ReS21 ImS21 ReS12 ImS12 ReS22 ImS22
1000000.0 0.9802931716244782 -0.003724787494944204 -0.008881240240413023 -0.052653901304292434 -0.02368643912614775 0.003427477183205885 0.2981515985896479 0.37239357396635814
1999000.0 0.9945453745101898 -0.013400889361400279 0.004714806188676852 -0.027807683659535804 -0.006758889273099454 0.001879768185649796 0.2550469662327592 -0.05088950192678047
2998000.0 0.9946686827642509 -0.026443723418613226 0.013056175702816513 -0.012616366080103403 -0.001050073730654143 -0.002069505994480347 0.19212252909473077 -0.1340777148158646
3997000.0 0.9952198761056918 -0.03223971910953313 0.01109401486520929 -0.0041740824441444955 -0.005917135210989539 -0.0006221606767289222 0.09335197339556048 -0.2149021879112555
4996000.0 0.9928153782695555 -0.038353908328092046 0.009965187227213996 -0.0006791667719161687 -0.0015421405447245812 -0.007961799933766016 -0.03806237404887641 -0.2092583568320592
5995000.0 0.9949824527574505 -0.046426248069038965 0.009452788076335759 0.004465357055419478 0.0004676527957390913 -0.0037250183463066874 -0.11766421643507624 -0.09751975836659735
6994000.0 0.9915094679270146 -0.05998068353302175 0.008505994761884838 0.006064955942526515 0.005834210487917024 0.0016744941147937783 -0.14145788089190137 -0.02069625999021674
7993000.0 0.9901644282221927 -0.06773027290974135 0.0016144006469672647 0.0037614690062755638 0.00336073919723867 -0.004888434324550507 -0.1851796948107971 0.04708042225161165
8992000.0 0.9925852129431977 -0.07460326835546124 0.006999343664725637 0.007070261734275832 -0.004513709405474083 0.0037101650672490033 -0.15621986566632884 0.04820271200963873
9991000.0 0.9881326603131356 -0.0823416792686145 0.0009388054161949597 0.00137256684700127 0.0007113124725182607 -0.0014810716192908968 -0.15033730276026472 0.08717480775441093
10990000.0 0.9860018188968773 -0.09645637970113527 3.0261429679619244e-05 -0.0011927236857251328 0.0011455822565482508 -0.001646328312938163 -0.1451063008135666 0.09335600896376582
11989000.0 0.9882480514186345 -0.10116241242315284 0.0021449107683667546 -0.004100759478041152 -0.0005775981134725002 0.0019069326434989803 -0.11941114275951532 0.13439119334564542
12988000.0 0.9854535779945578 -0.10922177345989219 0.000973056796009367 -0.003291496902005072 0.0002874888558160026 0.006508833635215346 -0.10967905877757181 0.16672701598021225
13987000.0 0.9858148754197218 -0.11896016604392606 0.0007013695374403586 -0.006022732425614697 -0.003983293697638949 -0.003711642064443962 -0.09596648935214099 0.18370931840270216
14986000.0 0.9842417506589216 -0.12420792496801981 -0.0002595291852724795 -0.007021525265002811 -0.0006545992843781689 -0.0005283800031318267 -0.0868925767750867 0.2025408132728455
15985000.0 0.985228533743802 -0.1314129079315954 0.00020524619415578148 -0.0033564563771782533 0.001526681442226782 0.002154035567756566 -0.0688256486576943 0.2182487087976642
16984000.0 0.9809830109061559 -0.14463791736088052 -0.0032829043274474265 -0.0032773730885767276 -0.004299410768364129 -0.0020416316623168254 -0.06244329439285069 0.21896293175952813
17983000.0 0.9809479985808627 -0.14973848992226418 -0.0013741101609863427 -0.003158234689312067 0.0012665591856755262 -0.0016226121954678351 -0.05055388606032159 0.21427416614244477
18982000.0 0.9791885798854536 -0.15954731672425118 -0.0023610173095912515 -0.0037242392796127486 -0.0023118345779032244 0.0017382589453850132 -0.02434595832214721 0.23448608777796662
19981000.0 0.9787334187809028 -0.16472588127384816 -0.0047295073520855005 -0.0040032670205682255 -0.0012840112019952012 -0.0025037819103010625 -0.01369428810907251 0.2365938496544898
20980000.0 0.9773289769639463 -0.17436028123000444 -0.0022610169917963003 -0.006021974015786552 -0.0022514725216993994 0.003026214608158606 0.003410316109142678 0.25486514372110625
21979000.0 0.9752286368474725 -0.18395317205642425 -0.0023709810401891505 -0.005838716719439604 -0.0005895644814183996 0.00018347691379259003 0.01845340753796575 0.24435182076000117
22978000.0 0.9728787058242493 -0.19441764861692448 -0.007302182171803702 -0.004282106371062281 -0.0011531781497441758 -0.002523122625032838 0.021468769587022173 0.2565558084421777
23977000.0 0.9755493847339449 -0.19957167401768583 -0.005039620194427335 -0.0018433028622611618 0.004880125848014698 0.0010749912653895504 0.04418316966605467 0.25452501182716925
24976000.0 0.9712388651303724 -0.21103695690628785 -0.004662119830350399 -0.0025089933134931955 0.00609818939516516 0.002502954339015234 0.05991832261154674 0.24865461424968294
25975000.0 0.96424667384232 -0.2220510299773965 -0.00095607240458668 -0.0002770630040493381 -0.007374273572084216 -0.022340216461217654 0.08207249204059863 0.26451739156459236
26974000.0 0.967774892713717 -0.22797665058280325 -0.0018071700367770852 -0.0013707973072541063 0.0011343346568170932 0.003266418105745749 0.087733522287183 0.26341951700343763
27973000.0 0.9667008672402893 -0.23253460134541834 -0.003949062948633085 -8.795234980784239e-06 0.00410387658795595 -0.0007781165738673291 0.09911333339733755 0.26101886285643844
28972000.0 0.9628511675025366 -0.24632365680949517 -0.002571000793073108 -0.00015871954135169048 -0.005276354684897697 0.0002856800916814454 0.11849854964817101 0.26049161764110557
29971000.0 0.9609542747286872 -0.25284132101114887 0.0011200109903686582 -0.0018952460841678096 0.0006608807325573044 -0.0022019559436817805 0.1550303590748727 0.27231285640805875
30970000.0 0.9593279117274153 -0.25743008936353273 0.00038570349040703165 -0.001994812064056119 -0.0009497789232081177 0.001967671071088516 0.16373382192675148 0.2503118194377941
31969000.0 0.9578683670604169 -0.2671662292338055 0.003929589931427144 -0.004670029670283307 0.000481827327421873 0.0011407530991404298 0.15525659098889552 0.2490238630724108
32968000.0 0.9565223147576799 -0.2761111926083585 0.00773941603127785 -0.008105364296149768 -0.0006937634225733126 0.0001833870701231772 0.15408388705077997 0.24267913771340643
33967000.0 0.9531867709486057 -0.2857950503307752 0.0058288505120667735 -0.012859629861297676 0.002214078239685567 0.002924460502221027 0.19267034823494086 0.2435235563657582
34966000.0 0.9491209832251709 -0.297077782775294 0.013155467751173914 -0.013220251293671506 0.0011833054943037298 0.0027561595907440854 0.19980711810200094 0.24996471007078794
35965000.0 0.9468824523472482 -0.3024596942765454 0.015228724412807976 -0.014893816992253743 0.0008177317309227882 -0.0008326613106780095 0.2078048527209825 0.25467477505754427
36964000.0 0.9460530734971077 -0.31143424872623826 0.016552535598689324 -0.015541106913734386 0.0020660634178785724 0.00011479314443607556 0.21172996046039938 0.24952719279557029
37963000.0 0.9434379423526503 -0.32003240317723636 0.021856147978621798 -0.02096956929163273 -0.0009595666624643006 -0.0018294451729382664 0.23271910401478374 0.24160548409039947
38962000.0 0.9406357566275104 -0.32897556253738797 0.02563976096663746 -0.022978952633958195 0.0004488199856622998 -0.00033089554084951496 0.2432274120783819 0.23134993193353873
39961000.0 0.9358569793176909 -0.33944249562240614 0.027776787557942276 -0.0319384953761279 -0.0027982052930402104 0.001282281107090699 0.25230071589518993 0.22894353024222955
40960000.0 0.9346096967957662 -0.3462859256341873 0.02493253712626252 -0.024241310165656088 -0.0001247019388266181 0.001936092929523728 0.27071297946087985 0.23348535992094496
41959000.0 0.9306606470101039 -0.35505857118471995 0.03274302753515947 -0.03318114131915581 0.000986003612934699 0.00016806694302188186 0.26516048796687347 0.21150092410712903
42958000.0 0.9254409233797138 -0.3644639528939764 0.03376256485542798 -0.044656439830701014 0.0007589456837485617 0.0013375640141703232 0.2837823177249101 0.20296742431404646
43957000.0 0.924497746035479 -0.368522316004498 0.034041262650860715 -0.04771256634666716 -0.00027419069972655833 -0.0005789301964731674 0.28834006763746395 0.20373749801109936
44956000.0 0.9191761490231961 -0.37818516697893784 0.035455564814032316 -0.05595031629917701 0.0023565664595605043 0.0005894848767656973 0.30521926409987543 0.19405049711951397
45955000.0 0.916433891635187 -0.38887880008993336 0.033640792376673376 -0.0586323881634507 0.0005629895241666237 0.0003965811843943666 0.3099556676913145 0.18070325193540768
46954000.0 0.9126521639168098 -0.3977552027503407 0.036463933612247944 -0.06695558277501268 -0.0010805791485997732 0.0011193827899388972 0.334368505415531 0.18341485542666391
47953000.0 0.908553060338597 -0.4079819954683906 0.0379941404793007 -0.07666056274231989 0.0006857437716517106 -0.0012275546030307111 0.33631306124718735 0.1720925214079497
48952000.0 0.9022833619580813 -0.4177415203192304 0.039092012244371976 -0.08169024439323139 0.002023359468476223 0.0019216117272559555 0.3311490807472947 0.1666998528920217
49951000.0 0.8996990745658935 -0.421010106114182 0.04079341209056529 -0.08916908390574237 -0.0006526067853137883 -0.0014441369822462838 0.3618924685913462 0.15317688910818592
50950000.0 0.8969049384454559 -0.4311769519131941 0.04333905917884592 -0.10069590582467836 0.0003823172285962278 0.002430709266239486 0.35843230732745374 0.13972280126707215
51949000.0 0.8934403393101372 -0.43923470297596806 0.04310709850363896 -0.10567078794467073 0.0037069950624158046 -0.0013975604243555435 0.3598015241786622 0.15252191268047882
52948000.0 0.8908527336688142 -0.4458488578574591 0.0462901500666556 -0.11668223766802086 0.0007583019347962212 -0.0032061233419487007 0.3743690636846181 0.13705210934860643
53947000.0 0.8836897206408264 -0.4565212012105659 0.04614212853856824 -0.12290154943588077 0.00023087622456203976 -0.0016093089051692278 0.3805423002074985 0.13228133454416796
54946000.0 0.8784638299868531 -0.46451809293700197 0.04598321998250929 -0.1355386167547838 -0.00039608815965690055 0.001400472149260959 0.37990203322097 0.12359737906433532
55945000.0 0.8756313331713961 -0.47125227108469564 0.046983718282460785 -0.14348121916977272 0.0034676090908775125 0.0002953110925462184 0.39044336814950054 0.09747685624451374
56944000.0 0.872734922935939 -0.47994015377128063 0.05213211117243403 -0.15647843119610758 -0.0018267604988274394 0.0010571090482649956 0.3974567272781807 0.10903173865993293
57943000.0 0.868803196190601 -0.49052820303525496 0.04995663659483341 -0.16823174059713508 -0.002975690270751194 0.00044924320649029876 0.40402008985888854 0.09263531089118039
58942000.0 0.8619209113704871 -0.49345974504945067 0.05055327619260532 -0.181003434377484 -0.0016057678050505819 0.0010534118201173915 0.4194322145422759 0.07554233989758463
59941000.0 0.8577500449460923 -0.5055432607205605 0.05377689415271635 -0.18755622683325537 0.002910529689918905 0.0027978306132252833 0.4159729513360287 0.08984734981179987
60940000.0 0.8507426357206535 -0.5120787747642696 0.052387556596418805 -0.194261856378181 0.0010441547741410035 -0.000436916392155925 0.4068686545425645 0.07160854664447071
61939000.0 0.8479812992928598 -0.5178059272300709 0.054578609687795245 -0.20279492105057093 -0.0002064134934894909 0.001834576285147923 0.41630325586113 0.06473044751639326
62938000.0 0.8425598598387841 -0.5278008109490251 0.06058794367991275 -0.2219453215908813 -0.003312088679805271 -0.0002537168623149382 0.44004257416740483 0.05067747643888813
63937000.0 0.8373055209939649 -0.5348115585073165 0.0569754967265416 -0.24051651881898642 0.0018981443985328196 0.00021657738859763464 0.4346376340922249 0.04655148713793457
64936000.0 0.8288948219811281 -0.5427581358053273 0.0593108033096243 -0.25528816641399 -0.0003674204256055755 -0.0032846882869227963 0.4391169257319896 0.041117089263788036
65935000.0 0.8270285085429658 -0.5534079148667803 0.055524140355042675 -0.2687021120293689 0.0006165284426944644 -0.0007022255120954653 0.43501281791825075 0.022762999814411475
66934000.0 0.8230587417677181 -0.5582631801075015 0.05707574007659163 -0.283707400238202 0.001991004452833464 0.0012710664126226133 0.42802438280256044 0.008702878878693428
67933000.0 0.8204516459117469 -0.5658319156522592 0.05680730792870305 -0.2984698134158687 0.004219238297703385 0.0018186004680778689 0.4466204303846349 0.008455710473018694
68932000.0 0.8136978715847875 -0.5651531767763379 0.05413662363380637 -0.3099550237865674 0.0018637453606103907 -0.0017358761692595603 0.44996607796675003 0.0030800948395504485
69931000.0 0.8063426398561215 -0.5816773541705583 0.05330292107608669 -0.32911147180734446 0.0012809453416030032 0.0017504105693024036 0.45502630395801336 -0.02042603726398292
70930000.0 0.7975117659605216 -0.5893022160186828 0.048404959890555405 -0.3441237490649021 -0.004146210909486137 -0.002462513972459475 0.449352393427236 -0.032230759063734654
71929000.0 0.7968255065153451 -0.596451298055058 0.04504958687435611 -0.36140624802272003 0.0008208494376680176 -0.0002721329811913639 0.45554501363772265 -0.03802736927289454
72928000.0 0.7878440114191028 -0.6063077189802688 0.0352490887002557 -0.3801707263951567 -0.002150927151365012 -0.0020882532697977024 0.46544376708313995 -0.04718373254783647
73927000.0 0.7809570876424503 -0.6117684816382928 0.028208319515642833 -0.3994622351822308 0.0013350294046931682 0.00021979263660233203 0.45583750996330263 -0.051237950383929406
74926000.0 0.7787739864332397 -0.6215809618311038 0.023752374381908484 -0.4219674245576093 0.0031484736435544317 0.0041298605053370855 0.4631686640577864 -0.06080308771284059
75925000.0 0.7723795671186218 -0.6259274974009775 0.010689776511213153 -0.44550272614090736 -0.0018301901314839411 -0.0026328695590778508 0.4657416455018707 -0.08109498136265811
76924000.0 0.7647377348634695 -0.6326220710913347 -0.00213344325887216 -0.46443917514132155 0.0028705864184830976 0.0003375535546659553 0.4655341640461512 -0.08062573314923199
77923000.0 0.7573030778296106 -0.6411938890529125 -0.01510729807765815 -0.49073894879383967 0.0013433491248416721 0.0005784630381027934 0.4608573357088666 -0.09500037723780384
78922000.0 0.7536316686708521 -0.6512758412734093 -0.03015367087778357 -0.519228193318703 -9.434336554183778e-05 0.00527070422119656 0.45792932490415705 -0.09614478102228413
79921000.0 0.7430165153098458 -0.6545961964668093 -0.04859199510285774 -0.5420514625326767 -0.0022483476343026607 0.0006421098348177127 0.45871256585899445 -0.11608033743514716
80920000.0 0.7408399854827741 -0.6646109294360749 -0.06174826364142241 -0.572000152158432 -0.001729671560530871 0.003001874192748707 0.46098052376135595 -0.1227759389526545
81919000.0 0.7346891533406944 -0.6698112939056294 -0.07984388017075622 -0.6022989336195756 0.00030238235651764556 -0.0004255016631880956 0.4654574711289299 -0.13221082487928687
82918000.0 0.7222026628486478 -0.678736350974605 -0.0939438545284719 -0.6349581120147479 0.0038123667519952276 -0.0016758656412974636 0.4699010942640529 -0.14960625879101988
83917000.0 0.7152309375383761 -0.6864732025454275 -0.11523902268612948 -0.6648948745105092 -0.0010682938593508885 -0.00014587312565676448 0.4652124699650807 -0.15280524235113432
84916000.0 0.7098421155426953 -0.6934534684518283 -0.13843148079609074 -0.7023471588015442 -0.000740379573078162 0.0021097527574096444 0.4609774493359005 -0.17569208545852963
85915000.0 0.703071543639347 -0.6992698273417679 -0.15595535982803294 -0.7299753599245037 0.0009249141367901704 -0.0038948221818160956 0.4675929779869374 -0.18435901295924625
86914000.0 0.6969523133617946 -0.7098214061745692 -0.17136637545709354 -0.7682222257216322 0.0032502989548471536 -0.002118622947227633 0.4624361783321184 -0.1829513845030564
87913000.0 0.6882484452505623 -0.714753768401527 -0.18775033060345556 -0.7963242515572995 0.00039637660840797687 -0.0045961621275633305 0.45741534826674285 -0.1954137058218137
88912000.0 0.6841019904705101 -0.7213327186217787 -0.20389395306330357 -0.8322038627164737 -0.00038620729413554655 -0.0023147004730559636 0.4514188789262433 -0.20541829489841862
89911000.0 0.6743809091861639 -0.7303780007470398 -0.22374254538597527 -0.8673644590396847 -0.0015957801634248901 -0.00016657881398347325 0.4607846148334903 -0.20410155196311458
90910000.0 0.6667245435471391 -0.7358149063194214 -0.24008527710790525 -0.9040938675740591 0.0011421407179735125 0.003856783779957978 0.45579340594409234 -0.21032655585513652
91909000.0 0.6591354368423249 -0.7401931955696955 -0.25699594681054455 -0.9373950101040391 0.0018545249906174077 -0.0016044722128087804 0.47091557836859455 -0.2262350320038257
92908000.0 0.6510159726731617 -0.7491813499750358 -0.27553565017845516 -0.9694899158530407 -0.0017075315727459756 -0.00037969436765858747 0.44567366364367805 -0.23804192507712094
93907000.0 0.6454505526340267 -0.7548264295965194 -0.29451318909472446 -1.004555124482104 -0.0002885722248527145 0.0013961877668023576 0.4519675710336724 -0.24897614934752743
94906000.0 0.6340389181932771 -0.7619487238025265 -0.31281924824203683 -1.036853234923481 0.005402081658818092 -0.001821370353184981 0.462249050971381 -0.2580699973341682
95905000.0 0.6270077889539953 -0.7694340972767076 -0.34042681578188894 -1.0721645607823476 0.0012563937160329915 -0.0011533546925438032 0.461879194721148 -0.2674154287185835
96904000.0 0.6189917063524678 -0.7775997944063902 -0.36081459964641 -1.1151779300555589 -0.003003910710695227 -0.0043504738939419575 0.45212629592661396 -0.2693560892214614
97903000.0 0.6106730653930985 -0.7834712762420819 -0.3880907884116042 -1.1459133023815806 -0.0013013732382730263 0.002411825605885877 0.4402286009379749 -0.28954052026649607
98902000.0 0.6059202908892088 -0.7903120795468943 -0.40907070216364383 -1.1899236244214766 0.0019569517810069303 0.004157215257238167 0.44311467242840746 -0.288029399547451
99901000.0 0.5933493479716346 -0.7940453901482183 -0.4378572132912604 -1.2126261276658243 0.0006679005934491696 0.0023629309798117774 0.45955640510486323 -0.31036443550783144
100900000.0 0.5845328761926863 -0.8004489063606157 -0.4775552384161213 -1.2457484455127052 0.0003704941210793578 -0.0015476132974585849 0.4588670953847849 -0.3246454077899929
101899000.0 0.5744902698013336 -0.8087323660801459 -0.5085578067421345 -1.2832389011803804 0.003645691336407693 -0.000495650019265502 0.44172891050877794 -0.32177475167223424
102898000.0 0.5663440608781449 -0.8113145350590313 -0.5388810495778262 -1.323822956265263 -0.0012114509619037047 6.914701184135793e-05 0.44591418239272285 -0.36030929503279474
103897000.0 0.5567387399872307 -0.819098255243796 -0.5846511951885892 -1.3563846239767516 -0.0013231224435846347 0.0012969862937142495 0.4561466311431839 -0.3289236146732614
104896000.0 0.5494386702030879 -0.8294185700871801 -0.6306614009560599 -1.3937138335645305 -0.0014156602782791398 -0.00451446220285458 0.4293324704005434 -0.34298042314360533
105895000.0 0.537789266714588 -0.8311631895894966 -0.6846096585562836 -1.4380810301076392 -0.002350309603425084 0.0004957690509338246 0.42775928538801083 -0.3639651202936049
106894000.0 0.5291235635870774 -0.839078784275298 -0.7425087610283059 -1.4735101551235439 -0.0021482276764832066 -0.0013508374968483675 0.42595465030466895 -0.37183006781838823
107893000.0 0.5217423883046758 -0.8455639480489533 -0.7909315780349726 -1.5129656262678632 -0.0023075084447062356 -0.0019773203885332814 0.43686052053467406 -0.37900671621380744
108892000.0 0.5141431540715461 -0.8475813616440385 -0.8572325394822237 -1.5506832953742868 0.0023721022449934032 0.003010123706327907 0.4171561059756311 -0.3829551706926648
109891000.0 0.5008686240175398 -0.8567257435140936 -0.916164232027571 -1.589155397861811 -0.001616062973898333 0.0019714673648059395 0.4403503011821724 -0.3791081963513452
110890000.0 0.4789732855096714 -0.8671026051408626 -1.0024281107200521 -1.5860700704692168 0.0026113697359932426 -0.0028551014631425235 0.41929931791668673 -0.3777034539405236
111889000.0 0.47850801146465727 -0.8634795731030003 -1.0477533024458405 -1.6563934918411856 -0.0005099977553179565 -0.0005581628939437356 0.4130114618666312 -0.409119646724266
