! Created with skrf 1.9.0 (http://scikit-rf.org).
# Hz S RI R 50.0 
!freq ReS11 ImS11 ReS21 ImS21 ReS12 ImS12 ReS22 ImS22
1000000.0 1.0000128392486887 0.012963791807427813 0.002246592247582835 -0.07150097506181785 -0.013987734407669525 -0.007053727087476382 0.27644120487836715 0.31553822398149584
1999000.0 0.9984080164202251 -0.013982487362460778 0.004429076472894889 -0.021004119696793982 -0.005787895628076741 0.00034980315764604974 0.27527497673952733 -0.034019577678341226
2998000.0 1.0004775911312473 -0.02354912972971001 0.0029615261898925864 -0.012989312668939811 -0.009232053910196485 -0.0020776662381205013 0.19861088989233944 -0.13870041426099997
3997000.0 0.9967414489417789 -0.03037108000192516 0.013679125300026462 -0.008301097336266812 -0.0035451150361806598 -0.0012658741117290448 0.09569786187535517 -0.22144288198760295
4996000.0 0.9951607041954371 -0.04025195934463174 0.012557444142811309 -0.0008460660122436957 -0.0018005706872673292 -0.0037800695429917232 -0.04073365903943844 -0.19883513460909963
5995000.0 0.9974236025094104 -0.05001019664268024 0.0068486811120909525 0.004139778113883475 -0.0042631865923305435 0.002963282697005651 -0.12981646316353374 -0.11080940371967936
6994000.0 0.9954619038160717 -0.059903700204346634 0.0010341027662546535 0.002510569804212676 0.0014115100254382736 0.005161586407935766 -0.14906730627634365 -0.034303402290075495
7993000.0 0.9955770357956027 -0.06909552334327544 -5.270129570505647e-05 0.005345251547251297 0.003773056900752349 -3.1647715302277155e-06 -0.16377935760281023 0.03544470449659316
8992000.0 0.9941244287922731 -0.07023935678326425 0.0029135722637807916 0.004737211584574546 0.0007286388112352418 0.0024908921469950674 -0.14791177055929677 0.0658381829489845
9991000.0 0.9917669026706659 -0.08498033197913407 0.0009138768915566459 0.006858720557587891 -0.0002464158701808491 0.00036694675255820823 -0.13672365821521257 0.08637585957025107
10990000.0 0.9920270703521743 -0.09174417056948155 0.0016794830423608271 0.006209610112673937 -0.005790052919435982 -0.002702225484139115 -0.13958431122662232 0.1268074347875133
11989000.0 0.9894683358169885 -0.10134796830997354 0.0028496314034459737 0.001789346818197783 -0.001121740059146546 0.006337402101437615 -0.11856129041150117 0.13722042486437533
12988000.0 0.9885510170883055 -0.11125382047227231 0.004778931537788504 -0.002267589986159404 -0.0028484382900338953 0.001268101075178465 -0.11171142009373955 0.1590490042271251
13987000.0 0.988031366224744 -0.11794159375328965 0.0008815129993309993 -0.0016949034029051524 0.0010137252892308888 0.0036815226091895395 -0.10112246238377401 0.18474319914392573
14986000.0 0.9866950092618658 -0.12719914315248584 -0.0038977012013643618 -0.002410597411365658 -0.001428096418313486 0.005728344784001762 -0.09311484803723998 0.20149271030548901
15985000.0 0.9880559048840309 -0.13591379866959394 -0.0022601521879151236 -0.008455991550720854 7.808266843256309e-05 -0.0013826727432869066 -0.06390651670223028 0.2130811848437059
16984000.0 0.9857275094484717 -0.14439210527419113 -0.0038268261541437205 -0.006220653868683064 -0.0037871648671012944 0.0069768815083526845 -0.07611021236100375 0.2224786999674416
17983000.0 0.9853665607285116 -0.14954625686744763 -0.00127042063641152 -0.008101617712252271 0.0004527387032549808 0.0010968018405687501 -0.052572740239498914 0.22532426332270603
18982000.0 0.9811160409100623 -0.16236312104959313 -0.0004843764998774344 -0.0086071564828142 0.0004894390340969512 1.9077389844205424e-05 -0.022400259259183118 0.24297117714675825
19981000.0 0.9809805815216125 -0.16591652715603403 -0.005516955284585709 -0.004102432894744509 -0.001160808800733106 0.005666723139720218 -0.019197287642070942 0.23920638141035785
20980000.0 0.9797917017052071 -0.17571157684858 -0.00899720561840063 -0.002586309816827858 -0.001702436152517974 -0.003214500291227207 -0.004434208883515961 0.24922965531455352
21979000.0 0.9778752205252361 -0.1858827033043173 -0.007673218996072405 -0.0037852895505117714 0.0009912665631462995 0.000564324720840868 0.017141218967236475 0.2501292532663008
22978000.0 0.9755714248705634 -0.19349460953995262 -0.007268735320943192 -0.005634344466801161 0.0009116347404267321 0.0017331865154573195 0.02416451251711639 0.24905237869673144
23977000.0 0.9767807184663813 -0.2031383775713001 -0.006431674677973934 -0.005453526584212174 0.0006641136849383538 0.0003967485376288121 0.04238722469042301 0.2503287238658273
24976000.0 0.9738073148576953 -0.2116345780222253 -0.007243548762682048 -0.004056392079267901 0.000503163095133721 -0.0020253836566301343 0.06701971376985254 0.2445104737034736
25975000.0 0.9650568942524612 -0.22633541790182524 -0.006669494309439375 -0.002542301348258266 0.01351904736180265 -0.026769505158469716 0.08562920600832027 0.2573137037318352
26974000.0 0.9672777547967827 -0.23012894282400712 -0.00464821145132275 -0.0011153337015068889 0.0012721379328852855 -0.0028004995301221447 0.0846965122949308 0.2656782464952008
27973000.0 0.9691928731070301 -0.23435147689430147 -0.002101905761413468 0.0010428386662072271 0.0009555744950412507 0.00026752943712918584 0.10788213705905159 0.2579632595866551
28972000.0 0.9650060913363403 -0.24719103404605675 -0.0015195023617936602 -0.003460329094494264 -0.0003508560705864595 -0.0001370906509380905 0.11529658402654265 0.25536933795741884
29971000.0 0.9637117897950588 -0.2539406788504049 0.00039104284849807874 -0.0022063846892648865 0.0002917295253788616 -0.000543656866634851 0.15156917370816478 0.25975404815021497
30970000.0 0.9622698190987384 -0.2601341799719545 0.002506150010649497 -0.00012851200601705286 -8.316594685506654e-05 -0.002788119883592472 0.16936439596517996 0.25098529475120596
31969000.0 0.9577344189933651 -0.2688699234303482 0.003337816203763132 -0.004288556278620612 -0.002561143111370788 0.0013342553429077804 0.15012952547190656 0.24695012630403768
32968000.0 0.9561288571963824 -0.27931975009537 0.006400211346857034 -0.008397402026803438 -0.0003550190564399148 0.0007334319690595117 0.16186054744852588 0.24365676650703444
33967000.0 0.9555433756541746 -0.28861426977269367 0.008415414072337332 -0.00865085860133587 -0.003010134723434515 8.075921600545612e-05 0.1799253088289119 0.2477311442185271
34966000.0 0.9528218898387132 -0.2967604025020576 0.013585991733789864 -0.01043339091855536 -0.0005251409616421988 -0.000748454893716052 0.1953868659573182 0.25356688316177445
35965000.0 0.9481880986623832 -0.3052625645375055 0.016485836784199598 -0.01565542047550086 -0.00023468612697829773 -0.0012460053940043462 0.21470836579397784 0.2479593285905562
36964000.0 0.9470923852807295 -0.3132509465592377 0.013454587238740517 -0.015035803827368886 -0.0014822397853549996 -0.00029164167440845105 0.21311444358881632 0.2543983806863346
37963000.0 0.9434723609204057 -0.32207345471068516 0.02127837135819323 -0.020869876378714423 -0.0031084383837404576 -0.0025330361183743535 0.22866149411139616 0.23809237238253547
38962000.0 0.9422331716156256 -0.3299489639734588 0.0233006731908882 -0.021234911081316636 0.0052679715424534205 -0.00030104238219382656 0.23810418506508085 0.22973929697484002
39961000.0 0.9373945757577438 -0.3401616883556402 0.027864882713903465 -0.025636273843723932 -0.00020970074574755274 -0.00233398116125686 0.24877255895421133 0.22194061209335583
40960000.0 0.9341198541507373 -0.34794370703808564 0.022223881355504148 -0.02229603173429019 0.0012808616958047722 -0.0045680744061278285 0.26356865063893614 0.21989587167877986
41959000.0 0.9297102707361784 -0.35681836945098794 0.028234872962898516 -0.030312087427608526 -0.0008865313642010942 -0.0012574863443329104 0.26827436146982225 0.2085901809361101
42958000.0 0.9253703807022496 -0.3670538680915564 0.031821450909832724 -0.042042998568645254 0.0002976985633118678 -0.002524528131763647 0.28059085732679784 0.20155837302779703
43957000.0 0.9252764932032077 -0.37028377842213683 0.03365257414620606 -0.04862717451213985 -0.0019960906028954717 -0.001269737714188403 0.2871760848059701 0.20412325566557635
44956000.0 0.9207665148883807 -0.3806861372736146 0.03152463426116093 -0.05358008805731882 -0.0005381592116904635 -0.0004244942955596682 0.3085479507301692 0.18780167720553792
45955000.0 0.9170279211316308 -0.3914278967843243 0.03406545714263184 -0.06038348063289755 0.002740284219881779 -0.0006757581616909336 0.30573297417751377 0.1953528034469218
46954000.0 0.9130851349180743 -0.3997510827848278 0.03205600333911224 -0.06564400351047173 0.0006085224151330294 -0.001763704459114867 0.3351131024834733 0.1670957158903277
47953000.0 0.9116139863441839 -0.4057006314053087 0.03535052605733088 -0.07446920819365525 0.0027306081280013806 -0.0017341127461018204 0.32628779981230055 0.17113480372398854
48952000.0 0.9041516237265736 -0.4181927087104702 0.03438634448230521 -0.08077286182687994 0.006985075997603523 0.0019582476029101014 0.33710029572594263 0.1574593458562624
49951000.0 0.9020340533593415 -0.42247461252732876 0.037863080792925746 -0.08837395361071257 0.0007732665631547593 -0.0006107357882160065 0.3552384346928339 0.14904801094608797
50950000.0 0.8971261548906633 -0.431551144757019 0.0405808622410069 -0.09735570685124946 -0.0023868542968473795 0.0019329523584458055 0.35706627678620584 0.14893333537538414
51949000.0 0.8953927641947911 -0.43983047899913796 0.04011586071680591 -0.10479501987456194 0.0012853228164419557 -0.0035071182965126396 0.36239294671271977 0.13961591650622018
52948000.0 0.8930094016269533 -0.4454942477640659 0.04071138851122823 -0.1148247610173774 -0.00039500009022138267 -0.0008853179549512702 0.369458763657474 0.13416253158647076
53947000.0 0.8846426723532793 -0.45485358613695526 0.043832445133290904 -0.12269770670879324 -0.0019823570127871963 0.000370209348689933 0.3756771572004034 0.12462694648760107
54946000.0 0.882348765955336 -0.462714369975794 0.04444158153867973 -0.13087429729011302 0.000903127196667708 -0.0003237494457201852 0.3860843301945576 0.12126787994856603
55945000.0 0.8776371332363723 -0.47117116560188826 0.04606106219863212 -0.14244113629279903 -0.0028322284936076834 -0.002194519558923263 0.3873388444453567 0.0998003821450385
56944000.0 0.87434234319753 -0.48023314029422487 0.0475917277320812 -0.15473849873346146 0.005350604059797341 -0.0029405642844495365 0.40000195477041106 0.10153337788555065
57943000.0 0.8689471684666399 -0.49106530729304115 0.04802223512633929 -0.16625460813604712 0.001026829536029768 0.00151910054359048 0.4072569174083989 0.10137222378846457
58942000.0 0.8639304677159408 -0.4954228671277858 0.04888521266779417 -0.17652470840158477 -0.0009412200340960192 -0.0009400647233953033 0.4206168469351397 0.08465601578022265
59941000.0 0.8596579423313349 -0.506464665934017 0.04718829186827812 -0.18698161337405397 -0.002022200289459028 -0.002531055699152396 0.424607343193242 0.0856456977919287
60940000.0 0.8519851299645289 -0.5129591531226679 0.04657694639562274 -0.18977897849735437 0.0013094210706375315 -0.0006314673370701456 0.4117041491746002 0.06935162898900477
61939000.0 0.8492409251975088 -0.5198495640814553 0.04894930160957079 -0.19584226132062318 0.0003041774882268969 0.0007688414083411324 0.4229135548581609 0.06683065047321719
62938000.0 0.8424782010883783 -0.5296842922599179 0.05342833912019834 -0.21665498789738738 -0.0008464326820078053 0.002461294170917624 0.45011462052968665 0.05581598079677719
63937000.0 0.8394065607940597 -0.53718031382571 0.053249401071734745 -0.23486987756854125 0.0026900484637980508 -7.502477898499946e-05 0.4326660231496527 0.03508024781774209
64936000.0 0.8318455191100728 -0.5443288765392605 0.052999652739384485 -0.24796565526754843 -0.000717895478073463 -0.0014537807906361516 0.4427863465127302 0.037338883956519846
65935000.0 0.8291881260249833 -0.5546934176211004 0.05153295019695531 -0.26218251508155177 -0.0011371017048285572 -0.00048411435619695166 0.4358871133231668 0.005635201686425418
66934000.0 0.8235179657178325 -0.5605964589943133 0.05250735801177508 -0.27420120780380103 -0.0002301811893294513 0.0018896746073036065 0.43861697400667 0.0023422005640307496
67933000.0 0.8212819510359066 -0.5673338894871827 0.05201830593536972 -0.29144262323288317 0.0033085115445906713 -0.0007038706762149208 0.45164582064838976 0.00931271081546744
68932000.0 0.802987585770261 -0.5715443311142608 0.0443595704783113 -0.3048689033510465 0.0020291448348476594 0.0022896585155894023 0.45501181854779305 -0.019083581230741144
69931000.0 0.80845934013666 -0.5831264938885871 0.04843581945365432 -0.31844953896161166 -0.0033031743796878934 -0.0018030228494873546 0.45849349446977494 -0.02687902644692367
70930000.0 0.8022385267387476 -0.5877934315591182 0.04978217810605872 -0.3340307926260342 -0.0015931367341759574 0.003489149531794125 0.4435604183653326 -0.04048028969536999
71929000.0 0.7961293392633956 -0.6003761095355388 0.04233594167255861 -0.3526297035729516 -0.0006120257399350361 -0.0005259456968480412 0.45135120337116924 -0.048353696097479894
72928000.0 0.7903563177828931 -0.6083715306806085 0.03394895661696698 -0.370717216419703 -0.0021918654968682326 0.0020895434059474754 0.46395283793069225 -0.06166035990445448
73927000.0 0.7845467185388624 -0.6148814609230817 0.030112989091818646 -0.39097386087214697 -0.001079201765380265 0.00421461160468923 0.46460249072775245 -0.05642314443611537
74926000.0 0.7787778426005724 -0.6235192007559978 0.020023339956261314 -0.4071865413274928 0.0016903638113054612 0.0005925327187066348 0.46681901964685957 -0.06575769967376367
75925000.0 0.7721273439222133 -0.6269761553333812 0.00892166853212399 -0.4277120528657251 -0.0013343624739239094 0.0012905310140727592 0.47498852194404795 -0.08291259767615948
76924000.0 0.7665042559890252 -0.6350915870586784 -0.0011698732659093166 -0.4542218451364396 0.0033018789779402113 0.0009608809864975505 0.46738080197331494 -0.10180601705587403
77923000.0 0.7614900795434454 -0.6425644034265493 -0.018691266584614674 -0.47816523180556825 -0.0034108456524237028 0.0011931916884735353 0.4597616086360279 -0.10085641166238234
78922000.0 0.7540751553107099 -0.6532701134715476 -0.03334811019473028 -0.5042673891955836 -0.0008934658241677654 9.804455699433746e-05 0.46094729976630927 -0.10904373810149862
79921000.0 0.7447504703655846 -0.6568195798940836 -0.05072272822862668 -0.528509494673213 -0.003439799695678039 -0.002873364276403754 0.4599372696348025 -0.11763621103590063
80920000.0 0.7415678546747925 -0.6682238251499463 -0.06672709103925328 -0.556362653645479 -0.0033303802246137586 -0.002834877080933424 0.46178400928065516 -0.13510508458486586
81919000.0 0.7351885290820885 -0.6737902893654041 -0.08384610443815314 -0.5901925061567169 -0.0023000627533482105 -0.0008937827334432284 0.4704960972577458 -0.1298534297630594
82918000.0 0.7258310840540352 -0.6801618952763704 -0.09671234749855023 -0.614372838232876 0.0037395313766610252 0.002442259170822723 0.47115504091826516 -0.1501151662368192
83917000.0 0.7175383025763648 -0.6897806649535991 -0.11788086294111158 -0.650761105018008 -0.0007706732416422825 0.0017617324744119284 0.47678567727944193 -0.153219611098527
84916000.0 0.7138839782513409 -0.696029507823511 -0.13155462330201248 -0.682197602975022 -0.00316725969918683 -0.0014741465959689874 0.46703414799940685 -0.17089094962422122
85915000.0 0.7067727103733691 -0.7026422936213573 -0.15392562291917075 -0.71112395334354 -0.0017148448560735643 0.002071615886041144 0.46921054458107625 -0.17968474859856598
86914000.0 0.6994273292894061 -0.7128031709469934 -0.1741352809330046 -0.7459812699313458 0.001764937531635424 -0.0017735585473912772 0.4584941522370692 -0.17814872271338691
87913000.0 0.6914687620186449 -0.71771197899464 -0.18730563644270676 -0.7750981744797187 -0.00220056649228609 -0.002703607660557962 0.4598836488375385 -0.1877873802785255
88912000.0 0.6822807108546555 -0.7265772575491651 -0.20127923497993955 -0.8129254183200882 0.0003429243447398595 0.004176186442702689 0.4712140144335343 -0.20439588487891086
89911000.0 0.677582279409007 -0.7337257602509909 -0.21769734963561393 -0.8494967923386346 -0.0003311000449960512 0.0008464510054950687 0.46944855447974126 -0.21602297867329154
90910000.0 0.6681904946656788 -0.7384169540357501 -0.24376429363494986 -0.881701901706951 -0.0032228394579850122 -0.000751212824491084 0.4736847344376286 -0.21575392508307525
91909000.0 0.6594467828607714 -0.7432323633269602 -0.25589126733455825 -0.9140046545433529 0.0009546659461412827 -0.0007873046589371676 0.46208989773989173 -0.233794643530891
92908000.0 0.6528656957543901 -0.7514809630996225 -0.27648338659574034 -0.9442499045875252 0.0002882335064388915 -4.781483331249291e-05 0.4521005420200171 -0.23903335048316315
93907000.0 0.647781103841252 -0.7576615147928585 -0.29438278215498576 -0.9804590362512298 0.002109374608670967 0.0024206750279817005 0.45999198833326377 -0.26487260835581034
94906000.0 0.6313054816111489 -0.7658580744457261 -0.3126259659656434 -1.0124886253850205 -0.0026536983162142786 -0.00022408619682421827 0.45831971901215485 -0.2523782854340275
95905000.0 0.627773623612833 -0.7723337031594654 -0.33623394864940837 -1.044488535684632 -6.113110720261467e-05 0.003183005583321082 0.4520618218556047 -0.2705510243587918
96904000.0 0.6185327343180893 -0.7811080392199199 -0.35374877750456013 -1.0836016338595236 -0.0006279889675558183 -0.0029716660377029545 0.45447347662691034 -0.27553583515152646
97903000.0 0.6095374854447456 -0.7837499663583383 -0.37889238969629274 -1.1170031772162659 -0.0019394004391009953 -0.0023172103188564613 0.4472483492916129 -0.2876231955544048
98902000.0 0.6057485525255805 -0.7934719811172692 -0.40498351826869605 -1.1534382778175472 -0.00011057393060308933 -0.000861436446440469 0.4475580081058236 -0.3055214416540148
99901000.0 0.5931802468058791 -0.797982354181041 -0.43546463494636917 -1.1847409532919106 0.000714019729400549 0.0027741398457948666 0.46189506515731427 -0.31365673062811905
100900000.0 0.5847490374978941 -0.8019413387008345 -0.4693054239680641 -1.2112477759167015 0.00016130139883211128 0.002231629859361943 0.4522149881728942 -0.315523355244567
101899000.0 0.5758456390494112 -0.8111856626788809 -0.4944057722663141 -1.2493414629114612 -0.00260948160944767 0.00034693724928781724 0.4479166305796417 -0.32111549426830954
102898000.0 0.5672340080464451 -0.8146301496382058 -0.5274841361002358 -1.2877435739647813 0.0005412137889567885 -0.00013820103232623407 0.4524317747287356 -0.34631943745162014
103897000.0 0.5590061070714027 -0.8237124623810639 -0.5740399227987194 -1.3253563316894217 -0.00045044818527127987 -0.0013821728200000213 0.4559228755440499 -0.34653054102148745
104896000.0 0.5496935989726094 -0.832797619557441 -0.6208261673519031 -1.3552587452022389 -0.0017055820453410365 0.002999132432889599 0.4323164242235806 -0.34323729778614837
105895000.0 0.541872171277927 -0.8349236235174717 -0.6631747012917808 -1.400402465073008 0.0007680371830957478 -0.0014537723958664742 0.42466972297246686 -0.35987679470964534
106894000.0 0.5310499534753973 -0.8422521533049223 -0.720757466102466 -1.4358132737001537 -0.00018265909292467818 -0.0019165265345817506 0.4282987864057681 -0.37083583497869543
107893000.0 0.5243787139181123 -0.8474478793799571 -0.7731631848667677 -1.47898778252786 -0.001154837848967431 -0.00022857254225579497 0.43085510616165407 -0.3832220836009191
108892000.0 0.5118079071884467 -0.8525544202597171 -0.8345854802170026 -1.507744374723698 0.0016407194209930175 -0.00027288811053678724 0.41965810439419565 -0.38373265697132214
109891000.0 0.501070339589799 -0.8592546869353483 -0.8948696800970104 -1.54720213031235 -0.0008677222059308499 0.001193471075082886 0.43112202697080393 -0.3725542153413184
110890000.0 0.495992815565211 -0.8717360338592726 -0.9651357887023052 -1.5702112300789275 0.0019456814897909906 0.0020264803130513533 0.4229892298727611 -0.38784917884101344
111889000.0 0.4814784094263213 -0.8664173506557332 -1.0240719507242024 -1.6069737217017357 0.000712099153410629 0.0029925540784607164 0.41206409601470145 -0.40404470062183323
