! Created with skrf 1.9.0 (http://scikit-rf.org).
# Hz S RI R 50.0 
!freq ReS11 ImS11 ReS21 ImS21 ReS12 ImS12 ReS22 ImS22
1000000.0 0.9952247250273296 0.006610105765167115 -0.026229870501392298 -0.05848146497549621 -0.019409577714751672 -0.00675693355073995 0.3611011095943129 0.35275160633901587
1999000.0 0.9935269240116611 -0.012526234668366025 0.009568843250477249 -0.02339156433828007 -0.0096084239114306 -0.0012547207673616813 0.26950448878443284 -0.05117027393010049
2998000.0 0.9980058367027449 -0.01979876567602421 0.009251214572208073 -0.015131339350231525 -0.006235511499480287 -0.0027725363287699404 0.18252167196699756 -0.13264533378664978
3997000.0 0.9974791579938176 -0.033893009211114364 0.016740766569788162 -0.006729532184295067 -0.004721393075160021 -0.00046253382460853233 0.09611446085310793 -0.19954926100929662
4996000.0 0.9941789243399916 -0.037855064060010116 0.011923985294672697 -0.0013096864365294534 0.006679479509089005 -0.0010019454846248383 -0.01859791244990532 -0.19769467185917192
5995000.0 0.9930028194689932 -0.04969696924994573 0.007598710975233335 0.003827628013139267 -0.0004564349583537483 -0.0006242110878161425 -0.11963618175730333 -0.12507527510876593
6994000.0 0.9913558370322363 -0.06032570352978954 0.005601213430551139 0.0023139391650200186 0.0018648695002790414 -0.001569979612647565 -0.15341031999541324 -0.034957155856775765
7993000.0 0.9913726808245554 -0.06846140546193952 0.007098907310978842 0.001803289530228337 0.002329972690334477 0.006409367237184612 -0.16892228068051535 0.029794166322506727
8992000.0 0.9909871540449297 -0.069124541193276 0.0025397672180790033 0.0038983494116832627 0.0041694059783404566 -0.0027187366014159715 -0.1646108248965356 0.06827658595955204
9991000.0 0.9881815091913501 -0.08361812111495816 -0.0028008555248579194 0.001486613971504663 0.0031798372060071727 -0.0013272091492649142 -0.15727218527587647 0.08904210090350737
10990000.0 0.9891796506181928 -0.09225901701118337 0.005021802649982217 0.0008183124401306554 -0.002305727155879869 -0.0030162058458165835 -0.1514001466464024 0.12131557077493332
11989000.0 0.9881552057008537 -0.10093393775784008 0.0016113182861038349 -0.00045588322527090216 0.003185511596395845 -0.002901605352874094 -0.131044587039163 0.13821224859156023
12988000.0 0.9851465015640165 -0.1121368352200966 -0.002468120917748623 -0.00101442084623084 -0.00022383079422398766 -0.0006706549241562751 -0.10752197847409661 0.16716498580150063
13987000.0 0.9852057526118958 -0.11793789093174435 0.00038817910329784787 -0.0011471119266801644 0.001699933061011042 -3.779651129759084e-05 -0.1056749366142336 0.19594038221249263
14986000.0 0.9839820395801382 -0.12722903472364888 -0.0039062523511722074 0.00038634746208768994 -0.0007514441649260094 -0.0003372551947482091 -0.09100225300806497 0.2019419338608654
15985000.0 0.984681631550613 -0.1337037125917716 0.0005188789016625866 -0.0033602382157457865 -0.00045567431025401295 0.0005548760507000905 -0.07454063357753829 0.20304184482096094
16984000.0 0.9837381035344499 -0.14423033349279915 -0.0002699246269330609 -0.0037862532603041817 -0.002192045864400369 -0.003699275206370194 -0.06327878873679735 0.2264301532274661
17983000.0 0.9841777653066281 -0.1516758414384166 -0.0013137191742600028 -0.004847759550574019 0.0023637445599711663 -0.0001337756125858398 -0.05233920541583192 0.22677318753609157
18982000.0 0.9788967172877701 -0.1633594125027008 -0.0014097446062269665 -0.004503794112536003 0.001199272312345232 -0.0005770995146273474 -0.023679043378428768 0.24030818838666834
19981000.0 0.9787932933705362 -0.16654491839098357 -0.004979931441303297 -0.00377815565248692 -0.0008119026914840403 -0.0018141838028849146 -0.009032628435178856 0.24478906282077736
20980000.0 0.9775054492769573 -0.17457819525603432 -0.004142834133928541 -0.0011368361987360185 -0.002647856227541427 -0.0025071201376021222 -0.006839022557858306 0.2547217005545959
21979000.0 0.9762989476948533 -0.18654848777709862 -0.005765578989224311 -0.003004070221019337 0.0023659816683468077 -0.0032651004856277944 0.005448425064192302 0.25270297251690543
22978000.0 0.9736716023235442 -0.19558376230838245 -0.005675778402362604 -0.0016697065319014014 0.00011395994398589679 -0.0021900503433489246 0.022119391663897134 0.25570093774254943
23977000.0 0.9756163540613049 -0.19843678895337627 -0.005831411106131362 -0.005009625603903729 -0.0026420092674861485 0.0006680496886858824 0.03459934493741314 0.2570710379190777
24976000.0 0.9705804426378482 -0.21092189248373105 -0.004792371069470383 -0.0047373175809210105 0.0015713956282730848 0.0046907592422063445 0.06563934821377355 0.24628822373696838
25975000.0 0.9659838448179214 -0.22656488608958353 -0.006385595561901037 -0.0013739144062967581 0.014122831409514017 -0.017321878026023748 0.0822890237152437 0.2584117658698846
26974000.0 0.9666629100007941 -0.228687116941022 -0.003905984456102744 -0.002481004502209489 -0.0031647671983285174 0.00230451081292405 0.08805071057155749 0.2701290674229706
27973000.0 0.9661980247486656 -0.23459285483530185 -0.0024891897605352725 0.002289548277072653 -0.0006318739781250635 0.00047397350760818567 0.09691994324698221 0.2534168901750666
28972000.0 0.962528729035896 -0.2443701196495644 -0.0023030727628542075 0.006860033492250537 -0.0028952574709449792 0.0013186294660128312 0.12643403701372316 0.2620097722021308
29971000.0 0.9628871323691593 -0.2525350166826317 0.0028963530869713294 -0.0006089499489511846 0.0009430306049300583 0.0016292172013912844 0.14734860649960568 0.2674031734883196
30970000.0 0.9580786207925756 -0.2596202667901644 0.0035318371501263136 0.002227707614519383 7.227086311082336e-05 0.00308288893157785 0.15626958941457628 0.2572546898099231
31969000.0 0.9579645384471613 -0.2672349974268286 0.004234202437875729 -0.004091937317700166 0.002620136167734399 -0.0031024007954373167 0.1415982747435115 0.250913964218138
32968000.0 0.9557245743540438 -0.27717611290979255 0.008439331287652924 -0.008420670186347548 -0.0026539016018139894 -0.0012010801076069576 0.15532993872794376 0.2503630125313506
33967000.0 0.9529830180835984 -0.2881203567127389 0.012111269077087785 -0.009237919863523238 -0.0015699098525871293 -0.0006898400325074342 0.18577660865125123 0.2535317051732186
34966000.0 0.9508289443030465 -0.2955834632122613 0.015312584762823002 -0.010633558753369486 0.002014938343808269 -0.0006161033757675652 0.1954984914510195 0.24455199010921108
35965000.0 0.9476506580099093 -0.3023649310988062 0.012162367611583708 -0.01523011116048401 0.0014439972279210087 -1.7579939062529762e-05 0.21065195876231735 0.25765344324809436
36964000.0 0.9453069918428131 -0.3131541205717911 0.017099563931385498 -0.014163833718893347 0.0019445751085536277 -0.0019834661566544686 0.21467677974951208 0.24958117498998092
37963000.0 0.9428729579885301 -0.3218369465178907 0.02059008063330021 -0.021810366792289298 -0.002544270021710283 0.0011616622687452484 0.22887533391398918 0.23425340578476117
38962000.0 0.9387834398450107 -0.33316772564696157 0.02090534636744577 -0.023887149134149983 0.004521911236633605 0.003421531111798743 0.2362201337802608 0.23435073446830862
39961000.0 0.9364321853938453 -0.33807020448348735 0.02520675163424122 -0.028010011921805345 1.0067533700919616e-05 0.0005106535965264426 0.250176766781361 0.2322500790717292
40960000.0 0.9326526691206931 -0.34742389737329077 0.020262996300368912 -0.02441607207601656 -0.0006472117425558525 -0.003531197079871614 0.26097405394478695 0.22474750779402078
41959000.0 0.9298444528534919 -0.356766406393021 0.02798964308519937 -0.03157531886605662 0.0013170357767562709 0.003242445978523622 0.2697376960095154 0.2179003234175623
42958000.0 0.9247885544069777 -0.36544291087234476 0.029331207953273056 -0.03898881769035645 0.000975444935582137 0.00123878692229421 0.28480537963453245 0.19801591925708859
43957000.0 0.9229393490708011 -0.37235435474392675 0.032375238538166456 -0.04297256521313129 3.1079753040904696e-05 -0.002596493307499784 0.28670079284119715 0.20767437979016315
44956000.0 0.9194348692843242 -0.3810836356826643 0.03223451889089695 -0.05092936166772962 -0.002809123160004124 0.001201267154478323 0.29484688102843903 0.19120320833553375
45955000.0 0.9157181537678749 -0.39096009399164344 0.034264680686271 -0.05486927639296774 -0.00027036140286826744 0.0020983565815273397 0.30214781021873616 0.19697052542200968
46954000.0 0.9106648640393827 -0.3992629292498023 0.03402793794340132 -0.06513933296803114 0.0012352104168316667 0.000561258947473927 0.32900685738780117 0.17159247514912504
47953000.0 0.9098922342454291 -0.40600074756687493 0.03250749671356189 -0.07295741851236077 0.0010611036789028015 0.00090172549976306 0.3373982947497949 0.16381529450246873
48952000.0 0.9022005494259309 -0.4180539208386263 0.0345745869010198 -0.07896147529943845 0.0005513816919804193 -0.001495365218907344 0.3301825849574977 0.16446362417198776
49951000.0 0.900135439304333 -0.42364907481711245 0.036526478517694486 -0.08545677293618338 -0.0011962783620333196 0.0012427435040791314 0.3425301792871306 0.1536526336823621
50950000.0 0.8957059171766062 -0.4314861460218795 0.037706717587514274 -0.09349999010195371 0.0009450721290624253 -0.001124221520650363 0.35445762170160744 0.14500701513251052
51949000.0 0.8929198617462771 -0.440458735698373 0.03965607610036957 -0.10077924769520606 0.00071325809215314 0.001230276311146022 0.35961045538510045 0.14650564683561068
52948000.0 0.8888697604542183 -0.4493271801872893 0.03906513237368067 -0.11153243734410545 0.00047579995669209995 0.004738523294717543 0.36750474462384425 0.13609060176574658
53947000.0 0.8856360116984837 -0.45529793953827996 0.03835144691080924 -0.11984353452667933 -0.0018659840873712242 0.0023848840418933116 0.3727673110916504 0.1229082709442321
54946000.0 0.8783454208801934 -0.4666655314770911 0.04249419768141999 -0.12901402723646915 0.0022515658057629053 -0.0027540372250060884 0.37792062811718613 0.12179834520842843
55945000.0 0.8756778157820403 -0.4747603794591488 0.044345680774162156 -0.13671818714672201 -0.0011424334941246327 -0.0017996844108904713 0.38507288914205084 0.10076747327488086
56944000.0 0.8724069305009217 -0.482327835903092 0.0435443048711374 -0.14804793992386198 -0.000477715048524681 0.00248360631981038 0.39254092349039454 0.11109379355008192
57943000.0 0.8662057461135806 -0.49331973703959503 0.04672216895220379 -0.15766388728254077 0.0027988841594149376 -0.0022416347635322168 0.3982104436974169 0.0956787118980308
58942000.0 0.8592306366621199 -0.4957280851900646 0.046683990440093276 -0.16854796970307673 -0.0014583193767717486 0.0023265301735700865 0.4178929189022383 0.0936587410515821
59941000.0 0.8576584689846182 -0.5073904258034051 0.04766351075431744 -0.17692235860790198 0.0038013282728406885 0.0004589490432477565 0.41114819442243944 0.08843910944354828
60940000.0 0.8503403613800294 -0.5134429922523833 0.048129901620249764 -0.18350647373208684 0.0005552400871589124 0.0022537044842438334 0.4097074499272944 0.0682407243505193
61939000.0 0.8470704404647766 -0.5201806849430393 0.04870940707610661 -0.18722360073426678 0.0045046037798028 0.0020700715297270124 0.411091620261689 0.058610519172152646
62938000.0 0.840261387229475 -0.5314099551224069 0.053916760011979634 -0.20610646177842312 0.0024032941079263357 -0.002787057083126673 0.43721439646026133 0.05960130062456195
63937000.0 0.8365227472268515 -0.5392813717281926 0.05446201406844962 -0.2250098046032839 -0.0039536780038112625 -0.003899228549851752 0.4363953587742916 0.03184064784569317
64936000.0 0.8287315760781828 -0.5458376518022287 0.05122114228575156 -0.23908421295414464 0.0028023581263309904 0.004918475919905135 0.43171513628299013 0.04610917939845903
65935000.0 0.8274561313633333 -0.554100463582396 0.05218734236026448 -0.2555482800286915 0.0038697812271226172 0.0015325640068882516 0.43091569239940797 0.012894459056075048
66934000.0 0.8223547453926779 -0.5614078007688739 0.053310846048540896 -0.26658936877405437 0.0008592236261622796 -0.0008745463237087805 0.4324072531238687 0.01800412566928526
67933000.0 0.8182894489036079 -0.5664700168182157 0.05620593192786314 -0.27810297885092927 -0.0003657845425364252 -0.003260902423790908 0.44451688974272496 0.01778226327978677
68932000.0 0.8145135800025409 -0.5666164217241187 0.05465063486889557 -0.29275698883892876 -0.0025234061795513844 0.0002636611640683694 0.44033108230751655 -0.01736978828717061
69931000.0 0.8036486816172331 -0.5831505897278016 0.05061727605797726 -0.31268061664254226 0.002571403474152856 -0.0034561082341435173 0.44486257351164993 -0.01095823394675751
70930000.0 0.7965074837411907 -0.5914181399832752 0.04799143168496117 -0.32355652709830734 6.581601786540766e-05 -0.0027733791912625903 0.44040750887102215 -0.02964675612913746
71929000.0 0.794467957867029 -0.6021379573881659 0.04348534215565685 -0.34192188895140285 0.0009681311439935503 -0.0020538921450647643 0.4442953408268188 -0.03939293803996975
72928000.0 0.7877550659074691 -0.6099547519792915 0.038188362320409557 -0.35567431184570136 0.00031192771159204986 -0.004957525203017827 0.4609888318349297 -0.04939481728032722
73927000.0 0.7804678088402528 -0.6148223282706109 0.03379647895926767 -0.3774812188759921 0.002622334118116584 -0.0058481814836290535 0.44858805042703404 -0.053355096357168987
74926000.0 0.774935595975111 -0.6235464380306407 0.024469484149165128 -0.39615911764440587 -0.0017366991813196077 0.0018044966822091427 0.452210936854478 -0.05878726668212498
75925000.0 0.770786690571002 -0.6282012241444634 0.01723560216647155 -0.41308112704800387 0.002380326108806686 -0.0017473597063664991 0.46136603953912186 -0.07383092282360727
76924000.0 0.7619951427280731 -0.6372696016591591 0.0006263962106307758 -0.4371567504992086 0.0036734361205810954 0.00265719626029206 0.4595348759498084 -0.08379367354278107
77923000.0 0.7553543006072646 -0.6444543142303496 -0.009447288541256413 -0.4578981599839185 0.0030202407572891984 -0.0009849404116540087 0.45143411390720667 -0.08378256301770197
78922000.0 0.7504097241140399 -0.6527247519928217 -0.02548495602514538 -0.4841127513731036 -0.0005829675451532202 0.00012354870987197012 0.45560404989298425 -0.10075238713852444
79921000.0 0.7412078299103314 -0.6564476059638098 -0.039778038593273904 -0.5090552026152684 0.001089932576944692 -0.0018695203476174586 0.4525943860736987 -0.11282102568037473
80920000.0 0.7357646655633427 -0.6671526476965091 -0.054608003508818524 -0.5355534109290883 0.0016281074594297303 -0.00018483219505883997 0.4740259463905727 -0.13000874189654277
81919000.0 0.7317658270931454 -0.6728264366303427 -0.07190426664008774 -0.5616187308547954 -0.0002834571200927179 -0.00017177953778533254 0.4638894123901307 -0.13248681182041946
82918000.0 0.7212502231888699 -0.6808437777691776 -0.08443833527656161 -0.5937959039137294 0.000706328677066783 0.004154034045557775 0.46398828386169455 -0.14605766425997496
83917000.0 0.7138483244480811 -0.6899209197673798 -0.10432005655537635 -0.6215406779819669 0.002551468368345512 0.0044380898399460425 0.467914009559859 -0.15133149752320618
84916000.0 0.7086452072964284 -0.694520876363556 -0.12122396856132608 -0.6588487363509493 -0.0006666779361777912 -0.0002951576059374399 0.4690011108164046 -0.16697621703098472
85915000.0 0.702196441807704 -0.7033240377191724 -0.1435333993298841 -0.6894115851200994 0.004924000787176572 0.0018416311580727826 0.4610977478631664 -0.15854785596000928
86914000.0 0.6945519632642893 -0.7131794090645927 -0.15576090516279884 -0.7223984992702197 -0.0024587318374923953 0.0009339712028222662 0.4571366321066375 -0.17536131547807435
87913000.0 0.6888301058970853 -0.7165570232066742 -0.17614645478601296 -0.7469174379784683 -0.000258698776050631 0.0011244282336236075 0.46357142905583804 -0.18679602107948687
88912000.0 0.6821524960324329 -0.7228201285975104 -0.1856998795628381 -0.7855819442396493 0.0025221626265052475 -0.00025824757191724227 0.46525816631885936 -0.2020916014252265
89911000.0 0.6725306088094537 -0.7339110954975309 -0.2006384206784357 -0.8198079704550713 -0.0022272099550336034 -0.0010116091867555443 0.4708566047612259 -0.21184000277032355
90910000.0 0.6673343166358514 -0.7361684042406065 -0.21720759859380726 -0.8539781569654528 0.0012277434100368147 0.0003162167085515465 0.460032712216416 -0.2084516992394357
91909000.0 0.6573632346471299 -0.7422706373569294 -0.23875950366005377 -0.8843816874839758 -0.0018577023286175788 0.0030040277563379513 0.462224265579176 -0.22574272417686328
92908000.0 0.6487911332683085 -0.7509396078123887 -0.2536263143598306 -0.9128802318317822 0.004026183712398088 0.0008549327864366638 0.4654747765456993 -0.23381056857578375
93907000.0 0.6437416372826327 -0.7563514831437005 -0.2739302830660674 -0.9473575418285032 0.005608399649832287 -0.0017788153307077945 0.45221376250304635 -0.2552314378908648
94906000.0 0.6292325180260768 -0.7648859931862805 -0.29473943570979005 -0.9777664676841166 -0.0002813365050285414 0.0008073104941441832 0.450016712748404 -0.2521722296548937
95905000.0 0.6261807253915095 -0.770610328488506 -0.31020670076130047 -1.012540464938952 -0.0006314483798705912 -0.0034702386814250696 0.461324942685224 -0.2685267404123373
96904000.0 0.6168129442530249 -0.7800649442424105 -0.3293133707909446 -1.0513281778509058 -0.003983762881880549 0.00017665712862712782 0.4409663012154999 -0.28164132959549987
97903000.0 0.606754451003405 -0.7842628331035182 -0.34525243658672694 -1.0823635616903076 -0.002418731828612489 -0.0010382931240651098 0.451843239960976 -0.28506652022566226
98902000.0 0.6034814909823795 -0.7935706622164685 -0.37151897742146905 -1.1199028692635384 0.004192772218117617 -0.0009936472899279068 0.44430594306203025 -0.29069798480512365
99901000.0 0.5931585036665998 -0.7965574849814673 -0.39788566426317024 -1.150629898802328 0.002316808052702309 0.0015741094115193305 0.45101621843353557 -0.31442400760583356
100900000.0 0.5821168677093455 -0.8011953063930546 -0.4283737213406735 -1.1803143312972793 -0.001340440490989646 0.0008986540247589378 0.4602977053603409 -0.3182894512059814
101899000.0 0.5761577299016483 -0.8084687435965471 -0.4531170087608993 -1.214690607378099 0.0035172621550227687 -0.0011392368709994374 0.4435068542647903 -0.3234817059775561
102898000.0 0.5642668207857968 -0.8141458834301684 -0.48930884416713377 -1.2534495589355894 -0.001606609951993775 -0.0019251396730249368 0.4500796267850084 -0.3439878264096966
103897000.0 0.5563823279744456 -0.8220550791271449 -0.5247719714267978 -1.2890740771754865 0.0011097109381501312 -0.005894961568072429 0.46219677573618206 -0.3237838449893345
104896000.0 0.5504644776425297 -0.8324460984680853 -0.5686381968113259 -1.318905296674543 0.0005390320007879361 0.0019629665605749766 0.4402918306808217 -0.3389117692818156
105895000.0 0.5363236878892578 -0.8336862043945947 -0.6167746253664464 -1.3557437262403538 0.0019873073131474336 0.0013626987589378397 0.43105928299995083 -0.359815056106006
106894000.0 0.5285178839530309 -0.8403745069234375 -0.6703997062695055 -1.3939837327798201 0.0026294207438134014 0.002054292893553346 0.42551815566728013 -0.3582902828706303
107893000.0 0.5203200880691137 -0.8474847062429798 -0.7169192007661147 -1.4341370419154074 0.0017905567227662353 0.0009861722767435914 0.43241981787564554 -0.37095447771174506
108892000.0 0.5122201476430235 -0.8479059957085803 -0.7751602969816055 -1.4709000600681168 0.0007383390292349951 0.0011825949725262344 0.4206788568203859 -0.36377114075925987
109891000.0 0.49959054207249287 -0.8570978866878116 -0.8310512455633924 -1.505949082986385 0.0029749408542512614 0.0007182605133980123 0.4364053805347556 -0.3679581966165656
110890000.0 0.4834340417969756 -0.8595717555642693 -0.8947948020819736 -1.5052432594989693 0.0005383653710878546 -0.00030489983522205533 0.42106013897297023 -0.3830429065536432
111889000.0 0.4806807165769446 -0.8637177106578718 -0.9585058084907513 -1.5746337063550657 0.0001428793358928443 0.0023437499459453477 0.4196579555851516 -0.39362891251798426
