! Created with skrf 1.9.0 (http://scikit-rf.org).
# Hz S RI R 50.0 
!freq ReS11 ImS11 ReS21 ImS21 ReS12 ImS12 ReS22 ImS22
1000000.0 0.9744880596137176 -0.0007901474897433389 -0.0133145878758228 -0.03312586358582961 -0.01624145448596125 0.018557619746628316 0.3536920674974815 0.35054900964252766
1999000.0 0.9953522035004501 -0.013696133718628987 0.007815832489233706 -0.01984046655092412 -0.00583826633237476 -0.004609842094167584 0.26071590723710414 -0.05309901704310273
2998000.0 0.9963362831839015 -0.021338982961902345 0.014266006277174633 -0.01139940682797197 -0.00524497064665999 0.0014131178138694198 0.19334124419880078 -0.13734147376761208
3997000.0 0.997424223053795 -0.03211678867233977 0.011330392729623403 -0.0069661801121559536 -0.0015287565361901238 0.0014207099657410638 0.09102242404183218 -0.2295905700906701
4996000.0 0.9962613590799018 -0.0383391183069854 0.015592038948517089 -0.0006616287128043078 -0.0010441331333705525 0.0036834286932011856 -0.040261299390173116 -0.19603700605562932
5995000.0 0.9973393349273247 -0.04914417304911629 0.009161918365985402 0.003856686562623335 -0.001530320254108364 0.0068870900128549005 -0.12666177350880192 -0.09875099552695639
6994000.0 0.9934465161919757 -0.060997975752205134 0.007808864922945013 0.002842181218184192 0.0008179913749821466 0.00556459743581185 -0.14683589587188908 -0.01396501463478453
7993000.0 0.9944911671389 -0.06947099125187815 0.008911495813659374 0.00584131350544819 2.0589478849282555e-05 -0.003378773047497213 -0.15812965595579245 0.03887959262572993
8992000.0 0.9942554077383225 -0.07278020994818579 0.003459991359177449 0.008061652228334921 0.004312903906384589 -0.002046493902945366 -0.1613049499803444 0.06768083023906102
9991000.0 0.9946022239503463 -0.08140684621716554 0.001602579417980139 0.005392641329920472 0.0009170209754464818 -0.0025911615448032535 -0.1570087607485873 0.09799009780831364
10990000.0 0.9903901054279789 -0.0954007749829988 0.006377607243863464 -0.0004183097521218968 -0.0003225453423538109 0.0007294489518642568 -0.12821146233476938 0.12105242652660876
11989000.0 0.9897584177252302 -0.09974087606417344 0.004954787537277601 -0.003544954424775946 -0.0007071060380475367 0.000678989632982504 -0.1270074605251415 0.13447412345858448
12988000.0 0.988455592537368 -0.11189165991529726 0.0016449014354741323 -0.009785766060972187 -0.0006861019365144704 -0.0023471300244543533 -0.11457304757475822 0.163238197605316
13987000.0 0.9875861636488399 -0.11834438360719422 0.0007778330079248389 -0.004340362521377978 -0.0028884504380219077 -0.001374673029375005 -0.09391030236479446 0.18181977445691344
14986000.0 0.9882658182175831 -0.12602894948277193 0.0019445581885084854 -0.0036265959288986965 0.0005330943266481686 0.0020245028099561964 -0.08118133515931328 0.1975835643012628
15985000.0 0.9884173117987081 -0.13431831659760954 -0.0037953507745827368 -0.0029978785445168086 0.002938430174631994 -0.005800594266186196 -0.06844592262227948 0.22470776629067568
16984000.0 0.9850286955865446 -0.14588113152862 -0.0029164762434785167 -0.008103141341536961 -0.002634738576957882 -0.0012329155554173018 -0.06795102220823487 0.21749449115751407
17983000.0 0.9867467625591728 -0.14870226343936932 -0.004046419688912718 -0.007526388655343244 0.001168174605574644 0.0007205830860813518 -0.04641877568837389 0.22606287370951125
18982000.0 0.9806221363045747 -0.16290042751770803 -0.003287849616056758 -0.002822934664351166 -0.0003184978054456902 -0.0012740910909594648 -0.023994398241540253 0.23037844186823642
19981000.0 0.9819280125295733 -0.16749265769794805 -0.003945288377726507 -0.005656163304173258 -0.001071571076897671 -0.0032660725361443464 -0.011835468288154584 0.25716816724083424
20980000.0 0.981159375563379 -0.17632769795491654 -0.008535606306449043 -0.010108253974005962 -0.003475576797876189 0.005314878311096567 -0.007932417745911594 0.2599301885816189
21979000.0 0.9785726535115936 -0.18409741334760427 -0.009128382705579557 -0.006885989696403564 -0.00206081936090429 0.0010377327246560329 0.028262173163459872 0.2388886867781072
22978000.0 0.9760369503354763 -0.19322350431772775 -0.0031258278166508553 -0.002423991087906832 -0.004218994707723526 0.0018096320235619385 0.022051571164512458 0.2585221407465644
23977000.0 0.9775999889694272 -0.2007775675741087 -0.009203850104549617 -0.0035263009206507063 -0.0026304897580900254 0.0005858768813389708 0.044490502381546435 0.2683107118402983
24976000.0 0.9719622371265668 -0.21249457172341946 -0.002946808121299702 -0.002456545577664319 0.0031704909860123588 0.002296284589791601 0.06933225427508305 0.2527879339668435
25975000.0 0.9631880103620488 -0.22180433657347137 -0.005267251926439927 -0.0025649219543516085 -0.01589697584313837 -0.018477693393458915 0.07394214356560397 0.2611645059171012
26974000.0 0.9681782740330738 -0.2297546954391536 -0.007476822672116224 -0.0037012708357439636 -0.0018651866249714388 0.0002464074385091773 0.08434752547839361 0.27322004131088506
27973000.0 0.9709737209324657 -0.2346960534788818 -0.005107396664279283 0.00044846323164096473 -0.0031402315246208657 -0.0017615327360788141 0.10706459404107437 0.2636776744660419
28972000.0 0.9638673334997071 -0.2482810815631433 0.0004647850183415692 -0.004684774204236659 -2.910001061814019e-05 0.0022578867383858995 0.11957494304044611 0.24901255904446684
29971000.0 0.9630739320466696 -0.2541005615975038 6.22400525309641e-05 9.822219968313084e-05 -0.0004039260846635619 0.000590024521370396 0.14486843217256143 0.2751357591042356
30970000.0 0.9614001399988759 -0.2599526854451438 0.001264536899675986 0.0008330456243555005 0.003225988947021382 0.0025119753016691615 0.16535052299572334 0.2574911158973077
31969000.0 0.9587229895623111 -0.26933017687163235 0.004374814688933482 -0.005643471418824751 -0.0008906883475504559 -0.00044465056117679437 0.1533747708878878 0.24776080206539516
32968000.0 0.9585269766850337 -0.27727198352709365 0.0061715810581086565 -0.007208001576338231 -0.0022280739639050444 -0.0021425935546128343 0.16903802605561455 0.23754375850403098
33967000.0 0.9540902471593727 -0.2888565827471605 0.013094727884116284 -0.010177248952489443 -0.00011512059426501768 0.0026093971928382365 0.1866525375092817 0.24742839798484365
34966000.0 0.9517814838467035 -0.2961845966564895 0.010837386968545741 -0.01538624809542583 -0.000510905118721341 -0.00019219766760898138 0.1953163834242947 0.2495007197104928
35965000.0 0.9489579253878297 -0.30577649042008803 0.015312321466998033 -0.010368141116483282 -0.0005556024281106963 -0.0009722070760447584 0.21394404272443085 0.25423607800767956
36964000.0 0.9464321276135494 -0.31436557197296633 0.017815506012154904 -0.014889597631597452 -0.0016951328155198763 -0.0004442951068238963 0.21790210278589334 0.24840865620079744
37963000.0 0.942119902018771 -0.3240029854617719 0.022251940007450018 -0.02226359607262145 -0.0012513147784817184 -0.0014353179038990797 0.225357673737165 0.2480934481214155
38962000.0 0.9413885520607455 -0.33122688682227014 0.02424174119337748 -0.024431630810146616 0.001280776900367849 -0.0004822746305634637 0.2283220358461548 0.2345049324685244
39961000.0 0.9378516645274816 -0.34245873316508113 0.027157026406066407 -0.02683209470298977 0.00026810810732110716 -0.003363908680284394 0.24339062886196433 0.23339844057357692
40960000.0 0.9343801967960813 -0.3471915589761887 0.02334950482158433 -0.023202467977282287 0.0006206139422094675 0.0007781045037424109 0.2661921499439015 0.22662298617140192
41959000.0 0.930618774965879 -0.3577887323030265 0.029599929007624357 -0.03488952480836617 -0.0005725150192618614 -0.0034351407064223136 0.2709040479071965 0.2170022542382806
42958000.0 0.9263459221544509 -0.36670062614184346 0.032765893938951886 -0.04137576654397301 -7.813978332266263e-06 -0.0013860797467098575 0.2808959473913616 0.21102996307659586
43957000.0 0.9261956347148614 -0.3703554155741954 0.034982925586406914 -0.04831836885228966 -0.0002423547688236595 0.0005713681236597212 0.29400211277296345 0.21031404496855102
44956000.0 0.9221267127751062 -0.37961250665326723 0.03851413079445617 -0.051164545405852316 -0.0008799352560811093 -0.0004317541062103205 0.3075649247065192 0.1992545163660617
45955000.0 0.9167501090471271 -0.3901481036581888 0.037268320546502844 -0.06177048406337054 0.0023337065112174625 -0.0003017717549576482 0.31236345333222876 0.18440082320685156
46954000.0 0.914242647087822 -0.39996454841879714 0.039769199555120927 -0.06700197519771317 0.001915402486136921 -0.0011102188822932635 0.3299460631256525 0.18149036869179294
47953000.0 0.9098885548439426 -0.40997293279191227 0.03859038313745868 -0.07596149588386306 0.0005779712922821834 0.0012520773748062309 0.3262259676211274 0.17070777587930538
48952000.0 0.9057568655626806 -0.41660712281004986 0.041021750446537476 -0.07823914540434347 -0.0016487737107030774 0.00032505087031171637 0.3341021673978766 0.16359455657215863
49951000.0 0.9017597453924275 -0.42373985880346926 0.041919090374225816 -0.0909860206937719 -0.0011245910220747325 -0.002988034383649042 0.3501551430963705 0.15528520555146344
50950000.0 0.8992298368143611 -0.4335212999194129 0.04257175264422433 -0.09706415813769252 0.00019714333057315405 0.0003275218022353994 0.35226912570941954 0.15288588727845737
51949000.0 0.8922659471472976 -0.44199829267920915 0.04316541219653599 -0.10536979006557402 -0.0018778287925683688 4.7772305127781544e-05 0.3635880284087778 0.15279325511231767
52948000.0 0.8913848002891335 -0.44787001869013476 0.04691749646996267 -0.11533175609085748 -0.0015620594131308405 -0.00318000162167401 0.363298195722311 0.14805768555165738
53947000.0 0.8867300967502119 -0.45606661885996425 0.047466863175807214 -0.12277855683082121 -0.0016597137963287685 -0.0003757512175428674 0.3686906601507351 0.12738572447340854
54946000.0 0.8803210646725186 -0.466832278608542 0.04980470034514175 -0.13286311526010758 0.0010534517406727054 -0.0025161077765260068 0.3834179491690774 0.12360329901737557
55945000.0 0.877389261740027 -0.4743793745603727 0.05168199888936154 -0.1449585610898509 -0.0035074806414051372 -0.001347669138426865 0.3904846254270941 0.10386032560584425
56944000.0 0.8724303992377649 -0.4819056283494043 0.051862558421755175 -0.15444467050108926 0.002770127647101032 -0.0024311158658456614 0.39189835847681914 0.10471433801741077
57943000.0 0.8687399657818138 -0.491429284005759 0.0521507511160348 -0.16535899373083215 0.002094423021490508 0.003079173088923481 0.398718852095426 0.10123081052385091
58942000.0 0.8641818984051517 -0.4967165512501754 0.05615377877915385 -0.17788072759200715 0.0034783119827637076 -0.0008514502519597985 0.4167038009137536 0.08766201997924081
59941000.0 0.8605909561279258 -0.5066882889546812 0.057246129870071556 -0.18883637581967333 -0.0023687353477298153 0.001009005259855127 0.4150111435347255 0.09660516943083029
60940000.0 0.8520399431345709 -0.513506473427782 0.05643618755064933 -0.1949172425288177 -0.000676145028120963 -0.00032391825077988755 0.4105531441522758 0.09039948255958494
61939000.0 0.8487635298781648 -0.5208014604566288 0.05679613606358234 -0.19708747867568105 0.000743371383314159 0.0002868852349870826 0.4186879115683693 0.0731127119937246
62938000.0 0.8414783136180927 -0.5320263114841699 0.06319209881532281 -0.21764169371771225 -0.0008765509475409625 -0.0014543124069655875 0.4432571112055149 0.062025700828219635
63937000.0 0.8383098875365965 -0.53825158072353 0.06250990359007695 -0.24099909851069837 6.024492572154836e-05 0.0006725100400624553 0.4272978809272477 0.04718196035481852
64936000.0 0.8296535612868863 -0.5456853649842434 0.060845418411358314 -0.25447996306734394 -0.004836197334865212 0.002431785338684854 0.433236261689089 0.050270315564089806
65935000.0 0.8273092817786424 -0.5569852617034915 0.05742374221541196 -0.2701700473215673 0.00041561259885499385 -0.00042029335509617325 0.44239932140407745 0.026107758049044583
66934000.0 0.8226995687945888 -0.5596468346075028 0.06050952989586344 -0.28430329963161105 -0.0015160151113874326 -0.0035783267291913065 0.43245409726209033 0.018411147716371493
67933000.0 0.8200981416543904 -0.5689304559118059 0.06125463911675566 -0.3027251700629401 -0.002356638459287136 -0.0007874313463850382 0.45325686057362274 0.015796935931802095
68932000.0 0.8172576045895324 -0.5695889766968629 0.061913513573666694 -0.31472984457412584 -0.0010591164328919702 0.004090771436427021 0.4573260366529919 -0.00473214225022181
69931000.0 0.8043175265955167 -0.5849689448622639 0.0532177770271657 -0.3326957595665699 0.0007831329247977043 0.00024551191144584655 0.4520430894421765 -0.013009270370484069
70930000.0 0.7988877005863981 -0.5931086111512609 0.050363873727414896 -0.3456187912113851 -0.0005628188582949984 0.00135108228406286 0.4492572784746119 -0.030932473642193106
71929000.0 0.7954776912543803 -0.6005816256476723 0.04741820598780225 -0.36832186511271414 -0.0001549388555173459 -0.003745112138765937 0.4571339537641553 -0.026098745021765984
72928000.0 0.7887374393465011 -0.6100260501299306 0.04559288009867024 -0.38623430232736744 -0.002171966793579842 -0.0011100919740307557 0.46288757241297107 -0.04922126550909136
73927000.0 0.7838887589539083 -0.6157681407889675 0.037312479209985865 -0.40678389063369114 -0.00028185093989200536 0.0029394457054271444 0.46286985838629163 -0.04465581662520926
74926000.0 0.7772719681978869 -0.624526319062522 0.027358009778268442 -0.42447074504716237 -0.0018202621496664051 -0.0015020973266043176 0.4636126643749836 -0.06278369831523795
75925000.0 0.7706877552405487 -0.6293481817724463 0.017019984487696486 -0.4498124956027773 0.0016412103368491561 -0.0015532967110695494 0.46962561931042274 -0.0670604107424189
76924000.0 0.7638449587406468 -0.6367679745868973 0.0045438531237742665 -0.4747629412307047 -0.0010519828809954746 -0.0025799431123558637 0.47510744433998664 -0.07654609720767273
77923000.0 0.7598455168729027 -0.6431176480583871 -0.007831929296081336 -0.49632403440661743 -0.001918570356423641 -0.0030909836631487497 0.46731561038177044 -0.07878071428664088
78922000.0 0.7527105816180066 -0.6555996912524303 -0.024566743550495172 -0.5287971493578745 -0.0007654005911551469 -0.00024040433171919302 0.4645358202850529 -0.0967885820646888
79921000.0 0.7445557887598723 -0.6597455831532064 -0.041448958844647714 -0.5508446354556833 -0.0014831299934029711 -0.004001145606094397 0.46713930596387426 -0.10083772620200171
80920000.0 0.7388911589644075 -0.6700952390736966 -0.05081782013300914 -0.5822982291978305 0.0002840749537121653 0.0018319514534150274 0.470144156757426 -0.11767514849299673
81919000.0 0.7344564760626638 -0.6746536840473144 -0.07195497334517215 -0.6134934073051606 -0.0027648603230003 0.004155428232950086 0.48123252947911244 -0.11660793482493041
82918000.0 0.72428058863016 -0.6819494044205545 -0.08341639933001292 -0.6441909031985904 0.006335919088375111 -0.0029118322607705116 0.4809305857361999 -0.1344395325171717
83917000.0 0.7157257692518214 -0.6904204125189872 -0.10305008991362745 -0.6751510435256641 -0.0003258040652343471 0.0014418177081520303 0.48797557288647403 -0.1386247249631807
84916000.0 0.711178748035364 -0.6973948130928795 -0.12207051243118246 -0.7100616707862695 0.003147250610843598 -0.0023567407861376276 0.47031238355532234 -0.15492075470869401
85915000.0 0.7041844762257695 -0.7035965834081621 -0.14116312654077096 -0.7425908348412565 -0.001787847580424266 0.0012908042048161673 0.46900858008938023 -0.15998358347200317
86914000.0 0.6979041818358969 -0.7139333000700888 -0.15521280539500618 -0.7788904387983023 0.00024516776766375593 -0.0015123968990797556 0.4661188941494611 -0.1529981039780672
87913000.0 0.6917706256321096 -0.7194037231711825 -0.17437637403808642 -0.81094858370573 0.001477035973734048 0.0008510861581834781 0.4641474999610199 -0.17415027257209503
88912000.0 0.6825053005865231 -0.7259152715581203 -0.19257183984416232 -0.8451313672418237 0.0011297641671894829 0.0008051924379865064 0.46845913757131424 -0.1982083410629848
89911000.0 0.6776355526092966 -0.7333420429512365 -0.20515567212634797 -0.8821439841819398 0.001718120816896285 0.0009937487855673798 0.467695491933623 -0.20521153336244632
90910000.0 0.668515361116225 -0.7407284165142061 -0.22945099726940846 -0.9167596884048044 0.003865506036119296 -0.0009329126451738608 0.46610744873582777 -0.2005085977532576
91909000.0 0.6590698571205597 -0.7438498031915347 -0.24865838600188894 -0.955291371543225 0.0016459822715921394 0.002063530081511869 0.47144827660928795 -0.21802402496544343
92908000.0 0.6520882421500855 -0.7529319940755682 -0.2656077484375031 -0.9886673711592591 0.00016306342753000575 -0.0006896808799679795 0.4575863333136994 -0.2140386899757236
93907000.0 0.6452472071018596 -0.7590272864846493 -0.2914725224058006 -1.017837555512863 0.003862835603195042 0.0035422839986495717 0.4677149198658144 -0.24574692997454664
94906000.0 0.6312549309936626 -0.7669372698103711 -0.30714873912867147 -1.0582133184531686 -0.002102239715667198 -0.0006931186603082457 0.4619705008322851 -0.23778815681561538
95905000.0 0.6252632491691519 -0.7740691789306916 -0.33119160525696506 -1.099285973919578 0.005049855745517931 -0.002066524617506296 0.4641702468607118 -0.2622873807377432
96904000.0 0.6169309719803656 -0.7832159114678158 -0.352412584578347 -1.1347380238129017 -0.0002577900293876207 0.0016836100848354229 0.4660301601749392 -0.2613844760870861
97903000.0 0.6076475535600251 -0.7855569922217716 -0.376864871809668 -1.1700592817869881 -0.0038066301928465877 -0.0012737097059902424 0.4561241238951894 -0.2767794267821326
98902000.0 0.604340353763357 -0.794778733291965 -0.39912057923493005 -1.2111352993601392 -0.0013593122204206835 -0.001645303998510607 0.4495444492868955 -0.2856056226290753
99901000.0 0.5941103608840108 -0.8005376844535618 -0.4316419161373125 -1.2463270241270183 0.00475175293034772 -7.627223028639998e-05 0.4594209868577797 -0.30341901356972306
100900000.0 0.5871000636403947 -0.8022869484189834 -0.4641776764645238 -1.2765116846989675 0.0017246919439770612 0.004010199760533212 0.4791006381715362 -0.30374309968067875
101899000.0 0.5754156431359059 -0.8102522937730519 -0.4993067723218921 -1.3173943360503315 -0.002057225987843253 0.0013172322052858987 0.4565622911575765 -0.31191043342271246
102898000.0 0.5652927255582503 -0.8161969049799961 -0.5370295573468995 -1.3585459823505397 -0.0015610204252490655 0.0005743966254942893 0.464609888267505 -0.3350602277263844
103897000.0 0.5583486351704582 -0.8235499948474815 -0.5808613819596904 -1.3970824528093817 -0.0003171977093551357 0.0015145623371802346 0.46174600640648034 -0.32517140976670533
104896000.0 0.549168450616414 -0.8350779417285354 -0.628388654664497 -1.4316245701610961 -0.0010246488431168337 0.0021926650739142388 0.44774721877571183 -0.3311356969213903
105895000.0 0.5355711052356193 -0.8361088575578524 -0.6771371144801172 -1.4758948993890253 -0.0014657473469771637 0.00033963444072915473 0.43922218721242545 -0.3426866069112318
106894000.0 0.5267163259328113 -0.8420223657462078 -0.7426812478897489 -1.5151022138882 0.0014899704838458598 -0.0017062600352138984 0.4404444918603645 -0.3534049126849616
107893000.0 0.5202007663009618 -0.8503573263563335 -0.7900170291969982 -1.5547814992878417 0.0020454697809716214 0.002278079164478685 0.44297001132497504 -0.36868723176528834
108892000.0 0.5112939939687305 -0.8513292271310223 -0.8526755705085088 -1.5960588012532586 -0.0014782223211425366 0.0011644051680046647 0.43138900036030553 -0.36821237643802296
109891000.0 0.4989948067443715 -0.8604557487187516 -0.9160455562446623 -1.6361619592767724 -0.0013217200087817429 0.0006816622920002177 0.4552379432813396 -0.36100149334590814
110890000.0 0.479000726442515 -0.8749911357388388 -1.0084157253568233 -1.6410504930845582 0.002365816210571115 -0.0024969066012966784 0.44752589417685984 -0.3724187570117838
111889000.0 0.47937165362702305 -0.8654489989623267 -1.0507766270496657 -1.7087787999756223 -0.0016368079182527498 0.0002352503050924694 0.42723530576736796 -0.389644645808028
