! Created with skrf 1.9.0 (http://scikit-rf.org).
# Hz S RI R 50.0 
!freq ReS11 ImS11 ReS21 ImS21 ReS12 ImS12 ReS22 ImS22
1000000.0 0.9930693727518353 0.010543814856559598 -0.007053914134827858 -0.05272054161188859 0.003913270391221156 0.003097596984469061 0.29027364760471563 0.2859461278672145
1999000.0 0.9951146998375971 -0.009539093624089714 -0.004274911657684855 -0.030684418743836265 -0.0065909455903151995 0.0010820885002644784 0.24908868010323876 -0.06372674546833844
2998000.0 1.001329727230455 -0.022091234112708767 0.010009897997747019 -0.016126552616650597 -0.002961683940317128 -0.003454196558892908 0.19301344815502294 -0.12781189830101217
3997000.0 0.9996353267463889 -0.029796682884007337 0.012383514506194656 -0.003976160934226198 -0.0028723090648868476 -0.0006844398771877938 0.09784217634435424 -0.22962387089214023
4996000.0 0.997701871451103 -0.037058000389343065 0.011993905521209816 -0.004958248878252552 0.0033283263682367436 -0.004604758101062423 -0.036891265753521744 -0.20239713346416996
5995000.0 0.9933956975238493 -0.050235796364194285 0.008567316880036141 0.003013924836330167 0.0012118348705895238 -0.0005005141377496465 -0.11499201370555191 -0.09771425104836119
6994000.0 0.9951181068837041 -0.05994987736503624 0.00860511113739518 0.0021041913886045175 0.0003324631824878097 -0.0022756967915429937 -0.1348456005143056 -0.023283052071760322
7993000.0 0.9989795120063103 -0.06741294478536058 0.009049385257783838 0.006452880353478171 -0.0007268402037225852 -0.003755812783634657 -0.15487720784572848 0.0349235108754979
8992000.0 0.9950289660000489 -0.07211007457265371 0.006989315959554971 0.006102155551746463 0.0029397108481731033 0.0019128903009930744 -0.15141502626224265 0.06897185950548504
9991000.0 0.9956159748125413 -0.08358455258528973 -0.0025103112701297435 0.007042788480897292 -0.0028550393364793997 -0.002013452174985855 -0.13192160060592095 0.09248837787842251
10990000.0 0.9940793901342586 -0.09060006279529048 0.003999418959973526 0.0018456250081217125 0.0017223010632793202 -0.00018831171587536193 -0.13148039089447766 0.11014570523735982
11989000.0 0.9890365628848584 -0.09969941643212163 0.003039310992560912 -0.00211359112207125 -0.0015153980055842742 -0.0026084673023580736 -0.12129346155548047 0.14379160405562344
12988000.0 0.9894792800534062 -0.10754168693577848 -0.005305335685358027 -0.0029397723754853323 -0.0013348810385511438 0.0022705574238315617 -0.114052740092148 0.16342753319888587
13987000.0 0.9888568504989035 -0.11478409428744606 0.00026001361445016373 -0.002758666572025253 0.00226613432333084 -0.0018534936075211797 -0.09588999721622542 0.1846043095031161
14986000.0 0.9882068842373346 -0.12495639137690877 0.0015433954190260046 -0.0037783384264818767 -0.0008058069257560901 -0.00047968052936670164 -0.08877756868431833 0.21446135674694666
15985000.0 0.9883378541772058 -0.13159414732576966 -0.0023932902529801227 -0.003283098172000091 -0.002488603490390038 1.1125380880261166e-05 -0.069960884540629 0.21308988842629953
16984000.0 0.9881516056120111 -0.14243097207561484 -0.0006876069471899003 -0.00910366144336427 0.0016998565041683857 -0.0004174884239178799 -0.04456363826917018 0.21678953779254329
17983000.0 0.9869046673895763 -0.1491102656917686 -0.004339206106963462 -0.004672281982264234 0.0025754399452357314 0.0002353513829429832 -0.05011085908345839 0.22372359812026485
18982000.0 0.9843477466985603 -0.15808447289809052 -0.007318083461242084 -0.004260607682337707 -0.000283162841715464 0.00012064624081844861 -0.013530236896013136 0.23004497099654964
19981000.0 0.9852422705505244 -0.16312605264165247 -0.007832932335138522 -0.007745201989363569 -0.0024397209146617346 0.0005750511049142584 -0.004961165613632291 0.24018081598095076
20980000.0 0.9837988104639785 -0.17437819013472095 -0.0023742344195431023 -0.005184277903397621 0.002197948996502862 0.00012897972531612542 0.0017380996433767205 0.268147503570714
21979000.0 0.980018158566298 -0.18447685222087393 -0.007421607882387424 -0.003093917215858377 -0.0027632640676422127 0.0016691802373253206 0.021848089786683334 0.23424674643681395
22978000.0 0.9794551508950295 -0.19183087334731835 -0.0007429090819486023 -0.0029611940702796375 -0.003694195361965923 -0.0026414936080614436 0.028403111323365905 0.24512189408168436
23977000.0 0.9784665438187373 -0.19831776870571866 -0.003256635581420232 -0.0002282186496513914 -0.0002315682459475325 0.004375864973722656 0.044144837695618264 0.24722878583123675
24976000.0 0.9727862472940418 -0.2083114085031712 -0.003545622468502337 -0.006339786882581416 -0.000665787466007683 -0.0013010278583808527 0.06329500666299878 0.25406431516728384
25975000.0 0.9759077097463812 -0.22016082823602673 -0.004834355488944388 -0.0014486867551728587 0.01450429775261244 0.02214008930974674 0.07926394775481045 0.26333512012696425
26974000.0 0.969863596987178 -0.22691494233543244 -0.0014374547461126063 3.514964720438807e-05 0.0035829690467565206 -0.0005673919594501394 0.09890097753380794 0.26563988719290105
27973000.0 0.969393774226251 -0.23386794025771113 -0.00799499850204852 -0.00012845112129870664 0.00043579947357544823 -0.002036356434748191 0.1096613260502022 0.2553066641157477
28972000.0 0.9675308416196654 -0.24214901419320686 -0.001639512300309137 -0.002247205729085578 0.0005177290872565917 0.00204997022261043 0.1220315195949465 0.2509502706002689
29971000.0 0.9650355743301581 -0.25247162114238103 0.001748812836251576 -0.0022854276383998066 -0.0006567425407387398 0.00031484583483353353 0.1531054688027062 0.2594167370095915
30970000.0 0.9618945442379001 -0.2571231968811106 0.0018324917780577995 -0.0006992630800175025 -0.0002962418829691398 0.004130603724338477 0.17364885137163377 0.2464633723747045
31969000.0 0.9619212836806073 -0.26493539086209794 0.002554103565720963 -0.0055629907930960535 -0.000438899906926271 -0.004829130083147906 0.15313118621794788 0.24440902075718107
32968000.0 0.9597077213957563 -0.2747258462528878 0.008168952601870349 -0.006983006867646319 0.004032412994208177 0.0011796652044292262 0.16800570558847122 0.25022650839133714
33967000.0 0.9572961815741556 -0.28551290697364484 0.011605332254130483 -0.01257866046649001 0.0010027702385641936 0.00033900540259841036 0.19490024703345207 0.23684798984221786
34966000.0 0.9531200360152403 -0.2948317694589697 0.008957562130384287 -0.015109053383845902 -0.001885288940737131 -0.0016474846040052291 0.19639431682328287 0.2508075316124218
35965000.0 0.9519742321560222 -0.29885206828120175 0.017684103863444645 -0.015577040099033648 0.0005927787145520836 -0.002486495089091065 0.22434666945846043 0.241043632738756
36964000.0 0.9488447229514153 -0.3101668824475815 0.017064722197785792 -0.015148527780361923 -0.00023001293025920377 0.00032195308964284635 0.22137130649355227 0.24495477705555724
37963000.0 0.9449198508148262 -0.3177506589073997 0.020687057068518463 -0.023144533381856295 -0.0024501407798799505 0.0005577440413570263 0.23003499941716193 0.23705286065168313
38962000.0 0.9425844002523293 -0.32853177049861815 0.02589895339775097 -0.025814765212976924 -0.0024002471735643897 -0.00016744900337287006 0.24434141110096527 0.22563894147772695
39961000.0 0.9410074587577062 -0.33385672943249745 0.02932627203108068 -0.02629846157589936 -0.0005034545924619046 0.002137293113190144 0.26738286480868656 0.21729745439765194
40960000.0 0.9368133616824506 -0.341753877400427 0.02792952665082134 -0.02460004980241017 -5.907058841593069e-05 0.0006663388360218514 0.2740324638902291 0.2253650232827851
41959000.0 0.9335567619423703 -0.35152557912288096 0.03069559299257174 -0.03131438646252519 -0.000995370359256804 -0.0009319380929637876 0.27796540723474605 0.20951353598710937
42958000.0 0.929086324342581 -0.36011934856321204 0.03446229346754443 -0.043362188348915746 0.001892761163068321 -0.0008695847616904615 0.2948050763972227 0.20210948093404152
43957000.0 0.9278799631014525 -0.3682799644602557 0.03459894394709373 -0.04875095388765092 0.001459166795671442 -0.0011488171330590157 0.29515585463121696 0.2041829726542249
44956000.0 0.9238394656465391 -0.3749129099029763 0.03731256835453285 -0.05570762194671672 -0.0009663872904532302 0.0007638340175427277 0.3085764271748773 0.19151286561739825
45955000.0 0.9210885479305235 -0.38613948107029894 0.03729757329689587 -0.05957838851909877 -0.0014157886255294328 -0.0021910291563147855 0.31372865985077286 0.1830892001081387
46954000.0 0.9175971134377541 -0.39318006808675016 0.036621811290557554 -0.06790758322587243 -0.0008805048448006527 0.0018055970946154014 0.33655665372045535 0.17306854466797109
47953000.0 0.9135951350872618 -0.401578386457598 0.040499622368609246 -0.0752565150163097 -0.000816991765758677 -0.0004673151816114248 0.3421122606666324 0.15926535038911063
48952000.0 0.9090494739933502 -0.41029137261879295 0.03845317418847153 -0.08297625204551641 0.0002860597631228709 0.0022250542791858105 0.3352484942383169 0.15975964971150006
49951000.0 0.904994116279983 -0.41808133025000355 0.041856890048871116 -0.09169876473370138 0.002033744926136638 -0.005009149395078317 0.36389496115265707 0.1533281759648442
50950000.0 0.902876291386265 -0.42667972168194745 0.0396601992458349 -0.09840182527240375 0.0002031731081280183 0.00176229192371684 0.3584292005376592 0.13867659267134622
51949000.0 0.8985308364199255 -0.43386492061528675 0.04336045987523157 -0.10877266152581004 0.0020252847736995875 0.0044826099044218215 0.35706280210749797 0.13882274560439206
52948000.0 0.8974505649980197 -0.4402372449461034 0.0460881945787483 -0.117760989834968 -0.0008082480928361682 0.002240231346471988 0.37689711146145477 0.1316696813317772
53947000.0 0.8893288727793439 -0.4518004334194707 0.044831337322302156 -0.12705624875425825 -0.002845762227540299 0.0006089098171370494 0.38728366817243726 0.11561093891990305
54946000.0 0.8849368287529175 -0.45829952055585843 0.04991149427636513 -0.13491962001406754 0.00422287126603184 0.0013430507929794167 0.39505028607647474 0.12722238252719326
55945000.0 0.8827683683775042 -0.46517037990194426 0.048957382161707905 -0.1486069679418582 -0.0030073448418485938 -0.0012926867279842605 0.3900733580143416 0.10260510547421736
56944000.0 0.8766204154687504 -0.47484525276809453 0.0516584523786871 -0.15849304979979065 0.0016824224971489414 0.001534848078178137 0.40273677725435675 0.09708108838664019
57943000.0 0.8739045362490621 -0.48503293117613316 0.05296113470824592 -0.17034384581670403 0.003624464856974326 0.002490300409801612 0.4083181616815716 0.08820154667250424
58942000.0 0.8675796849969065 -0.4895035105713425 0.05401068449212246 -0.18517371830433282 -0.00017231303013056577 0.0005974879207626066 0.4331955510468349 0.08372029258422978
59941000.0 0.864567578406565 -0.49808078070952294 0.05675126143853106 -0.1960961713154428 -0.003301078455413933 0.0014559365311035922 0.4328582218718988 0.08005539972861303
60940000.0 0.8574327047088414 -0.506327942157729 0.055361825340345124 -0.19604897669356788 -0.0016222705587538176 0.0009096621858742816 0.42585663223170506 0.0587039562781789
61939000.0 0.8550955804780932 -0.5112224927238951 0.05414192198404007 -0.20554233285901014 -0.00022658675078095634 0.0005710128825048773 0.42232082776321267 0.0548677097064828
62938000.0 0.848959948022918 -0.5230585470078128 0.05893106687589452 -0.22495614049116075 0.001586324886722855 -0.0005955758144726176 0.4502560394660676 0.04011108104964199
63937000.0 0.8441003896502728 -0.5295530820354629 0.056826025812127826 -0.24773860644132434 -0.002088504558900031 0.0018601191924050961 0.4389145884888521 0.03312877450214551
64936000.0 0.8375357622344652 -0.5368855196225106 0.05911127905416765 -0.26167241166173844 -0.001655309956540736 -0.0007255270029751528 0.43465664973722434 0.032640307903196164
65935000.0 0.8342922804313798 -0.5474838207130945 0.05613389851336444 -0.276263068226738 0.0025456254103863587 0.0007740897629579426 0.4462067938121355 0.014207781323781426
66934000.0 0.8289772346028472 -0.5533915834517326 0.05228970209932423 -0.289062126252496 0.002934915113570782 -0.0033994831929182717 0.4404712617395496 0.010127334623640962
67933000.0 0.8266906232689725 -0.5604440346940609 0.05769939808310138 -0.30565763568564386 -0.00029636220906995047 0.002424938131284833 0.4547714132535337 -0.008942397963839641
68932000.0 0.8102178088342583 -0.5544350827002323 0.05229307298184371 -0.31629359878074603 -0.0014234572292003385 -0.0037958915222036167 0.45482424891371737 -0.022811653112234626
69931000.0 0.8149270316483649 -0.5753778790827684 0.0551629564883667 -0.337440291932473 0.004728814723652616 -0.00018018986847833423 0.452059800953862 -0.030594409450006556
70930000.0 0.807386777897775 -0.5838306252705908 0.046545832869975864 -0.353777716866863 -0.0026932161828027556 -0.00025030732462236053 0.4513538675411955 -0.04786375196288893
71929000.0 0.8032396110625666 -0.5915091439699448 0.042752124558145775 -0.37124837694853935 -0.002457062862148781 -0.004104453678134185 0.4556661041187463 -0.05943991571270816
72928000.0 0.7961272700045723 -0.6010447840918901 0.0366936208481937 -0.3885386844362592 0.003983065360689123 -3.414684205653662e-05 0.4638015544885445 -0.062279162817588316
73927000.0 0.7904216035126633 -0.6051796851757913 0.033184924554951575 -0.40942092732649005 -0.0010300481270995514 0.00252857094531174 0.4620778337125269 -0.06339053524603125
74926000.0 0.7859520654916348 -0.6155289752029818 0.024491147795352605 -0.42991573923597903 0.0032019300066384385 0.0004931384340004031 0.45908350668973147 -0.0720419647876102
75925000.0 0.7817484550204952 -0.6200450564419241 0.012124036372378574 -0.45281648639766997 0.004311839921539998 0.0006620620988683321 0.473863398330572 -0.08418277217223023
76924000.0 0.7752051108063248 -0.6277895188299606 0.0014728197696754323 -0.47494133253606813 -0.0010799856320807685 -0.0027959097287643436 0.46104842609810226 -0.09486169257114666
77923000.0 0.7690405852433216 -0.6341482566156034 -0.011039950903952041 -0.504247822694207 -0.002156106137343972 0.0011890201383944919 0.45937852151362174 -0.10551525723306064
78922000.0 0.7626622160874573 -0.6444489790243821 -0.0296223149423242 -0.5294116681709496 0.0012668364376850112 0.001966066296505169 0.45743002533041355 -0.11945496434312483
79921000.0 0.7531609559911293 -0.6487719494518304 -0.04311503321369264 -0.5557651644423859 -0.002899050465245449 0.000833983656950269 0.45262490068050043 -0.11423230632779467
80920000.0 0.7503851404084431 -0.6589083434918707 -0.06342509932641471 -0.5832460617058931 -0.001022276538541001 -4.5841128144052156e-05 0.4672570169115592 -0.13554984755399352
81919000.0 0.7421637473866348 -0.6646203402326979 -0.0758237775671936 -0.6165084014029661 0.0007583925192877216 0.002706415577292856 0.46097498324756386 -0.14819147244328248
82918000.0 0.7338292218872609 -0.6732197024228698 -0.09119277205616824 -0.6481855567587971 0.004298164935444528 -9.218283958202184e-06 0.47033080994226434 -0.1492975020824314
83917000.0 0.725859901089388 -0.6820452593314492 -0.11687975525042359 -0.6787191827800368 0.004417070572920437 -0.002084217779321614 0.478824224413284 -0.16494815955631967
84916000.0 0.7217829151948996 -0.6871186272964459 -0.1319081830669569 -0.7146081461570208 -0.002387770811605137 0.00284893980542702 0.46089854973720606 -0.1848167083089087
85915000.0 0.7141850746043298 -0.6939273632912943 -0.1541303799824366 -0.743307859387663 0.0044480205445971205 -0.002556532970126131 0.4680697748346514 -0.18166068673832192
86914000.0 0.7071143688510009 -0.7052427374354525 -0.1706040413825866 -0.7857501672121545 0.003580598800182162 0.007650293797412885 0.46328425527494554 -0.19115186458504427
87913000.0 0.7010827622590243 -0.7088165683815922 -0.19321336643524856 -0.8119380224627729 0.0037094274784152666 -0.004382207706371043 0.4571870731815338 -0.19717932778235883
88912000.0 0.6943305191937887 -0.7153045831448892 -0.2060349391130654 -0.850428724925067 0.00036604632909079875 0.0011863574514808556 0.46147776128924156 -0.21769580949450962
89911000.0 0.6874965884247458 -0.7253311003626797 -0.226243438620033 -0.892307087096916 0.0022219196269986775 -0.0014056463100503114 0.47065848654395526 -0.21199923641643956
90910000.0 0.6792839707330856 -0.7296336496887273 -0.2448227993583777 -0.926489517900946 -0.001310926080318785 -0.0001175106332997816 0.45823644987766926 -0.2256119857354886
91909000.0 0.6708905811844316 -0.7358924272677464 -0.2664930316833095 -0.9574908686192463 -0.0002527761002163071 0.0009999378482787994 0.467758148244776 -0.2365933417546195
92908000.0 0.6633408441636783 -0.7424931860948075 -0.28884199746388894 -0.990526216609672 -0.0005934880231427591 -7.994612457765183e-06 0.45477971275141627 -0.24558962659432368
93907000.0 0.6582282192865025 -0.7480520060817429 -0.3073968458285185 -1.0243645754123274 -0.0016667961017292493 0.004142397534044768 0.4488829364359239 -0.26701070699442425
94906000.0 0.644597151282612 -0.7569672323418903 -0.33021389818777763 -1.0606833099246127 0.0030123873057423104 0.00025152354890680485 0.45530319175631573 -0.2573762335444195
95905000.0 0.637570041642294 -0.7652239118429607 -0.3588704215167523 -1.0991906125879118 -0.0033964322043363152 0.0006563106071428063 0.4626841493959225 -0.2940475665717566
96904000.0 0.631509030738763 -0.773751468263155 -0.3772059042768715 -1.1373617921223078 0.003024562611848891 -0.0009415230562794584 0.445795975594058 -0.2872569353194837
97903000.0 0.6214014757552316 -0.7782544220331937 -0.40196312968230696 -1.1748747076926989 0.0035674769017436034 -0.0009120080833116886 0.4420971084324847 -0.3019732783751501
98902000.0 0.6173395008250837 -0.7858627073923514 -0.42305341417978126 -1.2150800905783252 -0.00015431093287397024 -0.001260424022549382 0.4400844160628424 -0.29592275121157385
99901000.0 0.6070011409476196 -0.7908449209075621 -0.45742593073866283 -1.2485965079948238 -0.0024979779506351923 0.0011871174535994342 0.45730998172544907 -0.3215585553398781
100900000.0 0.5985061161317502 -0.7933846264019035 -0.48973460740893593 -1.2756681849093892 -0.0002331643122618349 -0.001018076651104162 0.4505545517415766 -0.3325021652109156
101899000.0 0.5891444511477875 -0.801424651912937 -0.522211417796598 -1.319604643371213 0.0018999071579544123 -0.002332450129467635 0.44203959848880564 -0.3373782132160515
102898000.0 0.579315061078425 -0.8085678924578323 -0.5663357581744323 -1.3606970827344311 8.252877125556933e-05 0.0016297109967844134 0.44377376344477776 -0.35313756668337964
103897000.0 0.5716155403616094 -0.8162933894514308 -0.6040081917362504 -1.3967688957506552 0.0008651635721431278 0.0012298082958788915 0.4557079692856112 -0.34715009229378646
104896000.0 0.5642035856732786 -0.8260582069584536 -0.653988815439218 -1.4340372158983212 -0.003105818547715631 0.001209444468491864 0.4401108844832561 -0.3546230498337158
105895000.0 0.5520944719337079 -0.8256527447039949 -0.7021752838552112 -1.4750409619189746 -0.00013896131760772574 0.0009325974418937277 0.4264139210969594 -0.37653215434636667
106894000.0 0.5429943176840264 -0.8339035027380917 -0.7644010623358615 -1.5138519326208248 0.002454697034041751 -0.001412998135974224 0.4248278719271532 -0.38190558264948987
107893000.0 0.5362337151017894 -0.8404093646539957 -0.8121174546585798 -1.5511046485208115 -0.0019094709169892759 -0.000818264684810566 0.4196800756217709 -0.3880370547565073
108892000.0 0.5288176440144661 -0.8430102980296205 -0.8771634444119655 -1.5916699298495707 0.0010206844492970006 -0.0012576779217109914 0.41579607514313005 -0.38433872396307994
109891000.0 0.5133486276127505 -0.8511895896849925 -0.9369054050158281 -1.62824545589789 0.002763414409903524 -0.00083727444415649 0.43492938465175085 -0.3861585841392748
110890000.0 0.5064913015397836 -0.8685070270737804 -1.0269301753916489 -1.6455396167124259 0.0013111818662686057 -0.001835088725503041 0.42117630119649985 -0.40856032042580354
111889000.0 0.4969284989279144 -0.8578962546026471 -1.070743173956337 -1.7028491596221638 -0.00014465710769787616 0.0015134036419300852 0.4121860934193973 -0.4219618387445195
