! Created with skrf 1.9.0 (http://scikit-rf.org).
# Hz S RI R 50.0 
!freq ReS11 ImS11 ReS21 ImS21 ReS12 ImS12 ReS22 ImS22
1000000.0 0.9853917321932907 0.013744733824858746 0.017847508562803722 -0.031008389373533216 -0.01942922274117995 0.0014064293094627385 0.3376375029623281 0.30399769878465177
1999000.0 0.9905607444944479 -0.01353873539017543 0.0059616080007781555 -0.026225126391143626 -0.01185972020318538 -0.0030637072682873187 0.27312963638473425 -0.05405962723422048
2998000.0 0.9967082263292273 -0.0194176057639932 0.008287604614939855 -0.01416854074706805 -0.007392510525515816 -0.005965405901842545 0.1880952057584248 -0.1298404483922319
3997000.0 0.9943762943553375 -0.034283669077235165 0.013514003180456082 -0.007094600231741241 -0.0021468726908695137 -0.003894563897036316 0.11834831873198187 -0.22161528638456607
4996000.0 0.9947955489208665 -0.039229687039688814 0.007144977088430922 -0.004944837720956794 -0.003653714940178282 -0.009563462524970649 -0.02301527254498244 -0.2330806686076093
5995000.0 0.9932484621646366 -0.05072624489625096 0.007560593695210488 0.0018512098824129627 0.003130101907385875 0.00010080580797288531 -0.12079984166337332 -0.13394861188942547
6994000.0 0.9939368650597936 -0.0636880058780271 0.001178619343493641 0.004084087280157295 -0.001364901084289533 0.0014335381372343244 -0.1538228133117963 -0.03793078180230747
7993000.0 0.99421039636906 -0.0679730377229583 0.0046983936891402105 0.0021632002210492307 -0.004094983406174327 0.0018319381415749013 -0.16010787441263807 0.03131432483555916
8992000.0 0.9925687677747084 -0.07043504533282519 0.0022334865082854036 0.005246248146495463 -0.0027673669706991433 0.00037794636144226456 -0.16191662197946916 0.04440178797084288
9991000.0 0.9935815404722168 -0.08472713938606999 0.00235694548790758 0.005496975804770483 0.002566604816258088 0.003282608840413488 -0.15323076454376783 0.08114253392131887
10990000.0 0.9906383485925925 -0.09619505159175838 0.00457542910064252 0.00021724027996111194 -0.003947548437073451 0.0017039127942940515 -0.15438432914878258 0.11774220376432726
11989000.0 0.9900395105945169 -0.10123437089136107 0.004031176936347159 -0.005061742892014838 -0.004694276058793191 0.0012149502446771492 -0.13852938559914796 0.12185043229518139
12988000.0 0.9911994301673043 -0.11185779163299794 -0.00213445764441335 -0.005604063395421702 -0.004267699853090804 -0.0011771900309332918 -0.11945200361905808 0.16528192286028298
13987000.0 0.9873183749909374 -0.11825560728884998 0.001968889823041204 -0.0020734219929201044 -0.0003358645130876675 0.00048363548601543287 -0.09586662738610888 0.17781810512887306
14986000.0 0.9854709018813728 -0.12706378022911882 -0.0022973868682305493 -0.00366910017583083 0.002838413999368798 0.003880852326640016 -0.10531319942500116 0.19555344674249528
15985000.0 0.9887565290324761 -0.1341006754518794 0.0011467905572764689 -0.005827391850445748 0.005265393803666709 0.0007496917366819664 -0.06442659997987747 0.21162163627503416
16984000.0 0.9858804955561625 -0.1454417662913074 -0.0032465901992848197 -0.0046125394418809855 -0.000305482238256735 0.0023569765169414937 -0.0718051444172968 0.21150753536699618
17983000.0 0.9844725745075507 -0.15138633231066514 -0.0012858910773715193 -0.0007326537899835862 0.0025429913394982013 0.00013590175105344774 -0.060040483855884334 0.22830309767357795
18982000.0 0.9816048202892159 -0.1631014006162305 -0.003843750911177174 -0.005270931181359195 -0.0009465950364793613 -0.0014572215885611348 -0.03288384278568238 0.23257254371332511
19981000.0 0.9825944037235314 -0.167246932695933 0.00044612563963456516 -0.005095429411203794 0.004673584475913835 -0.0012120862476314165 -0.022667083658666872 0.2479120415785022
20980000.0 0.9805223024048143 -0.1774928995643543 -0.0030142011666170693 -0.0021444531607298627 0.0008427987855457608 -0.0016737232437074507 -0.006928437255147656 0.25301573308728925
21979000.0 0.9789396179562497 -0.18714757171994464 0.0004695610908235047 -0.004732264665809135 -0.0004009689606534485 0.0001118558976562849 0.012079269897517772 0.2350403262316978
22978000.0 0.97474275909788 -0.19519812884925997 -0.004764740602333209 -0.0032492116840669777 0.003797625709016027 -0.004588865897389083 0.018732034161813536 0.2557326576586586
23977000.0 0.9748036446103913 -0.20573315636109332 -0.006105250383331118 0.00022448258560350652 0.0014408286592513585 -0.00011171562887945648 0.029864840361557784 0.24718173346066388
24976000.0 0.9738601699551717 -0.21434838832117228 -0.004114185089796484 -0.004650174392009002 0.00244119926030059 -0.0006678304070891457 0.05935692080441834 0.25739229248883505
25975000.0 0.966484906140333 -0.22064076610842318 -0.005411198385705176 -0.0011063928150605907 -0.02633275716762087 -0.013665527368935006 0.058694640753794235 0.25606659147157995
26974000.0 0.9683317765327955 -0.22859908002623322 -0.0011311465427538455 -0.0032050904420961386 -0.0028508455203154932 -0.0035082882748282084 0.07919480346754051 0.2597194268789834
27973000.0 0.9679885449843759 -0.23904319766316487 -0.000477478240619904 -0.0007660249622829018 -0.0037295646981289443 -0.0009238107340853741 0.09892666275114213 0.2579912760170812
28972000.0 0.9644866619983827 -0.2495350114697682 0.0011819012725006663 -0.0008284561758628553 -0.0022172007407672764 0.0044316355236459866 0.10387042297626371 0.25418127160696175
29971000.0 0.9638898287580909 -0.2538901701616234 0.0013162751755752674 -0.0013098291915987742 2.58317969754419e-05 -0.0008345810592733994 0.1473032342574516 0.25924505934596775
30970000.0 0.9598025013402424 -0.26348121030922506 -0.0004606238242654971 -1.3898146928470472e-05 -0.0004201918721517539 0.0018187589761149234 0.15595196145246054 0.24947397663710388
31969000.0 0.9595573010696995 -0.27059313146647707 0.005007721073837402 -0.006523603724985506 -0.0015640492256272461 0.0009533623428239713 0.1483159897367852 0.25228468018767575
32968000.0 0.9570529580308819 -0.2801029688691984 0.004997102705016264 -0.004211222104201955 0.001590303871789123 0.0016694027869488311 0.16194630454254874 0.2512995745460228
33967000.0 0.9529623460350766 -0.2921478870560647 0.010176074009482379 -0.009236317329370901 0.002093396607699026 -0.0013128137306085013 0.17360297650457746 0.24457054886627524
34966000.0 0.9517737131197866 -0.29592366445111196 0.011197470026946068 -0.009518558825580921 0.0038966645850197963 0.0002827970434313226 0.19071483786187474 0.25667598133896136
35965000.0 0.9484853600998852 -0.30794400605985395 0.016640247729695513 -0.013900778133052958 0.0037363200294688115 0.0014226700052683255 0.20378722939921523 0.2504439945332921
36964000.0 0.9453228445330242 -0.31653582335178415 0.015822273762929107 -0.015777309837577674 0.002547491734517107 0.0033281829901865402 0.20018759273554557 0.24564033438494448
37963000.0 0.9421966061293456 -0.3253137617506256 0.021186695261388517 -0.02002075749818317 -0.0022760491870357762 -0.00010518622763410295 0.21935902005925806 0.23558161044453793
38962000.0 0.9393776558082597 -0.3341648276422559 0.021682111425982142 -0.025104826490364253 0.0017069514627646458 0.0011576491060617795 0.2319985469042268 0.23256426133722108
39961000.0 0.9381049964596057 -0.33900417618448786 0.027945262756181533 -0.028848558602085708 0.0011589746143627424 -0.0016827711607532178 0.23690312802764335 0.23172263690826153
40960000.0 0.9333703893618924 -0.3495282399441125 0.024674787742362873 -0.02053191439611364 -0.00023279159408019524 0.0016084664816406967 0.25583741693718043 0.2312545713600302
41959000.0 0.9309392263501391 -0.35899701079341095 0.029013410426948792 -0.033170403249394166 0.0007546375898355755 -0.001313451594508208 0.2544815371148649 0.21464731469006465
42958000.0 0.9239792693608581 -0.37105566409283525 0.035785279025835406 -0.040774317396409035 -0.003720226164579627 -0.0009860619211723776 0.27336986468406427 0.2058664384002802
43957000.0 0.9235381388268743 -0.37465890585597045 0.03394522501768063 -0.04730468061142606 0.0002380231956430714 -0.0017838857694260752 0.27957289686860176 0.20702102000883424
44956000.0 0.9207171191688803 -0.3821130647640272 0.03657737215628837 -0.052597370614132236 -0.0015690036533337734 0.0022874177785059888 0.29168264552260226 0.1959944409184504
45955000.0 0.9169690386493958 -0.39354806230929773 0.037277961412683636 -0.058545615739903786 0.0018017824362457442 0.0024376850572287536 0.2995251667553983 0.19497659205697185
46954000.0 0.9132099392816988 -0.40111483124800573 0.03812957092727133 -0.06441172294499026 0.0021738427522072948 -0.0018213813172358539 0.31109751270864966 0.17455266250186954
47953000.0 0.9083876632978932 -0.4094283397631304 0.04097574279152656 -0.07330171269331065 0.0019277483945116952 0.00037682975055929686 0.3335743502700099 0.17312858616629642
48952000.0 0.9039533433136054 -0.42161430320395316 0.04030648698578783 -0.08338227947042774 0.0007961578080535099 -0.0025443823238413743 0.32597190099872664 0.16250532552281594
49951000.0 0.9030079348714767 -0.424185776984744 0.04248108728385171 -0.09055519826681278 0.0007634690488271433 -0.000779230108342829 0.3507620766917913 0.153208132704703
50950000.0 0.8979685547523161 -0.43322539189322307 0.041344994694363396 -0.09817285354782689 0.0017687363577959584 0.00037760324200764885 0.3448420247932249 0.13631107946718363
51949000.0 0.8939595238114503 -0.44274326186154994 0.04345141554095596 -0.10489695600696511 0.0006337789188566519 -0.0008828769273601466 0.35225457878614735 0.1484526621054466
52948000.0 0.8918701762618534 -0.4486271680578992 0.04539323714951603 -0.11320117582153374 0.0034948337812028 -6.497722314578882e-05 0.3591823644081935 0.1432243834098779
53947000.0 0.8847072744587833 -0.46056096719729855 0.04837300286145431 -0.12402801477733058 0.0008089077533403378 0.0006386975947119945 0.3614826298125973 0.1321291555780506
54946000.0 0.8787899391455788 -0.4679050505417846 0.05060844981478227 -0.13401587277149177 0.0028402206584739235 0.00035056686156417305 0.37896972914579585 0.12161742524886042
55945000.0 0.8768761274484569 -0.4758299448616043 0.05356398371220544 -0.14436990858914675 -0.0011594630841789313 0.00024650451140350454 0.375642025497731 0.10826326295457751
56944000.0 0.8719994342605788 -0.4844359591950525 0.05511440474413614 -0.15391872645880209 0.0016609413435765671 0.0006661955303768321 0.3847139263094939 0.10673127876842516
57943000.0 0.868975580969337 -0.4944400922831837 0.05601875714661537 -0.16511307507071793 0.0035023535963227418 0.00021813340749818073 0.3929045355442129 0.09835229388288992
58942000.0 0.8618929972232038 -0.4993370224633884 0.055171660764312125 -0.17872787232871 0.0015302112709528362 0.001069235036280567 0.4047280212469629 0.08421666693165883
59941000.0 0.8582118480657815 -0.5088160781426977 0.05919056874676918 -0.18715710620022954 -0.0043161846880509685 0.0006844381957162876 0.4145081257272873 0.0814992383160198
60940000.0 0.8513923049645293 -0.5167203083334212 0.058636327193863955 -0.19225440593782014 0.0007023631105592557 -0.0004023086457106369 0.404627034330422 0.07766340379179584
61939000.0 0.8479194220044064 -0.5225119469071625 0.060425446925531444 -0.20037762610054494 0.0002575363282363026 -0.00019931056174865244 0.41425439734132585 0.06516128434841442
62938000.0 0.8432927203666636 -0.5327696096415339 0.062086445532320796 -0.21979787919623373 -0.0015958541602380267 6.312259813238424e-05 0.4319581131259428 0.05936978226813061
63937000.0 0.8374166369831563 -0.5394080133626312 0.0654568625245717 -0.23852898411488554 0.0009648953232761474 0.0013918058390522074 0.42128468281452136 0.039965391343362675
64936000.0 0.8308227628592089 -0.546692428876595 0.06304865542703413 -0.2552414379604008 0.0019385849284613435 0.001337586964067207 0.4219256732043937 0.041541749566179405
65935000.0 0.8275650687687665 -0.5568300360107623 0.06593453790990675 -0.2698433393685437 -0.001579706465962154 0.0014324668155309436 0.42883949696632995 0.02952502225044901
66934000.0 0.8212613843420458 -0.5612413237045063 0.06331190739392543 -0.28274420931724314 0.00023579997852036326 2.7419197885507513e-05 0.43687220163998386 0.018692193726195943
67933000.0 0.8190837635874325 -0.5701442129456783 0.06559463698343854 -0.29947217287923583 -0.0013786637291835224 -0.0031692539864822734 0.44025231588809677 0.006395356219745339
68932000.0 0.8134593613061724 -0.5754289087136255 0.05893570708698709 -0.3172423978746329 -0.00021776564749874557 0.0024179681238012825 0.45247247962013964 -0.0016271542681435486
69931000.0 0.8051160693122327 -0.5871463466464047 0.058324413839001436 -0.3320352763480063 -0.0014423052170615012 0.0017922915618105153 0.4369608034771818 -0.013442155759613453
70930000.0 0.7977376213592657 -0.5931447466091736 0.05257347959286217 -0.3460148795340872 0.0022825480856245224 -0.000220050137413792 0.4388292407357748 -0.026221823431512168
71929000.0 0.7944595683439671 -0.6025126967854847 0.05298313160149252 -0.36581567123472025 0.0009800902692575124 -0.001231080777513294 0.4441411259238395 -0.03942577359537968
72928000.0 0.7870446318682637 -0.6112629279903611 0.04286072840224605 -0.3867519322605499 0.0016360043817228306 -0.003216389818582894 0.45379105577515544 -0.03706992735776238
73927000.0 0.7817212637797776 -0.6175896908624267 0.03839041703967128 -0.4059257044885378 -0.0011770880420792747 0.0027352732978324088 0.4533239439938205 -0.053410458926389334
74926000.0 0.7762589105638388 -0.6280858794609556 0.03207572131692744 -0.42795038698799526 -0.0027929915091871064 -0.0020384392741773618 0.46413709341305 -0.055631138139046986
75925000.0 0.7715228210339085 -0.6323032931274989 0.02246147782230771 -0.4454597116971163 -0.0007224270887923204 0.0017771173022271356 0.4587562397610753 -0.06135179345780181
76924000.0 0.7646675270490761 -0.6386092628255953 0.010406640198779231 -0.4743146009992346 0.002249555521056338 -0.0028970277753043627 0.4595116278061191 -0.08276785995161792
77923000.0 0.7581187175144779 -0.645759243026535 -0.0066480700073820245 -0.4988435887867728 0.00047369878822382973 0.0006441390897005672 0.4486715879879944 -0.08756414146402308
78922000.0 0.7511356984560007 -0.656667762423294 -0.02113055651751019 -0.5265690385180943 -3.5116800358594714e-05 -0.0004960524620386182 0.45131120360861005 -0.10761468287528299
79921000.0 0.7435185751858567 -0.6610293526036445 -0.03196146914143509 -0.5547632275716651 -0.0009599620293234555 -0.0007780340307037944 0.4510683475272239 -0.1146050235376249
80920000.0 0.7393568406563361 -0.6718096012179948 -0.044252700123690675 -0.5846600764649599 0.0006657196929644649 0.0008861599219420266 0.46820392007494244 -0.12532764655676293
81919000.0 0.7319765505578677 -0.6766151983833981 -0.06463558049914067 -0.6169773311512662 -0.0009707740336245777 -0.0010852411056720378 0.4623630757563321 -0.1256207750101246
82918000.0 0.7214939003108338 -0.6850941449839288 -0.08047418620569502 -0.6456255041643965 -0.003103973625413153 0.00018296330758796312 0.46927786787961256 -0.13545668912004624
83917000.0 0.7135149534518969 -0.6945125932944178 -0.09977458361208806 -0.6790649141761297 0.0031273866054998957 0.0007594380190646499 0.4679395402295403 -0.14368727060448475
84916000.0 0.7087315870731965 -0.7020185008229541 -0.11882278416286161 -0.7148259556324085 0.0029723235185134082 -0.0028055470606803364 0.45501756418483796 -0.16326069370273077
85915000.0 0.7016333491851086 -0.7056251767194022 -0.13325407883056603 -0.7458479638404982 -0.0011587662783754645 0.00011504347830222866 0.459817536500561 -0.17509705983412532
86914000.0 0.69505563634485 -0.7165421428375693 -0.15183127523036305 -0.7817778284058213 0.0027708137797485544 0.0025498575314035748 0.45586261945000855 -0.17560452063992169
87913000.0 0.6871064301793984 -0.7229085195673955 -0.17239933573037708 -0.8140245168210382 -3.341003403384579e-05 -0.00135468104764991 0.45415132645062495 -0.17538358646161253
88912000.0 0.6803822696565363 -0.7293996505085675 -0.18979267459685897 -0.8480128990442132 0.0014701795302899843 -0.00010807261570500207 0.4648240315968294 -0.1977944744730493
89911000.0 0.6737803450891799 -0.7366993186290494 -0.20221926093725362 -0.8875639688985753 -0.0019454484050747663 -0.004667785985967228 0.46302072656745624 -0.20436359835828125
90910000.0 0.6653706665525457 -0.7419794737076093 -0.21768238708580082 -0.9266164754749548 0.0007727299738818124 0.005098506946750648 0.4592236945152287 -0.2105128494909132
91909000.0 0.6563153454099331 -0.7473993839042418 -0.24409627981274917 -0.9588610034736922 -0.0013258589860251633 -0.0006573361569983245 0.4637448254093972 -0.22316683155435013
92908000.0 0.6474230702249464 -0.7574075382781085 -0.260590171599636 -0.9941708221380632 -0.00029608918043177226 0.0012388182982969059 0.45799908128497396 -0.23039550702893444
93907000.0 0.6429285556036289 -0.762388054288255 -0.28234470046356086 -1.0251644978212726 0.0011546273382353302 -0.0012808099357045904 0.4515495583472031 -0.25268199680714454
94906000.0 0.6295916179375162 -0.7708217078234244 -0.30394196689258335 -1.059392560508836 -0.0009501936615696944 -0.0004389888491007225 0.45130803439505485 -0.2506046651730012
95905000.0 0.6241533292403245 -0.776274506967876 -0.3262043679220617 -1.0993700439222311 -0.007018270053005667 0.0024520727811351423 0.45875067229059885 -0.26243005336646097
96904000.0 0.6159282111675783 -0.7846395307119741 -0.349998378141877 -1.1410193710634606 0.0013143082337957542 -0.0016610108606137063 0.4494173758453524 -0.2653305219330736
97903000.0 0.6054620313208218 -0.7907117490096276 -0.37636572776972393 -1.1764435107323963 -0.0004767084176754385 -3.731530393269834e-05 0.445688101530567 -0.2756144275524759
98902000.0 0.6001672077953727 -0.7960455236179058 -0.3994964742630604 -1.2132110563131149 0.002844152724611122 0.00013760818730050594 0.440723334848103 -0.2974903242684824
99901000.0 0.5893488372662803 -0.8013409564111169 -0.42811454045796293 -1.2523941375112178 0.0019045634750349668 -0.001812967897885324 0.4572896787416778 -0.304208433429011
100900000.0 0.5821267395971856 -0.8054078324221527 -0.464712675862645 -1.2845166826155199 -0.003803482461808064 -4.747468970380622e-05 0.45281928052897524 -0.2982093448556253
101899000.0 0.5719999447930246 -0.8125954448203465 -0.4957065845981937 -1.322822216332185 -0.0018752378978229656 -0.0003642733233020296 0.4432747573572126 -0.32249768563960923
102898000.0 0.5619938423326213 -0.8192791359031528 -0.5366057082765993 -1.364195318680199 0.00029029956595980126 -0.0006386121721800728 0.44842445861345953 -0.3422690278979764
103897000.0 0.5527446522694812 -0.827899714912676 -0.5796761686659757 -1.4020871764229694 0.0013761748905932345 -0.0014721789661249405 0.4613414482789823 -0.3335425574013774
104896000.0 0.5442555708089768 -0.8363561971794046 -0.62824407185724 -1.4371470170654896 -0.0012978940758337644 -0.0028502207592949044 0.42502368522143497 -0.3385940929827196
105895000.0 0.535669318807532 -0.8383044165058865 -0.676558306913168 -1.4887089427321873 0.00109827701528703 0.0014685984113746728 0.4309097233174235 -0.36071914896703433
106894000.0 0.5277244367353993 -0.8450479223247078 -0.7321037253933096 -1.5245517611174233 0.00031807651216138685 0.0018562551535517002 0.4271466596934352 -0.36899497864570013
107893000.0 0.51740676248281 -0.8516856469743147 -0.7900590717736636 -1.5654983167455456 0.0007797825195772118 -0.002064187732194631 0.43776522117731576 -0.3641534894348478
108892000.0 0.5072641863164806 -0.8561578115287384 -0.8562179442708089 -1.6045450777116455 0.00133748176861558 -0.0005539530002057397 0.42263974556722606 -0.37468860732996734
109891000.0 0.49390146280172603 -0.8628764113309132 -0.9220194398153244 -1.6419270364734955 0.0008383908826435903 -0.0027731741612592783 0.44590927196627306 -0.3659151506900312
110890000.0 0.4856099850251224 -0.8791314672458838 -1.0007076920323998 -1.6695338342205548 0.000865725769412663 -0.00032029765525031954 0.4237266235523941 -0.38976482926873696
111889000.0 0.47471746737596343 -0.8694364643653677 -1.0471462131767115 -1.717395655266914 -0.0034753205746593453 -0.0015470936410732989 0.42857837596333753 -0.3934398985596505
