! Created with skrf 1.9.0 (http://scikit-rf.org).
# Hz S RI R 50.0 
!freq ReS11 ImS11 ReS21 ImS21 ReS12 ImS12 ReS22 ImS22
1000000.0 0.9770098394306751 -0.0013456894050713221 0.0002127223090313363 -0.035096879482459195 -0.01790393601523186 0.014085413689788575 0.3415931644229612 0.3369552333315328
1999000.0 0.9964783660836781 -0.013752683927621199 0.009950144157091403 -0.026507299944443605 0.004796255338922211 0.0008946248758944676 0.24790029359220195 -0.05332752392395576
2998000.0 0.996947717531622 -0.021679621007968247 0.0077931824812145865 -0.014500939539608806 -0.003506688385472021 0.000751097623268527 0.18629713475133863 -0.1204492138805462
3997000.0 0.9951538274088916 -0.03294639956040962 0.005192871516690011 -0.007959073057438888 0.0030813514557076443 -0.0025547078564306294 0.0858838899216 -0.23414288325929208
4996000.0 0.99567010283264 -0.037732336748206675 0.009345340342638833 0.002203563380242799 -0.003771984594999123 -0.0010835702422498045 -0.06327881492559992 -0.18756329549080672
5995000.0 0.994579868664155 -0.0500538527688134 0.0014912803406244542 0.00017118228063386587 -0.002438566647020458 -0.0005290576752485512 -0.12448560632261871 -0.09090686969052443
6994000.0 0.992407657426841 -0.059791284529852516 0.00532979109878268 0.007287975498664695 -0.0076251996711990625 0.0021339787517324804 -0.14441624727240723 -0.011331298132382367
7993000.0 0.9929298023235951 -0.06882121301776462 0.005391821409323719 0.003212538917267521 -0.0018343084574818094 0.0024111472581762206 -0.16001642855196174 0.0538782467673636
8992000.0 0.9923389989175067 -0.07291873283979143 0.002627484788982784 0.0033171115320206066 -0.0007159921023093623 0.0014596873270915317 -0.15255857041025098 0.08253422048593236
9991000.0 0.9903097921267854 -0.08441034605570084 -0.0006739842584456503 0.002176294010805403 0.00211418902106866 0.00029284503838846566 -0.1375584849235207 0.10299259166826286
10990000.0 0.9902084320261161 -0.09308229449460656 -0.0017518775793714555 0.0010793659596705883 0.003579898965765351 -0.0028477185183778553 -0.1356595782123426 0.11990350230184812
11989000.0 0.9875933752927677 -0.10100837291451935 0.0026757373665960782 0.0005111219178488472 0.0023195072794274657 -0.0014382725694676228 -0.12338249641421485 0.138432037706581
12988000.0 0.9881118652860746 -0.10932348223906099 0.0014931106047880861 -0.004029976637112101 -0.00403887361426947 0.003664187140329745 -0.11157117580478934 0.17727784424889872
13987000.0 0.9851339494531998 -0.11600692632657902 0.002045274514566593 -0.005205960541270399 0.001844366940779269 0.002680633669090299 -0.09231636731832511 0.18780208504377174
14986000.0 0.985593920500635 -0.12544184421949486 -0.0015473840256701736 -0.0047144581540619025 -0.0025689762694470586 -0.002633246703979305 -0.0847537818051297 0.1895351889861576
15985000.0 0.9858675151312992 -0.1357867109434413 -0.0017267889460739808 -0.0031052963579208843 0.0008367249970800142 0.0016967643135053997 -0.06662773929455197 0.22966214068476157
16984000.0 0.9847555856751836 -0.14520643087179771 -0.0010288333945135803 -0.006985211971875561 -0.001044191294012133 -0.0012157701328825556 -0.057647514775796126 0.21756528063187003
17983000.0 0.9819300398076879 -0.15314586017347193 -0.003458446965688584 -0.008823870390260693 -0.0048270979628743495 -0.0035047964878597883 -0.051391531210669 0.22947470456192515
18982000.0 0.9795863759778283 -0.1637892483914155 -9.204475129651696e-05 -0.005199247380556417 -0.00032780243732350865 -0.0010160623461622652 -0.013804867484905068 0.2440195694307213
19981000.0 0.9801497062500151 -0.16664804016552057 -0.001138587169203261 -0.0067023241398358 -0.0037199042346252017 -0.0007817154162107155 -0.01548785570294091 0.24140770912084578
20980000.0 0.9771120826835024 -0.17787616246678004 -0.006269485862854811 -0.004050967217179579 -0.0007237465199513775 -0.003635969036690806 -0.0036292157550091297 0.2729408250541014
21979000.0 0.9752743476431007 -0.18810573012623652 -0.007277264767149843 -0.005676506790148281 -0.002838433564849499 -0.0018544857654174023 0.023766836499026875 0.24711630894513725
22978000.0 0.9758987699205116 -0.19418444301136029 -0.007875625826172284 0.0016334478412634258 0.0035421351752018067 0.00014486738538134364 0.03668681459157587 0.26116304992156397
23977000.0 0.9768957821984036 -0.20093227640916514 -0.004863350667889045 -0.003347922014809064 0.0006306068779659516 -0.00012543071749390353 0.050309035990401804 0.25846665815024666
24976000.0 0.9716191249502113 -0.2125545970050649 -0.005739988353315647 -0.003322009053193673 0.0013333125396933303 -0.0003651122849720635 0.06655928763051627 0.2615084386855005
25975000.0 0.9675044549817354 -0.21813306174785857 -0.006526614565758124 -0.003712700833966278 -0.027363292122831045 0.001964183399332268 0.08489838679546984 0.2569817170331127
26974000.0 0.9673314585418521 -0.22890104180691917 -0.004680204433983058 0.0027642829856267125 0.0019124073466782027 0.002260970710308127 0.10207119255368402 0.2576831252831057
27973000.0 0.9669129228647327 -0.23646731547336378 -0.0017874742735083824 -0.005652126561918592 0.002251970269733301 -0.000988416204459095 0.12043263980569492 0.2639226161632075
28972000.0 0.9633596604645769 -0.24785530686990567 -0.0012696615171035352 0.0013966765604771743 -0.0018776807959490914 0.0007249234425565133 0.1287648349998529 0.2538271600429328
29971000.0 0.9617155754114586 -0.25610026888897874 0.00024325236569449832 -0.00019535578126339147 0.0011210891489795139 -0.0007634810487395149 0.14294659697268078 0.2737920096988405
30970000.0 0.9596016912343724 -0.25972738555287583 0.0006788666918875352 -0.00029944839831041754 -0.004148976839691316 0.001175315981940626 0.18446359367642093 0.24900978710078905
31969000.0 0.9577300429460035 -0.26942067006012405 0.005184601978513023 -0.002540164716332162 0.0009609723658537191 0.0003372132009330385 0.15483703224360698 0.24942408608430783
32968000.0 0.9552424353375929 -0.28128271527291654 0.003473797263346613 -0.009104502602628305 -0.001177630190779598 0.0012772361063501168 0.1713372549238183 0.24932630418022583
33967000.0 0.9530381919961761 -0.2907747328803857 0.011729209103898484 -0.008919681494707359 -0.003482778864959877 -0.0019746819910782575 0.18464618130043653 0.23632966360820284
34966000.0 0.9490377618306265 -0.29903819885344946 0.010667410509131892 -0.014310688476787637 -0.0006761319238942804 0.0014785177287459286 0.19797439724563268 0.24893116942686874
35965000.0 0.9472656109532829 -0.3059718666075425 0.017991609248317605 -0.013546456745062616 -1.1431389785634197e-05 -6.420651721974101e-05 0.21447187510451007 0.2509072689145443
36964000.0 0.9450901445835496 -0.31472943808459597 0.017219733360285122 -0.01243960691584279 0.0004118919214811712 -0.002733993446008704 0.22401446156030713 0.2522368307282774
37963000.0 0.9408477639220563 -0.323017139295838 0.019325182375363882 -0.01975247668417622 0.00200340504295227 0.0018045206705309346 0.23313926112505667 0.24569201464854865
38962000.0 0.9379544740739413 -0.33392502198948226 0.022325690035527167 -0.02425118231195261 0.0037496935893506756 0.002472816758937558 0.24589743952492968 0.22819462680809025
39961000.0 0.9365196676022712 -0.34074249186758526 0.025548852005200746 -0.028852849590748395 0.0006777729964856944 0.0007626389987174815 0.2686879655251645 0.2288062948062138
40960000.0 0.9326605078636163 -0.3492364244914628 0.024664662047247213 -0.024587346279439815 0.003715469024134289 0.0003307873234082484 0.2776142414088737 0.22128784507056776
41959000.0 0.930020108949589 -0.3576756659466711 0.032517017243366336 -0.03202836345763886 -4.794530327589615e-05 0.0007376767426271431 0.2751942304995925 0.22173677325544616
42958000.0 0.9259073866967901 -0.36678812844109454 0.033399150521779206 -0.04093210159121488 0.004682058499439582 0.003140419535925984 0.28306693020737905 0.20492550416424687
43957000.0 0.9231054915836171 -0.37423870547174665 0.035128374422153746 -0.04420224289622614 -0.0015521687778078978 -0.0023443192568415967 0.2912012907731057 0.2051425112381077
44956000.0 0.9196261830102244 -0.38108260695424695 0.03754876446159732 -0.05277633845813373 -0.0028371016954077013 -0.001441941555131395 0.3072592543802625 0.18889298913057917
45955000.0 0.9165042285956431 -0.39174520440753996 0.03845251450348336 -0.05678321634223797 -0.002443374455368942 -3.2249783505708876e-05 0.29948664801185704 0.19427943331866612
46954000.0 0.9119514820395556 -0.40002209597828237 0.04074981559238559 -0.06633933485223205 -0.0014209754677661003 0.002239252418555557 0.32590194864855004 0.18148036388843244
47953000.0 0.9097214220295969 -0.4080227503331744 0.03735004076561162 -0.07243523769697417 -0.0014960025818415565 0.0013434229368011388 0.33983886099018495 0.16376039981904583
48952000.0 0.9033203954030364 -0.4193282634093507 0.04155442967082264 -0.07687226522890199 0.0036355553661778553 -0.0015897333660571508 0.33743754872848847 0.17029222208929268
49951000.0 0.9019478477278764 -0.4228756120149889 0.04004231161518712 -0.08735504462394975 0.0012123395600039505 0.0007230392996465876 0.3583816041364969 0.1560426510975485
50950000.0 0.8969395226849384 -0.43394953138552295 0.042676351217830304 -0.09550340694086465 -0.00048300746722144565 0.0016777975015073554 0.3585819757066236 0.14187279879643738
51949000.0 0.8931145877894754 -0.44170087368108685 0.04157261283299341 -0.10429154983376186 -0.0005510148703909339 0.0004476224770686369 0.36054803428951426 0.14363792547571566
52948000.0 0.8899955086135614 -0.44795809615709403 0.0485811791495849 -0.11094592428474304 0.0029758792045514923 -0.0016074976011235522 0.3796810212011819 0.14583716099001529
53947000.0 0.8831426268829171 -0.4577870647182384 0.047865522326163534 -0.1202200757341865 -0.0042953945035180225 -0.002199630363571834 0.3790881088312345 0.13256284731687878
54946000.0 0.8791951595882281 -0.4654576965843729 0.047255874251470036 -0.1300617897106189 -0.0009100036519302702 -0.001139344090963995 0.3838676901068343 0.11920202498717643
55945000.0 0.875296355165383 -0.4743218674320169 0.04863004044140482 -0.14279444776750716 -0.0025785852813873483 -1.4546499012762418e-05 0.3850788371850013 0.10271708688551888
56944000.0 0.8727414823079852 -0.4832511365520632 0.05429927993673897 -0.14898334185794618 0.0005995377800710281 0.0008906678975019273 0.40756784685095904 0.10780561525872953
57943000.0 0.8655038266195808 -0.49421352058382884 0.05281612623448133 -0.1634627215689967 -0.003281578876126129 -0.0018977717961764454 0.4140175986613883 0.098469044943564
58942000.0 0.8595421433659334 -0.49746934151050665 0.0573665413786391 -0.17492924374870228 -0.0053021129852209225 0.0011216995967065681 0.4223302523196706 0.08511270980061311
59941000.0 0.8595261333285406 -0.5056488403480106 0.058065094376561883 -0.18434766150741094 -0.002553127824450475 0.0011395197691206524 0.4171213275081259 0.08943972000749305
60940000.0 0.8492750637961772 -0.5152814008190079 0.05708085237520881 -0.1877899706612673 -0.0015286015411057746 -0.0006703509748848367 0.42245532832555827 0.07981990878436773
61939000.0 0.8463339553190179 -0.5208539624713118 0.057368094934070385 -0.19779072510508547 0.00043690188622925297 0.00035587264961123505 0.4294686430684992 0.07292498111691255
62938000.0 0.8403572689235965 -0.5312338395332833 0.060702694140260076 -0.2150210972486282 -0.002644812465547747 -0.0016298879941220646 0.4511054210430362 0.046222411370190106
63937000.0 0.835889072475838 -0.5393693393922971 0.06431293146729804 -0.23623750083408146 0.0029579102495992556 -0.004614612950239237 0.44726000440510344 0.041332002537462956
64936000.0 0.8282882715654789 -0.5465267186415239 0.06165476259206305 -0.249930290991561 -0.0009006964745876708 -0.0023745496971563558 0.4380802593849515 0.042085211593309746
65935000.0 0.8259043922985602 -0.5552603574891206 0.058199448558697485 -0.26612002202794427 0.0014933598422452762 0.002795770631949117 0.4491041799854721 0.021909098579738336
66934000.0 0.8211858498974586 -0.5612926125695835 0.0633532276416164 -0.2788616545916622 0.0004738876704813802 9.035867475777205e-05 0.4431674918268417 0.011184186011785136
67933000.0 0.817293030845092 -0.5698950518622209 0.06123278568367 -0.29433149979794504 0.0025476644943966064 -0.0029595917742977467 0.44331416741289026 0.009617504521751303
68932000.0 0.8007081038538707 -0.5651802746882971 0.059790707445895146 -0.30481332333964567 0.0018007053944084075 -0.004741989840240958 0.4572729729535088 -0.003966355071041341
69931000.0 0.801914259083642 -0.5857082704105631 0.0548686418149759 -0.32805488030264063 0.0005186943144051454 0.00034956249179335055 0.4544866473205728 -0.005677039748434062
70930000.0 0.7974704940980313 -0.5906740566192508 0.05509093136935373 -0.33992864191195654 0.00030628534022487616 0.000971948442799479 0.4598596593115839 -0.03245777403156199
71929000.0 0.7936406039612741 -0.6006334742494659 0.04792556666048361 -0.3595002474272883 -0.0011939746415263427 0.005210833012320779 0.45520325298153674 -0.04235520846397863
72928000.0 0.7859269021324361 -0.6095458568684657 0.04355953303940624 -0.37835943135086364 -0.00010215033921745735 0.0017003840379787645 0.47169660220498216 -0.044866480332591684
73927000.0 0.7791411844497024 -0.6163957245100867 0.03317158481997863 -0.400684077964651 0.0007004922567308566 -0.004055122002872923 0.46887090709046997 -0.04762177702448636
74926000.0 0.7759845882263509 -0.6265109393810938 0.025144438456949143 -0.4198714663373718 9.64000495806997e-05 3.944284845391673e-05 0.4688337322487945 -0.05968490928288035
75925000.0 0.7674408006814836 -0.6319260202257567 0.020461175680511173 -0.4398120309703467 -0.0011510236075748827 0.0015608261893642428 0.468566296374381 -0.06944560384931318
76924000.0 0.7618762617646533 -0.6394087527329583 0.008984146749466949 -0.46549452735574026 -0.0009303294758923504 0.0016982623436698067 0.4688314220548054 -0.08377549339794395
77923000.0 0.7562881826925663 -0.6439335981361555 -0.0037078610445959153 -0.4857034187701729 0.0001203742650322365 -0.001984054959184041 0.4729037899149545 -0.08736100906624503
78922000.0 0.7487686254702073 -0.6550739244516274 -0.018581285585542683 -0.5161224295144309 -0.0007270906021767155 0.0023209253103024024 0.46826335306971006 -0.09880187000716158
79921000.0 0.7405123605896178 -0.658919660256083 -0.03651200365076861 -0.5425338272053607 0.0006226445268293765 0.003485402927279057 0.46898217816797283 -0.11164405869917025
80920000.0 0.7346924091153516 -0.6689281676512664 -0.049373914150033164 -0.5700682319569343 -7.0992539964278375e-06 8.508329860235234e-05 0.47542722140652127 -0.12365440303796132
81919000.0 0.7316527243343931 -0.6743795650107295 -0.06390408565697761 -0.6049982001604184 -0.000723368926054111 -0.0014965213215638866 0.48263994060208654 -0.12368519834488843
82918000.0 0.7215628830004849 -0.6817124231756588 -0.07682156335092453 -0.631731772474141 0.00246583659767744 -0.001455575382745444 0.47822910141164265 -0.1362276361059415
83917000.0 0.7124731739842243 -0.6905211548894395 -0.09899714027017019 -0.6640712146376534 0.0009674075070777273 -0.0004131325799482012 0.4855295609966855 -0.15084136225971256
84916000.0 0.7076317953036576 -0.6987619090364918 -0.11008482749112912 -0.6998210591581597 -0.0017480788046839244 -0.0015785313078665315 0.47076516851205563 -0.1554039387139715
85915000.0 0.7012297353053616 -0.7039766835176948 -0.1401392358583799 -0.7283936872097598 0.002371104852892469 -0.0025644073521556166 0.45986366208603197 -0.16884124618357874
86914000.0 0.6940480974931733 -0.7143239898982161 -0.15008850730688528 -0.766547395287722 -0.00016315118044594814 0.0025049222378200993 0.47738406250762894 -0.163030354316956
87913000.0 0.6870376272072239 -0.7202004984908491 -0.16782734977367458 -0.7901051487396755 -0.001025209661988259 0.0014584379135194339 0.4603407335973366 -0.1854043491158337
88912000.0 0.6791327737659363 -0.7255166892649578 -0.18216301033624127 -0.830122085304468 0.0025125585704732652 -0.0021273777627730675 0.4659867305563982 -0.2062560322568984
89911000.0 0.6697942669042806 -0.7347581391670034 -0.1956821994524207 -0.8683265167766461 -0.0045170172559815215 0.0018345822724710862 0.4780675979851302 -0.21367731649552307
90910000.0 0.666316508459565 -0.7393956029509875 -0.21647050947375784 -0.9044597085029116 0.0008086452141648895 -0.00400819230541116 0.4745597182909139 -0.2144318610693112
91909000.0 0.6553540556139197 -0.7430769745150144 -0.23821917323894334 -0.9370421429324053 -0.0015134300167531872 -0.00262085145149252 0.4850039571375054 -0.21520167994455996
92908000.0 0.6461933309626794 -0.754018358237621 -0.25765743501624716 -0.9679845279914593 0.00096368560339966 -0.0011125151856492715 0.4640179424331472 -0.23257771198700125
93907000.0 0.6399011533150035 -0.7600273619358241 -0.2750595560210533 -1.0053504736098258 -0.003453138754896197 -0.007721038492633873 0.47310763404661715 -0.2513381522706255
94906000.0 0.628571009186094 -0.7671767520244441 -0.2967064052016909 -1.0336884582872587 -0.0004063751067562109 0.0025320655720059617 0.47242582019410956 -0.24860744011176122
95905000.0 0.6238053426759645 -0.7731812545774259 -0.32102337207238013 -1.0751364782125468 0.0036282119337982576 -0.0031960199398069944 0.45954171267246435 -0.2622208355033181
96904000.0 0.6143951393817143 -0.7814363685400904 -0.3382604557421145 -1.1161671867180727 0.003108192331132722 -0.00020963861984790862 0.462161422130003 -0.26716028866538744
97903000.0 0.6057484217941804 -0.7884322827350867 -0.36900290274324776 -1.1469248584659142 -0.002158823515716775 0.00034951282416710025 0.4562172529638957 -0.28919544868838587
98902000.0 0.5994414142749785 -0.7935093988643195 -0.3890029440253936 -1.1872795126037408 0.001407260284905307 0.0032181005613604176 0.4672282799053889 -0.28800894359316614
99901000.0 0.588018325278661 -0.7986672601211838 -0.42063082234833 -1.2205118902212986 0.000322043218759393 0.0005212168791482963 0.4622617734141114 -0.30906601673435513
100900000.0 0.5789924048457056 -0.8030403293776637 -0.4580206829449652 -1.2524417131410261 0.00042428858587350156 -0.001630113280740472 0.4687694853624429 -0.3195003767181355
101899000.0 0.5719749147603125 -0.8103310227091972 -0.4816690263050821 -1.2903880453674832 -0.0015659120057145337 -0.0015009682815966122 0.45824122272069967 -0.32251895824034604
102898000.0 0.5612575792960137 -0.8175044143078243 -0.5231116346032937 -1.331754692226639 -0.0001730298957149366 -0.0034315938524769915 0.4579214423452242 -0.3295680317953632
103897000.0 0.5541251804751726 -0.8252901935248943 -0.5668185890415913 -1.3669835559515338 -0.0037475212975430438 0.0014851059126410144 0.45966237254173614 -0.3310750921698916
104896000.0 0.5466083027728205 -0.834766010616039 -0.6086500250975121 -1.4066602862375115 0.0001941803422081754 0.004568307136990235 0.4404260619745253 -0.3338783219581823
105895000.0 0.5326506890604749 -0.8358147855191372 -0.6618881035012317 -1.4515421728852875 0.0008910875574632042 0.0006360278046369205 0.4491374759568385 -0.3529940253617903
106894000.0 0.524305071914615 -0.8423422517567372 -0.7190588500460541 -1.4896787164672274 -0.0013023793159566538 -0.0018547093991157426 0.43357631299499044 -0.3714109785260394
107893000.0 0.5167192611522444 -0.8503114144901728 -0.7703614835569356 -1.5321576562325294 -8.332252748103659e-05 -0.0013072433111361373 0.45302757479796746 -0.3742262119048744
108892000.0 0.507577729442391 -0.8510116000379236 -0.8315562765272352 -1.570847382774075 -4.1548049336052885e-05 -0.00040780803266632565 0.4313541206851977 -0.3619232247934635
109891000.0 0.4951845942238869 -0.8605585375738971 -0.8928377767656946 -1.6126846452980481 0.0010766699518630228 0.0007955765008918227 0.4506049106025543 -0.36605015734713736
110890000.0 0.4859266135869978 -0.8760049736262189 -0.9729386634785313 -1.6316635404116282 -5.1965976706776615e-05 0.0014571859460459774 0.4340927000887927 -0.38067993305350556
111889000.0 0.4774110746689335 -0.8660864957459238 -1.0174701717297483 -1.6832855649117404 -0.0013734706325015812 0.0004784872325566343 0.43282745734814343 -0.3905842003288677
