! Created with skrf 1.9.0 (http://scikit-rf.org).
# Hz S RI R 50.0 
!freq ReS11 ImS11 ReS21 ImS21 ReS12 ImS12 ReS22 ImS22
1000000.0 0.9814619010784459 -0.0029849048368875654 -0.012837366720393826 -0.05720969944035823 -0.008104705873564969 -0.0056771473558030455 0.3817400858999605 0.2999657671486711
1999000.0 0.99330504833779 -0.0132661827629816 0.0015781940686888166 -0.03144549526974659 -0.004431792469861751 -0.005822857048372103 0.24936146208904172 -0.06903930181987218
2998000.0 0.9980832595451187 -0.01995592394131303 0.014840204881224344 -0.013807285663854614 -0.006922593444792664 0.0008506980603584583 0.18268209191020773 -0.13574853487721483
3997000.0 0.9989244820974649 -0.029256501761516066 0.01858548812285219 -0.006252158734814734 -0.0030913279200040352 -0.003331003852174825 0.09464930237372689 -0.2546585605680218
4996000.0 0.9989985560347531 -0.036981177342511676 0.010539873469243607 -0.006503112174584928 -0.0005029779091906241 -0.0009734185708703263 -0.03932380815069631 -0.2224343538446506
5995000.0 0.998524471221807 -0.047047544593217264 0.009939209151489981 -0.0012362731035810116 -0.0019807031407804905 -0.00011163499124961187 -0.14224063944973545 -0.11439853578140921
6994000.0 0.9963211461594663 -0.06012060788654119 0.00590650429078551 0.0028722065658187516 0.0018311491992369859 0.0011310632660615164 -0.1450322641906173 -0.018183380082728906
7993000.0 0.9993669114977338 -0.06805732016822744 0.007055939091841583 0.003979705622269288 0.004066616153804752 0.0008843670437834303 -0.16852731511826 0.03292774768854838
8992000.0 0.9959961978757196 -0.07200615754475855 0.0018058201016641618 0.009473944577208885 -0.003632064704486099 0.0002888849612325062 -0.14965034889055426 0.07803263124600752
9991000.0 0.9956533691106224 -0.08210428042231732 0.0036178367670640786 0.005639498987479236 0.0017797324022351224 -0.003473511807916363 -0.1522867441717753 0.07789653199957149
10990000.0 0.9943311182654933 -0.09345192968523205 0.0025561317673980315 0.0022114420069716083 0.002113998010752292 0.00020719668273250078 -0.1548719441105958 0.11582236623987827
11989000.0 0.9931560660464721 -0.09865126105172492 0.0030458164110269796 -0.0008475504821423489 0.000720830373054513 -0.002480329263526738 -0.12976600665715288 0.15056294288189162
12988000.0 0.9930135918966932 -0.10791157988569901 0.0009929582012744628 -0.004182199957321719 0.001624880186298545 -0.003008888732734131 -0.11907202446643875 0.17087605717145926
13987000.0 0.9933045963941118 -0.11549111440855808 0.002907798697048859 -0.0014890725583197612 -0.0014587513167852596 0.0039185481980929205 -0.10456346144128181 0.18169780015569142
14986000.0 0.9924124404115953 -0.12372056684845084 -0.00021394684371116025 -0.002847317538777513 0.002843431417695461 0.0007449431725221593 -0.0854360026200184 0.2042279788838988
15985000.0 0.9932550160728194 -0.13149913736668828 0.0007677349264340514 -0.0025120018335250674 0.005275960261965185 0.0024396730306875647 -0.06918740898126646 0.21196201351786825
16984000.0 0.9881712295019873 -0.144338887928828 -0.009127263521670533 -0.0011594584577648416 0.001663731962208144 -0.0008739289972778331 -0.0653445710707667 0.2130073220536504
17983000.0 0.9894573372775505 -0.14991723064951445 -0.003931228312431371 -0.0054372989831659975 0.0031293863253086056 0.0069837579641244376 -0.04618234534153707 0.23170089620103979
18982000.0 0.9874305891231773 -0.1581115945680623 -0.00451734290908447 -0.009257733874860752 0.0005538099749128559 -0.001771578335299634 -0.013541972661366272 0.23692863476578702
19981000.0 0.9860934033178828 -0.1651228458238145 -0.004400439766916084 -0.002200625230575055 0.001009310871257486 0.000618184059692139 -0.021582132753599867 0.24735218763345512
20980000.0 0.9835828596947342 -0.17488613330601355 -0.009911396503030304 -0.0034498701459937096 0.0025502432853382294 6.315017352498306e-05 0.0026262576478256507 0.24767883088773984
21979000.0 0.9815884177404889 -0.1830881898695913 -0.0047375396320427825 -0.005856485151908433 -0.0025804894164090245 -0.0012880503904354882 0.01321162931492245 0.24539663187477753
22978000.0 0.980899070093309 -0.19068937330402447 -0.005931498595835839 -0.0030132970080125623 -0.0023516510693182254 0.0021506999966230634 0.022229327365889846 0.25016250458601924
23977000.0 0.9815286361026635 -0.19696990489779156 -0.0006622293210986493 -0.00710786225174076 -0.0011924297283556966 -0.00010987342705549716 0.04733669408225787 0.25376435056942637
24976000.0 0.9764819753262202 -0.21140643100909445 -0.008918172207459815 -0.002580264126575285 0.0040873267228908544 0.00484790851660201 0.06254865921221713 0.2517104000195541
25975000.0 0.9702004914758676 -0.21556206192181618 -0.0061219668030776135 0.0012545647503878258 -0.027313594808836487 -0.0128113277855459 0.06571505750542188 0.262947036604996
26974000.0 0.9722774636731826 -0.22435876714147615 -0.0027349400259641557 -0.00023496803400288826 -0.0028944933479349453 0.004429212782116067 0.0837684184091666 0.2635278570914976
27973000.0 0.9714996046869365 -0.23383572115082402 -0.004669767213942935 -0.0013948998282255372 0.001432349715224124 -0.0006197094959239946 0.10201051045633312 0.25607491326062837
28972000.0 0.9693994163137754 -0.24178475932016844 -0.0029263251379942215 -0.0004234665578579977 -0.001024126552698184 0.0003656155146045276 0.11035371840735994 0.24980019954889768
29971000.0 0.9673073768218038 -0.25086906273815607 -0.0016476879327647841 0.0002820049028834638 0.001579517245468526 -0.0011062543044741205 0.15120779842403506 0.26490839769957536
30970000.0 0.9641739183996223 -0.2563117448302331 0.0026077225552617227 -0.0010822600679962614 -0.0011780408476541953 0.000838881281588274 0.16754792998647466 0.2522400427177402
31969000.0 0.9611812720782551 -0.26593592663276494 0.006238153291462606 -0.0044129547701981095 -0.00014244577253466717 -0.001160431383868948 0.14898310268444573 0.24832974683777997
32968000.0 0.962402541406614 -0.27396982369430856 0.006961534332376734 -0.005836807867562545 0.0006785317940364966 -0.0022360556230294477 0.16350372655128084 0.24025908897863568
33967000.0 0.9587415026617652 -0.2835342339451454 0.010583923425619401 -0.009286179443319244 0.0001429120286352397 -0.0006560143083167932 0.18979215946129355 0.24692751023532983
34966000.0 0.9559207174879999 -0.29048437158344226 0.014110760335040504 -0.012552074012570495 -0.00025581282130255977 -0.0016340238776707716 0.19392783431245336 0.25359038950023643
35965000.0 0.9530241107343864 -0.3000064282643491 0.018639263413908487 -0.01486247373881389 0.00037230378312165166 -0.0008600256148826651 0.20618081067175403 0.24971429727738523
36964000.0 0.9511410436204848 -0.30833162650226925 0.02053698897321251 -0.01393028642075057 9.112237306467851e-05 0.0018354218018199692 0.2007852930148446 0.25399886960564017
37963000.0 0.945879395830042 -0.31982269688093545 0.02365049161083573 -0.022530472755044197 0.0001708120966697047 -0.002040682696140509 0.22983712681766394 0.23274452739688864
38962000.0 0.9448987406012554 -0.32705810542495567 0.024577602652964502 -0.027412341148340322 -0.0007251520694852988 0.0003355890286215992 0.23843641347449832 0.22883438511381565
39961000.0 0.9422220715475719 -0.33209233838437496 0.02420443573421827 -0.02739380620118529 -0.0011838969664860293 -0.0016477650582668569 0.25095485836425 0.22404838916711542
40960000.0 0.9399318103808852 -0.34242842592739237 0.024551322262239453 -0.022988761498298805 -0.0007736384129048311 -0.002773883158120236 0.26796122929115923 0.22246376451406816
41959000.0 0.936121880458783 -0.35106355423528685 0.028714428643919886 -0.029209766526852508 0.0007669369393761118 -0.00012320824351642383 0.2662211387544539 0.21773508315676143
42958000.0 0.9303353780806617 -0.36034376950561 0.033952745121888284 -0.03960441988033774 0.0032163296496056605 -0.00036456823346464433 0.28029833546504535 0.20156293036301315
43957000.0 0.9304942506795677 -0.36386092514622914 0.03356023163424345 -0.04615471556824855 -0.00294312339293829 -0.0011791184906273862 0.28260727752413334 0.2020995752875238
44956000.0 0.9267622936316265 -0.3717986400736922 0.03332815821915157 -0.05291820508954551 0.0020623214811602768 0.00017932607572208558 0.3017295115894709 0.191625470973927
45955000.0 0.9215796313665344 -0.3829147740977391 0.03628147899734462 -0.05788472652967483 -0.0015191115104990459 0.0004803444456328263 0.3101878425356421 0.18714961052346252
46954000.0 0.9182088078446906 -0.3919856343495665 0.03744415172838616 -0.06514732473357288 -0.003394123569989979 0.0011192366733798903 0.3256118304986505 0.1692448179984194
47953000.0 0.9167489124323207 -0.3993306261372362 0.03982510235732838 -0.0711706556092349 0.0007811364559853412 0.0012554116293676993 0.33007181326191865 0.16958214767772312
48952000.0 0.9108601347339598 -0.4091188165721942 0.039467453654262276 -0.0796428572991242 0.0028331307200246104 0.0013314447926041965 0.33133532114093794 0.15884454244459123
49951000.0 0.9086784005054217 -0.41530798448249023 0.03834171583490337 -0.08738966813517214 -0.00020680147325377493 -0.0017637124309504279 0.3532602408572766 0.14435938428262618
50950000.0 0.9037655215001916 -0.42291155902562727 0.043313943726006054 -0.09237874856995186 0.0014592241634055665 -0.00012413257637431335 0.3571967315465126 0.13645371026648037
51949000.0 0.9016903183055012 -0.432337554838952 0.042587323464618146 -0.10005608402196234 0.0015218165587651124 -0.0021326772888715048 0.36453477130543205 0.13588691296183147
52948000.0 0.8990171156954504 -0.43870700349052233 0.04538631371504493 -0.11382829861734527 0.0004532254753066859 0.00017868003552167953 0.3763860544087521 0.13538387218428907
53947000.0 0.8924881763103922 -0.4474055511458818 0.045428641597510214 -0.1211531458750245 -0.0009697327699984078 -0.0006507776769713411 0.369148910264521 0.12957492005213286
54946000.0 0.8892669724636988 -0.4545276397989973 0.0477648949347307 -0.1301014955162474 0.0037939849916298536 -0.001405394412464851 0.38551837621101137 0.10861974740292436
55945000.0 0.88513583634429 -0.4661306092632132 0.04823443361481827 -0.14328204232655148 0.0006531605175156321 0.001345015270529934 0.389177017769833 0.09262307476017555
56944000.0 0.8814880522583546 -0.4716282720276344 0.04900636478093579 -0.15166500647363534 0.0010966026182312482 0.0005109307028133767 0.3945766446340796 0.09990852365194498
57943000.0 0.8770322389134094 -0.48227614372632216 0.04903080035575005 -0.1630653821211436 -0.0009834183327441925 -0.0023766202912587093 0.40954329310243787 0.09374018106751589
58942000.0 0.8697831850911699 -0.48864175461135084 0.05219287306921327 -0.17163306890628913 -0.0012594663356498652 0.0018516287642680164 0.42350490106578786 0.08505734782049826
59941000.0 0.8696262282501072 -0.4941462779759578 0.0576069446044365 -0.18056445333836166 -0.0014063165303539273 -0.00228174123759757 0.4229863250716315 0.07986916285022731
60940000.0 0.8598919573285078 -0.5040541784161181 0.05461905243808351 -0.18578653531611458 0.0013194193974062308 -0.0014599355924999498 0.4076371413143759 0.07864344153541061
61939000.0 0.8580860544984316 -0.510167198862603 0.056606224421616995 -0.19571593811138513 0.001849600278913414 -0.0005666839178443493 0.42626195584901094 0.0556302780321639
62938000.0 0.8532905244123579 -0.5203424085475672 0.05828264459934023 -0.2145759001668104 -0.003313163844531118 0.0035065738337430995 0.43944390323663096 0.04946309015977994
63937000.0 0.8487203510964992 -0.5273521365033379 0.058389448980195865 -0.23243265941908658 0.0029638711065447347 0.0010655669440881182 0.435086843529297 0.02223657971794264
64936000.0 0.8405929667873426 -0.5355212860201295 0.05920253244534462 -0.2471879124619526 -0.0005241586796649402 0.000989344490850334 0.43834062421670833 0.037919477192024736
65935000.0 0.8385777898684256 -0.5448268794519839 0.058568558561180546 -0.26252028708857067 -0.000429182598385511 0.0025953273426184724 0.4381096713522605 0.009401684554074512
66934000.0 0.8353406057670725 -0.5492709946071249 0.05898200359518669 -0.2748247155350068 -0.0031359655718664584 0.0021656813334533496 0.4360722833372592 0.005467947515213207
67933000.0 0.8304946084918732 -0.5588822532035977 0.059605641570669804 -0.2903350373532427 -0.0038030585834059214 -0.0019176451953587623 0.446517806371094 -0.0033392578870484035
68932000.0 0.8166276664744069 -0.5650740116892342 0.05113742277379637 -0.30339585249092316 0.0015809574074662248 0.0003476341286376709 0.4638477317031064 -0.021281503018420554
69931000.0 0.8183434139055267 -0.5735871593188325 0.05797960917519952 -0.3212711265819746 -0.001037073963525791 0.0024801629596405365 0.45774484085552514 -0.03591564033453862
70930000.0 0.8125221277569791 -0.5809340162490672 0.05270913240614813 -0.33789269174137393 -0.000700149620214931 0.004023959618663423 0.4558787260368372 -0.03136874442865547
71929000.0 0.8096265185784609 -0.5884069411423704 0.05204618542007617 -0.35340584852612306 0.0019567928276061014 -0.0025355099807000004 0.4475551970589642 -0.04733495259184006
72928000.0 0.8015800344448214 -0.5999378798687734 0.042758111479094515 -0.36954494961033 0.00014560897427461116 0.003548912854606985 0.46920039222293064 -0.059010842741804986
73927000.0 0.7964650808986137 -0.604171081147687 0.03438922303603374 -0.3899627414029934 0.0009189758173108188 0.002193824160067965 0.46689078473617684 -0.06209678150827933
74926000.0 0.7924210597034489 -0.6142725155388796 0.03512566581707692 -0.40967708171107087 -0.004023136587910034 -0.0019458937677631876 0.4549790725735608 -0.06240721431102732
75925000.0 0.7850835051585957 -0.6192266417693068 0.023737102130297772 -0.42824971622016506 -0.006130605729208622 0.0004552120206227165 0.47040039763988756 -0.08142260927553034
76924000.0 0.7795424754763098 -0.626126731495523 0.010684695237941993 -0.4535020297813807 0.000785672764564871 0.0007643253584325153 0.46634504959790685 -0.08759230418550386
77923000.0 0.7718846181915577 -0.6363894220689663 0.001102872654779483 -0.4753941391931093 0.0010411675781923473 0.00014958343446077986 0.46357280857163563 -0.09111229454912033
78922000.0 0.7670850180012799 -0.6429733123170636 -0.015887149105021 -0.5044242686961788 -0.00016907888316793304 -0.00218211626313716 0.46637828432920103 -0.09992282367983295
79921000.0 0.757864934643798 -0.6472892823161464 -0.030276419857787753 -0.5300934525879422 -0.004271534429132526 0.0022528317698477756 0.4634757075888436 -0.11874658051506463
80920000.0 0.7544509065943313 -0.6584309732773752 -0.046083332278487425 -0.5560428781358506 0.002522709519209746 -0.0007997450753037072 0.4740504958441672 -0.13966682423503157
81919000.0 0.7493788067694327 -0.6628786642861734 -0.06394790615155961 -0.583303632496688 -0.002899842846489804 0.0017572049736333869 0.4649464565652035 -0.1299808869313535
82918000.0 0.7370868229676429 -0.6737218898391728 -0.07457362681573414 -0.6162440026876915 -0.0005531499704971971 0.00036290654745946646 0.4749713883940824 -0.148300223469143
83917000.0 0.7315536425851213 -0.680312874333891 -0.09665525132819024 -0.6487258458183119 0.0003327308167453271 -0.002951748873067793 0.4683806958826986 -0.16329830264408435
84916000.0 0.726944826956805 -0.6861838524774105 -0.11399722010722807 -0.6827371546780093 -0.0017502181353833718 -0.0012526215474656154 0.4621743010402754 -0.16853407668460677
85915000.0 0.7209877653206248 -0.6918289667562149 -0.13182974990998736 -0.7128081323663965 -0.0021653296669959955 -0.0001117176062574842 0.4667921257026258 -0.1775129166512228
86914000.0 0.7112545399438192 -0.7034974857853482 -0.1470364002161768 -0.7506533067991297 -0.0002985284665558691 -0.00470189298422293 0.46092984467316 -0.18599461689677105
87913000.0 0.7068943859809209 -0.7087673066815771 -0.1678518659677709 -0.7795242937658438 -0.00047944602026799173 -0.0011616636034042663 0.4580405376111818 -0.19671411012649695
88912000.0 0.6991866661882611 -0.7159015876407492 -0.18271478325776538 -0.8157878202474389 -0.0015059154985574083 -0.0019001566423073105 0.46174595028725784 -0.20866270611519736
89911000.0 0.6940708019788023 -0.7239717250849663 -0.19789550371912307 -0.852707151442249 0.0008676631906369369 -0.003076851158108681 0.4640982050715849 -0.22239023867816932
90910000.0 0.6843229928553232 -0.7299294233379917 -0.2219947071808454 -0.8861100314067608 0.0028855551675448636 1.1380892721293864e-05 0.4513540818274365 -0.22998021329608287
91909000.0 0.6774194550390198 -0.7341400522534086 -0.23557264384532647 -0.919258186043357 0.0015044687991362874 -0.0012035514920540032 0.4671347895045697 -0.23645427025858792
92908000.0 0.6691529179281472 -0.74400810343789 -0.2569224761626453 -0.9552583398675224 0.0009121538559508288 -0.00010419826829671625 0.44897954150564895 -0.24140645632289387
93907000.0 0.6634847924164464 -0.7477236100867118 -0.2747068489261882 -0.9872492568561622 -0.0010661644982896592 0.00018143587711023213 0.45579795362654085 -0.25993595786435103
94906000.0 0.6491875473485798 -0.756427497260997 -0.2892998302753752 -1.0238925324816268 -0.0010101226408985088 -0.0021047718673633544 0.45454186471934316 -0.2606800890410741
95905000.0 0.6436648159487499 -0.7630248488258178 -0.31929494177608436 -1.0534588590757623 0.004849764148997207 0.005037050708172531 0.45558199867675003 -0.2736260264936392
96904000.0 0.6359495799410602 -0.7713809873452865 -0.3341025984770923 -1.096904562482468 -0.0016444792883297038 0.002024376920401591 0.4467200876032349 -0.28508499540445503
97903000.0 0.6266185870482034 -0.7767663418079552 -0.35851247027235833 -1.1301557545202394 -0.00040655573902493387 0.0008057248637412711 0.44947443204069365 -0.29164987344364796
98902000.0 0.6232973043670521 -0.7845403092090083 -0.38207836570214027 -1.1689421807507765 -2.8520584549903444e-05 0.0024766596029089124 0.445642765466313 -0.3030565227883023
99901000.0 0.6131510893717926 -0.7899826962384582 -0.4083908213940221 -1.2026665267999754 -0.001377252513883811 1.8854161071835316e-05 0.4520562842180093 -0.3245061169593054
100900000.0 0.6025367251882574 -0.7937537369999655 -0.4435141923429778 -1.2312074289539336 0.0017582149985027702 -0.0006054955917295385 0.45734574933911115 -0.31748596062416196
101899000.0 0.5955037251860377 -0.8004713619746506 -0.47143466412366847 -1.2737576372809718 -0.000985848079194912 -0.0003082022183951678 0.4471984324453208 -0.33096829580557685
102898000.0 0.5858180159978691 -0.8075171754094895 -0.5055787811597979 -1.3136988110636216 0.0007469906215397695 0.0035598800472672713 0.449517326987596 -0.341638852023488
103897000.0 0.5782420016706167 -0.8159258305850837 -0.5418566903110994 -1.351079907070674 0.0002855776805812728 0.0023475199026533984 0.454975357724523 -0.3397275796935573
104896000.0 0.5704282112366479 -0.8229087691362623 -0.5900310763313468 -1.3856636442583288 0.0005951292758393882 0.001010987695809838 0.4370880278156815 -0.3522510046049522
105895000.0 0.5585429521423124 -0.8266314147194931 -0.6366055508312385 -1.4253419811732395 0.0014563705454407115 0.002918928260795857 0.43460661753749724 -0.36705636656733753
106894000.0 0.548993227298078 -0.8327498418509852 -0.6984906817545715 -1.460358641157039 0.0010033875760692282 0.004117213429273484 0.4334846800917471 -0.3787791832186078
107893000.0 0.5409832441238772 -0.8381495993855784 -0.7465235090230103 -1.5007236443132932 0.001961198522824357 0.001724454825581569 0.4256578207742337 -0.3883958679282394
108892000.0 0.5337576822441832 -0.8405588439123803 -0.8012011321693133 -1.5397571862912705 -0.0004984308171129883 -0.0023400852678432636 0.4269851560827273 -0.38648226069641156
109891000.0 0.5207597490012424 -0.8505334801171338 -0.8619952356604667 -1.5748659736303456 -0.0005665501540919393 0.0004517354994279284 0.4274734340946916 -0.3927684451280314
110890000.0 0.5020156139294465 -0.8643358534482074 -0.9439723515251032 -1.5789479381082097 0.0011339181321809156 -0.0003147665505344299 0.4174980274762988 -0.39887544358408383
111889000.0 0.5026752563249814 -0.8566744078777038 -0.9842262875546202 -1.6424664769444917 0.0002978506318696841 7.866661610924901e-05 0.4027004371582959 -0.41703615236633546
