! Created with skrf 1.9.0 (http://scikit-rf.org).
# Hz S RI R 50.0 
!freq ReS11 ImS11 ReS21 ImS21 ReS12 ImS12 ReS22 ImS22
1000000.0 0.9739359429167889 0.010727471230173227 0.0006134015629680274 -0.040905124610410036 -0.0037551658131578535 -0.003299100889528921 0.33149663183455785 0.2847542243116748
1999000.0 0.9958423545621508 -0.010174348930100078 0.007802650312464598 -0.027447616634123193 -0.006376851989724402 -0.002519149095160495 0.264086952770398 -0.05761702512327027
2998000.0 0.9954999003836357 -0.0233949096559796 0.010875659672828292 -0.01733577730852633 0.0017010236180925098 0.00046224356036668387 0.19278861811034465 -0.13673294652388535
3997000.0 0.9969041068847975 -0.02995186372889543 0.01692799485333968 -0.008855247763185704 -0.0001341598623288974 0.0023137003640540605 0.07725815445076739 -0.2162744629318759
4996000.0 0.994876099002761 -0.03844980488557397 0.014993722957630403 -0.002881155866909497 0.002726723895487724 0.00030436350285842844 -0.01417903135282373 -0.20950713517297123
5995000.0 0.99306314015687 -0.05176153589082077 0.011938993230638573 -0.00017661811082194827 0.0035953540879180485 -0.0018315491980536516 -0.11710143331223612 -0.12520874915204575
6994000.0 0.9938857229491106 -0.05652086315763182 0.00708740192777525 0.006002176249050645 0.0016928535534424917 -0.005277005637783337 -0.16438286033252278 -0.02526798634435089
7993000.0 0.9927495272693843 -0.06879762775055558 0.0028503009927808025 0.0023495782244804643 0.0009832149754111015 -0.0015897302633187012 -0.17368635266756705 0.033862869967673
8992000.0 0.9930447551358715 -0.07368971416267761 0.0037625578000240077 0.004947971712326022 0.005978297655591334 0.0008761975291834342 -0.17268197494899168 0.06726364434191637
9991000.0 0.9933007490489921 -0.08431482443770726 -0.0006178792182955621 0.001113566174866795 -0.00023729729283495502 0.00010708904555649752 -0.16623730079539029 0.10104543754303273
10990000.0 0.9910534189998006 -0.09405041536221731 0.0009505788767128374 0.0018687166225558013 0.0021531532342510327 -0.0014016032208632792 -0.14247762286595572 0.11251544382202155
11989000.0 0.9899566820356154 -0.0995165186189493 0.0013613119461144652 -0.00013142975221024948 0.0005259322902442668 0.0008069988890125068 -0.12713161424096175 0.14357631681265295
12988000.0 0.9916356824632792 -0.1093914565109481 0.003728318447647692 -0.007260571809060903 -0.004880304864865387 -0.0004623879155127623 -0.11281640980785494 0.17184208328307166
13987000.0 0.9879842434157822 -0.11778248548551092 0.002766737975107221 -0.0017802401095356757 -0.003268363830047059 0.0005880277840919749 -0.10264051578371325 0.18717148540483752
14986000.0 0.9878737814840096 -0.12665130645391398 -0.002997107654727643 -0.005218101392726378 -0.0030305889504898434 0.000862928063797828 -0.0868248437128697 0.20187165733266213
15985000.0 0.9883916914321553 -0.13518510642035653 -0.002884774726953471 -0.003998194460607253 -0.000356062724433444 -0.0019157959122080392 -0.06832387014309815 0.2306431040605356
16984000.0 0.9865010756007072 -0.14499589365443338 -0.0033635208521979594 -0.006320325485450058 0.001031671347844015 -0.0019021625544768024 -0.05693438792227302 0.21159638032018915
17983000.0 0.987123008280086 -0.15041633962130943 -0.0004978511788695738 -0.0056289807648236085 0.003215631750272843 0.0029385851311706473 -0.058105746344997634 0.22516166736176652
18982000.0 0.9819163575219612 -0.16315514587289023 -0.007650164440097245 -0.003264072959397751 -0.002190712141533539 -0.0008544313942251513 -0.020585301026814655 0.23450263670729896
19981000.0 0.9826068240600636 -0.16862112254280293 -0.004560053449249464 -0.0035253563819404215 0.0019575448837533945 0.0008223056374924771 -0.02143523625415961 0.2508944241934611
20980000.0 0.9811978580095329 -0.17760411837990905 -0.005373030371959474 -0.0015127972458333734 0.0019405848447014015 -0.0003874814520712407 -0.0064028816774739875 0.2572192815996388
21979000.0 0.9785510992227344 -0.18616105198182095 -0.005488394403123907 -0.004242128716135116 -0.0032729102934261306 0.004504936555078804 0.01039016527111538 0.24789373872998266
22978000.0 0.9771421934750375 -0.19582631964011482 -0.0014330842357952874 -0.0052009908101740615 -0.00016289617939987182 0.0008645217256899475 0.02436244947671929 0.2723873094230058
23977000.0 0.9766555833463446 -0.20239115457798856 -0.007342083517991921 -0.0046494992164459355 0.0016151814722872436 0.0038870415403723193 0.028161331762426398 0.26387617737750896
24976000.0 0.9724559262999162 -0.2132497829522275 -0.011832812500033724 -0.004936566923221608 -0.0009919173607973375 0.0016224267536347657 0.05503405079812567 0.26316761052931514
25975000.0 0.973907325739371 -0.2217007516252184 -0.006004174611324167 -0.0005680873481000034 -0.006478485485247459 0.02508808144209194 0.07221824065207008 0.2694398583660734
26974000.0 0.9704096004906148 -0.23083426583513422 -0.0011331099682065683 0.0011404504731249447 0.0026133818572354117 0.0020701813666615765 0.08307514079925797 0.2633586469536808
27973000.0 0.9686611322174633 -0.23602957004617442 -0.003314482892836854 -0.002325550831156318 0.003020251043680213 -0.0008209065594844428 0.09880992608641233 0.25556961841306125
28972000.0 0.9664361307104842 -0.24516441188383747 0.0008865590719451399 -0.0015933082330471318 -0.0016303264567771977 0.00014746506012377404 0.11430976430541574 0.2561251400730516
29971000.0 0.9638346811373756 -0.2556290110801463 0.0023459615378585244 -0.002724310711388932 -0.0019797950728665734 -2.3906374574136524e-05 0.14557443426689579 0.26881034259282743
30970000.0 0.9596053162969634 -0.2610574772260026 0.0019030746694285313 0.00011203684304944385 -0.0014392099454417918 0.0014528094084020225 0.1664304211981973 0.2548979001576722
31969000.0 0.958961226399508 -0.26948667993678577 0.0043907251956044726 -0.00282043903759398 -0.002188212014721755 -0.0002386869253297253 0.14241932782524727 0.2552110684566889
32968000.0 0.9576749747301422 -0.27872281662185716 0.006400747988793186 -0.008450309452704082 -0.000786277517349339 4.393260182609306e-05 0.15880652910971518 0.24719066760726463
33967000.0 0.9553973017086319 -0.2868902629854582 0.00936676616437657 -0.00811947412558167 -0.0007017289065641387 0.002943706107021776 0.18256144096290897 0.2379763860271567
34966000.0 0.9505483001111497 -0.29741738328618894 0.009981952897508682 -0.006513722932733476 -0.0010961498419624332 -0.0012891668691312743 0.18479239345524123 0.25367420232472065
35965000.0 0.9484087280662168 -0.30759541958361614 0.015916066513049852 -0.013029346491753647 0.0038572985453033583 -0.001289619005365768 0.20642589098246186 0.25874371712197525
36964000.0 0.9468364248053137 -0.3145929742173077 0.017709850352770826 -0.012824418471902074 -0.0024075651645093445 0.0009129625418608877 0.20884536051168762 0.2567622037932048
37963000.0 0.9441705369009533 -0.32341427621267055 0.02266092214814453 -0.02092616530484582 0.002477857342504895 0.0013735260837328793 0.22535210518220025 0.23541401954631028
38962000.0 0.9414930852133757 -0.33182107351010587 0.024698357782578177 -0.02155551136539702 0.0028869578619535805 0.0014365894460507548 0.23664027961069511 0.23937132432221708
39961000.0 0.9374300112485044 -0.3415999558293719 0.024827167260865406 -0.029140853114674126 0.0016535602307832895 0.0034023957424103263 0.25682503686389074 0.22370113148095871
40960000.0 0.9335063960686447 -0.347569232497542 0.0219944817415165 -0.0212304129013568 0.0021355642521091673 0.00023069131239258312 0.26663822620857347 0.23996011419680893
41959000.0 0.9306748387013279 -0.35814605828524365 0.030376571237648278 -0.03163728405827655 -0.0011763008745500968 -0.0014944727014678714 0.26264441231127 0.22133682270844046
42958000.0 0.9263646873325297 -0.3658138973963459 0.03321806972757496 -0.04251151222685413 0.001791927299581654 9.783005342683016e-05 0.2779230539660967 0.20479774182875682
43957000.0 0.9237019254402024 -0.374748006615196 0.02968094454521685 -0.04667677305281249 0.00019945051496496468 0.0019118820880873405 0.2804698683104675 0.2137362525612093
44956000.0 0.9205753390989635 -0.3816119865148741 0.03422136152857584 -0.05219513290816022 0.0024805920685639525 0.0024646264331694596 0.30638478152249776 0.1984846812764434
45955000.0 0.9158743827504733 -0.3929972651933337 0.031469450203313556 -0.05511720030699281 -0.0023827516039592505 -0.0003705542874257697 0.3008857736842515 0.20014856786754529
46954000.0 0.912548470755936 -0.4005049432341661 0.03651551374596917 -0.06548709082413065 0.0013516267213037887 -0.0002647695805159084 0.32465222231165086 0.17790601792268423
47953000.0 0.9088784957799613 -0.4085294073549111 0.03525177293257752 -0.0709806716308038 0.0031802130993219906 -0.0004402073975125998 0.32119841126775084 0.18040805392241444
48952000.0 0.904909457487177 -0.4182519792030432 0.03734746352129899 -0.0788315666826763 0.0021787200227059533 -0.002695484255186843 0.33969466334143206 0.16701043802813986
49951000.0 0.9020443297326576 -0.4238241900153417 0.034131731981012756 -0.08257782800356467 -0.0012110346803825885 0.0015384935540686032 0.35036435414740896 0.14660192185598722
50950000.0 0.897037553377341 -0.43429743220953326 0.04030054330930359 -0.09358774005912818 0.0012634130125612206 -0.0036374583652587673 0.3591138665675291 0.151348661665437
51949000.0 0.8907291392689579 -0.4426626597050866 0.038239455968747685 -0.10005716609131104 0.0017489672641449094 0.0021688814553473116 0.35233514103540475 0.1490480231085318
52948000.0 0.8926213945088972 -0.44923723620598466 0.04112524573760362 -0.11050776398747607 -0.0003715002444875571 0.0010967703812132625 0.36948671713647857 0.14413892966408431
53947000.0 0.8839542664794405 -0.45853398249507543 0.043301044222870524 -0.1184073242745102 0.0011965622307467958 -3.080594707604275e-05 0.3721492830993846 0.12551861084561963
54946000.0 0.8789776034372826 -0.46711229451776504 0.04581820823001535 -0.1273187340839947 -0.00022700467170084642 0.0009812714225182506 0.3758246610151216 0.12444602851786386
55945000.0 0.8771682838104607 -0.47533458069239065 0.045171574278497904 -0.1395010355309313 0.0022712357637302938 -0.0008679718710606178 0.38493804130629855 0.11642877983024824
56944000.0 0.8738413347504983 -0.48241393728982135 0.046247893029696924 -0.14849076728175292 -0.00032626975133722515 0.0010812130037963588 0.39596196716745036 0.10421330598307942
57943000.0 0.867185820504149 -0.49405878993956337 0.048034445953131895 -0.16036284251055682 0.003696046710904157 0.0005727235698577149 0.3989447438181516 0.09840710170571755
58942000.0 0.8610853583451055 -0.5004914814027119 0.047720882383504505 -0.17030305333005552 0.0013707728882800803 0.0017481691829042995 0.4176685890329418 0.1035164431123943
59941000.0 0.8598607535540922 -0.5061435466292037 0.050860592302547435 -0.17984603512625474 -0.002579657717582978 -3.052463330789581e-05 0.41742177375760886 0.08645830100118554
60940000.0 0.8517331303294715 -0.5145784990350447 0.049749350464905445 -0.1822154506147325 0.0002213667399189886 0.0020082148870471106 0.4140186030448192 0.08467587493203989
61939000.0 0.8482632753687018 -0.5222180798217944 0.05167247948670192 -0.19141621565213945 -0.0007672738548661138 0.0020083886903087 0.42029192030570506 0.07283018372867713
62938000.0 0.8424334851567263 -0.5310424886689311 0.05643311696290098 -0.2064472033015016 -0.002871211255413504 -0.0010562844054684364 0.43711656036606084 0.07007766193270093
63937000.0 0.8358062554560587 -0.5415464455774052 0.057779480315159795 -0.22553060394270233 0.0023286118435068854 -0.0007833999653915394 0.44024034024135145 0.04015946523821154
64936000.0 0.8322685779784503 -0.5433625028051975 0.056999633581758496 -0.24090107868995783 -0.0013919456972886558 -0.0007367774541125686 0.4375933513250182 0.048213917500854346
65935000.0 0.8272400499158074 -0.558190766970659 0.05684791413196201 -0.2569738970182284 -0.0010042486212624496 -0.004651270958952238 0.43553228747894346 0.02021332298133757
66934000.0 0.8233083813991093 -0.5607497313445443 0.0533957138597265 -0.2670311686095281 -0.001045988608006021 0.0013947441824028613 0.4330456625240009 0.008209731183727576
67933000.0 0.8200736889147374 -0.5703702767560511 0.05740573490878022 -0.2815742597466481 -0.0009762442333513474 -0.004461516401734754 0.4504983406163163 0.009137036184422877
68932000.0 0.8115923633419267 -0.5614075365054035 0.05182986619760687 -0.29102294870298145 -0.0007433172769450083 -0.0021716720372662304 0.4534734769696495 -0.001188740369784737
69931000.0 0.8037018422425455 -0.5872439775603819 0.05210258042952873 -0.30888969899455126 -0.0008082151353926834 -0.0011588527308619445 0.45605832595373813 -0.015170448520527022
70930000.0 0.7994166036688181 -0.5925363878299897 0.049769418619156215 -0.3238231967663083 -0.002578673935741997 -0.003820117086939206 0.4499111209278038 -0.028104378083976582
71929000.0 0.7954347149764357 -0.6026242810369962 0.04452915450881075 -0.3426936525236212 8.927468535144812e-05 0.0023174343114598524 0.4489542283759573 -0.03341295852792435
72928000.0 0.7897271465327383 -0.6109641101949105 0.039121570720533745 -0.3567964019998502 0.0006830355229937189 -0.006242003049168808 0.46631075652340964 -0.04037343634279069
73927000.0 0.783202949138301 -0.6171322485181503 0.03531540826973666 -0.3788346720809085 -6.756305160185688e-05 -0.00266113460146969 0.45357822228761147 -0.045666671891655845
74926000.0 0.7780727648532821 -0.6256959385376966 0.026903142419677298 -0.3953908103469865 0.003052867402985451 0.0022054759717097055 0.4731290932930349 -0.05051512062066885
75925000.0 0.7696592092586443 -0.6301427276572812 0.016972517784849334 -0.4160752664248777 0.001523519233145989 0.0004368563450188837 0.4563229116603605 -0.06670015307494344
76924000.0 0.7641474088253162 -0.6393715501948418 0.002547927277468427 -0.44016642285997776 -0.0008322439788043268 -0.0009481113526695813 0.4604160044594712 -0.07194260263971668
77923000.0 0.7576126042505371 -0.6453539106147256 -0.008135715947877998 -0.46283795977968945 0.002659846184624992 -0.0030680079226325136 0.4565769862264863 -0.08924322088169484
78922000.0 0.7542316234710478 -0.656278193044099 -0.022686109286108307 -0.487380558082715 0.0011232192020283168 0.0004453597532376175 0.4610518613324286 -0.09370655805173424
79921000.0 0.7435727601603047 -0.6582680572575172 -0.03506601728554629 -0.5114075408042882 0.0033735954145116516 0.0022492254087987614 0.4528039077412891 -0.10708161023358836
80920000.0 0.738121773541026 -0.6704363535270522 -0.05441554012690937 -0.5420143083007096 -0.003240894153412013 0.0031310989212862367 0.47149688613146984 -0.11781715286123544
81919000.0 0.7315624485244272 -0.6749506379291339 -0.06932607805622823 -0.5684412878260531 0.007773281099315215 0.0016701651699487208 0.4652146255777804 -0.12796723971597426
82918000.0 0.7241681750334323 -0.6835763562278525 -0.0867402953292876 -0.5951612250904691 0.0057329745675228335 0.0014751612130399086 0.4729329622804055 -0.14092301237441862
83917000.0 0.7158565784615369 -0.6919304863419024 -0.1043085790841755 -0.6234634422076729 0.0004979605887167763 0.0018472896888914964 0.47417875364514683 -0.14134004885217494
84916000.0 0.7090211516548728 -0.6994077680995527 -0.1218700343023188 -0.6585600772816036 -0.0014656609615067537 -0.0002476784647786283 0.47154021900522797 -0.1572025408748268
85915000.0 0.7037803391639771 -0.7051623516653718 -0.1423762789211798 -0.6904761086565981 -0.0009035323997205682 0.004336194685313863 0.46516255771440634 -0.17468343533830444
86914000.0 0.6966272711892609 -0.7143744680658767 -0.15201225734396848 -0.7295876975238763 0.003187250790540964 -0.00021783918383064388 0.4618652709232007 -0.1701281481825933
87913000.0 0.6879509857718819 -0.720318316708312 -0.17298257818860882 -0.7543612314251189 0.003452810818514971 -0.0006096463385988457 0.46206292624375805 -0.18394523517627584
88912000.0 0.6814583691673807 -0.7267304866239848 -0.18158156435621087 -0.7891348845513999 0.0018282620265464402 0.0012229523561808546 0.46281260949179015 -0.18991384441477607
89911000.0 0.6734127588253213 -0.7353709435545233 -0.20171844241880646 -0.8215179859638684 0.0027895607399203277 -0.0023820152649164854 0.47276461066781106 -0.20781154668139365
90910000.0 0.6658831467917277 -0.7415328496996922 -0.2193460157322574 -0.8538737340657483 -0.0022138412381882138 -0.001300292234114038 0.46936097597929616 -0.20300574522107148
91909000.0 0.6570449996686357 -0.7458994183503849 -0.23611033169425244 -0.8881764586095661 -0.00112221007310599 0.0004932875129054539 0.46757853374586483 -0.2104650097404961
92908000.0 0.649584539913309 -0.7543777658796783 -0.25210929170511714 -0.921145895946969 -0.00048730985536759723 0.000731614087660709 0.45959777444844585 -0.22464878368697092
93907000.0 0.6441864766510903 -0.7610224659028497 -0.27202786509729115 -0.9513786374344392 0.0006373147619192896 0.0020104650839208225 0.46265785676927945 -0.23703578390541988
94906000.0 0.6311220891029214 -0.7690091011336367 -0.2855108226513553 -0.985967158814606 0.0006327930548195957 0.0012974333912463807 0.45635774386645667 -0.2404693737487532
95905000.0 0.6234912372114478 -0.7758623854502409 -0.31203254570086225 -1.0152981197862228 0.0012544051247800187 0.001403682260885855 0.4595026554577024 -0.2651418058102495
96904000.0 0.6158096570062799 -0.7850947349637545 -0.327908859169596 -1.058345827607448 0.003146268841193928 -0.0003397380749065632 0.45991369782452857 -0.26216537961250375
97903000.0 0.6080149992941656 -0.7874828553094446 -0.34698603039096865 -1.0871675863074273 0.0006670191643558311 0.0028077647565113158 0.4515262170586844 -0.26737697041569186
98902000.0 0.6019078235994668 -0.7970964558814404 -0.3682332485157997 -1.1261315373842886 0.0024162412728871195 -0.0030721607132760537 0.4488327607970408 -0.29128118819502624
99901000.0 0.5900049517512159 -0.8010446478174893 -0.3999122553900634 -1.156489433971981 -0.0016865760077165678 0.003183425092945465 0.46723283238380947 -0.3014483876596506
100900000.0 0.5841325808035153 -0.8049237600567054 -0.42623172649939095 -1.1839215049969947 -0.0012974684260943507 -0.000653343975536048 0.45953047247900014 -0.3029263379242995
101899000.0 0.571678787858407 -0.8146721554943084 -0.4583613575721366 -1.2197453194911747 0.001227502811179288 -0.00019041157776497036 0.4448996383717409 -0.3049372834890711
102898000.0 0.5635541969941289 -0.817810048318864 -0.4905290862455384 -1.259756667486272 0.0003106645978210995 -0.0005083361151577315 0.459190092908287 -0.32531916668231947
103897000.0 0.5545930883403735 -0.824786091124897 -0.5265730116055691 -1.2934285437644562 0.00025344215179733137 -0.0028338374279044906 0.45712331154514474 -0.32491226073818846
104896000.0 0.5471232240772761 -0.8350558192601778 -0.5735083394343538 -1.3236629574265686 -0.0019190702463809052 -0.0029995375438316373 0.4382253251139059 -0.3422630661564457
105895000.0 0.5360073985584096 -0.8365593829583445 -0.618142024599976 -1.3635967109172866 0.00010050075982598339 0.002177573479580976 0.44887593112897395 -0.35322366486844653
106894000.0 0.5295786177472628 -0.8442861147537004 -0.6658224692216987 -1.40528956623022 0.0018535752409539362 0.0023697405300839498 0.43391756408343723 -0.35528459106031623
107893000.0 0.521342437222253 -0.8496637324495857 -0.7171793488578277 -1.4402153946503493 0.0008235105004161689 -0.0007298176984181126 0.4417926728786185 -0.3648926516590407
108892000.0 0.5106106451849888 -0.8532370487788077 -0.7776393483175907 -1.4788802047080056 0.0017287899538483685 0.0004740082186438927 0.44018030489835663 -0.36350136332837846
109891000.0 0.4972178261693421 -0.8619181676176886 -0.8295251434208704 -1.5131545470415717 -0.0019172468849888063 -0.0017114035243918132 0.44361063370575565 -0.36656376779378763
110890000.0 0.47836257405594895 -0.8647254268723492 -0.8976261448222024 -1.507308325669181 -0.0018301653039486698 0.002736629280103988 0.42611469259058543 -0.38371199528217903
111889000.0 0.476046061440962 -0.868111095431655 -0.9570581232911464 -1.5839954747544038 -0.0006388850713538655 -0.001070210857038073 0.43833042568603886 -0.38870062992346177
