! Created with skrf 1.9.0 (http://scikit-rf.org).
# Hz S RI R 50.0 
!freq ReS11 ImS11 ReS21 ImS21 ReS12 ImS12 ReS22 ImS22
1000000.0 0.9785877944084549 0.00797820769380851 -0.0026686615694783943 -0.03258367630131979 -0.011010020937074264 0.0033314884561238324 0.3115530042078838 0.32813548689229316
1999000.0 0.9941936050208525 -0.016701386214356125 0.012413606913658693 -0.03114657481478766 -0.005016264708048958 -0.0016992234420412453 0.2618084043717374 -0.061244385745673424
2998000.0 0.9966648245336749 -0.020752199576410602 0.009846267170694376 -0.015981902165039873 -0.0007325497206193184 -0.0015447731758188835 0.1888407710616211 -0.13567147929411105
3997000.0 0.9969837518081228 -0.03292776483212257 0.01558637133556648 -0.0024932898359861003 -0.008068342995354557 -0.007772058485711044 0.07918625357878614 -0.22411165182793638
4996000.0 0.9948892735143926 -0.04004825184504534 0.009873087168737962 -0.002531095792616668 -0.0020406740695392525 -0.005178975607000877 -0.054563601245946156 -0.19231358048414934
5995000.0 0.9948055780025656 -0.048349299438889604 0.009543011133325133 -0.0034397999252474775 0.0016210209813051694 -0.0026465876998634347 -0.11236559517931266 -0.09106398788214157
6994000.0 0.9916267906823403 -0.05929780267878523 0.007373355850529983 0.0013489965434556436 -0.001034731000290218 0.0007928550438348768 -0.13328713722970012 -0.016132598050874823
7993000.0 0.9929179385441729 -0.06624048429495437 0.0032767327574596285 0.0037863301612367376 -0.002338944355325041 -0.003608092062835028 -0.15837010683485356 0.037115136997282805
8992000.0 0.9916714662440522 -0.0724831971467985 0.005315211998388774 0.0022489708397807257 -0.0002994524907479133 0.0096230074243385 -0.14851423845609027 0.062146541942151204
9991000.0 0.9903791139377888 -0.08607813994180283 -0.003648588280501385 0.002901091002569196 0.0024971671877344346 -0.0012428012950598717 -0.1475011540234272 0.10448521793419971
10990000.0 0.9882173534357693 -0.09426305147513346 0.005700639604033335 -0.0012772543036633952 0.001363962679532123 0.00016257416906615592 -0.1302046774828444 0.12760623941480476
11989000.0 0.9854521621756283 -0.09910602400146742 0.004686760778306736 -0.0014375843515862432 0.0010009083491099883 0.001282857269177642 -0.11055294143631109 0.14163414842748753
12988000.0 0.984577741849912 -0.10907366523010067 0.002860599128214127 -0.0010407251430423784 -0.00560065577604224 0.0018494568068178007 -0.11719759644837748 0.16655707395281433
13987000.0 0.9838218870140029 -0.11719183060779692 0.0015731547508263063 -0.0033197978498023975 -0.0024151995312190378 0.0020204893679500865 -0.0855618436412705 0.18362586499495864
14986000.0 0.9835680551216281 -0.12384797174462701 -0.00010308693584426567 -0.00023966065925854467 0.0005621625700135358 0.001636324338563653 -0.08552636065117586 0.2121358934868284
15985000.0 0.9860108785195957 -0.13338690429729327 -0.002459181697590172 -0.002877939484203502 0.004736074928764359 -0.0016664291492078742 -0.06699036712247286 0.2255715663120827
16984000.0 0.9832606349950386 -0.14265923585297138 -0.0014465692142038187 -0.005377449401920743 -0.0014569040798475014 -0.0002716533370082266 -0.0647235073108396 0.22962167495413774
17983000.0 0.9827189244569632 -0.14991198788005378 1.3166957219480823e-05 -0.004679210419346178 0.0018332769416544578 -0.001986363611627558 -0.05150455021000807 0.2273386215706094
18982000.0 0.9807950466739536 -0.16037194358377424 -0.005623667939645225 -0.0030357074356081207 0.0019004975823990263 0.0008837045380665733 -0.02136083173072052 0.236237779738089
19981000.0 0.979958443693748 -0.16692749612729296 -0.002757110614338058 -0.00398450089355046 0.004082595002445323 -0.0034627316550533437 -0.011371085386473734 0.24477146603298355
20980000.0 0.9765665129457295 -0.1730951161732135 -0.0037850968063512153 -0.003930731028263042 0.0021262146397865674 0.0011571538252355541 0.0036129668354239045 0.2558050923963208
21979000.0 0.9774392724963109 -0.18299674379038158 -0.006373737316520951 -0.002659611135727987 -0.0015069839645610416 0.0005806143351699862 0.02622263437501045 0.2430515793806626
22978000.0 0.9748794349259715 -0.1931016516330672 -0.00750662169154349 -0.006155461399151876 0.0006546217112344016 -6.498814375679389e-05 0.029649641421547464 0.2568021956721041
23977000.0 0.974078157094786 -0.20039448762584658 -0.007909751970225693 -0.005329254486258912 0.0015089747209329472 -0.003262846329830036 0.0437550622216445 0.2515081872091245
24976000.0 0.9715077419076144 -0.2088822464202457 -0.0046173847429499424 -0.0010704855309503713 -0.0012788528165699029 0.003579904042520026 0.06458213426136146 0.26270777748452273
25975000.0 0.961949228722134 -0.2220254972585169 -0.002703521411332208 -0.0002456626888587429 -0.00955035073100179 -0.023331950759524024 0.08530306962105359 0.27821375040395774
26974000.0 0.9681165167973651 -0.2250186527826906 -0.0021753334271054506 -0.0036822257015856124 0.0015208812107723906 0.0010162015037695562 0.09453187976998338 0.26235344515968034
27973000.0 0.965821623915107 -0.2328522507986248 -0.00404553912061862 -0.0010177483317836127 -0.0009440193115788921 0.001467247878937678 0.1036307003993598 0.25427325425757646
28972000.0 0.963052931381782 -0.2449073159829171 -0.001727947827142062 -0.0021101685742316956 -0.0004131002022095204 0.0021006569652350315 0.1275004977353775 0.2586321519556897
29971000.0 0.9626351312135689 -0.2509421813435017 0.002906678879414118 0.001998732892451586 -0.0013176679382095869 0.002251505599507693 0.1540791540953184 0.2765809991056348
30970000.0 0.9588490994515603 -0.25633680586668 0.0030377471004104616 0.0002762490681411138 -0.002708634820209429 0.0018491130372286693 0.17828974394605773 0.2581330584168738
31969000.0 0.9577464272982129 -0.26620872430202 0.002926444298076136 -0.0036171281313021894 0.001663942777164705 0.0002793610042049689 0.15537840153476387 0.2537412396941059
32968000.0 0.9558310395257639 -0.2749718583493548 0.008050723208906941 -0.010054296092739019 0.0010853778446982547 -0.0010186527659306536 0.16854854634277003 0.24927544702745816
33967000.0 0.9548981221950601 -0.2865826320162269 0.010936217632399175 -0.009588713912553727 0.0019220506792219211 0.001946088707896573 0.18627572556950744 0.2471518789763767
34966000.0 0.9507929257500098 -0.29327346047117264 0.01368609926437873 -0.011820996403669699 -0.0002662243338810192 0.000295404204761218 0.19912373480055087 0.25417548093409775
35965000.0 0.947783097835346 -0.3018335962772121 0.01661277087349824 -0.016576876799465224 0.0010619265357443705 0.0036983922179349717 0.22018178679831654 0.24603455730303556
36964000.0 0.9466236624875581 -0.3108119174607721 0.018377876160344246 -0.016295366626285238 -0.0041394390219153376 0.0028500748814100653 0.22446692849343688 0.25493517812518984
37963000.0 0.9412525916437335 -0.32021569332709937 0.022264904844204528 -0.02150521679217668 0.0017788403610900726 0.002384862505797125 0.23973068663071265 0.2332426281655372
38962000.0 0.9397384854549433 -0.32947219363073593 0.02505121861700893 -0.02437718450052888 -0.0017727384238474457 0.004332327402253306 0.2406679757871186 0.23991132386890557
39961000.0 0.9367421789760418 -0.3356100349814008 0.024818658808613458 -0.027649482021940907 -0.0012780781658755585 0.00045159364200702423 0.2629978821310282 0.2282575663052461
40960000.0 0.9330954504264991 -0.34443963369271074 0.023449255611958004 -0.020958926629363817 0.0021438018651949403 -0.0011517720236603657 0.2730974477238659 0.22874313606469227
41959000.0 0.9304659995625651 -0.3546953668742188 0.029362539135396472 -0.03457886457826965 0.000142887255290178 -0.003336737797372945 0.27443865937204204 0.21823011041576343
42958000.0 0.9246588268544642 -0.36378671288837094 0.03254413618626813 -0.04277355715029595 0.0031527966439574085 -0.002136552809071403 0.2837088802135672 0.21147783910604856
43957000.0 0.9255147717776693 -0.36810100419630576 0.032333887410945325 -0.04769041685177758 -0.00015071227632242163 3.720798419646017e-05 0.2989650610771005 0.20997794954986468
44956000.0 0.922370682794932 -0.3762956093637169 0.03386056794682489 -0.053582829622636156 0.0019144819552146773 0.00304141897660572 0.3067230191916558 0.19876043529574774
45955000.0 0.9166705122179571 -0.38849179530984723 0.03426134416335544 -0.057103242372479254 1.484145503251534e-06 -0.0023622399535553383 0.3127715991201234 0.19504141957246113
46954000.0 0.9127121853128929 -0.39665689248815966 0.03591384521976451 -0.0658779798423631 -0.001925562852888192 -0.0010294711578442046 0.3358563310999799 0.1858431500407283
47953000.0 0.9085978770960651 -0.40481586589772384 0.03477177323453675 -0.07134014909863837 0.0024621948516068397 -0.00036462982194243246 0.3375830709022321 0.17242402325725537
48952000.0 0.9053636301119369 -0.4138265166027133 0.036251117522124086 -0.07878469782208437 0.00034208474605162346 -0.002933014320199408 0.3423463616492142 0.16847535068236374
49951000.0 0.9004496099428139 -0.4224091063457728 0.03375786866047811 -0.08831266749805439 0.0018429890006321737 0.0026941807564728874 0.36256320962344063 0.1535350601118489
50950000.0 0.8963936095985954 -0.4304324837739374 0.03670335879506041 -0.09430194153664631 0.0015496871399599175 -0.00010433707480494001 0.3494021626448413 0.15405509546622556
51949000.0 0.892880005085806 -0.4368821854825063 0.03891020500699449 -0.10215300595344057 -0.0009426021389596792 0.002995272613750648 0.36766178268598 0.1446298588161076
52948000.0 0.8914875152099673 -0.4451198713040774 0.038701159898559476 -0.11449893258889417 -0.001449450903941633 -0.0005312542879326084 0.3792638601751681 0.15336486593099002
53947000.0 0.884109673411451 -0.45505936788544127 0.04280474352460207 -0.12137160504847515 0.002310866142957676 0.0006980134647898365 0.36745465416570694 0.1232526216190176
54946000.0 0.8787329296703082 -0.4628946280127229 0.040846768780127024 -0.12889835258416935 0.0017368470140338842 0.0007273160227511704 0.3837813305730893 0.1331144431102394
55945000.0 0.8770013046961272 -0.47146679386070306 0.04326183571964884 -0.14043817867733158 -0.0005486813894733152 -0.0003018851118813782 0.3968837427272094 0.10484091441842852
56944000.0 0.8734801215700646 -0.480076271351694 0.04493524070364674 -0.14930800989011048 0.002463028205685743 -0.0007122598080029994 0.40933739090758614 0.10485979742294001
57943000.0 0.8665946376692255 -0.49070966724015513 0.044069524513236695 -0.16199523380416855 -0.0015293098614206529 -0.0015905328583721693 0.41169482494327764 0.0966786005449706
58942000.0 0.8611477263165859 -0.4951281124767352 0.04579408879985521 -0.17026287154303776 -0.0012432634903069683 0.0015496921295114507 0.4292551455808804 0.09898610453769356
59941000.0 0.8598784633449171 -0.5006126201820964 0.04786671238878495 -0.18048581208111444 0.0014951235069406274 0.0007787637866475043 0.4262807315078363 0.09348260565144699
60940000.0 0.8510644633224834 -0.5101021837608749 0.047747005073166524 -0.18257589990684153 0.00035652280184722155 0.002670276222876391 0.4132333041956287 0.07748621471980036
61939000.0 0.848606858807816 -0.517704397464742 0.05011512264176927 -0.18744356506877058 -0.0001788918866993997 0.0004135825505580828 0.42253129874974044 0.0690746939571041
62938000.0 0.8429074353087963 -0.5285310706922987 0.05278052651908602 -0.21051168340844661 -0.0008285417336045006 -0.0012351678761709471 0.4458624462825777 0.05973560740300171
63937000.0 0.8363322986842956 -0.5369008670857611 0.053441629364370226 -0.22802850392843718 -0.0032384983213462767 0.0032174037044233896 0.44734259575683644 0.04288842160333787
64936000.0 0.8312586405557297 -0.5410726961753292 0.05326508413494483 -0.24211378183553958 0.0015559027457311477 0.005102583737972977 0.43832896480399197 0.046337984959542645
65935000.0 0.8277057215526534 -0.553693739182593 0.05167348987135559 -0.25088575321808315 0.0010745443404499737 -0.0020804948883395343 0.4473723063795637 0.01931622396085333
66934000.0 0.823585950174145 -0.5564870907808649 0.05088357199517551 -0.26796821690197103 -0.0021118176848124205 -0.00453740812823946 0.44635619876572097 0.01768190221226996
67933000.0 0.8185002097193419 -0.5651088680833043 0.052894808748694094 -0.2804673591782813 0.0018143741357397691 0.0012291398866111885 0.4479890058119328 0.0137324736532075
68932000.0 0.8150810115525478 -0.5689506251077289 0.048607988918643014 -0.2951286993102756 -0.0036511806446113304 0.00015437377885052853 0.46312426827870024 0.004035251724308818
69931000.0 0.8048176524090269 -0.5810151712002214 0.050975552996704504 -0.30938842242057174 -0.0031259142814163638 0.0019455674451781969 0.4563442180992986 -0.0179565590587338
70930000.0 0.7998827528646665 -0.5866612860498321 0.04863192215611246 -0.3198353180210901 2.2143428337349566e-05 0.0008790532071735811 0.4478261260593093 -0.031799310884225
71929000.0 0.7967605016881758 -0.5956085647802641 0.04172014345304637 -0.34217091631998364 -0.002012945214149375 0.00054743351391208 0.46036889255414465 -0.039918162905129305
72928000.0 0.7896278722796997 -0.6065392042498442 0.03878158013413431 -0.3552212670682459 0.0021501341810332 0.00013640304708887642 0.47396719204924137 -0.04472477087931877
73927000.0 0.7810870098292645 -0.6100468631482163 0.029435862355894803 -0.37594631561803454 0.0019068088839013645 -0.00021572719856066466 0.4582521694720621 -0.05455934007150862
74926000.0 0.7765761300848629 -0.620101844029203 0.02391353159351067 -0.39286262580671516 0.0038644578795870863 -0.0018761324585159984 0.46348976250990503 -0.04708097093648107
75925000.0 0.7730912840535727 -0.625632363525416 0.01706677601036562 -0.4141698919533046 0.0019753245624166116 -0.0031686612501360288 0.4676857068220987 -0.07411574282373473
76924000.0 0.7655432778499242 -0.632239317257946 0.0014130416278734534 -0.43331568607023435 -0.0013256164104394111 0.0016445507023116464 0.47146837397474595 -0.08833173324807493
77923000.0 0.7575303391353702 -0.6416066096592609 -0.011286489266607974 -0.45869416848378913 0.00419202134483038 0.0006035383064085417 0.4711932696596555 -0.09145241340414804
78922000.0 0.7533664985665799 -0.650399728372123 -0.023067824966064656 -0.48821339433893557 0.0006519542078841158 0.0007376347580315039 0.4596864715661958 -0.09303675824114398
79921000.0 0.7440305854135574 -0.6536350248771551 -0.039635640988842515 -0.5098334477002207 0.0035030115370032686 -0.004053992547899169 0.4679619106125092 -0.10541683338485346
80920000.0 0.7386137163538034 -0.6656994379410451 -0.055849802242111286 -0.5381644729555427 0.003926801753358161 0.002941855210241197 0.4799863579805987 -0.127604500087264
81919000.0 0.733082277828735 -0.6699570371355417 -0.07218909629331534 -0.5649872026252936 0.002050335919630631 0.00047707350261507364 0.464891374060492 -0.13157137268474367
82918000.0 0.7261867207326859 -0.6767950895865807 -0.09103766879753475 -0.5939370105363956 0.001316063575233476 -0.0014380898212711475 0.4804486595361562 -0.1373600277042438
83917000.0 0.7180842926225425 -0.6849000932791459 -0.10760687641640065 -0.6202409452397556 0.003106353465882143 -0.0028492667089975976 0.4886144542063579 -0.1321279199284653
84916000.0 0.7118647810239775 -0.6925795391922033 -0.12506804859210305 -0.6559541569830649 -0.00359632925432616 -0.004855603455408796 0.47557367449208626 -0.1598895938768223
85915000.0 0.7057499677154414 -0.6983116934948559 -0.1422250321720892 -0.6867743683333327 0.0028257685630723173 0.0002638402952834354 0.4687103459623829 -0.1654623892182853
86914000.0 0.6974376781928957 -0.710132823869523 -0.15858933940560982 -0.7220617846520423 0.005792534726501859 0.003190676659436057 0.46333719971736503 -0.1584915568163508
87913000.0 0.6898631463014753 -0.7139102652799084 -0.17558227595781145 -0.7532709028008947 0.0030216372338259033 8.7406152603488e-05 0.4696757589192898 -0.181841595793122
88912000.0 0.6823584622362338 -0.7218319322997578 -0.19355874015980898 -0.7841038051672417 0.0007509111923162938 -0.000376147278195818 0.46996457137806436 -0.19561217734443898
89911000.0 0.6761905986683889 -0.7302216902294028 -0.2073675691516791 -0.8157830498564699 0.0009193925457336422 0.003074854780920461 0.4818761146745762 -0.20844103435776434
90910000.0 0.6691278496417599 -0.7343794144819109 -0.22348690884231315 -0.8519052462575328 0.00453344439280682 -0.0002518926431426657 0.4643070390457375 -0.20756524667096843
91909000.0 0.6604786765185745 -0.7392430781179302 -0.24150745131376955 -0.8833747055117253 0.003571471326816946 -0.00024149848146397474 0.4768191107638414 -0.2196374655389638
92908000.0 0.6528289460012449 -0.7475435011689311 -0.2583203556178466 -0.9119804487090002 0.0006587360396372155 -0.001892193030401253 0.45704069715989404 -0.22952270128376842
93907000.0 0.6476911661770887 -0.753241192721271 -0.2734839642000886 -0.9429653003199029 -0.00235222847616849 4.324657936835799e-05 0.47595332672473173 -0.24349112492380656
94906000.0 0.6323875108516178 -0.7634677586250089 -0.29257500472581977 -0.9736686175751412 -0.0005200022195777088 0.0021827454059865194 0.46911743875189643 -0.26751306777213846
95905000.0 0.6282238337319669 -0.7682315865291599 -0.31108704858615027 -1.0103678414770325 0.0005350077807019694 0.00015930243794428677 0.47037291864010194 -0.2724906149209401
96904000.0 0.6189259383133753 -0.7767256613701571 -0.3296186680437776 -1.050285566903614 -0.0008764626862039129 0.0033532030243616654 0.45898500803838743 -0.2688362034957371
97903000.0 0.6084880738309959 -0.780560395812806 -0.3512905848488757 -1.0798933710975982 -0.0007640042984190022 0.001285247073079059 0.4537231650388769 -0.2794234588489378
98902000.0 0.6052350030477797 -0.7883639890524898 -0.36781250908954555 -1.1186259505094869 -0.0036210680402640016 -0.0026779504022252957 0.4456838622214582 -0.29164850244834833
99901000.0 0.5937817120514511 -0.793960317811443 -0.39679448833009956 -1.143891364534174 -0.00011019920168795543 0.0020080719677681718 0.46962017428643754 -0.3163090793878292
100900000.0 0.5847988901236033 -0.797864761126973 -0.42587750181434836 -1.1709744103085131 0.0027580230444700857 0.0009541503459245609 0.46981356797595686 -0.3048285674058469
101899000.0 0.5774148966680076 -0.8052767071428767 -0.4519738669374984 -1.210569557539576 0.0015067398802907433 -0.00039850987454570876 0.4572104626542504 -0.3239813479576969
102898000.0 0.5671546717077409 -0.8114415393225101 -0.4890607062226518 -1.2514364477711206 -0.0034792212509882673 0.00032591714317543646 0.454566122468449 -0.33122691772408686
103897000.0 0.5582145589175854 -0.819120693710912 -0.5257308698871398 -1.28419337612515 0.0004173199262234267 -0.0014446281848769509 0.4601851425560297 -0.34179964999351103
104896000.0 0.5509990587093784 -0.8292586428867529 -0.5669085430890555 -1.3177799958254202 0.00043977220751519926 -0.0012172947072312474 0.4417079268936589 -0.33865359779619364
105895000.0 0.5421540370332012 -0.8301264441695628 -0.6053249254773885 -1.354318694152818 -0.0004856430676390419 0.0012532397630123059 0.44160321436282324 -0.35211433721651036
106894000.0 0.5339286448794859 -0.837900597629072 -0.6602814757331599 -1.3927595290331494 -0.003121530145996977 -0.00016164841611377077 0.43812898921171944 -0.36639168412686035
107893000.0 0.5267884912367271 -0.8427095587624082 -0.7063808854847081 -1.425825439480878 -0.0017449096010438891 0.0001160527685187023 0.4380040716603908 -0.36810278651746076
108892000.0 0.5141416297271668 -0.8492185609832682 -0.7732374715581597 -1.468542700657473 -0.0034236862052846348 0.004568112808255035 0.4387554044947583 -0.37057649469393095
109891000.0 0.5018750172055453 -0.8546855313312223 -0.8248685810340296 -1.4996032213965487 0.0013842511282909143 0.003920315609976489 0.4534424442499869 -0.3624357235325976
110890000.0 0.48390534504997623 -0.866525459846428 -0.9035011474963072 -1.5046406406091972 -0.0035310209550692864 -0.0004256728994685894 0.44157104304190087 -0.3818968039076626
111889000.0 0.48233319370740013 -0.8623725993861469 -0.9497076525147736 -1.5687315244345919 0.0015621374198177321 0.0008934828705023946 0.4369825938701521 -0.39779976534371364
