! Created with skrf 1.9.0 (http://scikit-rf.org).
# Hz S RI R 50.0 
!freq ReS11 ImS11 ReS21 ImS21 ReS12 ImS12 ReS22 ImS22
1000000.0 0.973141019697964 -0.003621215121886081 -0.0013789577207007678 -0.04788220993623226 -0.006931231022333754 -0.0003262887438361531 0.31369631650488067 0.33452539748615456
1999000.0 0.9931786724333004 -0.021374543384056796 0.00940874466880707 -0.02534573581720591 -0.0021952496442626014 -0.00981320920366854 0.24200859432335617 -0.05462561077986418
2998000.0 0.9986191860994938 -0.02512513955771029 0.012992422830210286 -0.011377277579941105 -0.0006273139352117024 -0.0016634127099280588 0.18819888390993936 -0.10461608184238771
3997000.0 0.9950563960770301 -0.03340595166362721 0.009812495548251681 -0.004404458514873419 -0.007167160467780084 -0.005915035638437892 0.09428174570446597 -0.21084585384049745
4996000.0 0.9911262169249778 -0.04277122460746177 0.01039184309392764 -0.0018836983652348452 -0.007192045661984765 -0.003590041054086446 -0.04441710372813148 -0.20126154118371548
5995000.0 0.9892831004263626 -0.05332239957666431 0.006054862789718265 0.006437644467604991 0.0005580558928222068 0.0014041428509690209 -0.12722307160784097 -0.09588605035226018
6994000.0 0.9898151355485088 -0.060670297766594966 0.005598214133830282 0.005051682899013247 0.0008763500209959673 -0.007671199547060184 -0.14053316779775363 -0.020647301502579478
7993000.0 0.9899342907713612 -0.06986518030673185 0.004959750242211304 0.007521135886160076 -0.00020304891764591254 0.0027399768277018006 -0.1599375737623161 0.040688573953675235
8992000.0 0.9878057262760526 -0.07356142056975427 0.0034873359871981768 -0.00030614061611213873 -0.006316455702990972 -0.005392663607036214 -0.1602453755436042 0.05824410972698657
9991000.0 0.9867089986800444 -0.0841641595331068 0.001301006253504356 0.001418982357516315 0.003494566304558792 0.0025533241961690463 -0.14461829770039641 0.09743097980519091
10990000.0 0.9830586887829811 -0.09393433883455965 0.0030937117367808614 0.001960425517356971 -0.00011099911644578113 -0.002373174228741804 -0.13322131898468195 0.12305750815769681
11989000.0 0.983044996623846 -0.09714912875482963 0.004723291662981 -0.000299244795335159 -0.007661616656528408 -0.00032897889978914104 -0.12544752079234334 0.13186462388394618
12988000.0 0.983113864413292 -0.11366102523892437 -0.0010315808607131963 -0.00221444175798557 0.001486811116044044 0.0007394138518697528 -0.11537763122333611 0.17418162637112977
13987000.0 0.9816186158885508 -0.11975443989283216 -0.0025122739728002702 -0.004967730659223621 -0.0010299362295286831 -0.0018366056739551472 -0.10188004703688926 0.19039120395388867
14986000.0 0.9790906079005658 -0.12473204831518044 0.0013189549926160378 -0.008185128548315733 0.002596551033362791 0.001766372173960692 -0.09152183422277187 0.20202700983469873
15985000.0 0.9822530464358655 -0.13455424145102765 -0.000509280245904463 -0.00501906900593332 0.004184236184961087 -0.0005719623601280832 -0.06061627276532957 0.21797150017972344
16984000.0 0.9786481832433948 -0.14496749251954003 -0.0008411506194137426 -0.0034254203945290975 0.0029133852858720223 -0.0016359394212086202 -0.07090427550208192 0.21576264220556082
17983000.0 0.9790300168508316 -0.14940564148338087 -0.004582469750708336 -0.00823971417377709 0.00418948990334868 0.0027776975204365697 -0.06602738257947648 0.23067256004159542
18982000.0 0.9760881619971805 -0.16115422335441862 -0.00617726076387453 -0.007802281163377557 -0.0037067055055933916 0.004531970800656557 -0.02324682058456341 0.23809717628890337
19981000.0 0.9756101673489253 -0.16776537966875651 -0.002276571509288007 -0.006203590827311076 0.0019393228426100987 -0.0029161280295848953 -0.01970064169467633 0.2414537838193015
20980000.0 0.9740499607365732 -0.17672454656634543 -0.006374501382147656 -0.003764256433971737 -0.0004358691465482891 0.0004916785893236211 -0.002079906685740612 0.26051059216489203
21979000.0 0.9729409761112243 -0.18490996898149664 -0.004304433327940712 -0.007435423538078598 -0.001783376070450867 0.0014934368275368141 0.02584027113015561 0.24291307180331
22978000.0 0.9699219024414026 -0.192231570220529 -0.006278882159837276 -0.0072111157465524845 -0.0013807653076741214 0.0028640551934492444 0.02846395141847831 0.2561198002027303
23977000.0 0.9712744331885848 -0.19800519060416927 -0.003101867860361094 -0.0028519826517983743 -0.0021753191373641233 -0.000491185996968975 0.040504184396551575 0.24879718400619039
24976000.0 0.9675988912193215 -0.21190266928743384 -0.007776843863029254 -0.0042677739915633105 0.000701893923068845 -0.0023430622954339103 0.05977333895563064 0.2540137155157085
25975000.0 0.9685861012898135 -0.2194796464144211 -0.005313513854102734 -0.0030041515066917507 0.007544693081554393 0.024944134182343255 0.07455381085517838 0.2560652855760232
26974000.0 0.963715484270129 -0.2274064251114963 -0.001279998599395017 -0.001501333854659514 0.0003823370165152348 0.003432390351333489 0.0916754210303752 0.26041830075191225
27973000.0 0.9637898634957677 -0.23445698585414218 -0.007142156110584593 -0.0008903312804165462 -0.0002829138153443456 0.002993186549341071 0.09235054567291216 0.25124343780151825
28972000.0 0.960036782807349 -0.2446933795976402 -0.002078593981453817 -0.0018434792128646231 0.0027433330287870376 -0.00019343944754661758 0.10843860748692029 0.2596228911523359
29971000.0 0.9590346071456588 -0.2546784182787616 0.0006163879995346809 -0.0021860227830355827 -0.00010031338979280201 0.00021497950754496896 0.15479334095924244 0.2626020768609337
30970000.0 0.9577655380744442 -0.25950972624734236 0.0016682564824952674 -0.0009422399021016453 0.0009216950554785262 -0.0016782346391689203 0.16071383221695149 0.2502335369192978
31969000.0 0.9546848773110349 -0.26888130445535685 0.00591543808122273 -0.0007080728870285425 -0.0012298029037639611 -0.001323932957816871 0.1495646850873586 0.25150489757600997
32968000.0 0.9530477514139027 -0.2776320382843163 0.007511252642206577 -0.007496559656558781 0.001106540014331006 0.0010688221457213246 0.16658864199491277 0.25169697607895647
33967000.0 0.9509540964477952 -0.28867537923099296 0.010499419726055316 -0.008722639326265907 -0.001347787757893215 -0.001062176710191473 0.18256845008744957 0.24426047075543442
34966000.0 0.946868723590727 -0.29622791717471075 0.009907025481617511 -0.014041901255491767 0.0007035904301403135 0.0028892495965284768 0.19571058468142266 0.24799025674541267
35965000.0 0.9451199544871797 -0.3047802914611628 0.015608900357389429 -0.014554982074983402 0.0043769099888640904 -0.0008982404907271481 0.20705110374996077 0.24956302618962403
36964000.0 0.94277099259957 -0.31331644690443816 0.014300777694350127 -0.015530651281474898 0.0011758123515295334 -0.0012814979612120298 0.2180818222494618 0.24507676530906422
37963000.0 0.9399280683656344 -0.32131456915528633 0.022006803209792272 -0.020037644267115746 -0.0016037244866047538 -0.00226656299183683 0.226236765927633 0.2304670871265687
38962000.0 0.9369136058681169 -0.3312948321906076 0.0250955852049246 -0.020946194227170947 0.0009513759929317128 0.001960889086632183 0.23514196864651532 0.22692587932195218
39961000.0 0.9331745959291864 -0.3413894482045393 0.027263129303612483 -0.024953477385617144 -0.001008269983062808 -0.0012741205178689041 0.25670550220206984 0.22568213336501217
40960000.0 0.9293589708504433 -0.3489550824387069 0.02205656556421107 -0.02292046042996646 0.00011707044273863331 0.0025665581750698697 0.2648884779882498 0.22480725231644208
41959000.0 0.9272077107051487 -0.35822864435010954 0.028136771879249362 -0.03200975566003406 -0.000180456698166127 0.005729894064221108 0.2607432855755854 0.2055328010324598
42958000.0 0.9219713877301069 -0.3670230010326612 0.030006488527189342 -0.04042025381065357 -0.0008756542999700562 -0.0006118286420313706 0.2796200330769508 0.20250294556387302
43957000.0 0.9212908261853074 -0.3717946286537685 0.03329047645595947 -0.0454215298869953 -0.0018164165388922713 -0.0003231231643500997 0.2854881192594922 0.2089459106723028
44956000.0 0.9173453559319474 -0.37935958030355404 0.03930675324404046 -0.05167334597819378 -0.0022717734966302794 -0.0007251887323981495 0.2990425229020604 0.19871909832064633
45955000.0 0.9130294310038467 -0.3908797018390591 0.03810672035618399 -0.05835757717054053 0.0007906710434109427 0.002324160978709403 0.31175704719343034 0.18346924197323444
46954000.0 0.9090770680638282 -0.4006281193244852 0.037850783900351834 -0.06346273015596529 0.0007622118982908065 -0.0013201569515402043 0.32063153885081686 0.18480202470253707
47953000.0 0.9052353954939507 -0.4086800104958779 0.040295531990867904 -0.0716743823283671 0.0013027987146072028 -0.00012314026491290383 0.3377125082643966 0.16625392585370685
48952000.0 0.9012264498688863 -0.41757446692742567 0.03861597698836337 -0.08147977604635515 -0.0008066208443324017 -0.001271223084633253 0.33409188965229863 0.1722773523988464
49951000.0 0.896756937388149 -0.4260939909306716 0.041907289250237054 -0.08812021121415317 -0.0003756528803029098 -0.0011819204166593144 0.34957290670421387 0.15131840157550897
50950000.0 0.8935169448008553 -0.43475136530061104 0.04190083573533534 -0.09755520220024376 0.0005630001381508871 0.0007167571874896561 0.35149234127919626 0.14256405033201405
51949000.0 0.890197032792666 -0.44243269732144913 0.0443702694356382 -0.10675162377242266 0.0013044410654969808 0.00192475009805042 0.3579964767512005 0.13885385031653658
52948000.0 0.8880722363828806 -0.4487957553519295 0.044259154571715795 -0.11395726149573343 0.000579181825971532 0.00014853879979413495 0.3641494571869539 0.1295021862342363
53947000.0 0.8795606541871241 -0.4590497925616764 0.046696123785099956 -0.12502640931521877 0.0004869654087623675 -9.995869035206662e-05 0.35794056477819175 0.12585888083988792
54946000.0 0.8755154421136715 -0.4684411421272715 0.05085571640520323 -0.13442914734518532 0.0016096942381483765 0.001351124045442134 0.38241393563622966 0.1277511684494887
55945000.0 0.8729219727201584 -0.4773127076156123 0.051894592054406476 -0.1433656897968155 -0.001694303495403355 0.0013236092205647307 0.38023247357738504 0.10234255167652986
56944000.0 0.8681060086138157 -0.48433453566165396 0.051006905917293933 -0.1534462876929394 -0.003854890820617899 0.001338543304236312 0.3948728247920497 0.10288601172553645
57943000.0 0.861118619724874 -0.4962162513422225 0.05002505347857625 -0.17018049120714626 -0.001049725324643197 0.0014984676608184558 0.4005286129671418 0.09024651193053115
58942000.0 0.8586710741704126 -0.4989732136648517 0.053926496003818346 -0.18042268124986438 -0.0017546798023846642 0.0015445393301898517 0.4136582018479929 0.0744568078408222
59941000.0 0.8524506232434573 -0.5092341936131558 0.05619397715917452 -0.18598680950829327 0.004208729016405 0.001966423408595057 0.41834495767329777 0.07978614324916758
60940000.0 0.8450126624628567 -0.5161395376808816 0.054349651565845467 -0.19253488891440218 -0.000483093373073256 0.0009840296732932924 0.4109075759858892 0.06548624823091291
61939000.0 0.8428174203530191 -0.5224212377607579 0.057462495226912894 -0.20267831827501187 -0.0006507980134597553 -0.000133801894698566 0.4118848704748914 0.05322074559720033
62938000.0 0.8359344810768472 -0.5327045361922332 0.058314838746347485 -0.21837368723515543 -0.0006742968222740856 1.3800669915267133e-05 0.4473905571540549 0.049651557987986275
63937000.0 0.8321317110630095 -0.5397013698327511 0.05841026182287327 -0.2381592882387613 0.0009256114788671593 -0.0016275105719934207 0.4238833810877698 0.04134546245914465
64936000.0 0.824860345553315 -0.5484577256987686 0.05721973287005072 -0.2555602154293192 -0.001983030724659545 -0.0009902857121988787 0.42800498272456067 0.04436029857551161
65935000.0 0.8219500379317335 -0.558076647698165 0.05696839124985374 -0.2675860269775752 0.0013585564297394865 0.0009704824878324697 0.4243586160582979 0.010777046326621024
66934000.0 0.8168423805392089 -0.5624107198694192 0.05784443865061378 -0.2853513816439047 -0.0025773727080280863 0.0020012396218124324 0.42937104306887774 0.006330665067267031
67933000.0 0.8146384390508496 -0.5714058272942228 0.05774702774882374 -0.29909770613733666 0.0012815505563500158 0.00030535796599231703 0.4445769817780332 -0.0002519140613866389
68932000.0 0.804666396877689 -0.5759471186705228 0.05363243536502276 -0.3117523608945194 6.148792195901171e-05 -0.0016814854296740287 0.44922519465573635 -0.016120282614017
69931000.0 0.799603614265797 -0.586510849706188 0.05523920602866668 -0.33094450122129615 -0.005377563027223662 -0.001620884426921639 0.4401721166312677 -0.019905083646136322
70930000.0 0.7894202910247264 -0.5938875393838772 0.051483737777901 -0.3430675558011517 -0.001465528521184989 0.0005851468178315073 0.43216688807462006 -0.031402661493872844
71929000.0 0.7881155436999131 -0.6045836097038939 0.045896884271829606 -0.3617166112457904 -0.0004098431623669637 -0.004219585002662827 0.45377951861556315 -0.037857395490416265
72928000.0 0.7808729966483182 -0.6089606454898998 0.039304100659451786 -0.37816861638909394 0.0010969557997504425 -0.000657596942081445 0.4561531243278874 -0.053856747730965715
73927000.0 0.7763167068249894 -0.6158303545891544 0.034359411092353735 -0.4002601574330422 0.001287802213098598 0.0009630837622072929 0.4467273205144275 -0.06468780167550897
74926000.0 0.7700403376780316 -0.6261419740455857 0.027347810990121027 -0.4216201395489707 0.0025624822848760104 0.0013024668344708897 0.4566453366944537 -0.06874244006179163
75925000.0 0.762537516776288 -0.6306185891778424 0.01773115451186871 -0.443355387953317 -0.0028093564885594367 0.002529921350040153 0.4650017187075631 -0.08307547835560353
76924000.0 0.758137602882107 -0.6380867426119842 0.00419294576722827 -0.4656464784919489 0.0014898588490058564 0.0020304028449150044 0.453098467191059 -0.10047820638881229
77923000.0 0.7493756297828452 -0.6458220277139548 -0.01191235566595847 -0.48823838805953973 -0.0006485960950853388 0.0017479801519296638 0.45295510175169884 -0.09720441795570911
78922000.0 0.7448382167669435 -0.6547611826646715 -0.027558796674643615 -0.5161645808497575 0.0012509790410341341 0.0012445028959762684 0.44800262255986906 -0.10463159111606538
79921000.0 0.7360487925225351 -0.658232490618716 -0.04055070340740886 -0.5484716445455721 -0.001442296800636759 -0.0012304371872115087 0.44666599511031163 -0.1141377996113253
80920000.0 0.7301252266391867 -0.6688225209314325 -0.05371727842653334 -0.5758979911081876 0.0004601965375165782 -0.002263736973487369 0.4608659784807304 -0.13820820905068892
81919000.0 0.7256717143208593 -0.6740756501904108 -0.07657984127060898 -0.6007685666510593 -0.0019938475502968697 -3.4099612668936336e-05 0.46057890064791157 -0.145583837780714
82918000.0 0.7148300173023805 -0.6826833734788613 -0.08969937884216812 -0.632967870032381 -0.0013808480607938364 0.004756728743737959 0.4742039967667852 -0.15636131578944562
83917000.0 0.7079851985748327 -0.6896328138937089 -0.11045068426089051 -0.6663884809263296 0.0026057164310644768 0.0018885984234295564 0.4683914376327313 -0.14877372966133257
84916000.0 0.7013383658368867 -0.6980106370838808 -0.12356848622660956 -0.7002125589731051 2.6244721839868062e-05 -0.0021285415550257756 0.4560463715645816 -0.18406039813273134
85915000.0 0.695176916103201 -0.7016074877246132 -0.1491007835067012 -0.7297049834184276 0.0007971769829860631 0.0013824076283015215 0.4565939325554705 -0.17874604470737385
86914000.0 0.6852356321786133 -0.713875771112717 -0.16132575153225773 -0.7722186470207465 -0.004549070603878348 -0.000202726378034249 0.45773551733045176 -0.18815730768222552
87913000.0 0.6822006535639884 -0.71824926632254 -0.1781224703074033 -0.7961963057887095 -0.0006878167895937682 0.005168999950343289 0.45766117990710053 -0.19563215445330184
88912000.0 0.6728215150444226 -0.7255289509987373 -0.19632104519465873 -0.8375058460635822 -0.002962649761983082 0.005204661548114497 0.46095074421628945 -0.20171300555851354
89911000.0 0.6661440696012826 -0.7328984583747203 -0.21194983852340504 -0.8731876458693759 0.0015884479075395242 0.001018729869670222 0.46891045596316666 -0.20429946844868474
90910000.0 0.6587705117724558 -0.7390249238469949 -0.2316412511743676 -0.9059839149368898 0.0010429824487002666 -0.0007129426285551984 0.4583132740827884 -0.22309964986416914
91909000.0 0.6498547621302343 -0.743826451119249 -0.25360171368879536 -0.9385992104674425 0.00026015878972222823 0.0008492075115301709 0.4682562374133683 -0.22898257120897925
92908000.0 0.6410675189368736 -0.7526795542653734 -0.2694487588270834 -0.9750712928942911 0.00027523383620343267 -0.0033552712870681487 0.4551840706965981 -0.24527895220763318
93907000.0 0.6374465335306406 -0.7579097173211132 -0.29130655694871044 -1.009412112054679 -0.00020843623427355357 0.0014999045244461764 0.4487630484687185 -0.2680734305186968
94906000.0 0.622211198442338 -0.7654637615680768 -0.31373428048204643 -1.0413479524896627 0.0022882568338480932 -0.0020498498205350313 0.45446631804972243 -0.25194391920292225
95905000.0 0.6166244594524575 -0.7720427761497186 -0.33408562375157125 -1.078014999025303 0.0012313343283868285 -0.0012945605125045943 0.448999898389809 -0.2802635071355904
96904000.0 0.6098580899424088 -0.7801831792545881 -0.35502835250517367 -1.1158615739837368 0.0009910947384245941 0.0003049319803941286 0.44837408899681036 -0.2795201803345877
97903000.0 0.6006827898145868 -0.7839056561050985 -0.38055723620915854 -1.147561087322957 0.0014746715666542841 -0.0003293972153273294 0.43812669819404726 -0.28062664917391966
98902000.0 0.5955363318345113 -0.7932647600833501 -0.39930928405566934 -1.1914807838613886 0.004762155430795015 0.0008376390828838847 0.4503577892947041 -0.3080681138540418
99901000.0 0.5831277714149521 -0.7996300663873461 -0.4335012667542788 -1.2228659475259076 0.000415956084343629 -0.003568141905537337 0.4469098252439653 -0.3278427653714634
100900000.0 0.5764802627041516 -0.8017530213878539 -0.4637992082108345 -1.2546020757845904 -0.0002574242960004044 -0.00023692250420906874 0.4671146499549642 -0.31453781591002894
101899000.0 0.5682366121461323 -0.8076965036705842 -0.49253179628614124 -1.2944096342746942 -0.0009054939555694115 0.0009304274315261029 0.4299529799328882 -0.3277300219492095
102898000.0 0.5573347114575318 -0.8147356344462601 -0.5339098147379602 -1.3337172980911198 0.001983042376126182 0.0008034282157460161 0.4486988803176564 -0.34966192115625266
103897000.0 0.5494928581795068 -0.819999454904524 -0.577201530627669 -1.371074454266097 -0.000973730538536069 -0.0026222741737702135 0.4575455623351508 -0.35191970306933745
104896000.0 0.5417291138908412 -0.8301388411946788 -0.6219292023386955 -1.4050695628809107 -0.0030971882746665016 0.002154125138836725 0.43045159401519884 -0.3482701154158571
105895000.0 0.5305653515616985 -0.8335558980681567 -0.673891986936176 -1.4425880525219987 0.00041957295634445686 0.0013019218040901583 0.4297698275104397 -0.36867778889790326
106894000.0 0.5233278025657778 -0.8391522634150933 -0.726900277337296 -1.4870260199078436 -0.0017102082887459778 -0.0009424714900905777 0.4205242878897716 -0.3719164393580908
107893000.0 0.5136697042652382 -0.8472138275595262 -0.7881496319051485 -1.5257805199361993 -0.0016508644579807696 0.0010649512936636398 0.42855134657032684 -0.3820214871885606
108892000.0 0.5044671696623244 -0.8491238485037877 -0.8462058041578464 -1.567422205377215 -0.0004709392748970845 -0.001887185844993388 0.4272700099942959 -0.3845196087710928
109891000.0 0.49146235350907963 -0.8569915538255417 -0.9121408187202957 -1.6027177665840822 -0.00019234088105318068 0.0013810307698595735 0.4344375171610315 -0.3808741618434604
110890000.0 0.4868203466093448 -0.869450105108486 -0.9797451347685374 -1.6251730205111639 -0.0008054161768922161 -0.0009852579273450816 0.42884248584095164 -0.3886381323065883
111889000.0 0.47329618176365107 -0.8641909184254073 -1.0367675513178587 -1.6763234861250293 -0.0018580397864920869 -0.0026385913478620448 0.4136692486147012 -0.4063696027984235
