! Created with skrf 1.9.0 (http://scikit-rf.org).
# Hz S RI R 50.0 
!freq ReS11 ImS11 ReS21 ImS21 ReS12 ImS12 ReS22 ImS22
1000000.0 0.9955687392824917 0.015890776216413903 0.015946052032935577 -0.062233286526206466 -0.010963930208497735 0.019849762041727118 0.3089726411047421 0.3015831792288161
1999000.0 0.9955775304171828 -0.014170205306678434 0.009338974645681366 -0.017278874354408065 -0.0007873159780857702 0.005007491452821047 0.2561382129558058 -0.0633895797501158
2998000.0 0.9962245408111922 -0.021162250163188373 0.0023363541846769926 -0.011203647715625582 -0.0045887795198179425 -0.0024439428820042866 0.18361956408492258 -0.14084643279211229
3997000.0 0.997942764026009 -0.030066456499218738 0.015420792476789702 -0.00988537483035854 -0.008058915602609743 -0.004456020638239149 0.08740843534794898 -0.2334784542916828
4996000.0 0.9937496899635136 -0.04111314429997501 0.012871229755604315 0.0018675429522359169 0.0009088717892518945 -0.0035718504474352027 -0.04182854620181888 -0.207047085477295
5995000.0 0.9915309904312847 -0.054730392746310634 0.006587008357456903 0.0015047602737954377 -0.0016055428903239337 -0.002174779615577236 -0.1205354092094818 -0.10629780682922281
6994000.0 0.9936641776002273 -0.06177978309507032 0.01051779169459624 0.004364738500893535 0.0019826705481368815 -0.0039028012311224094 -0.1444692081549363 -0.02964718290994421
7993000.0 0.9949292137449894 -0.07170803202282836 0.0051819397527813876 0.0030664024110582683 0.004653142095002335 -0.00010353271238249147 -0.16206946767333935 0.03771482890708129
8992000.0 0.9939078667157154 -0.07607754364795068 0.0020837404742485724 0.0030874023754895205 0.0019175181694667362 0.0007231241238327883 -0.16479614088241923 0.07156330782113023
9991000.0 0.9919045875013321 -0.08352616510514593 0.005586642693615969 0.009789554459313626 -0.0032452172866448445 -0.002627007221794693 -0.14657070969653602 0.0962318670968394
10990000.0 0.991766720606827 -0.09100808700758274 0.007280994876801119 -0.0007232378344893616 -0.0001249467720456525 0.002888656710446884 -0.14197544708507026 0.1156685078056876
11989000.0 0.9887219937843158 -0.10198957844881656 0.0008622088464093964 0.00027348869854964386 -0.0026620228605876485 0.006992294959075222 -0.12248328004732197 0.13869765006606746
12988000.0 0.9884997741658235 -0.11074566777583598 0.0027413093437104637 -0.003210118457453822 -0.0003049514165323443 -0.0011570417418377422 -0.11670316662193721 0.17404729131593047
13987000.0 0.9866216759616612 -0.12027062775093109 -0.0003855591994921487 -0.0041562959349549415 -0.0027105547871318094 -0.00447273187168165 -0.08160843408426628 0.18795442628880538
14986000.0 0.9865174066817166 -0.12588457808238687 -0.0014577259630048516 -9.824749726480218e-06 -0.0013533412771760155 0.0009800484634912656 -0.09326705474903545 0.21238364895773035
15985000.0 0.9873624634741645 -0.13523113695902106 0.0011409758079302884 -0.0033891900461050905 -0.0005060682851918207 -0.0008064589626379076 -0.0688719684919817 0.22437767023358068
16984000.0 0.9847317691220461 -0.14555109414485803 0.0010990809173991867 -0.004435070745716347 -0.0026639532963615977 -0.0029103205521220817 -0.07282847316736618 0.2207151158455628
17983000.0 0.9847283258196824 -0.15157195630249518 -0.0011911245416815 -0.004232185558219776 -0.0011779094720894018 0.0026364318276909924 -0.052181774415279665 0.22685371808970392
18982000.0 0.9814669370403559 -0.1605471615495643 -0.005333527012824766 -0.004846850842791485 0.0014668681848105077 -0.0010103064767142326 -0.024865786662269743 0.23356017166038068
19981000.0 0.9806591046346728 -0.16611859301451468 -0.0052681785910823125 -0.0044981965803821845 0.001517200240679128 0.0006347103248090393 -0.020361274373394876 0.2490002270314253
20980000.0 0.9810022669267278 -0.17758685198691165 -0.0075022311074350425 -0.0023461794079596677 0.00011709518896475995 0.005662755078168338 -0.004140216291970127 0.2574895866143974
21979000.0 0.9779124578623729 -0.18715816141053757 -0.004700419469523715 -0.003819021066218724 0.002201187696768279 0.003951017616740776 0.005579718476325828 0.2540948077406049
22978000.0 0.9758928133932805 -0.1954612944200149 -0.0034717591391917263 -0.001962729879387056 -0.002660058253800041 0.005329751411172033 0.035123759810167694 0.2536355035324464
23977000.0 0.9770264817638622 -0.20473703338216473 -0.0028754724693787663 -0.0011558205184390782 0.004638470416390135 0.001568880245517014 0.03948097771345272 0.26193333747071956
24976000.0 0.9709489396635647 -0.21270410513715884 -0.008098095426836285 0.001047164494219148 0.00022163035341964726 0.0019398486577225766 0.05901278107303246 0.2540888247509448
25975000.0 0.9682265944028005 -0.21894935988980424 -0.00425340214535204 -0.002632919732903884 -0.02301814360144942 0.0006514666326475954 0.06840131776389474 0.2687004060919385
26974000.0 0.9699230018911049 -0.2307745849926889 -0.003000082179632456 -0.0027323658629751207 4.683179148317065e-05 0.0006750276538086989 0.07823708037129158 0.2627783128642584
27973000.0 0.9680742395450532 -0.2362226839790516 -0.0031841024452808836 0.001688811531834236 0.0005437596156473899 -0.0031710963512640235 0.10866883308777732 0.2581459050311292
28972000.0 0.9654070377724842 -0.2468114725156779 0.002043371667700166 -0.0021570787812549273 -0.0010007286098558338 -0.0009732230052418667 0.12346884890858105 0.2648482465284412
29971000.0 0.9639810754985143 -0.2571141793167534 5.1609225252225326e-05 -0.002881885679995678 -0.001378914176364236 -0.0007978208556579233 0.14587570851704765 0.26842924440837174
30970000.0 0.9607191722658247 -0.2625996710791326 -0.002335201445955588 0.0005482791411826021 0.00209081773802862 -0.0014499410395063953 0.16941494849069422 0.2500953501224991
31969000.0 0.9569129805167723 -0.2728366246831743 0.004125706079920734 -0.002839798617191911 0.0010821207881395974 0.0021644523039503864 0.14866822995484014 0.25157841760988714
32968000.0 0.9564258906579018 -0.28204595278826317 0.00850922380325199 -0.009661096335000998 -0.00014680235936231372 -0.0005550362540318048 0.162366256983867 0.2608830253831185
33967000.0 0.9542131342901902 -0.29274513553104803 0.014062589016093379 -0.007541281898122484 -0.0004278886035080673 0.0002824557816524844 0.18879641499538108 0.2526245918153889
34966000.0 0.9501153917996334 -0.30172370879569466 0.01404502244770752 -0.009435382647407144 0.002580402715213693 0.0015889418371412467 0.18993687763588082 0.2609038169420532
35965000.0 0.948236333843429 -0.3074328857965151 0.01682240023574634 -0.015944012303318177 0.0002888327499742251 0.0030432470229441325 0.2083962005132103 0.25008135108531754
36964000.0 0.9461713459330308 -0.31648488835215705 0.013097783840447193 -0.01426080357900355 0.0007995793117205359 -0.0020002767473208585 0.21076336140772237 0.26038026647408935
37963000.0 0.9427161276810131 -0.32478242818557146 0.024626661011969392 -0.01798408698854481 0.0004954515819852152 -0.004345678362609496 0.23042130356215176 0.24253737414823043
38962000.0 0.9394718178792739 -0.3352663332048303 0.022660296585399996 -0.025995497924673597 0.00254635015564443 0.0007215596800082354 0.23222112453208155 0.24186557458856245
39961000.0 0.9364476673317148 -0.34140655358236777 0.027428097019902325 -0.025071456928683365 0.003604053469251775 -0.002396555813344276 0.24790383536334717 0.2349349356356829
40960000.0 0.9330214217054407 -0.3509004828434384 0.02191675050901243 -0.022018822836284944 0.0010402700739246186 0.002780845733782596 0.2716084533511255 0.22918214490053426
41959000.0 0.9298251439452034 -0.36051099143893206 0.027767985235928296 -0.028751104285353428 0.002058667750601954 -0.0006423817489059688 0.2675224661649723 0.21548190890887167
42958000.0 0.9239887504267689 -0.37016448503709554 0.03020566826950894 -0.03859625781552378 0.0006634280055496492 8.062058436512736e-05 0.2809921660219618 0.2105552947975573
43957000.0 0.9246876228663805 -0.37393187391518595 0.03164063767592047 -0.04430319887165171 0.002374983162421451 0.0006247300357559271 0.2879801038140796 0.2123179843636236
44956000.0 0.9208282997153483 -0.38228742039510083 0.03252016435253891 -0.049912020957719766 0.0007198182340487472 0.0018825904081026079 0.30380261754949417 0.20753461327710074
45955000.0 0.9151538567877561 -0.39449065172636877 0.0322932984878189 -0.05639534832037686 -0.0011227182911821424 0.00259372260967611 0.3086265315362208 0.19129074980228933
46954000.0 0.9135114129786365 -0.4022544972561216 0.035370987381764654 -0.06019393574878658 -0.0015911994733736688 -0.0009185443673532377 0.33289109796592964 0.18461416490626562
47953000.0 0.9076282744720146 -0.41167030064841154 0.03421847186371414 -0.06840087944904073 0.0012969218030996132 -0.002783625226632502 0.33407097737400726 0.1794745621763027
48952000.0 0.9025175240210349 -0.41995668806192465 0.03307635221254805 -0.07799407065387384 -0.0033988690801637807 -0.0025008011348379173 0.33475254456872094 0.16603320569321822
49951000.0 0.8999177833059336 -0.4273272561430344 0.033081030717755644 -0.08225615012836979 -0.002853345167502085 -0.0011346990643415114 0.3512322061389663 0.16878242775465305
50950000.0 0.8957916396416203 -0.4353959716777102 0.036115342029143904 -0.08955314323360154 0.0012475838489720318 -0.0010502717655369637 0.3537248978892185 0.14599881189332306
51949000.0 0.8927712519404388 -0.444228483717221 0.0406226729024032 -0.09970389842064531 0.0020923399815540055 0.0024460693314153187 0.36947590483429243 0.15665258150404324
52948000.0 0.888907787832546 -0.4536762961800511 0.03894843312443813 -0.10842580151491236 0.0011634263151786646 0.0007364431047988666 0.3716787494480161 0.14550573409236792
53947000.0 0.8835346156423982 -0.4595224450259635 0.03945899021113947 -0.11500094933611288 -0.0005334106112851552 0.0022062253995585755 0.3638880737580958 0.13153194587864436
54946000.0 0.8773916677454888 -0.46980405899139477 0.040022773626512624 -0.12411669144740739 0.0017796491832288836 0.0027352141400323244 0.3827769783911489 0.129374861757383
55945000.0 0.8758967440465857 -0.47778151093841 0.04005307393371084 -0.133828987997596 0.00013744511713018954 0.001394525249115651 0.38936914358888153 0.10771897726524782
56944000.0 0.8704861340652978 -0.4861257720601246 0.04571397656024353 -0.1464692533902235 0.003998848591742833 0.003634827121283261 0.4026287287798311 0.11411624672629739
57943000.0 0.8667243540640649 -0.49525709988472616 0.04443756844055874 -0.1558673637641333 0.0020761539431709826 -0.0029203911417917255 0.4055943375033909 0.10760509111815028
58942000.0 0.8584613943850476 -0.5018261851662181 0.049304993503715346 -0.16438377895570655 0.00041550382766648375 -0.0004889502117419533 0.42430456655728566 0.10279489667840486
59941000.0 0.8578158646624179 -0.508331548324977 0.04683541644987955 -0.175609045228332 0.0016966824151028353 0.0018126263498252503 0.4196588176540209 0.10783464442482853
60940000.0 0.8489340271696835 -0.5155303506520863 0.05069201003923537 -0.1748969420114087 -0.0015999310722421742 -0.0009394003811597093 0.4159990511760848 0.08407588122426762
61939000.0 0.8467005643420504 -0.5234559951045106 0.04772822507987527 -0.18385264272499527 0.001351605647327573 0.00030475568794890897 0.42504698438321453 0.08059905537253757
62938000.0 0.8412590215858018 -0.5345453611074551 0.05382673162687873 -0.2007971683555771 -0.0024541109614376307 0.001894453247206609 0.43901685983400096 0.06246493346176843
63937000.0 0.835737268270935 -0.5420757260024057 0.05277273411607917 -0.22079304622717089 -0.0029026108701544376 0.0017305552210089396 0.4349483574801101 0.051012488167549004
64936000.0 0.8294555094784276 -0.5472256897815397 0.05376952991246787 -0.2357186572505499 -0.0021775538443971165 -0.0009849546563407575 0.4391594473648081 0.05338073184667271
65935000.0 0.8254459652034057 -0.5603241281788763 0.052603744062732605 -0.24636372998733505 0.0028376800812033 0.0015022294804862646 0.4508279573221347 0.0299070069534138
66934000.0 0.8200646847718374 -0.5629045299871613 0.056069024177538486 -0.26029376448147695 0.0005459429166345433 0.0016351082738465877 0.44193311283643605 0.02591395758276906
67933000.0 0.8166394174674191 -0.5730804685622033 0.056640448700579736 -0.27363772687772236 -0.0005004879701758163 -0.00281713607679826 0.4452916098426879 0.01967995649174529
68932000.0 0.798731254458817 -0.5694203622427323 0.04904551656605646 -0.2813413065706113 -0.002435863768470849 0.0012413583392602622 0.4585473551736564 -0.005140109750253263
69931000.0 0.803190624548867 -0.5894163130477481 0.053931481466101897 -0.298653663601958 0.00282928327553676 -0.000715814080780744 0.4509194897796555 0.0013509438719422093
70930000.0 0.7962748421557916 -0.5959344171993839 0.05270639847498033 -0.31329529822165636 -0.00023345851939863166 0.002497884380050686 0.4494904571327758 -0.014668746385706767
71929000.0 0.7925863098474265 -0.604545203268903 0.048177923730115736 -0.3285024684599267 -0.004081714505764057 0.0022383016781558473 0.44898876266297927 -0.031873092743831495
72928000.0 0.7866175241436787 -0.6124616727470127 0.040200591692079825 -0.3466059338681418 -0.003480201437426936 0.0021641221137984547 0.4649285238864825 -0.03522035614281191
73927000.0 0.7796629759635102 -0.6182648362285558 0.035343411250667166 -0.36302271706748085 -0.0010419576664349804 8.33898733802265e-05 0.4696406244026379 -0.045782674931249275
74926000.0 0.77674822425837 -0.6261520549838263 0.031909097962660615 -0.3805263240690436 0.0008801365560512084 -0.001262653489108678 0.4745662145757686 -0.04215724674816315
75925000.0 0.7687374372318525 -0.6327401158320877 0.02175069647768678 -0.3988384280158389 0.0015763080242363458 0.0009497306906155596 0.48148571443738436 -0.055985691462029835
76924000.0 0.7609977677841822 -0.6437985332885529 0.007930151406116692 -0.42011037231484305 0.001391363522163008 -0.0013236953606076244 0.4742775571254136 -0.06921069072874546
77923000.0 0.7554944793423709 -0.6476279061893487 -0.0020067278284591388 -0.44387858348214154 0.000170584889873489 -0.0016927337244367938 0.4590381430662341 -0.07953728275031553
78922000.0 0.7500861541046624 -0.6576645024368251 -0.013932313167719753 -0.46844855013433073 0.0012402115417126985 -0.005635287297929238 0.4738036762496409 -0.08648955304154052
79921000.0 0.7403497601581275 -0.6629288494633515 -0.03202851391704477 -0.494223158786702 -0.001997029793537611 -0.004077867412131386 0.4695798125491692 -0.09493429765520521
80920000.0 0.7360803379160576 -0.673575107035869 -0.049932477981744286 -0.5207695368074083 0.0001104246942860246 0.0024887646791506503 0.4717939365569977 -0.11326396309529181
81919000.0 0.7293589942511588 -0.6792086009709669 -0.06480628499985905 -0.5476587420068423 0.003083093719806151 -0.001373535882236743 0.4781699947651139 -0.11393998858754965
82918000.0 0.7209026700068151 -0.6865604463607303 -0.08020029978644344 -0.5749092118745052 -0.002113887534256453 -0.002541711642144949 0.4736375089200291 -0.1318874462033038
83917000.0 0.7125946246954068 -0.6947943520209505 -0.0995320744858107 -0.6058802280298896 0.003843073164409495 -0.003532392857964073 0.4873489500857867 -0.13640229524198388
84916000.0 0.7090739704343332 -0.7001285892816336 -0.11587779004040591 -0.6407243004915232 0.0007786069314700576 0.0023971944331794993 0.4662909265437022 -0.1512269201829348
85915000.0 0.700350246124022 -0.7073525239730343 -0.13170613325843192 -0.6649811708936669 0.004056974125029619 -0.0021609373616188307 0.48330093106092453 -0.16601112092159204
86914000.0 0.6933652362144104 -0.716922020974621 -0.14802032698868225 -0.7018741175126517 0.0013736398321318776 -0.0009279745952237635 0.4641178440607493 -0.155481208595772
87913000.0 0.6856137977166411 -0.7220743671046389 -0.1658070427720011 -0.7281165224634062 -0.0024603530187360394 -0.0038751960467564035 0.4652993181675808 -0.18164917347949705
88912000.0 0.6777407027469876 -0.7294145589752231 -0.18176816972998547 -0.7644943219272535 0.0020256536303520033 0.00018039986416843427 0.4667484745657416 -0.18331898580221662
89911000.0 0.6725390426221376 -0.7386877899477551 -0.19261311534613682 -0.8009244833744664 0.0033327004414565637 0.002901158582224561 0.4852945380064582 -0.19579020387419355
90910000.0 0.6636734512383683 -0.7440091892485958 -0.20699826168835012 -0.8313572087105526 -0.0007122775610628376 -0.003840490783585657 0.4694828720150235 -0.19320280390958372
91909000.0 0.6542535134147528 -0.7497088872758891 -0.2238704837065145 -0.8605925104107119 0.0023775315150221473 0.0004706362292477003 0.4783575121662232 -0.21304567965612822
92908000.0 0.6469192328495225 -0.7564850699051406 -0.23901665773179884 -0.8943707393154812 -0.001740264881418789 0.002281371204648741 0.4701989535629929 -0.20574131903987208
93907000.0 0.641265464052522 -0.7618785648451487 -0.2542259293700698 -0.9261037098111228 0.0008646134208262564 0.00541849578897383 0.47949772239872185 -0.2368208639614303
94906000.0 0.6246745651374478 -0.7720243556361032 -0.27292466754055905 -0.959682468051217 0.0025040412958791305 -0.004675985789224767 0.47429583475991555 -0.24139490446029488
95905000.0 0.6207924387314289 -0.7778241052988041 -0.2919321686358067 -0.9893264191133252 0.0006661194553674436 0.0011884699198368381 0.47294318689314707 -0.25560292203211155
96904000.0 0.6141592299328967 -0.7848041708994872 -0.30724873497190136 -1.0290435713438797 -0.0021799646755187585 -5.568510177231461e-05 0.4661157341309201 -0.2529497361919822
97903000.0 0.6032472181347386 -0.7914874799879649 -0.3302106598951207 -1.0586726570440121 0.0024452821309802787 -0.0024402792837723607 0.45583761437072473 -0.2707203676726345
98902000.0 0.5983137901782087 -0.7984471607962461 -0.3441008581811392 -1.0968677903115778 -0.0006912526638148091 -0.0009987656741403013 0.4569977425113039 -0.29048915056602714
99901000.0 0.5865841485910852 -0.8031013397583594 -0.3701527279515535 -1.1262660717725732 -0.00441445192869754 0.0030286389235626237 0.47126389801303176 -0.29055128644451533
100900000.0 0.5786130869974259 -0.8068526387787979 -0.3959210605801525 -1.157784078334595 0.0015557839434912288 0.0023022627886657254 0.4631035849738551 -0.2966023180714598
101899000.0 0.5689149092407574 -0.8166156266124112 -0.4254416692398673 -1.1876961760376241 0.0002403441946299478 -0.0009427181417649085 0.45252800765333756 -0.31005928847770525
102898000.0 0.560666650227426 -0.8213388800901594 -0.4575320884146277 -1.224514638115833 0.0015934134967623 -0.0013813938886630926 0.4578289646833688 -0.32367478261667937
103897000.0 0.5501244260972245 -0.8287654329997117 -0.49234660145998743 -1.2628916462051683 0.0015981394501206954 -0.0018546837817989136 0.46535842905482944 -0.3247489554973523
104896000.0 0.5431816809437364 -0.8386034171413429 -0.5336671608974751 -1.2959004108432206 0.0007182729713623773 -0.0030780317221158165 0.4572165803264961 -0.321131118128631
105895000.0 0.5328434193643174 -0.83977472441134 -0.57767444206864 -1.3319710126788364 0.001209308600018607 -0.0007636362949212387 0.44474589459331915 -0.35163337363280556
106894000.0 0.5238733592004182 -0.8456849049143952 -0.6249984798086473 -1.3644309952272704 0.0019995293307126833 -0.0001539207283496573 0.45178548990294787 -0.3519597782973977
107893000.0 0.5156963735132649 -0.8534347809236902 -0.6687796201714378 -1.3992405669620742 -0.0021139264278856908 0.000775045107065675 0.4417784390190803 -0.3623362333839451
108892000.0 0.5068835352276356 -0.8552601870256409 -0.7296499751835034 -1.4401934266669576 -0.0012393179087927565 0.0017162303060328323 0.43124163853784697 -0.36507490890938116
109891000.0 0.493236843937176 -0.8628974533100059 -0.7852998359898009 -1.4706398062728996 0.0025266058960635757 0.001436797559740681 0.4537802162532991 -0.35861848014583564
110890000.0 0.48253966358348543 -0.8641165754299224 -0.8379989717179341 -1.4798787754068523 -0.0003023255184952024 -0.0003737186726290339 0.43302452434472966 -0.36926563760526193
111889000.0 0.4743273599861614 -0.8692611468693159 -0.9046590917103525 -1.540153138030696 0.0009930057318950994 0.0023998000530301433 0.42966664601428667 -0.3836240221190973
