! Created with skrf 1.9.0 (http://scikit-rf.org).
# Hz S RI R 50.0 
!freq ReS11 ImS11 ReS21 ImS21 ReS12 ImS12 ReS22 ImS22
1000000.0 0.9696181624637649 -0.000950400281200085 -0.009278194710694151 -0.03751260393316554 -0.02113205825069499 -0.0020831748880336043 0.3914897764327802 0.2882508252574688
1999000.0 0.9925607701494452 -0.01134304825433319 0.0026918002954481233 -0.020867511159750832 -0.010599169919050605 -0.0028269048850629516 0.23759214358215497 -0.04102801814037165
2998000.0 0.9999259102492648 -0.022947224558521093 0.007346526988560152 -0.017619162000187674 -0.004382540148600833 -0.00021202308742632832 0.19899852920676175 -0.14276210678799042
3997000.0 0.9967608553989056 -0.028489269287437124 0.01615621486368948 -0.006204611575940847 -0.003573230318113703 -0.005428713023794226 0.08408967864625236 -0.22846731867814268
4996000.0 0.9953467016449077 -0.036318723936325896 0.010872842512374728 -0.008425892279515377 0.0010880214618796452 -0.0024485872667702247 -0.05993800765056808 -0.21076141622726027
5995000.0 0.9975646002158491 -0.048640670731324796 0.00967140975511437 0.0011249387489008571 0.0003042687132857904 -0.005174333913233607 -0.12435765276930977 -0.1169739160227945
6994000.0 0.996497674482489 -0.058028218238036215 0.007575205922809883 0.00411135769246925 -0.002778433141683812 -0.0022416955179713908 -0.1677383548735124 -0.019270816108499744
7993000.0 0.9974809295530499 -0.06659873658669153 0.002854681058616827 0.0043825079186436515 -0.0007905551813718406 -0.0016177622531234732 -0.1686707333380572 0.04116067960277129
8992000.0 0.9932967107607109 -0.06895235979836102 0.0057518455680978355 0.007817991155050849 -0.00015612615072956672 0.0021694030335607005 -0.15541993023639705 0.06773364679443646
9991000.0 0.9943118139942879 -0.08392347204494441 -0.0002717656848752707 0.005767233065561012 -0.0009739042658482148 -0.0027392566114847017 -0.1555001472643471 0.10613494797080915
10990000.0 0.993544833805625 -0.09299827590957324 0.0020354611793331873 0.00014688938126205552 -0.0025623613940662536 0.0016701757794612049 -0.13439761637694148 0.11929057223937051
11989000.0 0.9912708620640436 -0.09639040945450854 0.00027205338467609254 0.0019034351416024875 -0.001839494900407659 0.0039160306988421595 -0.12789379407639725 0.1424811062062058
12988000.0 0.9905673300551374 -0.10681759633804036 -0.00036699162899999326 -0.007135656579606947 0.0019220687953245654 -0.0009164602993739412 -0.1140231641644508 0.17622358881241384
13987000.0 0.9884425718390216 -0.11862130645150036 0.002202699917796383 -0.0029042110667339264 -0.0015959741156571778 -0.004261287529931804 -0.08494177335844706 0.18053266136999202
14986000.0 0.9893011922477878 -0.12466038803527585 -0.0021785154234947963 -0.004135469894328249 7.020869751444067e-07 0.0005439809016168484 -0.09614252278064363 0.2069635163612742
15985000.0 0.990517754808201 -0.12973727165976864 -0.003140242738643595 -0.0033818025648160144 0.002627317626508315 0.0017612321720712222 -0.07686489545812925 0.22651180532557427
16984000.0 0.9864328716872761 -0.14253086549864835 -0.0013665842125814755 -0.003703534960874957 -0.0029051852744062336 -0.006003250239284814 -0.06630242513904087 0.2244329969516111
17983000.0 0.9887795625186704 -0.14693627000297363 -0.008280117310712012 -0.0015740140979506176 0.004096810673038909 0.0013342514182021652 -0.04952355893388335 0.23174421790830552
18982000.0 0.985117412727335 -0.15793399963086321 -0.004655739857875688 -0.0036611287818632756 -0.0005721488228827944 0.0012997861215114713 -0.024396979180532234 0.2385914620489901
19981000.0 0.9839977364431697 -0.16251816132272232 -0.006898497495155336 -0.007137419577454834 -0.00020676007734235255 0.0017754811008719256 -0.020825495332580674 0.2447293305932958
20980000.0 0.982810102038293 -0.17529801873232945 -0.003938329652074733 -0.003398213186968839 -0.00158481506545099 0.0038562009398266034 0.012790331298356205 0.2621093257067331
21979000.0 0.9808382778128196 -0.182287103052251 -0.00562217325414682 0.0023314839484877762 0.0005621411346674433 -0.003541479191427616 0.01493301127898849 0.2547454596694151
22978000.0 0.9783812098543946 -0.19240601823449027 -0.008974069774117898 -0.001865993662734023 -0.0031058212365713063 0.001472203537070429 0.029254349877561876 0.25863350622694115
23977000.0 0.9790076043278276 -0.20041914956731965 -0.0064036879918722275 -0.002612296121355968 -0.0007038682594041424 -0.002097365074779396 0.04064341099938638 0.26055698782328784
24976000.0 0.9774838400522707 -0.20810135308706362 -0.004727063765432395 -0.0009559101388834121 0.002862619741626462 0.001540738797379506 0.06626152116975358 0.25664612854574737
25975000.0 0.974062562688573 -0.22311040385551206 -0.004570597229866843 -0.0026855886545846044 0.02757932075800845 -0.0020615944371491627 0.08095468820372902 0.2604087577118846
26974000.0 0.971688906031892 -0.22551560503110396 -0.005779566521788075 -0.004435170756659374 -0.0009495119714330666 0.002956494162758704 0.09704650130255946 0.26770303961279995
27973000.0 0.9707385366249319 -0.23212238043602246 -0.0019811945113800797 -0.003335660823926415 -0.0025157980162437837 -0.0028695980676505628 0.10628765443508637 0.2620414358144293
28972000.0 0.9668921573331899 -0.24192671848427555 -0.0035640802734318295 0.0006555324462527377 0.0032466586435149223 0.0013912559653025197 0.11713235640395925 0.25582431009827006
29971000.0 0.9657316721160184 -0.24929580221295192 -0.005191653228582345 -0.005871258651622368 0.0007809346008804001 0.0011670404930694436 0.15219832184430784 0.2668365357532144
30970000.0 0.9628084667096628 -0.2562747761625947 0.0014842089118515815 0.0012419422252586247 -0.0008575213983568944 -0.001135551160813125 0.16637824912003848 0.26056982252699645
31969000.0 0.9620744769001967 -0.2658945727204918 0.004087759341430219 -0.005265799651852507 0.0002528919912692487 -0.001065736208809607 0.16112368459528106 0.2533864183582861
32968000.0 0.9615359013758674 -0.27296277848325423 0.007134725944069643 -0.0067185319153457565 -0.0015119121936133426 0.0007252036082916921 0.17086386309091386 0.24244552537559738
33967000.0 0.9568780307627492 -0.28520288294405977 0.009559466804865954 -0.009680674856086527 -0.0003847366559056523 0.0024238140453185625 0.20250116791311784 0.24931337049348806
34966000.0 0.9534334824890967 -0.2938690003755302 0.014430468701466645 -0.009066266333303447 -0.0012494973461474597 -0.0020830880332262615 0.20371303462679902 0.25026588716031706
35965000.0 0.9510919042002515 -0.29983357598798016 0.013894454578017138 -0.01261221476464061 5.378216183308188e-05 0.0007804657836523778 0.21179282292480264 0.2629130092778659
36964000.0 0.9501933609779377 -0.3091819050501669 0.01576627572471212 -0.01698460670202149 0.004883711512131894 -0.0019437202945563998 0.22152905858083655 0.24715762709106973
37963000.0 0.9461284666829862 -0.3170701967973363 0.02014377755169569 -0.02083827680970288 0.0009326967911888052 0.00047431427104305675 0.24821458869052002 0.2413976007879862
38962000.0 0.9426727638412488 -0.3262525792218374 0.02178993226356991 -0.022643773472392693 -0.00327914850011044 0.0005479650716491434 0.24616670216672418 0.23397906680803587
39961000.0 0.9400597683364604 -0.33490961682698883 0.02600500520168862 -0.025821615470766886 -0.0013262505693284509 -0.0007626645357035818 0.2600557648970629 0.23016440488660175
40960000.0 0.9377698330226444 -0.3411491191219489 0.02153359689776903 -0.022420494417929145 -0.0013908979903914061 0.0006065005767723124 0.27345227343061745 0.22435679759843877
41959000.0 0.9350676924988124 -0.3510212252256926 0.027475438112071787 -0.028953650806931297 0.0049086761686792605 0.005415217860616534 0.2725165406868169 0.220744277651971
42958000.0 0.9309478792260699 -0.35906248602921864 0.034127545693230926 -0.040452567733166654 -0.0010365774521473754 0.005197778856504446 0.29689874192327753 0.20514074959006814
43957000.0 0.9278703633987299 -0.365541401726684 0.03205559041083802 -0.04560686581801681 -0.00014824162895289402 0.0008151358547919436 0.2869661500737494 0.21395981285243804
44956000.0 0.9245005839789637 -0.3749816307188328 0.03536532446402144 -0.05350684245733892 -0.001818849448862265 0.005421979819666746 0.3069361860033907 0.20634114919640228
45955000.0 0.921683070200838 -0.3843538270528308 0.03455973495242722 -0.055804199037957525 -0.0025551466212061823 0.0003941262104499397 0.32016431490159136 0.18932720372042314
46954000.0 0.9163702626556076 -0.391658942464605 0.035571171887656586 -0.0662350956130418 0.00035308239319996353 -0.0011636871904477535 0.3277142724107668 0.18236131383405235
47953000.0 0.9158115956624334 -0.3989015722095207 0.03557994214852629 -0.0729886149519055 -0.0018109342698033547 -0.0052015238383623505 0.345281426627913 0.1887621703382146
48952000.0 0.9082505225461318 -0.4115077613662695 0.03971085304761635 -0.07598266384722649 -0.0030411788403727743 -0.0012909898223335868 0.342940785772423 0.17349919497159946
49951000.0 0.9077365107276822 -0.41455539651647577 0.03690815673540961 -0.08744933050403782 -0.0004949974241494039 -0.00048200941952876317 0.3589742877660708 0.1554708129902272
50950000.0 0.9029746075905533 -0.4233913518846202 0.03500099903354195 -0.09454766629776748 0.0021714799577898635 0.0013495160040240101 0.35977180081477644 0.14282181950420889
51949000.0 0.8980963308142843 -0.4337049991387229 0.04146646392668328 -0.10276453732712017 -0.001418907910270566 -0.0029853636080503856 0.3579671263187928 0.14235083555801653
52948000.0 0.8987519966918704 -0.4395968719717828 0.039459120008993154 -0.11205898263060342 0.005784877881223842 0.0001684895790248348 0.3788063667361854 0.13789721602023244
53947000.0 0.8901882125093116 -0.4505916508796815 0.041390390134473265 -0.12023206396700548 0.0018946939784393808 0.003708470960836225 0.38164281002387973 0.1329504374647818
54946000.0 0.8854569314380658 -0.457371150372741 0.04246646518771882 -0.1290847806958677 0.0007342870679815357 0.0018662417185292693 0.39162934103699765 0.12159519672637975
55945000.0 0.8833414399127457 -0.4665636444193624 0.04635140689205919 -0.13826593302537238 0.0017989571322125347 0.0005649106851376179 0.38942670373233174 0.10277728517557128
56944000.0 0.8791311271111785 -0.4731914779803511 0.04339103469473179 -0.1507713782159286 -0.0014724548438759405 0.0003940031333724141 0.41227150949026026 0.10721141830622431
57943000.0 0.8753951277929302 -0.4823750941139058 0.04666175830360165 -0.16367732309472888 0.0005227384818711092 -0.0009236659714372333 0.40312767833897634 0.10019701334788794
58942000.0 0.8708216688005055 -0.4875301950828304 0.04718525811603807 -0.1712473342296833 0.005703950427197689 -0.0019143271978873696 0.42854043202150216 0.0903005075123294
59941000.0 0.8671090778296208 -0.4984955163875243 0.04973858473867032 -0.18327374127300428 0.0009940311254389323 -0.0019805083280429823 0.42732299973106214 0.09798687656521496
60940000.0 0.858805020376568 -0.5051621121066013 0.04909107292120747 -0.1866263782484531 0.0023166303631518884 0.0006898032929921028 0.4128534174143268 0.07620839723620769
61939000.0 0.8557834702191721 -0.5112211873050954 0.04931876433978775 -0.19496176033675547 -0.00025841363570875303 0.00023728209023393204 0.4226609441821697 0.07243425811621759
62938000.0 0.8510984202697153 -0.5203619898603233 0.05216610803277601 -0.20942480336711014 -0.0009733723019542104 0.0032655825438370656 0.44846460247209063 0.060353297170823265
63937000.0 0.8462094470702753 -0.5289092328301888 0.053694940383853085 -0.23116274083946672 -0.002037307166864052 -0.0019518557268262348 0.4479837199731178 0.038645626044057864
64936000.0 0.8392932930013219 -0.5344425399657079 0.052716886628976216 -0.24677675883540506 7.501679140796297e-05 0.0023906511451842684 0.4412376194615651 0.04183560443092763
65935000.0 0.8366711964334419 -0.5455641497373456 0.05268609867042907 -0.25993884350140867 -0.0005198414654620448 0.0017573366673711882 0.4525638704615119 0.031775717532509906
66934000.0 0.8352817283338849 -0.548117475015674 0.05469939591762993 -0.2720859602556633 -0.0010997166406833505 0.00184790284244955 0.4431070321672236 0.009065619943230385
67933000.0 0.8287706746131793 -0.5582249275750909 0.05433130445777047 -0.28625409522801076 -0.0027299602230148375 -0.002275699122897572 0.45026144192151424 0.006390375491225911
68932000.0 0.8126983326395527 -0.5521574774553824 0.04880059662042393 -0.2945241775859847 -0.001270194725390159 -0.0007464738891053178 0.46021649368134576 -0.010708501991308152
69931000.0 0.8150376204747699 -0.5748473481115006 0.04955169184441043 -0.3155288295306731 -0.0005111655435345312 -0.0010861802373395713 0.4616541580109717 -0.01279545842050231
70930000.0 0.8095122210651643 -0.5814568524629704 0.04612228942826393 -0.3263583107200665 -0.00017190572800762942 -0.00023747144564803353 0.4536389232461948 -0.03305844520365392
71929000.0 0.8062247269293628 -0.5897549272610398 0.044716067538030625 -0.3476197486233115 0.001566784102357693 -0.0023498325810787455 0.45311545442649737 -0.03731581286745291
72928000.0 0.799280860432217 -0.5968517598355011 0.039125305211554245 -0.36333563124012863 0.000622601221839639 0.004042178320140366 0.4689572296956782 -0.03928704405226902
73927000.0 0.7941840149389362 -0.604559507572639 0.03131340729754374 -0.3849689317797842 0.0013023309964877432 -0.0011642220615016886 0.4738400258697887 -0.05165793335788851
74926000.0 0.7884940543833568 -0.6131288332333554 0.0256581344401969 -0.4040952843117207 -0.0031816486886190585 -0.005471181971037759 0.4667714667215867 -0.05553948247164948
75925000.0 0.7809770842413256 -0.6193685299302165 0.015316036780981639 -0.4238132051474135 -0.0003892084504772742 -0.001067254411994197 0.4762073278743786 -0.07699955713342826
76924000.0 0.7766852780469556 -0.6260648214826665 5.643128549396905e-05 -0.44295305023845366 -0.0008238229779796092 -0.0012281660748831196 0.47246140950593346 -0.07604515689816559
77923000.0 0.7682316819012631 -0.6348394732120526 -0.010030697602105851 -0.4672476610126316 0.001062775610033764 0.0025495436851949334 0.4676880029416874 -0.09966406116758544
78922000.0 0.7628613472693394 -0.6435665960166116 -0.024227875102682234 -0.4967707979676833 -4.700032963928704e-05 0.0034285532764345076 0.4667625455413186 -0.11179804364920033
79921000.0 0.7565230833729261 -0.6470580937202786 -0.04281896248795018 -0.5196530258720192 0.0024841731750667945 0.0012708233475501472 0.46758112936981044 -0.12234231048272949
80920000.0 0.7519429297267733 -0.6578504562390428 -0.05096991738498108 -0.5466870622971869 0.0032836767136165132 -0.004674151711172055 0.48608501403889687 -0.12627518393890946
81919000.0 0.7465176070103137 -0.6625314583841244 -0.07473537179183383 -0.575811353133243 0.0023941017038397626 0.001391791451393328 0.47281291858321206 -0.13530563521828962
82918000.0 0.738516093598492 -0.6715795989009966 -0.08666186108530312 -0.6058808527204269 0.0007251362924927051 0.0021567519020394845 0.48532495421518324 -0.1527262799292587
83917000.0 0.7280436403077857 -0.6786755606763716 -0.10682858666826402 -0.6342511812605959 0.0014493405878305678 0.0007131015254842357 0.47678280591507916 -0.14767713837877527
84916000.0 0.7255916907727498 -0.6846547113892828 -0.11867531061504535 -0.670901356470847 -0.0002631598031001196 -0.0006367870128404837 0.4879807167792725 -0.16833199574527544
85915000.0 0.7190684108718519 -0.6915937806597378 -0.14538803705722556 -0.6996832551238074 -0.0007710418888381191 0.0009554496144841682 0.4680305321581506 -0.16862759558494078
86914000.0 0.7097781863525562 -0.704047276721582 -0.16017911733651172 -0.7358040833953668 0.0014014469791786752 -0.0013801871543203715 0.45649110509707536 -0.17083923049537236
87913000.0 0.7050849988430559 -0.7085361288596989 -0.1819254997287818 -0.7642255844490115 0.0047598508467350505 0.0053828165604389334 0.4711975589496875 -0.18534546102037605
88912000.0 0.6966257751264383 -0.7147983320178419 -0.19406368689234235 -0.7971885051446431 -0.004659408629961191 0.002797886620923581 0.4769256598942885 -0.19643362821675292
89911000.0 0.6891402356889228 -0.723199990635105 -0.21045721435920328 -0.8368644871525881 0.0011249234452204871 0.0003638183780655805 0.47673817824756404 -0.21104199361073586
90910000.0 0.6846273434228876 -0.7280492178353873 -0.22541603147871123 -0.8735694257575574 0.0012984215094978089 -0.003066310353449799 0.4654645969009468 -0.2165675821835741
91909000.0 0.6733020410394623 -0.7336317531719125 -0.2503283174157285 -0.9022050541760506 0.0036526669395913667 -0.002197930459322187 0.471319792461873 -0.22017452037576224
92908000.0 0.6657754586066151 -0.7430743895998241 -0.2671386581871912 -0.9364332702835514 0.0019423986972631647 -0.00297510008952142 0.4681775961781542 -0.23861074017287065
93907000.0 0.6615087357793988 -0.7455135489637605 -0.28141260885019753 -0.9637514580477301 5.1559497581302826e-05 -0.0011038083972746372 0.47211678099877147 -0.2557032763035273
94906000.0 0.6513081822643589 -0.7566959978270643 -0.3031860183257669 -1.0009531597476315 0.0033455334881100063 0.0015255570791138868 0.4591792761737214 -0.25552866904239396
95905000.0 0.6425731112226596 -0.7615791722399133 -0.32663910844602123 -1.0340366995685348 -0.00057689429262905 0.0005616403428227249 0.4728499334982595 -0.25741407781372716
96904000.0 0.6350370916349484 -0.770576535301216 -0.34038897873577506 -1.0753542093706687 0.00279477571482389 0.0008607561739189647 0.46496467457384116 -0.27049378509578
97903000.0 0.6248254085504124 -0.773948012715202 -0.3684252698757234 -1.104894429752454 -0.0008009252136373452 -0.0017866814464388928 0.45279351499244186 -0.2891422509921186
98902000.0 0.6204634164187456 -0.783153020812011 -0.38584789545216747 -1.143788176189601 -0.002042335558833551 0.00036994307641182567 0.462625811664522 -0.301542083674472
99901000.0 0.6101051398991125 -0.7870210445354587 -0.4130892798992307 -1.1762071558196432 -0.002115188072021164 0.0016462143769507642 0.47386358647386884 -0.3111380956651279
100900000.0 0.6007234453168034 -0.7915353078016859 -0.4447596234463596 -1.2033428727872417 -0.0016871375211491297 -0.0015407761343007522 0.4609889612297597 -0.3121407466789735
101899000.0 0.5928789155949272 -0.7989392997662482 -0.4730056978429257 -1.240018468988719 0.0017026992601037803 0.001596449701569717 0.4508381427707607 -0.3104220763541331
102898000.0 0.5854692269643188 -0.8039961938403707 -0.5062452670207668 -1.281054552677236 -0.0008504878287011778 0.001177711292264431 0.4585250192220201 -0.33958089050540835
103897000.0 0.5751857561812584 -0.811524909714541 -0.5450874151865811 -1.3130969490792412 0.0014144002949361308 0.0021092576053399897 0.4561557553780682 -0.33229287099855764
104896000.0 0.5670585922787368 -0.8214960299251952 -0.5928668420602052 -1.3445135767282381 -0.0017595189626706492 -0.001688642336317079 0.44442810267527516 -0.344534116238806
105895000.0 0.5571170977261546 -0.8252553492472413 -0.6324455952527379 -1.3929044266170636 -0.000832744668171537 -0.0006760210199630457 0.4508964989272793 -0.36475192600467793
106894000.0 0.5479520448716416 -0.8323117674795824 -0.6871362249528606 -1.4268760888239496 0.003653161015630094 0.003089984091687286 0.4287704303113497 -0.3653458977676088
107893000.0 0.5431473114301884 -0.8384862664225086 -0.740393337691178 -1.4684265882796175 0.001700932610766162 -0.0010485840121955933 0.4355472504639433 -0.37984471476551973
108892000.0 0.5318590089694726 -0.8404132080792225 -0.7953978769377256 -1.5004832527765708 0.0016628994264852753 -0.0002140376742046661 0.4184746084838422 -0.3737037798568473
109891000.0 0.5200457884287554 -0.8494555374929957 -0.8530432457481376 -1.5422523731297946 -0.0015505014572987392 -0.00031543171613438977 0.44832107805289945 -0.37498927297655604
110890000.0 0.5031075173321727 -0.8627999345183434 -0.9344004925046013 -1.5403407313341937 -0.0033124616234035354 -0.000704871999397633 0.43317549664682875 -0.3892825947159381
111889000.0 0.4997095247358363 -0.8567662672329511 -0.9756523520351571 -1.6056497656613244 -0.0016419108027195064 0.0031636399366414924 0.4333857274038355 -0.3952810842775661
