! Created with skrf 1.9.0 (http://scikit-rf.org).
# Hz S RI R 50.0 
!freq ReS11 ImS11 ReS21 ImS21 ReS12 ImS12 ReS22 ImS22
1000000.0 0.9801921813925881 0.0012708010838608807 0.011162720482843204 -0.03626394523148182 -0.002597458253483161 0.009344002680859642 0.33314980885800244 0.2868026968472864
1999000.0 0.9950827966798128 -0.0181987048957448 0.005121680612052612 -0.029902358070990395 -0.0008274562776895811 0.0008141706182595284 0.2662725570374949 -0.0663835495285091
2998000.0 0.9962546045491272 -0.02070061998473231 0.015037353968095458 -0.016802491416400243 -0.005874231715257654 -0.011006224922122984 0.20162663500141012 -0.1427223797552722
3997000.0 0.9989534322314958 -0.030183105838771818 0.012369719487228934 -0.008718072956431877 -0.0035351144061656252 0.000971992072431282 0.09002942139719758 -0.219390038896769
4996000.0 0.9941741347308651 -0.03731298429683461 0.007572358376798076 0.000480048254892157 0.004162862983565758 -0.00380387419955734 -0.04566905588666682 -0.193653034142072
5995000.0 0.9943463926125873 -0.05047492609181587 0.009362321558916828 -0.0010041325914146844 0.0005967710634495123 -0.0041656926202602055 -0.1236135723511863 -0.09334675042586127
6994000.0 0.9976468203515906 -0.06019103175989765 0.0034633234329510924 0.0035718828923233 0.002586362711072634 -0.0011640601106785748 -0.14258010704007737 -0.01568455015899646
7993000.0 0.9949408851372498 -0.07185741083191019 0.005034472692379695 0.009964961887216787 0.005970203743597212 -0.007917474874790435 -0.16543418875820712 0.03864741041614428
8992000.0 0.9926408653762068 -0.07346257785550073 0.0006797698713436935 0.006275869641505422 -0.0002579052458183441 -0.0026394945629609435 -0.15610028309394852 0.06586943530651476
9991000.0 0.9938141136942108 -0.08469498497095528 -0.0013071662123718818 0.0019936003882507014 0.0013910476475112185 -0.003138655931374687 -0.1421645396554819 0.09791882348611483
10990000.0 0.991035628878772 -0.09542985202679957 0.0009122818620592213 0.000722177093677001 0.0017201989640290816 0.0014257937598942123 -0.12588551465981648 0.10727052301463404
11989000.0 0.9905477085880426 -0.1003477211299692 0.003739200231716446 -0.0014994244829372623 -0.005546431196019514 0.0012619397051846588 -0.1225590449721484 0.138487829485175
12988000.0 0.9907270067878705 -0.11062817374496754 0.0011706873265568691 -0.0015690582590965607 0.0006143115775607979 -0.001950612333505498 -0.12755287231614645 0.149742220438662
13987000.0 0.9868539377568925 -0.11874879088106756 0.0012789427306101994 -0.008244909779592456 -0.0039148049614864695 0.004834389964206542 -0.09389135232290856 0.19262584812619374
14986000.0 0.9878490920434009 -0.1280971420017971 -0.00033397246657934995 -0.003057098939177943 0.001320075655908468 -0.0013868989820379231 -0.08760330134260169 0.19956206659863324
15985000.0 0.9894313104795688 -0.13524587019455842 0.0006094513417751225 -0.0026679850412004756 0.001883527141774433 -0.0027435948910688387 -0.0695102573033423 0.22206735345805145
16984000.0 0.985317679975611 -0.14541413257479258 -0.0007397013506867435 -0.0020752529173190446 -0.0050278773672327755 0.0013202414458228539 -0.06167714036389928 0.21458001446120714
17983000.0 0.9860528668031846 -0.1530871101504667 -0.0034715557281163427 -0.006092411472896639 0.0009483140092645893 -0.0010958715360194005 -0.04767614279169482 0.22417050265248084
18982000.0 0.9828195697487088 -0.164092489285655 -0.0031530138664403276 -0.005087019464690008 1.9659091691661356e-06 0.0011490939929803604 -0.020447092965522346 0.2408828830608337
19981000.0 0.9824130944940123 -0.1699570603614298 -0.005485300776883925 -0.0025863923474826103 0.0021547527089317733 0.0009816217050575976 -0.006221907199780527 0.24090944320671975
20980000.0 0.9801063069550399 -0.1787256411373399 -0.003708733249805644 -0.003526040481756564 -0.00025905590242941316 0.00043586858674201604 -0.006870059110204236 0.2575976225136932
21979000.0 0.9771156624392306 -0.18779496361975126 -0.005290476970570746 -0.00454242459071811 0.0025808736030624962 -0.0008425505159835875 0.018733472002788198 0.2475559136402941
22978000.0 0.9753207105036358 -0.19798699101376094 -0.0052636033059349045 -0.0018747368210901359 0.0021385787771790146 -0.0007569649933778387 0.029311502178822897 0.24360551825494606
23977000.0 0.9763186480610531 -0.2040383836493461 -0.008686066780385646 -0.0031953861060568163 -0.0015915095179381466 -0.0011237310415363134 0.05201882369812791 0.25964742025774695
24976000.0 0.9724533306836001 -0.21423447491562309 -0.005254369014142121 0.0017490761094140967 -0.0022147746133374083 0.0034770364303406617 0.06609609749185079 0.25003330425772835
25975000.0 0.9704771267872913 -0.2281146335347293 -0.0020853941149019356 -0.0008751186944959936 0.026281696089673384 -0.012050858620863773 0.07949951780605102 0.26056384249086706
26974000.0 0.9683802238531058 -0.23192261893185098 -0.0031468068345362954 -0.004321273218406314 0.0026725714292330977 0.0010368921895467038 0.08354084100099818 0.2679121416920217
27973000.0 0.9693433692834251 -0.23681447423512228 -0.006059156382205786 0.00245341394967806 -0.00014275405174300117 -0.002372426762906488 0.1059311832042421 0.2567322989632378
28972000.0 0.9658151951184765 -0.2451785889984261 -0.003378103599674842 -0.00437743398464944 0.0006120897148250271 -0.0037889770062180922 0.12037406467995389 0.25130593049394256
29971000.0 0.9637120876840607 -0.256929294066732 -0.0007517010012219847 0.0006088350099015871 0.0028039578185793438 0.00018839189507982628 0.14987855754994156 0.27261152185252335
30970000.0 0.9617292870806788 -0.26200335148293263 -0.002213647905842181 -0.001019399444813232 0.003540911370352977 -0.00012544043824063808 0.16554817871965677 0.2550396330369156
31969000.0 0.9578787599586083 -0.27164724708555166 0.004852244940503279 -0.006376233667092222 -0.0013981683334939666 -0.0015094373838336933 0.15046117648736115 0.2481970688062999
32968000.0 0.9562110398306936 -0.2833552534115151 0.005142525988546791 -0.009971967192044951 0.0002373198489314615 0.002482592149727206 0.165461894520002 0.2500702108445781
33967000.0 0.9545668981496113 -0.29146888667922977 0.011046630865417108 -0.010474391177687326 0.0016881741037416474 -0.0006160436571965383 0.18513761321565703 0.24442622304247508
34966000.0 0.9517340700056107 -0.29891718552561586 0.014671247401435019 -0.011162746809629169 -0.002743331513685908 -0.00219073373234124 0.20224063760225774 0.2509819415301274
35965000.0 0.9485401562351249 -0.30825664544247033 0.01581303200028912 -0.00964622044781438 0.0033322728447181755 0.003433023275839218 0.2153100321862944 0.2443557422446562
36964000.0 0.9475156727734849 -0.3157794442749726 0.015320351302087762 -0.015288604677687816 0.002319239050642165 -0.0026980567950612953 0.21845410105473848 0.2513964349595398
37963000.0 0.943141134462423 -0.3242250762000583 0.021013326265762633 -0.021489175845029757 0.0010777067567020497 -0.0001417724308169599 0.2356540488366971 0.23233436097114774
38962000.0 0.9406379326780702 -0.33297939261180465 0.02299272590074937 -0.025398882570952 -0.00042813852341141507 -0.0008580587433667309 0.2409770781705623 0.2306284596171485
39961000.0 0.9366590824947695 -0.3431795092018999 0.025803742439183777 -0.027510689512119938 -0.0010631542693756856 0.00113804311008338 0.2502834688958641 0.2292519772291027
40960000.0 0.9331520351464905 -0.35003457919463155 0.021946234583334043 -0.02319973879407423 0.0006795325117520495 -0.0019514639102122665 0.27039143860304216 0.2282551610263769
41959000.0 0.9292914892315517 -0.36291845330708233 0.028104187556441097 -0.033951960196612826 0.004682160575561872 0.002100622598458401 0.26545870594797943 0.2165615911615543
42958000.0 0.9268741302990837 -0.3690020513863264 0.028759802034693468 -0.038809489147697385 0.0016516463427189002 0.00040809230669455314 0.2756630218605053 0.20551385626213764
43957000.0 0.9243698049495593 -0.37550638710082385 0.032797592937233035 -0.045340819063880634 0.0011432867510375135 0.0008159354845274758 0.2896535523235808 0.2038019338655319
44956000.0 0.9204222324329576 -0.3838580538221525 0.03396530562337846 -0.05136861032927108 0.0030632274891631245 -0.0005519351672763571 0.3038062685163719 0.2006952827052947
45955000.0 0.9167208915738939 -0.39447191729192216 0.03440831515598726 -0.057572363228256124 0.0010535001190901702 0.0018937257794033953 0.3094089323014845 0.1899766500943086
46954000.0 0.9123422177223715 -0.40239656573512794 0.03433871436910145 -0.06269590774649703 -0.0009306043111740338 0.0007966220135624561 0.32582696068241157 0.18076060156312332
47953000.0 0.9102394997061706 -0.40882682341507437 0.03494170432003275 -0.0712230491576386 -0.005284815949864393 -0.002484652891443575 0.340192844380868 0.17250847673681013
48952000.0 0.9050641699539627 -0.41917756067034967 0.03472281269399872 -0.07693308941793174 -0.0009849030184671342 -0.0027358875008330163 0.33880552217846016 0.17466096591792035
49951000.0 0.9003445528760498 -0.42778156081395796 0.03489061170924547 -0.08581384680111166 -0.003027044260159304 0.0005581217514777705 0.3540392131932227 0.15917170892631585
50950000.0 0.8960271270492108 -0.43434151889030514 0.03741561612052704 -0.09689142586220598 -0.0010135926618634742 -0.0007980663810370145 0.35699919990910023 0.1432434419939087
51949000.0 0.8928064118198238 -0.4444084053192638 0.040863210824932356 -0.10172317193303171 0.0005369708823714572 -0.0015039244285964702 0.3625071008571547 0.1435303792830656
52948000.0 0.8898577093341558 -0.45123528631919857 0.044584319259136466 -0.11230753510143204 -0.0022238284292809035 -0.0004033885189777094 0.37744946509944227 0.1394719424262275
53947000.0 0.8845255166840904 -0.4597754373688777 0.04376266439385526 -0.12038961345062452 0.000808533674858037 0.0008157870913691623 0.37738070290870773 0.12828094224837008
54946000.0 0.8788712055847148 -0.46967604031190474 0.042549354818536646 -0.130134776472572 0.000752981345681281 -0.0004858618951759925 0.38567171127888716 0.12161812362150098
55945000.0 0.8765081008320524 -0.4776854074480279 0.04512360522815472 -0.1389249244563899 0.0014665904879077934 0.002928564503451884 0.38688735453704726 0.11307636726339017
56944000.0 0.8713845134840446 -0.48500169892194694 0.04739604379942835 -0.14846792762402483 0.0019079164468723826 0.000489645645015722 0.4043284837758347 0.10840163558348453
57943000.0 0.8681722386251445 -0.4951845995551609 0.047804908454778215 -0.16014056784522238 -0.00112845391964918 -0.0042622286453483935 0.3979072338770036 0.09635377622445084
58942000.0 0.8599584448517427 -0.5012187908131259 0.04843792353866539 -0.17338672536706035 0.004117513648240746 -0.0001958427079882699 0.41801153065119767 0.09372645525252093
59941000.0 0.8599620067264494 -0.506739157907713 0.05432225188811391 -0.17986373268698252 0.0006980859172012406 0.00310401788549314 0.4218725868292874 0.09070533725732641
60940000.0 0.8501929191741586 -0.5159215551012793 0.05208164869720609 -0.18313110600602733 0.002068270080074174 -0.001014128871135208 0.41404005678600986 0.081071936006782
61939000.0 0.8476185811409278 -0.5234163825183927 0.05035041847922347 -0.1927622596716667 0.0007615129923179264 -0.001056224330041681 0.43008318301662674 0.07349461579120418
62938000.0 0.8403505174305642 -0.533977064354063 0.055907102125318145 -0.20716192324710456 0.0019834623111031416 0.0011816671939397256 0.4466792112799317 0.06179838377941705
63937000.0 0.8364601811975013 -0.541482765716549 0.055549497980476405 -0.23038366823209724 0.0019359769515457333 0.002596132116203582 0.4374532288800112 0.04354499329443676
64936000.0 0.8299166554674134 -0.5474598123495299 0.0567798600653864 -0.24521030103760963 0.0023042234451628256 0.0012959970181146093 0.4356464899643473 0.04715135986367572
65935000.0 0.8258302199802674 -0.5585833234033605 0.05475015578018134 -0.25999368163762343 -0.0007161956497078502 0.0020276566230443336 0.45318344519605613 0.015802488677204955
66934000.0 0.8227477098538281 -0.5622658106361093 0.05735362446086016 -0.27163871824392527 0.0008848800777610342 0.004522484978336757 0.4452004670825475 0.01925498792223911
67933000.0 0.8188073047138111 -0.5729129517363907 0.05922581101201245 -0.2860533988981417 -0.0007613293720573468 -0.0013169162383810773 0.446785368894706 0.01597332269352432
68932000.0 0.8037903822112541 -0.5764668987241904 0.051251771236894735 -0.2954452801272869 -0.002611909877870255 0.005773604292500811 0.45822072410310877 -0.010797991066059822
69931000.0 0.8021027252782501 -0.5895934434431951 0.0515537932539981 -0.31655613680137995 -9.890156688095241e-05 0.004611600028849476 0.44891346900431095 -0.016761449064908687
70930000.0 0.8008706753818069 -0.5927171983758261 0.050895285627491134 -0.3294102876443541 0.0019632344281275763 0.003161881357912499 0.4517767316684487 -0.027769886268844187
71929000.0 0.7937490130559187 -0.6034287274523437 0.0435608813344067 -0.34690054413854665 -0.002240113417794261 0.0012720555198253393 0.44756797425785444 -0.03793844024482952
72928000.0 0.7882220936354821 -0.6141228595956165 0.04221347906447089 -0.36232984755132097 -0.00010175446622103258 0.0024941415454228077 0.458330361865234 -0.048610741116790625
73927000.0 0.7813654200347219 -0.6187717535634305 0.03403612649110983 -0.3844619448893365 -0.0010432102537402445 -0.00247049086162876 0.45797269006789953 -0.043111436791315835
74926000.0 0.776636869877792 -0.6282281072957699 0.027064006520507698 -0.40103377394784945 -0.001089813885897111 -0.004141555393207466 0.4589440102357228 -0.04557099960504253
75925000.0 0.7707427598004686 -0.6335701528166848 0.018199509659862025 -0.4216608405393849 0.00017178696896011603 -0.003282297742184809 0.47181274143370777 -0.07111916038459162
76924000.0 0.7639055153409783 -0.6409959373230335 0.005370835133772619 -0.4461834762148032 0.003449214064882104 -0.001228488712043978 0.47540793376069623 -0.08003571482397995
77923000.0 0.7554578528589705 -0.6504637320832841 -0.006817013359577068 -0.4702529655715691 0.00036664468394897553 -0.0025599157292873834 0.46263980866575966 -0.08532254937417945
78922000.0 0.749871721468046 -0.6585344338389215 -0.02673834629638169 -0.49560671348013924 -0.0033920441031295157 0.0019297694826129572 0.47344091942517513 -0.09651976557599376
79921000.0 0.7412816673234994 -0.6624367772784756 -0.04136245651454939 -0.5208763975502461 0.0021371864580673125 0.0012954154820186826 0.45979315710703106 -0.11526245018456381
80920000.0 0.7376845300055888 -0.672910599895286 -0.04886991466038238 -0.5532233911884845 0.0008352545297470906 -0.0032497713210356766 0.46606066445770644 -0.11109098471631781
81919000.0 0.7319989999410941 -0.6779030823165199 -0.0687456007064278 -0.5810633915748886 0.004698846386123796 -0.00013659278096351803 0.47066254603418456 -0.12282662431500393
82918000.0 0.7198514390995346 -0.687215545268971 -0.0843277176048445 -0.6112590311746384 0.010893224576880965 -0.006452850224144099 0.4797814001525044 -0.13595741838054437
83917000.0 0.7139647329588477 -0.6958158750732849 -0.10137836605242305 -0.6420390315008434 -0.002181215261199529 -0.004055944588047311 0.4822588106249029 -0.1436113144033368
84916000.0 0.7085628819371186 -0.7024022045850689 -0.1209659916991019 -0.6730959588500386 0.003512981542390087 -0.000799724315765481 0.47130784978848334 -0.1678123918420699
85915000.0 0.7024394696404126 -0.7066116197291805 -0.13824434077734718 -0.7066073377534631 0.0038856768847104254 0.00036154379807780174 0.46383141904939146 -0.15595238705331774
86914000.0 0.6931358112829465 -0.7196691442337455 -0.15564811548832536 -0.7404214287626562 0.0027538687502705736 0.0014646072277519284 0.47585971499544105 -0.15920373313605937
87913000.0 0.6872696214964651 -0.7238616982463608 -0.17331482343700197 -0.7652346286447058 0.003093356534932496 -0.0037083680800037134 0.46074222424836625 -0.1725917391843195
88912000.0 0.6787426581011826 -0.7316726790934188 -0.18888614130808626 -0.8011442288113556 0.00023829830297295636 0.0012734230186427485 0.46847324463286655 -0.19527504155716982
89911000.0 0.6724090328062352 -0.7398674265222004 -0.20418964111608923 -0.8407004036164624 0.002094233910678366 -0.0012901073947020065 0.4778576550825461 -0.1955891905014447
90910000.0 0.6654752504695883 -0.7450752190466667 -0.22044732382918356 -0.8728920347909879 -0.0012367874815160755 0.0010016800261386483 0.4656701713473676 -0.20503777355968655
91909000.0 0.6549343867566655 -0.7496016795696703 -0.24119138938981055 -0.9043072653375139 0.0007758503808898084 0.0016798682344032639 0.46581896199680906 -0.21543645100635903
92908000.0 0.6477968132148473 -0.7583994577191417 -0.25511799616114145 -0.9364940131766587 -0.0003225946715157407 -0.00015432138944958783 0.45931523024995147 -0.22489597142108633
93907000.0 0.6407539388319635 -0.7633583428517201 -0.27606037260912375 -0.9724962006737671 -0.0019498299922471806 0.0004436857557070771 0.4737690805717056 -0.23827429535566932
94906000.0 0.6303021367095555 -0.7724550100228288 -0.29214952218007245 -1.0021936640011027 0.0033241419611315334 -0.0021156767927650493 0.46441212962250344 -0.2459873583530078
95905000.0 0.6231466364459729 -0.7769573353634488 -0.3118537817719895 -1.0410968564502097 -0.00027844415893277556 0.0012766881348556583 0.4623242821782133 -0.25592863303155383
96904000.0 0.6132144387882343 -0.7863197983909795 -0.33208329475636666 -1.082908930252104 -0.0035072998380501126 0.0007261024608921631 0.46673734678936196 -0.26150699993121945
97903000.0 0.6026895817640024 -0.7908254303840587 -0.3570047520426582 -1.110675564558778 -0.0007531131487030099 0.00034172267615661397 0.46073412335359365 -0.2635509283793087
98902000.0 0.59861832467101 -0.7991983323763091 -0.3759209992748626 -1.1509992834073306 0.0008333787470526466 -0.003137585716974273 0.46046001799930153 -0.28428968885994255
99901000.0 0.5884130353920025 -0.8043648404783553 -0.40664146415749475 -1.1826280638780093 0.0028539112186994316 -0.003268603812116348 0.4761737614030892 -0.31023700059186016
100900000.0 0.5795536642363506 -0.8070744911117061 -0.43622105731844024 -1.210066978138393 0.0005049842123041444 0.0011671861119459755 0.47184031202826343 -0.2985253475503731
101899000.0 0.5682798580150276 -0.8163087537711574 -0.4651883855655283 -1.2478106058388578 0.0005298615932713617 -0.0026404763650667157 0.45744072502380345 -0.30962345245587747
102898000.0 0.5591253849233819 -0.8212460670385461 -0.5011452800465838 -1.2887250232935774 -1.873806500808546e-05 -0.00038265270580258904 0.4678441289293949 -0.3255022992719034
103897000.0 0.5516092491604001 -0.8281245699323863 -0.540189149853761 -1.3249065583811075 -0.00015359688943901743 -0.0031018182043239828 0.4680028208757957 -0.31878421971969984
104896000.0 0.5424601037824369 -0.8385089322203716 -0.5863071068167927 -1.3575501586903231 0.0018402993365733557 0.002540687323424051 0.4538222437756089 -0.321479145971355
105895000.0 0.5306360148253846 -0.8394278091457502 -0.6366237913586609 -1.4028094147449697 -0.0034301448341015083 0.00110994934100018 0.44655947359659 -0.3474852381240625
106894000.0 0.5217157596789843 -0.8468625696821064 -0.6943324544631954 -1.4356364662783243 -0.0016834533904074513 -0.00036681929775661716 0.44463937389744124 -0.35162527263848853
107893000.0 0.5143761483972017 -0.8541514919135011 -0.7448963361889214 -1.47626465292688 0.0010820562683999165 0.00013081959723702165 0.4393223208834942 -0.3647157504996736
108892000.0 0.5057917521740645 -0.8558456806327235 -0.8036393240506451 -1.5118385568798087 -0.0006245930044416698 0.0017517153882442 0.4392671942858006 -0.36724331014911726
109891000.0 0.4922095158258511 -0.8644369642556253 -0.861746016131477 -1.5438698960020978 -0.0008140051392758786 -0.0008185484532154815 0.4480184297554857 -0.3757752881343169
110890000.0 0.4868717882620143 -0.8766638194607715 -0.9305923096895219 -1.5705708933845426 4.7152373754921676e-06 -0.006034982003425734 0.4451203432262676 -0.37707752665881555
111889000.0 0.4693910150572576 -0.8725065310904654 -0.9923093390754114 -1.6145082423399766 0.0002817851340296843 0.002829028332924376 0.43021031615918776 -0.397058549716804
