! Created with skrf 1.9.0 (http://scikit-rf.org).
# Hz S RI R 50.0 
!freq ReS11 ImS11 ReS21 ImS21 ReS12 ImS12 ReS22 ImS22
1000000.0 0.9720859381652247 -0.005707673499058393 0.006031782521301947 -0.02558511187811803 -0.009820502295343878 -0.00804903729866781 0.3353499866814788 0.3124396656920051
1999000.0 0.9978579866351216 -0.010755013236228479 -0.0003935726557015914 -0.016227543122207994 -0.009506651439659257 -0.008343746436950523 0.23804528449108345 -0.03197792797867213
2998000.0 0.9992957761331146 -0.023834089920242704 0.005539384515317398 -0.008972111914703353 0.0013186006132357214 -0.0005165706629526879 0.196973323493461 -0.13099675738330457
3997000.0 0.9942547672376324 -0.035262564066323526 0.012855421596810258 -0.005810670166440738 -0.006262570652616881 -0.006068098242306379 0.07706974821252885 -0.23588925750967848
4996000.0 0.9959520978771409 -0.03844588285384871 0.00890926441365735 0.0016997811603670528 0.0030035318528975658 -0.0022455690954254143 -0.05907928150026394 -0.20597579965969928
5995000.0 0.9929812314909711 -0.052726456929274516 0.008102344740195246 0.0005210844489662061 0.004435695482419777 -0.0034521303273979654 -0.12670082658524326 -0.09967801715411538
6994000.0 0.9922496315635678 -0.060198150498614676 0.0027620946188964255 0.009606672063996118 0.004665895970200156 0.001159533732053512 -0.14893325141432795 -0.017447840903578454
7993000.0 0.9932969968120505 -0.0658859227071398 0.005739419721470294 0.00786793427386108 -0.004883244303286461 -0.0013300867043243166 -0.15101303592983875 0.04865527932519994
8992000.0 0.9901139416829187 -0.0730871414583584 -0.001153954518042243 0.005320233723821718 0.005268267602596879 -0.005605378491023432 -0.16134245383703744 0.06312148394044176
9991000.0 0.9877664743648538 -0.08304626724131978 -0.0014881151455806722 0.006287321710433896 -0.0027250741653076062 0.0011336875966830777 -0.14137228423155448 0.09969254017805228
10990000.0 0.9872767587023186 -0.09117515015750612 0.006120501161288385 0.0057242018324013995 -0.0005654517847950169 -0.0030676864226925364 -0.13453545006561768 0.11131008901551419
11989000.0 0.9867044745465893 -0.1001871686382011 0.003890314358140838 -0.0030397856634709034 0.001708028008166159 0.0015974113934174702 -0.12152992994377289 0.1368897220862898
12988000.0 0.9854471016375187 -0.10704953243809016 -0.0011823251705295273 -0.004107322159611092 -0.004909005207796616 0.0025312052557676357 -0.11588987578272224 0.17221057195499123
13987000.0 0.9843915332284338 -0.1162995116119302 -0.0030748484103870427 -0.00363474714088068 -0.003515875912226093 -0.0002195226326198235 -0.09156605928475302 0.19104267869536665
14986000.0 0.9844407155304691 -0.12501493053174914 -0.00017795410709592875 -0.004162495195139172 -0.00012314754975481312 -0.002474326612255218 -0.09799693576546867 0.20556694222130809
15985000.0 0.9827876480871971 -0.13081935067961364 0.001427406063032281 -0.004728273185182799 0.0026248911728786696 0.0045583729428978976 -0.07826297004792061 0.21827441828184604
16984000.0 0.9805281405551233 -0.14342838482152845 -0.0031926139641278665 -0.0009176087419182267 0.0010180749989258575 -0.0005083314522495289 -0.06017347499818867 0.21681600434444953
17983000.0 0.9828514528800835 -0.14973259663984045 -0.004806342556027326 -0.0043715128906044315 0.0014497251677341664 -0.0007883560306734153 -0.055683820167164486 0.23348750567386017
18982000.0 0.9795256767825737 -0.16165510767260255 -0.005480093445553924 -0.002902266353678952 0.0015766012021127557 -0.0004698556138832584 -0.023886705139920802 0.24041069400999715
19981000.0 0.9788262933427802 -0.16557861822963 -0.004409319747510793 -0.003501932783579856 0.004337888648118718 0.00255762204921344 -0.015998771373198117 0.25131018806643735
20980000.0 0.9767170675561535 -0.17556476114957753 -0.004184577226122414 -0.0023697942149937066 0.0017366962744398231 0.0012265297198791548 -0.0022163949771374326 0.24167075715052125
21979000.0 0.9763791425440659 -0.18317142488367186 -0.005932503716712308 -0.006078982918292719 0.0014600620207451391 0.0029477949810116748 0.01501963077401492 0.24694413399249285
22978000.0 0.9725011620258042 -0.19269589553350755 -0.00949390838981582 -0.0032540854440971253 -0.001597518708727028 -0.00037009644630978176 0.02342468354027611 0.2666609298391459
23977000.0 0.9734429200511786 -0.20087506633784802 -0.006256845942704079 -0.003059686868499372 -0.00209813319263821 0.0009598698734983784 0.0308795917294916 0.2552862381902125
24976000.0 0.9714144583076699 -0.21062156788851472 -0.007329791721418962 0.00037729952285028254 -0.0006463414765499637 0.0033360962515551337 0.057291239454835684 0.26031008782983933
25975000.0 0.9669538779975397 -0.21559539254473653 -0.005383341814459717 -0.0018031266156289618 -0.022416789272140785 0.010140419796459806 0.07819769401004126 0.25772998420151266
26974000.0 0.965154891957241 -0.22733706006062088 -0.006386932012522541 0.0024003466724443734 -0.002701311749440808 -0.0017615689624119297 0.09264430604653323 0.2717878425802123
27973000.0 0.966152247478754 -0.2329383789540756 -0.003865115584571457 -0.0013504203253812675 -0.002974311167266172 0.0026516319470046637 0.08664799068279404 0.25382924532426215
28972000.0 0.9631571296373609 -0.2455516223724045 0.00028301179906401255 0.002040246565807807 -0.0024234907317592087 0.00384014974518927 0.1069246995880751 0.262701872781676
29971000.0 0.9614051683833301 -0.2519706517787749 0.0015531878937834404 0.004078588651372501 0.0003310902442657452 0.00028917943820584675 0.1500208414922833 0.2706536208642833
30970000.0 0.9597055575903655 -0.25928346914172085 0.0020387087953096083 0.0005115545155965744 0.002911490063251485 -0.0017000890858975205 0.17084268539144457 0.2570893669470597
31969000.0 0.9580242701472718 -0.26832341514259855 0.004315673814740726 -0.003990998826767709 0.0012260635485421038 0.0005293320932650354 0.14864300657053287 0.25401068481989597
32968000.0 0.9557835599746387 -0.2758299607279932 0.009955291797338974 -0.006791541140362422 -0.0046883764319951325 -0.0024065516369096646 0.16426450450376898 0.24141034368918673
33967000.0 0.9530361458660176 -0.28641690890351923 0.008459359021367567 -0.00995357498180966 0.00246149421695403 -0.0027819047755273485 0.1894495661715278 0.24760204320526094
34966000.0 0.9501164212301298 -0.2942407037883281 0.016122298481043816 -0.012137060996309292 0.0027715807520650626 0.0009648292384103317 0.18904788254173502 0.26265699797166336
35965000.0 0.9469513733303601 -0.30261542448583983 0.019401413226861498 -0.015325137419630652 0.0012122247210643883 0.0010243734155869948 0.21011931371141587 0.25700906195588435
36964000.0 0.9446818379985985 -0.3118326733836433 0.014201258444650859 -0.015584309169425273 -0.0011125845266918635 -0.0005030828067921244 0.21625769172201675 0.2518894380458719
37963000.0 0.9407642171963518 -0.32276421846904807 0.01911128175009062 -0.01818729170708639 0.0013386089134379033 -0.00040868367495362057 0.21895754755946448 0.2406199218513398
38962000.0 0.9383293986686548 -0.33290407510140285 0.021837823967064792 -0.02356755492861936 -0.003288912049843256 -0.0005783919013712376 0.23478367833949182 0.2327529592129347
39961000.0 0.9357157449257592 -0.3375634520235145 0.024876283782595356 -0.026896459099066985 -0.002106439587871674 -0.002578733994103892 0.2527011278329258 0.2302886229082264
40960000.0 0.9320789419514331 -0.3444598949888023 0.02152528514645234 -0.02551271161526971 -0.0005992233540465477 0.000665149373850871 0.2639131127139016 0.2280088224908402
41959000.0 0.9296004467196078 -0.3571313529735323 0.029445409857411852 -0.03378066501460611 -0.0023340028962105337 0.001193211067196764 0.26462111739896244 0.2207122068294469
42958000.0 0.9230789157277504 -0.36713166443236767 0.028972110327146427 -0.03985211327409947 -0.00026323995370942883 -0.0016819031866534585 0.2764659076582631 0.20521833740358758
43957000.0 0.9233243929472674 -0.37175755811759936 0.03201588674428453 -0.04822128378991113 0.0005304448032895441 -0.0015182811838059236 0.28665646149670265 0.20747749471735338
44956000.0 0.9203962789044665 -0.38102808802476923 0.029940572311262396 -0.053003409820445206 0.00020195822971978567 0.0010041883671689544 0.29550434796735997 0.18858041398137143
45955000.0 0.9153107548078672 -0.3893018457932773 0.03456965085063963 -0.05388888391602548 0.0003629895283262284 -0.0015527210906040088 0.2936442298375027 0.1935588780633424
46954000.0 0.9118383970742201 -0.39780072775337794 0.030432340120779583 -0.06284048551812112 -0.00030943316718427013 -0.001786564405670087 0.3239310236012834 0.17705813973558163
47953000.0 0.9080276071275523 -0.4076945795276309 0.03401276368673987 -0.07121500491637972 -0.0005649943491344117 -0.0007750007478881441 0.3382345672342589 0.17491009194684454
48952000.0 0.9030809527610116 -0.4170653451118463 0.03715783531035037 -0.0771169961003985 -0.002177400563336451 -0.0011487061032666728 0.3285459903460128 0.1652220456100145
49951000.0 0.8996381491005271 -0.42399164080082746 0.03552719779634478 -0.08696424595084692 0.0007487358278419967 0.0015333766391629814 0.3482621711149576 0.15688463703720634
50950000.0 0.8964655397344393 -0.43238030795890825 0.03781455075886619 -0.09372729079961253 -0.000947978799534614 -0.0017565564577698355 0.34419575336553915 0.14624899711836978
51949000.0 0.8904901187587406 -0.44009624154046584 0.03743430272058222 -0.10244924783259178 -0.001808508839563718 -0.00015223932828246033 0.35342561666538436 0.14534247444464668
52948000.0 0.8895363654688511 -0.4472571592322102 0.03809161331877029 -0.11105152528382166 -0.000774605867472166 0.0016312036078021323 0.37050387443170657 0.14685487370562209
53947000.0 0.8830126450600755 -0.4579513350007935 0.0393496461455571 -0.11868171427907269 -0.0007299794429893997 0.0024849852318558924 0.370805836237526 0.13307783147537786
54946000.0 0.87632699059455 -0.46590431456845255 0.03909043932909986 -0.13041675462231822 -0.0013310754080926824 -0.002987476540639424 0.3762888826239456 0.11821507403737687
55945000.0 0.8747648644801465 -0.4738249090318395 0.04258603487326631 -0.1405035635075956 0.0010532815962908566 -0.002458781347346483 0.38330482297886764 0.0943773283874306
56944000.0 0.8719807464080456 -0.4814379347181398 0.04522091580365829 -0.15014417679763156 0.0034813783019152084 0.0021297922897442322 0.3912376784895365 0.11260489662655905
57943000.0 0.8642930022915921 -0.4927337224736966 0.04666777592667263 -0.15772161949862126 -0.00020311287776441102 0.0023453548870725513 0.40264306462480215 0.09754594277666004
58942000.0 0.8599887386758992 -0.4985020605570612 0.044721495486555934 -0.17135667764754883 -0.0035476312744051474 0.003637626501231608 0.4191253620797119 0.08996469641537388
59941000.0 0.8578809768772261 -0.5055011438663382 0.04646021518957913 -0.17685871118940683 -0.0007815223195381585 0.001714861471781233 0.4069802764673819 0.09627586198078641
60940000.0 0.8491764851568718 -0.5134471319587062 0.04532969485523171 -0.1807018390886534 -0.00016822911867712872 -0.0009964640522914594 0.399761113770602 0.07468987639230532
61939000.0 0.8462129117964892 -0.5199229455726178 0.05106025757993249 -0.18938949619773254 0.0007148262233129935 -0.0019923841450646715 0.4167678381753423 0.06596653053679323
62938000.0 0.8395783159489891 -0.5310867808261278 0.05320106641255344 -0.20546832614884242 4.281771550316854e-05 0.0014208785435212575 0.4377224423626843 0.05020410481032932
63937000.0 0.8353106736449498 -0.5382043575072761 0.055580038516954665 -0.22821563034598188 -0.002253173838070531 0.0005883131775334566 0.42797923500260776 0.0464216903606781
64936000.0 0.8281031681085977 -0.5449469978718147 0.054600075383440236 -0.23856583786664143 0.00025756813826062675 -0.0014254878100681725 0.4231663546456934 0.04526975916531062
65935000.0 0.8247731747866569 -0.5542030794080258 0.056116487654946715 -0.2510070632960001 0.002550729693310926 -0.0005203363740533141 0.4320785191573969 0.02038071849944228
66934000.0 0.8200674855397853 -0.5608492603805894 0.04908021953671272 -0.26572567975165307 -0.0009775972143901248 0.00015268708944003167 0.43395576780087125 0.012063669791828746
67933000.0 0.8167208698354909 -0.5686457173277217 0.05501226859168283 -0.28000345593046977 -0.0009287394950493005 -0.001921499213123849 0.43273423541215467 0.009412180120349712
68932000.0 0.8025981857987396 -0.5728257883559115 0.051385387630207696 -0.2876625292287011 0.0013051324839070593 0.0011412022665814284 0.4479766237160554 -0.009300818056694037
69931000.0 0.8019296594177322 -0.5860493977030947 0.05082967477268534 -0.3065158885158534 0.0006886962119603289 0.003116885780245323 0.43950382303715796 -0.024775296404535272
70930000.0 0.7967850844724285 -0.5935903231785918 0.04781475775253944 -0.3199268983002617 -0.005418741609208347 -0.001744851896504153 0.44379966094132695 -0.03133276212613951
71929000.0 0.7915820210903451 -0.5995669183139813 0.04258423722140555 -0.33527548421971004 0.0002602004614690419 0.004288871975731183 0.4438269729339137 -0.03122907737684622
72928000.0 0.7861436003536629 -0.6074016276640853 0.04001513212637813 -0.3512455577364623 0.0006722267279508151 0.002674389622595134 0.45870451876454277 -0.05159124591710544
73927000.0 0.7778312637793967 -0.6130360261847151 0.03155029475140957 -0.37171745467971445 0.0003297297170686134 -0.001961759701840634 0.45365283844222326 -0.05274418669838503
74926000.0 0.7733961982257412 -0.6252287719954752 0.025007472583350548 -0.3871729959382924 -0.002929044351915391 -0.0018727654018089262 0.46075081383381533 -0.052679278452127776
75925000.0 0.7690856374931286 -0.6285646514773067 0.016368387799466217 -0.4064935398074689 0.0027606829016033354 0.0032002233563292095 0.4650844395156295 -0.08278723320315018
76924000.0 0.7618474851966405 -0.6378578688207542 0.0032320871775318185 -0.42809648734933203 0.0025463722708630645 0.0005283309272876984 0.45176559344370026 -0.08648160478079324
77923000.0 0.754197502627095 -0.6435176331570513 -0.010622281931573838 -0.455339660952707 -0.006130424789877796 -0.0023234113882504293 0.4565313307889849 -0.09968048860754275
78922000.0 0.7474831290963125 -0.6534346108535919 -0.026063889594709615 -0.478871608977401 0.0009626371633521582 -0.0018274810792545323 0.4628008098400385 -0.09583803761244525
79921000.0 0.7415358746966444 -0.6566895080476637 -0.037792647909688205 -0.5052197725111561 0.0004772623183166561 0.002651382423495149 0.4555563122776318 -0.11209563050362319
80920000.0 0.7360949586797227 -0.6672781325851292 -0.05664316299606544 -0.5360568231473237 0.0014735951471354983 0.00048413340820450403 0.4700242270042306 -0.12564144216410242
81919000.0 0.7316432391661793 -0.6724348881657025 -0.07291490199625654 -0.561189480139174 -0.0006905403418934478 0.0023099476914929654 0.46073454176208617 -0.12462980072711552
82918000.0 0.7204808185730461 -0.6816019443321104 -0.08455337838577436 -0.5890002193866757 -0.00016311712416924274 0.003666937040930313 0.47058078172680756 -0.1469328516104778
83917000.0 0.7127709168434896 -0.6880089747227802 -0.10683885493203113 -0.6162528920806882 -0.004253662784404116 -0.0030948751087362834 0.46520338733782907 -0.1528580675901987
84916000.0 0.7082632384369897 -0.69574176325038 -0.12256482864065224 -0.6525993701232692 -0.0028817475326265774 0.0024094981548863316 0.4617875673450466 -0.16104507071793292
85915000.0 0.6996574106283333 -0.7023092147443716 -0.1421717133934623 -0.6809700830967298 0.0019500086151057986 0.006729567989872245 0.45780965126356404 -0.18114315922754004
86914000.0 0.6936804860756184 -0.7119591199555588 -0.15714296789476975 -0.7181377087796068 0.0017044447124245615 0.0011446065326355403 0.4577892631869009 -0.18176101622678706
87913000.0 0.6842030653020115 -0.7181619036793384 -0.17443210829834976 -0.7466056221350016 -0.0009458411668208935 0.0009194648772143995 0.46257604274145075 -0.18575565956293094
88912000.0 0.6799692627145356 -0.7232846372407274 -0.18876211340647134 -0.7773896893066711 -0.004222484281316203 0.0016298333595302279 0.46922474557034594 -0.20130951380757975
89911000.0 0.6703420101154685 -0.7339086961879886 -0.20054872423551273 -0.8175910222039552 -0.0031317374578057164 -0.0013685097874244774 0.46279335056869864 -0.2006910202236204
90910000.0 0.6651581315827665 -0.738173686418937 -0.22041502098605298 -0.8476722318471437 -0.0003842452185291217 -0.0009782938700163195 0.45792202633912904 -0.20390244368193827
91909000.0 0.6565286107990546 -0.7428575249374966 -0.23783916719572373 -0.8818892521703872 -0.001271933004719669 -0.004020519550071209 0.46643846523100113 -0.22721221466494293
92908000.0 0.6459975609842834 -0.7513098818918577 -0.25341367005545 -0.9086547823409216 -0.00034068716913330843 -0.00047464903727905365 0.44851585363098895 -0.22927213431131416
93907000.0 0.6417350952821689 -0.7569525673311278 -0.273951568288466 -0.9419968807741829 0.00019747102458695322 -0.0006364627348663699 0.46502999742740864 -0.251045632787476
94906000.0 0.629412944590599 -0.7652472842805725 -0.2886185377970018 -0.9739834737981545 0.0002686227265329442 0.0009065014568388774 0.45797847393474056 -0.24700993328489076
95905000.0 0.6242470549807412 -0.7704213423976983 -0.30532286164264477 -1.011394458192424 0.002848698496143681 0.0020961833030698268 0.4654628036890532 -0.2653463004564524
96904000.0 0.6153755503347778 -0.7812026927751655 -0.33070516635316377 -1.0480018089427738 0.0008612617747056196 -0.0010876706610054012 0.45172671555845567 -0.2751580936621166
97903000.0 0.6054169229855595 -0.7854344677741723 -0.34216344790730724 -1.0763604266811295 0.0011315060607613872 -0.0011881364046422648 0.4382042180572062 -0.2830761992695119
98902000.0 0.6021425503109133 -0.7920255952670149 -0.36515476680155373 -1.114348301396876 -0.005615760675953253 -0.002367868374808249 0.44720393880002957 -0.29269689893598017
99901000.0 0.5888880265696033 -0.7968099654045238 -0.39165911414705934 -1.1408051940916732 -0.00027507347323112174 -0.0006967446170560395 0.45355872207180137 -0.3146430515498387
100900000.0 0.5801813401698794 -0.8016411035935488 -0.42373539591016446 -1.1705044036114756 -6.143834812458861e-05 -0.004450888425474596 0.4513104536758306 -0.3126930855853963
101899000.0 0.5736444722615964 -0.8085901109509779 -0.44579555022566525 -1.210348997778325 -0.0002939468083167323 -0.002627124233818494 0.4427690395186743 -0.3128317548790574
102898000.0 0.5629443374527858 -0.8173113937893219 -0.4857177140092356 -1.2490268809924159 0.0003543752119624061 -0.003731853676473294 0.44396100313781617 -0.3349365834749379
103897000.0 0.5554035261084416 -0.822293389653784 -0.5159256426706447 -1.2818332542569186 0.003244168286864208 -0.003165029688423878 0.46037923105084294 -0.3153195357253251
104896000.0 0.5477604716310368 -0.8318380224121427 -0.5601284612104512 -1.3140005850618985 0.00032953113862098805 0.002100006974421789 0.43242570877401554 -0.3407793982993841
105895000.0 0.5361686820579086 -0.8332573895251606 -0.603544892368856 -1.351109892642514 -0.00030346437771019703 0.004400214293169931 0.4325751452926996 -0.366360427868513
106894000.0 0.5271771581542862 -0.8404835130360206 -0.6522161704796485 -1.3853698064289053 -0.0010581578173448271 0.005055441390833547 0.43168168046782046 -0.35369786063033876
107893000.0 0.5201873072763011 -0.8475959414040577 -0.7097195068641815 -1.4244764708806048 -0.002952834174632961 -0.0018569454729796674 0.4312183339955371 -0.37042325507871865
108892000.0 0.5100315064403123 -0.849551247873385 -0.7652357474849801 -1.466038401782199 -0.00038417457568867163 -0.001972308741650361 0.4224610370379145 -0.3680879139374857
109891000.0 0.49754066057360735 -0.8585297427701492 -0.8220961660077458 -1.4997666683972428 0.0013909544184428112 0.0006464451480794181 0.4361864148665433 -0.3664744894230317
110890000.0 0.48767950515247077 -0.8594258998233886 -0.876795577662655 -1.5059099080593137 0.0011367153721375963 0.0046075626150109 0.41672355035855996 -0.37687930499372974
111889000.0 0.4770919897795444 -0.8631159158642571 -0.9448311890618922 -1.5669036556776206 2.0472434769326474e-05 0.002462567606612175 0.42092321148654527 -0.3892544076884077
