! Created with skrf 1.9.0 (http://scikit-rf.org).
# Hz S RI R 50.0 
!freq ReS11 ImS11 ReS21 ImS21 ReS12 ImS12 ReS22 ImS22
1000000.0 0.9967580025498853 0.02036439279361793 0.010247328776278703 -0.04742901224947502 -0.0006935674971163752 0.008790560724614769 0.31811584977458757 0.3195741623523279
1999000.0 0.9903350971254651 -0.013297343738728129 0.0012059529597202604 -0.01790940101485926 -0.011150593838006765 0.00040400509111466234 0.26202847233063203 -0.06359035590901506
2998000.0 0.9989658232454801 -0.024088281921305108 0.008428507601026092 -0.018928942419436576 -0.008358319035688237 -0.00018966246911993276 0.18940215738396587 -0.14786791258518334
3997000.0 0.9954252636180196 -0.02978532748243842 0.01575475787920823 -0.005443414655813589 -0.004148178500431786 -0.0018994327836108068 0.09060662553805156 -0.21794172168322268
4996000.0 0.9965516232153837 -0.0388806156219757 0.013507043115003163 -0.002008155267763338 -0.0005179513819896352 -0.0006152942337898406 -0.041343668961521654 -0.19887149727854442
5995000.0 0.9967906958463474 -0.04729160808382982 0.007513912660235021 0.0042517178326365755 -0.005735307153389032 0.0003763490508950485 -0.11112729083727416 -0.10894523044249291
6994000.0 0.9944715071047383 -0.06001893361632077 0.009914393733324528 0.004614113674273242 0.001965552724897235 0.0003407589472765974 -0.14194715836274288 -0.017674029240170235
7993000.0 0.9960524797043123 -0.06697787823521013 0.005213680455411697 0.005293440877714426 -0.002827943167261414 0.004346188124292307 -0.15988689473043813 0.037582957729106414
8992000.0 0.9957123483553437 -0.07215733773454035 0.0017006514905032323 0.004980842447974955 0.0022617514372893594 0.0025738003249707463 -0.15983473407160437 0.062176766886912926
9991000.0 0.9944657476542629 -0.0822712011112514 0.005233377417423932 0.0020463055405528312 -0.0007117475675953312 -0.0018488760104212313 -0.14650032302204036 0.07653799051404363
10990000.0 0.9944620044320924 -0.09077058584092694 0.001769274267112688 0.005070582665673922 -0.004750350457697045 -0.0011922267431816278 -0.12514248765437938 0.1075441942304349
11989000.0 0.9914793867511764 -0.10045249050427307 0.001347795625788904 -0.005353003323995259 -0.0022973102320397094 -0.0006979588077921621 -0.12666098088796557 0.14230431920886452
12988000.0 0.9915491006572292 -0.11085597429024695 -0.0013855680471987445 -0.0016234269096826804 0.0017460754550573125 0.0002712730292001016 -0.11438557287504178 0.1762596987347037
13987000.0 0.9901729161025705 -0.11687855181311813 0.0031942361278868236 -0.010966642182897307 -0.003761726285624964 0.00290922169695577 -0.09377805065956014 0.18314263794226884
14986000.0 0.990159264998623 -0.12489544580322741 -0.002294218298061282 0.0014063829549737844 0.0037069961719119215 0.001343651898197729 -0.08863550801432013 0.20464436337188324
15985000.0 0.990446781405442 -0.13252849787347848 -0.0049180876211951646 -0.0036332772261344014 -0.0009067302901995746 0.001337340444888883 -0.06387294044416578 0.21942891123098626
16984000.0 0.9865568169037489 -0.14135194752723834 -0.0001598042731739697 -0.005653253778128516 -0.0020903320579794935 -0.0007903228245294546 -0.06165481190256686 0.20763161005516262
17983000.0 0.9883840226188603 -0.14840450574278458 -0.003820664024034704 -0.005936106395832789 0.000838947166541184 0.0017410960727465672 -0.0573547373734427 0.2336549813310716
18982000.0 0.9837880971974557 -0.15965573399539848 -0.002924428284745554 -0.002199329250721723 -0.0006113387654045869 -0.00024908122954288525 -0.024226228742562406 0.24074940793522848
19981000.0 0.9860576625026637 -0.16372925241319305 -0.003804810465270197 -0.003982573241494799 -0.0001791274862778673 0.002620353597062956 -0.01387426248719114 0.2370991355409018
20980000.0 0.9830906342894511 -0.17426283630586528 -0.0021748177195527346 -0.005295302292902592 -0.00256429206554052 0.0009170398415373964 0.004628582522637205 0.2563408701014476
21979000.0 0.9794441518851993 -0.18458862578686316 -0.003115925183727837 -0.004506569561541311 -0.0003247325122452856 -0.002289052513768713 0.024119668127795587 0.24993962105557613
22978000.0 0.9788172352451321 -0.193985781146649 -0.00388649728512878 -0.007820267587754694 0.00484697139013395 0.0025284230222261 0.03347750814770149 0.25052828144379347
23977000.0 0.9790779641652069 -0.1988213778397929 -0.007947756205949598 0.0025420438494624022 0.0018779730397300222 0.002010644148487539 0.03709762010453325 0.25012063947101554
24976000.0 0.9755894004554151 -0.21077829081773006 -0.007891576631978195 -0.002734760085750793 0.0020269385772187748 -0.0037697534670960023 0.07071466333331186 0.25415756158640324
25975000.0 0.9665362611145139 -0.21762469564085896 -0.005183573541545943 -0.0006451177090584767 -0.01871894335513578 -0.019153095848901763 0.08470353790949335 0.25795570716744187
26974000.0 0.9717659685455252 -0.2245605807544531 -0.00429935560776755 0.0005485297010543029 -0.0030021325470434516 0.001362288381724809 0.08661094975538582 0.2677683094854954
27973000.0 0.9706928341190693 -0.2320934619132755 -0.0003879346982374504 -0.0029729511647695155 0.00028786631931980986 -0.003110547124948482 0.10786659402642512 0.2563984456702855
28972000.0 0.9685774314347554 -0.24284838230725683 0.0002647260342462386 -0.000646159786861005 0.0028256307417536064 -0.0009449067027791497 0.11603776196456017 0.25379050553213384
29971000.0 0.9663578386322782 -0.25121243167477153 0.002941585815901791 -0.0013084240755524917 0.0004628487314241012 0.002820639987105781 0.14788678835971736 0.2653922490741735
30970000.0 0.9642492194642275 -0.25817840756079513 0.0050729732645853395 -0.002032850162137476 0.0007643480435018903 -0.0034107686730272153 0.1676609889688205 0.24903688745042782
31969000.0 0.9630890515300011 -0.2641402756189274 0.005538406731129882 -0.004530148531988239 -0.0011197650495914882 0.0016960059792976473 0.1535411593057328 0.2531168998369164
32968000.0 0.9580255778045063 -0.275349360437503 0.011359514877025299 -0.010064035695417663 -0.0024043989129220386 -0.002209337880008244 0.1571226360583375 0.24861325620947733
33967000.0 0.9564641019662861 -0.28655843484327226 0.011484132663444474 -0.010157332006900619 0.00026792789205887924 -0.0035692409958765583 0.18738957020525618 0.25083157591955874
34966000.0 0.9527905732088154 -0.29391518107851605 0.013839314579583357 -0.013130191735741393 0.0008520893538416059 0.00513890871799352 0.19230207470337093 0.2477819615120906
35965000.0 0.9517446801291566 -0.3020346004282447 0.019969021589819044 -0.015162259068006358 -0.0002426083272033482 -0.0029406462421536854 0.20820113551334182 0.23803020584781898
36964000.0 0.9479703759594926 -0.310772729241512 0.020228846516557382 -0.014127043749474419 -0.0042823601810498095 -0.003433848049835497 0.21490470469189868 0.24749333612299104
37963000.0 0.9473242895440784 -0.3172926213573318 0.02311312194077766 -0.024814759919063137 0.0008130999272640694 -0.0026098312525424257 0.22186243879011755 0.24025592805610715
38962000.0 0.9444653322087418 -0.32596889692090386 0.023684520452165854 -0.024217444036911437 0.0007919295062398747 0.000596129814571179 0.2287327017116045 0.22711691312782092
39961000.0 0.9410863348091697 -0.3354959940751057 0.029857656157164087 -0.026837538073760818 -0.0027394611397627455 -0.0032785993281170844 0.24662560164409067 0.237786858559699
40960000.0 0.9368030638355715 -0.34246166829776153 0.022343599692365525 -0.026446021921591973 -0.0006238120277025945 0.0010825795200735038 0.2702640722928397 0.22557853386501717
41959000.0 0.935404215731759 -0.3524000729742447 0.032518649151488825 -0.03427890937548007 -7.363153606055703e-05 -0.002059801943382267 0.2656841332046734 0.2111244761468489
42958000.0 0.9284964337340518 -0.36316498709560047 0.030895894597691514 -0.03995208562889223 -0.0035964425442201312 0.001955823262343362 0.28292381098397806 0.20846652908393287
43957000.0 0.9296198449394703 -0.36565494175754715 0.037654182312299674 -0.04794766416919701 -0.0008064769649842136 0.0023491698558107395 0.28677579261955544 0.2050229921068019
44956000.0 0.9250385618600927 -0.3747358385313734 0.036275183030472426 -0.05290827828445872 -0.0005504537716453617 0.005079764857184867 0.3060829503186213 0.18265407257504107
45955000.0 0.9198610124882567 -0.3865328584183746 0.03397630374993695 -0.06065161502195981 0.0005480659438588842 0.0005201434274573413 0.30712390619637775 0.18956395000020054
46954000.0 0.9181933435096995 -0.3937486652212029 0.03483005183926541 -0.0656428474269976 0.0008982093247531433 0.001164338732436357 0.32839951763319586 0.17680372442990078
47953000.0 0.9147439454222415 -0.4012321498127379 0.037334174970080854 -0.07427073879061247 -0.0018327433544212195 -0.0007058168343740858 0.3362608664490819 0.16554132033094557
48952000.0 0.9084114548113655 -0.413300608489146 0.03429327625623704 -0.08136563189371425 0.0006824870024637822 0.000715447342836635 0.33778400693515537 0.16491347822670804
49951000.0 0.9068839456188852 -0.4178256525821779 0.03712052803887148 -0.08835522236815069 -0.002349082660532927 0.0005265067590710917 0.3554466541333523 0.15538907589147002
50950000.0 0.9029398672586473 -0.42521758245860014 0.037335297746111405 -0.09587955023058468 -3.8721785779796866e-05 -7.515894750110275e-05 0.35365920959388986 0.14524751828318805
51949000.0 0.8990700207975028 -0.4336538443092346 0.04043998162519184 -0.10591529588574139 -0.0015257478344214385 -0.001989224991638274 0.3590565880716933 0.1445756737743745
52948000.0 0.8968453258093968 -0.44197432252772 0.0396494075459369 -0.11653194533369897 0.002153418026801332 -0.0005982741601707867 0.3738094654515557 0.14290330297030296
53947000.0 0.8894040978398969 -0.4519341165906808 0.040274552055940646 -0.12218659706278479 -0.002216757361870254 0.002270037819683635 0.36608347047111983 0.12682548304193744
54946000.0 0.8854235903093522 -0.4587101800098799 0.041966012682462195 -0.13387395817535025 0.00075568846783958 -0.0028098972261053016 0.3775264350277369 0.11592259198658364
55945000.0 0.8828196204892823 -0.46628620525612763 0.041858999501441216 -0.1423343783164782 -0.00043037297863077255 0.0005346030447252208 0.392990833031085 0.10411113528025644
56944000.0 0.8786048189049991 -0.47517635396441354 0.04754324939997836 -0.15440907446514102 -0.0006077093320896128 0.0019842414265195145 0.39560050900052013 0.10743495951290422
57943000.0 0.8718314478926786 -0.48702671819249854 0.046214211893276555 -0.16586267526328322 -0.0012401933424590467 -0.0013540683410449628 0.4029992423868828 0.09884591129170943
58942000.0 0.8679107279039364 -0.4898743523080783 0.04351202372592591 -0.17568949658210778 0.00034796567326743957 -0.0016549418511487156 0.426263803855564 0.0955123785539091
59941000.0 0.8663487646022413 -0.4985283918536336 0.05072240095139163 -0.18473409481567354 0.00026227861562042157 0.0037068493966213724 0.42155053087672834 0.09357435749604982
60940000.0 0.8600042444445639 -0.5050967543623052 0.04799209460971563 -0.1885631235158723 0.0006214359497560334 0.0007268444127981015 0.4104174740720328 0.07789293576148193
61939000.0 0.8558030235240043 -0.5121975159732547 0.04925939428379393 -0.1977896704991283 -0.0010970472568775167 -0.00014881322965303126 0.4189557381816574 0.06720621213863023
62938000.0 0.8501045183892516 -0.5239895081651716 0.05179377626714578 -0.21796439337286 0.0021460364802649793 -1.1176194025670487e-05 0.4416603463907838 0.05424116021309741
63937000.0 0.8442594194671442 -0.5305589122981542 0.05484822052680211 -0.23361739151153385 -0.00023523949403028024 0.0013143405341586242 0.43056058873056835 0.03462988065062245
64936000.0 0.839168863939444 -0.5368240719114438 0.052218593361954474 -0.24951899037560019 0.0024541803782331894 0.0013370459779660532 0.42846815342862665 0.03911644275062424
65935000.0 0.8362905453917261 -0.5453852509267274 0.048706495830149237 -0.2618850407354106 0.0011533866496410289 0.0017451677516588033 0.4429468918072305 0.021383775345435584
66934000.0 0.8308574860519141 -0.5507119979449271 0.05321174487614348 -0.27440018096008284 0.001357868026653688 -0.0010500317482303187 0.4336408862312426 0.01247577361699782
67933000.0 0.8277077230841963 -0.5591550071668638 0.05388335105845549 -0.2887847494916434 -0.0010184532631007785 -0.005012245226869828 0.44671044871138604 0.0036188334905297025
68932000.0 0.8114973634945302 -0.5547815359746812 0.04545272955473301 -0.29962438752288556 0.0022228003363259697 -0.0004661830767768771 0.44727557452394373 -0.009516606357627981
69931000.0 0.816029239605076 -0.5750295938258844 0.046482072585708016 -0.31947477370369476 0.0018097888142201333 0.001270158182914114 0.4491223897883494 -0.01842192916640282
70930000.0 0.8101932478674877 -0.580956785972874 0.04445243075930164 -0.33440898064471813 -0.0029346611055212804 -0.0007624294478504979 0.44590399336210884 -0.03391773738229549
71929000.0 0.8034593540084605 -0.5924284061946281 0.03753504683522807 -0.3503131102618445 -0.0007808949659248052 0.0006299824038648201 0.4452595048885923 -0.0393167381578845
72928000.0 0.7977100416583193 -0.6011045661301224 0.03702120437143377 -0.3657449135844387 -0.0007156317401026556 -0.0021045598214787446 0.4660037707243448 -0.04184078627000564
73927000.0 0.7906161115108541 -0.6070711903009867 0.027043680494803723 -0.3870959014392912 0.0025753944193210305 -0.00016529544426296735 0.4556399589006216 -0.05077287493731179
74926000.0 0.787342154944452 -0.6167236857592112 0.022054370249860084 -0.4063322870964409 -0.002107989480214547 -0.0031064701177228155 0.4660352615339635 -0.056237305322892325
75925000.0 0.7794138241352975 -0.620914874601013 0.010671135757086303 -0.4255827242115143 0.0009020560215788396 -0.0012630062868399967 0.47290606959339393 -0.0754255832574601
76924000.0 0.7753535349935364 -0.6292409123881146 -0.0012646886712297655 -0.448766446751676 0.001201890985505328 0.0032352644940809756 0.4624422323532071 -0.08770361705301814
77923000.0 0.7698825674021715 -0.6347226354489343 -0.01622261050691106 -0.4716499309758786 -0.00046399518605446836 0.0001310928052155392 0.4646843945261655 -0.0903711807483502
78922000.0 0.7636901907765052 -0.6458420235458089 -0.03218392121940412 -0.4963467219855826 0.004001389464361262 0.001286207996786946 0.4589452147815169 -0.11002407499337288
79921000.0 0.7543307255737318 -0.6506677142377723 -0.04926503905364629 -0.5218382033291571 0.0006401226326580086 -0.0023185236321650853 0.46103077584953717 -0.11174175083903881
80920000.0 0.7515275459136084 -0.6607028703547981 -0.06323374684672366 -0.5505175488580945 -0.001280993345976446 0.0017766871838520333 0.47026584403141736 -0.13797409163469293
81919000.0 0.7440618805845596 -0.6659461291913696 -0.07858783021771734 -0.5790507989310362 0.0010197150791321542 -0.00403565701747801 0.4742583836361685 -0.12957565338754337
82918000.0 0.7357856246797987 -0.6729438435579587 -0.09471566156713616 -0.6091540723584631 -0.0012424772018911731 -0.0013739458423390207 0.46016003787270865 -0.1384107412919508
83917000.0 0.728800246992851 -0.6803918725140383 -0.11292500163924883 -0.6367185226438568 -0.0006484455886533115 -0.001079432499099439 0.481654760580076 -0.15489169884648332
84916000.0 0.7218925827922132 -0.6888522356772804 -0.13217026274247654 -0.6665406812847845 -0.0025154992654891975 -0.0019664353175793264 0.469646503823672 -0.17609946864826595
85915000.0 0.7157921244378537 -0.6944431537841986 -0.14851180971740463 -0.701117141579395 -0.0019620539049391666 0.0006447210324388121 0.4819744894971288 -0.16896263995328106
86914000.0 0.7067919979297728 -0.7052766931293277 -0.16803044096974848 -0.7357434022106565 -0.0006217108630870474 0.0008285242755988255 0.4639949998426659 -0.17896536737873203
87913000.0 0.7012327391474219 -0.7109342834079702 -0.18434263621664077 -0.763146914805858 0.00243840040697214 -0.0012018669038533778 0.4666152518218675 -0.18074413062729083
88912000.0 0.6965113431502464 -0.7173061967117248 -0.20402177858549525 -0.8043833034622306 0.0003848083128395972 -0.0007424279169141895 0.461632161829331 -0.20801631831608397
89911000.0 0.688314317837969 -0.7260014551991278 -0.21823056038931438 -0.8394471463434525 0.004809699710122399 0.0019122473146140162 0.4657567984582505 -0.22389820451919787
90910000.0 0.6815343592294715 -0.7301068479720443 -0.2381244622801589 -0.8705217099629308 -0.0008729606690153666 -0.00031205271838143534 0.46451735259320637 -0.20387086476443567
91909000.0 0.6718820184315015 -0.73782676363589 -0.2621429401948945 -0.9054806819916016 -0.002648853252073468 -0.003013208656528753 0.4712386138480049 -0.22886777839750821
92908000.0 0.6623244689427914 -0.7434134830090515 -0.2745151240372049 -0.9329555692378056 0.0011320773196865825 0.0011636262562572414 0.4580352948209133 -0.23800638913339914
93907000.0 0.6577163656508753 -0.7492748527015999 -0.29186487499488206 -0.9645412380428438 7.043213768006516e-05 -0.0007947815922341238 0.4649725592236931 -0.24828212321061136
94906000.0 0.645432785126192 -0.7584013920538695 -0.3085783795846216 -1.002306721365735 0.0007231779435193667 0.0010446678970472386 0.46348691089427896 -0.2481863596567682
95905000.0 0.6399585974977391 -0.7633084573471767 -0.3327055205298371 -1.0366130459018787 0.0003870913618803281 0.0015610675997619811 0.46685238269928536 -0.26567317203850294
96904000.0 0.6300443773068227 -0.7734041351027663 -0.35566227541969303 -1.0721951486866963 -0.0003839371309407261 7.386754561377916e-05 0.45743967881015946 -0.2697086050167071
97903000.0 0.6214157498068036 -0.7787489533784608 -0.3792906057097352 -1.1048866058059272 0.0028793144720369894 0.0016876330080969485 0.4611019910119465 -0.28427341003832707
98902000.0 0.6168525751616557 -0.7861928837063038 -0.39749711163871637 -1.146523913428271 -0.0005655667819483721 -0.003412314060428431 0.45505419856131507 -0.29378971184287456
99901000.0 0.608287888902674 -0.7918099704918651 -0.42846171070283895 -1.174137881505233 -0.0022879733571182378 0.00020359165735879723 0.4685112718785929 -0.3177543054919998
100900000.0 0.5992423000704703 -0.7953456330842915 -0.45737702650073825 -1.204735582435143 -0.001956536194046377 -0.0009540236554255436 0.4694718703091473 -0.31432940803945025
101899000.0 0.5897509543239418 -0.8035711278381024 -0.48444456498182253 -1.243318084053945 0.0006057104180173777 -0.002062221211515926 0.4542312272488174 -0.3139159045875713
102898000.0 0.5802568555485095 -0.8081246846328579 -0.5203704450794066 -1.2755328717002399 0.0020860574835722214 -0.004570033486018712 0.4446257349872649 -0.34187541850948355
103897000.0 0.5718233030510249 -0.8159988581884265 -0.5611349177423687 -1.3148819492814803 -0.0010096363484856324 -0.0011676096028710105 0.46017206573476116 -0.3333591730752323
104896000.0 0.5648235014522659 -0.8269925818441193 -0.6048992886782647 -1.348346872618663 0.001150052211764253 0.002358386715345079 0.4540145701712679 -0.3368627923668609
105895000.0 0.5549932073875713 -0.8292350162973439 -0.6531083039759238 -1.3913832809235895 -2.5285874810724104e-05 0.0024739883063933546 0.4380901184806565 -0.35139270728289795
106894000.0 0.5441784314141309 -0.8352684161691115 -0.7120076942385511 -1.4238934672302919 0.0019954555260518784 0.0011418043624448196 0.44522361076845907 -0.3669085669091085
107893000.0 0.538185721591759 -0.8412777555009746 -0.7553958943635912 -1.4580915106654417 0.0010254336089410604 0.0018211411268087142 0.4344704454240594 -0.3756188501313791
108892000.0 0.5288781714357013 -0.8439949266049108 -0.8138618552926375 -1.490868982949416 0.0010859840546984271 0.000613669404520678 0.4356837264856148 -0.3688707177218165
109891000.0 0.5160403141379528 -0.8530057735000408 -0.8733725678909735 -1.5301641390895053 0.0005622703633844174 0.0009775595916017372 0.4471116160664552 -0.3685484517786538
110890000.0 0.5026983865102843 -0.8684648420171981 -0.9551390889484748 -1.5390634226251618 -0.0028048087717449485 0.0010818620986256025 0.4331045441754096 -0.3808335962695659
111889000.0 0.4985392997181827 -0.8596548429041181 -0.9948463021490892 -1.5964900069841599 0.0003871743504866013 -0.00214887495130598 0.4245123476774622 -0.4018680706318548
