! Created with skrf 1.9.0 (http://scikit-rf.org).
# Hz S RI R 50.0 
!freq ReS11 ImS11 ReS21 ImS21 ReS12 ImS12 ReS22 ImS22
1000000.0 0.9861476323987581 0.005543912609056873 -0.011183363931712036 -0.0660252137160561 -0.02174656700427018 -0.008861313267867661 0.32228855594671374 0.31388461085848407
1999000.0 0.9976017645911401 -0.015443364126165598 0.013869060097138657 -0.01920774758429411 -0.00231773635307864 -0.0028339943556255935 0.26009033229842066 -0.07137177026988414
2998000.0 0.9996375817222916 -0.018123545669899526 0.00577161678983112 -0.015611020247611605 -0.005361015819490002 -0.002197212549613248 0.19944782685799264 -0.146512004469341
3997000.0 1.0010958202098228 -0.02348216998962928 0.013388368738309063 -0.009055897059124986 -0.0018709964964479862 -0.004402024216911961 0.0751567893304325 -0.23671488828871956
4996000.0 0.9969432691206911 -0.039266251168646335 0.008786624607350297 0.001933887138694042 0.0009802676999131545 -0.00582381899585581 -0.06419694040829854 -0.218145073865933
5995000.0 0.9989202638599988 -0.04896274693959039 0.014288763695747298 0.0019502623062537076 -0.0033125325915075595 -0.004862946429398561 -0.14356143979768535 -0.11444208392551912
6994000.0 0.9964793007479968 -0.06014606542229688 0.010996744599136075 0.008334354132641086 -0.0011338339832407983 -0.0052336489002366504 -0.14703309601126613 -0.018391155118474542
7993000.0 0.9993146896391372 -0.06435579006332694 0.007198953289265943 0.0014153077067080029 0.002920433306768686 0.0034243376350494583 -0.17007961523888415 0.034178415168540636
8992000.0 0.9981079514679443 -0.07392282694914883 0.0017351758036999196 0.001865304312130956 -0.0011197329081681004 0.0034264733199261027 -0.1606448789655855 0.0582930356898865
9991000.0 0.9952732158635461 -0.08220532174424691 0.004978581461552753 0.002565666297803215 0.0006217642690806101 0.0033552441362581435 -0.1449660330432509 0.09587602610070511
10990000.0 0.9947247185456418 -0.09041860921593328 0.001163271188788942 0.0018398829436226535 -0.002925576934873031 0.004101927585981853 -0.12620039739600658 0.12348523861211111
11989000.0 0.9934387223276285 -0.09724629897867 -0.0013227036593849485 -0.0005923823400631271 0.0033694498556093044 0.004762300710637079 -0.1203205606715558 0.1401750713418133
12988000.0 0.9923355596523576 -0.10980920294511864 0.00043679959872978974 -0.0008948316772100184 0.0025290890665030665 0.0059750664047016795 -0.11661763170477303 0.17411160321061292
13987000.0 0.991475608871952 -0.11684501752318013 1.4037055805664985e-05 -0.00223850952748207 0.0023523179674676976 0.0013490994345594547 -0.09506760643921751 0.19066222623825638
14986000.0 0.9902637863143471 -0.1242310563883815 -0.0005523536979381092 -0.0015120300323968755 -0.004417502608957051 -0.0006093191376303987 -0.09034742662212118 0.21009856847622838
15985000.0 0.9930643828404622 -0.13409597601603115 -0.0014466640100488923 -0.005471389789928081 0.004351162347841963 -0.0020876673009898915 -0.0727089248330003 0.21829502017789848
16984000.0 0.9895209505760674 -0.14272117781197022 0.000956742265132726 -0.004581562139618942 -0.0017450336197873705 -0.006014026838243389 -0.061079623561582266 0.217448656014737
17983000.0 0.9882231440036484 -0.1482179499303115 -0.0032330129482233956 -0.007221859806249347 0.001294177053713838 0.0016199659537596985 -0.04368647286736078 0.23238708512010592
18982000.0 0.9864895469033284 -0.16256640427673247 -0.006376010248566328 -0.0034727827359449315 9.994871770806309e-05 -0.0026736666141515012 -0.024004425861723803 0.24222907157337456
19981000.0 0.985389562656728 -0.1681912787013116 -0.005679222749541426 -0.005449566439084042 0.002831784752945536 -0.0031815393496050287 -0.007563207954932586 0.24533052863119695
20980000.0 0.9851033516717237 -0.17680124796261007 -0.0061985936512399835 -0.005469490404937866 0.00029687829781347195 0.0020309748171920736 -0.011153466896661862 0.2466816343271018
21979000.0 0.9819437093176397 -0.18486184482340998 -0.0061022285271099645 0.0012435796158370225 0.00016731644914387884 7.093448229862403e-05 0.013304639584427484 0.25388172356136324
22978000.0 0.9799596860706128 -0.192670152357302 -0.006467076946716885 -0.0030766016813593223 -0.0006102554038169844 -0.0004633908812192675 0.02604879957576748 0.2446790831907613
23977000.0 0.9815985260937676 -0.20259065052351988 -0.005682598531368125 -0.0034484588699581183 0.005931166756953677 7.58237164538272e-07 0.04181110829338485 0.2581576664526522
24976000.0 0.9767057133017035 -0.21148568577757315 -0.007231213955722145 -0.005404129080533633 -0.00017814271991726334 -0.0005584305051843779 0.06253321709448625 0.25669014311543764
25975000.0 0.972729850099987 -0.21695040083958553 -0.00047850112440361446 0.001872869844732537 -0.027238511499827697 0.0014963126791396823 0.07738675062959925 0.256675266750718
26974000.0 0.9716856008242929 -0.22959075828903214 -0.003240756550319117 0.002870741027968865 -0.0019758257940712238 0.0005863327195226422 0.09117560867779578 0.26138252761229747
27973000.0 0.9714867156818708 -0.23295977944411717 -0.005314306647756597 -0.005698634743384598 -0.0006404466510611291 -0.004019340344236301 0.09369080142557254 0.25134422047272925
28972000.0 0.9676432295811768 -0.24694170038636695 0.0010540151550835247 -0.002221448605897344 -0.002119162414744115 0.0032927461055987737 0.10997183660145528 0.2563029176180069
29971000.0 0.9665108924116779 -0.2535612883201655 0.0024768130908042214 -0.0022647521463552782 0.0001621031505449891 -0.0008895396080986999 0.14852871571284326 0.263869688969183
30970000.0 0.9645250016360486 -0.2582801631193933 -0.002876483072729994 -0.0008614544123508875 0.003919685502943636 0.0035931843209907133 0.16876541044868892 0.2535646525939401
31969000.0 0.9625603356741227 -0.2682682151223289 0.005062073246135792 -0.004426876349996264 -0.002730691703574133 0.0032368230306013645 0.14318940895390078 0.25179781733254275
32968000.0 0.9599963491309614 -0.2781961061899056 0.007873146026989557 -0.006319210177719881 0.0019278915271547378 -0.0023246085008071732 0.16260176649374936 0.25367248724509367
33967000.0 0.9585125780909709 -0.2877196159517114 0.013163721523492038 -0.009887524554809079 -0.0016962125559126537 0.0023204219465787386 0.1802029005102735 0.2495082238518091
34966000.0 0.9543288682796508 -0.29702271664147323 0.01655389696418856 -0.009570868415615623 -0.0009274028430319534 0.0008132626489309896 0.19316925586171974 0.2538415642085225
35965000.0 0.9533843416310835 -0.3033359505575714 0.016680196255454863 -0.013356440070973611 -0.0002625591655366203 -0.00054210401446375 0.20769423263094575 0.2499243924306761
36964000.0 0.9507179835507681 -0.3111613595598935 0.01703527772264072 -0.011696378844860527 0.0024789042060974742 -0.0055244631289196105 0.21756004173756896 0.25246380794907464
37963000.0 0.946878828511136 -0.32025258444293436 0.02410530627672408 -0.022278949416777417 -0.0007748817177980399 -0.0009481221951807471 0.22349633900757448 0.2327975363340672
38962000.0 0.944404551455496 -0.3282651816811274 0.02441942481055833 -0.023294511626593253 -0.0018498903339570312 0.002570806194957594 0.23814552158200458 0.22733623728837202
39961000.0 0.9401840006684643 -0.33858451768656106 0.027607827633193256 -0.02950051460815372 -0.004104604273224147 0.0032190701843591535 0.24486406918620807 0.22860264708566236
40960000.0 0.9378498707495353 -0.34573211846324 0.023945520868196582 -0.024889416911827444 -0.0024550197811683966 7.23512712803257e-05 0.2642256792910465 0.22129459421139283
41959000.0 0.9347250106622593 -0.3550630648017887 0.029600159957569313 -0.030540692753215515 -0.0003302670840663977 -0.0018088061204593706 0.2633478776223622 0.22472661950200143
42958000.0 0.9289118333187886 -0.36450667826162947 0.031709443006324535 -0.038078127543232164 0.0024862554381507177 -0.002496681904982287 0.2812042428437088 0.20228555946655322
43957000.0 0.928719762591281 -0.3669775893925875 0.033191410265647314 -0.046927852172004236 0.000969668713807426 -0.0003452790219924347 0.28377106359471804 0.21189533824820803
44956000.0 0.9255603514451459 -0.37487695064612614 0.03569473556547053 -0.05363870453013508 0.00356910244958218 -0.0033095109430981624 0.29443903691422524 0.20331458916178027
45955000.0 0.9195094767503665 -0.38754740443753094 0.038983569961153985 -0.05799306619600151 -0.0010109872844922287 0.0018553293531594409 0.29490905556734537 0.19635579283631122
46954000.0 0.9174681668368748 -0.3972074535629768 0.03679148779520074 -0.06831971551503706 0.0009575547704482576 -0.0009779669223755907 0.32102663234172096 0.1764772853410135
47953000.0 0.9150156110477521 -0.403592019255719 0.03602451690675257 -0.07263373127469838 -0.0019812366460741325 -0.0024886603746700603 0.3361896414348405 0.17583759038360766
48952000.0 0.9099011133642547 -0.4122545538080685 0.04029922949091966 -0.08147952896481539 -0.0021506326935201024 -0.0006420610113520903 0.3276894161329698 0.1695918042666961
49951000.0 0.9055032956863721 -0.4213165880963133 0.04122496381027391 -0.08830337558973386 0.0006143805620547911 -0.0004065112104471892 0.3542253611168338 0.15212586146887944
50950000.0 0.9027426217052672 -0.4297304023299967 0.043063304171162144 -0.0977890184535665 0.0007172256409086346 0.0005345418549264394 0.3499775911571308 0.14725023086519157
51949000.0 0.897943435742007 -0.43642143082328133 0.04460620832699463 -0.10549021623533984 -0.0017822845718863667 -0.0045247835895671105 0.3664801265394761 0.14788952676105777
52948000.0 0.8960817032011835 -0.4457676405360375 0.04769591464615507 -0.11289272459621431 -0.0003911798343967357 0.0036920324249477203 0.3703926578972242 0.15477312715335906
53947000.0 0.8906792383973053 -0.45177733151852145 0.04981484996655926 -0.12281623249432135 -0.0006432236243516987 0.0005231537426874292 0.3797781992803672 0.12749585968321359
54946000.0 0.8852533614562563 -0.4633652557490676 0.04556817358776941 -0.1335905225172614 0.0022642571477986635 0.0013545404386516712 0.3852067875705742 0.1256006195468736
55945000.0 0.8832100589726735 -0.4705023858488782 0.04970270347250442 -0.14497396090172293 -0.0011797824736018644 -0.0015040701603255967 0.38131546985487214 0.11022795265071414
56944000.0 0.8778369927785881 -0.47618780245029935 0.057030697839001374 -0.1544656724057372 0.0015358835798208053 -0.0018693466404165998 0.39601164603474354 0.11808541691289837
57943000.0 0.8743485916202208 -0.4880206505115704 0.05275346416402765 -0.16516181357972742 -0.0008692082774681167 -0.00024621073780992813 0.40015483210798597 0.10170936360060262
58942000.0 0.8671652016255383 -0.4921126202920823 0.05254484405106778 -0.17653966425010265 0.0030464884058645247 -0.001510302924393986 0.41623950007289257 0.09145657377153611
59941000.0 0.8656862542505602 -0.5006890491688771 0.05603508636267857 -0.1880069583036148 0.0018013141740785919 -0.0014433136577901423 0.4107896760293726 0.08955056370857248
60940000.0 0.8579119602313818 -0.5089395799856283 0.05420278588321802 -0.19301028158763467 0.0006619072630317129 -0.00033015908526930893 0.40446519586990826 0.08634474491778174
61939000.0 0.8543643791962097 -0.5165434973926933 0.058541588024854194 -0.20128185333561058 0.0020370098780197877 0.003588396984636707 0.41470217664306946 0.0670886944912512
62938000.0 0.8494441266370508 -0.5250814933910907 0.05865192287381404 -0.218546937758675 -0.0015090467390876088 -9.352087000420907e-05 0.4375868840132739 0.054144024900201156
63937000.0 0.8432874424465077 -0.5333760450020492 0.060594440930198896 -0.24169668519573587 0.0017498846318311845 0.0001853599738733527 0.43688664247443365 0.0450335211706389
64936000.0 0.8382680699933989 -0.5396362168697929 0.059329267521301056 -0.2532219730773692 0.0020054848191349527 -0.0021528036330839017 0.4382459565137085 0.04981674381364874
65935000.0 0.832959693097502 -0.5515160485089399 0.06061713369877809 -0.26763876974904904 0.0001126370766155857 0.0016362499616915183 0.43886712741985656 0.0248831964422624
66934000.0 0.8308388051209076 -0.5555579493502568 0.05893140190731484 -0.28390689858530826 -0.0006467025242637436 0.00036982538788041854 0.4335799365056571 0.013810846308258884
67933000.0 0.8271538242179557 -0.5628011772185726 0.059739469060574736 -0.2965024386862959 -0.000838382294192521 0.0007015960837180359 0.4423271073029874 0.02567652125428743
68932000.0 0.8162040732749144 -0.5703550027705886 0.051917635196055544 -0.3108291664077541 0.0015388590066100858 0.0003814794787075966 0.455579176400093 -0.00042608892612766417
69931000.0 0.8113355967824303 -0.5807984757845853 0.05482325372492241 -0.32775453426863954 0.005915590692449294 -0.0015745720878725378 0.44626562060004593 -0.021588427234420542
70930000.0 0.8059183358054695 -0.587624291943026 0.05032906257865615 -0.34261773915132254 0.0007992188239571799 -0.0018045675342243366 0.4499281010251842 -0.022593575075264643
71929000.0 0.805485378495083 -0.593411103390923 0.04985828093546787 -0.3626848306883126 -0.00010358913919274026 -0.002671904553371117 0.44604414059178743 -0.0376891182933979
72928000.0 0.7968522388716989 -0.604981348220886 0.04485828786346893 -0.37578111199712816 8.703754417647598e-05 -0.0030923195663716146 0.4630996138941866 -0.046770776645842636
73927000.0 0.7909152099159924 -0.6095562869075682 0.034807566713129796 -0.4010080630571343 0.0021108656739793055 -0.0037393342618326983 0.45419951963241983 -0.04637385855241134
74926000.0 0.7861793421132836 -0.6189885229100169 0.031400333773795995 -0.4214405751684119 0.0019182350412070772 -0.0014294040590348421 0.4678108896822507 -0.05507803870601321
75925000.0 0.7789196577279892 -0.625164733958908 0.020947180175152263 -0.4441868371848875 -0.0006719413123909951 -0.002163504223348378 0.4724576416673558 -0.07425340904039629
76924000.0 0.7734694224036491 -0.6343523577559756 0.011697378504676587 -0.4667462828403975 0.0034529812861893456 -0.0024906154917261262 0.4735011688706235 -0.07618133862799507
77923000.0 0.7667889658410496 -0.638929255158514 -0.004677618384978964 -0.49289052769900593 -0.0003172287675659512 -0.0019433299206446106 0.46960825096142156 -0.09375114432877342
78922000.0 0.7605408324274426 -0.6489177010303948 -0.01739170004745208 -0.5203007499568874 -0.00014548253102830642 0.00043297943578834996 0.4669904212846008 -0.09771219721933948
79921000.0 0.7529076242524112 -0.6537848243784725 -0.035545079720373365 -0.5461960018212898 -0.0019323009583167995 -0.004359508401756783 0.45720052976716996 -0.10789730550212596
80920000.0 0.7500912497532024 -0.6641721183049457 -0.05553915282049146 -0.5740384018992041 -0.0007334141696774886 0.0010987003946446364 0.4702830384093006 -0.1288234639866368
81919000.0 0.7427001721621939 -0.6705553763286427 -0.06909579789159652 -0.6049135579161072 0.00048658581381688545 -0.003210728984396092 0.4699171280540785 -0.12302648336600841
82918000.0 0.7345369464710385 -0.6787695779091771 -0.08193288130168574 -0.6349101981868017 0.0030229167810030735 0.0009480922442705762 0.48526424270799295 -0.13129107292972417
83917000.0 0.7254870620479447 -0.687041686159611 -0.10293296199935793 -0.6622173078861944 0.00011075541450852733 -0.001124432553982712 0.47305861073475425 -0.14464506247952
84916000.0 0.7191585948972398 -0.6927261116678278 -0.1211016367905101 -0.69959010838323 0.0032913040862206856 0.0006827292630926372 0.4594664017829884 -0.16076291321879388
85915000.0 0.7143156924766987 -0.7006548400821436 -0.14018226870601935 -0.7320261562440467 -0.00028274241069977274 -0.0013855033973165425 0.4684340590361045 -0.17301602161926888
86914000.0 0.7064632484092266 -0.7090614107875872 -0.15364703874733984 -0.7686051074389069 0.0005852708305849969 0.0006248643990237786 0.46581211734676503 -0.16863822353465313
87913000.0 0.698107484969007 -0.7151350657541885 -0.17751608155675544 -0.8021556798270117 0.004890984611482155 -0.0021483522306746518 0.46251605284910563 -0.18310710518951281
88912000.0 0.6926428033019569 -0.7217378470185741 -0.19209984137511119 -0.8331241270090892 0.0031301169926945976 -0.0016588108139702152 0.4679268878368564 -0.20002133423291138
89911000.0 0.684762741318213 -0.7301525844700997 -0.20633514084666055 -0.8747344535502125 0.002092022842927883 -0.001055406079368476 0.4697950587397988 -0.20654630762293696
90910000.0 0.6772959337515333 -0.7368532290365827 -0.2267678994126558 -0.9066277907366239 0.0014956472948208111 -0.0017894011738274873 0.46021703426494787 -0.19912844024994478
91909000.0 0.669362649141837 -0.7395050971493179 -0.2434518172711362 -0.9429331178516223 -0.0005904554501955664 0.0036407137280206957 0.46055337829397175 -0.2170750381665515
92908000.0 0.6612213360799424 -0.7490674822915862 -0.26437575672689984 -0.9806694897594597 -0.0010396235617154707 0.0017386361534821018 0.45396627203545326 -0.22738736763556763
93907000.0 0.6558065654024915 -0.7538682806167055 -0.2857303216899584 -1.008003062898101 0.004755214433794437 -0.0020117923306427663 0.46260567020827226 -0.24423754555791635
94906000.0 0.6425403772985505 -0.7634506552633485 -0.30448145869626053 -1.0460082726566733 0.0026706516117209387 0.0021918367463870003 0.4626817098158458 -0.24937614796705293
95905000.0 0.6369709583198846 -0.7688108151275241 -0.328491036195262 -1.0807169519737176 -0.00046123399703318813 0.003945333025888916 0.45790217544390227 -0.25922194648937763
96904000.0 0.6280164922989558 -0.7783613632995381 -0.35185522840594186 -1.1210573817715141 -0.0021280749550455376 -0.001223274125005484 0.45293874462114514 -0.26469278839065696
97903000.0 0.6181103110979337 -0.7824925259958818 -0.3772075959559719 -1.1567406769514577 -0.0005513461018133146 0.0009433422122428649 0.45269518472208925 -0.2880415979323708
98902000.0 0.6128941442759374 -0.790332924518058 -0.3979802589904961 -1.193485837341549 -0.007777787393477369 -0.0007383612357996296 0.4390628460462756 -0.2808397923937142
99901000.0 0.6048167990255836 -0.7963185520942274 -0.43207006533460324 -1.2286017223342771 -0.0007542461550159925 -0.0007164518650555607 0.4710690605463945 -0.30482415475309255
100900000.0 0.5923058176088296 -0.7980946818396524 -0.4625485307329655 -1.259048020651228 0.0014889807763583066 0.00025749765215320804 0.4686467727118373 -0.2997835698045834
101899000.0 0.5847945368805098 -0.8071014296844666 -0.48947513061927334 -1.2978575050113341 -0.0026011230182864946 0.0005800207237126592 0.4436063490584209 -0.31737137104511876
102898000.0 0.5739218109587706 -0.8155823238066193 -0.5329410504686344 -1.340048298236444 -0.0011805291971961655 0.0005969774458020815 0.4469621710711012 -0.3358741460255726
103897000.0 0.5663384285212816 -0.821850938877632 -0.5682990254016062 -1.3807165244714734 0.0003275459428923583 0.000781006108878001 0.4717041102736489 -0.31288913424397674
104896000.0 0.5579770303256799 -0.8293764916815133 -0.6190313517719299 -1.4133921468030086 0.0010041578398420124 -0.0005884632247250658 0.44052368868459313 -0.33015429762418624
105895000.0 0.5491125773463698 -0.8326440207441755 -0.6713119030495274 -1.46305291114984 -0.001349549540514389 -0.0004353789949244243 0.44205479706352446 -0.3529991361591785
106894000.0 0.5387471387290391 -0.8392712467636869 -0.7260829142902347 -1.4979532392357247 -0.0044447374183358215 -0.0014844952348341902 0.4331856702234273 -0.36750958224525265
107893000.0 0.5326975183008505 -0.8458180019301522 -0.7782853126017159 -1.5395363572103289 0.004650521563961368 0.00031302712668283394 0.4230038987903015 -0.3719157852796844
108892000.0 0.5212960027252297 -0.8494482074197917 -0.8384610144276214 -1.571351250529621 0.0019255458991001737 -0.000352354985716824 0.4220647550508445 -0.37407745970302814
109891000.0 0.5097868291860531 -0.8556563428646047 -0.8993922512303497 -1.610051506544683 0.002828873645106906 3.9730034275968397e-05 0.4321293590027786 -0.37827414241109275
110890000.0 0.4897451116523738 -0.8651757837240962 -0.9772719987901543 -1.6097575192806826 0.0009423455734930374 -0.0032299243726172724 0.4226644048762668 -0.3887809625889509
111889000.0 0.4869868442419464 -0.8644960467285379 -1.0327082838420503 -1.6807535574806938 0.0007236453301353263 -0.0011082604292305732 0.4150815093752901 -0.3945350230445086
