! Created with skrf 1.9.0 (http://scikit-rf.org).
# Hz S RI R 50.0 
!freq ReS11 ImS11 ReS21 ImS21 ReS12 ImS12 ReS22 ImS22
1000000.0 0.9926230161418599 0.015690854184745116 -0.011585362935863902 -0.0444154914520183 -0.01846127239604972 0.008438781978873046 0.2932205868700145 0.33645916994429537
1999000.0 0.9946889991583268 -0.012908985701678682 0.004729240275294258 -0.02211103571376598 -0.004684241688192091 -0.006070115099848051 0.26319265449328477 -0.051269006554334584
2998000.0 1.001363033498393 -0.024844626721008504 0.013433563379797968 -0.014884884261926625 -0.0008367847357976269 0.00013368697895118983 0.1864652580244572 -0.14672285874693344
3997000.0 0.9987949182853733 -0.027052043409038943 0.00943670614511956 -0.0063265280791175455 -0.005346941967921447 -0.0033316200898332216 0.10175990820346884 -0.22911736010704556
4996000.0 0.9984001958363146 -0.03630561675069943 0.014552061165644503 -0.0020323279119623216 -0.004532356201947874 -0.003433717351889151 -0.03397534763923621 -0.200329090959833
5995000.0 0.9942053898882557 -0.04904465856728382 0.009474152017897527 0.0004037880252907339 -0.0011891897719533745 -0.003209836672228274 -0.12187702919429305 -0.09906506399843205
6994000.0 0.9949561323815656 -0.05788585319675717 0.003197039045398529 0.0050402080005489125 0.00038110003931824294 -0.0017742056633098186 -0.15653116868967845 -0.02198183568047556
7993000.0 0.9961428541004385 -0.07005965549496049 0.004859292930707033 0.00320228592442659 -0.0017218520252372472 -0.002195666625990018 -0.1520834531542954 0.04154278257261112
8992000.0 0.9943448294792874 -0.07305160634138737 0.00025442197651540696 0.005206094683145418 0.0037927527101487774 0.0025529156343598795 -0.16682099903091294 0.05492276576510096
9991000.0 0.9923141864342957 -0.08521140376899007 -0.0007493124725775887 0.0037804174016593272 0.004729024748655551 -0.002105932092424468 -0.14615844070981515 0.08833322149885312
10990000.0 0.9914170386933933 -0.09662412818971605 -0.0015519924202476345 0.005889251252238598 -0.0013258746807742966 -0.0037606077426636324 -0.13712083309226714 0.12278434387609283
11989000.0 0.990569070193148 -0.09852110576765909 0.004140356658442826 -0.001610809507945665 0.0012724230244525157 -0.0015194703858394582 -0.12780169304682673 0.12905733818487303
12988000.0 0.9878536380326831 -0.10887310052805813 0.000808592754690969 -0.0030258927105430013 -0.001240796491939423 -0.0009329526269295894 -0.12001064209172614 0.15737693538041594
13987000.0 0.9883853030145643 -0.12069419429619661 0.002121776426199383 -0.004635232515572933 0.0025393772868855646 0.0015831807658159916 -0.09734340450980061 0.18927560530678889
14986000.0 0.9870802723949025 -0.1253476579869167 -0.003703314093462995 -0.0011554381250670055 0.002492188213218358 -0.0001090970773416323 -0.09326607511585416 0.20465697441752104
15985000.0 0.9884151584274304 -0.133283105815695 -0.001701547295383919 -0.0076964131314380246 -0.0013857152777307067 0.0005756578084701971 -0.07586492147693327 0.2242051430175917
16984000.0 0.98526556744958 -0.1456204291686342 -0.004733126424520464 -0.0064033079743446766 0.005165035627083174 -9.770186367477039e-05 -0.06656755950825313 0.21283787582363053
17983000.0 0.9846709565029209 -0.15179647080424133 -0.0007390707261736029 -0.001792693319441232 0.002289590938283868 -0.0017302162974115105 -0.05249632347558362 0.21939572693265216
18982000.0 0.9811862950857695 -0.16116683331213374 -0.003868905853905052 -0.0015366161505461335 -0.002043004019388333 0.003381898111780293 -0.033904447273773286 0.24405093666394714
19981000.0 0.9826808785303809 -0.16640418593220127 -0.006487873634654314 -0.007873785547242027 -0.002813972556646293 0.0020119771705815965 -0.020358977687102243 0.23867263405507147
20980000.0 0.9800555520683901 -0.17709943022190455 -0.002024979916215871 -0.0015721323938912917 0.0018926698943930247 0.002840190723553314 -0.00596857279676632 0.2493770250131046
21979000.0 0.9774884147133522 -0.1867079876576725 -0.0047562437299351334 -0.005057737546794291 4.261796907978144e-05 -0.0024713300206659883 0.0022836922759511846 0.24419542495515587
22978000.0 0.9764421438082002 -0.19440508937588563 -0.006040214514969424 -0.0075363910603917506 0.002502966340595184 0.00038285608287782835 0.03791531307173984 0.24593699272594585
23977000.0 0.9760094625219292 -0.20335236885184046 -0.0038800506934466347 -0.0015508091843886823 -0.004381662717318636 0.0006107766457256425 0.04850448682713466 0.2514265387139479
24976000.0 0.9739948318839622 -0.21330604664737507 -0.005433563475444589 -0.0031642346800473758 0.0007279956425262653 -0.002439155388720401 0.06763835741240388 0.25510784733346
25975000.0 0.9750216795528913 -0.22202046959201518 -0.005463232475513845 -0.00018440795252310118 -0.0008029025237711827 0.024377805490062014 0.07404849522086485 0.25509134132725003
26974000.0 0.9701094945346312 -0.2301481015580232 -0.004395084206384507 -0.005509268355025871 -0.0003043581466413113 0.001675251966462677 0.09636700421759835 0.26520232972416624
27973000.0 0.9679732009086639 -0.2401846723932139 -0.00292776051615401 -0.0009579531619941581 -0.0009712594905165626 0.0034004368163608784 0.10820320025871853 0.2643502344121746
28972000.0 0.9657090328211293 -0.24744675512254977 -0.002964592991145977 -0.0018633295358975418 0.0016515925495460414 0.004167588101718308 0.11484107697433964 0.2567790596765511
29971000.0 0.9631501429719818 -0.2573001796832858 0.0019408269707604604 -0.000106545304132914 -0.0023559497057357628 0.0004082260589974315 0.14406212826494927 0.2677146069693869
30970000.0 0.9597227536450004 -0.2612035267699458 0.001120390609553519 -0.0022027213570091644 -0.0014449762297031093 0.0002597853359852847 0.17351108713546953 0.2525772125688846
31969000.0 0.9577538134319286 -0.2714276147439654 0.006613818314789387 -0.004627149423636163 -0.004001933703936656 -0.0013355584829185998 0.15124141914155897 0.2500270126307301
32968000.0 0.9561847517695367 -0.2809208758857725 0.012253665298059317 -0.008818694271871366 0.0008482991450596732 0.002985353125140647 0.16225974212195776 0.24883571134287732
33967000.0 0.9550776094616549 -0.2896405576728004 0.008382604331697876 -0.008048528757878674 0.0012478880997063469 -0.002276970771246588 0.19078541111981903 0.24160769100722276
34966000.0 0.9502432549094342 -0.2999593440303607 0.012021355469698063 -0.011758263652476944 -0.0008007987425988208 9.946637524886265e-05 0.19688430341683846 0.2528371345373664
35965000.0 0.9484968767885966 -0.3068009796533869 0.014739715160802554 -0.012369605257582284 0.0023611280606155327 -0.0013208968849134034 0.21547171451723696 0.24671112519098598
36964000.0 0.9473049405014772 -0.3150743961138272 0.016436709058703335 -0.014590255467589998 0.0014665137250655651 0.0014223695773934147 0.2094471148487552 0.24684063069627
37963000.0 0.9419194392396376 -0.32507313856959436 0.022362112111925677 -0.022575904569776758 -0.0004106472132341298 -0.0006040927192104232 0.22534651471042855 0.2407288656162003
38962000.0 0.9386800567485508 -0.33349384362464196 0.023282312167812232 -0.02215574550879619 0.0008080465234703515 0.001776214799236984 0.23508956987986165 0.22907035207049742
39961000.0 0.9368592932821048 -0.3426945621525898 0.02608779847060883 -0.026831889673425903 -0.0014492990833863714 0.0022047708715636242 0.24718144856572882 0.23386456499210811
40960000.0 0.9325042078565974 -0.34857228722567674 0.024297844045469523 -0.026129534702938 -0.0012503098253841163 0.0016465253901923103 0.26385077434056586 0.23531340556773167
41959000.0 0.9294471701196085 -0.3600623972045007 0.02992097821906324 -0.033733176243341566 0.00035763282679584997 0.001206783263957124 0.2717179006505061 0.21399555011046764
42958000.0 0.9252361106806954 -0.3667704222213945 0.033252362451684093 -0.04490491992490166 -0.0007986307366602231 -0.0028393002454454425 0.27604918002379136 0.197147503241082
43957000.0 0.9240856920367592 -0.37541567958856487 0.03466311832103268 -0.045439510717019044 -0.0036523782706840775 -0.001417233319653043 0.28959521521455356 0.19499090612855868
44956000.0 0.9199096257038182 -0.38197154690691437 0.034309282464645006 -0.04973024680957458 0.0013657130698178487 -0.0012980953758213254 0.2958887767671455 0.19192647472467772
45955000.0 0.9163920431831042 -0.3940802391895536 0.034019846268483075 -0.05883453612189679 0.002762670712425513 0.002401951778618027 0.3054866812734679 0.19107615174197592
46954000.0 0.9138688757226842 -0.4020365583045369 0.03661511566875488 -0.06677249614035484 -0.0027260234301914265 0.001180209558530759 0.31935686682189607 0.18629906619116954
47953000.0 0.909230940130371 -0.4108359669097166 0.03679250165415354 -0.0732226140423101 -0.0012598745110199202 -0.001406924378842842 0.32790831062426296 0.16576807234368707
48952000.0 0.9043093336053469 -0.41767169278543786 0.036447484776943234 -0.08307974155192402 -0.0014819499504364533 -0.0002786411995836102 0.3364871486963395 0.16481762002348996
49951000.0 0.9006957211364512 -0.42632548085293703 0.04105437841631507 -0.08858010697340575 -0.0015522610895648107 0.0009227259478431646 0.3388959445196807 0.1569963839205016
50950000.0 0.8973919963233291 -0.4350350582652276 0.040212674851122066 -0.09912848369731042 0.0036853429849095717 -0.0027980919767008755 0.35005069131195893 0.14876506044101764
51949000.0 0.8940953211675209 -0.44325876072486997 0.04075503840481266 -0.10682161372710228 -0.0021478545980030497 0.0010656891084350813 0.35719888724111515 0.13318091175055496
52948000.0 0.8896607854111085 -0.45185155328126264 0.04329957100206497 -0.11604522266942804 0.0014490007032154457 -0.0009954545713799015 0.3707227927604125 0.13987944119104953
53947000.0 0.8861960332449682 -0.4569213288531004 0.04401955185622959 -0.12706849108625123 -0.0008878228012272065 -0.002817063556918991 0.3720842670129754 0.1272254576192077
54946000.0 0.8785064865627173 -0.4694333367169721 0.04426870734628362 -0.1355223554441816 -0.000977811505161169 -0.0017105559401768915 0.37891879282121277 0.120755904215549
55945000.0 0.8771936419464957 -0.4757729400939515 0.048005434251774906 -0.14549095011645402 0.0014675324149755378 0.0009361993235828927 0.38919877039595546 0.10404634140865487
56944000.0 0.872886205551767 -0.4852018062275103 0.04908990931935801 -0.15528807363422087 0.002104450383709454 0.0015834881815173533 0.3996903154508851 0.10722169399618704
57943000.0 0.8654122414938293 -0.49658071410459165 0.048957817081201664 -0.16754643700077182 0.0005718112380218229 -0.0011094591532638549 0.3968578201422868 0.09813844195600607
58942000.0 0.860527804243557 -0.49909968277365446 0.050546460735228636 -0.17751796270358666 0.0005970481506284889 0.0003752805556901413 0.4218498968922421 0.07889125290103244
59941000.0 0.8582203712101736 -0.5085474197052541 0.056346472886589415 -0.18550020874470963 -0.00024264504866374184 -0.0029488059343205295 0.4179967361295118 0.07805610777079053
60940000.0 0.8502879194499686 -0.5165045824999461 0.05308926150078553 -0.1910511348600191 -0.0005331540749086158 -0.0025391994037903634 0.4110063470574096 0.0678352600051343
61939000.0 0.8464739178515607 -0.5231695385312771 0.05381630569493739 -0.20085705747630342 -0.000953189350293994 -0.0032141250913562953 0.417465641674318 0.07468063250066864
62938000.0 0.8402550922686253 -0.5334534279931511 0.05674753432944333 -0.21889686853714616 0.00033157651084009796 -0.0026708703249989705 0.44063777640246343 0.052779807238115796
63937000.0 0.8365976357706411 -0.5403288700365487 0.05794083514714075 -0.2369303254703624 0.0026030777421248313 -0.0005387702531490493 0.42276514162638545 0.040245566210854455
64936000.0 0.8286508592599406 -0.547828187105923 0.05670185120956619 -0.2522054123239591 0.002611139004070929 -0.0004984448110066711 0.42854733772136716 0.03895240026864238
65935000.0 0.8245179310425459 -0.5598455922906953 0.05591817658266891 -0.26663752044474054 -0.0006484192831537969 0.0012576350648651287 0.4371517748662699 0.016860374464779265
66934000.0 0.822942429634916 -0.5630128743595312 0.05470658099853069 -0.2826556682605378 0.00017382828815765136 -0.0011156071163618403 0.4428672576594362 0.00023076633322253968
67933000.0 0.8181700816998301 -0.5718978498545813 0.05552653619037439 -0.2932244610812493 -0.0011572923595241547 0.004357632261741233 0.4397203397889187 0.013923566431336357
68932000.0 0.8156366822036386 -0.5717551471931324 0.05433614684480106 -0.3087625851515533 -0.0029029978582196135 0.0005492252883729395 0.4405984484141272 -0.01221488830705113
69931000.0 0.8021931612131694 -0.5894911187556789 0.052560115007062154 -0.326796458581935 -0.0008410755274691676 -0.003613792644244058 0.4525468846935763 -0.02512559889791626
70930000.0 0.7968278961465018 -0.5937679552718719 0.049674262082096785 -0.33843405280705596 -0.0024187453959251862 0.0019877996169359513 0.44600114038605904 -0.030953887616014874
71929000.0 0.7939287415201773 -0.6026406807030101 0.04875485461828543 -0.35767987276171953 -0.00021860324992809262 0.003431135356121824 0.4487178139697286 -0.04033697739838734
72928000.0 0.7865701384537732 -0.612578105544764 0.03907424679752467 -0.3782540809698113 -0.00330069518849064 0.002212198119173493 0.46737714921609036 -0.039666662096657486
73927000.0 0.781525430928372 -0.6190637921121074 0.030020360671277464 -0.39738664060469725 0.0007352316479363689 -0.0030754595589527383 0.4536093907870934 -0.06535945456360549
74926000.0 0.7766241587784029 -0.6280021970747698 0.02533813650417171 -0.41578685736263477 0.0003733619617457014 -0.001974313229852447 0.45452915361541724 -0.058608153060921785
75925000.0 0.7682127137404768 -0.6319784628549395 0.014628914422548035 -0.4387332329452919 -0.001669043039014028 0.002745470828549962 0.4667752880843351 -0.0724524344572768
76924000.0 0.764378201739009 -0.6413492014863967 0.002954411831821427 -0.46122627457234916 0.001159854725789681 0.005062358451113803 0.46426106810146717 -0.09165770544414051
77923000.0 0.7566379844584991 -0.6467522715341478 -0.017345918747985162 -0.48451763914518975 -0.0016948368587990609 -3.0492412387454337e-06 0.4592303462185761 -0.09823092118557553
78922000.0 0.7509183335942289 -0.6583006645994415 -0.031893813647589746 -0.512796965210426 -0.0016466074209982558 0.0024078280230351743 0.46025398708181475 -0.11177013637055595
79921000.0 0.7396912003745441 -0.6608101083249757 -0.04660691543185379 -0.5391178324026557 -0.005103088174486018 -0.00045176586302571206 0.4608692439433919 -0.11858736448731066
80920000.0 0.7353215205551803 -0.6727435180671885 -0.06194411549355902 -0.5697405809486634 0.0001528771920696432 0.0010177668272963614 0.4562916465713796 -0.1275036872218964
81919000.0 0.7304052508858706 -0.6788797772274179 -0.07813138019550726 -0.5986997619322602 0.00010796182736462925 0.003481476487901805 0.46799653676793446 -0.13544040545280195
82918000.0 0.7220921951593507 -0.6860553464582505 -0.09232294408827507 -0.628676207021447 -0.001342982403700664 5.029526385641474e-05 0.484655926545933 -0.14660491820161825
83917000.0 0.7135150805709283 -0.694172234683772 -0.11035321978983405 -0.6585901776059347 -0.0006839821232709515 0.004125224696213499 0.4639841674921698 -0.15006026256340527
84916000.0 0.7088398784913118 -0.7012552826570523 -0.1249720603106901 -0.6968850734674272 -0.0005737867289577104 -0.0010340473413582238 0.4563810657624385 -0.17448377008346883
85915000.0 0.7028921825794961 -0.7083246906543866 -0.1522673785642066 -0.7258422531998151 -0.0047136215499961895 -0.0048180472282255095 0.4552170045531138 -0.18140402707682746
86914000.0 0.6946876152825604 -0.7176771730123714 -0.16735713483245138 -0.7617127920585769 0.00022669722542083693 -0.0013764995077383008 0.462092221253303 -0.18248658075099236
87913000.0 0.6867400445137155 -0.722251511543105 -0.17930960790101513 -0.7954186411220097 -0.004477698807304188 -0.0009312091895528339 0.46064389684941587 -0.19896515679983942
88912000.0 0.6796775236165769 -0.7297437624368143 -0.20225699228070235 -0.8297186753198725 0.002565931862192941 0.00036215886914367637 0.4613734869164012 -0.21217734259482415
89911000.0 0.6728745270982933 -0.7388378804746331 -0.21025134768044257 -0.8667882694265986 0.0011904846747574798 -0.004350679331294319 0.4706500476665673 -0.21945790853021882
90910000.0 0.6639257773591277 -0.7429788531244196 -0.2294257594694014 -0.9011948558951545 0.00016176821270070168 -0.005166558015831103 0.4595640257305929 -0.21498096091117216
91909000.0 0.6545743075524293 -0.7485794178777945 -0.2535477952305694 -0.9303589814172363 0.001425826075926995 -0.0016666676229550473 0.4613106056612863 -0.22076775376946975
92908000.0 0.6468896828924754 -0.7578635327446971 -0.27051501707584813 -0.9658091467419708 -0.001926759128251278 -0.002291324420373592 0.45178275108097543 -0.23917007253355377
93907000.0 0.6402000576661101 -0.7629988144743799 -0.2892021952392427 -0.9962352640705924 -0.005159906209266727 0.0021408655784216526 0.45559351872468506 -0.2555302637302675
94906000.0 0.6278892620724288 -0.7712720793462841 -0.31037576220105834 -1.0347327854504815 -0.0022445476429958375 -0.0003157429455187714 0.4558410216712113 -0.24846951638329043
95905000.0 0.6209783427268109 -0.7765477571078699 -0.3344977013228097 -1.0694485742707576 0.0011433049620193762 0.00023965625225908955 0.4601271021220805 -0.27461907748322306
96904000.0 0.6144106756750642 -0.7848051900882862 -0.35178180997194664 -1.10928172698096 -0.0008828260494590515 0.0018896930724624367 0.4479943964836794 -0.2732495760897424
97903000.0 0.601919887353134 -0.790580245731444 -0.3751996731777219 -1.1445027095888984 0.0012598442952936695 0.0016234763884380942 0.44849243417921425 -0.288236228826293
98902000.0 0.6002851955716172 -0.7970013859953728 -0.39934149918273804 -1.1798499590331322 0.0003413615969045904 0.0026427455377494723 0.4449369643445977 -0.2937523286202412
99901000.0 0.5896851045484559 -0.8022954134897423 -0.4302519676472158 -1.2146817005041688 0.0003436111855244324 -0.0005081791438179002 0.46473897335195824 -0.3118740932055239
100900000.0 0.5801563536927025 -0.8065464282184802 -0.46190198151211126 -1.24482829699368 -0.000759744190729374 -0.0014318101414534572 0.45392413204236276 -0.3154035544371491
101899000.0 0.5683401120708215 -0.8154969536425788 -0.496590444611911 -1.280034306877806 2.5731321635908216e-05 -0.0020599844681751535 0.44966397480108866 -0.3211945269942903
102898000.0 0.5595867132848517 -0.8197584810266114 -0.5301725884132559 -1.3196204132083547 -0.0011618507106257133 6.253926228798402e-05 0.44835040073170407 -0.33795370955164905
103897000.0 0.551482313138633 -0.8274922889455 -0.5684780539416163 -1.3572517100194619 -0.001981309235721917 -0.0001893530413076941 0.46188642852680734 -0.34319648750934284
104896000.0 0.5420311028362601 -0.8371045735809282 -0.6215633309385877 -1.3905713340884485 -0.0023325863520468723 0.0009202629386999482 0.4299826294231737 -0.33593811455584144
105895000.0 0.5338241826322875 -0.8397951550794813 -0.6714310067003716 -1.439064597218042 0.0009725954928671511 -0.0016877831368260865 0.4206337857058928 -0.3511017431211771
106894000.0 0.5226452377753292 -0.8467558716576872 -0.7287578857318194 -1.4733303536205613 0.0008953781703479839 -0.001485083212444776 0.43838999176282256 -0.3677158754530355
107893000.0 0.5142813274350837 -0.8536611757041596 -0.782420948389963 -1.5104882720248278 -0.0003656146846885007 0.002154943239049903 0.423819315141301 -0.37187352815461133
108892000.0 0.5051383103632142 -0.8560310068311761 -0.8424616844850745 -1.5492053431919768 0.0012472816741390545 -0.0014865379107701483 0.4173690631471613 -0.36887244047998613
109891000.0 0.49203228772548047 -0.863887627200222 -0.9015408006270571 -1.5881023289778038 -0.0015255725236947395 -0.0005111551024020633 0.43771802441384294 -0.37992018219784324
110890000.0 0.4776740165107117 -0.8657977204454423 -0.9667118771308318 -1.5885886331943153 -0.0005685440099181193 -0.0006562333181210974 0.42082809340854294 -0.38524550044631367
111889000.0 0.4730431402352118 -0.8698607197433448 -1.0330161563109734 -1.6551911924610108 -0.0014709792646837093 -0.0018784230884895381 0.4142349466157451 -0.3978410738061755
