! Created with skrf 1.9.0 (http://scikit-rf.org).
# Hz S RI R 50.0 
!freq ReS11 ImS11 ReS21 ImS21 ReS12 ImS12 ReS22 ImS22
1000000.0 0.9811034817256662 -0.009531662749782533 -0.006587163535560599 -0.048612348242768326 -0.010763535351424266 0.010636865831091418 0.3869941574033038 0.3023001125896366
1999000.0 0.9938319282245525 -0.013782085684978695 0.006057558693863907 -0.02862057259386146 -0.007386287885110804 -0.0007879091307792779 0.2585612369949631 -0.05800617959221697
2998000.0 0.9974271119018083 -0.019507699354550538 0.011205485370028382 -0.012691832014019092 0.0009660636091734884 -0.00554889565549711 0.1959349173150287 -0.13566167988696315
3997000.0 0.9950098541496675 -0.030252845592893384 0.015229236095257188 -0.008864307674703965 -0.001093171460298923 -0.0011962056310216567 0.0992200858638464 -0.2435723928782179
4996000.0 0.9958705308759022 -0.03533828414890609 0.015851188904500553 0.001060916490945256 -0.0014247822577425516 -0.0044577262234262475 -0.04810898458636897 -0.2029724813477889
5995000.0 0.9970292636009291 -0.04661938012660561 0.01002280477991663 -0.002876083071415075 -0.0002255409439702825 -0.0074980103402514054 -0.12793289735981633 -0.11895066388685142
6994000.0 0.9975362623690601 -0.05812372788083669 0.006262636147157028 0.002726495503172922 -0.005229909973530668 -0.004265547168097481 -0.15723539577150744 -0.019233372930077205
7993000.0 0.9976768680210815 -0.0643875502180773 0.0049082820727747905 0.0029752589830429224 0.004906856653938232 0.0030341707431688976 -0.1592047239409237 0.041039241991711745
8992000.0 0.9964355353804093 -0.07178758353675901 0.000724723982046005 0.004818689254936801 -0.0014951569285771332 -0.001555653265007275 -0.15851966540782417 0.05612037766481505
9991000.0 0.9931179981100485 -0.08559400002272195 0.006473757213911601 0.007650438465802305 -0.0004682613689003203 0.002472588699177362 -0.1563591758674693 0.09221497600176345
10990000.0 0.9932107132685708 -0.09362743365348061 -0.0024240637341288885 -0.001705631753627115 -0.0007186732601698751 0.0035963212471986986 -0.13013330608483187 0.12400751942294251
11989000.0 0.9908531262601772 -0.10062589983912376 0.003473051388545197 -0.002760117527248483 0.0031274582041745788 -0.003287033225834676 -0.136760326656348 0.1429952316857069
12988000.0 0.9896441216277354 -0.1090619550882347 0.00022858798111599922 -0.0025942213954437874 0.001744822948423187 0.0031480154416958974 -0.11648439081687521 0.17073783960511354
13987000.0 0.9885404191429606 -0.11533690636851537 -0.0004298634860982643 -0.00474664581916741 8.868420571831975e-05 0.0001942819353443617 -0.09800125866671307 0.19578563908987298
14986000.0 0.9902195675790697 -0.12233546658479784 0.0006758426537387563 -0.0033839937132848453 -0.0018993964272581026 0.0019642252044811855 -0.09414466943143737 0.2086824052451365
15985000.0 0.990086877356543 -0.1316573210397724 0.0033765065121503716 -0.005609676261746852 0.0008525895351677927 -0.00018773356165418837 -0.06945055250268607 0.21382469806902954
16984000.0 0.9857169066438984 -0.14440342712825124 -0.004965983053206594 -0.0029039333566328483 0.0014421865305265448 -0.0006233858981311715 -0.06604932756316952 0.22672777770521005
17983000.0 0.9870165926030809 -0.15053971794580928 -0.004110422764577359 -0.0006149809539816824 0.003979194804327772 0.0038146482618599143 -0.04901083287374057 0.22819544967168445
18982000.0 0.9837605668466668 -0.16203349072807435 0.00030268037446577257 -0.0054293054734831665 0.003786788572940479 -0.0005024165221172696 -0.017896824156476514 0.23654923533453276
19981000.0 0.9851150110073812 -0.1646384394997939 -0.006723984736269866 -0.0032849796061786844 0.0004954149563184243 -0.002240243792933486 -0.008546475241505959 0.24366805643499195
20980000.0 0.9824702927462821 -0.17324276700928845 -0.006976181491661157 -0.007313474177352671 -0.0013113734488591061 0.00019017092467402404 0.0016722381009276466 0.25585951189519496
21979000.0 0.9800109814001254 -0.18265266651533688 -0.0056626914752543195 -0.009289062700777838 0.0013601431253590487 -0.0016847864644929096 0.02203963540591888 0.25448957071199235
22978000.0 0.9776684235016665 -0.19140278664838245 -0.00816380814899475 -0.00196970062177147 -0.002260374000382856 0.0005734364308397266 0.03113138450067529 0.2618127429959839
23977000.0 0.9788968760829161 -0.20053143605706275 -0.002797829848860163 -0.0029012628643794265 -0.0006708462278398594 0.00017759476037887908 0.0491599670571851 0.26019976274805956
24976000.0 0.9756682286650759 -0.20926626994705344 -0.008484032543966277 -0.005860341380510278 -0.0014486227364375727 0.003875204111008363 0.06309736488506894 0.25739094303009274
25975000.0 0.9760864790966127 -0.22231639858269087 -0.003107109699376162 -0.0013815113689154268 0.021734935007418715 0.008938281920642487 0.09489908331690973 0.2628728144761459
26974000.0 0.9715543564011395 -0.2256237271697452 -0.004596537372494175 -0.0005798231565230459 -0.0007875552026780657 -0.0009058715641329686 0.10076576097780247 0.25948294633668006
27973000.0 0.9706981835355544 -0.23194029082023482 -0.0055105518651539604 5.883633666544994e-05 -0.0004129560854409485 0.0017113532905564204 0.11459580805096185 0.2584126250595104
28972000.0 0.9684084416299544 -0.2413120869431184 -0.00011203799989657159 0.0012191654394750476 -0.0019184987052259608 0.0043770580478840245 0.12765155928232413 0.25414681559640145
29971000.0 0.9658582696729354 -0.2519794439659776 -0.002357861798779239 -0.0025308531558068574 0.0006623483412403296 -0.00044066461421378493 0.14936039918300292 0.27151964796289424
30970000.0 0.9647490784691145 -0.25737093126068883 0.0010314387837731562 0.00044150368792746493 -6.704083243263969e-05 0.00018338881328158684 0.17200995524164675 0.2603019435247587
31969000.0 0.9616008247976592 -0.2646660228900975 0.003321445154166571 -0.00256435464798912 0.0022704790293675624 0.0005603086317005417 0.16035876682669709 0.2569294376649375
32968000.0 0.9589382180290804 -0.2774945624840453 0.004850757824668434 -0.01101445583845693 0.003494398162428708 0.0007475219121275748 0.1740823335971993 0.24738809157142833
33967000.0 0.9571994537243491 -0.2861799869711502 0.00963486676240848 -0.010812234849592213 -0.0010350046718114229 0.0005660984635065964 0.18302364132613758 0.2474206179862975
34966000.0 0.95340736858615 -0.29319447901628876 0.01366411691146169 -0.012308480699497672 0.0004796626752808917 -0.00048119440090921446 0.19482489531193425 0.24772086996596362
35965000.0 0.9511298905052928 -0.3010069629832334 0.015000948703205631 -0.015085832611221475 -0.00017865158295503745 -0.0009997811496685958 0.22126215340795805 0.23963629101259523
36964000.0 0.9494525206129338 -0.30970650542529166 0.012542715051101994 -0.014957466886035869 -0.004299499135619093 -0.0022650669932058683 0.2116529709678969 0.24965997148414198
37963000.0 0.9448461861072128 -0.31921480900587046 0.023626006990979456 -0.018725420067709834 -0.0006228802843541339 0.0004240123689987279 0.23599157124683023 0.22938604116522054
38962000.0 0.9451286153385782 -0.3264181190148337 0.027213300978912714 -0.025268881117317166 0.0017357783543088402 0.0007997758528824775 0.2461552113404772 0.23129330286440417
39961000.0 0.9409936763936683 -0.335213986241816 0.025266690787679867 -0.029541678555724846 0.0022792738127610343 0.0038618892334532045 0.25340110404147326 0.22117564029422965
40960000.0 0.9385953593761897 -0.34349873275818826 0.020900168605276288 -0.02189256358129453 -0.0029533909770284275 0.0004610639153209366 0.2784367678666043 0.22557829185451048
41959000.0 0.9344918431607265 -0.3525457928823829 0.03073779729463669 -0.03143867695647871 0.0016472204325549175 -0.0023446019806298876 0.2745140803295314 0.20859826084086022
42958000.0 0.9292809720477468 -0.36103483601308434 0.028179808873706715 -0.040414637063833206 0.001415771957285712 0.0020017392714745306 0.28945933890614606 0.19381339386383198
43957000.0 0.9306677457518127 -0.3645649197910289 0.03500971174529678 -0.04548517168793835 0.0028840974442808963 -0.0018647828178885609 0.29510057973899445 0.20691376771908968
44956000.0 0.9246323409992933 -0.37298911971821214 0.03475378365143058 -0.05201225706849836 -0.006855177004660177 8.541175356662044e-05 0.3133748150685641 0.19503563634818952
45955000.0 0.9210406793938828 -0.3853777714122271 0.03411100171464869 -0.0594410174842527 -0.0005954474669096092 -0.00017066215160641162 0.30983631796856637 0.20015964801298353
46954000.0 0.9171629714090674 -0.3929852843632827 0.03687902804856997 -0.06443734796880447 -0.0008986083592289495 -5.935746971135974e-06 0.3301066847829916 0.1795890907114979
47953000.0 0.9147329478579947 -0.3999355160735577 0.03573273034990126 -0.0718946779036616 -0.00306561234386599 0.0004813791832697701 0.34675652324562156 0.16250400598941778
48952000.0 0.9075931952590823 -0.4122087933467812 0.038092958011717366 -0.08009221819932033 -0.003763182765947954 0.0029867845139836097 0.3456451509071149 0.1531089319223335
49951000.0 0.9068953314431849 -0.4156732169006755 0.03822613240469419 -0.08428258201620775 -0.0007792270565504767 -0.0027775762052531846 0.35879791663253363 0.15428952249959632
50950000.0 0.9032614927606074 -0.42667599325000594 0.0384696578219667 -0.0978511392111548 0.0038193865130929623 -0.0007283795721823777 0.3584995721375552 0.14299038460396513
51949000.0 0.8977998763687264 -0.43178123700121496 0.03835487993875885 -0.1061854772456356 0.0030070799965688406 -0.0008436687496645486 0.3716813632521597 0.13728410462619522
52948000.0 0.8952258177970509 -0.44117958559140225 0.041005136736872304 -0.11504221827116516 0.0018277887328571399 -0.0025945182545205757 0.3779724357870962 0.13417614948331708
53947000.0 0.8912118912026804 -0.4481900524676354 0.03971898854436171 -0.12495159077427893 -0.0006645629375097476 0.00012108900799170546 0.3768638113000721 0.12622863330236792
54946000.0 0.8855454223273639 -0.46015606138792825 0.04242938262788255 -0.13349618524926748 0.005168067494390584 0.0004558037283957091 0.39312237331678235 0.11925059023241943
55945000.0 0.8821376598208649 -0.46699552228449487 0.0449874966841309 -0.14268885954010324 0.00013826436363291553 -0.0012126350343530509 0.39371867924989873 0.08908101421714593
56944000.0 0.878525702841848 -0.47342412890793506 0.043126508225574914 -0.15447825826620204 0.0023671861411859963 -6.947521211160178e-05 0.40168510034708654 0.10231819066965075
57943000.0 0.874707342755029 -0.4849281661343626 0.044134078431519265 -0.16776108770036782 -0.0007509161335185976 -0.0018171406362003134 0.4045767283013127 0.08413308044785835
58942000.0 0.8671809274167075 -0.4910514913180684 0.048578205279535325 -0.17674014803043286 0.0006466379871442675 -0.0006011495122130686 0.41955480349683894 0.08993018410399721
59941000.0 0.8668649640468041 -0.4959346420327308 0.048604348709154165 -0.18460549112539676 0.0036326776868198917 -0.0012066681194847567 0.42411256601957054 0.07936744685767241
60940000.0 0.8575580709126709 -0.507217632730309 0.04879273051815711 -0.19061185438695175 0.0009513409231398585 -0.0005825225267072527 0.4177750476115329 0.0647854021315099
61939000.0 0.8550732179061493 -0.5125615389947074 0.05072951097464448 -0.19805760809500206 0.0009502010407262994 0.00029346244963820767 0.4247526863972114 0.060890307868758445
62938000.0 0.8497625181885452 -0.5220220171581486 0.05390498088153047 -0.21804498540845152 -0.0018034929377605084 0.00014359329311973703 0.44524817554813395 0.043553630328803855
63937000.0 0.8460917433667235 -0.5299642114262609 0.05271618150790832 -0.23694258930744228 -0.0034719234023454135 0.004191162346360046 0.4372370305353354 0.03320851452341973
64936000.0 0.837075562568133 -0.536641607205632 0.05258818670494474 -0.250240921016879 0.0007807031598441191 0.000733747537147763 0.44789586558399436 0.032712335950056536
65935000.0 0.8358877186661272 -0.5473399671795741 0.05523559230753613 -0.26446369777910095 0.0003992767806329634 -0.0028733381814369462 0.4420843366504857 0.001955920895652073
66934000.0 0.830464430820294 -0.5511781712870394 0.052486292390897596 -0.27699202464781764 0.00040518468013342994 -0.0020412624597011455 0.4422494037438595 0.0003764698669894385
67933000.0 0.8275973719453823 -0.5591003022661465 0.05329150069134149 -0.29176333600758464 -0.0014856176974740818 0.003553022238904762 0.44771319483348787 -0.002154874678802178
68932000.0 0.825069392911737 -0.5585379718517424 0.05067415185659443 -0.3049672835639502 0.0025540285322078605 -0.0015883131786798728 0.45192239358541925 -0.020615003341873415
69931000.0 0.8136351417783177 -0.577633853719964 0.04598598075616364 -0.32197219159757223 0.0007890757795772592 -0.0014303576116344264 0.45542880077775705 -0.030254732328911627
70930000.0 0.8076237343142285 -0.5829787498943171 0.045394824887968296 -0.33568114191839954 0.00027694844064265876 0.0006041270405764004 0.4460762745206615 -0.03093210439038109
71929000.0 0.8063008715910589 -0.5898855067023588 0.04259454267248824 -0.3566412545998591 0.00124047734564401 -0.001779729144741972 0.4528529438379349 -0.045154378743995166
72928000.0 0.7972204881680611 -0.6018834854970507 0.03838506740987757 -0.3710523961197248 -0.004329263908357356 -2.239675787665777e-05 0.4711585700649111 -0.05644927022688827
73927000.0 0.7909633691013239 -0.6066514878279642 0.026274682689927865 -0.3901605088518314 0.0020829253648458556 0.002055874222072391 0.45651545875626953 -0.06803944060170379
74926000.0 0.7880330672987278 -0.6148828332070743 0.025011519263839956 -0.4087531537453431 0.0024708906078932716 -0.0011536417419740058 0.46765199564796117 -0.07054074567878699
75925000.0 0.783073343085365 -0.6193819783050764 0.01699587094692309 -0.4264866148400973 0.0008830642995704946 -0.005178480576301128 0.47595401173086455 -0.08111455809715054
76924000.0 0.7761125563066659 -0.6269272035373264 0.002967237684615141 -0.45167134789951313 0.0001731079339240577 0.0009439389302526642 0.480335981140674 -0.09820541586707975
77923000.0 0.7668897846736996 -0.6363017686099314 -0.011358310711213123 -0.4754550273619867 -0.0014274338225770185 -0.0010459890685199159 0.46545200802755304 -0.11127513419052201
78922000.0 0.7631524864372407 -0.6453290108329682 -0.028701155684393874 -0.5000301760260376 -0.0007327739518203073 0.0012375816936985007 0.4662010264169299 -0.11518186652768345
79921000.0 0.7533520823268601 -0.6496780403544389 -0.03976767820876753 -0.5279520942328423 0.0018981111525253522 -0.0014605145678009783 0.46387169518976407 -0.1198538468876766
80920000.0 0.749557871270675 -0.6600791478195432 -0.056430499203585865 -0.5577132492066457 0.0017203861778516821 -0.005613648575343569 0.46126691772092815 -0.1475041194551342
81919000.0 0.7449529122732694 -0.6653565203975793 -0.0762546437943715 -0.584822083546606 0.002399919820125713 -0.0018030237722969067 0.47035281978145094 -0.14436994252141944
82918000.0 0.7355352618590477 -0.6751139441219846 -0.09218550006738084 -0.6181097512152085 -6.702605427957346e-05 0.004228702451680387 0.473156568404605 -0.14508099616965123
83917000.0 0.727108314168609 -0.6815166784165179 -0.11461637775347512 -0.6421701323914658 0.0009193118386083548 -0.0020235973606119195 0.4803028956118433 -0.1552001743036353
84916000.0 0.7233646728457769 -0.6872515774145026 -0.12992276700651584 -0.6786934448765294 0.00017799935084572528 0.004239924334990838 0.4672090752522873 -0.1827639020044784
85915000.0 0.7164086980003123 -0.6950707197505137 -0.15252718208809576 -0.7083463671067036 -0.0013162632714771327 0.001419558036207156 0.4643680240800719 -0.17775259419195483
86914000.0 0.7083166219745639 -0.7037155545954222 -0.16517394547696526 -0.7439980932103069 -0.0020975281924206215 -0.0043286638154170255 0.46998824277863344 -0.18075863286673852
87913000.0 0.7022146798715839 -0.7093874225822228 -0.18777941807927145 -0.7736900963194567 0.00031522945323820466 0.00013742096146928445 0.4599533809860696 -0.18906998661734642
88912000.0 0.6954281173673095 -0.7164858639114658 -0.20122366406528025 -0.8111715061059179 -0.00256361178431659 0.0029468533943535617 0.46101295119595603 -0.21071810202162286
89911000.0 0.685617337091484 -0.7255957707736328 -0.2235149352168215 -0.8458068344397675 -0.000850684635412803 0.0010184784832884721 0.4747304547627568 -0.22105579066323064
90910000.0 0.6818785657048516 -0.7316849363416567 -0.23563902076285112 -0.8810277622407392 0.0016430915941604558 -5.844013325833537e-05 0.46249654580169147 -0.21962111745800753
91909000.0 0.6723285195735611 -0.7348898076045304 -0.2564711238201204 -0.9160508605620349 0.003177248306734284 -0.004518581341732616 0.473100561669484 -0.230376761601553
92908000.0 0.6640087444631035 -0.7442729229264846 -0.2764733872467239 -0.9451542861868231 -0.00286395198842997 0.0008483013210339943 0.4544224031163689 -0.24313681538579127
93907000.0 0.6578691053075763 -0.748677726586553 -0.2934655454579006 -0.9805029190028435 0.00044600761927157353 -0.0008912873376620489 0.4523511791052438 -0.2675623217029924
94906000.0 0.6442477299656578 -0.7572483902037012 -0.31436974680636315 -1.010245946750049 0.0021747342449943406 0.0018358789254601991 0.45693466952723183 -0.26037957256674227
95905000.0 0.6380648359754247 -0.7648582842073781 -0.3355687334241501 -1.0466458836321442 0.001994440130301958 0.0016940476272942 0.45650222082157255 -0.2769626117546775
96904000.0 0.6308073813098234 -0.7721970622419145 -0.35439972504180345 -1.08488451413747 0.0016710513271323397 -0.001992561921519441 0.452206635754526 -0.28109903386631097
97903000.0 0.6210708809985048 -0.7780211687227675 -0.3808645494249541 -1.1158027143699403 0.0002945555987444886 0.001716895444165799 0.4420245475597213 -0.29200248969422105
98902000.0 0.6176287935516479 -0.7858302309646377 -0.3993585655051248 -1.1577470005928276 0.0012751559173772948 -0.0040187952255343485 0.445091304266212 -0.31458008870969933
99901000.0 0.6076550070588516 -0.7911564335214035 -0.4242025157721304 -1.189715794701237 0.002439737387219424 -0.002894842044033446 0.44754785307842043 -0.319463936214867
100900000.0 0.5978290268044651 -0.794506941439171 -0.460228406777093 -1.2172718392337096 0.0033229785294553284 0.00022465311796125711 0.4587376172340909 -0.32265795634756744
101899000.0 0.5868973126031265 -0.8016936154069259 -0.4890117718529824 -1.2540777504705227 -0.0023424976552304864 -0.0003876957715834312 0.43891478481122376 -0.32242214018599447
102898000.0 0.578248539946293 -0.8094306396251506 -0.5235319181287292 -1.2915052688953512 -0.0019017995185222978 0.003602866020676922 0.4464861380830492 -0.34999067157523545
103897000.0 0.5719984553977705 -0.8150205312208796 -0.5621394055030654 -1.326844965345108 0.0012011379810925162 -0.0008660670399345508 0.4506681410023322 -0.34549243494829524
104896000.0 0.5647022856295757 -0.8247223363234035 -0.6071805917337848 -1.360755649849675 -0.0009380137145372609 -0.00011736972143125329 0.43317881719374185 -0.34733919665743285
105895000.0 0.5539764091095277 -0.8278189123951647 -0.6505946832837426 -1.4010080932342706 0.0005040225545831151 -0.001123902503269528 0.4335260852658453 -0.37380973817046426
106894000.0 0.5447394680535206 -0.8360234968861626 -0.7068187922625516 -1.4410072439111845 -0.00044198413715387894 0.000416661449329478 0.42310384716910393 -0.370426961188982
107893000.0 0.5376546358861225 -0.8411379414341984 -0.754342089168961 -1.4782689180958273 0.0010739273237274929 -0.0037467553411125614 0.41657726210957463 -0.39567489151232577
108892000.0 0.5266032569143202 -0.8441122974718651 -0.8148827134133513 -1.5135770508702535 0.0004318968305741399 -0.004048998305110352 0.4166870266412657 -0.38009441301453134
109891000.0 0.5150279977602751 -0.8542258142991478 -0.8737213399895652 -1.5479921187289163 -0.000769720322055927 0.000684113497924957 0.4314961214731636 -0.38028389742877206
110890000.0 0.5087038628193202 -0.8549637257929147 -0.9322026483330358 -1.5608652893318098 -0.0030108961814262884 0.00171959311282425 0.4145203381322741 -0.3906063638789122
111889000.0 0.49442818730072086 -0.8587683358872306 -0.9990506027537506 -1.6130574888817097 -0.0021971488695192213 -0.0007766627577394248 0.41194056003922436 -0.4159819469094424
