! Created with skrf 1.9.0 (http://scikit-rf.org).
# Hz S RI R 50.0 
!freq ReS11 ImS11 ReS21 ImS21 ReS12 ImS12 ReS22 ImS22
1000000.0 0.9672811698085398 -0.0009600124518195269 -0.0038340178584588907 -0.04104363381489775 0.003921124111311744 -0.00312348861404835 0.3638515638862758 0.26793796400568426
1999000.0 1.0001868346559293 -0.009027049734699798 0.007944817570363224 -0.023685397842682476 -0.006341955307795975 -0.012137862188059248 0.2480568158324649 -0.07288416364251289
2998000.0 0.9956764798842271 -0.01769746742769153 0.013573535631842033 -0.011477366939377459 -0.005064936678840244 0.003396670511594959 0.1897326961639794 -0.16018613100810908
3997000.0 1.0020803978755854 -0.027758940129592565 0.016177136895204877 -0.00415523981545002 0.002279367637536694 0.0003084447339466052 0.09172806544697268 -0.2546522156671053
4996000.0 0.9987597469452194 -0.03608728628161211 0.012586464417706132 -0.0036361314445186687 -0.0015307639519502342 -0.0016041657104893187 -0.04227241410416498 -0.20931942329618144
5995000.0 0.9982291158417478 -0.04619604286129294 0.012446310545075633 0.002313762265648552 0.0020339265833815845 0.0008739195685609255 -0.11699634967309179 -0.09603766655027408
6994000.0 0.9961658046498771 -0.05905741513572008 0.010015023555090284 0.0006554323765444894 0.001773478702466081 0.0018172064175264254 -0.14739892496352236 -0.015309419306031963
7993000.0 0.9954090038010526 -0.06911171213735065 0.0021771035036621737 0.008671006939037811 -0.0011796009468487336 0.0013297130475006895 -0.14941435587512933 0.039654220610550454
8992000.0 0.9957149125372965 -0.07105678574804862 0.0042059406532196425 0.0054221807782565065 0.004095357477085417 -0.0024728392013797754 -0.14820356366572532 0.06744219606499552
9991000.0 0.9944464760879322 -0.07895174485205304 0.003055452909607539 0.007424433881830374 -0.0009126695704044311 0.0019149108724916654 -0.14251959516739376 0.08953892123100542
10990000.0 0.9928523973473476 -0.0922077281556403 0.008188737625110768 0.0031004772464082423 0.007461847797924511 -0.0017349563391074487 -0.1367387562508024 0.10675077905562866
11989000.0 0.9911862347258673 -0.09769934268948778 0.002340290117393772 0.0005611015407437818 -0.00010261442182026585 0.002918074868273633 -0.12447689586726718 0.14200395672392202
12988000.0 0.9925868117232026 -0.10694024539979038 0.0007885842953047727 -0.001228403111352163 0.0010514387208674057 0.0028741174236729984 -0.12068901253508776 0.1738458624825608
13987000.0 0.989422052736476 -0.11437832658217247 -0.002262462355326962 -0.0013337230804137622 -0.0012371230418728352 -0.001416196848276151 -0.10650936722446604 0.18487750701057132
14986000.0 0.9894038535694836 -0.12259790830130811 0.0005976599486117827 -0.004443071342039239 0.002220003559030131 -0.004253942249195862 -0.0843688156761735 0.19975685990573605
15985000.0 0.9906761404749078 -0.1321863408667495 -0.0012381145334042919 -0.008046342610290285 -0.0030116517629643507 0.006759896904926414 -0.06546151390276124 0.21650365828865015
16984000.0 0.9899019239226926 -0.14174956044429857 -0.0005175846753492244 -0.005214071293527509 0.0027545033484302926 -0.002352858296282695 -0.06853687024128034 0.22585175682385095
17983000.0 0.9869047768535185 -0.1487912265280008 -0.0007238934896312318 -0.0017536502644967492 -0.00019396497944414612 -0.001964062658789233 -0.055088689844421924 0.22325152672184592
18982000.0 0.9837021798196355 -0.15978514112112385 -0.004020698062157514 -0.008474188763319047 0.0012932333884900962 -0.0030686880741767194 -0.018103969581432518 0.23743609327858006
19981000.0 0.9853282971124229 -0.16576897080736397 -0.006953727404598991 -0.005428985714203802 0.0010040310692500942 0.00011207345062392088 -0.017438917766337766 0.2409757703902592
20980000.0 0.9825203352048277 -0.1737479528684954 -0.005009313678316842 -0.002075073868667761 0.0006574842270694344 0.00265542398748974 -0.006896260066047446 0.25432263690371243
21979000.0 0.9813413291213503 -0.1794561815801883 -0.009453934481449173 -0.0034553238605760745 7.799704615526982e-05 0.0023146535511372004 0.016892361043629175 0.23731218902562018
22978000.0 0.9787303246164448 -0.19210212206321028 -0.006040743389943921 -0.004127462038813781 -0.0014129418752642346 0.004567930384235817 0.027868064809786992 0.24713509181621196
23977000.0 0.9794236604455725 -0.19860726786398275 -0.007527329816603045 -0.0003425298731611016 -0.002467430857296312 0.0040613096556359725 0.04101080224166585 0.25225864054716735
24976000.0 0.9768589727544645 -0.20637626501391126 -0.00792376736726798 -0.0005791561158652063 0.0014315379202070862 -0.0006873113643096336 0.05607545660405478 0.2660397750514136
25975000.0 0.9777275386027263 -0.2153453557842715 -0.0022248386123484244 -0.0038337732211234845 -0.006411860941513109 0.027544015235502584 0.07835581158757615 0.26762460521748044
26974000.0 0.9722924802182763 -0.22409835304167844 -0.0034700229068539506 -0.002370545633563897 -0.003991149708702606 -0.000522085783245532 0.09329763177867079 0.2668752218473112
27973000.0 0.971913977496363 -0.23065893800197548 -0.00277030146545254 -0.0007639675707518679 -0.0003956009784485242 0.00029178232335179297 0.09906363606070419 0.24838269698075255
28972000.0 0.9672694322205305 -0.24144725559793068 -0.0016951086969723274 -0.0030891472234176177 -0.0001665152619314885 -0.0036443887935247647 0.11656365510656415 0.2578922803191246
29971000.0 0.9658587745668311 -0.25058997761335067 0.0022611150771913195 -0.0007621830515165588 0.0005557292713920522 -0.001085279626112118 0.15171269411411795 0.2651609869751508
30970000.0 0.9636852378684494 -0.25390580627356696 0.0027591892013736933 0.0005677922544019076 -0.0012592644637835777 0.004110796569431751 0.16558783001940727 0.24827455092994105
31969000.0 0.9629885404396041 -0.2630586127690951 0.004803934457171023 -0.005677755576793082 0.002279047517926625 0.0015086742826178519 0.15606658302925752 0.24405448647089417
32968000.0 0.9613932856755192 -0.2711990895191752 0.009559923426935357 -0.0071422571763366605 -0.0012986123551613 -0.0011497948437536243 0.167720864263209 0.247758827208643
33967000.0 0.9587686684774391 -0.28143256650750004 0.011641467719789593 -0.010107224821339281 -0.0007340053143224587 0.0006894984082522518 0.1804748230203172 0.24153871708234514
34966000.0 0.9546899517114833 -0.2913494355136552 0.01562988532124136 -0.012016247626228575 -0.0007131874907453052 -0.0008975291602306943 0.19747483680057132 0.2542642139204566
35965000.0 0.952952848644219 -0.29928127192637427 0.01636351122536364 -0.013517375591341618 0.0009549343491396966 0.004206101551476515 0.20056006965540038 0.2530186232944543
36964000.0 0.9517569911437088 -0.3073997586743912 0.01673399279095724 -0.013448072279780142 0.001170059555722472 0.001046114223047623 0.22185339022497705 0.2569681215222699
37963000.0 0.9486174128948935 -0.31551384987128406 0.02642622985812685 -0.0212292451682919 0.000460499419920954 -0.0012266964470941722 0.22324338301141478 0.23352495523951772
38962000.0 0.9441136033647359 -0.3274283816999592 0.026032285298235154 -0.022426190708216363 -0.001902812488567722 -0.0016733759684693437 0.23933580255122688 0.22163462030594439
39961000.0 0.9428139367306936 -0.3308744740220553 0.03015016658530612 -0.030460564285290096 0.0009387815404854782 -0.000697657338833838 0.24221027190027786 0.2291882902920511
40960000.0 0.9381031895144757 -0.3409243449033341 0.025982987260993608 -0.025551347050303316 0.0010328329048820356 0.0028115081983684375 0.2694756317750686 0.22814730760942067
41959000.0 0.9361843772076666 -0.3510763275034272 0.03251284581193958 -0.03410290457085794 -0.002498293805019578 -0.0020442005604149513 0.2644277856703316 0.21108386983018193
42958000.0 0.9295725817562273 -0.3603086729612014 0.03698910872291188 -0.0433170341105506 -0.001301391864377615 -0.002661573580484251 0.2788728109603839 0.19870850224400055
43957000.0 0.9300550258102355 -0.36351613750990774 0.037713890948329706 -0.05115534555281095 -0.0011227116234442122 0.00047957398950762667 0.2870041339544732 0.20344925063032998
44956000.0 0.9259830191040679 -0.37279823059520495 0.0392743564291636 -0.05396914623787388 0.0010400987496101712 -0.0011657174714120736 0.29749908807389874 0.18964787675900466
45955000.0 0.9216514477619022 -0.3834193485772329 0.03629719100114163 -0.059427068519292144 0.0011798564439982149 0.0010960122542909305 0.3045677240753657 0.19183647743990687
46954000.0 0.9188497579499663 -0.3907720145728048 0.03946969223921436 -0.06966239456680845 -0.0007154772269805995 -0.0016371936095896393 0.32525583542070774 0.17882121672155538
47953000.0 0.9164885833951038 -0.39793309732093873 0.041235489226733375 -0.07653763161799532 -0.00417936344365244 -0.00036950272193533813 0.33049228072331377 0.165668739813226
48952000.0 0.9104471164214826 -0.4100618674051605 0.04231612790175637 -0.08365498723616062 0.0001134876476483902 0.00021043322412640745 0.33596124268893707 0.16000269218955387
49951000.0 0.9086279952961939 -0.41283288664303364 0.042958259369652106 -0.09183710539743561 -0.0008104205179618883 0.0008213770132231512 0.3459887090271504 0.15136609548285856
50950000.0 0.9035353296340725 -0.42387946641002555 0.04343630355684982 -0.10160625854403456 -4.184675708632341e-05 0.0022517506148636885 0.3501256317864267 0.1399159578288179
51949000.0 0.8991724826116464 -0.43004777309853415 0.04484476194901926 -0.1076969127662246 0.0019977808820565886 -0.002844989634372892 0.3591345237407911 0.1416913598123582
52948000.0 0.8987583686145904 -0.43780976442085007 0.04628249512193454 -0.11985141987180671 0.005193323168395487 -0.002043693773124207 0.37045729029428665 0.1294226618981956
53947000.0 0.8930809737857414 -0.44547325687398126 0.04950817387283676 -0.1264608582273067 0.0015382084415155352 0.0006423961921893286 0.3777170970502177 0.11985033984497678
54946000.0 0.886545001461434 -0.4577956708366145 0.04654743842581183 -0.14032552505155738 0.0019810580644839754 -0.00029010800046190446 0.3817144527001187 0.11621551302682813
55945000.0 0.8845944355380221 -0.4620027257659506 0.05073207176143647 -0.15029849704731735 -0.0031135317150763624 0.0016188087405600592 0.38090501535545856 0.10214091911152863
56944000.0 0.8786895297440579 -0.47209761703610265 0.0519021521795381 -0.1576294147512515 -0.000576173724521332 -0.0009409014436747434 0.394774290894186 0.09558673656257258
57943000.0 0.8766896252244003 -0.480935424568518 0.05189975055566602 -0.17368041387994684 -0.0030507613827577217 -0.0027354888550265005 0.3983206326171995 0.0875972184115111
58942000.0 0.8705722023681357 -0.4855161825458484 0.051896387529963756 -0.18289753000680414 0.00029456438221888814 0.0008029018956690816 0.4150788974462325 0.08130116871890579
59941000.0 0.8668512587953312 -0.49560791559351597 0.05740026338501591 -0.19465669716372666 -0.0003155753931351468 -0.00371393973529776 0.41138935840141566 0.07063975028496056
60940000.0 0.8599046779050088 -0.5028929513982903 0.05228358578673301 -0.19791786788638197 0.002216921381260713 -0.0013062091813752857 0.4075993447447909 0.06341130198676782
61939000.0 0.8566813772003806 -0.5092440446564487 0.05567833470198036 -0.2079186749219614 0.00173035840084426 -0.0012332040029239672 0.4194406199340937 0.053919011724466455
62938000.0 0.8514130518110388 -0.5207196321302024 0.06130819756933143 -0.22640459516988568 0.0006799071240483015 0.001914257364408811 0.4430202246880451 0.041783834799645383
63937000.0 0.8469504190354906 -0.5274016289210783 0.05740708667853649 -0.24564440897462536 0.0013241087376233487 -0.001616095700677872 0.4299807871545368 0.024581560224698953
64936000.0 0.8390695237108874 -0.5348505452409904 0.0563039025651267 -0.2628852116200086 0.0020350855493300457 0.0010306516289848018 0.42927625277700626 0.03134801718277921
65935000.0 0.8369488823499246 -0.5459601756604707 0.05956186269802292 -0.2769644531130157 -0.004732393869703582 -0.0022243598722535797 0.43756184370268125 0.0025206054333001835
66934000.0 0.8339398359953409 -0.5479296933558756 0.059193943817578205 -0.29206603378368295 0.002098131530036311 -0.0007222019034927076 0.442415381319245 0.008100179321291121
67933000.0 0.8288060494645875 -0.5580575996937088 0.06256957642291172 -0.3061638051221395 0.002995536711464291 -0.0013082492066382847 0.44450695273588603 0.007145781675002416
68932000.0 0.8180652805223291 -0.5502279613441352 0.056487477491772554 -0.3167427109795211 -0.0021278559061965693 0.0005108612863247477 0.4487177952097825 -0.016886813386832712
69931000.0 0.814253879896992 -0.5741197488352886 0.05696349922215411 -0.3385144768438385 0.0017705206723763658 0.0020937030783728487 0.45857256676874447 -0.03344727655004792
70930000.0 0.8090352582004383 -0.5790723165698305 0.050026089114181445 -0.3532516278680538 -3.689158150315362e-05 0.0009578284003002866 0.437426753581284 -0.04108839597536774
71929000.0 0.8064279061401077 -0.5872547786237943 0.046255299860814815 -0.373493016003882 0.0030701664654746172 0.0011973302338014755 0.44396789452959046 -0.04484589373903063
72928000.0 0.800185102121173 -0.5998052872127154 0.044249141871927716 -0.389639365616217 -0.00167802138122782 -0.0005968149915738375 0.4714212341979636 -0.06033500333702433
73927000.0 0.7948253519421421 -0.6042905840736308 0.037354675285458994 -0.41467036690518155 -0.00040161556911915385 0.0007556371093409177 0.45780050024739377 -0.06965404964914813
74926000.0 0.7882572234366413 -0.6143454301685307 0.02689089820519916 -0.42958620938864756 -0.0014312900402849206 -0.002693898206295329 0.45317028187900743 -0.08003843940695576
75925000.0 0.7850501448180514 -0.6169029341526563 0.022307190123169063 -0.45349309743612676 -0.0007307426200449709 -0.001524041347426575 0.47027636715064514 -0.08529902855596665
76924000.0 0.77812416418652 -0.6251154955758413 0.0029684611665122293 -0.47886597805535625 0.0002813546392178743 -0.0023521444556012243 0.47202723054960016 -0.10358645513615497
77923000.0 0.7720410782250566 -0.6330767311298782 -0.004152596864867965 -0.5062608096142619 -0.0025913432918336443 -0.0012888794764712383 0.4622137687147704 -0.1108166953689233
78922000.0 0.7648018334293301 -0.641961513320024 -0.026229237087979376 -0.5299361274013525 -0.0025530500815658243 -0.0043355612905270685 0.45341373510285526 -0.11390807892804554
79921000.0 0.7567685044291489 -0.6460129619079399 -0.0438676764029603 -0.5590049273148271 -0.0016366155200771054 -0.0013981747651644787 0.4643860392172537 -0.12963924127019313
80920000.0 0.7540076895436947 -0.6559766854690638 -0.061215024333343096 -0.5893581131229706 -0.0011491058460992786 4.203993317622229e-05 0.4658206364863772 -0.1391068492793451
81919000.0 0.7457382706222907 -0.6624105419075658 -0.07726615433833413 -0.6161597135051632 -0.0021084504780538174 -0.0010680055315697707 0.46835063978166275 -0.14009165369895218
82918000.0 0.7383145925118695 -0.6704610367381776 -0.09133411317861251 -0.6477543448768803 0.0036536128013751577 -0.001752821101118871 0.4731479590926261 -0.16001868521045493
83917000.0 0.7314607600416003 -0.67791137108944 -0.11031359779610736 -0.6785183936241365 -0.00016304252210208679 -0.0005308433199538169 0.4663730737538997 -0.16449839155243937
84916000.0 0.7259378876626723 -0.6867742237656109 -0.13172865963629266 -0.7182586321983369 0.001035758731691174 0.000999876952696926 0.46826487485049284 -0.17381577637905113
85915000.0 0.7195691928354108 -0.6897411707642189 -0.1472230351091061 -0.7504164780861778 0.0010416716749946859 -0.0057062400110877536 0.4624501826932034 -0.184021544456139
86914000.0 0.7117448585168832 -0.7022407436889303 -0.16345298233167269 -0.7876568219922189 0.0023314572245596754 -0.0019142970508644924 0.45955601309680355 -0.18262055898384097
87913000.0 0.7064416357333761 -0.7069711632537439 -0.18686882739215457 -0.8150465675132195 -0.00017689619897855337 0.001567843413337515 0.45643403146862144 -0.19592571174121462
88912000.0 0.6959971106805776 -0.7154076841447035 -0.20274870648745155 -0.8551758340590929 -0.0004534286762992983 -0.0005143221374337936 0.4570672691274557 -0.2172114781091689
89911000.0 0.6918673611948547 -0.7229795286771737 -0.22271720202215972 -0.8910766166763778 -0.002103135257852948 -0.004048480500085904 0.46562704440592856 -0.21740390171705612
90910000.0 0.6839973478810292 -0.7280349483841544 -0.24338499224557406 -0.9295267137633119 0.002254807039172088 -0.0006270659184934234 0.4615257852962095 -0.2350395708188669
91909000.0 0.6751154736447457 -0.7323779740102992 -0.2617826694298845 -0.9637082169641202 -0.0004109291049516563 -0.0012281070049892356 0.46269079950619446 -0.2413779032561153
92908000.0 0.6669886748086323 -0.7407792095530384 -0.281434464698438 -0.9988281692913469 0.0007287819166935498 0.0012257147392849919 0.44583765930732744 -0.24823875214873972
93907000.0 0.6616036191613005 -0.7468963899321438 -0.3016987687239054 -1.0315801575309014 -0.000841539379412977 -0.00151264822423233 0.4546173700279178 -0.2629907466240956
94906000.0 0.6488562567861959 -0.7560289667561728 -0.31980911613746693 -1.0662326351525602 0.0011094715439381375 0.00022158414855653766 0.45889967148206506 -0.2728920317701723
95905000.0 0.6436789007505196 -0.7602945794950815 -0.34662766336657125 -1.1067001114977042 0.002724595199421829 -0.0012804866172621736 0.46125725552278607 -0.28207598109301546
96904000.0 0.6370022656906333 -0.7688976604009143 -0.3653250972264045 -1.1473090486701993 0.0043743529454317 0.0018770012319902756 0.4466239265823757 -0.28207603760181515
97903000.0 0.6273333914666931 -0.7745028772857443 -0.39443941177319036 -1.1781178532065542 0.001234743226325087 0.0007693716684628534 0.4443969934262591 -0.29789693908414266
98902000.0 0.6206706865321073 -0.7807961955957282 -0.4142809794656522 -1.221966143888193 -0.003586366247567034 -0.0010751413755580959 0.4409329402144047 -0.301268300459707
99901000.0 0.6125632095497807 -0.7848832195677722 -0.4440015387194417 -1.2538501988797417 -0.0014268379040910837 0.002724911802233049 0.4589647759744563 -0.33586078303326394
100900000.0 0.6026462351989629 -0.7909961352235019 -0.483163396648928 -1.2865712218325382 -0.0012402470203475363 0.002711794341634162 0.46215520105318764 -0.3325896897732816
101899000.0 0.5925812786096216 -0.7991177940938282 -0.5145476837395828 -1.3217074073387913 8.233643591526473e-05 0.0005055898866678125 0.44193359378608515 -0.3315604941610436
102898000.0 0.5837538534713052 -0.8051288198949296 -0.553635149304165 -1.36438485432775 -0.0022845110617706926 0.0004078992547631616 0.4437062235987564 -0.34561509213246233
103897000.0 0.577255352156533 -0.8107729040635467 -0.5918763156646201 -1.4039391191769233 -0.0029482390609133517 -0.0009363426921879408 0.4452149039795285 -0.33802080768423004
104896000.0 0.5679021447468543 -0.8206693986691127 -0.6430386357854975 -1.4391839323808222 -0.0012333043798905632 7.188682604450496e-05 0.4304628152290493 -0.3555142202248475
105895000.0 0.5601086691845587 -0.8250267355790979 -0.6889990167893141 -1.487700913980817 0.0021406265014480568 0.002221605858697319 0.43540535677000497 -0.36853919516109096
106894000.0 0.5516139065645765 -0.8320333991232363 -0.7453408215402684 -1.5279702768868502 -0.000581182155613397 0.002095008329771642 0.42081913584514746 -0.3794237714107319
107893000.0 0.5425163962386346 -0.8367850215779707 -0.7981738288493629 -1.5646386480513474 -0.0030241457533087116 0.0012640844818068485 0.4220950335398692 -0.3874686224792618
108892000.0 0.5333159683449525 -0.8393094081072162 -0.8649883918099303 -1.6066106726067988 -0.0006479903297582455 -0.0012312793861280226 0.4200844750805332 -0.39111153955018113
109891000.0 0.520663272448082 -0.8491645022960242 -0.9291584025895423 -1.6421809125967972 -0.0029232291451041217 0.00253253062191039 0.4330141796961528 -0.4007566083198977
110890000.0 0.5123673631367888 -0.8659730884186033 -1.0167283878856541 -1.6618617835931602 0.0015312286896546376 -0.0027492191332774 0.42055408762317736 -0.4048406682553482
111889000.0 0.5011514049307508 -0.8548271358543402 -1.0663231678316147 -1.71468671198139 0.0009297278955982712 -0.0017933988144588505 0.4101356214081569 -0.39822877306536375
