! Created with skrf 1.9.0 (http://scikit-rf.org).
# Hz S RI R 50.0 
!freq ReS11 ImS11 ReS21 ImS21 ReS12 ImS12 ReS22 ImS22
1000000.0 0.9911511549170591 0.002012052275426848 -0.004003368459419331 -0.06523182559962373 -0.00394568393548778 -0.006541731109900013 0.29214797302939116 0.33714821533387673
1999000.0 0.9946037455362439 -0.01639353779770505 0.006479127088374742 -0.021338529329386517 -0.005958751676052669 0.0007499162260142894 0.2734296621022297 -0.06418850935066558
2998000.0 1.0017352714833911 -0.020609727929712 0.01603223196288468 -0.011083343357861786 -0.0018324631013852597 -0.0010278949861058353 0.18791471284534167 -0.11804088809074918
3997000.0 0.9956005568901627 -0.03128757513915123 0.013740827725021073 -0.0058318391656313915 -0.006668335180720342 -0.002621458760226338 0.09594957731532698 -0.23184505216633391
4996000.0 0.9957588703654378 -0.03655438742199565 0.016078726836585264 -0.002983642250165522 0.0005277735936230429 0.003812290760762906 -0.051364073084270545 -0.21637058812833992
5995000.0 0.9972325520120966 -0.050362611664318296 0.009709702513639337 0.0029122736157727257 -0.004198107753531139 -0.0010653355537771807 -0.1298832810517093 -0.10428566741524309
6994000.0 0.9956803264904461 -0.06168294786145317 0.0038464586415068052 0.006495464091685645 -0.004104622243797392 -7.235716058319401e-05 -0.13784352082324486 -0.013194210493305826
7993000.0 0.9944266977275154 -0.06978703204828857 0.003444942452068327 0.0018526783128318474 0.005656884014940127 0.00019593592661597682 -0.15430097534792506 0.04259203007475722
8992000.0 0.9967344948454558 -0.0737252933070729 0.0027736355612043924 0.0011484410296669118 0.00021836086515238063 0.0021327906716972727 -0.16110620395565564 0.06683889421555898
9991000.0 0.9935858524972181 -0.08489249526422493 0.005563709454043258 0.0029364839538961684 5.0504531471035885e-05 0.0020274602222972293 -0.14532773382563388 0.0991633384124683
10990000.0 0.9932188503750915 -0.09211088759523232 0.007101839343167028 -0.0005355378427757654 0.0018374438405188674 0.0025040040832712863 -0.13731604480906653 0.12004530291516798
11989000.0 0.9911976381164743 -0.099622716572692 0.005896991315081212 -0.004773099298271172 0.00014864056268303007 -0.0037920371867637796 -0.13098501075598035 0.13806487604838424
12988000.0 0.989310706364618 -0.1088636202288919 -0.0020080725553640534 -0.007884956468598523 -0.001022186883935193 0.0025738671441937057 -0.11330885340234294 0.1627097791211283
13987000.0 0.9874815199176685 -0.11652408289315644 0.001163809191149368 -0.0021291692399610356 -0.0030954768482917496 -0.002468307903522123 -0.09903790064579769 0.18841343951351533
14986000.0 0.9897124696188206 -0.12637869327942494 -0.0024829434407967793 -0.004863589052161402 -0.0006431693805008154 -5.3937217034320016e-05 -0.08556871647624853 0.205880771775456
15985000.0 0.9893588370379784 -0.1338841504729328 0.0011149552806783544 -0.004206983079189581 0.0005379439181775743 0.0017387943079604784 -0.07063091765282843 0.2077909609490494
16984000.0 0.9841789179025261 -0.14813095994157602 0.002371452024460685 -9.455362899925574e-06 -0.002745938080060598 -0.0012443095630401283 -0.05609962812667288 0.21272313005888427
17983000.0 0.985431074346614 -0.15063897961045217 -0.004198563612972093 -0.00960893173717176 0.005224891452836498 0.0016476213990101306 -0.06245485026552484 0.2229407601375775
18982000.0 0.9821687180437053 -0.1630524075301694 -0.0018903720176546397 -0.0027593153240194073 -0.00010998214837056717 -0.0008018159789457892 -0.019544480113820217 0.24271839723673708
19981000.0 0.9819478605823005 -0.16820238021753087 -0.005299805027549163 -0.003949116287787005 0.0013298172859023299 0.0033028585774470213 -0.02094508657469075 0.24399205050162742
20980000.0 0.9804873380011705 -0.17831227889682363 -0.0059647398438411455 -0.005135231567416791 -0.0004433279700246653 -0.0009977230613325571 -0.0071163963741966 0.25551765910729185
21979000.0 0.9790367027958096 -0.18565287959983176 -0.004852735312413305 -0.006656801181397636 0.005097574696522856 0.0001657030219241747 0.010645783135840746 0.23960515338221475
22978000.0 0.9783146783741387 -0.1944849348476784 -0.002855147887084227 -0.002525366991009123 0.0013711312396179217 0.0007057923464729703 0.03969469055191549 0.24708562932341424
23977000.0 0.9766434936691428 -0.20313397813692105 -0.005520364581779059 -0.001054674479526419 -2.353475854033466e-05 -0.003300258982843839 0.03852001600230616 0.260815572401615
24976000.0 0.9734778347304133 -0.21274276701591102 -0.008985153811983018 -0.0019154750380798572 0.00033673075698932814 0.0032025951674394303 0.062125002322724825 0.2581930326139755
25975000.0 0.9686215549095789 -0.22716943672631157 -0.004420024334526178 -0.0005603513190244247 0.019844760192193216 -0.015761172206227032 0.07046902204397634 0.25815839700589943
26974000.0 0.969937339720691 -0.23110127663115365 -0.006292954480191629 -0.0032566786248931765 0.0060392101963322705 0.0003662907683962839 0.09538770703619891 0.26270409554168794
27973000.0 0.9698644046821207 -0.23455635574547073 -0.0021696261173758135 -0.004223309276633758 0.0009567452192591849 0.00297330607412434 0.1147067049648045 0.2574230245454305
28972000.0 0.9650769441439854 -0.24617432716615043 0.00014260383537489165 -0.0031450708835783613 7.136091932543499e-05 0.0016040984473722393 0.11525804860702649 0.2501936227390705
29971000.0 0.964205009177713 -0.25472268821132976 0.00203036184805597 -0.0025087597459618853 -0.00030064402549984695 0.001427737363836657 0.15288962592520203 0.26601450372010127
30970000.0 0.960240198668281 -0.2606485892528485 0.0012569767355786825 -0.0016793911378573958 -0.004235382300410386 0.00017070801195734662 0.1668557305974114 0.2543484159313835
31969000.0 0.9592205924732383 -0.2695561510804189 0.004063661859200175 -0.004906502534441593 -0.0048880455149322155 0.0029441757503503507 0.14588882818904148 0.24916334828908593
32968000.0 0.9573475710923188 -0.27889509795555295 0.008520616214088662 -0.010134823815178502 -0.0011840121696854106 -0.0005669298770931429 0.1638898748569973 0.2452770153364513
33967000.0 0.9554096374955884 -0.28921229912392815 0.01385034799879859 -0.01207180706779958 8.373143568833963e-05 -0.0004722479900365585 0.1814035542726114 0.23643367302324708
34966000.0 0.9511440782607946 -0.2989931311709743 0.01461485749150107 -0.012168709109150199 0.00012146468568475564 7.468403278120109e-05 0.1985767443870013 0.2420856000625803
35965000.0 0.9498087491655396 -0.30614916306368234 0.017876321151247546 -0.016301836846731702 0.0014786123196105859 0.002469201103777455 0.21929994335567923 0.24064256424455732
36964000.0 0.9480575012387668 -0.31541394336634154 0.019945521465493242 -0.016234898062185307 0.0017597424379211394 0.0008900952672289439 0.21017865250235443 0.252094543301307
37963000.0 0.9442452367241783 -0.3225591037526309 0.023334795063389573 -0.022236726613636498 0.0014477558486135802 0.0013573886092439309 0.2360253998243131 0.23600000203977362
38962000.0 0.9414507764236442 -0.3322019448352427 0.028774083291099397 -0.022792917620104595 -0.0003042548359165592 0.0018406547130329436 0.24634262347386615 0.2254864362218114
39961000.0 0.9380010494863316 -0.34047528461922244 0.027168360639157656 -0.027482056344288883 0.00243113808393884 0.00010507939838091009 0.2510550651829221 0.23082341515972496
40960000.0 0.935006207443814 -0.34879733625493103 0.025001539934051884 -0.026125747039769193 -0.0030944501831457302 -0.0012638916091696135 0.2692700167853579 0.21952347395532232
41959000.0 0.9322846336889724 -0.35705572021943355 0.029359549920549836 -0.029653527497967968 0.0012796423840840147 -0.002706630760827154 0.2671471510725148 0.2095387470751864
42958000.0 0.9260471058646821 -0.3654142537910178 0.03237010373566338 -0.043507499223035005 0.002898777019141783 -0.0010817042827850319 0.2790466807107343 0.2020827169782748
43957000.0 0.9253870312535338 -0.3741122233204514 0.03656847421731363 -0.04983613917056244 0.0017146533885941811 0.0006134761442855713 0.2863428947072097 0.2095818382892368
44956000.0 0.9222099161192095 -0.38215831147758705 0.033264872513275645 -0.0571538003968723 -0.0016044773517688497 -0.0011723575803315382 0.3121025924764893 0.19235554831211518
45955000.0 0.9163942021933921 -0.3919817634716397 0.03676043752668965 -0.05972265692755428 0.0008326950648634947 -0.002656880204981207 0.3032498908246088 0.1957685943349005
46954000.0 0.9146500079917864 -0.39858582905144163 0.03994525224527464 -0.06878138666791607 -0.0016698309076391465 0.002393856004043064 0.32521087109074176 0.1694069388230629
47953000.0 0.9110743456148379 -0.40638034302300474 0.03756984604909018 -0.07331690577927891 0.001976965970540633 0.001280959053921839 0.3396559768652937 0.16773721806946448
48952000.0 0.9057565738348691 -0.4156970085782663 0.03977036314829406 -0.08403963883247483 0.0002976497924801429 0.0007769074409101304 0.3302486389327436 0.16864146833762564
49951000.0 0.9019217748495352 -0.42443624336319863 0.04255362367380751 -0.08877424197253374 0.001136381967215113 0.0016203829317751747 0.34457140807194125 0.15533503703710802
50950000.0 0.898762403396757 -0.4322964848312845 0.0410437264502796 -0.10009668640312035 -0.0015092055832387028 -1.212954581683485e-06 0.347853628793844 0.13263885529871913
51949000.0 0.89505859495375 -0.44125851958621604 0.040071526053360874 -0.10804139358650841 -0.001975579217792282 -0.003915176816981225 0.36003512796765463 0.14637113587833678
52948000.0 0.892200207657094 -0.4489395960946622 0.04390955509457937 -0.11913995583512736 -0.00014008979310162366 0.005478905286056489 0.3701088542785673 0.13888741118116593
53947000.0 0.8852062035952066 -0.45869803571256057 0.04606399558804807 -0.1283557688485963 -0.0026539144931986298 -0.0027631880666705005 0.3755493144514506 0.12191267950892337
54946000.0 0.8805112858947136 -0.4649009627652304 0.049485990738499824 -0.13759951503489798 -0.000863576832012092 -0.0008032852305700378 0.38091777412501204 0.1216437075423399
55945000.0 0.8782112484839977 -0.47450046457951767 0.04794443770501164 -0.14517420450672447 0.00043208583431577095 -0.0022921658760204603 0.38673474880083486 0.10245880432600783
56944000.0 0.8736302233365474 -0.4823204441301803 0.05081907663597762 -0.15552593996461372 -0.0005338821979461125 -0.0011730287643174945 0.40422245063659723 0.09841383176415651
57943000.0 0.8673401309381328 -0.4940934062646684 0.05322269612109935 -0.16749363761591396 6.302280020965542e-05 -0.0016647335719249924 0.4069195036086701 0.0947579288496406
58942000.0 0.863021652392215 -0.4983637334469784 0.05367745365487734 -0.17745371648105454 -0.0013384138527426652 -0.000879699245737164 0.41732334838715907 0.08433122989005823
59941000.0 0.8598780682167922 -0.5069940859889369 0.05464431742212069 -0.19027314672197052 -0.003091116082333209 -0.0013734403221621963 0.4283996898538058 0.0922462637537316
60940000.0 0.8524114682538462 -0.5144713371931641 0.05576086171242677 -0.1916293185238825 0.0021601765893675814 -0.0011091436765578407 0.41867237643356814 0.07650750637178431
61939000.0 0.8497296999760928 -0.5196986892465087 0.05444474115218855 -0.20327862039435232 0.0023833006797308125 -0.000620678875763987 0.415758024506183 0.07148756823305821
62938000.0 0.8420144690592477 -0.5301057120092871 0.058057987068140644 -0.21936575072878997 0.0008061379075886337 0.00223460801954115 0.43463380134289764 0.05545037183087749
63937000.0 0.8379840104688149 -0.5384354315780128 0.06116860085242774 -0.24335649495083622 -0.001108972101203525 -0.003071208003205292 0.43339350925407877 0.04333660431003741
64936000.0 0.8328594902376562 -0.5432905882592404 0.06095552741626983 -0.2556339725200944 0.0013930200565975168 0.0006947481750195903 0.4339170019127206 0.044063578237770115
65935000.0 0.8305755770201078 -0.5536682324006995 0.05948047903538919 -0.27168025381518 -0.0025345353580851345 0.0010957669129957608 0.44081072599586657 0.015076501898219904
66934000.0 0.8243481899591183 -0.5600253121575179 0.058266152628245485 -0.28464302198167796 0.0035227417597683353 0.0006220201626581682 0.42538250126517213 0.008554986916751281
67933000.0 0.8202836685551145 -0.5683371686549834 0.06146983953322031 -0.2996300974013127 -0.002142104971880619 0.0037310905637955682 0.43987568816975736 0.008297069542456846
68932000.0 0.8113428311531756 -0.5753594169050764 0.05235964817589072 -0.3119182083581158 0.0021132002737971074 0.0014016010097470074 0.45918545410641926 -0.005513479529435801
69931000.0 0.8075326897822451 -0.5842604480854854 0.05269398732824305 -0.333573456918339 0.0014697139733986955 8.281924814352273e-05 0.4515576583268632 -0.020395079623523694
70930000.0 0.8007988894962487 -0.5906843071375563 0.052355342343671465 -0.3470108536203543 -0.000207784345259495 -0.0013591910666812387 0.44273454157366593 -0.0353579962476079
71929000.0 0.7967556212094826 -0.5987549781639326 0.049500156692601216 -0.36543785806126866 -0.0020254053865362003 0.0009936214159276889 0.45392134429375197 -0.03860024247129879
72928000.0 0.7897481694950639 -0.609510406292785 0.04230834584431355 -0.3832267164147196 -0.0009423234693173283 -0.0006777453907417994 0.455854321782603 -0.05201986346707441
73927000.0 0.7831945318852563 -0.6140586880177126 0.031606378274631634 -0.40353759237968706 -0.0027213037568137362 0.0002289768023456643 0.45372884889237425 -0.06017737980911933
74926000.0 0.7788001348271347 -0.6251357439990428 0.02839192598573771 -0.42386193503670555 -0.004155664813728751 0.0002709117923343007 0.4651503089040382 -0.06058161330501049
75925000.0 0.7717074938022036 -0.6281975622585 0.014302289601272547 -0.4501657407220715 0.002471510441627583 0.00356380393184387 0.4640803202415585 -0.0711374499226149
76924000.0 0.7656659008071781 -0.6375629531968843 -0.0019128988640957298 -0.4694762965474356 -0.0035323959531626875 -0.0009952911397997416 0.45886537033606684 -0.08633744834279158
77923000.0 0.759428027045945 -0.6463522873341622 -0.012375846854579795 -0.4966691978194661 -0.001578224735332036 -0.002054463159972971 0.45868786052261457 -0.09933918887421268
78922000.0 0.7513168882429226 -0.6543365935617323 -0.025949143898670316 -0.5226849457153765 -0.004033039901960232 -0.0027978243263644354 0.46027553094624113 -0.10895668264570005
79921000.0 0.7438857868425159 -0.6588869904495692 -0.04286621268262063 -0.5465591958517745 -0.0014596454566626184 -0.0013884229328789467 0.4605149068795218 -0.12458773491297342
80920000.0 0.7413453026675341 -0.6698866181629414 -0.06183659173247619 -0.5801844116941708 -0.0013947732080232102 -0.0005897973378048116 0.4703094407008878 -0.13852733488239088
81919000.0 0.7333418973492418 -0.6754644850658058 -0.07511391827061387 -0.6078433839460914 0.0003133452479728108 0.00041941230086975 0.46066415517505693 -0.1404650198834255
82918000.0 0.7255703609126294 -0.6822007855244061 -0.08717042812245486 -0.6431660891542308 -0.002724130592341978 -0.0019222004702856943 0.4726675489344354 -0.1487238300082171
83917000.0 0.7155693572566582 -0.6901700122638575 -0.10844894746022303 -0.6711896177480472 0.0025826681655983412 -0.002322236772877585 0.4744575613875337 -0.16201390336077556
84916000.0 0.7120777380432972 -0.6965482778215315 -0.1270529986175545 -0.7057036702811512 -0.0021652716002767457 -0.0023808294069577896 0.47644796210838264 -0.1759745028030174
85915000.0 0.7039036554909179 -0.7055161158290598 -0.14359231249344634 -0.7397958563784908 -0.0008903463927346041 -0.003390028193945365 0.4664417896827199 -0.17491235796987392
86914000.0 0.697612679417311 -0.7152987492049738 -0.16496916923485402 -0.7738757458242003 -0.0012654170871994482 -0.0011932963678498584 0.46243320423241907 -0.16948432230840044
87913000.0 0.6895998493553502 -0.7201749120950258 -0.18552963262862984 -0.8047095688145417 -0.002781277736596669 -0.00033687028497918626 0.4617639768015846 -0.1871935513910284
88912000.0 0.6818225352636647 -0.728941385322324 -0.20009959200027758 -0.8420332012559377 0.0029507410888595874 -0.0008392189598762276 0.4579646532345258 -0.2117706068952454
89911000.0 0.6775060416372323 -0.7358884189855478 -0.21359115366779177 -0.8798193775132837 0.0006833557364067637 -0.0007848950637123218 0.4742618592167646 -0.2145333523750043
90910000.0 0.668325746668025 -0.7403494094416682 -0.2371583550876811 -0.9137017964084919 -0.0020143868064556 -0.003700769960289022 0.4572745192974073 -0.20548095710630968
91909000.0 0.6580304094643521 -0.7450984242589546 -0.25216805668213876 -0.946385706957345 0.0005419972964036604 -0.00018528261693726892 0.46883384906517145 -0.21983877277617792
92908000.0 0.6511695271233163 -0.7547373274795653 -0.27487128300978975 -0.982250493162285 0.0001505920243274126 -0.0008449481367557787 0.4546101017898588 -0.24017090916806344
93907000.0 0.6440169234525819 -0.7580833441440797 -0.2902304051902929 -1.013997115587159 -0.005515279301295923 0.0009629870796105022 0.46468944451580035 -0.2534364194183561
94906000.0 0.6323229994745175 -0.7671537547294867 -0.31082663064852584 -1.0470060353315473 -0.0019681037702027164 -0.0034893446245840855 0.4687803425284005 -0.24741682993675979
95905000.0 0.6271798936924373 -0.7735490676239891 -0.33722048013158384 -1.0842761713976858 0.0013814722135852236 -0.0006542573752858598 0.4530565018664107 -0.276508904995067
96904000.0 0.6174472019938405 -0.7826499330466832 -0.35396468466869624 -1.129547945845324 0.0012009484017365768 0.0018600420539241474 0.4404988593030667 -0.2810644595421076
97903000.0 0.6089518282639442 -0.7892040437016272 -0.3867197099822532 -1.1590523926446303 0.0011702583789619278 -0.0007465700534399975 0.4518244089230474 -0.2840583325486841
98902000.0 0.602017278914305 -0.7949609398936629 -0.40227331240150405 -1.2006946392957378 0.00269734536163608 -0.0028478162542657707 0.4521398667867721 -0.2916257197214264
99901000.0 0.5926739779621938 -0.801123534350645 -0.4348803289537884 -1.2342577291007921 -0.002633253383869441 6.513300826107644e-05 0.45795208469604487 -0.30854072143324385
100900000.0 0.5829095067800386 -0.8058056420970581 -0.4716297159569592 -1.2612890892762683 0.00462760511364365 -0.0004594399984711181 0.46512277685753944 -0.32592138949496946
101899000.0 0.573545694155018 -0.8142637220484765 -0.5074586430034648 -1.302723387703653 -0.0005824623855758204 -0.0025545296657375747 0.44642299319322404 -0.32647483941094546
102898000.0 0.5639991321021449 -0.8189065531066578 -0.5432282300273632 -1.3412747712464954 0.000628997874324445 -0.002826627133688547 0.44324655551064635 -0.32627361691676443
103897000.0 0.5562429143762057 -0.8249063535524898 -0.5839166131326339 -1.376429066852598 -0.0015089920832693255 -0.00011991222803426407 0.45852453576062213 -0.33399868113887204
104896000.0 0.5488751564058582 -0.8360957803729456 -0.6365518863450936 -1.4169870516033316 -0.00085965714650955 0.0016780237718730501 0.43333663604603473 -0.3336795230536427
105895000.0 0.5388766763624288 -0.8376284974907325 -0.6847270007962074 -1.4634312540671772 0.002269929900883303 -0.002726956809114497 0.425442003714892 -0.3675983843422844
106894000.0 0.5303935214368574 -0.8438083470521076 -0.7359809944279393 -1.5000619047308887 0.0005736174048281219 0.0013189693878002818 0.4297012160387745 -0.37180496403329316
107893000.0 0.5215417988013619 -0.8495646215986397 -0.7897262888555924 -1.540970472169851 -0.0009491091388779204 0.0005242836418470563 0.42416720158953214 -0.3733258590463634
108892000.0 0.5089118871618883 -0.8545015353065935 -0.8611401145379072 -1.5739496607368484 0.0038307538347243054 -0.0006398207153140875 0.4136582038982818 -0.3796130351392686
109891000.0 0.4971186492438055 -0.8615459661434288 -0.9192735209853081 -1.6125503785665967 -0.0014517248272732392 0.0005520458280382924 0.4424043253826225 -0.3765302464713116
110890000.0 0.4836229079398099 -0.8774736377440875 -1.0076220883700042 -1.6318661182918381 0.003771981684317483 -0.0028450966089701487 0.4292237432400932 -0.38354877745596133
111889000.0 0.47589842224911466 -0.8692794051804076 -1.0504024297353611 -1.681074053516397 -0.0004039154522008636 -0.00018931598779651953 0.41212897177426905 -0.4007720272290517
