! Created with skrf 1.9.0 (http://scikit-rf.org).
# Hz S RI R 50.0 
!freq ReS11 ImS11 ReS21 ImS21 ReS12 ImS12 ReS22 ImS22
1000000.0 0.9799231131246307 -0.005827227361644493 -0.011386442930542138 -0.03875476002918231 -0.010696170665512693 0.010887662687382713 0.3625650070802925 0.2933328860132587
1999000.0 0.9947137437841053 -0.015320225920631385 0.0036110382304747808 -0.010150863241520376 -0.007498790871212198 -0.0009127792833503655 0.2550881341183828 -0.034687903010155195
2998000.0 1.001358837198906 -0.02146051454776858 0.012776028551846511 -0.021344478934197546 0.00048611239504560677 -0.0007836732988637701 0.19201947567318944 -0.1479210391634449
3997000.0 0.998487263987525 -0.03140593215853812 0.011284322934870304 -0.008590177906770037 -0.0002950739497143039 0.0010735011108895045 0.09658242205228086 -0.2447278818841758
4996000.0 0.9957146369175085 -0.03923906224254363 0.008974404542675122 0.0023014335457953393 -0.00493331471319035 -0.006255476639419222 -0.03326202329216242 -0.21213703515075263
5995000.0 0.9961197726156419 -0.051585689219024414 0.009541108102610928 0.003246024457824075 -0.0017367082687208292 -0.003635964176852778 -0.1351337414329239 -0.11245780531087943
6994000.0 0.993533180845474 -0.05881742320804713 0.004674553589417073 0.0035055182385730016 -0.0015229299197300847 0.0036984755041761354 -0.14129338444758144 -0.04374258250661415
7993000.0 0.9939793071938743 -0.06510514287078678 0.0003487390458817656 0.011417168848010327 -0.0035833645148148317 -0.00203560251337678 -0.1606502844703852 0.03418073781509556
8992000.0 0.9938564975167695 -0.07406153039020666 -0.0015972409321810003 0.008795554909718065 0.0023430338135491014 0.003680052787700953 -0.17640885010802318 0.061736533798513606
9991000.0 0.9936900208759194 -0.08333008635843915 0.0013111828758433665 0.006278146556404614 -0.0021728348746993397 -0.0028256854265629613 -0.147525304388609 0.08932370342377359
10990000.0 0.9933589929740864 -0.09114361821602768 -0.0007833994946303868 0.0008436482234663062 -0.0018138476275026806 0.0016012176447637893 -0.1348524882983385 0.10763281125078206
11989000.0 0.9896736938702322 -0.10047340037666708 0.00416955139489686 -0.0010739382781676302 -0.0003825241839179748 -0.00037101769823943357 -0.1334612721791128 0.14191766664278543
12988000.0 0.9885073816621776 -0.11226478038719802 -0.0005944552738069787 0.0010297357648654678 -0.0008527858322936062 -0.003186110923109913 -0.10475909802603527 0.15369903059476836
13987000.0 0.9871075270687737 -0.11785665722465748 -0.0024855903547120126 0.00047353505055445637 0.0021184352689629935 0.0013288584867147026 -0.10813533672719303 0.18953224985710634
14986000.0 0.9880993781253472 -0.12515124640331027 -0.0012221797279740494 -0.00561839248334693 0.0001348298013129945 0.0013974285514121638 -0.08994913812869071 0.20328210245505068
15985000.0 0.9869380589378777 -0.13673800582842519 -0.003176914079332667 -0.009375860297686707 -0.0015642330408875344 0.001053194271440809 -0.07161042431529227 0.21188143673289034
16984000.0 0.9839951452518044 -0.14553359346515288 -0.002109700954147913 -0.004996999588569863 0.00041762479330016705 -0.0017487513751031027 -0.07939058332914238 0.2223130842634965
17983000.0 0.9874464831111769 -0.14685407320319147 -0.005773064850218048 -0.00788445682195526 -0.0004650402915041808 -0.001354859742496878 -0.058288254875819116 0.22325550140986794
18982000.0 0.9804611964143126 -0.16260359700761445 -0.00636774577380494 -0.005181691343682034 0.0005330232434350982 0.00045722644340734267 -0.027041671492986818 0.23593174275428772
19981000.0 0.982583106218766 -0.16859577566914602 -0.0033394723887928673 -0.005431318707946538 -0.0014904298408827362 -0.0022801544698564306 -0.0237609669030518 0.24090747661430534
20980000.0 0.980589779059888 -0.17611132368839957 -0.006719664285854862 -0.003504690513241742 -0.0017813084815831658 0.0014143405411851404 -0.012894706495032191 0.25662293531849384
21979000.0 0.9771813301037119 -0.18654735440295236 -0.0060292525151746735 -0.004309426828507462 -0.001089454661235752 -0.0012004282514218388 0.008544516357035226 0.24056422498240335
22978000.0 0.9756660070425771 -0.19466217247732992 -0.002273672522844644 -0.005450125347674242 0.000597077774257412 -0.0017630561264431758 0.019344035321321344 0.25367574550186595
23977000.0 0.9770471222143348 -0.2001647679730044 -0.004371379895058346 -0.001873494886029766 0.00038759507716244757 -0.0001842311401729803 0.0315777250042745 0.2596681371142683
24976000.0 0.9735088198629748 -0.21131080999087146 -0.005732858060386694 -0.0020014054817450917 -0.0019301267727066089 -0.0002008603965000833 0.07070611356184454 0.24873447677326427
25975000.0 0.9711177969356428 -0.21653570583130996 -0.004549019616046414 -0.0034281701337338746 -0.02121203236896007 0.01206018647609523 0.0784426567328385 0.2544777787414533
26974000.0 0.9704750742635535 -0.22832801022465526 -0.004257709445480905 -0.003294731424860407 0.0005206731063999275 0.0029721218729044157 0.08353518776533764 0.2694094376316832
27973000.0 0.9686026001991804 -0.23509714632123188 -0.005060298005417056 -0.0016252869646841326 -0.002165082760638486 -0.00011766379688363718 0.09946954749293674 0.2512557055024829
28972000.0 0.9648533230341066 -0.2464596245534791 -0.0003907588275011967 -0.0022625416654927905 0.0023861303155380278 0.00121358060505695 0.11364296621185443 0.26049039577030725
29971000.0 0.9638530616828971 -0.25513680771206926 0.0008652029683904048 -0.0021011178171364956 0.00045942240312552685 0.0008185961295751196 0.14373990566853773 0.2659943983778604
30970000.0 0.9613770529476143 -0.25976651082801233 0.002827843039153765 0.0018736917288363093 0.003062641084711631 8.416994748961476e-05 0.16143731000288886 0.24957323025322878
31969000.0 0.9607264263757935 -0.26734960575844713 0.004160759529276309 -0.005183985685940537 0.0009839652992759615 -0.0002423846113943031 0.15075462556377894 0.24927485572380703
32968000.0 0.9574510769592686 -0.27738571909804005 0.008085620408441239 -0.00930484571548602 -0.0011266151280883918 -0.004248133510515221 0.16150029204218339 0.23711737845904396
33967000.0 0.9546465471410879 -0.2883866217590523 0.011230806573191946 -0.0048777511650399475 0.0025512385502603715 -0.0019174826613728108 0.18665278989200748 0.25367125958320563
34966000.0 0.9515975973135798 -0.29653901412634076 0.010734481422646382 -0.008548519096297304 -0.0025415380749270267 0.0022438734336401914 0.1903692463341058 0.2535086910939831
35965000.0 0.9490561014006402 -0.30454499276661534 0.01247883958072607 -0.014443018400545795 0.0009409270407632281 0.000682039889977525 0.2017096823152916 0.24405521373300784
36964000.0 0.9454784805164168 -0.31457114972986283 0.01405836272898322 -0.014384179666228293 0.0006566750729977965 -0.00030486226137116195 0.21906971569685668 0.2598982919691824
37963000.0 0.9440901283456605 -0.3219584920719973 0.02388006726155839 -0.022288686597317645 0.0018261337626468055 -0.0011124448661490695 0.22369609723156517 0.23568221661458919
38962000.0 0.9396861983994448 -0.3328450539990031 0.02566131709634151 -0.023452962911560044 -0.000769749685760633 -0.0014321851228638032 0.23854721500643605 0.24064622094409288
39961000.0 0.9378713525306062 -0.3393928412259331 0.0264462055956516 -0.023279083195060023 0.0015336660484765404 -0.0029659591259406045 0.24910957711754678 0.2258260573390879
40960000.0 0.9342633480713877 -0.3470229755382789 0.023498269568969766 -0.02410708936213639 -0.0017345909607980276 0.000982136034782237 0.2662332743732891 0.23934794427668887
41959000.0 0.9304495110353973 -0.3557441414584226 0.028706638297192888 -0.03127474630247444 0.0015216688900886715 0.0015340508929746468 0.2671626299433697 0.2167293410287174
42958000.0 0.9275318261002296 -0.3641497780806319 0.030376354647288384 -0.04226780604623526 -0.0019700964598975356 -7.022507290068461e-06 0.271884060051657 0.21020079989816162
43957000.0 0.9248302673806563 -0.37175799499892886 0.03250352335514716 -0.04624745794507415 -0.0005433065152952971 0.003117718785208454 0.2854153370936984 0.21088154513065036
44956000.0 0.9213006623017344 -0.37825374780216736 0.03223260587593685 -0.05104190908162157 0.0004604282050980825 0.000839964820039005 0.2991198860608595 0.19813672735497184
45955000.0 0.9171013755036221 -0.39121473615185354 0.03215831796984092 -0.0573178221464372 0.001832304328710258 -0.00046820411222633516 0.30209282716153363 0.19704233672627758
46954000.0 0.9143236492505553 -0.39883479284805073 0.032995367807015695 -0.06342543229312475 0.0006152605062863281 0.002225288515098501 0.3240973133631257 0.1811706810077279
47953000.0 0.9108857948489241 -0.40643811506358957 0.0338892725127148 -0.07360798503538155 -0.00011764495644800183 0.0016923343936844596 0.33197862481965323 0.17168216807767753
48952000.0 0.9053836591508548 -0.4147613378891633 0.032955709736883075 -0.07819844847328053 0.00029886731080325284 0.0024177542840210686 0.33309398083296393 0.16908584820986372
49951000.0 0.9019173449050716 -0.4243443283176835 0.03458933147955406 -0.08504590992662453 -0.001665003827985847 -0.002202044498594993 0.3475048439320899 0.1620490763618658
50950000.0 0.8989520146421547 -0.43078213164407264 0.03656887316256306 -0.09510725033744996 -0.0009713762248280597 0.0019104250817246896 0.3487294066205366 0.15134380272442105
51949000.0 0.8952208440277984 -0.43931460260291383 0.03919159943903619 -0.10323820000687797 -0.0005974959386299801 -0.00234616875556335 0.3572956991941691 0.14739858903785283
52948000.0 0.8934421262048869 -0.4463796462278391 0.03881813363018658 -0.11179087391410344 -0.00042121597564063063 -7.320705764386142e-05 0.36690305366821796 0.14313707733825212
53947000.0 0.8859683819718788 -0.4550250970904035 0.03997808704454889 -0.11893841838202857 -0.0003463610252699564 0.0010720574176054866 0.36427137854865776 0.13813796415272842
54946000.0 0.8817088739424137 -0.46259717265586586 0.04165946573303612 -0.13130202137639765 -0.0017841906283119022 0.0008832980732731051 0.3804125704986565 0.12079699253956905
55945000.0 0.8780992462885545 -0.4714358380919639 0.04179769658067012 -0.14014227595393988 -0.00047131206350013765 -0.00015011338771822518 0.38656819457500974 0.10134092645707052
56944000.0 0.8728753397580814 -0.4808318062350015 0.04515265885701155 -0.14954835763107643 -0.0007161060994100967 0.000856842316991672 0.40626613494260494 0.11382548824058297
57943000.0 0.8694607935929638 -0.48974336696548904 0.045521661855638745 -0.1595035042946107 -0.000702920331281383 -0.0029262757476458483 0.4006239046974269 0.09648842767620885
58942000.0 0.8627450776933101 -0.4944231234135031 0.04380147418595355 -0.17073629629995857 -0.00013109997478295463 0.0008430031378807071 0.42481531877516154 0.08878019546817796
59941000.0 0.8599306978846029 -0.5042420025748549 0.04910151335662367 -0.17933644483787814 -0.000540399596947996 0.0005240223797706006 0.4179912268816372 0.08509633503261864
60940000.0 0.8528255143333178 -0.5113427063673756 0.04583588203718897 -0.18337104791278502 0.001036658959313069 0.00026831145498644747 0.40647635502187435 0.08220746787476892
61939000.0 0.8498211792148052 -0.5178518388061957 0.04824444946337438 -0.19008773748176372 0.0005267687240773537 -0.001179444476057655 0.42285119369538876 0.059759065796118456
62938000.0 0.8437067910579057 -0.5293639928893649 0.04999751723662309 -0.20601234824158862 0.0023672519844277814 0.0005826065012671333 0.4462151019049564 0.05471597920342311
63937000.0 0.8384007932122465 -0.536578768672481 0.05109671060102234 -0.22888126297605788 0.00214406676326743 0.0010850172572489 0.43585865129344953 0.04575976685632413
64936000.0 0.8311232135137535 -0.542484809668042 0.048163978534422655 -0.24112790350008367 0.00037178207041323007 -0.004628510986268234 0.4392699810738748 0.03492425742114767
65935000.0 0.8303678980396525 -0.5527695436664445 0.05117858512497505 -0.25479921514481885 0.005300359194793658 0.0001943040109270059 0.44506842713936845 0.03015606729530688
66934000.0 0.8252638586563263 -0.5581183198038484 0.052730955873508456 -0.26877115964966575 0.0013826829985901273 -0.0017584581386572197 0.4303669804970407 0.016403031614984815
67933000.0 0.8204198781346743 -0.5675848442898084 0.050605037269033405 -0.2807872136153812 0.0009839777581380773 -0.0023390861151985323 0.4382308087831157 0.013970024398914054
68932000.0 0.8170778884173211 -0.571573508404205 0.05408374836580681 -0.29381597073330457 0.0003057852932159729 0.001725212946071824 0.45546340365061966 -0.002496164097718138
69931000.0 0.8065634850094872 -0.5835688267234216 0.04760783015680243 -0.31133998278950786 -0.0022923975405393167 0.0008571664971458529 0.4428295628264785 -0.02055280500564174
70930000.0 0.8011869484252734 -0.5892729098626531 0.04911794540445322 -0.32102782659215884 -0.002340831170863912 -0.002443299970472698 0.4443450389355524 -0.023794123025916273
71929000.0 0.7975202412040214 -0.5984837784885061 0.043907757616704894 -0.3400176946497971 0.000695400374917293 -0.0017136308054446524 0.4513347282931582 -0.03917353578668986
72928000.0 0.7909889115057401 -0.6092285477060021 0.03619760779397421 -0.35297892829246125 -0.00045388320950661294 -0.0017450658693840117 0.461238363958458 -0.0465279883912361
73927000.0 0.7828228303287705 -0.6140711360258296 0.027120071977884873 -0.37476784492378007 0.0001130017024479574 -0.000779917481869783 0.45748658264940556 -0.05568562736477562
74926000.0 0.7809549805701871 -0.6232820631139795 0.023035520931664874 -0.39076713859592493 0.0014958993000240882 -0.0014892663295016926 0.45923686223052135 -0.059391914654312684
75925000.0 0.7741428683643261 -0.6280716069403661 0.018263753024544426 -0.40935983062027276 -0.0011851142493516848 0.0010767797699546514 0.47573845077155374 -0.06886487043102563
76924000.0 0.7668763568678555 -0.6356216803862856 0.002657156627481043 -0.4330040648935608 -0.00047214270627868993 0.0019631840835308426 0.46222320871521205 -0.0820696773297756
77923000.0 0.759058841307065 -0.6437057454602809 -0.012793581341321025 -0.4542377080847351 0.0007011805992755149 0.00030969841383615416 0.4631412983981 -0.09401168748151537
78922000.0 0.7528845308863631 -0.6540380076570633 -0.024636667648903824 -0.48239621534938215 0.0014743429390747275 0.001395872843958394 0.46045511687329005 -0.10381639336446248
79921000.0 0.7458414794727694 -0.6555488886931855 -0.046581900719128516 -0.5018004762295003 -0.0011396455732980127 0.00015870138192921986 0.4566203968045909 -0.10664319122202766
80920000.0 0.741986848408333 -0.6674565714427192 -0.05990134468379274 -0.5314815917772444 0.0002651160502376996 -0.0015130937753805483 0.46733014493029035 -0.12864113127780635
81919000.0 0.7357616762380531 -0.6707860203465562 -0.0792621533917457 -0.5589429624511819 -0.0021514796535337835 -0.00017720708520869207 0.46609214150809014 -0.1337065566432795
82918000.0 0.7270230888449587 -0.6796867094407064 -0.09207589824713237 -0.5931398232246623 -0.000626137656486764 0.0021009635663821647 0.46975618896058996 -0.13362642877149128
83917000.0 0.7176422219273573 -0.6906786742901259 -0.11516145096184363 -0.6190550850298888 -0.00028515627541519684 0.0003478606945766256 0.4717206385841098 -0.14519526769767555
84916000.0 0.7127173228443286 -0.69541849541669 -0.12645643677416182 -0.6581814212816877 -0.002887349439855083 0.004265004205222843 0.4654800325746992 -0.16359949776285054
85915000.0 0.7065838211041024 -0.701528911007897 -0.14973387361154383 -0.6817785395495242 0.0008408214296724997 0.002407426692301033 0.4646173365851978 -0.17222791707930804
86914000.0 0.6986579302002935 -0.7134402165039772 -0.16461435902382773 -0.7173077433606683 -0.0031700288034403386 0.0028371999909697263 0.46801945742945006 -0.16678745223020583
87913000.0 0.6914426083006822 -0.7176063902498007 -0.1832624658686034 -0.7458921866568646 -0.0013019947847797253 -8.622607901561683e-05 0.46631398608887054 -0.18430396933031226
88912000.0 0.6860545495056746 -0.7236170807240289 -0.19592073398990356 -0.7778564669223093 -0.0008584287248211296 0.0013193562186395943 0.4673460223460394 -0.20809029555059816
89911000.0 0.6776744015456035 -0.7332746355321504 -0.2117761460682863 -0.8153426743685528 -0.0008893081672851197 0.00163014589061715 0.46820607736362313 -0.20040833021052035
90910000.0 0.6711578567944053 -0.7369617444298858 -0.22657774073082318 -0.8518560605180409 0.004042356299731341 0.00254524679758611 0.46339958659229386 -0.20178268080063547
91909000.0 0.660991599428323 -0.7429287323459683 -0.24895421313579078 -0.8796079267332346 0.0005548723301195723 0.0002905095272063835 0.47225669042027457 -0.2183018830410973
92908000.0 0.6533952528508185 -0.7513350820466292 -0.2652798899283453 -0.9115357328660271 -0.00344777674186615 0.0005470717018232942 0.4652921750601533 -0.22606417291731934
93907000.0 0.6467776287135938 -0.7569912143615807 -0.28009786419010746 -0.9383170945454101 -0.0001218093989486542 0.0022486914206481887 0.46669745672242524 -0.24758029348237715
94906000.0 0.634687096914257 -0.7661589696796303 -0.29366183671463936 -0.9730467966780346 0.001536457631359141 -0.003053384255189356 0.4597199676670612 -0.23698822277319234
95905000.0 0.6268034554981785 -0.7711569254279851 -0.31501371493771 -1.0026828057995925 0.0030948999581294325 0.0011933633377854524 0.4581612093811568 -0.27137389786859717
96904000.0 0.6203006754231641 -0.7788422536499714 -0.33249295344 -1.0471545154091377 0.0016030907544612167 -0.003749719918802065 0.45544732034493524 -0.2706638100681691
97903000.0 0.6132580577639646 -0.78461194641464 -0.35794266536909647 -1.070770102782323 0.0001679133627377752 -5.590046735701158e-05 0.4449851486247207 -0.2777938901495769
98902000.0 0.6059923464498667 -0.791380352918358 -0.3753191747206924 -1.110884463113504 -0.0011446581313661825 0.0032199256559916536 0.4441532540448958 -0.28950278144834846
99901000.0 0.5952527668196314 -0.7980563054663334 -0.4022248824115906 -1.1401063164341216 0.000552264323132929 0.0013733815062186936 0.4573795675133159 -0.3075245555631812
100900000.0 0.588741079920377 -0.8007497341955153 -0.4251599500128238 -1.169280425830388 0.00034731419013399713 -0.0011461295353630697 0.45211029497997546 -0.30829661155633803
101899000.0 0.5782777640061009 -0.8094787343865831 -0.45854404174553104 -1.2048855977409942 -0.0023447876581443217 -0.002719749978805785 0.4495916790264417 -0.31865563701617616
102898000.0 0.5684475077664034 -0.8162396860402983 -0.4918921209151329 -1.2391339461214885 -0.0017206745678700547 0.004377378877991395 0.4540157392582322 -0.32804492333032825
103897000.0 0.5604274723985827 -0.8243017692677457 -0.5261921696361516 -1.2737342226440331 0.0006679858184159548 -0.0004315905058445647 0.45416116476440316 -0.32950849522408476
104896000.0 0.5506668858414832 -0.8317570876401613 -0.5721558318658398 -1.3007962775784334 0.00040876581926267426 -0.0032748654019927404 0.4361725365692969 -0.3344253335001782
105895000.0 0.5396174966339046 -0.8333997904394732 -0.6163670757775807 -1.3406234817868865 0.0008247278354011841 -0.002825674770915874 0.42472649241886307 -0.3583737770018468
106894000.0 0.5313634445317931 -0.8403663833408069 -0.6681730538282054 -1.3786472650344215 -0.0023904854335264963 -0.004008127816262555 0.4255174424891008 -0.36438693445091414
107893000.0 0.5239665703966614 -0.8468996287823963 -0.7164069026220367 -1.4164693404346949 -0.0006353951064608395 -0.00319005969892189 0.4273516503077051 -0.3764307723078453
108892000.0 0.5153262172749533 -0.8503508835263754 -0.7741799186910713 -1.4468818036907805 0.0016869499177614151 0.0009951579252006962 0.42028298163737365 -0.35981387745749754
109891000.0 0.5035055903464378 -0.8582134157159775 -0.8369000935650471 -1.4814593958292663 -0.0010907346030887824 0.0038316073959774057 0.44924413817102105 -0.37040890985095987
110890000.0 0.48527413942972597 -0.872590791077776 -0.9122407971356924 -1.4892431952307978 0.00036729410803600386 -3.2272862864119957e-05 0.4340625881331672 -0.38839144615212173
111889000.0 0.4844893610351955 -0.8640580169767005 -0.9604043529617069 -1.5481492650943596 0.001451516063641984 0.0008341818681260583 0.42021565756002593 -0.40046634438288947
