! Created with skrf 1.9.0 (http://scikit-rf.org).
# Hz S RI R 50.0 
!freq ReS11 ImS11 ReS21 ImS21 ReS12 ImS12 ReS22 ImS22
1000000.0 0.982691217217856 0.016587300203727708 0.009223849795420543 -0.04373877034275107 -0.010913546418725543 0.009339959412691414 0.3346811163711812 0.32772386311884566
1999000.0 0.9966730713780876 -0.01034263925551929 0.010608156762698636 -0.0344600425569675 -0.007034588675669238 -0.004010223336467198 0.24081608250810752 -0.08515074927526094
2998000.0 0.9970933069906819 -0.019975753968145833 0.00616231856340923 -0.018058244466134077 0.0010681969444083941 -0.0013321751886131833 0.18555487080548694 -0.13847942144000694
3997000.0 0.9961064466671421 -0.032772823874668594 0.009514469848003831 -0.010054924236428934 0.00602264029152132 0.001973554255839952 0.066694412909758 -0.23458784611593309
4996000.0 0.9954237827368154 -0.04126854055063297 0.01706995957072208 -0.0014801740934139358 0.0024023556587868897 0.0016341923249099568 -0.054302044675738154 -0.19500699832794244
5995000.0 1.0000420750936365 -0.048335905838446054 0.008974035520223937 0.0011220382298117455 -0.0006600348894310775 -0.0010807762147746892 -0.11644568691460593 -0.10665956726419609
6994000.0 0.9939190918795402 -0.058609102055825237 0.005678759980304624 0.007943206541478738 0.00219246492214791 0.00011628166006278907 -0.1360403318315254 -0.01797277284278806
7993000.0 0.9971573257893119 -0.06724505648743312 0.0017591336784210506 0.004542338743724957 -1.1488225288751908e-05 0.0019834375685043497 -0.1647296252281955 0.031928126465833366
8992000.0 0.9955589419982187 -0.07210491207676085 0.00051568281347097 0.0029409174016996236 0.004181722533837975 0.001554457677517052 -0.14563800925943232 0.07127737827557568
9991000.0 0.9940388515714581 -0.08146330756350767 0.004525676810422177 0.004806505671494309 -0.0012113506704211402 0.002184734690087164 -0.14879022556758562 0.09588353255276422
10990000.0 0.9938355379681357 -0.0932855651190797 0.007909344233976242 6.52944058866876e-05 0.0009498100926919123 -0.0013790339203067416 -0.13821935621064327 0.12628713065358368
11989000.0 0.9929155321408641 -0.09830670127425092 0.0008410275214838669 -0.0009873006159785902 0.000729175491312873 0.0008156017527382039 -0.11755430801139138 0.13098404336774358
12988000.0 0.990228865931762 -0.10984852936883924 0.0020475042119135933 -0.0028804121489807836 0.0013057616704443592 0.0024011628277354194 -0.11540907768913827 0.16978333309527896
13987000.0 0.9894497370186531 -0.11728720326923232 -0.00012242579560258336 -0.00709922742088321 0.005995185430085968 -0.0071270121108838414 -0.09993837424992126 0.19010385490642392
14986000.0 0.9883015852113995 -0.1243061285642621 -0.0027016898492163385 0.0020277948952350674 0.003137278450533367 -8.106671504357619e-05 -0.09302144853974716 0.2046850169992351
15985000.0 0.9909258355223151 -0.1326759839850513 -0.0028566001472182887 -0.004736087540302907 0.00027044036163293827 -0.005082748024407254 -0.06859254522511908 0.22020759661135672
16984000.0 0.9888378500722417 -0.14154494411849222 -0.0035640032780582176 -0.006520688018214818 0.002809562082246707 -0.00370435055442942 -0.06664030917941749 0.21639745933019097
17983000.0 0.988340019455683 -0.14827416495242954 -0.0012441822982967835 -0.004727315308407609 -0.0009259567476593422 -0.004817800614676072 -0.055579124917799 0.22305521235965703
18982000.0 0.9838149226726653 -0.15766703960110867 -0.00268521309378468 -0.003742472619988997 -0.0026972076662612893 0.0023406188828515697 -0.019384339686930138 0.23401557553956043
19981000.0 0.9845685408826395 -0.16655302467751903 -0.0035923797329072025 -0.003681016881840883 -0.0006694470003861347 -0.0015495292936485603 -0.012669204326911376 0.22704367268890224
20980000.0 0.9834250815434905 -0.17366976039650345 -0.0045489336294380475 0.002311466628067036 2.6127288609100637e-05 0.00047511196820191427 -0.0024237334538477154 0.2616813323005382
21979000.0 0.9790055151286368 -0.18311758540815418 -0.0017058990389976743 -0.00313160441257302 0.003752494367358221 0.0010319922782820732 0.01515084660785686 0.2527150832069095
22978000.0 0.9777155175130194 -0.19222402178772724 -0.007729308556262669 -0.004968656024226741 -0.000263095869019069 -0.004084656160071384 0.03929860191425828 0.2523892157577749
23977000.0 0.9792252953513292 -0.20167396254871842 -0.0034066636205838732 -0.0034531115222637067 0.0004935713532640576 -0.0025798364362808134 0.03645949469508939 0.26188830117807627
24976000.0 0.9746475836716698 -0.21028022842620092 -0.005303976380365169 -0.004580763276390562 -0.002091267702538642 -0.0023195745823143413 0.06697864877111519 0.25751412336909907
25975000.0 0.9688974694344136 -0.21715630235521532 -0.0031657772595515762 -0.00021943745499597905 -0.02297879789884075 -0.012947322782113375 0.07716079318938628 0.26948436839272283
26974000.0 0.9715585951895104 -0.22667790838408794 -0.00235390474576101 -0.00416419831328718 0.0008316257719845035 -0.0021448858308001336 0.104659722697347 0.25831750430606604
27973000.0 0.9713780685585255 -0.2320951241355758 -0.005998003363549258 -0.0011645615044950529 -7.041305356807247e-06 0.0030922575908735148 0.11260284553323494 0.25077848742629105
28972000.0 0.9663530772280987 -0.24444079756821366 -0.0012919506908709133 -0.0030874499855638423 0.0019435354313820908 -0.0023075366806970653 0.12326696370563615 0.26121581139700056
29971000.0 0.9670901733957483 -0.2507855841677937 0.0019383473861079663 -0.0027481848400841627 -0.00021385319461956307 0.0011326173722736232 0.1502188198899234 0.2712308316026752
30970000.0 0.9632446797293931 -0.2559361433209833 -0.0005625754534923401 0.0009886662209319624 0.002247174198505986 0.004228360535854172 0.164045516904115 0.2581472948370014
31969000.0 0.9619431977055671 -0.2652989287219008 0.007915715705124645 -0.007445240617800278 0.0029904905118392383 -0.002152089105380976 0.15439795893896277 0.24314806402783132
32968000.0 0.9601903204823 -0.275665656404816 0.005766894016030149 -0.010836529918542911 -8.585384056902647e-05 0.0006838626633965611 0.15997881922520557 0.24442655491641857
33967000.0 0.9581942211092247 -0.2856739752618117 0.00891675302075845 -0.009621329327036627 0.00023221600226071076 0.001524972443453997 0.19083949230508554 0.23952400330183443
34966000.0 0.9548560468334127 -0.2946049315450568 0.0163794823674215 -0.01029510066319549 0.0018687696837574636 -0.00163524512861804 0.195511373391594 0.24359799259134443
35965000.0 0.9518812375004525 -0.2990820269601758 0.015074608924015602 -0.015500697639718968 0.00015930286823657007 -0.00047926745782871804 0.21727109437071962 0.250004199806623
36964000.0 0.9507267956712125 -0.30944122806883434 0.019659682236567354 -0.01461394109223101 -0.0009835191933938005 0.0024500585581563165 0.21815221696465273 0.2420290314061664
37963000.0 0.9469130905170868 -0.3179112499698297 0.019508249373338983 -0.021136183295893778 -0.00025191020603511626 6.232024061759768e-05 0.2361777213993133 0.2345774415659535
38962000.0 0.9435316723927084 -0.32638613108528197 0.025169886651410272 -0.024045365990251824 0.0007806736250720513 -0.0018626210579763298 0.24762570201755899 0.233443787035147
39961000.0 0.9420194291628562 -0.33286969098385394 0.029413662205774908 -0.02856210399628446 -0.00011631769179281995 0.0033843528007735796 0.2583390884877836 0.22367914875397102
40960000.0 0.9382317263476142 -0.34214059910477673 0.02274954124874247 -0.025672505565716895 -0.0035332836537221865 -0.00247061832755276 0.27735389345172473 0.21516164728912382
41959000.0 0.9336004331613186 -0.3518232077919227 0.03068601274928207 -0.03425054606631694 -0.00034871807656323235 -0.0015421605767409695 0.2662509781871501 0.21684658351790032
42958000.0 0.9305476909001207 -0.3611405306157889 0.034893718192814435 -0.04094265595061526 -0.0035822113457961865 0.00024432617861799995 0.276618624099849 0.2034604427526551
43957000.0 0.9285774773950757 -0.3645702298592106 0.037524066764462995 -0.0476217436356138 0.001001916109567607 -0.0001625606000785887 0.28847725101528904 0.20369294536792854
44956000.0 0.9254394809096026 -0.37229868857379184 0.03289229954243664 -0.05651261489004577 0.0010673663805404962 -0.0010274599061237772 0.3003178666609916 0.19223542719850276
45955000.0 0.921718413222572 -0.38354482218831226 0.037406043106350984 -0.059790661999394284 -0.0004313845912171129 0.001157669864585515 0.31005240506479076 0.18636890142815915
46954000.0 0.9178688062501283 -0.3938167061438157 0.037217200965501705 -0.06641395456553885 0.002898987273021638 0.0012841346854043656 0.3263572494115312 0.1778272211376526
47953000.0 0.9133380842648439 -0.4018270988913328 0.037241936275710624 -0.07528767605183406 -0.00042874274662634454 0.0006218032645494057 0.3469814675575547 0.1627621262259916
48952000.0 0.908750817560741 -0.41078526160962103 0.04157140849381764 -0.08137256170540624 -0.00240980253425344 0.0008300094580152076 0.3313585028343021 0.168033007365844
49951000.0 0.905916222235663 -0.4157619758987886 0.04079590291747877 -0.08883083022311368 -0.002005911582795077 -0.0044094969694635855 0.3493418727727887 0.14590990469670226
50950000.0 0.9035279588927262 -0.4254832989050735 0.041730759987842383 -0.09828646469136577 0.0016801364545715157 -0.0004044819810335901 0.34724135241924453 0.14330448295518888
51949000.0 0.9001615243058958 -0.4334603343839965 0.04362277854003539 -0.10685940274349763 -2.5862894110239227e-05 -0.0017643560920019073 0.36802799579974393 0.1383552027811881
52948000.0 0.8971867063475722 -0.44053445297524146 0.04599031759084864 -0.11408270523678372 -0.0007634141040287095 -0.0004198085494484872 0.3709053810310564 0.1358504344277443
53947000.0 0.8894072213903528 -0.44869554912289006 0.04418169385303183 -0.12383035728478285 -0.0001284913857986174 0.0034311311748464585 0.3743906011319216 0.12752363000667136
54946000.0 0.8866744719353099 -0.45620085975175384 0.04680802940626713 -0.13254622828700946 0.0006419964154496334 -0.00035758921923741187 0.38279743668043675 0.11978518583233486
55945000.0 0.8840617924661787 -0.4668055787054041 0.04921235052907071 -0.14610022964445973 -7.739359571795768e-05 -0.0029525113963976236 0.3887514750326982 0.09601992974513912
56944000.0 0.8791349970627272 -0.4745488891278944 0.05017530822876911 -0.15900252116362185 0.0010317508475789518 7.884147862264084e-05 0.3952171908248193 0.09918967748096756
57943000.0 0.8753244829159135 -0.48305240814842093 0.05095933748886536 -0.16953724744546822 -0.004101807926608026 -0.002464635311464063 0.3984950753673289 0.09976453708601483
58942000.0 0.8700160675357014 -0.4883747213418337 0.048932086712350886 -0.1793688595953461 -0.00039326645387805317 0.00016516148908017595 0.41396336005941314 0.08567741625516424
59941000.0 0.8645879554117032 -0.4981268000278751 0.05476923269312323 -0.18844920341356317 0.0021592688952284528 0.0003755813929468496 0.42423069812658837 0.0837677038734945
60940000.0 0.858405420114753 -0.5035817293584176 0.05345362208035154 -0.19445348864016546 0.0021459380341496866 0.0009445341839413636 0.40640110544467417 0.07368949316175849
61939000.0 0.855884294879515 -0.5117836500930794 0.05371158356606982 -0.2037522837714098 -0.0018957009651224468 -0.0017616909793814082 0.4149571118070502 0.05633384263257057
62938000.0 0.8492750296764644 -0.5223616477671773 0.05721431152353948 -0.22110444750363428 0.0005884427019533819 -0.001504286762893898 0.43229940194279626 0.04713377534370335
63937000.0 0.8441784179523889 -0.5310200096356086 0.0569600843671312 -0.24139627485555631 0.0015698458856558879 0.0008096396994622245 0.4370446884035337 0.028479131739542536
64936000.0 0.8375363077299353 -0.5357928157731376 0.05560404072154468 -0.25507174104670394 0.0018765391692140525 -0.00015083675767674928 0.4442689278253421 0.03859472494941411
65935000.0 0.8378174446916792 -0.5458211632204316 0.059384880125592766 -0.27382343391870057 -0.001924850908775253 0.0010814234420369676 0.43679674885446007 0.009859917382197395
66934000.0 0.8319801628525789 -0.5522174250608144 0.056537915559693154 -0.2843179982614801 0.004370552997247758 -0.0012064756437859172 0.43446388522608537 0.004725633999256236
67933000.0 0.8275433826635085 -0.5612790792527707 0.05551263679701232 -0.29831336006937903 0.003505670341562451 0.0006570915606750771 0.44414086294403077 0.009416910001253347
68932000.0 0.8194185562545855 -0.5666588458240556 0.05117018902900956 -0.3132614782375507 -0.0021325205033141293 0.0015675319737551935 0.4627680449108642 -0.023231078726275403
69931000.0 0.8126159748350819 -0.5774432343562694 0.053970293822068464 -0.33291949279355754 2.2771329842232533e-06 -0.0010748087994679717 0.45617610050471424 -0.025808811253578676
70930000.0 0.8070412333327798 -0.5842292340432015 0.0509667985863788 -0.3462281806304846 0.0027157734572174066 -0.001964411368927959 0.45750320136304323 -0.0307321244442473
71929000.0 0.8055478260197857 -0.5914255454575809 0.046901875172514595 -0.363403591653291 -0.0009424857340468787 -0.002929440430068192 0.44470981935155146 -0.04862447277863774
72928000.0 0.79700082387563 -0.5997710519244547 0.03972265980999262 -0.3793530966914328 8.097711027947615e-05 0.0035582550319503215 0.45392832862512844 -0.050543673066837706
73927000.0 0.78967596214931 -0.6059551830528075 0.034406111334008976 -0.40466901851475395 -0.0016510708484166734 -0.0014564195024815638 0.46021322723133035 -0.05438582942572376
74926000.0 0.7874141132167375 -0.6140416240509259 0.029660933463767886 -0.42201206596761526 0.0014404221858681091 0.00032077031718651653 0.4656977964966349 -0.06156993212387707
75925000.0 0.781112084440796 -0.6210803827118957 0.020745100076754484 -0.4412056552948594 -0.002988311910643774 0.00018601807810144296 0.462603927614522 -0.08212215280067889
76924000.0 0.7742822077237362 -0.6290116202578907 0.005734581174961017 -0.46828837687603114 -0.0022777854487700806 -0.001657940621213945 0.4671773585307247 -0.08978883960300836
77923000.0 0.7690013885755516 -0.6342671204925204 -0.008465041818162853 -0.49309059143327477 -0.0014663289319332765 0.002909461705724174 0.46240575301621545 -0.09515583338664406
78922000.0 0.7628625717754994 -0.6462325447221542 -0.025221007845741026 -0.518142474710388 -0.0024876358601222393 -0.002341783174854983 0.4587881352725374 -0.11304875779126404
79921000.0 0.7539384533139772 -0.6493403392062809 -0.03815414562713034 -0.5419012927351934 -3.715119272896207e-05 -0.0029122163757342645 0.4678092256757815 -0.11929258966350646
80920000.0 0.7523178002383788 -0.6606502766081966 -0.054035788781239914 -0.5730249931684911 -0.0026067344892549246 0.00019573648421504814 0.4671121240091591 -0.12568546034308004
81919000.0 0.7457964688740035 -0.665893971103559 -0.07447707383306866 -0.6047600579430356 -0.0024022223107308272 -0.002765668542527655 0.47117000577158064 -0.14351767433737428
82918000.0 0.734468501401588 -0.6739373455811049 -0.08603943126664784 -0.6355915346567416 -0.0011832104904655777 -0.0013249741084837116 0.4763117530203938 -0.14653724993884454
83917000.0 0.7276996622112617 -0.6811925835346532 -0.11109401539662969 -0.6601748190987394 0.0014932685262580442 -0.0008499805391372964 0.47230367892322644 -0.15267673590166206
84916000.0 0.723957667847855 -0.688114950988056 -0.12273076050565819 -0.6974286780880915 -0.000636746393064801 0.000726995268853908 0.4657143498378459 -0.17187393648867336
85915000.0 0.7162162072551571 -0.6950437324751859 -0.14752500430745208 -0.7332937065931264 0.001321485636668505 -0.0040622152681238895 0.46326482717289197 -0.18697416572743558
86914000.0 0.7087443652522439 -0.7051147306702603 -0.16104922025782234 -0.772932357014084 0.00242858761942503 0.0006915836923463894 0.46413666986017793 -0.17547418167669068
87913000.0 0.7022013887586472 -0.7096511579539817 -0.18012386492631244 -0.801251546044067 -0.0005863621286594714 -0.00015326761843237967 0.46039919136209717 -0.18256642927473565
88912000.0 0.696838890823032 -0.716389763668861 -0.19984296864922171 -0.8374336779157296 -0.0033842748438879825 -0.00022942400974573383 0.46354604198285965 -0.2117969458774723
89911000.0 0.6884973186356323 -0.7271829113803105 -0.21843383728273105 -0.8775951430733544 0.00027029466123666224 -0.0025502675405963213 0.46912878423183013 -0.21189858436092715
90910000.0 0.6836496222129267 -0.7299636575016064 -0.23334111226672033 -0.913865147559053 -0.0018708451776351049 -0.0024792827741747154 0.46552269390126605 -0.20732611856905103
91909000.0 0.6725423406591003 -0.736003488682478 -0.25257147997093377 -0.9422000392460682 0.0016274685635574472 -0.0026891202265299074 0.46491080529664275 -0.22921623777434938
92908000.0 0.664929737731006 -0.7457657365117919 -0.27750104907024 -0.9768537887882282 0.0025866125429489166 -0.0009458722059344694 0.4511341699496264 -0.23567718679978678
93907000.0 0.6600761506501902 -0.7487524785473685 -0.2938370693136278 -1.0115125367854707 -0.000789097047086764 0.0018970673015335933 0.4548597575012457 -0.2522224939193726
94906000.0 0.6435205224935279 -0.7568297898065699 -0.314287373747809 -1.043460800575999 0.0030922278082738466 0.0002582174999913138 0.4660973302684553 -0.25131634123673396
95905000.0 0.6406839452159914 -0.7646055555268171 -0.3351437726829035 -1.0821567805142056 0.00052556630510187 -0.001043032360726439 0.45522949691352704 -0.2705663357401602
96904000.0 0.6299195982546208 -0.7751935325399311 -0.3599543661083624 -1.1224803759658906 -0.0005397186287796162 0.0007386934783022325 0.44572176201450714 -0.2703917594430035
97903000.0 0.6224719652749845 -0.7783595514206134 -0.37803728995865743 -1.1603710671318526 0.003054642907586261 0.0018274823144514842 0.450478895116675 -0.28966113039111707
98902000.0 0.6187262211596871 -0.786382780188792 -0.4046270231208964 -1.1966581228890405 -0.0019269152435947836 -0.0007184467011031893 0.44915057512452955 -0.2909143796330878
99901000.0 0.6071978530573506 -0.7914915323410251 -0.43848646621926146 -1.226180817402778 0.002701571185327223 -0.000606204447520524 0.4523630992333065 -0.31068767650654855
100900000.0 0.5975146832740964 -0.793981001190744 -0.4701832867354385 -1.2581809815617389 -0.0007282670159528796 0.0009227090107575022 0.455680980758835 -0.32413382573817606
101899000.0 0.5903364336361426 -0.8024792180547481 -0.4955028565187616 -1.2983644778711978 0.00043974636336716023 -0.00207909592233003 0.44539190204716606 -0.32752110609212287
102898000.0 0.5778736702166729 -0.8095398993424054 -0.5367861883526508 -1.3377214302442915 -0.0017219945616702708 0.0033650248751796786 0.44089346406527324 -0.3407485277584095
103897000.0 0.5710737188166688 -0.8173143157041239 -0.5789590641282477 -1.3745819992782329 -0.0009510538604070224 0.0014884155577354397 0.4519012682188768 -0.34386763026224315
104896000.0 0.5643688975441888 -0.8242401813851088 -0.623785563781909 -1.410438903811961 -0.0019158190441656794 -0.0007818722522049889 0.4287443682112919 -0.3399194619437083
105895000.0 0.5511580783252907 -0.827465539234579 -0.6717693505848328 -1.4523813739713243 0.003434336051780667 -0.001309993679809021 0.4264011246335291 -0.35907438540957165
106894000.0 0.5456574933778547 -0.8352236422094361 -0.7254504594740714 -1.490466410674477 -0.0010989129813351408 -0.0015542890968069975 0.4275201082301106 -0.3725795120573789
107893000.0 0.536093055030486 -0.840778845024707 -0.7768231431654875 -1.5308283610837934 -0.003825714556139002 -0.0010219176048048885 0.42440187059737167 -0.37887892098327636
108892000.0 0.5292534229100803 -0.8438183838877675 -0.8404180219831371 -1.5693817118964242 0.0030733769340512457 -0.001949562818619027 0.41806436417121534 -0.3747760137883927
109891000.0 0.5146528102951395 -0.8527233215816928 -0.8927718756392425 -1.6069282026797556 0.0010447447396305623 -0.0012950641846311206 0.43608952313726385 -0.3806194539102197
110890000.0 0.4976011477473742 -0.8563076819049891 -0.9683952712742456 -1.6037160121335947 -0.0006805472664167478 3.345187463285349e-05 0.42776794121073863 -0.40043460261611513
111889000.0 0.49785969562442156 -0.8590719155709597 -1.0237919147114247 -1.6797627186812771 0.0021583389864286836 0.001385841459569601 0.41296964770711936 -0.39909363602375036
