! Created with skrf 1.9.0 (http://scikit-rf.org).
# Hz S RI R 50.0 
!freq ReS11 ImS11 ReS21 ImS21 ReS12 ImS12 ReS22 ImS22
1000000.0 0.998618386795288 0.017574145117663878 -0.00170826326969211 -0.050148788394041195 -0.024745526259569228 0.002804144384276551 0.29358703794269614 0.3584185048752838
1999000.0 0.9974446785311489 -0.015650588459957603 0.005213054996488871 -0.02774104331504463 -0.0044540716065737404 -0.002329208594289832 0.26042302820176233 -0.05710074458388524
2998000.0 1.0003129432493991 -0.02244151067741682 0.009003794733184693 -0.016882998800055504 0.0005582109943965435 -0.0029256514741376532 0.19345938383912564 -0.13327214396709408
3997000.0 0.9976168401416717 -0.029902176763345813 0.013669578365243459 -0.012093680719138735 -0.0010372306372605816 0.0007058774856049795 0.09801854472187292 -0.21536358585927706
4996000.0 0.9960508032608041 -0.03711596034210756 0.019496881239599233 -0.00494171535790594 0.0014827119295892344 -0.0031206911948883642 -0.01749647105938088 -0.19943279025365476
5995000.0 0.9939049086812356 -0.05280331139033462 0.01089134171805947 0.0027707295495694615 -0.0012309072755401908 -0.001323338543314682 -0.12309702631187729 -0.12567575405850162
6994000.0 0.9931033636337656 -0.05822510115500571 0.009447472249154688 0.0039644463714309545 -0.0014344559193364707 -0.0010154572323247102 -0.1515703021676854 -0.02981479968147599
7993000.0 0.9943011696646438 -0.06991934423756717 0.005229018182965525 0.004173909533568727 0.00024223768123854796 -0.0008302353123290841 -0.17404230084955408 0.02781128396880129
8992000.0 0.9913973901285904 -0.07255835147424126 0.0021163745733158807 0.001603699687354844 -0.0015293152310778982 0.0005201586782147878 -0.16922893209113563 0.05640383783204661
9991000.0 0.9924267959629399 -0.08639874556226551 0.0022382447448502938 0.004887808387636533 -0.006289258163083784 -0.003690071309688199 -0.15238228684324814 0.08918769873515091
10990000.0 0.9912774411131116 -0.09639124728543344 0.0018139702221652537 -0.0009543889141506939 0.0026908652153645888 0.004676112427566395 -0.15687356169290384 0.11284761590207698
11989000.0 0.9882200738407215 -0.10253507489263837 0.007021836628132447 -0.0009439913183486068 -0.00479640048410083 -0.0026960996456023884 -0.12351313131795721 0.13642952939900166
12988000.0 0.9903115118870869 -0.10768823888388257 -0.0005294250675129148 -0.003428050105931643 0.003924841056784271 -0.0005708606203623836 -0.13148149709667187 0.1612765679856124
13987000.0 0.985342428783217 -0.11919745737468927 -0.00011232492145897182 -0.0039415836735987525 0.0030352981069606444 -0.002921066443198636 -0.10421745469398401 0.19269827865891118
14986000.0 0.9853064099035691 -0.12656511963388567 -0.0020561160555327513 -0.0022651047271771874 0.002154039833519915 -0.004494060043547426 -0.08924696926796011 0.20041821504437612
15985000.0 0.9898970128940485 -0.13491437168604345 -0.005122901203877841 -0.008639634360012406 0.0009158673231232336 0.0021691115254294977 -0.07680470155157483 0.21543388183910053
16984000.0 0.9858555403221909 -0.14628559757556833 -0.0018182664540678573 -0.0069135159644360044 -0.005320498735372528 -0.00036246850051876653 -0.0594618691455922 0.21114611521409163
17983000.0 0.9849444137935869 -0.14863158864052942 -0.001113879950426512 -0.003975111039019895 0.003399241356459578 -0.0010969904179321014 -0.06371490677265927 0.22576395029922589
18982000.0 0.9816308580123858 -0.16276358996368662 -0.002882861325357144 -0.0018063951152945611 -0.003820768757215373 0.0020193692659062857 -0.03371536750113342 0.24495326051355906
19981000.0 0.9807518970739002 -0.16668221927652013 -0.0118274112114656 -0.0012628342483928013 -0.002197153527050632 7.996022479937368e-05 -0.018762045178953 0.23307415292404887
20980000.0 0.9811472155887601 -0.17734449298589244 -0.0006801475392480678 -0.009730829730277054 0.003183325070053891 0.0027009850960096745 -0.015080808082613575 0.25728422270358003
21979000.0 0.9801461792417829 -0.18535862458147115 -0.004718145976728739 0.0002513192691029196 0.001138818298867103 -0.0020883307858108684 0.013243001044910704 0.2503680290399006
22978000.0 0.9750536164114451 -0.19397550391470192 -0.00842591276169431 -0.006970141542975794 -0.0015737797733306814 0.002542307407524753 0.009282828276991562 0.2569416317676641
23977000.0 0.9771834728824238 -0.20217032288257722 -0.007488230582303866 0.0029405087720408346 -6.277152314384769e-05 -8.378517574309546e-05 0.03471438902280413 0.2701794795083139
24976000.0 0.9715986459598897 -0.21325674130003236 -0.00113703147817094 -0.006043684845965117 0.0036284810952168104 -0.0008279215372837066 0.06125368914486066 0.2661766342639879
25975000.0 0.9678141260694738 -0.22653936080377013 -0.0032761529849622563 5.2631538291187155e-05 0.015083714923562187 -0.017939383428777798 0.06611540068665438 0.26348915808824686
26974000.0 0.9689948889889383 -0.2278475223967009 -0.0014758425354593956 -0.0007025744907508262 0.0006614674815090438 -0.0014357625505392886 0.08311008827875549 0.26171201134320804
27973000.0 0.9679246178248816 -0.2371552531940983 -0.002405837506692359 -0.0007750931952696349 0.0016690135405522523 -0.0005815069123219733 0.09866016326622735 0.2584497823142464
28972000.0 0.96377765527794 -0.24658832528519284 -0.0019107673312300003 -0.0006484829751506072 -0.0018512548682371147 0.0033274429255553558 0.1220410956787771 0.25563036012673374
29971000.0 0.9621980205861338 -0.25493201521214626 0.002487254835516257 0.0015400856428137357 -0.00024055737838992459 -0.0009216851602402887 0.14543309668466053 0.2701330427432197
30970000.0 0.9619824847031452 -0.2601096046772647 -0.0004533369834224963 0.0023565220555168565 0.0022963073177777993 -0.0009094056912094446 0.16323106213330707 0.2552658425090055
31969000.0 0.9586973509022024 -0.2687797727845219 0.006147709067015361 -0.004108756495405529 -0.0007920064164341847 -0.000740013719218151 0.14588926758717918 0.2536811903410981
32968000.0 0.9588066520812084 -0.27767051040545254 0.011915746984990577 -0.009500419769262199 -0.002210274226838243 0.0010119042884456056 0.1609748133060379 0.246394953686325
33967000.0 0.9562704915539565 -0.2862210212548242 0.013836133956365055 -0.006610481529663467 7.721558993744049e-05 -0.0018498465827396925 0.18433945139997876 0.2458417383959747
34966000.0 0.951191545387909 -0.2979996207926473 0.0136029801024417 -0.013676408717663244 0.0011600559463284552 0.0024223218214324852 0.19225575872400627 0.25011576153344817
35965000.0 0.9481664920122759 -0.30612574421328054 0.019519857855215025 -0.017661041773411903 -0.0007919777520105359 0.0014538046867379876 0.20448932489663346 0.2504834902609733
36964000.0 0.9465881723543814 -0.31424634513513755 0.020735773722302127 -0.014401527758452735 -0.0008466501887643223 -0.002574649585242687 0.21504622204883606 0.25106313227258736
37963000.0 0.9433531737703532 -0.32278879199005933 0.023192485235367946 -0.019739851748360217 -0.0012488012977710883 -0.0011050368696044698 0.22394384839376325 0.24341800547944517
38962000.0 0.9410982979622482 -0.3321110166534067 0.021337518052283684 -0.02611519567873211 -0.000156916570344802 -0.0023232669137779297 0.24093485314827015 0.24006367042812102
39961000.0 0.9365599447171502 -0.3408894706212099 0.028347206224749726 -0.028155853290950182 0.0004915868899812211 -0.0030635549113705455 0.2409292753417585 0.23229619928938813
40960000.0 0.93339682220654 -0.3475274405276982 0.02250225528045603 -0.02727275369637596 0.0017415107969439075 -0.0012458815689012324 0.26125061925152765 0.23329527239250542
41959000.0 0.9295040373571065 -0.35818382351222783 0.027435947172163237 -0.034306654260307407 0.00045957999703366917 0.0014291846736750058 0.2713144448427967 0.21940925950525655
42958000.0 0.9269669671270585 -0.3660501431351486 0.034358362924057466 -0.04345980593455007 7.867090779172849e-06 0.0008901838661385142 0.28644140487732644 0.20092359640645388
43957000.0 0.9237326073855252 -0.37345667876440397 0.03339183887528661 -0.049646979968341456 0.00031983150241715033 0.001506033367274971 0.2803966009724994 0.20862947658245448
44956000.0 0.9201397867359292 -0.3811714957214909 0.03347211186395046 -0.05382112756991614 -0.0038942725168285824 0.0017508839765311636 0.2934236171456875 0.19590502723039296
45955000.0 0.9165683528075628 -0.39200963036210135 0.03456617806423684 -0.060526649409755634 -0.001974053975749762 0.0006063396256476709 0.3018646108795718 0.19494024388136147
46954000.0 0.912955031711911 -0.3992816116400851 0.03507148419660242 -0.06626058804491149 0.0007808145759360736 0.001239449099512267 0.32630400043980917 0.18210971463098014
47953000.0 0.9108392341361901 -0.4068190941969154 0.03635927359626597 -0.07468478630639493 0.0001248341605706896 0.0026111824846080005 0.33131947882444424 0.16839103946320502
48952000.0 0.9051244001323102 -0.4179515633923689 0.03718178952007099 -0.08335384449649062 -0.002785922904208225 -0.0024846255395950525 0.32652502401072925 0.16526904637224937
49951000.0 0.9017614490091985 -0.4246519668550125 0.035642326540442255 -0.09069897039346414 0.0011486056089119803 0.00232162764012146 0.3407069512546099 0.16461742371872076
50950000.0 0.8984335753866785 -0.43381275958863813 0.037407764442004415 -0.10021884156829748 0.00012976540149646664 -0.0009759462389237793 0.3527923756432847 0.15523002347473738
51949000.0 0.8931681452876021 -0.4417892172965573 0.037314403910735136 -0.10773772249693474 -0.0015232157848303015 0.0003363944450251939 0.35139185022325337 0.14760487119563048
52948000.0 0.8924217628812515 -0.44829041562464755 0.04087293560362561 -0.11476286160754215 0.0006742464409797592 0.0007224532676395949 0.3677279736176738 0.1447287145698441
53947000.0 0.8849589094134271 -0.45943277756359263 0.039632670985402865 -0.12547219154507028 -0.003303381323928136 -0.0008076571606559291 0.37196944293422873 0.1316350295293754
54946000.0 0.8805101658816901 -0.465172851980851 0.042208582466217094 -0.13340566499006912 0.0013188384350988703 0.0017213335260506497 0.38521324385659667 0.12014394329918682
55945000.0 0.8771375564543407 -0.4755055070788436 0.04581373774923099 -0.14585496342766224 -0.001310208696115523 0.0011392731230145212 0.3805324023362832 0.10823689219516176
56944000.0 0.8739402860281082 -0.48249732580617316 0.04649293487254077 -0.15309959381192909 -0.0005226405327665676 -0.0011487549210908645 0.3927826194220041 0.11033626763194886
57943000.0 0.8673552012546017 -0.4943159166814168 0.0461993344155093 -0.1650537923764672 -0.001128301178353798 -0.002607810377294605 0.39427693943739434 0.09748770542935813
58942000.0 0.8613687559643908 -0.49730430086352323 0.04755584684724102 -0.17687413296446644 0.000775002375804737 -0.0021353762874849517 0.4167186037750003 0.09424405566095045
59941000.0 0.860123653224355 -0.5069072067390532 0.04804328162431775 -0.1853842330915078 0.0001414016653366804 -0.003323475977109005 0.42533684947499384 0.08966793241274394
60940000.0 0.8519083948185758 -0.512178853361438 0.047313370511429205 -0.19156699542167543 0.0002551254741975747 7.299485059696106e-05 0.41343022280179376 0.07352806918653026
61939000.0 0.8495909804361541 -0.5200660758130013 0.047734659347396395 -0.19947143200618483 0.0009273892545461634 -0.0016286611275610134 0.42289826537751174 0.07409334608034418
62938000.0 0.842383470325207 -0.5309876751977028 0.052842333560472236 -0.21446448915875044 0.000727580920778918 -0.0031685647472190783 0.44145864972209453 0.055733611942749756
63937000.0 0.838225951785416 -0.5370472635768972 0.05383335711748805 -0.23575454339620056 -0.0009590841757298007 -0.00033225411620277774 0.43310006918786825 0.049101647214261315
64936000.0 0.8298641880733565 -0.5463329245234528 0.0556769834075723 -0.2510092228621947 -0.0009286579501497369 -0.0013323080457700797 0.43070390489210425 0.04428390503166181
65935000.0 0.8290320412224397 -0.5548625168062401 0.052722145575746976 -0.26195719932298056 -0.002325807284999649 0.0002133110466233852 0.4423052792641049 0.02143506968758869
66934000.0 0.8231989059330175 -0.5616800469481563 0.05475923279101289 -0.2733503352289506 -0.0011453353835806398 -0.00010444624844291218 0.42864225583532495 0.01268634433924186
67933000.0 0.8208980134197139 -0.5681640779638988 0.0553064786888595 -0.29054846931257217 0.0026550154315726103 0.0012664604136771525 0.43975097001205504 0.01624696525190734
68932000.0 0.813477806097046 -0.5633771147894958 0.053466305449488945 -0.30013831629923887 0.001620095558237341 -0.0037178902005680107 0.4395745812388357 -0.00734040427103658
69931000.0 0.805899050510382 -0.5853472464703876 0.05140308360740885 -0.316060601774944 -0.0023137669549412854 -0.00042220666331872276 0.44634477880618934 -0.013149563441570934
70930000.0 0.8009922771310699 -0.5922227158032556 0.04980963714614371 -0.33119221326989184 2.0233792437252716e-05 0.0005710334942635644 0.43883828082634657 -0.022846726526716325
71929000.0 0.7958259825863927 -0.6023385212473152 0.04185380269994072 -0.3497164881979608 -0.0008138834083574843 0.003754119192748734 0.4440737085647777 -0.035170767101883216
72928000.0 0.7899070429116662 -0.608156177273196 0.03780039530493757 -0.3644783260195033 -0.0005764978162203181 0.0017900416760573495 0.462196972706251 -0.04054118304375278
73927000.0 0.7843820045288218 -0.6166650029873169 0.035943014470679796 -0.386362563310133 -0.0005200619425874751 0.00042345920102194226 0.4546386466432454 -0.05412293959531674
74926000.0 0.7786501650131056 -0.6253827947122174 0.023518007112981087 -0.4043898846764639 0.004101023993721612 0.0037912373041290416 0.45696438611122037 -0.05342932185191483
75925000.0 0.7710611292032451 -0.6293978696379713 0.01227038804032545 -0.4237915657001562 0.0010732358510713307 0.0003268830093033234 0.4722383771831485 -0.07409019710748786
76924000.0 0.7643028292012792 -0.6378218852288781 -0.00229498292893771 -0.44616055811226285 0.001407068939591138 -0.002393961075401576 0.4674332691131021 -0.07505271996562285
77923000.0 0.7578076037747477 -0.6465930495034533 -0.01399282599274404 -0.4716417384304922 0.004764023968609384 0.0006428449588472328 0.4688228964287945 -0.09298640419499966
78922000.0 0.7524987302676923 -0.6528452604572622 -0.03130133320989112 -0.49682838307014365 0.0024862588707681758 3.791878218716414e-05 0.46353932582492313 -0.09987916272063853
79921000.0 0.7444323407441072 -0.6586283810285201 -0.05019701200675904 -0.5250640544482105 0.002505881496765935 -0.0038960518370096306 0.4564914284566894 -0.11794395049586581
80920000.0 0.7361201730371366 -0.669783325638804 -0.061111425577656246 -0.5535149910208996 -0.0005095877124267611 -0.000687627401423664 0.4706303517365873 -0.12567690776469684
81919000.0 0.733126266489619 -0.674640742185789 -0.07977652667604909 -0.5774916276895325 0.00022342711697186652 0.00039630287789346155 0.4696336712928346 -0.12102680716689916
82918000.0 0.7220421040531915 -0.6839238144080378 -0.09599036881293505 -0.612618513354891 -0.0022798377051263924 0.0014873168661667306 0.479202789140538 -0.1433061030449473
83917000.0 0.7158368953903844 -0.6910124707773775 -0.11614562156986159 -0.6369077948582123 0.0025809490424966927 0.0011117048776592673 0.46958444377253056 -0.15148926171792867
84916000.0 0.7106575877752026 -0.6986645441601643 -0.13488415379209312 -0.6730706615532956 -0.0009026931628131821 -0.0035271721391945607 0.4642282870567621 -0.16182296035589164
85915000.0 0.7033368527701166 -0.7037674707319368 -0.1517670307360062 -0.7017155281412661 -0.0011435238635882025 -0.005991299263682653 0.4583970237306803 -0.17462121062417968
86914000.0 0.6946932587001884 -0.7155719390225648 -0.16797235454689302 -0.7456132816715196 0.0014710868197632876 0.000923162750845016 0.4699694759512915 -0.17406048156910411
87913000.0 0.6886384053129935 -0.7194725771653686 -0.1857291951455699 -0.7718181955412678 0.000955834471931304 0.003500412737602211 0.46051458163448133 -0.1841549325079799
88912000.0 0.6835080362927267 -0.7266081973142476 -0.20197637219858927 -0.8057159405513193 -2.2513674189857014e-05 -0.00475059340089409 0.4607688891634689 -0.1965241387516121
89911000.0 0.671504221383711 -0.7345942835040686 -0.21664217656356474 -0.8390882960116899 -0.0005553414407636843 -0.004072600941230863 0.4608755169152962 -0.1950543173684153
90910000.0 0.6672057571416993 -0.7401055253279575 -0.23123638718227357 -0.8771498554733335 0.0015710366222200214 0.0035879637430921048 0.46009614838892693 -0.20146570440319247
91909000.0 0.6580192318087501 -0.7457371323769671 -0.25177927204665856 -0.9059894953588893 0.00043981984260414107 -0.002627248696960505 0.4669785019914466 -0.2275331512589418
92908000.0 0.6487512126286513 -0.753820089775972 -0.2709624041775153 -0.9386994556743605 -0.0026897775952492587 -0.001989156077359219 0.4553582535471308 -0.2334360763603324
93907000.0 0.6451744569752864 -0.7591942577968067 -0.2856037127929688 -0.9729225973616152 -9.396864817618264e-05 -0.0023793572106737024 0.4631343351640333 -0.2391293082877314
94906000.0 0.6321185576018344 -0.7666806590513263 -0.3030643886334324 -1.003461640067643 -0.0002350506354749464 0.0042565094960453015 0.46310752893121016 -0.24238560405318701
95905000.0 0.625918079245783 -0.7734409181800957 -0.3252153201221228 -1.037901601543646 -0.006071856812024122 -0.003168742199434385 0.46722461082034666 -0.2654915919982695
96904000.0 0.6161008096844884 -0.7828124284291338 -0.34901765829072234 -1.0771884634279465 0.0007853106414345074 0.0034779037097869346 0.45545121067932537 -0.2701284841251229
97903000.0 0.6062637282303642 -0.7864220774528262 -0.36551950811227407 -1.1058978812211193 -0.0007542771118735021 -0.0026575009683918777 0.45332526386144056 -0.2778451038023799
98902000.0 0.602946081647052 -0.7953808273591126 -0.3897341506152634 -1.1441862242525032 0.00197415545348367 0.00407203350477138 0.43854510785501283 -0.28741684129750494
99901000.0 0.5907152587759281 -0.7994612334905854 -0.41747097891482493 -1.1719037953658558 -0.0007165939181555177 0.0023023569985533353 0.4570963202449086 -0.3023552832754274
100900000.0 0.5828688860264691 -0.8040630188003072 -0.44978741063438193 -1.2043926727441587 0.0007558645205034205 -0.0009201488635368379 0.4652451769516876 -0.30727021612123906
101899000.0 0.5742985625311597 -0.8123230453087268 -0.47573408594105127 -1.2414950437427579 0.0006494542273437267 -0.0012235182919962263 0.4451479194793953 -0.308836825576494
102898000.0 0.565164055983213 -0.8162084868822449 -0.5071725303892477 -1.2788247436355649 0.0036243654372913807 -0.0020528384932740466 0.45121840295566945 -0.323578083887236
103897000.0 0.5575664036375467 -0.8256140887961472 -0.5479131864915292 -1.314932599587408 0.00021677330330326718 0.0007149502614056378 0.4497866030394411 -0.3335809434698574
104896000.0 0.55039808696743 -0.8350124020896895 -0.5914692094571367 -1.347274540347345 0.004099900171749275 0.0013405207844398616 0.4345494870344302 -0.33122975480338956
105895000.0 0.5385503117888922 -0.8359907334157998 -0.6396401849210641 -1.3876328027753404 -0.00010174903014533659 0.0018616677872524633 0.4323798876646141 -0.3591749019685753
106894000.0 0.5274475214883536 -0.8429285236019676 -0.6916644498756724 -1.4236511847830506 0.0007436756029023657 -0.0005182518221721975 0.42512223726749593 -0.36102527640274557
107893000.0 0.5193015662330459 -0.8481433816330264 -0.7444910464464546 -1.4581164743894992 -0.0033336903613955696 -0.0013837601355001076 0.42886487682368457 -0.3708027077638536
108892000.0 0.5091133387994374 -0.8548580899836471 -0.8039121564638821 -1.5020364210679416 0.005249305400637961 -0.0014390110411088345 0.41861807872136253 -0.36524753150245265
109891000.0 0.4967961171224134 -0.8589426495989667 -0.8624873221593419 -1.5329869062762433 -0.001161492523176626 0.002114833520109986 0.4394462389354194 -0.3701114815923903
110890000.0 0.4785695344172513 -0.8640037729325349 -0.9325447182116545 -1.5288120679585 0.00012953562681154875 5.283261282370172e-05 0.4248901956529119 -0.3863344478078938
111889000.0 0.47627789218889055 -0.8663473759232537 -0.9902143239765113 -1.6005563459908998 -0.0029141359555264856 0.001738866847923595 0.4202160886235279 -0.39171190768975017
