! Created with skrf 1.9.0 (http://scikit-rf.org).
# Hz S RI R 50.0 
!freq ReS11 ImS11 ReS21 ImS21 ReS12 ImS12 ReS22 ImS22
1000000.0 0.9707952329989114 -0.008063271838706356 -0.008619015379432916 -0.030059186317588485 -0.008143953144416915 0.007135011880777903 0.3809251892252108 0.32683524425272337
1999000.0 0.9993342885682441 -0.014435998241938025 0.003963923765780544 -0.016218371600721204 -0.003417499889630129 -0.003526139684425172 0.2715682291200541 -0.027421563716130352
2998000.0 0.9961931625930055 -0.026316527146182534 0.01060042339266304 -0.01650981704308931 -0.00909635503754562 -0.004830636738300495 0.18254743197448312 -0.11981621934246406
3997000.0 0.997487450779503 -0.03162092729584247 0.015236531677667458 -0.005545162492464594 -0.0013091401595457404 -0.0011700322875735326 0.08882698622223363 -0.21530729165257065
4996000.0 0.9977113622357926 -0.04019412716354288 0.009986928732179491 -0.009039011149659442 0.004842663653114855 -0.006307667270116606 -0.0409897139603898 -0.2134154176546189
5995000.0 0.995078758152706 -0.048011996006399965 0.007025480176223495 -0.0028537832523320133 -0.0007787292727690991 -0.0032656211076327437 -0.1067297100757529 -0.11407423707895543
6994000.0 0.9936381331546472 -0.06289939158773838 0.005352274497776595 0.005317942366108371 -0.0001388565957611169 -0.00012213564227380055 -0.1587139311304785 -0.02315104887191357
7993000.0 0.9944091076764797 -0.06794611363887859 0.0027473634279719912 0.00311715849126123 -0.0013821773812815882 0.0017977885207035812 -0.15673411436093768 0.03346808577947812
8992000.0 0.9935270752958881 -0.07514276070812671 0.005263256848366557 0.0073194346699333645 -0.0017775534780869072 0.0050351896585770365 -0.15006938949676168 0.04816784515451399
9991000.0 0.990280008329115 -0.08399682201118065 0.00012683507102300803 0.004179103937602843 0.00706028772722909 -0.0015761148899551343 -0.15574946636215456 0.09672584830433943
10990000.0 0.9900533570133438 -0.09327370175782747 0.0019237064607256918 0.0020822559322912814 0.0002552696757130183 0.0040753239250545924 -0.13934895956315052 0.1110319823504356
11989000.0 0.9901715608279575 -0.10260734894502699 0.004023219175166368 0.0026143808202657944 -0.0024634076554444196 -0.0062820194014025325 -0.12991671507331645 0.1436645967855641
12988000.0 0.9870161858525296 -0.11028655263052083 0.003222210868418974 -0.002238761304994939 -8.43333103229325e-05 -0.00024369375810099437 -0.12064796965180814 0.1625909150103301
13987000.0 0.9866064319135137 -0.11887865949734333 -0.0006020668266054187 -0.0015139237183036274 -0.003512040480052209 -0.0012872260855710817 -0.09400700852703761 0.19572164803129846
14986000.0 0.9864814080351 -0.12793578384911086 -0.0006173856458193153 -0.005892787984575744 -0.0011080854924598099 -0.0006492540700681829 -0.08827659729526047 0.20450452417054354
15985000.0 0.9865443217151945 -0.13456326791330217 -0.0005260610940352794 -0.006765668472984943 0.00013623000009606483 0.0025898062949762917 -0.0684627758484454 0.21948299745284489
16984000.0 0.9838560685350224 -0.14426954138282036 -0.0007857892125661296 0.0014673306209953849 -0.0007613192721379245 -0.0007307470866581547 -0.06230885753472029 0.21849191050610528
17983000.0 0.9839982664309594 -0.1509031130555849 -0.000503585596713432 -0.004796892498245481 0.0023962998658319207 0.0012542326238437257 -0.047847218807929276 0.23496814763815568
18982000.0 0.9817553313140766 -0.1634575290079594 -0.0022508122764510574 -0.005236071663334756 -0.004668922655897987 -0.0011330836084519466 -0.029340537168280518 0.236223938864728
19981000.0 0.9809963342048865 -0.16876920166480114 -0.001318361596009018 -0.006323796793443679 -0.0006161575513664816 -0.004064165416982317 -0.020271165977681898 0.24080353306574484
20980000.0 0.9800458727178285 -0.17850732095281113 0.0002821553061550424 -0.0032954145324836683 0.003518490340281626 0.0001546712085795075 -0.004335047584981976 0.25580665438901007
21979000.0 0.9764861563691802 -0.18856868650798048 -0.010985203904677302 -0.0003765429806310767 0.0008666039402538343 -0.0012335985764670488 0.018222324985190223 0.2389002560173055
22978000.0 0.9754119743594849 -0.1953807101561756 -0.008034205496303848 -0.002445293939460253 0.002151384726159085 0.005099777853774554 0.023620068635180493 0.24659472818874162
23977000.0 0.9766797571945867 -0.20349896711856624 -0.003915582976754311 -0.0006519357675813195 0.004302422461243071 0.0009290876771931263 0.033041770965107055 0.2607826390992687
24976000.0 0.9720907652322703 -0.21310845569131912 -0.003773129151817942 -0.0008441809680901463 -0.0005844326899434014 -0.000697061301699872 0.06240200397068853 0.2572919684114764
25975000.0 0.9652105989805498 -0.22282951718210098 -0.002429146704474314 -0.0036917317198628583 -0.015444623475497866 -0.019898872954770584 0.06636402184568967 0.26103024930399316
26974000.0 0.9684100742397252 -0.2291355075321364 -0.004369334310052639 -0.0007889771851662296 0.0004909577395072739 -0.0012776514279340466 0.07706446823767706 0.27112756438904195
27973000.0 0.966844531211152 -0.23742972888854483 -0.000963200017578148 -0.0035948113584773063 0.0028057324906294897 -0.0024819622862416835 0.08719573105574017 0.2501557451277404
28972000.0 0.9641725785853126 -0.24615896694849268 -0.002284458154652839 -0.0008726917272669342 -0.0002933308629438153 -0.0011206530283029786 0.11494289382719337 0.2670631058806711
29971000.0 0.9627075008760871 -0.2563639142428566 0.0013405200388936416 -0.003583435563467632 0.00012726043885523207 0.0009878977479640155 0.13799758535987433 0.27177726180982137
30970000.0 0.9612748628074761 -0.26036449926875216 0.0021717196290878347 0.0002864977283236262 -0.0007129052194279372 0.003859085723576558 0.1599378360171087 0.2508393750972212
31969000.0 0.9582808137652491 -0.2698504706006862 0.005068078965925212 -0.0057467851872543855 -0.0032732919576331392 -0.0008221128786840704 0.1406411922051486 0.2524143368434417
32968000.0 0.9568727586850383 -0.2794305633399547 0.009500291644514861 -0.005965800846002244 -0.0005650811836868669 0.0009754213908727086 0.16619712905334844 0.23576062384211796
33967000.0 0.954237633624686 -0.290060940347644 0.010165828635435248 -0.008094482520079016 0.0014314716933736369 0.0006842711849983255 0.17542036673404174 0.2453458505842198
34966000.0 0.9502705911071342 -0.2998428677139041 0.014848276407715773 -0.013186583767226109 -0.0023515533584848743 0.0003655925089488407 0.19129996497736643 0.2620467941506982
35965000.0 0.9486348426364645 -0.3063594805879041 0.014988783407352494 -0.01620730585931772 0.00196667851695513 -0.003940101689125189 0.20004010814209167 0.2504190288686151
36964000.0 0.9469039029306117 -0.3149679871538929 0.018452115816751147 -0.014077340728461547 0.0027219342099541128 0.00026127096742171893 0.21011557070501996 0.24787118140740716
37963000.0 0.9412782170691749 -0.32712007167258217 0.021667402117102115 -0.02182888058549496 0.0005567609761591301 -0.001619130515732235 0.2218197693219069 0.23968510177100294
38962000.0 0.9400207552781482 -0.3321487891823477 0.02589835513889658 -0.024540775922321387 0.0003127967968572664 8.153225151487004e-05 0.23499025460548476 0.23669049133932152
39961000.0 0.9368698074474255 -0.34196984189460905 0.022889798492733402 -0.027869417789434702 -0.00044591741603320885 0.0004298090898239195 0.24947410818414403 0.2362766350313251
40960000.0 0.9326593533833494 -0.3506478080917556 0.022019246816562515 -0.023042543807516164 -0.0008367049215459181 -0.0012746187916792375 0.2642980723794348 0.23193946951848238
41959000.0 0.9276375301937587 -0.36013871456013086 0.030329399167243625 -0.0317181422413735 0.0007068094923947391 -0.004428140324506631 0.2658309177708298 0.2092794115868026
42958000.0 0.9250333208771659 -0.3680118465225843 0.028740960823543018 -0.04023924375208318 0.0009723813570973656 0.00031739845602883073 0.27715943360066225 0.19982991353688784
43957000.0 0.9254484091964239 -0.37315664352361255 0.03359147862631615 -0.04382747218934426 -0.0026824982377235376 -0.003228862850480044 0.2878322195728678 0.21080403976384418
44956000.0 0.9195099285736107 -0.382275274093883 0.032594490046611184 -0.05369360421625061 -0.0018361715563948138 0.0037678444843154885 0.2981030202854982 0.19066505859927216
45955000.0 0.915511235560422 -0.39194843292916665 0.0373943355865205 -0.05979532535083898 0.0011141914283947223 0.0013213452473489768 0.302237995083551 0.1891927059531509
46954000.0 0.9121548351721964 -0.4005538924651504 0.0364702871658011 -0.0660815791809942 -0.001743600119350106 -0.00021345875685550188 0.3218432818358683 0.17581180819022887
47953000.0 0.9079444852078821 -0.4095002159103144 0.035663171568878126 -0.0710914664504029 -0.0027860107958040535 -0.0022154763192061577 0.3269807565632605 0.17815677431217095
48952000.0 0.9039615435538625 -0.4185194846703297 0.03766510775090249 -0.08180514355126396 0.00039934244239537073 -0.0006215410618307531 0.327769331194816 0.1676074750394595
49951000.0 0.9009883402174941 -0.4269255100800666 0.03521708642469136 -0.08792654169393803 0.0008459782500330968 -0.0005879510547238939 0.3595101747214122 0.14359251260695877
50950000.0 0.8961637614638626 -0.4354967206201917 0.03633390183866635 -0.09791772628236503 0.00024499133754682693 0.00045840351197609376 0.3501645200231343 0.1521016533176677
51949000.0 0.890261590599537 -0.4442417861223574 0.036430969852266494 -0.10535401439728459 -0.00043622305406082663 0.0008576447816968546 0.35506338733714704 0.1468778311545725
52948000.0 0.888970884350646 -0.45077065480001066 0.04359550298617013 -0.11222828727296354 -4.074988728566832e-05 0.00022149932193236014 0.3711435986361172 0.13976614328739548
53947000.0 0.8849697029049922 -0.4580771030080522 0.041516063634878544 -0.12115572649043344 -0.0008277870208243852 0.00043691667085920275 0.3704002770595751 0.12570586167394893
54946000.0 0.8772144759976042 -0.4696000661373984 0.04249949408989932 -0.13315488293886413 0.0019629280417202562 0.002215687309127414 0.38101849368877655 0.12805329883738165
55945000.0 0.8761910180488642 -0.47604718691690096 0.04510786719112876 -0.1428920645439329 -0.0007522472713521277 0.0022836984062794452 0.38595538751640035 0.10622297221258312
56944000.0 0.8716700525559624 -0.483866369261272 0.047495388641543644 -0.1529710203659462 0.0022664941455366803 0.0006923440972066952 0.3920996772756268 0.09289205168898652
57943000.0 0.866030296899638 -0.49628468620835436 0.045439855997588485 -0.16434457226062693 -0.003869876757196009 0.0009528535017588496 0.40652872802565254 0.09557747043108555
58942000.0 0.8604267954580082 -0.5001355250518232 0.048518651387377175 -0.17442263969963923 0.00045033713596032154 0.0027504916941228992 0.42186328077258517 0.08271661997253642
59941000.0 0.857304289706222 -0.5062691555243221 0.04983551362261152 -0.18181695636769005 0.0018675858478806487 0.0020331330253812513 0.4076319514828192 0.09292454979535
60940000.0 0.8501190895055126 -0.5142828891255455 0.05133919548974764 -0.18840268051889675 0.001358902333391215 0.002012536794472069 0.4008155433324485 0.07963452717260357
61939000.0 0.8469242125210207 -0.5226335490624852 0.05192629043879382 -0.19385636566609316 0.00047515143902457266 0.0006206968715716858 0.4038206964546853 0.062091990786678104
62938000.0 0.8392451538535468 -0.5352723038541568 0.05465079383986811 -0.21313184798129592 -0.00155810737238536 -0.0006704763796312205 0.4397597653146077 0.04695189254333839
63937000.0 0.8354729243659226 -0.5409980338850164 0.055619400229629405 -0.23455472382577655 -0.0010213375723822431 -0.001758414803094067 0.4335381629723813 0.03650887618775682
64936000.0 0.8300610185342283 -0.5459143378900386 0.0569573599075264 -0.2465448040222598 -0.0008960538482516728 -0.001473205738935797 0.4246867722633932 0.03776015902430523
65935000.0 0.8271054206828363 -0.559546938040115 0.051802406027795594 -0.2603509813539818 -0.0006222075329282142 -0.0011554689580669769 0.4347774073029848 0.015467334803850742
66934000.0 0.8209524059843544 -0.5611277218802327 0.05520206070111816 -0.2743945014044379 0.0007744672011677693 6.12709079647628e-05 0.43980126154209354 0.017552662834357732
67933000.0 0.8178111529584157 -0.5716206655141387 0.05177216673142395 -0.2862089276043353 0.004914852259411572 -0.0003826615083294468 0.4481637947985399 0.015164155203050502
68932000.0 0.8005502234055216 -0.568667689026174 0.04806211278489042 -0.2965371123486274 0.0007924670658860739 0.0021489156083713285 0.4463432163723373 -0.006409248043796589
69931000.0 0.8027124821854721 -0.5875139251061527 0.05392470413261099 -0.31399533844624244 -0.005338868475678478 0.0016472864667405507 0.4450961466914289 -0.01955936460322866
70930000.0 0.7981847535900015 -0.5937092196096238 0.04879583732394827 -0.3312666858857751 0.0007467422113738797 -0.0005525095919976848 0.4401119438910473 -0.035209493435771004
71929000.0 0.793195199323045 -0.602741897524865 0.04630986984564277 -0.3485610719989248 5.4128312896114896e-06 -0.001072097164907659 0.43882542681954595 -0.039069396445981945
72928000.0 0.785813596661977 -0.6138286788202124 0.04158441680188354 -0.36510998610178724 -0.0015118638122137412 0.0019675420991222864 0.46386229681289554 -0.049277846726751506
73927000.0 0.7802292501804766 -0.6167080416013815 0.032914933457034404 -0.38710918997203175 0.00025390130319563224 5.548950377251208e-05 0.45810002962420154 -0.056493332446543476
74926000.0 0.7755942028920663 -0.62841022142723 0.02089751904223339 -0.4039748468937633 -0.0012795594257241343 -0.005915551661218126 0.4549015885898215 -0.052015869615116346
75925000.0 0.7710453081525377 -0.6305792077328258 0.014285485184776198 -0.4222558466052608 0.0013957124094816432 0.0019169921107085825 0.4625088742908436 -0.07965303015087781
76924000.0 0.7615709867986883 -0.640921301639657 0.0019217197572971322 -0.4488390984789365 0.00033244452549274203 0.0009811876280711581 0.4610107178860637 -0.08580139154568645
77923000.0 0.7557264221532645 -0.6476055336062425 -0.013091456426764238 -0.47111735578821134 -0.0006583485525797075 0.004421280129559901 0.4588110868065305 -0.09472154139059591
78922000.0 0.7497718179006555 -0.6578784481094865 -0.029333616835625836 -0.4961832182226448 0.0015812793814514562 -0.0015141372735312014 0.45265518575658054 -0.09981809740560868
79921000.0 0.7414987798104695 -0.6600868693721947 -0.04712139183851773 -0.5211275962253015 -0.000667894396973045 0.0013982074663854475 0.4554951233268366 -0.1088738291577453
80920000.0 0.7363309215724001 -0.6711321510740935 -0.06232563359045699 -0.5520771416193104 0.003992743550351641 -0.0012138823900301765 0.47856438275269 -0.12366863989523305
81919000.0 0.7322312919121389 -0.6768868449229015 -0.0823408583049949 -0.5784841110882794 0.0005350834616092979 -0.00032855167869029516 0.46571495185971507 -0.13717626239004807
82918000.0 0.7204640868652656 -0.6855010961693635 -0.09223091726624222 -0.608498654368461 0.0007272601021292317 -0.00034470346982149656 0.4749285891439195 -0.14710868011700076
83917000.0 0.7130107555768638 -0.6934906238707989 -0.11150037965559832 -0.6369685201245486 0.0018962253800609383 0.001984096927323045 0.472393376886966 -0.1482616093576786
84916000.0 0.7073312650466805 -0.701314531915932 -0.13001612521384406 -0.6737202635555635 0.002254603649202257 0.007147522792003106 0.45816907141193414 -0.1628304516806545
85915000.0 0.701919610575283 -0.7068275237643502 -0.14751272871318719 -0.7044218650195276 0.003609622835360785 -0.0003400353586069634 0.46246282317779525 -0.18196200239726795
86914000.0 0.6931130252271401 -0.7166224051908242 -0.1629139171864855 -0.7395066223989849 -0.00011826594439191789 0.0012692999137577092 0.4645729871056072 -0.17118400853109297
87913000.0 0.6865407395290829 -0.7216826683985559 -0.17946303375438008 -0.7679309741146494 0.0023350530545722895 0.0026602499673024373 0.4623526971706952 -0.18472396350496434
88912000.0 0.6806767617452296 -0.727789663114301 -0.19473968743068942 -0.8043797315219954 0.0002627589674433761 -0.0014929183372874386 0.4633324975577972 -0.21260578431419458
89911000.0 0.6702887750593365 -0.7375602360041208 -0.21349445091028782 -0.8405878216739253 0.0031104087058569365 -0.0013184012145888585 0.467334287706527 -0.2097258675887003
90910000.0 0.6627897537327413 -0.7429406651643805 -0.2318726707306752 -0.8699027443767631 0.002720821423024333 0.006515393496858946 0.45746099260877837 -0.2173417043721503
91909000.0 0.6567424773712557 -0.74829298352802 -0.2507962373686639 -0.9008246979938554 0.0020505817228443505 -0.0014530954736825437 0.4663914511099896 -0.2189795148239172
92908000.0 0.6472159626550333 -0.7561396883443684 -0.264280809851957 -0.9342610845464954 0.0030419102026551497 0.004229697332703903 0.45862976404041444 -0.22954248635978863
93907000.0 0.6418028605596423 -0.7601976633030783 -0.28463899821370914 -0.9666327816424892 0.0005741465114116902 0.0036781443639854307 0.4590732259655189 -0.2573811639215496
94906000.0 0.6261610853918462 -0.7707210527038333 -0.30539276945750704 -0.9979958809494526 0.005744208193055571 0.0035968720174247588 0.46278880953565854 -0.25964406267343754
95905000.0 0.6212332215175129 -0.7779946647766761 -0.32911408270547343 -1.0326692752618984 0.00019083693119246905 -0.0017367367454088774 0.46018820560483326 -0.27249513036420253
96904000.0 0.6130587174017306 -0.7872867238533526 -0.3466769086862356 -1.0712930981051614 0.004286270596399037 -0.004438023055522024 0.455027301261324 -0.27415197089723115
97903000.0 0.6031576631038111 -0.7885824939473038 -0.3628688150066921 -1.1013025977630484 0.0015372511597749237 -0.00021429518543273897 0.4422343275945497 -0.2891052759912839
98902000.0 0.6007085565075923 -0.7967354414186462 -0.38320220093147883 -1.1406556641937438 0.003134982979856466 0.0007652766872930798 0.4490007093553833 -0.2983467892509698
99901000.0 0.5873556780078857 -0.8022616497208982 -0.4183488618936036 -1.1683708953565757 -0.003548913053884783 0.0014277203469048767 0.4629887120262437 -0.31461739109159237
100900000.0 0.5796950667464952 -0.805511036817483 -0.44842489573394856 -1.195667506032508 0.0011738024479775405 0.0016623962823652891 0.4617866502674997 -0.3061489408763682
101899000.0 0.5695703928216296 -0.8135180483203889 -0.47412581390454084 -1.2372792158221022 -0.0019359276761606338 -0.005387383622193179 0.45319099722870276 -0.32655405036816476
102898000.0 0.5605379376856203 -0.8192941910963067 -0.5101954059842265 -1.2764938409912483 -0.001667090492796694 0.00018778318595623925 0.4571796590481562 -0.33731135250034444
103897000.0 0.552872977448383 -0.8269814379128227 -0.5525526879314616 -1.3112772808066633 -0.0008561110671532706 -0.0015662676888698458 0.45681397453813044 -0.33687596984598994
104896000.0 0.5458625789535894 -0.8358962256333836 -0.5941234255321055 -1.3435254960654808 0.0024947417579830565 0.0020540093735851375 0.4433886027660973 -0.33784234530047885
105895000.0 0.5322964425359387 -0.8383862618266023 -0.6445305420230062 -1.3803104419254857 -0.002380932396091409 -0.0009077418115226493 0.4291729092490507 -0.3613554648413471
106894000.0 0.5244163546826422 -0.8437584813092956 -0.6941669816413881 -1.4182865342108713 -0.00106448804471081 0.0002514982170289804 0.42098769416181625 -0.36842561357798814
107893000.0 0.514350277630982 -0.8506768608966225 -0.7470148238130342 -1.4556687495675589 -0.00040590547637043764 -0.001828696798395373 0.4303816291560259 -0.3717908010602266
108892000.0 0.5057626061119501 -0.8543184100257049 -0.804576152043914 -1.4948633186101694 0.0018393840908772058 -0.00037184262589008715 0.4213349084126372 -0.36959799980237257
109891000.0 0.492646310629771 -0.8624040787942014 -0.8654094407946311 -1.5296471424101454 0.0025236150442691594 0.0011160517385651841 0.44064323190318144 -0.3859834587167163
110890000.0 0.4790091312725735 -0.8772449133141181 -0.9418574954073263 -1.5373598501798589 -0.0028916313558291626 -0.0010084096351456568 0.42400687147270333 -0.3834323774447464
111889000.0 0.4716874477225338 -0.8689044071317638 -0.9885469691194674 -1.5956532013080773 0.0034671071823253407 0.00021829743336108232 0.4190471484365811 -0.3928668760180349
