! Created with skrf 1.9.0 (http://scikit-rf.org).
# Hz S RI R 50.0 
!freq ReS11 ImS11 ReS21 ImS21 ReS12 ImS12 ReS22 ImS22
1000000.0 0.9780480072469911 0.007825722241325618 0.002335207989467884 -0.041045153663426884 -0.007692244710378868 0.006394118488771404 0.356252647187019 0.3049672711099362
1999000.0 0.9989082203578841 -0.013697187115789738 0.009925353476177163 -0.022403645929770847 -0.0006029917713698032 -0.0013934935076279713 0.27948736462227974 -0.05502511462280519
2998000.0 0.9959268566501353 -0.021953305900956482 0.014623614468653543 -0.014489797732273102 -0.0072624693542549 0.002300899075472113 0.1966787973789234 -0.136045561436529
3997000.0 0.995730400530446 -0.03179565689347623 0.01136723868579474 -0.007762929861835124 -0.006155489811725213 -0.005965317212374133 0.0749099730796242 -0.23722095102745452
4996000.0 0.9952160491138741 -0.04115939462056231 0.013031546207930409 -0.0028034065657115393 -0.0009831742767846697 -0.006431348095809224 -0.04425378122062801 -0.19771377969672926
5995000.0 0.9948993560457738 -0.05285247122315589 0.013027058771887087 0.004116148075118252 -0.0016841755276870254 -0.0015670349382321152 -0.12874081157401365 -0.08769443381124203
6994000.0 0.9916823011544886 -0.060473715748481226 0.005888644831869461 0.0028569878325777117 0.0016785496314332257 -0.00731746555795211 -0.1509198595391937 -0.026832292020624
7993000.0 0.9960585957900552 -0.07084174676017918 0.004751212743545241 0.0037908916448737093 0.0006245664541562577 5.8679283212549145e-06 -0.16373928880346705 0.046396966883028176
8992000.0 0.9926132469248328 -0.07094972644303248 0.001603901183327978 0.002182345241000862 -0.002833149205763817 0.0034623206433662167 -0.15436016678135311 0.06448772058247097
9991000.0 0.9890661385531841 -0.0891649964139153 0.002259050722544097 -0.0005327441817504854 -0.0003550117286915832 7.751271641365491e-05 -0.1340370481590186 0.09463918185707719
10990000.0 0.9898817471221204 -0.09317032842841277 -0.0041345795124547915 0.0027679640600428873 0.005344120849121616 0.002434094226048709 -0.11856049186652888 0.10393102813100014
11989000.0 0.9898035777100948 -0.10094228755727937 0.005169301910738788 -0.004423283152120415 -0.003488871668764717 -0.0004981721417611583 -0.12008256272642942 0.13470804540580766
12988000.0 0.9864038871991754 -0.11319215951361779 0.005404715526223603 -0.0017244461264700394 0.0037864978377152663 -0.0023083494741216316 -0.11376018913095902 0.17372029668662337
13987000.0 0.986787752955841 -0.12052842695962683 0.0003999589369957562 -0.003491153787637867 -0.0014569886330003162 0.002412841522315105 -0.09773331373798118 0.18686456345651345
14986000.0 0.9868384971221206 -0.12478860457491452 0.003670930534613118 -0.004813365689343065 -8.978351945817627e-05 0.000838322175173163 -0.08783843428480416 0.2120360398305065
15985000.0 0.9869112832407491 -0.1353622605532949 0.00011032731572147914 -0.0017643766410862657 0.0011893233291283898 4.676985344175949e-05 -0.06353311509892849 0.21907810554792168
16984000.0 0.9850142420964368 -0.14779801626605824 -0.0010942852320286734 -0.008426506837982389 -0.006080542083019363 -0.0019328584728144362 -0.05921638895108364 0.22273715157690685
17983000.0 0.9840205338008595 -0.15298021034850057 -0.002946793869945044 -0.0006373946229419488 -0.0017049893980212402 -0.00017497859743456862 -0.05838344478231598 0.2283826345748736
18982000.0 0.9802902455134576 -0.1639256033576358 -0.0015773741985646475 -0.004443042017323552 0.0022048281681285825 0.00455783240445793 -0.02285397408685799 0.24237642547996954
19981000.0 0.9816211036843578 -0.1676432962080592 -0.001309703868632735 -0.003680107239400565 0.002280801323488265 0.0008886822856899854 -0.01351967342576691 0.2410416591605696
20980000.0 0.9792330905755484 -0.1782200541966582 -0.0041785175164175264 -0.007043956680892629 0.0012368195050190692 -0.0010528119435608547 0.0003307937268672814 0.2605336187745456
21979000.0 0.9758877307846465 -0.1857997784524872 -0.007970401682921922 -0.0034562218669922525 0.0011087337626271344 0.00013622644314037333 0.019859593927945122 0.23898430581855606
22978000.0 0.9761188367716794 -0.1956761395559085 -0.007915080769132004 0.0004061695795264856 -0.0019974253997245184 -0.0025795767426915884 0.017369802729601605 0.2606678264019837
23977000.0 0.976630499304441 -0.20283624646832332 -0.005900982031482184 -0.0010231893776131557 5.014579648367934e-05 -7.189516695819972e-05 0.03607969733110398 0.24724539575785012
24976000.0 0.9714062865428204 -0.21622627575086212 -0.008015464417063602 -0.0015937626555379114 -0.0010644048392748847 -0.0020750466440849487 0.06401780656904457 0.25235767256980396
25975000.0 0.9668816472002194 -0.22890981058353635 -0.0012778146348668212 0.0007810081524729256 0.023588030792394115 -0.01288251031853136 0.08265892594360473 0.2671176462131614
26974000.0 0.9669083447556197 -0.23110557797670644 -0.0031885558889288767 -0.00041958521485627035 -0.0006134363264009226 -0.0009379891298249361 0.09946251474062223 0.25305715456685174
27973000.0 0.9685957030204719 -0.23655653401095858 -0.005140495363324689 -0.0005419052037518954 0.0021869021853025737 -5.687789970479467e-05 0.0928928701453536 0.25985961323244994
28972000.0 0.9636059010413777 -0.24770820629772175 -6.798735746591754e-05 -0.0014918748659404387 -0.0022829697612727594 0.002964878029803958 0.11717054996692963 0.2645847309850802
29971000.0 0.9618561073543919 -0.2574695810422204 -0.0005528321887501097 -0.0034312028651651834 0.0003777075729357247 -0.0004465344393829038 0.1637798196052365 0.26165448277848435
30970000.0 0.9603108621592257 -0.2626013613007454 -0.000249834417263178 -0.0005247372460420245 0.0025952116700215582 -0.001414590328499356 0.16637023293950115 0.2543960502064765
31969000.0 0.9592990948928862 -0.26963271719635423 0.006948420552536928 -0.006848844473163513 -0.0013107304774442221 0.002051276001687448 0.15572748506283723 0.24516870175657374
32968000.0 0.9576334633347909 -0.2801222196388812 0.007850416661057492 -0.010544502959774391 0.005740038738077534 0.001944773279940173 0.16168990309937942 0.2510709519313481
33967000.0 0.9548361947419217 -0.29003747571609934 0.012484074580321712 -0.00950091623395161 -0.004017170038233741 -0.0005200513642344588 0.19668366002930665 0.25293419765321595
34966000.0 0.9514392850011857 -0.29712946328735673 0.015025765635578047 -0.010541362450588721 -0.0008155946809770766 -0.0018294527491471049 0.1895757284852726 0.2470868833715748
35965000.0 0.9470519809230118 -0.3077538689111792 0.017219089976747804 -0.016375350337097014 -0.0035810582586485425 -0.0013356958325401284 0.21694976821636036 0.2514188534395691
36964000.0 0.9445871868815232 -0.31646476126774437 0.016872520004449384 -0.01599257507437296 -0.002594505890192446 0.00351859696205131 0.21964974929258407 0.2552868790590401
37963000.0 0.9415109637232132 -0.32656292806898074 0.023132224532995276 -0.022094492896762567 -0.00408317087429003 0.004314602372716355 0.23638514735189092 0.23947614281891383
38962000.0 0.9411859844940345 -0.33274518072692655 0.025199955020726042 -0.02517985103914208 -0.000554196298342589 0.0023753823588128654 0.24624552711756756 0.23607043514932424
39961000.0 0.9363330030298311 -0.3431156328952943 0.028133954616718464 -0.028454817923761623 0.0006068886627525761 0.003457800007815864 0.2564872326514725 0.23302401544001733
40960000.0 0.9328417504308876 -0.34995121616167796 0.022149062726020637 -0.02295876702283472 -0.001741526994235561 -0.0014705447799876247 0.26458779467934707 0.22753610455644102
41959000.0 0.9297054229370268 -0.3602125021088025 0.029728614228167357 -0.0352547673497189 -0.0006907470012191903 -0.001789028979951889 0.274498701286932 0.21132153350235666
42958000.0 0.9256960567125118 -0.3680541101304348 0.03286486565812183 -0.03896208353686446 0.002079082297634584 0.0017670363478328622 0.2859802916670297 0.2011531342187852
43957000.0 0.9239715675962086 -0.37305823677651845 0.03209688999316992 -0.04965672638843955 -0.0016156895301830104 -0.0012856342037130945 0.2840748708517373 0.2089246048520105
44956000.0 0.9198597854685714 -0.380432636269174 0.03355669387730608 -0.05014641147434948 0.003463752948841999 0.0002862108055338845 0.3064831079818514 0.20022801139646967
45955000.0 0.9146512773872074 -0.39406206107534597 0.03461599861149087 -0.0592116104433857 0.0015117293733478239 -0.0031654482765411593 0.3083962187351011 0.19923998152703104
46954000.0 0.912326794679092 -0.40092841072637175 0.0370763257552318 -0.06679565118585143 -0.002781928107701801 0.004388860081886717 0.3388921909818729 0.17849159137759343
47953000.0 0.9096077695411771 -0.40807649148943254 0.036193965799824875 -0.07267703189351576 -0.0020302089660625268 0.001458095545812868 0.3422166813009352 0.17428947003297185
48952000.0 0.9036167464674417 -0.41936707122590716 0.04072054035270284 -0.08317165834293495 -0.000884341202160935 -0.00036856818101614836 0.33208713479216007 0.16784380551731343
49951000.0 0.8997933712741588 -0.4277409548816712 0.04083982761893241 -0.09126425562155145 -0.0006148852484355607 -0.0013499272078513489 0.3539749384066148 0.15049327256071365
50950000.0 0.8971035759152738 -0.4358536825186047 0.04100470293882971 -0.09940778974501108 -0.00046669922357208456 -0.0010215188397431608 0.3533042355916389 0.14452622361705736
51949000.0 0.8927596574556975 -0.4429539600540733 0.04007958025793033 -0.10689288463147639 4.2114163113415655e-05 0.0010989957348480732 0.36309274006769565 0.14169148757470512
52948000.0 0.890528988270379 -0.45128172541676814 0.04335629543549419 -0.11655071484409756 0.0019970557594004264 0.0010605264717085498 0.36932410490878426 0.13841791312299617
53947000.0 0.8836839452688628 -0.4598791993709404 0.04447631373624205 -0.1216629968595438 -0.0009965279050969606 0.002402938356448634 0.36956540931485354 0.12195445649071113
54946000.0 0.8793608512708555 -0.46844178543464327 0.04259916511065662 -0.13759940695135647 -0.001260380610846271 0.0016657891182868198 0.38831915636790343 0.11946499670916073
55945000.0 0.8750197933367139 -0.47808501950905596 0.04604818175244508 -0.14447312632823375 0.0021766038792618092 0.0022401535885921845 0.3847778362214462 0.10757062020362218
56944000.0 0.8698410810035556 -0.48661566954688773 0.04711954541105949 -0.1558917062367819 -0.0057863950094173295 -0.002408404040996905 0.3932202710206348 0.10788739840550657
57943000.0 0.8670184879367481 -0.49582715099203173 0.050485080407347824 -0.16662317715511135 -0.005516914947076752 -0.000814358110986881 0.3948820398899553 0.08759064033649801
58942000.0 0.8595484415826008 -0.49823743351832 0.0519193125366989 -0.17549680216290717 -0.00035641261755424745 0.003324674992822175 0.42454996566517045 0.08374644983127716
59941000.0 0.8564932378427605 -0.5098597231500291 0.05210174055193022 -0.18838302718628702 0.006549684588016102 -0.0011653619826064124 0.41540511776229605 0.08675426080684996
60940000.0 0.8485174306944606 -0.5160577474446741 0.05141947718584303 -0.1902545889532617 0.0005683151481868511 -0.0008610030887048882 0.4103916372467343 0.08560957782885568
61939000.0 0.8461696361990781 -0.5243462941031621 0.052997239489690054 -0.19992674690374082 -0.000809476595840161 -0.0010312518396395833 0.4188254448142135 0.0653046246449376
62938000.0 0.8404502135146084 -0.5343898956644383 0.057791215768292915 -0.21673914016123763 0.0014183001809175795 0.0007474980402851644 0.44046589014557064 0.056915771929054455
63937000.0 0.8357403763399215 -0.5412933192412467 0.05560632291030415 -0.23831474696183824 0.0008182913843611153 -0.0002805893678195408 0.43507434365403114 0.03640880519632628
64936000.0 0.8291974267458957 -0.5469499701718474 0.05598504743019895 -0.25238012975836344 0.00022725886233153798 -0.0028421209855034 0.430268978100443 0.033210188397487204
65935000.0 0.8248051583120019 -0.5602146999927023 0.053226118632348565 -0.26697046975337024 -0.00015352434254465436 0.0021150550954092064 0.4456801457670968 0.012570146300633613
66934000.0 0.8203417035458496 -0.5640144874633038 0.05561512089346446 -0.2809531261320389 0.0016441888792761805 -0.003481415747905518 0.4327889519344075 0.009708503559103692
67933000.0 0.8172816712796868 -0.572789195424706 0.058070886095981974 -0.2943772797867857 0.002002792662271542 -0.0022171980516298645 0.4435589803854189 0.003853663769398608
68932000.0 0.8140869744620256 -0.5707426848898417 0.05424729232229823 -0.3083924375677023 0.0007572617919309215 0.0018597004712817518 0.4567082194210984 -0.015744259581506267
69931000.0 0.8004913988640786 -0.5901193789782119 0.053416559687315804 -0.3264438410559027 -0.00339303348329165 -0.0009843047032223966 0.4455648365498615 -0.015296446698013697
70930000.0 0.7966237878265543 -0.5954926673619692 0.04805907723433779 -0.3387230092009457 0.0009408388302470449 -0.002236759872650476 0.43943258473616514 -0.03444874673109342
71929000.0 0.792963898390209 -0.6014666846491186 0.045755905696272865 -0.3621737552616475 0.006695354392378928 -0.002646879946172891 0.4541671383784851 -0.05588864627147394
72928000.0 0.7862996804750328 -0.6138733948876276 0.037969664322499624 -0.37613079429621593 0.0019344246590408682 0.0007436677624689812 0.46042631025231606 -0.05063813184595165
73927000.0 0.7805361122657857 -0.6197898290146531 0.029245682897354578 -0.4013041417965528 0.0007256395415425771 -0.00107387706470102 0.4589606542972687 -0.06454867206831662
74926000.0 0.7717954615224678 -0.6296535834046534 0.022910394842897433 -0.41733452282587713 0.002880550086288984 0.002578595792767941 0.4579424638872804 -0.0708765287866645
75925000.0 0.7684112087495973 -0.6332173997909272 0.013896067732683828 -0.43570140390341716 -0.004514373183791348 -0.0008531392099713654 0.46039279142103406 -0.06907780257469305
76924000.0 0.7622749480781259 -0.6407526999876709 0.00024040263045693925 -0.46166867237400383 1.6017009572357714e-05 0.002901721836412539 0.4672476269505244 -0.09651773468696588
77923000.0 0.7548782382793696 -0.6481923164588079 -0.014739289846894257 -0.4834351258371895 -0.0026620264938516866 0.00044163349569036953 0.46560172223231977 -0.0978132877440368
78922000.0 0.7490922537203482 -0.6577384890981899 -0.026304104108012687 -0.5115114008700831 0.0021367136724965564 -0.0003540027132188095 0.4588909111943571 -0.10311346904848383
79921000.0 0.7413971283844376 -0.6630527397313954 -0.050195714253261234 -0.5406601628177953 0.0006176307215061426 0.0021318740500207325 0.45970870074129805 -0.11589204697798572
80920000.0 0.7360661324885863 -0.6723881111614742 -0.061793146212099706 -0.5703602730303102 0.004368269224607515 -0.0030200898791007628 0.46864375988923046 -0.12858844598907504
81919000.0 0.7282088630770732 -0.6814679743979144 -0.07907014587557246 -0.5991948427316574 0.00316377431827148 -0.0030896513080841065 0.45986031197831845 -0.1401808348819611
82918000.0 0.7193680475435392 -0.6869638120697452 -0.0912752198898107 -0.6320631524009818 0.004980778674824315 0.00239742022232552 0.4762233427764869 -0.1470710898130174
83917000.0 0.71093057768494 -0.6933211542925528 -0.11504501778541894 -0.6575875752078598 0.0009289299438299941 -0.0014671950718691104 0.47343084386196016 -0.15439227590184787
84916000.0 0.7055881022150051 -0.7016867916938634 -0.13222608254372514 -0.69420847386296 0.004748509774480461 -0.0010634455887178836 0.46440918147020144 -0.176260532077313
85915000.0 0.7000696952985811 -0.7073481382753134 -0.15264618649073192 -0.7251601530936712 -0.0001948176399050448 -0.0004339507904438339 0.4535909401950452 -0.17132280236435235
86914000.0 0.6901727589641644 -0.7170794821020843 -0.16477898452611392 -0.7639517753095039 0.0029369817150654617 0.001246171703717887 0.4620469662961927 -0.17254934763563992
87913000.0 0.6863123625965563 -0.7221663459530173 -0.18792810304834773 -0.7913388872819593 -0.0025540125568516126 0.0016833089058293166 0.45956497740104985 -0.18557853385661965
88912000.0 0.6794152498176872 -0.728597448145524 -0.20075498673271647 -0.8322109602822754 -0.0019662466198033866 -0.0016794148200524365 0.471720588291134 -0.21006156894412278
89911000.0 0.6688375801630956 -0.73867816371785 -0.2184363174127358 -0.8654290330669306 -0.003134257180371562 -0.003458690272023401 0.4707783102937991 -0.21472851103175714
90910000.0 0.6629455146638408 -0.7422352046535486 -0.2364305000449719 -0.8997909233935873 0.0009258313973924512 0.003266871619776685 0.45798293275625407 -0.22140179839599425
91909000.0 0.6532420362217604 -0.7483745908740141 -0.25347460840811753 -0.9321089724712188 0.0017095714229679075 -0.002297185623120492 0.47637453405818064 -0.2267084565269925
92908000.0 0.6450438714747663 -0.7582551220834881 -0.2748976436178567 -0.9619576261859719 -0.0024635660914132424 0.001362104027098841 0.45236028080083474 -0.2350492720745799
93907000.0 0.6410029810332433 -0.7622279681430586 -0.2920269782924612 -0.9977873032782961 0.004809709609493703 -0.0007605814917179725 0.4603905662365253 -0.2582642469359853
94906000.0 0.6249722117864638 -0.7718130845488015 -0.3105550833309447 -1.0318160323014516 0.00041733120109921183 -0.002299496390948481 0.46497692955942566 -0.2519690327867472
95905000.0 0.6192270614408043 -0.7768427195754534 -0.3345586176775232 -1.065592030066716 -0.0015107072048725306 0.00023010485478413073 0.45640655716611545 -0.28192495793876315
96904000.0 0.6120058233267358 -0.7852210929408125 -0.35599707219303883 -1.1073364145619813 -0.0020432281785430786 -0.0011307729435247082 0.4476175948471926 -0.28872760069001807
97903000.0 0.6029772504084384 -0.7920334629792352 -0.3806165885832382 -1.1398895960536082 0.0002914099226094284 0.003689226695573175 0.44818617328714605 -0.2934506807884832
98902000.0 0.595778668367051 -0.7975563603682084 -0.4010136919795533 -1.1785002360058856 -0.0010227701805525403 -0.0003831590172781064 0.4533645641119995 -0.29723174411145376
99901000.0 0.5859055415034629 -0.8030655428223366 -0.4290765963352997 -1.2119799273310239 0.0010329085240535854 0.0010943453626613693 0.4604525594127761 -0.31391788417868755
100900000.0 0.5766206692441396 -0.8073529841559023 -0.46530426235410594 -1.2404411725285893 0.00012470681151872527 0.002472628232915299 0.4597942385924701 -0.31232055036800044
101899000.0 0.5687758021931023 -0.8142180638438287 -0.49019464958404546 -1.2849432952625477 -0.0005686614200113889 -0.00038264580488440054 0.4452042772332266 -0.32455735892633875
102898000.0 0.5581335952270049 -0.8190749073949085 -0.529156469937863 -1.3231353554900946 -0.0005161159050153886 0.0021466108722940787 0.4492365723751938 -0.34314039248183426
103897000.0 0.5508123614579551 -0.8265888124679109 -0.5691183784589793 -1.3554751376138268 0.0041297244123651876 0.0013088287163609332 0.4580032950567739 -0.33946619429648334
104896000.0 0.5438825348653512 -0.8386534549326318 -0.6205078755307725 -1.3866466381916795 0.0004780956418405255 0.0023588677601718362 0.436572687874956 -0.3410358224331225
105895000.0 0.5317179775761045 -0.8389205167191807 -0.6689454347396123 -1.4322036759221892 -0.002389489304875015 -0.0015971337143733202 0.4353866195061308 -0.3670508427779777
106894000.0 0.522024375597196 -0.8450786635144434 -0.7218848093724075 -1.4699360322807802 4.1953983690993824e-05 0.002684776401016192 0.4359846480519346 -0.3722891170421594
107893000.0 0.5128646499172838 -0.8533648704383265 -0.7800899577095918 -1.5073975571482947 -0.002581898745326028 -0.00031558847307098956 0.4313633868048982 -0.3788732929888404
108892000.0 0.5048435173203487 -0.8537027763739664 -0.8419145027209292 -1.5456900349384965 -0.0017702375513355376 0.0003099918094572176 0.41922932894994036 -0.37483940353861245
109891000.0 0.4894829546681537 -0.862919664926773 -0.8981836457039858 -1.579180618893829 0.0015072882864572412 -0.0022526972298133616 0.43696251232323396 -0.3822350440686562
110890000.0 0.48363415482800987 -0.865348227132174 -0.9647192116535657 -1.591721568606307 -0.0015031074455972143 0.00046968969705031544 0.42681169472922137 -0.3870867305338301
111889000.0 0.4705382589686162 -0.8703209173533539 -1.0361230081648378 -1.6499349893106237 -0.0021017745919560222 -0.001127195969772824 0.42116522911199644 -0.40198343563515093
