! Created with skrf 1.9.0 (http://scikit-rf.org).
# Hz S RI R 50.0 
!freq ReS11 ImS11 ReS21 ImS21 ReS12 ImS12 ReS22 ImS22
1000000.0 0.9735159963965523 -0.0031001083575003642 -0.024207989375103753 -0.03575073955283812 -0.0069783665604286746 0.01646354621337368 0.38086233285536225 0.33836505445446236
1999000.0 0.9893439786888872 -0.010881329141364183 0.0016194225316991857 -0.021352311848608453 -0.011421050274952878 0.0015693517666217464 0.2575692892127188 -0.06892793419517801
2998000.0 1.0007503925732666 -0.018439402757760914 0.013785286800765484 -0.016621850186746386 0.00014854326721637552 -0.0058068044627824075 0.19241624139654878 -0.1483014417826916
3997000.0 0.9960567576641046 -0.02552685111644094 0.017467256754008485 -0.0082112027680447 -0.006865655320573498 -0.0010259682398012205 0.08434393886665338 -0.21562640817186154
4996000.0 0.9980491965630268 -0.03830763252586452 0.012670280990264448 -0.00011191882166734902 -0.004528280376192563 0.0003576928917176494 -0.03901932200230202 -0.1947388596010839
5995000.0 0.9980576278363893 -0.0466880256597912 0.013730659312050045 -0.0005135913284143318 -0.003180341811397682 -0.0023875296365020713 -0.1247109717150577 -0.09693992136440009
6994000.0 0.9934886194255067 -0.05869887012541791 0.007539036988223387 0.005423927918160386 -0.0022069005729337993 -0.001351593738252907 -0.1506836486356647 -0.023839258746939856
7993000.0 0.9963347259419087 -0.06701305594637298 0.006164343349916668 0.010098399478369735 -0.0014901197977883654 -0.004029461703756367 -0.1606701228336957 0.04744929653477631
8992000.0 0.9947780096943772 -0.0704207485612978 0.0029185561148775364 0.0039544087675417346 0.004923685713657101 -0.0008231920312812587 -0.14056221595664548 0.06285118642887622
9991000.0 0.9947793580403217 -0.08034546033800179 0.003524994689716812 0.00549631508379644 0.0023592481081722316 -0.0005095978714336899 -0.1415402845140446 0.09785729575035937
10990000.0 0.9936922006542022 -0.09068839397061175 0.0022370473981976353 0.003113135906159124 -0.001717719529466146 0.003710076945171165 -0.1455644388617685 0.12791344853399295
11989000.0 0.9914831435059227 -0.09993942531660803 0.0027315038064246017 -0.0014240347987278647 -0.000899698656246424 -0.000555684196066776 -0.12875728750141768 0.13052295818467055
12988000.0 0.9903509846245395 -0.10832308385199037 -0.0014885226607180124 -0.006641198078135373 -0.0020048522208611836 0.002448571611676485 -0.10581297944987973 0.1721535289906638
13987000.0 0.9886858087834269 -0.11696228843204537 -0.00048118754445161536 -0.004958193175471245 -0.0027386884206201914 -0.0015241791701964972 -0.10361917660405222 0.18150570865099047
14986000.0 0.987704425049773 -0.12382771792332048 0.0011323196101687292 -0.0019271844798117636 -0.0021365611736365443 -0.004116470475420519 -0.08664021642294391 0.1989116483715206
15985000.0 0.9903451427252511 -0.13431704884526796 -0.0019085436968367762 -0.007690298954232183 0.0020939201777177715 0.0032684287433331592 -0.05406458753435274 0.20758152080074543
16984000.0 0.9858206477301835 -0.14452293774291108 0.0019073444697684534 -0.004325229884600782 -2.5693870672829616e-06 0.0013812238127957751 -0.06099200538264217 0.2233224657720171
17983000.0 0.9859805874838696 -0.1474812395017185 0.0019449541027438165 -0.004122842407395655 0.0037244560374021587 -0.004156556870867835 -0.057336709977415794 0.227311548056969
18982000.0 0.9812376215764664 -0.15933796032320524 0.00012841015674068767 -0.0031167692751540646 -0.000691565801495113 -0.0011902934504580886 -0.018645605168564228 0.23694353122081221
19981000.0 0.9839486563934069 -0.16527339691132728 -0.005578694291092448 -0.002307397655657239 0.0025656586853470336 0.0041028211034851774 -0.012550842044444796 0.23759606856880502
20980000.0 0.9824378785898267 -0.1747855934163937 -0.005371175655390746 2.2266164438260175e-05 -0.00010387352662979305 -0.005643565480797533 0.0002938490732139342 0.26533002516641624
21979000.0 0.979913081428664 -0.18463384838371438 -0.004408589783284903 -0.006827199930719473 -0.000711551662413359 -0.004548785798072029 0.02339355778182206 0.2440624543397623
22978000.0 0.9767702558908117 -0.19068824137843005 -0.004957971094393564 -0.002437247564704472 -0.001268108375711434 -5.579900303638285e-06 0.03074174212665277 0.2524426485684786
23977000.0 0.9778993137390194 -0.19948660575024763 -0.005072381376949505 -0.0017945190104247547 0.0028753423547737355 0.0013933477209025138 0.04512252360599423 0.25497669177224114
24976000.0 0.9751355729795116 -0.20989875308567132 -0.005726274228261842 -0.003049312220475996 0.0022210302486033438 0.0018892511130045606 0.06416520654655361 0.2547754376972751
25975000.0 0.976007961821911 -0.21886129004060806 -0.00696149374442534 -0.0025219926758075356 0.019946900501808834 0.01446396101975315 0.0837808823268866 0.2730433711760247
26974000.0 0.9714243021076302 -0.22597080912078812 -0.006375231861234833 0.0033021934171844403 0.0017422416190911755 1.4361236247590474e-05 0.09683570054441622 0.25778287045898174
27973000.0 0.9713283723042162 -0.2310180028414276 -0.0008067749503512144 -0.004203047436544321 0.0005903567246507663 0.000944772837753933 0.10131059753135305 0.24287619408422925
28972000.0 0.96564441480706 -0.24312689704952603 -0.0003345451321336358 -0.0029141400111164337 -0.004299221821688135 0.0012036984768705804 0.12551308051722956 0.2537654790373889
29971000.0 0.9665874645168381 -0.2496290489184109 0.001478457376912845 -0.0026069324987141474 0.000736609927790426 -0.0004674524241851606 0.1569325501372701 0.26131715866244454
30970000.0 0.9641445291007507 -0.256259502423016 0.0012206814773646835 -0.0018948105601665761 0.0008638242458869921 0.002002228077206433 0.17238976586601518 0.2528942401769176
31969000.0 0.9619819830623565 -0.2646666370992308 0.006005411605028675 -0.004568397672563862 -0.003319917691557873 0.0002500558714708464 0.15265195036899196 0.2415363497002942
32968000.0 0.9594521855349867 -0.2735715709720901 0.009218949981531908 -0.006788819571192978 0.0005449486432802027 -0.003932142907905441 0.16766843941221507 0.24388495877579733
33967000.0 0.957221604737943 -0.28483778306242524 0.008958043834265303 -0.009946884220748797 -0.001689351047418038 0.0036859429872812166 0.19524918117151616 0.24582833142632776
34966000.0 0.9537634182461298 -0.2940632538085268 0.014854816531258006 -0.014702758391290522 -0.002311618307275402 -0.0010613823364340512 0.2014608888199834 0.2381317065425398
35965000.0 0.9505288010969534 -0.2989254103119848 0.01860538878889981 -0.01722187235070221 0.001054867154594832 0.0013099684576954528 0.21332453424856337 0.2479129223974287
36964000.0 0.950594216891161 -0.30948842835569834 0.01822821777342773 -0.012513752098171573 -2.7181739528386435e-05 -0.0005052198617469635 0.21470792058932586 0.2461416908230049
37963000.0 0.9463556024125278 -0.3175961229902242 0.022632512963517475 -0.020121993555714444 0.0006017736293946309 -0.0019776353392142888 0.2400705649831095 0.22620049833873174
38962000.0 0.9452626677180153 -0.3252430194617884 0.02273699029330808 -0.025840105815611785 -0.0007162464847251591 0.0013028289051993176 0.24418706516807173 0.22316368506010087
39961000.0 0.9403215556748059 -0.3360733759899955 0.0284525725315046 -0.02918959997875048 -0.0007999940971456987 -0.0011742893145869286 0.25222718146174705 0.22499794271251225
40960000.0 0.9366302718112468 -0.3419263740643443 0.025759962959830997 -0.024664591655004856 0.0005857047733265941 0.0016577907334457034 0.2769328921313334 0.22262567153132914
41959000.0 0.9345795832125099 -0.35113875532662503 0.03226095663175286 -0.03005936795782908 0.0017826192075726978 0.0009219936228271253 0.2806869123102986 0.21003625782876337
42958000.0 0.9287935984878801 -0.362153429332009 0.035983921415147634 -0.03739593271585133 -0.0017680718009117102 -0.000409512584882104 0.2889172259223392 0.19808683668113844
43957000.0 0.9295846854309677 -0.36426328202580166 0.03412239361766979 -0.04689937817936191 -0.0017539507298495946 -0.003921364054734026 0.29367260492655445 0.19678818615875265
44956000.0 0.9244813253308718 -0.3734092140741505 0.03742310615931158 -0.05181938032308854 -0.0015245940715116117 -0.0008167014856945265 0.3112249319203547 0.20118097958099962
45955000.0 0.9210134640118527 -0.383585462197002 0.036640932913109776 -0.05762256439960815 -0.000521035952030904 -0.00020112318729885334 0.30850151224245603 0.18975842771565576
46954000.0 0.9180164567807602 -0.39230558757771833 0.03906482366260374 -0.06466306784757181 -0.001894678506254074 -0.0005635737940712215 0.33084597343509736 0.17861705506972972
47953000.0 0.9138303123830235 -0.40091722336156327 0.04222322940061534 -0.07379604871775326 -0.0007259932043971569 -0.003403172706296016 0.3438136358165388 0.16814377607158837
48952000.0 0.9098091649830301 -0.4100044308124991 0.043280442224750325 -0.08232383687407949 0.0009028132545521225 0.0006591315137944813 0.33504766840838524 0.1572554714059411
49951000.0 0.9059978898801939 -0.41730289620686317 0.04274837336206594 -0.08982183365550613 0.00021445144579852887 0.0028451142605165998 0.36233633718741637 0.14587645956290177
50950000.0 0.9030034204216344 -0.4249755948649629 0.04402325908447758 -0.0961587708360551 0.002231593317989968 0.0006095258814673286 0.3668028309989918 0.142470644976869
51949000.0 0.8992395854601153 -0.4340016787888267 0.04564862366930141 -0.10211054514274466 -0.0007284137611070122 -0.0002794325068329321 0.36347748831772453 0.14094717725175787
52948000.0 0.897090785102529 -0.44060485265385824 0.04699282457818922 -0.11274883103719317 0.003956913607234836 -0.0021620926264570178 0.3793888884503872 0.13650437774804022
53947000.0 0.8889295153579546 -0.44914798801004535 0.04773968038578833 -0.11979209965645804 -0.0007953987631861936 0.0008619153390744786 0.38772110609116756 0.12433392413754826
54946000.0 0.885354418319231 -0.45770431558771224 0.04924525903260837 -0.13357691842399758 -0.0013383177744245136 0.002094584795409204 0.39321328891459867 0.11471904299620157
55945000.0 0.883515361848523 -0.46722910979055404 0.053807122126355716 -0.1444456403513773 -0.0014842250033171302 0.0036597702055358975 0.39381085238557545 0.10384857614737189
56944000.0 0.8785151807953913 -0.47207404917453466 0.053376558928861 -0.15644358799427938 -0.0016114724511133338 -0.0006010757014376676 0.40193298892588264 0.0987147647355566
57943000.0 0.8733546278815012 -0.48458253270001844 0.054066928539487615 -0.16519697569567046 0.00025019750005699225 0.003004904048586948 0.409373572197921 0.08694465342247096
58942000.0 0.866273027192127 -0.48936395993103976 0.057813644547363145 -0.17807888995487686 -0.002038015393541352 0.0018697344113505767 0.42579059532951935 0.08386729457263706
59941000.0 0.8668502280216877 -0.49601850411930015 0.05956596100743843 -0.18863711807144512 -0.0013981123716429917 -0.0007350057798104779 0.42086679389230414 0.0854181645099729
60940000.0 0.8578081664303648 -0.5037079119106384 0.05741956408267007 -0.19201644982343608 -0.0010326777503127948 0.001210064723213145 0.4215623342418897 0.06489500901779177
61939000.0 0.8558139513938905 -0.5133896005263213 0.061752397646928914 -0.20063105792936342 -0.0015540759620005398 -0.0005119776347147373 0.4237808187847857 0.06349977447784119
62938000.0 0.8495284336299067 -0.5215418792410799 0.06527149592441658 -0.21623604477375843 -0.0013499233323539485 -0.0014828975028862955 0.44842191494448674 0.042949211654342165
63937000.0 0.8460072054545027 -0.5291856606306172 0.06378276103706039 -0.23819555302796744 -0.0013442426821707524 -0.0020015369109587715 0.4392945817934336 0.032344179125614894
64936000.0 0.8384311212153069 -0.5352224353506152 0.06513244719681167 -0.25340097501518133 -0.001634014174363765 -0.0034992615824168253 0.4394726325074417 0.038136044686610214
65935000.0 0.8353610306282946 -0.54600745049645 0.06225027214647476 -0.2706049432201486 9.495581257104821e-05 -0.0007262583062983734 0.43825024142344393 0.018680262672083083
66934000.0 0.8313360888900079 -0.5501828435975307 0.0651035243973181 -0.28273333569462195 -0.0007907525089556651 0.0012574060640148516 0.43107541079561773 0.008165350505607736
67933000.0 0.8267510114182056 -0.5594468680723611 0.06525387396545751 -0.2986886125551829 -0.0004421706438532645 -0.0007365685908959121 0.4535212343292205 0.0037783762054946785
68932000.0 0.8225755633647055 -0.5541698884974149 0.06201048772448502 -0.31166671287773334 -0.004910162169136692 -0.0006638120196289413 0.45176702010874986 -0.01924372784338755
69931000.0 0.8143679352106219 -0.5763328849326474 0.05798411010032061 -0.3327115800848595 0.00030125747108952403 -0.001966439600371378 0.45399582391692417 -0.03145585805352059
70930000.0 0.8088979867896835 -0.5818687216835059 0.05793317914130715 -0.3486898837429489 -0.0004687587380415447 -0.003361953064421587 0.4496269919312903 -0.037118001692297564
71929000.0 0.8061354676822167 -0.5895249646840868 0.05374588846246526 -0.3688944948665136 0.0004473326768776817 -0.0008214635608324008 0.45000617406461785 -0.048977562063917
72928000.0 0.7972698254296132 -0.5996661368923828 0.04510585001298817 -0.38602816825647035 -0.00028087949477044585 0.001444037397084473 0.4694538258072184 -0.050747347436647786
73927000.0 0.7906807550118101 -0.6047134389956569 0.037956085469952015 -0.40717061357323875 0.003126466682137237 -0.0012208406215332849 0.4611287972196174 -0.06204399941838832
74926000.0 0.7872767338403157 -0.6147137631041983 0.03546478632879686 -0.42689482437506227 -0.0015477851015301047 0.0023236442942028467 0.4642064800710752 -0.0676513391221675
75925000.0 0.7790230913770522 -0.6195092029068987 0.02292627217040362 -0.4480435852819159 0.0033334039821091943 -0.0025166130729531236 0.46684851933589855 -0.07116024178485586
76924000.0 0.7735372053170384 -0.6285324079729747 0.01567208893213342 -0.4740359299393911 0.0030963843040793027 -0.002234779117553082 0.4666897881969725 -0.08495004676081676
77923000.0 0.7684672509469522 -0.6360605298138172 0.00428488909228977 -0.4968399771201154 -0.001625908906650783 0.001946507250275132 0.45892757516862426 -0.10399313522943104
78922000.0 0.7624057901182006 -0.6443620208603563 -0.012610695227547555 -0.5274738935607788 0.0014523621050622538 0.004302670778514101 0.46504698020105073 -0.10627917596069107
79921000.0 0.753322151922501 -0.6496800826313305 -0.030280641486420512 -0.5509827553809473 -6.130797761109136e-05 -0.0008349234978932129 0.4713656782276686 -0.11677422625720951
80920000.0 0.7490437888870795 -0.6590220672630686 -0.041926244831393185 -0.5828284420680738 0.001068656091365126 -0.0022074978310198203 0.4675519035700725 -0.12343902785181685
81919000.0 0.7444434520840637 -0.6654823747404301 -0.06357520239739355 -0.6129090269698517 -0.0037591123711401163 1.6481643890481813e-05 0.46497980596869926 -0.14817134852025463
82918000.0 0.735690545458918 -0.6732292712051071 -0.0727490148631126 -0.6409419058420557 0.0018927014947445011 -0.003602155300954129 0.4743642066437553 -0.14996774088196657
83917000.0 0.7259798645893424 -0.6810330964203136 -0.094407639195655 -0.6746619634094565 -0.0036098229466490395 0.0016897231744419099 0.4789496478171757 -0.15768097365187522
84916000.0 0.7225401377101478 -0.686928364156555 -0.10772849704500616 -0.7137132674613973 -0.000177250915647654 -0.0009671350974931414 0.4578866624827532 -0.17349311858804434
85915000.0 0.7146204830079099 -0.6942313180940064 -0.12828563002266102 -0.7391391655254705 -0.0004971572081172618 0.0005926882566021108 0.46120626870639986 -0.18136213418439934
86914000.0 0.7082562095886452 -0.7047929822466489 -0.14648817345756712 -0.7809730393906474 0.0024936454857513424 2.2522454039261353e-05 0.47377315376532786 -0.17591433954130917
87913000.0 0.7003482349778652 -0.7101593322004498 -0.16580664482926602 -0.8092273474892342 0.0014838830839952223 -0.001756324186912208 0.4578772722823389 -0.1919664288574565
88912000.0 0.6952361913183214 -0.7162828136917668 -0.1817403564586239 -0.8435765472678175 0.00016620206083307778 0.001597837629934856 0.46308453027202096 -0.2170209595586143
89911000.0 0.6864185125424226 -0.7261681053757788 -0.20085469523829938 -0.8819977820526138 -0.0008422409057974306 0.002876056663516476 0.47119542009111587 -0.21352657245213488
90910000.0 0.679264421676513 -0.7299631520929479 -0.21720894393277848 -0.919886424570233 -0.006819501116774178 -0.00032543569340306175 0.46364073962239893 -0.21758342942971298
91909000.0 0.6707623604069525 -0.7358051952081431 -0.2367806194109328 -0.9558562500226564 0.0018582031781801314 0.0006854651014057965 0.46636560265324045 -0.22581295485175296
92908000.0 0.6615924218859407 -0.7443393021633986 -0.2604725210097382 -0.9871540181105638 -0.004642708651757584 -0.002471481012367943 0.455397165697985 -0.24222330681468696
93907000.0 0.6567398863988465 -0.7485576405500315 -0.279771209096195 -1.0249713868605568 -0.0004899716392210769 0.00109666242731481 0.4621617329259337 -0.2517064911119654
94906000.0 0.6460040194683627 -0.7578614621266337 -0.29744073278625677 -1.0587381863900889 0.001517589093814291 -0.00011258966293545413 0.46109060577558997 -0.2666570761230601
95905000.0 0.6370964759692779 -0.7654322806346278 -0.3311829755709012 -1.0933444205798117 0.0002745828394070208 -0.002719123871011245 0.45329593445233357 -0.2734887007428016
96904000.0 0.6295502916822164 -0.7733386798084241 -0.34676932486636197 -1.1380000630583142 0.001005450268536365 -0.0006763120957310694 0.4535384185269207 -0.2800310040693704
97903000.0 0.6199183179313821 -0.778626353303127 -0.3737015748912848 -1.1702483984948553 0.004518398993217699 -0.003301483022717108 0.4447026729005592 -0.28885360026161744
98902000.0 0.6165841800359451 -0.7863420147107754 -0.39591431912805763 -1.215098952537762 0.0028820924302224668 -0.003497502396804662 0.44412135145469833 -0.2969564211985529
99901000.0 0.6075308227431734 -0.7895371280357896 -0.42291754314112395 -1.2485851317905703 -0.0027199520692557486 -0.0008043304419207141 0.4582442765912112 -0.3275830063608269
100900000.0 0.5956125464643879 -0.7948295432092389 -0.4642503466808981 -1.2796960949313965 -0.0002564112074689009 -0.0036169116264091025 0.45386051232074176 -0.32347223926166185
101899000.0 0.5860611782200472 -0.8035381080996282 -0.4933418171414591 -1.3201193840950762 -0.00030138459614823204 -0.0010652226042947865 0.44175641252806613 -0.3308528955447316
102898000.0 0.5761307537771483 -0.8098798909376469 -0.5368472341380673 -1.3634727576355559 0.0020380270508362965 -0.0018347147292316342 0.4538619706796571 -0.34374424039360735
103897000.0 0.5689455822288454 -0.8167513453109706 -0.570004154439546 -1.3978100986724407 -0.0012481320372863649 0.0019327008893254508 0.45973420486753597 -0.3393347847477686
104896000.0 0.5623289140209041 -0.826963229718269 -0.6205198961527199 -1.4382795616873716 -0.0011383070461284236 -0.0031750693790426666 0.4349481788792503 -0.3432264535064623
105895000.0 0.5517445474927002 -0.8270560030143518 -0.6698760783570146 -1.4822211346317482 -0.0004956889563215354 -0.00134710941927739 0.4246361772643943 -0.3565109149525185
106894000.0 0.5411742959325849 -0.8353159767464471 -0.7311890144146906 -1.5236845102015946 0.0015355471415469345 -0.0031960949966149377 0.417767931662333 -0.3696670311233831
107893000.0 0.5332111227362023 -0.8418159155387824 -0.7790346626082608 -1.5632313244938618 0.0013648109925433814 -0.003728282857245779 0.4302220022148523 -0.38130299151756414
108892000.0 0.5246851716972982 -0.844534907339523 -0.8391710536826354 -1.6064627502591446 -0.0018719362763084386 -0.002693803526751811 0.41886362796516563 -0.382983392017016
109891000.0 0.512552967494342 -0.8532510537220238 -0.9003718162287223 -1.647109415989415 -0.001788580042029793 -0.0009699000411138791 0.44092310835381415 -0.37919394910337195
110890000.0 0.5045245810077945 -0.8675011700516082 -0.981944555022787 -1.6743718583878255 -0.0012342395241472237 -0.0008713601484884621 0.4115726238731215 -0.3974610765385638
111889000.0 0.49307355678975695 -0.8589943716781259 -1.034452050681742 -1.716504813083942 -0.0001418516046001344 -0.0011889107514836289 0.4159988810384316 -0.41586248701075795
