! Created with skrf 1.9.0 (http://scikit-rf.org).
# Hz S RI R 50.0 
!freq ReS11 ImS11 ReS21 ImS21 ReS12 ImS12 ReS22 ImS22
1000000.0 0.9800926319713268 -0.0033392577248693867 0.0001632826804141776 -0.05134094672205 -0.0071629602430686 -0.010827206896458505 0.27809998895896476 0.3011786950068409
1999000.0 0.9920999919953734 -0.01219502467320744 0.013609239256708148 -0.023948919938353668 -0.014102393152572772 -0.011512101419822039 0.2695865290337042 -0.07029835822094099
2998000.0 0.9996895422381599 -0.022347224998833407 0.012979853545743908 -0.010978318367629867 -0.01038380213910431 -0.0024356410954885664 0.20009777144740998 -0.14989448573840228
3997000.0 0.997470707438159 -0.026839246153135377 0.013437749512839232 -0.010514324931739033 -0.005444971915015173 -0.0018085426876067942 0.10453967168300243 -0.25068560546910157
4996000.0 0.9984877253872142 -0.03652411020075989 0.007929111819182742 -0.0038925659326203526 0.004069108199249368 0.0031382931386028244 -0.028593326878310885 -0.21154126465358966
5995000.0 0.994741914097209 -0.046720676180688134 0.006428132735130967 0.0006963179159742094 0.0018799647249138278 -0.007013313470798213 -0.12986550040873093 -0.11136467333759796
6994000.0 0.9951754418064709 -0.056894559503572494 0.008352792636778709 0.008149216162691684 -0.00025122385745025643 -0.0013760654780339537 -0.15017659626578944 -0.040363426524293984
7993000.0 0.9978575341859599 -0.06653435791683801 0.0055258155743585545 0.00516026647938616 0.005624958827423072 0.001408396570144665 -0.1609247936600076 0.038467393032723035
8992000.0 0.9944264256725575 -0.07158836389010194 -0.0029185559633487282 0.008264635936041077 -0.0017103390675301978 -0.00024399515939652142 -0.15796503885618687 0.050091202490790486
9991000.0 0.9916676098118262 -0.0806680986635326 0.0032480864691011497 0.002583377182922003 0.0041515359925482455 0.006681457925975172 -0.15350237488811863 0.09908662792076174
10990000.0 0.9929148409046651 -0.09198254725905144 0.0016351020607576674 -0.0005065517205873749 0.0015663704549232773 0.005734559507934628 -0.15006691609987974 0.102593718507868
11989000.0 0.9904835449965188 -0.09878857808536978 0.004654981464172217 0.0015532611823879103 -0.002184370479859844 0.0018948401837402741 -0.12903026953036942 0.13350847925476575
12988000.0 0.9893103783147288 -0.11192713208497851 0.00658328598676097 -0.0019060638336154023 0.005930011553259427 0.00018388282082065733 -0.12106414578941505 0.15819280912000794
13987000.0 0.9875878455326725 -0.11904348458077874 0.0004684972439049061 -0.0066891863592609315 -0.005204922010809825 -0.0024349078312304565 -0.103210641411021 0.18806145549932776
14986000.0 0.9866823323656226 -0.1274054543162692 -0.005096398241506418 -0.0029620214720981163 0.002456343145593894 -0.0019465393526188716 -0.09385950165279121 0.19681435974221925
15985000.0 0.9896528128191184 -0.1336115074093806 -0.0042121275947187235 -0.005196662769923507 0.004379692553793486 -0.0029921221158144416 -0.06756234893594629 0.21719657902761141
16984000.0 0.9870647910658595 -0.14573470680696116 -0.0013532463033296249 -0.007088518479867616 0.001777413351565528 -9.126138112427946e-06 -0.06408080283775866 0.22295262988004494
17983000.0 0.9851277500714197 -0.15245818723578738 -0.002448749929833886 -0.009197115267367183 0.003963751017379813 0.0013018880738068447 -0.056119287657949254 0.22734774771816926
18982000.0 0.9825694753466225 -0.16379102487640387 -0.0028274765560799857 -0.005394938900360045 0.00015304937580760847 -0.003085673015939199 -0.026445645267035252 0.2293248709356448
19981000.0 0.9822400751526841 -0.16817019878102513 -0.004870090050170908 -0.0052770955356357075 -0.001039107323993898 0.002699260373069304 -0.025078059577724843 0.2365213556747595
20980000.0 0.9799845388174911 -0.17866719012641696 -0.006047717321711305 -0.0038350392711904565 -0.0017664856782295128 0.003319495934296353 -0.0035664704144256583 0.2547548249944309
21979000.0 0.9783917506220079 -0.18485133253726557 -0.005981789243377746 -0.000527630786947931 0.005895771495970648 -0.0016279404879478933 0.005278807896545642 0.25485906661884994
22978000.0 0.9774240801642237 -0.1951339000458949 -0.009508046230028521 -0.002712169817939215 0.00539306100072998 0.0011161012576327237 0.019724625409572726 0.2549267920216744
23977000.0 0.9783669280011931 -0.20106100102582924 -0.00790559049382731 -0.0035175778840712633 -0.0028755525940582366 -0.0033668455312510174 0.030987014457684356 0.24445406339484166
24976000.0 0.9731018622344215 -0.2125497859747236 -0.002700960138244784 -0.0020646772654370747 0.000703848339479928 0.0016846697232550801 0.05634196310741248 0.26028497655303307
25975000.0 0.9757021047440032 -0.22080894428922526 -0.006329593974983625 -0.005425200319283242 -0.003179022881836593 0.02278895985087646 0.07378199760974793 0.2555292964770872
26974000.0 0.9698981810765666 -0.22971977035154775 -0.005908299082058515 0.0030460516034116225 0.004100234547788906 -0.001842349254815249 0.08497008568306554 0.26410836266468823
27973000.0 0.9692909743902275 -0.2347099125764468 -0.0020029966315365786 0.00032919654555010327 -0.0002985008071955461 0.0018120819964241705 0.10278168639379001 0.24988575334950291
28972000.0 0.9641756961316297 -0.2441632008597676 -0.0032634520535881287 -0.002661748670560657 0.0013542379483495706 -0.0033185889577725574 0.11740161768312272 0.2530298469220299
29971000.0 0.964382564088021 -0.25415974926808144 0.0011872983956301192 -0.0007789399975705092 0.0013522621598977928 -0.0022215913232204875 0.1381126433968992 0.27087701092916866
30970000.0 0.960862340472214 -0.2592303055803066 0.0025956998042423116 -0.003251997633433399 -0.000782569037271711 -0.00010736822277316244 0.15817562246481287 0.25151205139092037
31969000.0 0.9603686388070488 -0.2682344905281499 0.004322734849267652 -0.003699275143136418 -0.0016751644673507428 0.0017407940648524458 0.14031767548873006 0.25414983358334003
32968000.0 0.9588377037253815 -0.2768902484011269 0.009508893039625318 -0.004783364322123624 0.0018604657795810741 0.0011491558608856265 0.1534603296685837 0.2486183971109331
33967000.0 0.9554274344959186 -0.28819730736692745 0.012968361973559639 -0.009313678541029444 -0.001493155132467592 2.872077075738449e-05 0.17380530705501182 0.25061542962178734
34966000.0 0.9523153517087035 -0.2954736359642403 0.013816848332583575 -0.011197364740615643 -0.00036391210200113717 -0.0019850825756542504 0.18571619375240256 0.2534058238401795
35965000.0 0.9496094743410133 -0.3048565507690209 0.017208955911304193 -0.015927688097548503 0.0011248576621057647 0.002532974841269047 0.20067771015365254 0.2532218762913004
36964000.0 0.9478288232238631 -0.31461369567624825 0.015223690315654225 -0.013499692319940325 -0.0014908563555993152 -0.0032418880191902267 0.2035095722984436 0.24481418319800133
37963000.0 0.9434778661575429 -0.3259626482893547 0.02498861022057968 -0.021545124469446463 0.0016932304566713804 0.0002418769103685361 0.21847075402509694 0.2380900285621084
38962000.0 0.9410170779660568 -0.33297172119749757 0.02354632774135547 -0.022159177261502152 0.0032176176931973796 -0.000738058101687918 0.22923605355147403 0.2381248065871041
39961000.0 0.9385771219124541 -0.3405141505408173 0.025118011199508843 -0.028573159100830074 0.002615158032257027 -0.0020650206073842344 0.2432893594038251 0.22381677618283313
40960000.0 0.9341893147310095 -0.3456279256952581 0.025021055007276534 -0.025393827889919268 0.0013922530308665977 -0.0012391845520513772 0.26100490006212135 0.23835767963412055
41959000.0 0.9305979924527104 -0.3576737536652436 0.029862596923566683 -0.032643622741059024 -0.0007062139560815408 0.0013562559812349804 0.26281723413718505 0.2166319948033532
42958000.0 0.9279717069623166 -0.36531646005408047 0.03366841960309591 -0.0399931301689411 -0.0001515487641837203 0.0012515333967147968 0.2755948788536208 0.21263045436309944
43957000.0 0.9243547003976347 -0.37264189886511556 0.03269951210520019 -0.04751470403792773 -0.0016294034519401584 -0.0018354198990981588 0.2756573671532285 0.21181450528032814
44956000.0 0.9208490822232953 -0.38102662021768835 0.034131240484012206 -0.0514097289628386 -0.006162685434296882 0.0025877632133765732 0.2947319797655762 0.20314517365535414
45955000.0 0.9172365737732461 -0.39073104882734444 0.03609844526371504 -0.05805145431453521 -0.00018661053192532023 0.0009181216607266976 0.30399155013196677 0.20192908258436654
46954000.0 0.91381118008461 -0.39914911649328816 0.03427591043819837 -0.06432433367243383 0.002323484776467709 -0.003722477432842649 0.3162052481541134 0.18273024849158276
47953000.0 0.9114483596860404 -0.40633817105906533 0.03486888729951963 -0.07337358375664499 -0.0015357399238914264 0.0006212628843814474 0.32331503279762325 0.17369026401059962
48952000.0 0.9055423526838756 -0.41609560523965095 0.03641605150051844 -0.07915383956013497 0.0011001701847803509 -0.0003073325257459232 0.325431651994933 0.17317291742604787
49951000.0 0.9023302115672753 -0.42515848255321925 0.034872658018440375 -0.08442410144134735 0.0010380540159204861 0.0012980265975824034 0.34820414693057783 0.15465685536163148
50950000.0 0.8981354775898358 -0.43382201720806846 0.038177737177300795 -0.09347629313933531 0.000971376314230756 0.0029227934422657157 0.3539990723202769 0.1529704137452186
51949000.0 0.8949616445425385 -0.4401887356745002 0.03924338672076782 -0.10262904527493308 -0.0024430384628078036 -0.00044234554656590004 0.35061397309474945 0.15405180257210335
52948000.0 0.8920792743760109 -0.4503905279130211 0.04032533640958344 -0.11064246598058054 0.002279550294127243 0.0001965456414290583 0.3647559420531712 0.14245214689468036
53947000.0 0.8854573363176087 -0.45664825954045335 0.03974070449513341 -0.11987285012658405 -0.00045423620689858757 0.004936616687423015 0.36768955696317174 0.14027852980847239
54946000.0 0.8797825518881894 -0.46590891303569776 0.041724459472060986 -0.13017671067535214 0.004706358854268695 0.0011810438731574109 0.37475686100660294 0.12048908485617146
55945000.0 0.8785453746500591 -0.4740670078860026 0.04584458610154074 -0.13889371820362653 -0.002437043613340852 0.0004909042730141633 0.3720124277047857 0.11451221610462166
56944000.0 0.872980891360274 -0.48315878772596244 0.048505079746154325 -0.14883145653466276 -0.00273515694335544 0.0012006003844804178 0.3933163286193139 0.11351309293131723
57943000.0 0.8694298738585772 -0.49148659757846747 0.048192013993975574 -0.16084746434508834 0.0012785493980588163 0.0012308410584732042 0.4001679013508414 0.10493284807300951
58942000.0 0.8618694097066304 -0.496223381888585 0.048142569957076026 -0.16974134384082165 0.0021710263453128746 0.001581274671888923 0.4151400817757481 0.09365966030001993
59941000.0 0.861883194666821 -0.5049418927915514 0.054487815152417414 -0.18122558585289772 0.0009233825407445987 0.002347605014743334 0.4040931251365715 0.09892023531921652
60940000.0 0.8520495724502836 -0.5132316548034513 0.04845899630698356 -0.1850242259968401 0.0012032470057467238 -0.000560800266517005 0.4047901902620898 0.0849494703844068
61939000.0 0.8491105475349169 -0.51985085446785 0.05005644871352902 -0.18948284591508496 -0.0002644592393949137 0.00046755010775387885 0.41707876673879024 0.07742568288713887
62938000.0 0.8446038960516673 -0.5298941444056017 0.05492286881360379 -0.2077803787654014 -0.0009479347386072333 -0.0015748136642287668 0.4393298254266141 0.05886721394826541
63937000.0 0.8379737102690404 -0.5386451907396355 0.05639211106333149 -0.22822928279708302 -0.0011804705373409496 -0.001945803356809205 0.4294543664817528 0.046426215759594124
64936000.0 0.831671671083761 -0.5446800999208108 0.05569178452619582 -0.24360567789462087 -0.0008317481138046533 -0.0035199823454361815 0.42489403589291674 0.05077727845787719
65935000.0 0.829538088880625 -0.5531355501685643 0.05433841777333223 -0.25541368962303257 -0.0037570208415078055 -0.0013768677309661892 0.43523232932633654 0.032937279749429976
66934000.0 0.8244567880337547 -0.5604329424534789 0.05635136107175998 -0.26424173590591277 -0.002574279272097045 0.001931030417614261 0.43609192439382527 0.029890671655094455
67933000.0 0.8228522813200275 -0.5696754154423607 0.05715869614150046 -0.2811431487546044 0.003033243346833875 -0.004351715514942128 0.43376016834097425 0.018825556429154313
68932000.0 0.805073642768489 -0.56366681937513 0.05204336770721793 -0.28846215015655224 0.0011879026616914235 -0.0013190244094960608 0.43671122667931317 -0.0017969722450745479
69931000.0 0.8068075202642312 -0.5834855873430657 0.05295016457095301 -0.3100135184298726 -0.002379302007713279 -0.001328753661365251 0.44424942844508153 -0.008081808538834884
70930000.0 0.8005109034893988 -0.5921621153320994 0.04930164390717531 -0.32180448602208783 -0.00019649283941759383 -0.0018721653212007245 0.4433582637108771 -0.017331511506107334
71929000.0 0.796330866444438 -0.5990873384948565 0.046958963645320206 -0.33954313192376234 0.0008266930064366753 0.00043935421959586453 0.4505872664243305 -0.03468957631824587
72928000.0 0.7902966416625732 -0.6105177747861714 0.040042094412629355 -0.3537791333511066 -0.003142218860460991 0.0005465469286239111 0.4616243178480168 -0.042044803442437474
73927000.0 0.7838055049462785 -0.6149855541993726 0.03262509171500756 -0.3773878987590091 0.0015248671550789233 -0.003157688313903307 0.4560876363139195 -0.04730859418109834
74926000.0 0.7778014089141199 -0.6245983088395374 0.026366958431777228 -0.3936162197104679 -0.00035587062492617146 -0.006497030096399021 0.4616932870917299 -0.05043446817994084
75925000.0 0.7732690782532512 -0.6280823233664258 0.02040618623245419 -0.4123993283089782 0.002187673218333183 -0.002046813459377218 0.4579549376248956 -0.058946220443621244
76924000.0 0.7658522037809566 -0.636866910668039 0.006158237268501091 -0.43905460606812313 0.000502836493166654 -0.001254137393904217 0.46008890682892106 -0.0656391103259204
77923000.0 0.7601042235837275 -0.643615452073813 -0.007629228115254581 -0.46001561839612076 -0.002996687078007946 -0.002673286062676458 0.4613574257006391 -0.08422178966799078
78922000.0 0.7546439049451994 -0.6551146686627165 -0.022106029323106593 -0.48521940734143765 -0.0011245475544546866 0.003273008488802005 0.45650151302490205 -0.08827760610129386
79921000.0 0.7449605826546969 -0.6570686879549006 -0.03992582937592673 -0.5148489359655842 0.0027029599447470787 0.003274713637494562 0.46115803365564595 -0.10180637865506303
80920000.0 0.739338694532798 -0.6678442595280265 -0.05540932991528389 -0.5390896957013177 0.003723547018980328 0.002201248714217163 0.46697793166093765 -0.1260527688972862
81919000.0 0.7350999718234593 -0.6748221898508892 -0.07006520763662535 -0.5678338304502794 0.002563867210221314 0.0012151713630023447 0.46763975854499235 -0.11434833788464652
82918000.0 0.7265706075828973 -0.6817992938076568 -0.08487053352427 -0.5971801009639435 0.0013244877501381127 -0.0016834659714511846 0.47555618791166016 -0.12515460876823425
83917000.0 0.7172633393797818 -0.6905995161247682 -0.10593483291757266 -0.6252175138907466 -0.0008316306414999225 -0.0012502212614523187 0.4699271587164327 -0.13443010091010388
84916000.0 0.713100758861751 -0.6963526291440242 -0.12043951195123795 -0.6612881173845087 -0.001050179230225172 -0.0004477746805031132 0.46025019826525676 -0.1585560698516201
85915000.0 0.7064127497412815 -0.7040234313202662 -0.1435082365968845 -0.6892694273314699 0.003113644903444728 -0.0010236795800213413 0.46553379212371354 -0.16096997720356152
86914000.0 0.6967428532124011 -0.7150151784496903 -0.1561048255187159 -0.7248929977746863 -0.00038493540823201307 0.0020709962396666137 0.4605885845578547 -0.1616043299698122
87913000.0 0.6904841336967721 -0.7194055940830723 -0.17113566931454777 -0.7562281209802117 0.0017557233827570028 -0.0009545244758204515 0.4614950895966221 -0.1776894817011004
88912000.0 0.6842018374728931 -0.7257333413704491 -0.186624832918553 -0.7892710176042967 0.0029299113921511318 0.0016620193310978718 0.46334953145987445 -0.18426369939007195
89911000.0 0.6752500898089321 -0.7352020653242407 -0.2033588619980442 -0.8235060505010637 -0.001592828825842997 0.003548033119809287 0.4704573311565298 -0.21132728590050845
90910000.0 0.6688128708531206 -0.7391448784008497 -0.21345104327822892 -0.859236368844124 -0.0025784488026936755 0.0011303121253828743 0.4681215042616811 -0.20402729201942796
91909000.0 0.6593707021802325 -0.7444763941666297 -0.23679575711565484 -0.8877038276841122 -0.0005066553976498296 0.0014466512657915498 0.4752460337396764 -0.20292612541687766
92908000.0 0.6512318258647494 -0.7537327744113724 -0.2516185956829456 -0.9192611558020617 -0.0008281570478182272 -0.0011746613754073975 0.452623976618848 -0.21995287868027671
93907000.0 0.644800652435555 -0.7599225126739454 -0.2734642587661203 -0.9487214136523411 -0.0008565902966104988 0.0007909595790644031 0.4692296231635771 -0.23079422741214187
94906000.0 0.6331749839958877 -0.7684564144607079 -0.28331789618481923 -0.9854322256296514 -5.758188425459572e-05 0.0010332986416271826 0.4637879966531538 -0.23110494127658598
95905000.0 0.6259767231672042 -0.7728961743040583 -0.3066184980256162 -1.0178030001766132 0.0017569515038469896 -0.001894492201416992 0.46360367694165505 -0.260639693107511
96904000.0 0.6182400972334481 -0.7840970329530503 -0.32757793819104986 -1.0569808033197672 0.0006567581146065341 -0.006494332138966174 0.4557999437843403 -0.270853131778446
97903000.0 0.609431515556667 -0.7861519414587133 -0.3447310418730636 -1.0890974960939501 0.0026063122737818196 0.0013769588454395586 0.45674678019828396 -0.279585879191887
98902000.0 0.6050763494035802 -0.7952931216837201 -0.36537206181167997 -1.1269535535910438 0.001219865429658736 -0.0006354905992754791 0.46059203941168747 -0.28216886464594654
99901000.0 0.590532305184958 -0.8011825149851559 -0.3970217830220186 -1.153751711288879 0.0010683564031156562 0.0012674521780413558 0.4782622781658707 -0.30160438362296943
100900000.0 0.5856551114688137 -0.8049406826222982 -0.4247729605168947 -1.1870542587071211 -0.0003022339548378826 4.61009199224134e-05 0.4693959072551484 -0.29964513605949983
101899000.0 0.5753452659580363 -0.8109443169322273 -0.44830355728637206 -1.2243460117664389 0.0009356662964268854 -0.001421482940204277 0.4490022764784471 -0.30182181473374675
102898000.0 0.5663769887264992 -0.8176816939825075 -0.48476576128259113 -1.2625084278994378 -0.0004387775483161616 0.002182226502669844 0.45246016678592027 -0.317221842655983
103897000.0 0.5563219507659165 -0.8259569868134812 -0.5205756414327983 -1.295451209335122 -0.0007029514443504788 -0.0011628544453243389 0.4597746954805679 -0.32819340020900956
104896000.0 0.5505675636532806 -0.8353997813004808 -0.5638055120768873 -1.3261586131061842 0.001559572582235447 0.0016270597142205505 0.4401953704284584 -0.32908796169922755
105895000.0 0.5381468086223914 -0.8378122638697378 -0.607968427285367 -1.3659033790078847 0.003078956490960901 0.00019423847326092362 0.42645752560741146 -0.3416244585649628
106894000.0 0.5314163742140381 -0.8440192811560677 -0.6579041679065454 -1.4039631253975997 0.002764977545639177 -0.0006877040826628507 0.4307769001973425 -0.3522593222533207
107893000.0 0.5213143457362428 -0.8501838736500436 -0.7133021153126329 -1.4388573869051524 -0.00015970621675433954 -0.003207529426418254 0.4412414501845224 -0.3663140673412088
108892000.0 0.5110782582634621 -0.854187081414479 -0.7688229320964058 -1.4773118762937925 0.002280382439267199 0.004207631834082181 0.42349664552092986 -0.35781544996481063
109891000.0 0.4982545180464054 -0.8603215487051015 -0.825768091939789 -1.511459771490502 0.0012371890549407892 0.00013627052302665155 0.4445987217907185 -0.3623903025745299
110890000.0 0.49359107735498126 -0.8645154571808122 -0.882937497974849 -1.5280859134452858 -0.0008370968962961613 0.0030945423504472086 0.4444812954031792 -0.37208620880880783
111889000.0 0.48050942478420133 -0.8674490564099749 -0.9451537971457109 -1.5808390180347411 0.002823108398952633 -0.001374660801784608 0.4290624747750292 -0.3833708480413286
