! Created with skrf 1.9.0 (http://scikit-rf.org).
# Hz S RI R 50.0 
!freq ReS11 ImS11 ReS21 ImS21 ReS12 ImS12 ReS22 ImS22
1000000.0 0.9804585796271185 0.0020841217244658094 0.006967986282019206 -0.0567047691157498 -0.006686006374745456 0.012807290413251475 0.3544047673166596 0.3245261717045705
1999000.0 0.9956147776031846 -0.01017114238673779 -0.001026026931552094 -0.018191347831574486 0.000997655260112952 0.0032326991367538295 0.25732729677795585 -0.06530292925428241
2998000.0 1.0010133519216915 -0.01959703450882686 0.008761475400420653 -0.011101979420707992 -0.006067956933332508 -0.003619786679864152 0.19976318260282566 -0.1285031673399148
3997000.0 1.0012482216688516 -0.030056588884504014 0.014726026357037937 -0.006240231764624131 -0.0026618315144838413 -0.004386958326688397 0.08756383437051853 -0.2427289139607031
4996000.0 0.9978173970317 -0.039529230797505706 0.01097125600687055 -0.0024456268109846425 0.004031254649267109 0.001501974435755257 -0.052587037649501345 -0.1990959481332052
5995000.0 1.0003837968281601 -0.04514971789418503 0.012803401051900552 -0.0039013489368027385 0.006146812156474893 -0.0013159444980744746 -0.12387700646068599 -0.10237735395749961
6994000.0 0.9960524657680542 -0.05564633023676681 0.01280178620161126 0.004313965243524286 0.0005195501942949544 0.0017960721265108132 -0.1597434094741808 -0.017163343095219122
7993000.0 0.9982299825983001 -0.064402481878011 0.002585361396731091 0.0008413656225551772 0.0019736247014674356 0.004483306972342802 -0.15826815295356642 0.038232570898469695
8992000.0 0.9956492932387582 -0.07084578253087093 0.0023287735421680293 0.0043829679324514995 -0.0027293643318100917 -0.00014482371900642716 -0.15566756498942264 0.06768360412170647
9991000.0 0.995240112406008 -0.08207589898311492 0.007054581852780842 0.006909695018256249 0.00149066794935981 -0.000352299976157279 -0.14620475132196697 0.09862078602389962
10990000.0 0.9925958486379735 -0.09428522274280976 0.00451227688614411 -0.0020713991469945166 0.004003979086468126 0.005320945062310442 -0.13883022007588297 0.10822283342567733
11989000.0 0.9934984406840787 -0.0995668098530041 0.009141325276108019 -0.0013799965144117683 0.0066609153072693834 0.0007889547281722868 -0.12075369850837127 0.12818318806126397
12988000.0 0.9909548959496505 -0.11020851327559728 0.004292682839440502 -0.006075587269595674 -6.855882517942741e-06 -0.002096129418012378 -0.11867687730912804 0.16462594047462317
13987000.0 0.9911600159562493 -0.11579070537226925 0.0020700156797685437 -0.00772653193473711 -0.001842136257982296 0.0007926560166446628 -0.09421302724066544 0.18471171206858986
14986000.0 0.9892705169733287 -0.12319866062308955 -0.0009742112068099623 -0.0033422532090680796 -0.00017960148532913362 0.000344292313474421 -0.08517135956838236 0.19235534668605736
15985000.0 0.9891169830126699 -0.13394674934433295 0.0004264208934212944 -0.002839952448242538 -0.0010922769778340773 -0.004058405974097916 -0.07118669696699759 0.2270639066707187
16984000.0 0.9877223187912078 -0.14338128666851796 -0.004709579695388412 -0.001696924144116406 0.0008966200568198479 -0.002189796306488202 -0.07661500683893736 0.22399612629230797
17983000.0 0.9895715008349308 -0.15005749711794597 -0.0007738273187479725 -0.00823291288448143 -0.0009769804388008892 -0.0003702760134337927 -0.05475696270059194 0.2306362758951115
18982000.0 0.9834506563949453 -0.16235054673560906 -0.0046219533972956 -0.005339003412663047 -0.0016350095858446738 0.005176388523700287 -0.026866919098202057 0.24036491293443948
19981000.0 0.9842723334283463 -0.16401870205716837 -0.0037358188751848856 -0.0041662716339687135 0.002044347259497678 -0.0003427065284180266 -0.009035475915008825 0.24657537412511696
20980000.0 0.9838635381407377 -0.17274077072361657 -0.0053556445821758385 -0.007150292184792912 0.0018357021137652414 -0.0036068827371454467 -0.004036686462620775 0.26073620905422273
21979000.0 0.9814235584166883 -0.18368438312966393 -0.009853241302210592 -0.0017928996738555464 -0.0005572265242760575 0.002833579335512458 0.01046016588858449 0.24715791862415273
22978000.0 0.9793664271184465 -0.19159056502147667 -0.005868091239731301 -0.0015519116901063534 0.001772396663485602 -0.0046834069313124085 0.041721285275418955 0.25119202964795107
23977000.0 0.9792234746774864 -0.19972559279809438 -0.00580029806564677 -0.004283677621023125 -0.0042068154013593035 0.0029939366852667674 0.032820550792222423 0.263579489624639
24976000.0 0.9766755695671993 -0.20772147439200114 -0.004554787711969937 -0.003487022052495175 0.0014099951984488522 -0.005514234566188781 0.059969339543678356 0.26182929136631183
25975000.0 0.9765044239757479 -0.21643770399307277 -0.004878352501242159 -0.0008124089491754552 -0.005877363651576458 0.028070397254145295 0.08637951310957213 0.26854414501864166
26974000.0 0.9722552342775364 -0.22500144813074624 -0.007615107710773031 -0.0015730372120916698 -0.003237617812263152 0.000481614327383813 0.07895166154005476 0.26264720886214393
27973000.0 0.9720058116817668 -0.23190910378393845 -0.003171770207750045 -0.004906486210693885 0.0017646859127487108 0.0013770155907055844 0.10350636885905191 0.25246654581273514
28972000.0 0.9685875096392501 -0.24123164038914055 -0.005245744461256764 0.00023935616738030596 -0.0015562103187283596 0.0005405944611299471 0.12193922978643337 0.26131403379667806
29971000.0 0.9680814724630145 -0.2494928385782683 0.001472576484073277 -0.004791892344821029 0.0002016022972793912 0.001208245583147595 0.14550955124946424 0.26028777175307244
30970000.0 0.9636987062571 -0.25505985289416216 0.0007874736108412856 -0.0005330893979151971 -0.003254043966863726 0.0014373445124665782 0.16915327016048856 0.2609560080071214
31969000.0 0.9625680302446683 -0.2652108702295201 0.005662457340418108 -0.004322474133866517 -0.0003686827707059243 0.000617646894081564 0.15436421151684712 0.24374338000401588
32968000.0 0.9618114491962482 -0.27425954769891425 0.01221685779498372 -0.008897608383697582 -0.0019630048603159977 0.0007378426488837373 0.16369388836142207 0.24557524778796067
33967000.0 0.9584399739464838 -0.2817242048200038 0.009757546299939406 -0.006071278150689427 0.0027653155070413685 0.003465909568499522 0.1729186613023413 0.2462453666435293
34966000.0 0.954787332100321 -0.2920318364660797 0.014740875280296169 -0.01093207816203092 0.0037697465729733945 0.0012419299838780558 0.19225546744904695 0.25568891900305035
35965000.0 0.9525034452787167 -0.3003515506821548 0.016588966305622694 -0.014754432136850102 0.0007554049651801978 7.214785843609158e-05 0.21801915674947137 0.25095486414144164
36964000.0 0.9500810836264098 -0.3087622339928686 0.01743356706040502 -0.012782241752148217 0.003173777139802103 -0.0009057646487192928 0.21661968309575488 0.24156497867136023
37963000.0 0.9455019884011677 -0.3176527720820933 0.022417000554395997 -0.02081531444932335 0.002217243752951516 0.0012303415994745018 0.22410237862554933 0.2344943940126734
38962000.0 0.9445056697770174 -0.32633976196453246 0.023010141882502708 -0.021960695192937193 0.0038970603686917208 -0.00047921553661515234 0.23744214357962737 0.23286244759795777
39961000.0 0.9429241642719514 -0.3311728930046088 0.02341399428544888 -0.027548911346384763 0.0032103537295173736 0.0017253825953607767 0.247543366033969 0.22373450848845924
40960000.0 0.9395917204308039 -0.3425463700915281 0.02165328394287213 -0.02533490235286799 -0.0007582348032340551 0.0006638185412939395 0.26577755242676787 0.2214132144905463
41959000.0 0.9360240251636982 -0.3517404865370895 0.030377510385006717 -0.03353767060648084 0.0004671193862376702 -0.0019586613213868655 0.27516907520473965 0.21039706480834836
42958000.0 0.9298501782554734 -0.36010137080586685 0.03292196393299587 -0.04174758717680004 0.0022538333258002967 0.00346483411030196 0.2886015508912548 0.20302774249634575
43957000.0 0.9306479972636131 -0.3634508776027731 0.03166104748937879 -0.04743947317725294 -0.0014394766621806737 -0.0025219563967359125 0.2907453098769853 0.21039179250754003
44956000.0 0.9262288701546204 -0.3715629042168975 0.0369999545882401 -0.05323565887192692 0.0017108923696756118 0.001269392816344007 0.3022065274882872 0.19252181902701604
45955000.0 0.9216524644143177 -0.38444109265791937 0.03697633829014696 -0.058282416362592696 7.729999946231537e-05 -0.0005172199493530446 0.3007173815544488 0.18906119358566426
46954000.0 0.9161511451046508 -0.3922351720185699 0.034742851401165425 -0.06505342647929113 0.001667794041571275 0.0004838639501960775 0.3255984628023783 0.17432913096131777
47953000.0 0.9144083559836694 -0.3993893246097632 0.03619449629223246 -0.07159885007450588 0.003085190053621663 -0.0006446374228067768 0.3354866766701067 0.1640424513619792
48952000.0 0.9098828444946188 -0.4084850344423666 0.03818184753461135 -0.07992222192665624 -0.0014392420375346725 -0.003121588583316681 0.33546446710527333 0.1608272642115602
49951000.0 0.9057547596265727 -0.41671771531194773 0.03912719831063717 -0.0870341197413984 0.004503503832600064 -0.004574068445777407 0.3536277098112857 0.15014349169586114
50950000.0 0.904155135292575 -0.42388456010105563 0.04078822236453369 -0.09388194560766919 -0.0029588877531052994 0.00013141369565031452 0.3562675838940278 0.14854630662292434
51949000.0 0.9001580215065778 -0.4320711275130097 0.04103671902725126 -0.10282333300223463 -0.0010115751900521411 0.00043034592200225926 0.3584352667698751 0.14089059225018716
52948000.0 0.8969830893189307 -0.43946154752477196 0.0460910833644602 -0.11178695817997009 0.0002581328713828363 0.0016443174781022832 0.37733247940579046 0.14357414548406244
53947000.0 0.8924746970974361 -0.44661233219072627 0.04535503720394131 -0.1188911585622291 -0.0010003397489435533 -0.0006597748728040107 0.3715077535794131 0.13543894522395716
54946000.0 0.885749720829737 -0.45663363266303864 0.04552007487412145 -0.13093992029253101 -0.003574472763666091 -0.0009247681198756261 0.3800035910548242 0.11403795885054221
55945000.0 0.8853012042254024 -0.46420453593545635 0.048327552378766195 -0.14295230584722168 -0.0002970179376377331 -0.0013730122011280262 0.3851055621982684 0.10458328629755129
56944000.0 0.879851693643064 -0.47339174997820954 0.05190754566481992 -0.15085040919952664 0.0011921713781259961 -0.0023037013039187964 0.39866698499037145 0.1000401024484529
57943000.0 0.8753507989265905 -0.48358475809684026 0.0540410853370138 -0.16280540249401304 -0.0017152880814087991 0.0008232512646682789 0.40375956924468304 0.09411780121692187
58942000.0 0.870019788370804 -0.4868956678758 0.05125717769026234 -0.1751997271682775 0.002689755645606684 0.0016362316524951386 0.4169793197275315 0.08772218334221436
59941000.0 0.8668060824204615 -0.49746564756965067 0.05320872931714862 -0.1833522577964733 -0.0021351151692412503 -0.0005930956684253459 0.41647721444470187 0.09034673349834954
60940000.0 0.8597235984478253 -0.5029153841909416 0.05217316827049394 -0.1883930484349641 -0.0002402033874118627 0.0006208677948209801 0.4097152208218595 0.07829717601507026
61939000.0 0.8562637693413564 -0.5105699317844054 0.050052489491502684 -0.19697834403492942 0.0013897708654331867 -0.00010429213630035376 0.41560936793223074 0.06915915377722373
62938000.0 0.8509671576900606 -0.5201927854419932 0.056464753521369836 -0.21514472104251348 -0.003418089461469754 0.0001125909340640152 0.4394238287784109 0.053846881467099116
63937000.0 0.8460172387805137 -0.5270749798559928 0.056720169678852454 -0.23233809804163025 -0.0033586037064790206 0.0007199799663528029 0.4321312562484865 0.036664626521279775
64936000.0 0.8403076348188008 -0.5335530577133196 0.05661716425004648 -0.2487250953999079 -0.001524876812580756 0.0024554958507506286 0.425667985458033 0.0420814299911468
65935000.0 0.8381756439289408 -0.5435895166743976 0.05471519997230224 -0.2621108892068984 0.0014398356516628057 0.0010392961467463177 0.4388041810882955 0.011393091239448597
66934000.0 0.8313373523322057 -0.5498191797366457 0.05330521485296552 -0.27583719944410906 -0.0025808986772010933 0.0008723592677456046 0.44291533821877127 0.00289065950286101
67933000.0 0.8282323787885189 -0.5592548089299826 0.05598077198980725 -0.29063017488345083 0.0033113921820815636 0.0014282087492201898 0.4433300818699319 0.014181404129687453
68932000.0 0.8168640238481746 -0.565311541038717 0.049593147286024944 -0.30613076642519393 -0.0031293892557207113 -0.0013615104091705544 0.4598071950483884 -0.013418120274214306
69931000.0 0.8139648144957392 -0.5740097752302803 0.0538823647365224 -0.32250169790039923 -0.0010246013365375695 0.004972310147308434 0.4475550817497506 -0.03169850251769131
70930000.0 0.8096143168237323 -0.5799659586182978 0.04990217756716592 -0.33789978342060983 0.0004032850535055779 -0.00032745175711240747 0.4465981065591783 -0.03737940169728244
71929000.0 0.80535291810338 -0.590894490936724 0.044414706983369426 -0.35748693037779916 -0.0025993656114260545 -0.0005113265818052603 0.45764273199141253 -0.04413355068070271
72928000.0 0.8008910245540193 -0.5971262548279159 0.04350700989287651 -0.3725858182569234 -0.0035884071022310557 0.003180358182840058 0.469894072666329 -0.044914211084474694
73927000.0 0.7943129146109128 -0.6066816022629307 0.03571317403876526 -0.3905527463032834 0.001090740567103915 -0.0029916077063008827 0.45164728170543056 -0.05469773044739131
74926000.0 0.7892799426509981 -0.6144493648046493 0.029353552234070792 -0.4116569048632176 -0.00016322124663110737 -0.0008460108664752405 0.4613782724787712 -0.049227103403559395
75925000.0 0.7825499684454441 -0.6196714346684332 0.017383425003095292 -0.4294589623321555 0.0013239513013489448 -0.002324013003676278 0.46948453666236006 -0.0781065387591145
76924000.0 0.7776156153348667 -0.6257952801486893 0.006915701360091089 -0.4537137470190407 -0.0031547786474030834 0.0015032545084880252 0.46835274139149907 -0.09019795221659756
77923000.0 0.7705580192078079 -0.6332004443117041 -0.002542933295734556 -0.4787817642050013 -0.0017153903364423358 -0.006298365764818701 0.4623680403012968 -0.09315811600144329
78922000.0 0.7648188365119868 -0.6441773831030166 -0.021542082799839816 -0.5048226166812406 -0.0015856916553052553 -0.0012796444137709816 0.4695359877159178 -0.10803416101232731
79921000.0 0.756431582428925 -0.647758948610571 -0.03577329838515438 -0.5286528177051993 -0.0001542420658490552 -0.0012517005637466237 0.4720211299515882 -0.11018756207587986
80920000.0 0.754051958548895 -0.6592724722120403 -0.0481781767581357 -0.559883970069935 0.0003943986128527309 0.0003604773348947776 0.47621025414814655 -0.1314400043714152
81919000.0 0.7481960791222589 -0.6641994081343934 -0.07029070897417336 -0.5853434063452907 0.0005392784760760558 -0.0019467382499047186 0.4800459210966223 -0.13268203184868488
82918000.0 0.7377115581787196 -0.6714871880881462 -0.07910868586517894 -0.6205409096471275 0.00036519478824485616 0.003022569091760153 0.47520415029534047 -0.1407134497874439
83917000.0 0.7287309307540093 -0.6801101061941331 -0.09965068383781875 -0.6447488705757111 -0.0023263120500713755 -0.0032913918502956636 0.4744138770685636 -0.1465777448549876
84916000.0 0.7250661155121235 -0.6861867347720735 -0.11476162128486839 -0.6811305296938821 -0.00032721035977533456 0.0006489719280806344 0.47457876126718923 -0.16142024709155972
85915000.0 0.7187864376475421 -0.6926021164672802 -0.13233402312210665 -0.7100894081200745 0.005003909777198781 -0.0009518013373359202 0.4655560431514651 -0.17244186696435163
86914000.0 0.7112064903166769 -0.7020530799444116 -0.15087388981972846 -0.749730661936448 0.0007701269840593699 -0.004400238867051722 0.4639104580078519 -0.17369683725371932
87913000.0 0.7043503679114668 -0.7083014729534179 -0.17098081428482517 -0.7767795842312658 -0.0013287814955552574 -0.0006213721425763582 0.4702446159985368 -0.17553676856256845
88912000.0 0.6981678827858557 -0.7155336740925025 -0.1844873470992512 -0.8146398348695455 -0.0011582600546667268 -0.002073468406285331 0.46517218648822545 -0.196804994468544
89911000.0 0.6907055682450279 -0.7229353569471568 -0.20618407918062853 -0.8507056135787728 0.00020047810623374625 0.001872966152829765 0.4727876511817915 -0.21849201917462482
90910000.0 0.68340989862309 -0.7288398436378034 -0.22152083745181342 -0.8839134969818299 -0.003267787399496217 -0.0017654965596946798 0.459658598915537 -0.2108474783913849
91909000.0 0.6734391071211341 -0.7346110293787383 -0.241611678765238 -0.914419378211247 0.0026545092190998864 9.496773902074269e-05 0.4691326155692014 -0.21602761620033656
92908000.0 0.6668193819523861 -0.7415279504486919 -0.2618794471569158 -0.9516155762789869 0.0003232485641437544 0.00102010361092195 0.4578451865055581 -0.2328006246527073
93907000.0 0.6602858455049345 -0.749315513242475 -0.28511355545410283 -0.9813285974974542 -0.001357817755448958 -0.002093068999337469 0.4651346621322861 -0.25338191611297767
94906000.0 0.6490676449969809 -0.7554931309377162 -0.2954832921642468 -1.0160057453620912 0.002751832940884904 -0.004254809898745271 0.4547493294218175 -0.24261622590504398
95905000.0 0.6447125765482212 -0.7626239464359574 -0.32186670027578074 -1.0549204743532 0.002383850094998229 -0.0006715937216628326 0.4627106586057976 -0.27044829450116525
96904000.0 0.6355586871207615 -0.7715317547258402 -0.341555886270641 -1.089847004401479 -0.0017006512767116717 0.004875143314921004 0.44507151250850735 -0.27182641221630693
97903000.0 0.6242193990864131 -0.776228467172003 -0.36526914191026527 -1.123849278136592 0.0022140215379500717 0.006859749536739166 0.453536233301426 -0.28239408668517557
98902000.0 0.620350020685612 -0.784471251978274 -0.38640910765057535 -1.1646165104933408 -0.0026127194204492755 0.0015537582423939711 0.45262895849853024 -0.2912051959040838
99901000.0 0.6106696867379531 -0.7892842272206952 -0.41711692814935114 -1.1943785136547997 -0.0002567768933163694 -0.00026855173120423904 0.4640837282798215 -0.3155190223598268
100900000.0 0.6028573244592029 -0.792524651930709 -0.44743777867699197 -1.2220666649661953 0.002026554953247418 -0.001307407728319041 0.44833710614267236 -0.3119986380749348
101899000.0 0.59394561619751 -0.8012524800066209 -0.47463479001419046 -1.2687327317808843 0.0029874892844813463 0.0020812489760740137 0.4571927064747849 -0.32488257016076
102898000.0 0.5833024749130302 -0.8051785531547233 -0.5123024706510686 -1.30077079928203 -0.001737954256991975 -0.0004055767269265738 0.4532460008356004 -0.32623825621244196
103897000.0 0.5760927553720959 -0.8132936170017483 -0.5541978052406765 -1.341609165637451 -0.0010823620083324553 0.0012766594256650966 0.45849229021614346 -0.3347042720333215
104896000.0 0.5672721447688805 -0.8223885254904243 -0.5964306920939434 -1.3708190432501803 -0.001895703517164978 0.0034697243140497966 0.44285307139946595 -0.32928423028906123
105895000.0 0.5564777967295513 -0.8260241107419469 -0.6410829087184081 -1.4147376806140228 0.0008676414746896607 -0.001332768017573708 0.43754361199567043 -0.36196500824635275
106894000.0 0.5490061903072977 -0.8331774362386845 -0.6955804378352545 -1.455879748399886 0.0007439111833685884 -0.002262998144289815 0.43785340735276695 -0.364966602282417
107893000.0 0.5413319586319147 -0.8390232647631022 -0.7441651998250826 -1.4931592628629056 -0.0009242337061708744 -0.0030178129182700593 0.4322818679532761 -0.37214101896032153
108892000.0 0.5305098413162185 -0.8422110044090142 -0.8079144257211924 -1.5316061084063344 -0.0037128221286371857 -0.0008716427944559845 0.432591732579258 -0.3812428789591692
109891000.0 0.5180450373220441 -0.851048671827882 -0.8683703777225915 -1.5683757838266708 -0.0025553176542238015 -0.00230982929821928 0.4428926409264202 -0.3741072370567309
110890000.0 0.5065450695877084 -0.8505758993625341 -0.9272016730700924 -1.5699998799859898 -0.0016098123453709286 -0.002033404738140282 0.42550323363430453 -0.38230380647823853
111889000.0 0.5009807368201707 -0.8575688510831763 -0.9944898093847886 -1.6376882534627297 0.00033163527900591434 0.0007438571300187083 0.43071172344251346 -0.40275409891791264
