! Created with skrf 1.9.0 (http://scikit-rf.org).
# Hz S RI R 50.0 
!freq ReS11 ImS11 ReS21 ImS21 ReS12 ImS12 ReS22 ImS22
1000000.0 0.9959396612791456 0.013802793189088667 -0.007442011977585977 -0.04903505137587873 -0.028680746021013486 0.010593774643540376 0.2876554578826832 0.3467112197078483
1999000.0 0.9983124064362843 -0.01018943995688161 0.008026105652442312 -0.016384976323874673 -0.0007528129623898275 -0.003455761751266839 0.2405996011387829 -0.0383347924119667
2998000.0 0.9970281844767077 -0.021552382331660378 0.012369565475897376 -0.015207837757797384 0.0007724788704963548 0.0029372984117317187 0.17603226569569014 -0.12912964107454936
3997000.0 0.9961277699289801 -0.036867013793863805 0.01244918524825297 -0.011180055128427615 0.0006540847905679169 -0.003921918254800413 0.07023218535656144 -0.22413651307781512
4996000.0 0.99411648519465 -0.03950904096526878 0.011827100111773924 -0.0009278812925833946 -0.0020759269128132387 -0.0020994468591173476 -0.048509267027415606 -0.18769860743868852
5995000.0 0.9937037398915457 -0.04706189688447854 0.006616234613691146 0.0011396622479906816 0.0022658737556236763 -0.00032500158093746984 -0.13134522473963325 -0.09343251518681933
6994000.0 0.9923448966547259 -0.05950948522984715 0.004914239549374766 -0.00026754469369040767 -0.0013954081251636202 -0.00042798777497885415 -0.1503340337332391 -0.01748716335296631
7993000.0 0.9945668773652073 -0.06559990239192771 0.0004746949083600032 0.005591007438834354 -0.0012604973256492627 -0.0033514636755052345 -0.15738943502502747 0.037024212790316875
8992000.0 0.9897640758231822 -0.07357688217566799 0.002637135712313962 0.0035589736865195187 0.005349176814914049 0.0007729772576932545 -0.1569950953396007 0.05897165137216087
9991000.0 0.9863845235542069 -0.08427550643568038 0.005048326014683377 0.0019300737132221277 0.0012495628453563052 -0.0004294078907589546 -0.15231819215966644 0.10401835543408156
10990000.0 0.9900021799506162 -0.09300245665049728 -0.0005832258922776862 -0.0005595385412881732 -0.0010518329287518577 -0.0024522366252246724 -0.13735046055102745 0.13061547209814253
11989000.0 0.9880791213087513 -0.10188334766155839 0.0017270597787887767 0.0020346037592096555 0.0008531182091620887 -0.0007877350054974518 -0.12654359193581108 0.12446350410053116
12988000.0 0.986012622872318 -0.11053983181393047 0.0012732882937161276 -0.0034449401774320366 -0.001489714278515406 -0.0016035255222438226 -0.11515222870349572 0.16843984871050505
13987000.0 0.9834565603311929 -0.11733200697822735 0.00017531564762635575 -0.003020070153741193 0.0007452673065737764 -0.00116462685246274 -0.09302695028518064 0.18699317453746414
14986000.0 0.9827687838391272 -0.12484494988730094 0.001114498856314743 -0.008359541533648669 0.0020756074321819163 0.0012806042231974684 -0.09262166759219 0.20720179775784248
15985000.0 0.9851484856820205 -0.1336472571227034 3.7774065985264854e-05 -0.0017582631838244439 0.0013491638866667346 0.005849986156369459 -0.06820511736009449 0.21156786251379425
16984000.0 0.9815716504691604 -0.1470986244675606 -2.9627912046075886e-05 -0.0057485424681730235 0.004386675686993102 -0.0017620606928660538 -0.06437140745077492 0.21912779896627974
17983000.0 0.9806952849337203 -0.14963381512803003 -0.0007307633366063283 -0.006824058387427014 0.0013603253303675097 0.002045845235143784 -0.05848546689353036 0.2286830398491671
18982000.0 0.9792456975419269 -0.16030406673139952 -0.0037661878958415987 -0.006989671655966125 -9.222054198601094e-05 0.0006920336119388251 -0.02175020959587228 0.24094387205742673
19981000.0 0.9792978690814408 -0.16591456662255175 -0.004016407598627674 -0.002414952049500337 0.0026384249105930236 0.00030148099015724793 -0.010616213520727039 0.23651358649867182
20980000.0 0.9771706180278606 -0.1759516150879242 -0.0025899003636415674 -0.0032403898214426723 0.0005161859411709777 -0.0012410419264849322 -0.0006812171267788532 0.25004988979822224
21979000.0 0.9752870763625635 -0.18286085853775116 -0.005285700339280158 -0.004178129118616803 0.0019445509687570546 0.0013770865256787614 0.019587348045021998 0.25253857378769523
22978000.0 0.9751006866428101 -0.1916127696102743 -0.003820238404249809 -0.00484099093346547 -0.004320392409578157 0.00039686043412697267 0.018766265234399417 0.2520745925152159
23977000.0 0.9736699729389383 -0.20078339853455826 -0.011143232692609036 -0.00015539010446349237 -0.0028831423384949417 0.00048667265610769606 0.05211505087165543 0.2558896180635017
24976000.0 0.9694851919961309 -0.2122789901337982 -0.012657180362211102 -0.0007518231380169389 0.0019483102344408708 0.0043346387028416755 0.05784065982019642 0.246452877767849
25975000.0 0.9629741942770789 -0.21834582205394015 -0.005863680957914523 -0.0013942265934168028 -0.019251308415107853 -0.01579863516403862 0.06342920439899077 0.26431426866516505
26974000.0 0.967942964465678 -0.22808138303332742 -0.0026387253587752254 0.0006104720642753103 0.002658627886846027 -0.0007051497347440696 0.09283687842802253 0.26912169777396355
27973000.0 0.9657601883901611 -0.2327145493960371 -0.0043006054727311085 0.003944221123924879 -0.0018118700256608807 0.0008611504908972882 0.10231052655520374 0.2576774372757478
28972000.0 0.9630310414099035 -0.24286252312564985 -0.0020986129788410374 -0.00033507951828774774 -0.0028477081731619544 0.0015784890886561755 0.11960109156855364 0.2537378049909206
29971000.0 0.9613768206027181 -0.2532509659602688 -0.0003194768479515908 0.0002614039536577749 0.00024021230460722934 -0.0010984865621459752 0.1529730894873182 0.27679356693699536
30970000.0 0.9591519929816515 -0.25741269410875206 -0.0013079312208364854 -0.0032390756814809347 -0.0013139102024558153 0.0013396496125041499 0.15954389222406565 0.25605549753519397
31969000.0 0.9571005539969506 -0.26718758572158685 0.003701471580131072 -0.006342265841762074 0.0009125513096465573 0.0012330343761174515 0.14508857047886223 0.2517966423473519
32968000.0 0.9561991784809455 -0.27576872954953574 0.006209264087941997 -0.0043802661923670605 -0.0015937332714069006 -0.00032046663903698066 0.16775969155055798 0.25218955291379863
33967000.0 0.9538327070977052 -0.28489434422371995 0.008987973825454739 -0.009910493071454139 0.00241251178940267 -9.472296138143238e-06 0.1845863399760306 0.25358874446483864
34966000.0 0.9490706345493566 -0.29684696897405216 0.012890290745450624 -0.010734671875178582 -0.0005850396572019464 -0.0007641554157532543 0.18811819701619795 0.24351479000540183
35965000.0 0.946954176657154 -0.30277047977068655 0.0175625665381677 -0.016605808363112956 0.0040422476402902615 1.5495334904663995e-05 0.21210763198846297 0.2522202576761961
36964000.0 0.9456040798704323 -0.31281931360674203 0.016633331840875218 -0.01471665108274728 0.0003525212678401134 -0.00027385780431895494 0.21800920948321928 0.25773823095827636
37963000.0 0.9417894328905397 -0.321008307656851 0.02132514224901665 -0.01935821719630207 0.0025932446853330657 0.001074330540666051 0.22115382200821945 0.2312377758523827
38962000.0 0.9381416044676882 -0.3321972580542943 0.02280485001916019 -0.023963732142210436 0.003423703813887417 0.0028001674039551203 0.24121964040405022 0.232461974155647
39961000.0 0.9351900533538644 -0.33862148480714593 0.025257008916885097 -0.024598745030232474 0.0019734159818538344 0.0039011743549300466 0.2541825606765226 0.22614168973660279
40960000.0 0.9317042783974543 -0.3468332536261177 0.02004011117097431 -0.024477086165330026 -0.00028650396305921627 -0.0036263145957117896 0.26625308318025814 0.2249801154702489
41959000.0 0.9297657371929012 -0.3560748336602027 0.02762083373067085 -0.029186772111225924 -0.001555421075523269 -0.002596586943646994 0.26368910997043427 0.20888615169034117
42958000.0 0.9247795768813408 -0.36349593388120344 0.030211231351048983 -0.04217781411860263 -0.0018042177468693304 -0.002202020855755403 0.2768115721259697 0.20154586819666903
43957000.0 0.9232276227367638 -0.3714389038749489 0.030079554822814582 -0.045690775473407004 0.0034226376928853347 0.0010019089890851123 0.27817576161268803 0.20124593965643367
44956000.0 0.9191626226803948 -0.3807701300421267 0.03204961576371895 -0.04944691052399511 -0.003714390720816679 -0.0012528395554144002 0.30222892874578294 0.19699821139841966
45955000.0 0.9148890964133107 -0.38997433088478506 0.033148962945042465 -0.05776995679796033 -0.0008914691176716036 -0.001441920701659357 0.3024757377238416 0.19560979894273642
46954000.0 0.9116866188527173 -0.39762631625296163 0.032497728691104136 -0.06370797588323919 -0.000420923625019447 -0.0010473065535097582 0.32130379822987837 0.1828954517751976
47953000.0 0.9105137271055606 -0.40550997305163866 0.03385468175324943 -0.07208358669854185 0.0009669099219784345 0.002360386598161339 0.3399737995579476 0.1704662680389656
48952000.0 0.9021350945093025 -0.4172605403158699 0.03519585844762119 -0.07917030660787548 -0.0009839455820301955 -0.0005440052594113953 0.3317758437257572 0.15884570111294147
49951000.0 0.9011379675436249 -0.4214737492944785 0.03721957699534444 -0.08755939871845642 0.0002708731329042694 -0.001681958538016507 0.3544643747763045 0.14448809337604107
50950000.0 0.8961497011459216 -0.432407875802552 0.03389236182674444 -0.09762114418549414 0.0007198924079516037 -0.0007458192498505532 0.3547260171900494 0.15040773933041066
51949000.0 0.8921290548371962 -0.4396089248767487 0.04133184626744081 -0.10350847518795088 -0.002973939663483027 -1.5100663775472744e-05 0.35673033021327744 0.1324034187848865
52948000.0 0.8905502741177383 -0.44689411343384366 0.03854847016124487 -0.11189540076959202 -0.0011199728327999712 -0.0002260636625510772 0.3665967640631372 0.14799604221544763
53947000.0 0.8826947047236778 -0.45726134736141777 0.03944723588719487 -0.11921971695780863 -0.001279966690695148 0.0006976517054375425 0.361681483204568 0.1332409839499236
54946000.0 0.8789938387901125 -0.4634692856770789 0.040280769069467766 -0.12917547821909628 0.0013229328419867134 0.0012764210691198095 0.3884611438489126 0.12278190664993946
55945000.0 0.8755052066804698 -0.4708719697459042 0.043019365636421 -0.14131048487284983 -0.000554321786372968 0.004587368155398178 0.38510762558443296 0.09466723838271723
56944000.0 0.871565812572149 -0.4818322124271576 0.04696188269091331 -0.1491596783174491 -0.0018338675256602715 0.0016945299107801767 0.3947997927718575 0.10860786165051935
57943000.0 0.865205221721782 -0.49395886765333213 0.04603755558578863 -0.15948025888233133 0.001703741133055204 0.002299964527016834 0.39327166340176845 0.0953918854150925
58942000.0 0.8598921704169787 -0.4968604358827312 0.04884664387109844 -0.17136055779011716 -0.0024396935712199474 -0.005386136908281116 0.4250803529646544 0.08993047931071417
59941000.0 0.8562044580305349 -0.5043716233677684 0.04725923308529492 -0.18026193625430126 0.0023941282883540704 -0.00012972304932744156 0.41423507156792416 0.08199918617935609
60940000.0 0.8505123759009295 -0.5114280210355667 0.04587360433549607 -0.18581035166349147 -0.001055235444324575 -0.0002461995370773809 0.40749026974099767 0.07336603917221494
61939000.0 0.8466177574423888 -0.5189331870146876 0.050017079807944745 -0.19121097726983588 -0.004242681667068756 -5.644496221705464e-05 0.41386793781334796 0.07314261602196584
62938000.0 0.8409455604763024 -0.5290737263304592 0.05352420022909631 -0.20744920414271442 0.0005983820704031704 0.000816635779671706 0.44078279230596107 0.060158507353158606
63937000.0 0.8363084112723981 -0.5358287134626487 0.05591155921397672 -0.23165258925138735 -0.0032690840274828565 0.0009636931408682273 0.4339649400888793 0.048759394187124584
64936000.0 0.8290416319853868 -0.5439065520289367 0.05390064067332515 -0.2437942216251548 -0.0019829099955345577 -0.0010061796388842004 0.432917971052115 0.046960296639609975
65935000.0 0.8261922850456027 -0.552933939907043 0.05296505601101193 -0.2532500911945352 0.0013602597085081729 -0.0019114384721484658 0.44600563494379086 0.007679117402144561
66934000.0 0.821420609897746 -0.5594505844095748 0.0529628322148049 -0.26990373309644394 -0.003560319414831754 0.0016942765660812509 0.44051159820778363 0.010733822775889117
67933000.0 0.8191357878516375 -0.5676238973948129 0.057550865773287795 -0.2820504239222927 0.00422968016203141 0.001627704735361406 0.4473218651741672 0.012291717876039927
68932000.0 0.8024145481513802 -0.5621016267936042 0.050473146991852194 -0.29203404258424887 0.0017668307845700774 0.00021118355249814097 0.44726308758633104 -0.013374144682632347
69931000.0 0.8023822203770133 -0.5828086819521943 0.05620076143249103 -0.3110037456986141 0.00034293001842243613 -0.003654771224073222 0.4421311392419932 -0.021194600850622608
70930000.0 0.7980686439644629 -0.5905954008039035 0.047736266187230036 -0.324649825122072 -0.0009618933158551203 0.00018076132985581236 0.44285740683817193 -0.028997266398229152
71929000.0 0.7935248234767175 -0.5985415208849294 0.045805690656643284 -0.343261584485459 0.00021813330188757198 -0.0017221337626951007 0.4439776880929836 -0.03954918496213781
72928000.0 0.7878155836998074 -0.6074927796811511 0.04009429188424868 -0.35686251954715087 0.0023367146316490015 -0.0002474752573359042 0.4584589912045075 -0.050866648637740465
73927000.0 0.7795633660978865 -0.6127536619548941 0.03444372983654396 -0.37641569538874975 0.0011533436977959983 -0.00022721848096106333 0.45302061760814405 -0.061520063572347884
74926000.0 0.7744078269951601 -0.6221047525920648 0.02531522643345512 -0.397304877854469 0.000493331895144349 -0.003293334722349565 0.4672204062999447 -0.06857070162981083
75925000.0 0.7670939626947063 -0.629069694542133 0.01462282613157474 -0.41351757868503697 0.0010791766694290298 0.0009919491644918435 0.4628257456588035 -0.07676804097651906
76924000.0 0.7635293520319691 -0.6365093833932389 0.0058893436089170765 -0.43591910489449315 0.001161963823912483 0.0005502118485635149 0.4722459334515509 -0.08194154903633026
77923000.0 0.7570788459850576 -0.6431338096904357 -0.010126896325726492 -0.4605944223356358 0.002086491704261994 -0.0017194530085308756 0.45265082413404106 -0.09131033268898685
78922000.0 0.7515842099751752 -0.6530090457880287 -0.021840356296810286 -0.4875690202038255 -0.0010520800282836397 -0.0008899134314812292 0.456931555523644 -0.10514302647699976
79921000.0 0.7419308844330464 -0.6553681722432037 -0.04288647522639721 -0.5118820182066818 0.0018910168145269573 -0.0005050028921108458 0.46931783001052274 -0.11204922266671036
80920000.0 0.7374845325076059 -0.6674965280449315 -0.052436884817759655 -0.5400378070566996 -0.0027501839416177 -0.0003962902832232095 0.46193826288067336 -0.13228266172021902
81919000.0 0.7326220724526865 -0.6725084163727103 -0.07419789970516007 -0.5704231906543975 -0.0007175127079902052 0.005778110518030403 0.4649539366705006 -0.13008085233270925
82918000.0 0.721093469091661 -0.6797233916067282 -0.08392337270725618 -0.5996373926411185 0.0026076777453926934 -0.0016492136419165584 0.47036367412775465 -0.1511563648743889
83917000.0 0.7135155524787148 -0.6878425933213169 -0.10980180995122649 -0.6279058149566977 0.0025066351021898223 -0.002497467507250058 0.4699180387022435 -0.15566501032421112
84916000.0 0.7099495130801228 -0.6950701362497864 -0.12459901117960662 -0.6592391429656345 0.0010338094800430677 0.0027128130411572934 0.46253970400151784 -0.16426245544003135
85915000.0 0.7028093704799013 -0.7003097750493311 -0.14271569941594395 -0.69071258006657 -0.002725555986797058 -0.0020744448494319427 0.4651592785290923 -0.1738161503523029
86914000.0 0.6939430253399025 -0.7108430262611456 -0.15803836524985848 -0.7270879128318338 -0.00020587135838179426 -0.00038505466546976785 0.45872721698189395 -0.16577267961291578
87913000.0 0.6871796140693417 -0.7161575251133723 -0.178786044326416 -0.7566096746170464 0.0015389601824668893 -0.0004834679463030398 0.45731368277517886 -0.189832570352411
88912000.0 0.6819892486796666 -0.7225059577812102 -0.19012082936388836 -0.788976710189843 0.002041515387649197 2.076757165753617e-05 0.4570782291592991 -0.20054454839910085
89911000.0 0.6730516766002178 -0.7312647982055721 -0.2052234608837997 -0.8274505016663386 0.000486261508058125 0.000510811782289757 0.46622369545276376 -0.2039973261647529
90910000.0 0.6666741568833221 -0.7365008408528205 -0.22317321159240494 -0.8576618037388232 0.0021708351850298732 -0.0030340354125217976 0.4599411598158669 -0.21181310313631477
91909000.0 0.6575592054333935 -0.7410726104578446 -0.24256152684376178 -0.8894379316148053 0.00019073743265010903 -0.002134653113271682 0.4663019278088943 -0.21709251864518203
92908000.0 0.6492539825472898 -0.7507540396444654 -0.25957745050217573 -0.9218245211615876 -0.0017229929526612763 0.0011408401279669193 0.44905049688476006 -0.2263891083677616
93907000.0 0.6457792172281153 -0.7542756187536772 -0.2735018696746545 -0.9567518050761485 0.0005354187550523723 0.0022898752536097177 0.4603084230662125 -0.2511763521498325
94906000.0 0.6315779085436561 -0.7636001221507374 -0.2912774827406847 -0.98389522242221 0.00601598193550066 0.001406508252991693 0.4505014663646829 -0.2543410583552535
95905000.0 0.6251560250537828 -0.7705095206621096 -0.3142048361431955 -1.0196040551357315 0.0014923164403544973 0.00022797181183716993 0.46206893614221084 -0.27026563049970936
96904000.0 0.6151186138681404 -0.7792232563270541 -0.3347429566738485 -1.0581914375094186 -0.000729095745511635 -0.0033074427782619053 0.4594274137467901 -0.27208316009987776
97903000.0 0.6063608190939316 -0.7849076299086004 -0.3547343153933841 -1.0890660655728774 0.001977463688727893 -0.00032392256970250667 0.44489604901696284 -0.2957869436775331
98902000.0 0.602807609534888 -0.7905881081440791 -0.36980009908337835 -1.128443355564613 0.00011799409644315745 -0.0030074742928127523 0.45116546068541163 -0.2874903833687664
99901000.0 0.5904633390004868 -0.7942545461150327 -0.40055689273545475 -1.1552851284904162 -0.0032954365591974723 0.0009441564885148667 0.44489876794260447 -0.3194311404671632
100900000.0 0.5843784448226123 -0.7988578058132155 -0.43089720962364875 -1.185419175260192 0.0011647325336720331 -0.0002592787676053066 0.46595530843192656 -0.307741413830034
101899000.0 0.5771794895607603 -0.808042222554849 -0.4515205053487516 -1.2280656930920302 0.0003580225717315166 0.000583663761366723 0.44321535915398497 -0.32403036853357436
102898000.0 0.5658881501168405 -0.8135015813268835 -0.4900559033832629 -1.2598919966363047 0.0025152699003996807 -0.003991906614369051 0.44337372183490503 -0.3363050430728987
103897000.0 0.5582997461593852 -0.820475646157987 -0.5276647383489654 -1.2981816623951818 -0.0013958623195578091 0.00045224151370113386 0.4604174012214204 -0.3297195624974557
104896000.0 0.549871743316033 -0.8304402181081952 -0.5753962679659875 -1.3262980904136195 -0.0003476949309413221 0.0015317894240115739 0.44414951013551496 -0.3352641598969119
105895000.0 0.5397343432310889 -0.8328414214998585 -0.6142979126674935 -1.371832292466306 -0.0002952314624570412 0.0005522261792023959 0.4338783745302741 -0.35948120592454785
106894000.0 0.5296927368227342 -0.8387755833059529 -0.6673469656309224 -1.3996031287076347 0.0015413635081390435 0.004992896044439269 0.43644483473275675 -0.36836463513765355
107893000.0 0.5236322566905104 -0.8456861056693573 -0.7175373696767742 -1.4455702939111386 -0.002536613096587976 0.0012542519328740769 0.43990086383006655 -0.3705119831605466
108892000.0 0.5124005056235625 -0.8481120078413684 -0.7769154950400792 -1.477176991147516 -0.0004197186171745677 0.00014862593426138198 0.4314358902137576 -0.35708157892204756
109891000.0 0.5013034810114658 -0.857246282076386 -0.835376310811982 -1.5154266254207633 7.079307905217961e-05 0.0017580847302261378 0.43886097388818807 -0.37913680074599865
110890000.0 0.4939770726016405 -0.8620653696987912 -0.8907497743974732 -1.5259578304824974 6.378813112288861e-06 -0.0021566655008153856 0.4269813977302198 -0.3837879439551845
111889000.0 0.4798475685445255 -0.8623134423942996 -0.9580781193495937 -1.5788939741868502 -0.0019293777452444965 -0.000486844290717539 0.42137472726770303 -0.3996349615512497
