! Created with skrf 1.9.0 (http://scikit-rf.org).
# Hz S RI R 50.0 
!freq ReS11 ImS11 ReS21 ImS21 ReS12 ImS12 ReS22 ImS22
1000000.0 0.9842262446020054 0.008344195741329365 0.00014148025438547341 -0.04135769578180859 -0.0009063790014328299 0.0037986902713938956 0.3353980235122771 0.29397544439809603
1999000.0 0.9961969383058219 -0.007917597086814818 0.0038441206414391187 -0.02330938040862866 -1.733549718231979e-05 -0.007313489400561481 0.24330215946568828 -0.06099670681088273
2998000.0 1.0017420379834576 -0.019081970567759874 0.010163892793993568 -0.015437062772179351 -0.007684031884395221 -0.0016256985981717583 0.19298731616803783 -0.15599504968830838
3997000.0 0.9995353366120998 -0.030680228702312663 0.013331481095757693 -0.008970287502853813 0.001546429206979072 -0.004359254437206216 0.09278988033161835 -0.21426348560238617
4996000.0 0.9983800005193101 -0.034503989195778566 0.008363472464283924 -0.0005456158132611146 -0.007689745699741669 -0.006648817190162812 -0.04127629631940124 -0.19750920732148916
5995000.0 0.998906251746295 -0.046416585298871264 0.01095305731938341 0.0021616535148819495 -0.0009782524965816753 0.0015676054780564912 -0.10495646153232593 -0.10022143257119898
6994000.0 0.9962905751748176 -0.05784444969676227 0.010513986902657384 0.004443351951134297 -0.0005493018325585541 0.002934664730035071 -0.13921283020314945 -0.019106139545158777
7993000.0 0.9974869758319976 -0.06704580576759184 0.004960028083177946 0.007839315827129692 -0.0013422805624930569 -0.007315743494611695 -0.15217394655012628 0.039280573094206635
8992000.0 0.9950185840114533 -0.07153843735875595 0.0003097800587968202 0.005334971009131712 -0.0011462064747823073 0.00204412403321499 -0.14147758749908337 0.05872856621482606
9991000.0 0.9967555889626837 -0.08106865556855884 0.000831835054925679 0.00669463396063002 0.004149776161780956 0.0016044395096464449 -0.14349506986278399 0.07385682709888604
10990000.0 0.9953291443825817 -0.0907814627092877 0.0055371944265512636 -0.0019428657899787161 0.0050426238569931964 -0.0030482567265378182 -0.14615813352323037 0.1151125246747962
11989000.0 0.9950462729860043 -0.09797690823179755 0.0029405183633048485 0.000844427243198593 0.002025933736934928 0.002206166351558485 -0.1252737283204386 0.12997946629639984
12988000.0 0.9913257174963735 -0.10793226825792324 0.0010467446310910517 -0.002366905436763805 -0.0005642977948476992 0.002096570704443335 -0.10212064041880856 0.1681379520109972
13987000.0 0.9878595710195556 -0.11703114449606877 0.004751099411708742 -0.004998306253378323 -0.0017793238923328142 0.0004394613468299616 -0.09687120539880989 0.18695111808125564
14986000.0 0.9899277919892538 -0.12329427209437081 -0.001889650271181122 -0.0007255231070538778 0.0021161221196269787 0.003114923995834477 -0.08509735206821399 0.2043631857393558
15985000.0 0.990246907782831 -0.13217218826796046 -0.00028159439137716654 -0.0006122076703782166 -0.002301388657241981 -0.001280644304566241 -0.061738640504059174 0.20937324346570776
16984000.0 0.9876975283339117 -0.14097839373847987 0.0011368557462114628 -0.006939393370512006 -0.0035765817378456783 -0.0011410403494218717 -0.06646781299377252 0.2203152681968839
17983000.0 0.9883512127140888 -0.14437253494550087 0.0009212591295340128 -0.004940142743187815 -0.0032646113570020518 0.006694259545120224 -0.050994675143821715 0.22251432227851334
18982000.0 0.9833549352693802 -0.1606998794565608 -0.004133081746230548 -0.004606768708701994 0.0021226206480447073 -0.0017016455579803532 -0.01964157712279542 0.23062011973045474
19981000.0 0.9851262896808575 -0.16395014756207807 -0.0034054717942596964 -0.0034623603816618573 0.0006006933645184168 0.003119666807390261 -0.012694265362710965 0.23675558424659698
20980000.0 0.9825742289920671 -0.17346194332372988 -0.0026333017927342205 -0.00726271402419803 0.00013828665870009655 -0.0027676434468804183 -0.0009503676940900505 0.2623249886638826
21979000.0 0.9826175614929245 -0.18100454327363924 -0.008767811053559376 -0.008263240716939207 0.001837593824169744 -0.0027522572458753224 0.013383225176592023 0.2500865249546097
22978000.0 0.9800730158126696 -0.19054152430863655 -0.007693821062814451 -0.0014015974415975234 -0.004598280589340973 -0.0031490905636691407 0.03599116288080251 0.25867050959662474
23977000.0 0.9820637762987596 -0.19897738714441854 -0.0067109083796295915 -0.005882863789475099 0.0021701548588385455 -0.0011233588968176877 0.04292515744399798 0.24966708427355414
24976000.0 0.975821997215188 -0.2101932064243788 -0.009109406992632766 5.263760046065871e-05 -0.002314836129695576 0.00166221271973716 0.06540411843113575 0.25389183456110986
25975000.0 0.9764838719647659 -0.21966495012791354 -0.0005559304009924643 -0.0024565985413226065 0.016560167445614397 0.01945858788230053 0.08346406972318438 0.2598685279183561
26974000.0 0.970807730689691 -0.2236913827265871 -0.0034876443921238462 -0.0039814478966937504 -0.0036577623358294248 0.00025893095566901803 0.10042435290828614 0.2751902389910515
27973000.0 0.9721072530255906 -0.2311714753857845 -0.0040849509289819265 -0.00016417553783613657 -0.00015017742147499844 -0.0021122197280858636 0.1019000477220355 0.25739071035149436
28972000.0 0.968358341969352 -0.2386765203960535 -0.003465165768442135 -0.00035270780855096924 -0.001230774577244551 0.0020209996581168677 0.12004343917256237 0.25689935340639397
29971000.0 0.9660647971171871 -0.24984447126948453 -0.0008404395222128187 -0.002071844342118077 0.00024798286530944573 -0.0030231371836449824 0.1475116031390586 0.27140779901164386
30970000.0 0.9668028836239573 -0.25464676709787826 0.0007280316442754758 -0.0006947746715544164 0.0018485423841998383 -0.0005617802490767877 0.173211262588875 0.25378356752628367
31969000.0 0.9640419064009165 -0.26478255016689956 0.0054805066719179635 -0.005765997838393862 -0.00042094552354903696 -0.0008203699393255626 0.14881628224627957 0.2463156336479592
32968000.0 0.9611071711888953 -0.27294281785252994 0.00704147863876125 -0.008098581657837934 -0.0004518030479625869 0.0009455518117166908 0.16805369311046642 0.24112943621410715
33967000.0 0.9587240085201395 -0.283275632021315 0.01392356461599284 -0.008265155880191988 0.0010186602976507634 0.0008890672619808123 0.1904624794020597 0.23599402295189592
34966000.0 0.9549304039901063 -0.28944842507136276 0.013482456432622848 -0.011917344955250174 -0.0005784199555404039 0.0009260339980009573 0.20268938670083805 0.23903159817864691
35965000.0 0.9524758194163188 -0.296025364508199 0.01713935345961837 -0.01618966788776928 -0.003242207635315974 0.0013452565975303006 0.20747100874060442 0.24222735117479205
36964000.0 0.9518349419588608 -0.3063177657583251 0.015711088196195308 -0.015803250347361218 0.0001925877891320083 0.0016198267322606592 0.21395673618601696 0.25042273345211125
37963000.0 0.9472630750710951 -0.31598891940201485 0.018128868712656423 -0.02249853812960449 -0.0004539274233946176 0.0020762474949933894 0.22938449708776956 0.2383330741961573
38962000.0 0.9458930832039704 -0.3249439202891584 0.02329029551419063 -0.025164745946694392 0.0013791065833086205 0.0008077524745086348 0.23787365460046928 0.23040107029268905
39961000.0 0.9413266351577885 -0.3331224328809391 0.024544911752452683 -0.030341343025553604 -0.0011716724621381601 0.003244678993778445 0.24710446989290416 0.2166111194651531
40960000.0 0.9397446313616042 -0.3403927194125084 0.022514520776413385 -0.023102267081142706 0.0014395474939357014 -0.0015135641195877503 0.2721932603069808 0.22274123610022503
41959000.0 0.9365438544178891 -0.3494054037662894 0.03160753493949447 -0.031952459448509385 -0.0019999577741616516 0.004411849776598289 0.2694206329406546 0.21356756327648882
42958000.0 0.9304961532756114 -0.35850465033147016 0.03100755349879011 -0.043354071804614494 0.00231881162272445 0.0012876512035555293 0.2889911317447636 0.20085020472202833
43957000.0 0.9309959962900279 -0.3629104613950088 0.030268710846735315 -0.04588429314794691 -0.003415388125208546 0.0004938006812403716 0.28296411350136397 0.20315624083790093
44956000.0 0.9257154302310758 -0.37069994219866587 0.03253140685283327 -0.048506831580051 -0.0006942508137499057 0.0002015447853743526 0.30536844026047155 0.19799111337099656
45955000.0 0.9211931741366618 -0.3824255340651589 0.034730357515283514 -0.05640546436295503 0.002108882058074352 0.0010458787875600522 0.30490533596759056 0.18995794763970983
46954000.0 0.9205222312925236 -0.39100027301938517 0.03544904565232499 -0.06433913597142395 -0.0011128415825061506 -0.0008910883509895114 0.3328416403818143 0.1763458090597648
47953000.0 0.9144874283227198 -0.398117030396463 0.033593470622287416 -0.07057492254079713 0.0004857304419508962 -0.004273751285856745 0.3432625945871479 0.1567319609853056
48952000.0 0.9109191968335241 -0.4065781409399272 0.0368470809506806 -0.0770691608729068 -3.784870143952458e-05 0.0017983837103136755 0.3350390596251305 0.15808580320037685
49951000.0 0.9071758513674573 -0.41582040919696245 0.037806337543346634 -0.08548634291206134 -9.650080712723042e-06 0.0006796310831684554 0.3571732617239806 0.1502760120127389
50950000.0 0.9045144978688618 -0.42353963179145426 0.037837538479655916 -0.09422135284318815 0.00243068820415033 -0.0009818912453039002 0.349722425205743 0.13193489308448128
51949000.0 0.8992881559157178 -0.4316642370439179 0.034474578471113286 -0.09992472892932487 0.0009643436650412495 0.0010407498090601844 0.3601342415903666 0.1419755537975867
52948000.0 0.8977179955474374 -0.4388888051435026 0.03551823790753965 -0.11092301145471763 0.0006790182393564868 0.0008342891709390797 0.3779650233065628 0.13674428617265671
53947000.0 0.8932901044833594 -0.44536252588774095 0.04059320520045188 -0.12015107957981071 0.000867906933586326 -0.0007951965340849901 0.37236766995157883 0.12989878125229698
54946000.0 0.8871805734077246 -0.455742660777923 0.03732493112060814 -0.13200401808373813 0.0001832107391003989 0.0030758929319568795 0.37870282735942523 0.11534622862728257
55945000.0 0.8846916687846911 -0.4638722159894453 0.04184308323837884 -0.14072234738855835 0.0004439279226736891 -0.004233904456913337 0.3834524828603866 0.1004814512566619
56944000.0 0.8816787115376712 -0.4711014000894839 0.04450530515993503 -0.1483673724463066 6.374857433328449e-06 -0.0040508950940617685 0.3964573874586102 0.09789752148437364
57943000.0 0.8756853324651223 -0.4804884647787586 0.04378584406023707 -0.16019807415928133 -0.0012364037399762062 -0.0017407315942938617 0.4052863824195028 0.08156832613749336
58942000.0 0.8705787185928942 -0.486820501348448 0.04362966659701275 -0.16981748626579513 -0.0025366563630878935 0.0012914374292646547 0.41814491029000433 0.08814897824691008
59941000.0 0.8677051745456468 -0.4938810485194876 0.04640790855015885 -0.1786214160600293 -0.0011066571552121216 0.0023012082326555787 0.42431892256166 0.08786260407973352
60940000.0 0.8600932235990384 -0.5036111300120506 0.04755223015958639 -0.18022671003791232 0.0007804542321337865 0.0008926358433686504 0.42079905272260815 0.07089678076306194
61939000.0 0.8579030216462178 -0.5090913592021469 0.048205012321806 -0.19136179152405147 -9.581589352747794e-05 0.000625446669288734 0.421241845294842 0.06151999407149222
62938000.0 0.8523127726015749 -0.5198511342896311 0.051839648439961854 -0.20620455214332964 -0.0025874667293885067 0.002075118963314524 0.44777032646017967 0.03861835173313502
63937000.0 0.8479617732346125 -0.5260955949690241 0.05085871862738389 -0.2262348347488304 0.001914230001467965 0.0008683802591491562 0.441344526133181 0.03684636037002716
64936000.0 0.8414320259907594 -0.5334567016423039 0.05230430098659002 -0.24146334761024124 0.0021322615950565642 0.0005970311473179904 0.4442989244396928 0.03289412863646337
65935000.0 0.8403460821180222 -0.540385529148302 0.0501536444560961 -0.2547600443498382 0.0009906676434986643 0.0033573136802397246 0.44684228706832463 0.014381210424390894
66934000.0 0.8344123304697532 -0.548819196009975 0.05188415557318108 -0.2652483057094766 0.0015264335688714521 -0.004601159984506337 0.43864934922897436 0.002591606499311531
67933000.0 0.8317071462433566 -0.556955845873559 0.05406311772238297 -0.2802666465363757 -2.8924355180973557e-05 -0.0006639118268024187 0.45036519379319995 0.0031560989803008296
68932000.0 0.8160089552527241 -0.561998037953299 0.04749567069707939 -0.29171095446390866 0.001565356098292025 -0.0003864356749886947 0.4602219663594766 -0.019932070132748538
69931000.0 0.8178920258468839 -0.5709924427985716 0.05183747144561143 -0.31013639265067783 0.0006345770855186454 0.0031056633362292613 0.4440051053550592 -0.024828588285538626
70930000.0 0.812872558308111 -0.5776207860384066 0.0486807039727642 -0.32275263238326357 0.0037829948526321446 -0.00429894619121462 0.45303642433912333 -0.040283687505264135
71929000.0 0.8081284136909833 -0.5880921495508121 0.04108588790559593 -0.33700751846955695 0.0024883197832966104 -0.0004717096419098405 0.4484802592103934 -0.04840195026100019
72928000.0 0.8019424565414018 -0.5961991411477727 0.0377519826030149 -0.35113180146325634 0.0021870743331412856 0.0011859071166894146 0.4694109121754422 -0.056839508027949355
73927000.0 0.7970018397007932 -0.6015620985896228 0.03497034627263338 -0.37383162227647637 -0.0027587767067136274 -0.002485959103805674 0.4622617204296448 -0.058865348407317566
74926000.0 0.7922045300286248 -0.6111690078620854 0.028589868650965338 -0.39205714282902454 0.0014172701392812135 -0.0005407176927258898 0.4599403739517411 -0.0724977843739557
75925000.0 0.7861401746790928 -0.61583219239946 0.019872072865863136 -0.40664606716132634 0.0014492150509017852 6.747893235185206e-05 0.4807946565008329 -0.08820882410646949
76924000.0 0.7796446431175733 -0.6237910168783065 0.005354083051828722 -0.43034982324007537 0.0012349013322332917 0.00031765909949573476 0.45691514784089454 -0.08986031517601897
77923000.0 0.7715832813451869 -0.6322362645827856 -0.00620871412060338 -0.45657993890539983 0.002683930827868683 0.0037515828854652973 0.45671953853206415 -0.09850392087657432
78922000.0 0.7662644605594102 -0.6406572357888392 -0.024736534480219178 -0.4793783052401401 -0.002311609374663531 0.0011886827894218366 0.45554671348398995 -0.1114307028513039
79921000.0 0.757883973883476 -0.6441015912226818 -0.04312640770763176 -0.502598253869823 -0.003499924656738804 -0.000762825819499945 0.45651784835465486 -0.12214348850281097
80920000.0 0.7538211543708188 -0.6542053298782013 -0.05430988413950316 -0.5313123508319694 -0.0029201905681516638 -0.0007041469699764828 0.46872895141489207 -0.13035480281714107
81919000.0 0.7488864464663538 -0.6603969702413821 -0.07005686819192393 -0.5617776056271194 0.0028599764907640546 -7.104761556114923e-05 0.47645931991569734 -0.137315427576333
82918000.0 0.7406098364210487 -0.6681461558778793 -0.08708010214123327 -0.5897207963028541 -0.0015373335459944958 0.0028422264840895404 0.4810203881156798 -0.14277982308800083
83917000.0 0.7336896015851572 -0.6770598892201585 -0.10589279890269929 -0.6137905235669189 0.00043808833007614106 0.0007199592387018157 0.4738417248748033 -0.15905644746652436
84916000.0 0.7280841627810221 -0.6836307659376207 -0.12280448202892404 -0.652995027493784 0.0014431645663714123 0.0014943807844287926 0.47349531931711186 -0.1782136449175154
85915000.0 0.7212469141786038 -0.6899218918050374 -0.1392663084346593 -0.6803266628443886 0.0043048031998091625 0.0013956138222706144 0.4651926471670016 -0.1793380584029992
86914000.0 0.7129017035087274 -0.6998856507682912 -0.15656119805875954 -0.7164567826766706 0.0014028566165826676 0.0018917550533328119 0.46467564433918834 -0.17115131925568125
87913000.0 0.7070843228322417 -0.7065689154533126 -0.17513636050355114 -0.7461195644396212 0.0008836283485358556 -0.0022728406686962897 0.4627060904588499 -0.19805277686083234
88912000.0 0.6989907495349913 -0.7124103996387974 -0.19444163838393075 -0.7802434941481875 0.0005759746912979511 -0.0013541311017801155 0.46342903172930644 -0.20930982191583242
89911000.0 0.6935178797940308 -0.7210946155879907 -0.20729046930831307 -0.8164033527074342 0.0037802023411705604 0.0010226828334873002 0.4670852419671605 -0.2138116632961802
90910000.0 0.6845415352012252 -0.7263758386347592 -0.22268254823596045 -0.8499862902289301 -0.0002517477472188862 0.0008869342882345996 0.45511930532135775 -0.2198287611319428
91909000.0 0.676871892265336 -0.7309601539831999 -0.23874982631117958 -0.8789491614014895 0.003738903708164974 -0.0019404654886058155 0.46733641293851863 -0.24134106798213678
92908000.0 0.6683351552640285 -0.7412501568783691 -0.2606301370061383 -0.9110749096694308 -8.663488973230813e-05 -0.00040028323717846445 0.45600839651529873 -0.24148622005726553
93907000.0 0.6638297897507445 -0.7456463701296229 -0.27445539859431445 -0.9430912426941711 -0.002296075305919684 -0.003689205136007732 0.46248917124179995 -0.2696692200012323
94906000.0 0.6499258026701538 -0.7549158914657687 -0.29020106010018976 -0.9768941210744009 0.00326950526071473 -0.0007513111556197641 0.4700481443363242 -0.2578426919169479
95905000.0 0.6444572272857578 -0.7607565619671992 -0.31309369675562654 -1.012039787077512 -0.0002729922061929844 -0.00019905524925981506 0.4567192788720912 -0.28274860128134494
96904000.0 0.6377596420458894 -0.7681195144913967 -0.32788650752921084 -1.046713266042471 -0.00168401423614401 0.0028875093149398332 0.45540853430220124 -0.28231865089242825
97903000.0 0.6261475980185749 -0.774806783354127 -0.3532042658843803 -1.078304767353403 -0.002883964660230378 -0.002396709481652352 0.4547965784042052 -0.2924872216898161
98902000.0 0.622378372364558 -0.7798891712864358 -0.3699930259101142 -1.1159671252424408 8.394315506853075e-05 0.003199208679660822 0.447657070444058 -0.3069439636504418
99901000.0 0.6137922287156615 -0.7860890520146309 -0.3948265402709113 -1.148559769573052 0.00045989558898042984 -0.0012160730087788084 0.4555752897552473 -0.31476251798208515
100900000.0 0.6053789463222963 -0.7901301774205984 -0.4274813295024436 -1.1717474133288384 -5.75049819663409e-05 0.0031130399661111084 0.45798562545283894 -0.3282571039041987
101899000.0 0.5940790384543405 -0.7992804699910827 -0.4549144880771976 -1.2097115579911855 -0.004018983634277353 0.0012230694205607466 0.44322885801816114 -0.3301544943142781
102898000.0 0.5873327888770271 -0.804069221215396 -0.48822557390494875 -1.2506059819388293 -0.0026628023146736267 0.0013891985506286628 0.4535458577258057 -0.34248555155183297
103897000.0 0.5793088510392888 -0.8105744920212695 -0.5233196787023894 -1.2823835323146613 -0.0023566943234608656 0.001135570851143747 0.4550922313376369 -0.33976769899761045
104896000.0 0.5699222745389088 -0.8227081474577705 -0.5699927354667075 -1.3163824027827855 -0.0007422916668180946 -0.0008356009839944031 0.4374904510502194 -0.339991050871748
105895000.0 0.5597743426492208 -0.8245057530767342 -0.6084156435588332 -1.3558441392788814 0.0025869473084864513 0.0014522701454325597 0.43018732825256567 -0.37233507495254775
106894000.0 0.5492016709131337 -0.8308550132942703 -0.658544127485699 -1.3850849738420743 0.0017265356094220562 -0.00015122861732360434 0.42686437288094947 -0.3818325219542643
107893000.0 0.5429147685460791 -0.8369340635340142 -0.7067607999283817 -1.4282992356553281 -0.0009088908609559858 -0.0014740137519272632 0.4401197399033602 -0.3831253563683806
108892000.0 0.5340232724652135 -0.8407902220325497 -0.7678241520261272 -1.4645555000567096 0.0017299709453200383 -0.0008427006311078052 0.4150730109724523 -0.3770642731793381
109891000.0 0.523041840511979 -0.8494653310935306 -0.8216246381929718 -1.5034422852621476 0.0007728702303922815 -0.0006553157479699248 0.44151231475471786 -0.39039871058307934
110890000.0 0.5193358956114014 -0.8587732034090861 -0.8834460789601687 -1.5266136507872263 0.0025249829797217523 -4.436840953270461e-05 0.4272048109628335 -0.4026213539334566
111889000.0 0.5034470163095102 -0.8559315327022669 -0.9392536387599403 -1.5686418925542605 0.00048706139505350613 0.0005936998659840949 0.4196246874454757 -0.40658983793411124
