! Created with skrf 1.9.0 (http://scikit-rf.org).
# Hz S RI R 50.0 
!freq ReS11 ImS11 ReS21 ImS21 ReS12 ImS12 ReS22 ImS22
1000000.0 0.9849280645205641 0.0027869643054096176 -0.0011502667541614965 -0.03374883888157148 -0.0024190150014135976 -0.004321101999887988 0.3180634964327708 0.2961332701098625
1999000.0 0.9924012214284834 -0.010489075424657482 -0.0030381341058205364 -0.02198690989654185 -0.004955259113244903 0.0008154937446506506 0.23376114552135227 -0.048761478559464944
2998000.0 0.9986399384919499 -0.021967124714773776 0.009110692311001312 -0.012613406787888892 -0.007803983858134499 -0.007491967050386447 0.17771326164010096 -0.13699418261458046
3997000.0 0.9978623265232184 -0.034279672266081945 0.012691743512448062 -0.007739099270737683 -0.001223189580634661 -0.009544906683484485 0.09425658343050339 -0.2232220217247809
4996000.0 0.9960223775659595 -0.03991612747816794 0.012668900156930531 -0.001170273881544636 -0.0007327450930098993 0.0026831132064849433 -0.03775821421377489 -0.19290284227565618
5995000.0 0.9952412706631202 -0.05188716911788271 0.009188354343083223 0.0019980442167388764 -0.0026361771696610426 -0.005185243469795598 -0.11575738857989636 -0.10141723720434746
6994000.0 0.991229823847903 -0.061959914987151817 0.008190975822508549 0.009087430679217332 -0.0004320595244563929 0.002188360940396149 -0.13206293004505187 -0.01921363549450573
7993000.0 0.9908696247504588 -0.06756507561399601 0.005279230666109569 0.007948786990736909 0.0004951228789580766 -0.004908395162332925 -0.16547278464707538 0.0279097639436922
8992000.0 0.9931466391929168 -0.07375933778596731 0.004835816865750595 0.004121015404208298 -0.0029284215671406704 -0.003046954887179228 -0.15572543702517233 0.07238614472728251
9991000.0 0.9909962099080563 -0.08586609248607775 -0.0007825546397322298 0.004918831669455924 0.002658309893938915 -0.003098379675602471 -0.14403888811906226 0.09176590914922746
10990000.0 0.9885539914279465 -0.09131052580001682 0.004790312384365449 0.0016236829166727735 -0.0033116264220221844 0.004214811703524198 -0.12333602250628221 0.11254771874333948
11989000.0 0.9888594089488232 -0.1006420837094712 0.001026001059739384 0.002928126589888774 -0.006281318318201975 0.0002620779595546045 -0.12032377781113235 0.13697560009818266
12988000.0 0.9882406701896481 -0.11096241216337606 0.007882861577495152 -0.004797742034931707 -0.001703512902039329 0.0023652044839898184 -0.1135621547960078 0.16801020470818898
13987000.0 0.9838409282688563 -0.11760253662262214 -0.00426975779197788 -0.0013015796951566904 -0.0021622989014990486 0.0022760513046449567 -0.10301203211698498 0.1875318874221908
14986000.0 0.9838339232828965 -0.1243635104151686 0.0006363243098273969 -0.002693110527001572 -2.2991087334952598e-05 0.00172197898662742 -0.09428049424200731 0.20573853756708496
15985000.0 0.986565844049797 -0.13512292654953786 -0.004761702174463573 -0.0016048374460389686 -6.809916360184888e-05 -0.0018895824183892398 -0.07248080333317046 0.2122110846135712
16984000.0 0.9827874441288539 -0.1460234301702128 -0.0008610065324159765 -0.008403597285236663 -0.000425893062729665 0.0033442121693947205 -0.05983470120385371 0.21564299227448952
17983000.0 0.9826061017680385 -0.151351282165759 -0.00017765011015116858 -0.005281255876625206 0.004571001279792173 -0.0016265924253599363 -0.05657037969969545 0.23206613104510165
18982000.0 0.9806380879567671 -0.15864350238977915 0.00011338374602337107 -0.0067280847683027865 0.0012286164990230213 -5.460467521031639e-05 -0.02781514947770628 0.243936815671954
19981000.0 0.9805038295528471 -0.16729139208040963 -0.009215740950684167 -0.004785467489376858 -0.000201234754599586 0.0010160832944154942 -0.013291097191907002 0.24001056171351895
20980000.0 0.977735441956864 -0.1763802208849279 -0.006994604129324136 -0.0034984212650339495 -0.0010143835779035154 -0.0011917336623086816 -0.014652745483615778 0.2625841416456243
21979000.0 0.9774641637323298 -0.18390340713825082 -0.003203795525499377 -0.003956562800877824 0.0017377660650099997 0.003217446756824371 0.008225442473317681 0.2501788226165599
22978000.0 0.9742380173111606 -0.19490320219949883 -0.005068719838918774 0.0009522967811303567 0.0007428240402439312 0.0010916646937483517 0.021617006845466538 0.25492749989487806
23977000.0 0.9749229745967356 -0.2023722622309013 -0.00553796038866757 -0.0021696923703716474 0.0033102551355494343 5.3261404654817254e-05 0.031797145765473614 0.26519808008771334
24976000.0 0.9712730900133506 -0.21313204035507577 -0.0021686790913001915 -0.0026734595460297084 0.0038120902371230865 -0.0011631776497297603 0.06778970160875165 0.25418098303690306
25975000.0 0.9651793011178565 -0.22807812084820023 -0.007322071461183191 -0.004065696221500896 0.016436252710844312 -0.02111927744964924 0.07740722451795677 0.2666590942031916
26974000.0 0.9683362437653303 -0.2278163539925321 -0.0017588695568256023 0.0011265644027183312 0.0018360849606125142 -0.0020153041503486622 0.07319558597289288 0.27872685949525
27973000.0 0.9684197133962855 -0.2345158577377151 -0.00034251815270260516 -0.0007600249177534871 -0.0007258809246081665 0.002270843911876374 0.10614721613052 0.26460511921869667
28972000.0 0.9635468450696745 -0.24659768732345516 -0.0011844794793669066 -0.00023317213994751104 0.0015179122781855963 -0.0038684839810749394 0.11817443778323898 0.25599376309710237
29971000.0 0.9637793292567987 -0.2532842701201858 -1.6228491863166493e-05 -0.003384818669276221 0.0011813240112838895 0.0020765545444471575 0.14834736553067382 0.26705069313729307
30970000.0 0.9607600369817154 -0.2585561045747957 0.0027224903242689252 0.001278313319363482 0.0013267347943022236 0.0032804982130901755 0.16333792664426894 0.25465555652989674
31969000.0 0.9585382828169293 -0.26905015648271313 0.005455612427587409 -0.005007861202874318 -0.002041558070126962 -0.0009016229846135656 0.14986438337682076 0.2574938511519941
32968000.0 0.9564976675868765 -0.2780493911319807 0.006721344382762674 -0.007271393495108393 -0.0004656817113610401 -9.43221865211591e-06 0.15802857922777586 0.2582526024733353
33967000.0 0.9534106539078294 -0.28940749291448076 0.00826416761007872 -0.011447792288582363 0.001000439509821241 0.0033543465116157327 0.17405756111484752 0.24521958956769974
34966000.0 0.9517858977974781 -0.29568177907819837 0.013405930957639445 -0.010335517955526192 -9.363946035576078e-05 -0.0006122085104556141 0.18710587367111833 0.2582894408115971
35965000.0 0.9481266058783208 -0.30493624469822467 0.014585822328421934 -0.014340909875377787 0.0030813148010666617 -0.0010669192595634956 0.21162709921823067 0.2559778006575515
36964000.0 0.9459038723022861 -0.3136779628353582 0.014817693883240071 -0.012002526602036332 -0.001796697597848374 0.003991999556010231 0.21595746786188386 0.25730149039537914
37963000.0 0.9414233573270436 -0.32188297827017415 0.02044617482872605 -0.019658887371190908 -0.0015057037264333687 0.0022859537644503375 0.23015011110285827 0.23996374098672077
38962000.0 0.9390709573504188 -0.333830042553045 0.023827221148347223 -0.024965243686929133 -0.0021219996280693724 0.0011204907422524505 0.23783461957374016 0.24168913644848478
39961000.0 0.9372226037880634 -0.3395944127245364 0.025423573564690827 -0.023006562481621494 0.002532245413806066 -0.0009568528582588569 0.24914814696486273 0.22716027335116315
40960000.0 0.9333969695516136 -0.3474252643157434 0.024809344343842098 -0.02165644344020204 -0.0017970976365985286 -0.003101171677903689 0.26683335110234047 0.230304809371179
41959000.0 0.9291748684830371 -0.3589063834421602 0.028879605562038793 -0.03340469799565711 0.0030046411757554954 0.0006788461700994075 0.26109739970587204 0.2228881318326126
42958000.0 0.9250409061053718 -0.3660238003801839 0.03295420961912131 -0.04037870427179422 -0.006259332917129267 -0.0013065246364776363 0.2759676275812581 0.2019729133997231
43957000.0 0.9247858548299579 -0.37100429975193555 0.03397950928441839 -0.04744863837972723 0.0018789238366476615 0.00234369377892617 0.2939207760766739 0.22103106751876694
44956000.0 0.9207508086309986 -0.3778915973627386 0.033063372960912635 -0.050327828434550914 -0.00034992768618946895 0.0003536576996505018 0.2951272572043851 0.1995721279312738
45955000.0 0.9163267590429353 -0.39174360507591016 0.03399386588931705 -0.05793415662973896 -0.0029401477762977146 -0.0008434269018193598 0.3055658033667117 0.19173493903265532
46954000.0 0.9133169281635678 -0.39839994959696523 0.03648837730205673 -0.06318652620790885 0.0019483661338544577 -0.00038329207850545824 0.3229424519663267 0.1803056658898349
47953000.0 0.9089200918798946 -0.40756745373624215 0.035361422822012156 -0.0732167236945418 -0.001994883166678778 0.004555739767216916 0.3254211494981342 0.1801059912837799
48952000.0 0.9035304253815557 -0.4187224677275212 0.036592648778333334 -0.08082537242893187 0.0012661308057466852 -0.0005946122635703454 0.3373947304580179 0.16952963268750826
49951000.0 0.9003454535815257 -0.42109316734551355 0.03671680372331976 -0.08433716589525174 0.0006268783806236464 0.001487537530953648 0.35246551823936273 0.16425878118766576
50950000.0 0.8973055354942105 -0.43284164527971214 0.03961512102683894 -0.09717559555993935 0.0006154538676369023 0.0014532471645287248 0.3471476418929996 0.15566953102688297
51949000.0 0.8919444638299558 -0.44054379982028175 0.04260877788374396 -0.10375201304391049 0.0016136091806697405 -0.0017190061364225344 0.35669448115614366 0.15591189684802584
52948000.0 0.8920333819006044 -0.4475431136683598 0.04265684349774162 -0.11166310884557701 -0.0006012305849231225 0.0019918481158845923 0.36824070301972156 0.14627459087805111
53947000.0 0.8842656548806216 -0.45787763025457506 0.04285792838406356 -0.1233270502997476 0.0009415251047308345 0.003099646566136467 0.3685651298246304 0.13943358947668727
54946000.0 0.8784443285697437 -0.4650200737082778 0.045129713513851984 -0.13287199316905593 -0.0009421102280031008 0.001137630516000668 0.380843891923018 0.1279386244139299
55945000.0 0.8774027688008477 -0.4743341798780751 0.045966403176865504 -0.14182292704052418 0.0025397527824223766 0.0013652312268175658 0.3839938982351028 0.11508240724024457
56944000.0 0.8724490087075643 -0.4811838571338285 0.05055304637892728 -0.15009974462143505 0.0041275530435514645 -0.0018735883247578814 0.3960770865941943 0.11510743453967294
57943000.0 0.8654589378579503 -0.4932289216811892 0.05035431035846193 -0.1636603293688904 -0.0006982270501168073 0.001767647490289334 0.3953798397113033 0.10750639732180656
58942000.0 0.8606739465660836 -0.4975052234855049 0.05398300442906582 -0.17458458671501176 0.0010717486103120756 0.0008819009622118206 0.4185493364758874 0.10055095534446393
59941000.0 0.8582043853123739 -0.5039526068199375 0.05431597867265098 -0.18064901076305986 -0.0017260816050179229 -0.0015105712528109198 0.4143637746373868 0.0991446557313955
60940000.0 0.8514292161767887 -0.51081169651994 0.05306460771664554 -0.18661105364444122 0.0018439620914158777 0.00029571981425866983 0.4066913698242472 0.0818441925043396
61939000.0 0.8487495913251469 -0.5188041703633425 0.05703529647974232 -0.1952519231043779 -0.0005959861015058055 0.001698454859227325 0.4157713756313176 0.08362034411936954
62938000.0 0.8403609921498124 -0.5302868421005589 0.060292498281075094 -0.21406213772544308 -0.0005772961107464871 0.0008858860650619693 0.43343613571539324 0.06973211367158777
63937000.0 0.8354259140422837 -0.5388958267045817 0.060309841072671046 -0.23493875603526798 -0.0007076050409061447 -6.657569333099938e-05 0.4348888010575975 0.05181159421341369
64936000.0 0.8313726493372046 -0.5425333768378104 0.05685124432712362 -0.24452611006487157 0.0004761723869497119 0.0007819293253124696 0.44049246773710593 0.054422789703530414
65935000.0 0.8284607881280621 -0.5536921686092644 0.05855406721024773 -0.2621178862516402 0.002304319926946052 0.0012518773272087568 0.4448789953217097 0.029356697718165924
66934000.0 0.8215656987737828 -0.5603429263944945 0.05908202991380626 -0.27315586406098646 -0.001538659680900768 -0.0027704898576191082 0.4360294788172219 0.03019854931336585
67933000.0 0.8171314493802835 -0.5678210249987906 0.059732859937910124 -0.28989461651717163 0.0007863765360704184 -0.003194893847132153 0.4433373246651166 0.0170113913211667
68932000.0 0.8120912733129082 -0.5622755237408255 0.058115637249661484 -0.29987399584618163 -0.0030811299795383117 0.003985662895728921 0.45620574972496847 0.006847950590463873
69931000.0 0.8035725452780097 -0.5865000506184301 0.053440539234973126 -0.32170073329607957 -0.001800119243817196 -0.00022766299824575364 0.44720937588441884 0.0026677695606237427
70930000.0 0.8002896449771819 -0.5901722465749268 0.054978287811717 -0.3345891864089185 -0.002183719221686861 0.0008465821688030829 0.4510983157109145 -0.017214659990428222
71929000.0 0.7957920477963881 -0.5997930491044648 0.055263779855557055 -0.3567032192430096 0.00043127725325421115 0.0012178076266017976 0.44815648651102263 -0.01861217236073274
72928000.0 0.7869645683869595 -0.6091852757482952 0.045443242702742914 -0.370873280880545 -0.0019868378112799998 -0.0001288196696463332 0.4704200640478877 -0.040630074140607514
73927000.0 0.782380278916318 -0.6156382101298006 0.03749969983163792 -0.39102065177552087 5.815370532040467e-05 -0.0012150528864794928 0.4542575596213108 -0.04257790829645432
74926000.0 0.7762534278815609 -0.6262564079689135 0.032844559109775684 -0.4064575128032524 0.0010702914145676568 0.0008330344236337204 0.4589266797182048 -0.04585167889384482
75925000.0 0.7706586819997436 -0.6282551018363625 0.023209802268263344 -0.4304250005298346 0.0009580992230892258 5.5922071515474726e-05 0.47732659689976487 -0.06601499954176626
76924000.0 0.7629718323881824 -0.6377353723192868 0.007438590633146156 -0.453491945288064 -0.0005219395771477595 -0.0016611484033510727 0.46641001453280234 -0.06917997341363413
77923000.0 0.7578836731483786 -0.6444943085831881 -0.002163151517935185 -0.47958749332603584 -0.002024788555219462 0.0005332957418321316 0.4618037218290483 -0.07962279360735242
78922000.0 0.7520437856778305 -0.6531884898559965 -0.016519737879037207 -0.5023813883434058 0.0009828619292657284 -0.0006535395029545271 0.46460057224897966 -0.0902729611285717
79921000.0 0.7407270973536221 -0.6570862437397984 -0.029787898661818888 -0.5342347905300844 0.0017965169525233063 0.00023704092544449292 0.467789705370635 -0.10048259156318813
80920000.0 0.7398287142788851 -0.6680290774071529 -0.04757336166735129 -0.5638751271421337 0.00011155958854762293 7.506649124726078e-05 0.46222865529337476 -0.10838076779428404
81919000.0 0.7338758514672458 -0.6741044891099784 -0.06184477167236633 -0.5927626060631632 0.0025369536491981026 0.002822349854646023 0.48191616619498107 -0.11767596190357418
82918000.0 0.7251982055951014 -0.6807611889074208 -0.08189092098129716 -0.6199301099550134 0.001760316150632399 9.894730564307057e-05 0.4773305152218523 -0.13057150378256732
83917000.0 0.7142523365647732 -0.6890949008756067 -0.09623827058965953 -0.6492994873153 0.003055740280721248 -0.0038083332168519115 0.47037585784458574 -0.14280998474536044
84916000.0 0.7106801689286956 -0.6953021600221594 -0.11255052911662103 -0.68315970961816 -0.0009187284222941979 0.0008662044523533772 0.46502130289775595 -0.15232594556828954
85915000.0 0.7048549251463644 -0.7007999934766789 -0.13223330805493752 -0.7192150255117367 0.0022666133857335304 -0.0004064431080109249 0.4706245927369336 -0.17435712503707848
86914000.0 0.6959514375256016 -0.7133206740352117 -0.1464737587982367 -0.7535088569409891 -0.0033869924613145284 -0.00021038812662209336 0.46629268451365635 -0.15477398373450144
87913000.0 0.6887717798726983 -0.7172262369803513 -0.16172733665610386 -0.7863442592218266 0.0009637727506310954 0.005461241645444832 0.47693122592258547 -0.16829988424826597
88912000.0 0.6824978135086632 -0.7251140075918365 -0.18081413586173403 -0.8192457423689027 -0.0005629655770348733 -0.0012080529905090223 0.4673141116396332 -0.1832540573751655
89911000.0 0.6727499793578625 -0.7339639874864404 -0.19429685521514475 -0.857464698266643 0.002068665901034051 0.0002656293735248933 0.4712122880071663 -0.19916498208282338
90910000.0 0.6685070594378971 -0.7367301642607662 -0.21090929252152932 -0.8935157906025322 -0.002072173579601425 4.343843687123692e-05 0.46904073370009386 -0.19534656478954937
91909000.0 0.6574314509979918 -0.7433205590347107 -0.23024506116658364 -0.9258538417808699 0.00028769364922966677 0.000862961246910264 0.4712869080628734 -0.19953837027884314
92908000.0 0.6487437366308331 -0.7533309312030566 -0.24645191756614135 -0.9577561985249543 0.003986697357544696 -0.002374243466421702 0.4603658706717807 -0.21923180831397002
93907000.0 0.6421488670668241 -0.7581294997464444 -0.26358071844258835 -0.9905273048241977 0.002568534430649699 0.0037973768571300678 0.4717573467972234 -0.23166720520791081
94906000.0 0.6303939982161397 -0.767130969971927 -0.28729051212005674 -1.024838312159921 0.0020472335144301763 -0.0034848546872852347 0.47262562060019137 -0.23486255008682
95905000.0 0.6261892227193828 -0.7711964614046768 -0.3065595335487773 -1.0641455484901283 -0.0019529521300819682 0.003100427445580416 0.46680663485285795 -0.26118253895953797
96904000.0 0.6163109452316569 -0.7806168699462379 -0.32970349474580296 -1.1010670875625175 0.0002995711400595941 -0.0007710124605921716 0.45866342395470416 -0.25828166164508715
97903000.0 0.6066540197612482 -0.7856798237758936 -0.34886806251684954 -1.138318985467931 -0.0007678754206547915 0.0028454021952683995 0.46427139266009737 -0.2665704817988175
98902000.0 0.6033626227377824 -0.79383357349509 -0.369325934562186 -1.1740115286353743 0.001233028744202223 0.004390522740366014 0.452756002112927 -0.2803870070611675
99901000.0 0.5924864742204737 -0.7989009801112977 -0.399602676889272 -1.209590975994335 0.0018792199076869407 0.0018719707642356719 0.4651888494421998 -0.299006279813054
100900000.0 0.5819928642750714 -0.8023552978362507 -0.43300453317211224 -1.2402373128467796 0.0006654530824089775 -0.0034159691359848957 0.473692705979357 -0.30195801861675153
101899000.0 0.5740797438074337 -0.808349820124302 -0.4570884365468815 -1.2785870464208244 -0.0006069677822487962 -0.00037937182609147196 0.4632344249542898 -0.30052619451100837
102898000.0 0.5637888017820704 -0.8159713605820595 -0.4993953487679069 -1.318284201843055 0.00194574512112415 0.0002769560265717413 0.45585203740327934 -0.3088223518550418
103897000.0 0.5569884469067071 -0.8222533638717778 -0.5338470871376472 -1.3556109482383394 0.0009252450769465781 0.0008302270386840705 0.45793048131482145 -0.30720702922422854
104896000.0 0.5471736320784668 -0.8331267044285995 -0.5859324707338887 -1.38794414508246 -0.0007290722737114484 -0.002053533920082456 0.4482106476176998 -0.3249414955436165
105895000.0 0.5385586509984688 -0.8349086449454871 -0.6291378694969545 -1.442213334979896 -0.0013240202843001704 0.0007602447002687333 0.45300273703512955 -0.33948218237881245
106894000.0 0.5304202860818011 -0.8415835181477239 -0.6796667731533743 -1.4750510691143135 0.0013427317335114512 0.0007523117082176333 0.4442551253317675 -0.3460314743725715
107893000.0 0.521265736581736 -0.8467127017801848 -0.7335497576829393 -1.517833451047677 -0.0007081995681859454 -0.00033174003545282326 0.4565737240172546 -0.3627542475258088
108892000.0 0.5098373230052202 -0.8517390682027394 -0.7965303690281165 -1.553387075535564 -0.00014565357962263308 -0.0029480238858393118 0.44009532276698843 -0.35635604128963533
109891000.0 0.49525162125222116 -0.8583532520192642 -0.8571688577440603 -1.597358288397986 -0.0008860297263329663 0.0012115066176787185 0.4521568987838464 -0.34964412438102604
110890000.0 0.4821618272343078 -0.8752831199578074 -0.943107040575034 -1.608137538308773 0.004391273115427325 0.00024470748277319695 0.44100002973779845 -0.37693291422249253
111889000.0 0.4765210293085347 -0.8652581430092032 -0.9789137879860247 -1.6716250429420028 -0.0015414201501682547 0.001966596296435869 0.43810573618683596 -0.37573269459709047
