! Created with skrf 1.9.0 (http://scikit-rf.org).
# Hz S RI R 50.0 
!freq ReS11 ImS11 ReS21 ImS21 ReS12 ImS12 ReS22 ImS22
1000000.0 0.9939850946959363 0.009918364437276943 -0.0011342433946370757 -0.06989064421991131 -0.00634523147101966 0.004732309393962073 0.33514195774818567 0.3562804978689029
1999000.0 0.9915563704368158 -0.014833655570296199 0.009595308221141827 -0.03091002346252406 -0.0056778722454774964 0.0034991861761610125 0.2608413216657538 -0.07243732447863303
2998000.0 0.9956779075697697 -0.02434977132223532 0.012697161206532201 -0.009145347760595753 -0.005816288817153685 -0.0040692352114805284 0.19960613935896426 -0.1350457449874291
3997000.0 0.9993119333065508 -0.02973529380322076 0.014161434944857026 -0.007777575022889994 -0.003331585507154131 0.0088121883999958 0.08143455239504295 -0.2432457728809876
4996000.0 0.9965966057919153 -0.0413772489496807 0.012667880275679467 0.0008265049417971564 0.003768727351959424 -0.0028440826209329612 -0.05965873337363842 -0.19569027511223733
5995000.0 0.9927988182764566 -0.05136663925430096 0.011100824799730163 0.00554249244637246 0.0036686013368652103 -0.008628486581825969 -0.12500651492825235 -0.10666467417797054
6994000.0 0.9914922572438424 -0.06282038794587613 0.004086021310680816 0.005163389408292021 -0.0021908078477165006 -0.006912351814605778 -0.12427978891597832 -0.024672781161633815
7993000.0 0.9942115993641486 -0.06852765895659692 0.006200866760436835 0.003107457174123174 0.0030407512568984465 0.0018739109068124122 -0.1622679541013276 0.045793021062378446
8992000.0 0.9947995825384217 -0.07732102265924722 0.009868017462271362 0.006656228254380066 0.005721641642073144 0.002255954759496416 -0.1655959527323158 0.06753907642932816
9991000.0 0.9921501432941178 -0.08392187100935945 0.0039032031823813588 -0.000261249326845129 0.0021372707253752374 -0.003011373086642372 -0.15171788449238438 0.09769024442489385
10990000.0 0.991169321627688 -0.09248244770284139 0.0021621931580272794 -0.00046755357607874216 0.0011506540240323686 0.003250833040710968 -0.13480208737516913 0.11362259102527658
11989000.0 0.9892754800404528 -0.10165624683575318 0.0017107110527629435 0.0010572773465627179 0.003605441035356115 -0.0007455181905971342 -0.12524845860271083 0.1300796467847489
12988000.0 0.9870710403453953 -0.11176379972718828 -0.002227747019606939 -0.005682149003416964 -0.0032991014406093 0.0026707158790050356 -0.10782089689280275 0.1629182457836801
13987000.0 0.9872336853948759 -0.11883437552598722 -0.0009591799067748859 -0.004909956750954058 -0.004761367997236947 0.00012227067517937026 -0.09320335783001489 0.18864710622230652
14986000.0 0.9871310114598165 -0.12504852833728014 -0.0037091509447336065 -0.004472606365474363 -0.0020383042322853987 0.004288365150059802 -0.08629298468055951 0.19027472069492238
15985000.0 0.986137648296783 -0.1371310055811252 -0.003108653815525255 -0.0008753301325353041 0.0018283495966411008 1.8390389299126605e-05 -0.07551699132826516 0.2156742302961036
16984000.0 0.9847467814217857 -0.14454145231190113 -0.0011959591932633451 -0.00808934978183963 0.0020162162246858215 0.0017043598275639012 -0.05981485041006522 0.213510048602944
17983000.0 0.9852870760721459 -0.1500844270908923 -0.0036079923612097396 -0.0002677788121961273 0.0018900989406957862 0.00347160250915635 -0.05001775377207489 0.2202545151631541
18982000.0 0.9811127099661041 -0.1659654801245345 -0.0023059352247118054 -0.002486160173527304 0.002968697802565075 -0.0011730032097335863 -0.02407575976408332 0.23490271300430346
19981000.0 0.9806212095262336 -0.16970005206925148 -0.0003200017720198153 -0.0005664720256157211 -0.0009855235583133839 -0.00733558903118961 -0.016062216032063686 0.23750987636759302
20980000.0 0.9788437353275848 -0.17872470010309477 -0.002403908620918431 -0.005550159428446542 -0.0032283692973049294 -0.0013567491476020458 -0.018468267127199144 0.254653499186892
21979000.0 0.9747640664044347 -0.18803938965996125 -0.005233457125890147 -0.007928321759462694 0.00207875664485919 0.002587716022181291 0.020737607438230624 0.2415119682892503
22978000.0 0.9751511449185977 -0.1939903763823046 -0.005038503477227309 -0.005260227610490664 0.0006032232467923042 0.002946514699191292 0.027677411648336012 0.25284302637013456
23977000.0 0.977215944277783 -0.2021242077171387 -0.004355684709534904 -0.006011312711182461 0.006291198052899716 0.0008045992254606126 0.049894543207411796 0.2564753577352291
24976000.0 0.9726191138527895 -0.21305196024729398 -0.004084251177578125 -0.002825652971553955 0.0015576931132567633 -0.0008547989645012752 0.079455578510568 0.2485589584806007
25975000.0 0.9650864192751094 -0.2268446813631472 -0.00981163059017716 -0.0037253516564748324 0.01050623206699639 -0.0267915874812975 0.0776567493861814 0.2617175425865294
26974000.0 0.968302513525712 -0.2307657273617303 -0.005803987193315632 -0.003860890474466757 0.0015894506202724459 -0.0034771755189256033 0.09139731255629092 0.2695902674176085
27973000.0 0.9677477058697891 -0.23912868755078345 -0.0012218044211001677 -0.0033389498315159042 0.0002974937020973934 -0.0013696374151257653 0.10169744700594571 0.2501228291809304
28972000.0 0.9633127645482701 -0.2477601292830811 0.00037138754611707483 -0.004961613473412972 -0.0018405739604369644 0.000747950555147456 0.11183455017877895 0.26137505245587267
29971000.0 0.9629886082928482 -0.25769630030561846 0.00047417184963533676 -0.0016540380890228627 0.0009275810206727871 0.0015275774248504168 0.15357410142252376 0.26416910747713174
30970000.0 0.9596127529208286 -0.260605730951391 0.0013078885105445056 -0.0005491993439131868 -0.0028496513255722384 0.0030336890110333305 0.17132833153142793 0.2509784324173237
31969000.0 0.9595375750710581 -0.2705549754056531 0.00581702734125241 -0.0052872647037123 -8.744199083150291e-06 0.0001249327162888162 0.14772072935647618 0.2523907842857792
32968000.0 0.9560157740918646 -0.282117941692004 0.007341053984758329 -0.002628505035141431 0.0011995702826782294 0.00015832794804226016 0.16206420647857533 0.24387583727066875
33967000.0 0.9546154849627749 -0.29017511725557393 0.008729002512095378 -0.010074984644967583 0.0036777543657271526 0.0019214812457775564 0.1837670205738508 0.24700496320197673
34966000.0 0.9511554519750142 -0.2972625039324781 0.015034561620247668 -0.009946333854087937 -0.0009118252250528773 -0.0021066756268031082 0.19313745614797967 0.25489451771602945
35965000.0 0.9475399030712663 -0.30688522515379485 0.015651449981068714 -0.01474238957089739 -0.0061387087281441 -0.0038519392873729787 0.20864941198671766 0.2434250454320528
36964000.0 0.9445797181079937 -0.31616574752655185 0.016812024716978218 -0.013412524667851072 0.0012180340350269015 0.001154468598973608 0.21688642553582071 0.2493547517158935
37963000.0 0.9425410270750771 -0.32414482581904447 0.019777931973483827 -0.019624085985906353 0.0018898423927006774 -0.0014873710664294164 0.22731031211426067 0.22659214924510823
38962000.0 0.9402955056709744 -0.33265056325664993 0.02257761623621778 -0.025389982210708133 0.0008963240759481822 0.0017897442847232777 0.23656656674094298 0.22837515406103828
39961000.0 0.9352308766875346 -0.34207059388855054 0.027428131630628454 -0.030267991636428716 0.0024050248945334963 -0.0007388875584952989 0.2430747067014272 0.2272333032524395
40960000.0 0.9332922633615144 -0.3504011484891874 0.021991716118094702 -0.0253381573008207 0.0019327754554333435 -0.0002116659548685882 0.2704543934574619 0.2170660181777801
41959000.0 0.9297274768306595 -0.3594629164727504 0.02577214911879986 -0.03097890203280845 0.003188263282968911 -0.006643380415915704 0.2691665575978532 0.21216299216385873
42958000.0 0.9244129262949379 -0.3704875869294811 0.030727258371918725 -0.04042022333467927 0.0007731751866752224 0.0005939515276583899 0.28007548479355676 0.20163672576853198
43957000.0 0.9248563996000391 -0.3716942681826729 0.03211190613467859 -0.04714168762621456 0.0007291241183890054 0.002454220393446451 0.28402085489694795 0.2123491133242775
44956000.0 0.9203115591496954 -0.3825464168966383 0.034795610554814865 -0.05337685767978157 0.0016785075361633061 -0.0033064339477816567 0.2988104176149858 0.19431828758446235
45955000.0 0.9157584061149173 -0.3916318958586828 0.03282924590365564 -0.06121072846917694 -0.0017146406134092456 -0.0031314727065947043 0.30480342202867483 0.18735209067851244
46954000.0 0.9110691243786605 -0.401842954555509 0.03197827962216013 -0.06684621545261138 -0.00014618311425310292 0.005844066449956594 0.33071092732499746 0.1736604915052363
47953000.0 0.9087852068356258 -0.40897566644206207 0.03319302950122539 -0.0746633753134077 0.0021543609275092 0.00017431727824891138 0.3351977494779798 0.1669912760053576
48952000.0 0.9029153621251876 -0.41998452406171 0.0348724141347473 -0.08105508078969927 0.00020573552548011032 0.00026027149143811906 0.3341823766538625 0.16035497519870093
49951000.0 0.8996749378637289 -0.426192445105372 0.03587377610524849 -0.08804931234780032 0.0026891140079449284 0.0014428819044794915 0.34529535573019166 0.1562521257940524
50950000.0 0.8975865073315795 -0.4346000979593727 0.03566361791493701 -0.09342235442771384 -0.001288966397153918 0.0007133846437736437 0.3448480899159587 0.14016932261844903
51949000.0 0.892068439299475 -0.4430724735997475 0.03929836774250356 -0.1051492325888542 -0.0014380549862074321 -0.0009660715618260079 0.3581330440551223 0.1400344261808924
52948000.0 0.8909212749018223 -0.45097384362323223 0.04085358284367609 -0.11162927951659858 0.0002599700641415563 0.00017324486705306771 0.37250866856145515 0.13795044725035135
53947000.0 0.8837579110345487 -0.4589610065450556 0.041025587668900035 -0.1193986475119019 -0.003799664297036328 0.000271256651146892 0.3774309717032315 0.12217331332641541
54946000.0 0.8795165789005275 -0.46668764236597504 0.041777567693697774 -0.13313422093345686 -0.002136308925447333 0.002017154843251767 0.3833837894414581 0.11415703001829405
55945000.0 0.8757122237622225 -0.47697647537108484 0.044439952489221855 -0.14030851419780518 0.005943912301173652 -0.003288425175818439 0.39485759893013267 0.09880746372056352
56944000.0 0.8725513542278016 -0.48414911890886414 0.04455014213510813 -0.15319835812420335 -0.0032039196065637454 -7.299906093515598e-05 0.39576324344834807 0.10021640158423946
57943000.0 0.8680100769623821 -0.49476936878181904 0.04598131044252453 -0.1627100894543365 0.0014513890114120145 -0.0014931329923862963 0.39879597788001997 0.09583861490301604
58942000.0 0.8602994769536131 -0.499651368054106 0.04674772753783475 -0.1744731551341305 -7.706931947485424e-05 -0.002125382530215369 0.41759386455039 0.09313713820013225
59941000.0 0.8602143692597849 -0.5053601687301745 0.04854176160639342 -0.18409502162806596 -0.0006895603799106072 0.000994822282369338 0.4114606174291099 0.08223364010151597
60940000.0 0.8498437051281733 -0.5148654596746788 0.05030420310401766 -0.18564712178762627 -0.00032937087337896203 -0.0005662509484270908 0.40329980026277756 0.07195163167714666
61939000.0 0.8473816035396255 -0.522202338607951 0.0500048029161416 -0.19459234334258332 0.0031621381214275695 0.002374007819240392 0.4198733738598333 0.0557907190034386
62938000.0 0.8401566168357241 -0.5338616712896239 0.048087539645994784 -0.21072406377240088 -0.001688922800581941 0.0003092424816150787 0.4508118683600739 0.04938473476641727
63937000.0 0.8363719154370546 -0.5396593595205704 0.04866604994197126 -0.22961898404159783 0.0015561917641386848 0.0009398041757983031 0.42804367024943574 0.04093146476431449
64936000.0 0.8285415917057517 -0.5487669744096298 0.05182157657053651 -0.24479840082554466 0.0009160900101832576 -0.0008996060231526015 0.4378227573149751 0.042519158933384434
65935000.0 0.826546446791098 -0.5562624672778224 0.04899867333320753 -0.2600585712527576 -3.2172193923336715e-05 0.0007018492795265727 0.4487470163555481 0.008230387939423598
66934000.0 0.821287704161641 -0.5627725732815174 0.05054373180392143 -0.27160590420772013 0.0043156490799734935 0.00027686505186540455 0.44047350056609436 -0.004126620313389804
67933000.0 0.8182122835736836 -0.5692850490581479 0.05305984365285649 -0.2869681852588966 0.0039652288636101785 -0.0008833390300404088 0.43614141114865435 0.013185407208746051
68932000.0 0.8137368822865871 -0.5732611061152717 0.049336409964208634 -0.2997356149574714 -0.002111833184685189 0.0024813696883097475 0.4635663159974162 -0.01235569131306332
69931000.0 0.8025727409861966 -0.5872061047084772 0.04903949458693125 -0.3132054696882836 -0.0020862840150432413 0.001837889841931516 0.4447893989430583 -0.01884967412219516
70930000.0 0.7982303704066249 -0.5921791699025748 0.044385623854061876 -0.32562379787075724 -0.00047465558556916807 -0.0014866263113334803 0.4488272373384115 -0.03291045246694717
71929000.0 0.7915520823283267 -0.6024253923248005 0.039271035825410514 -0.34783052518617363 -0.0007744141341799593 0.003355815966334612 0.4535105372407058 -0.03946029279841196
72928000.0 0.78799533187377 -0.6122421759158273 0.032439087424760864 -0.3619004134060009 -0.00042238146655708506 0.00015926136629165925 0.46411752127528705 -0.04816324008591493
73927000.0 0.7806848381020035 -0.6182783924047879 0.026598038360892102 -0.3819426481308115 -0.000779772697536468 0.0013510834203030175 0.46497239492335013 -0.06621712035481556
74926000.0 0.7769579849417851 -0.626922333151564 0.023047295795648723 -0.4002951561023414 -0.0002446839936583185 -0.0003566914564289647 0.46547162720430446 -0.06945753451409713
75925000.0 0.7705696859233451 -0.6321263652862437 0.014544176188395548 -0.42155675181580343 0.0015097724744393647 -0.0010907502847238855 0.4635994675333241 -0.07687101893963945
76924000.0 0.7630185222614062 -0.6394613451046279 -0.004995747023694959 -0.4409539028457342 -0.0008080258105104346 -0.0025265213053819583 0.46368474815708666 -0.09412793140985888
77923000.0 0.7565792273753319 -0.6477777551299103 -0.01288667121115631 -0.4658792866424794 0.0028141733419933383 -0.0029097706823930374 0.46069020329408916 -0.09705289855460685
78922000.0 0.7498216479515848 -0.6577652669890449 -0.02987585751353463 -0.4919267813269278 0.0017411948133101425 -0.002170767214558451 0.45496301955443114 -0.113281299705266
79921000.0 0.740619339734559 -0.660400974693516 -0.04643770689952772 -0.5173352729012429 0.004941098213944701 0.003032842957268391 0.4566496114013886 -0.12953202342263004
80920000.0 0.7380312994287943 -0.6702956750460543 -0.06394789936924038 -0.5429711616202664 0.001732321705072642 -0.003235480614179942 0.47094725917602326 -0.13143001950312413
81919000.0 0.7311881471854283 -0.6760798591243051 -0.08385118528562002 -0.5737778588201157 -0.002180712469153361 0.0011383108268742115 0.46671256034075215 -0.13194667327439444
82918000.0 0.7215706279139056 -0.6842666995930257 -0.09581009591264165 -0.6052482497448551 -0.003918473891569224 -0.0013755872874123048 0.47068918644460034 -0.1478563717332473
83917000.0 0.7144267975626915 -0.6919481096587498 -0.12059822240130491 -0.6298905182614242 -0.001497902733248342 0.005688262940039617 0.46599272186830915 -0.15966614338288726
84916000.0 0.7100950625189751 -0.6993178322559583 -0.13254553867511734 -0.6648338023621566 0.004293345825293763 0.006060430063471785 0.4603890015648336 -0.16952491380365195
85915000.0 0.7026861062157133 -0.7065687315055765 -0.1533351949331588 -0.696189807007263 0.00307137061307605 0.0006355055476837693 0.4729655459476851 -0.17561492910173737
86914000.0 0.6930796834952468 -0.7168853925078461 -0.164442312085515 -0.7350282913446055 0.0009616598216359761 0.0020105155015694514 0.4588046811242676 -0.17366731179602893
87913000.0 0.6866729931391893 -0.7206415733103848 -0.18591196456928757 -0.7615777437281028 -0.003922822829954763 0.0017363044938275383 0.4567880119218382 -0.1860330387820792
88912000.0 0.6796525343960687 -0.7264977748307291 -0.20153956482003813 -0.7956333775679283 -0.002226054309367431 -0.00037543141370387646 0.4582607781843245 -0.2088390134694602
89911000.0 0.6719246679402596 -0.7357667939275133 -0.21949799826012087 -0.830243908670699 0.0022766730354562533 0.003637052526129697 0.46062362045322236 -0.22443151459981223
90910000.0 0.6666283565762794 -0.7400997298941601 -0.2329283962142156 -0.8692287683360885 0.0006644131224324897 -0.00178729961059709 0.46702846587305774 -0.21657673356401452
91909000.0 0.6566480483144107 -0.7461826666908548 -0.25455852523241584 -0.896087614288635 0.001482336550554446 0.0001341704696175251 0.46433239732715603 -0.22899831852093602
92908000.0 0.6492454139551006 -0.7551008305963318 -0.2719516654085887 -0.9276339458706192 -0.0010367870209124757 0.0015144360874964097 0.4612837776744682 -0.22750826792750145
93907000.0 0.6405538914570299 -0.7612493729496631 -0.28619796186341473 -0.9576763461160703 0.0008977979502780499 -0.006964686575897047 0.4583855188584887 -0.251569291595445
94906000.0 0.6303495714857312 -0.7697287250153492 -0.3044033941692846 -0.9923382458835391 0.001579574404454865 -0.002122208958653944 0.4657725765671062 -0.25306881223698674
95905000.0 0.6234512206746913 -0.7745943386542644 -0.32820977844531957 -1.027995051924801 -6.96841128113548e-05 -0.003415287070307662 0.462324115729825 -0.274971009589439
96904000.0 0.6141411251772464 -0.7841314434525795 -0.3436641480830003 -1.0647191679604464 0.003943029490119078 -0.0036632388320380215 0.45451553188294314 -0.28189485931844394
97903000.0 0.605165657175061 -0.7898945670435242 -0.3738423505072182 -1.0929273340287715 -0.0006243839524258331 -1.7322010447257267e-05 0.4473331607412902 -0.29838164971929315
98902000.0 0.5995265562054308 -0.7967738638820028 -0.38920421718633896 -1.133135604561241 0.0025285131693444005 0.00280355161173322 0.45064591726472963 -0.2993911670250651
99901000.0 0.5889611525012672 -0.8007603097690214 -0.4170885757036566 -1.1585126851884253 0.0014654530911216465 0.0007659057312084896 0.44905681603694975 -0.3274093596321844
100900000.0 0.5803138334802443 -0.8046483823506162 -0.4492192498501608 -1.1882395594429007 -0.0014431570905127915 0.0017773813214115467 0.46238655878067975 -0.32521700065642484
101899000.0 0.569905618760871 -0.8150438964680301 -0.4779723135128283 -1.2266647556020327 0.0028462842799819653 0.0005923330058873513 0.44614940721171004 -0.3234009847119203
102898000.0 0.5616082306973318 -0.8192329875908394 -0.5124765599061649 -1.264186639937214 -0.0010490927862532508 -0.0019451688518561548 0.44223538372666477 -0.33732645599201017
103897000.0 0.5541055454587306 -0.8264745315113363 -0.5490756982094739 -1.2989173979806334 0.0012961680214905813 -0.002320162901406966 0.45706878149926 -0.3366996819775476
104896000.0 0.5444321317355075 -0.8364564530481733 -0.5960339419717473 -1.3270154722031766 -0.0005003966607961628 0.0027336213612175787 0.4410475938891035 -0.34734604470849023
105895000.0 0.535400429498686 -0.8381625590436633 -0.6390982686755008 -1.371035470104613 0.004104139927653383 0.0037928642540356336 0.42464264584573314 -0.36937451637482416
106894000.0 0.5265861668684838 -0.8442455840481237 -0.6907140827928441 -1.4074238412417348 0.001062054711096772 -0.002089245996873789 0.4317809328735687 -0.36404122763339697
107893000.0 0.5170001353439212 -0.8512933404998344 -0.7476670561021364 -1.4410477233025853 0.0032652577124308514 0.0019315937062464354 0.43191725381979973 -0.3870619194505741
108892000.0 0.5074687017035115 -0.8537276149407095 -0.8039057265674783 -1.4787549743848758 0.0020516034299734314 0.00020594546755425803 0.4308433335939318 -0.3785637904853923
109891000.0 0.49605331813230413 -0.86227877964144 -0.861514475443333 -1.513500865907119 -0.0011836916437972167 -0.0023660703353883296 0.4405597532731919 -0.3799216278614107
110890000.0 0.4900375569133329 -0.8738538155735271 -0.9326885513260088 -1.5321874363880519 -0.002536349069747809 -6.879122651489422e-05 0.43241795064127647 -0.38885178029192385
111889000.0 0.4769328369719322 -0.8675013691343112 -0.9860952008574968 -1.5829056002635828 -0.0007457789555159852 -0.0015412072057985865 0.4230774890470883 -0.41187631079562087
112888000.0 0.4624412577549893 -0.877645701079874 -1.0675712640684665 -1.623665872873867 -0.00046139763300846254 0.001355291004832242 0.41317064923197216 -0.41365141015984774
