! Created with skrf 1.9.0 (http://scikit-rf.org).
# Hz S RI R 50.0 
!freq ReS11 ImS11 ReS21 ImS21 ReS12 ImS12 ReS22 ImS22
1000000.0 0.7363027053538875 -0.6203163274979518 -0.12834708211441662 -0.2708031028214322 0.012097426663723787 -0.024825267731201302 0.4324662432964194 0.34477013525403005
1999000.0 0.30671581689108496 -0.9183076713328897 -0.21363239960361136 -0.2159454321156225 0.006752832455492637 -0.0028906246925094383 0.268501904327499 -0.015441301542180983
2998000.0 -0.08970162665740086 -0.9540136903024118 -0.2318933442893776 -0.14103367831581287 0.000636418445637202 -0.0014393243163643586 0.19378046101967727 -0.10445018437992984
3997000.0 -0.3542032406632652 -0.8904809218527038 -0.20026643221187823 -0.0917187897182207 0.0021651446463075855 0.001750175054091905 0.09007421684332227 -0.20910281437661749
4996000.0 -0.5300221507367963 -0.8036158377846598 -0.14327956024936886 -0.060810330880184144 0.0010281517247885204 0.0009136140888665141 -0.03386542238428764 -0.17816538283848463
5995000.0 -0.643819097917921 -0.7134257614616635 -0.09799838389606313 -0.05522933671537104 -0.0009310544090332246 0.0011668079049032849 -0.1171340907062444 -0.1110327215527986
6994000.0 -0.7299660677887613 -0.6326089455469418 -0.05435636592223104 -0.05091942544627267 0.0018333201660378712 0.003947964649195693 -0.15424036861232182 -0.032060967847759754
7993000.0 -0.7839151802706983 -0.5592643366299683 -0.021036371348050704 -0.06102923469417678 -0.001960225190804519 0.00037958309399180123 -0.16495107442099072 0.032027880494980995
8992000.0 -0.8303148223592168 -0.4984093298681138 -0.0011128334781850913 -0.06203144119883022 0.0006286865209598929 -0.0005498867998537029 -0.15851598458160557 0.05058190791937556
9991000.0 -0.8604796900479141 -0.44431955220656866 0.00827396025780911 -0.058637906247329424 0.0012155861276283528 -0.0001378534120959867 -0.1445056909617904 0.07780010486461783
10990000.0 -0.8867669614250125 -0.39141434274953474 0.011304659842696614 -0.0528330630368988 0.0029713527482911908 -0.0010585927343990174 -0.13242756106368736 0.0994751452912905
11989000.0 -0.9032986331030834 -0.35466370352222554 0.006254319332046371 -0.045362938016752084 0.0017767172944708456 -0.0005712601576586611 -0.14126069666081315 0.12298934620080608
12988000.0 -0.9166981689300351 -0.31411066856335995 -0.005069455893487513 -0.03133043286636788 -0.004887708669616905 0.0012381689660752079 -0.11396563446135333 0.15429762299796196
13987000.0 -0.9257416581134982 -0.2770860365631425 -0.02177197266245117 -0.020861863986362267 3.003110558842719e-05 -0.00047011943514087647 -0.09263771698319904 0.19096032860513387
14986000.0 -0.938149383798397 -0.2473253006056761 -0.03408953960962339 -0.008334691787721865 0.0013960612061712765 0.001427868689769336 -0.09819395672413088 0.1929741931671163
15985000.0 -0.9450662109480283 -0.21592272930225953 -0.04342642372477794 0.00664851423749276 -0.0006719441116058408 -0.0018665276042703566 -0.07000482459988656 0.2130524029851321
16984000.0 -0.9511545907585596 -0.19084400714698097 -0.05421198201394873 0.01845234031117191 -0.0020977924145440946 0.0014266559886606362 -0.0591771645502544 0.20869413946922924
17983000.0 -0.9572874586645241 -0.16544298146980124 -0.05403705875923742 0.030052036431009496 -0.000486995030047544 -0.0015455320726355023 -0.05514570248960566 0.22793740891748746
18982000.0 -0.9607583864334068 -0.14649216573891094 -0.06127030431673471 0.03592790384178736 -0.0006290702908687891 0.00017142806389636723 -0.019544335163940916 0.23374411836715708
19981000.0 -0.9615663263307686 -0.12174817166080862 -0.057873925138472775 0.04226640595646203 0.0005098041659204937 0.002676860086303748 -0.011093811275172347 0.24151288238358892
20980000.0 -0.9657445149190305 -0.09950148744640266 -0.0514840220065608 0.05068485084902551 0.005614637777572178 -0.002930662112690467 -0.0020090071799372454 0.258218516523366
21979000.0 -0.9668025119719112 -0.07937254966606803 -0.048546040944409424 0.050961317024128455 0.00047083764315500673 0.001642685172640588 0.020587116738658016 0.2516299606691319
22978000.0 -0.9690766411793504 -0.059763998442193475 -0.043949849617842665 0.054280950389423134 -0.0016573790351394747 -0.0023677498887931863 0.036115352240253466 0.2493828963541855
23977000.0 -0.9681845435196121 -0.04740977042731224 -0.0343917316980121 0.050268379288991895 0.0025687792721135073 -0.002103964287947873 0.045951497654256816 0.25182513938274875
24976000.0 -0.9699134004106068 -0.025238254069893818 -0.030817034847889998 0.045958704598301425 0.000794569787149862 0.0013111705631734655 0.06487090791843343 0.2550703099078333
25975000.0 -0.9605507689966376 -0.002768848182568813 -0.02409907438058876 0.037554723068727994 -0.009050895215289123 0.02476425922113271 0.07365202032007803 0.25155222789405146
26974000.0 -0.9728458329668385 0.005007699741235934 -0.020115638387753803 0.027410124332135483 0.0015254378799585903 0.0032017420387013447 0.08662540541825747 0.25650591675141243
27973000.0 -0.9684054989477993 0.01693686315331262 -0.022636680064075366 0.01282692547131591 -0.006018557001999731 -0.0008129677509772516 0.10509977592911295 0.2568186235997114
28972000.0 -0.9703912366596079 0.034789372070314926 -0.019786050552753297 -0.006738023734915963 -0.0003166863735491873 -2.279223978714301e-05 0.11764524137922107 0.26359464358333384
29971000.0 -0.9698122211173698 0.044592151133174995 -0.019355927235833695 -0.020944884716825526 -0.0007461945254766399 -0.00043257998384771824 0.15624670374377767 0.2664312128753014
30970000.0 -0.9710501184636501 0.06138921789476737 -0.01968387573434061 -0.03219853810773148 -0.002000142638677646 -0.0006222010478451674 0.16219317362966706 0.243820881152408
31969000.0 -0.9688661773946587 0.06938958172998104 -0.032201313230695715 -0.048721716500844066 0.0018977327130929446 0.0015116270952046642 0.14671826135329522 0.25302551486058905
32968000.0 -0.9667439405264554 0.08512464848903288 -0.037746920721401137 -0.07001259019056684 -0.0023985532697162414 -0.0036005941458644745 0.1608320804366831 0.24420282108814448
33967000.0 -0.965917221409922 0.09653448851439468 -0.04645653995830827 -0.08164015920710901 0.0007446394844631257 0.0031962630623530493 0.17605337067981408 0.2468436736727842
34966000.0 -0.9627229539603702 0.10914365586610607 -0.05558290851553086 -0.09573792759509747 0.0004893039735310283 -0.0013111298849129123 0.19667165869229264 0.2564852836874318
35965000.0 -0.9641916557626256 0.12504137292802997 -0.06852703086904156 -0.10867862139668236 -0.006278737884877172 -0.002182317949385043 0.21007440737063376 0.24579087491783952
36964000.0 -0.95890521251511 0.13175952374060781 -0.08328242084736368 -0.11987931522911952 -0.002559891995422972 -0.0006401464093427332 0.21368166304435612 0.24643773296838742
37963000.0 -0.959629828490759 0.14600622024693558 -0.09799525769296964 -0.13578856020552127 0.004574939487487745 0.004617615688721331 0.2217570121450547 0.23630304994751564
38962000.0 -0.9574431627730566 0.15440434228714553 -0.1157446809751112 -0.14229321692536764 0.0004751015108449289 0.0011580950661400238 0.24309411112172324 0.22832849190352758
39961000.0 -0.9548431958767717 0.16479546404507964 -0.13501439297848686 -0.15416440853404106 0.0020298196391242444 -0.00036838788762732366 0.24004229292244916 0.23076168073693068
40960000.0 -0.9520588706910212 0.17540481136940628 -0.14849954169200388 -0.15831844814254847 -0.0007786543766060699 0.0008852350103273213 0.2627932042991794 0.22452968220297673
41959000.0 -0.9474417705048438 0.18736695218646987 -0.17936050932390094 -0.17054053032364724 -0.005238826900900943 -0.004988641324147952 0.26711816628056245 0.21754424898836053
42958000.0 -0.9485116796570559 0.19725302858042715 -0.20183740703300443 -0.17982598972393649 0.0045289110127471315 0.0015650869306264598 0.2832905280932861 0.20528031254269635
43957000.0 -0.9468694787702447 0.21077385840365737 -0.23211928378251429 -0.1858805520254677 -0.0021194837272255082 -7.950644821463771e-05 0.2839488916445716 0.2012277838043726
44956000.0 -0.9447042648710613 0.2197730543320257 -0.26185621165369655 -0.1950493022504169 0.0015207190605181285 0.0009120073046340475 0.3071945026947664 0.19455893540805352
45955000.0 -0.9429106965849909 0.228575128985214 -0.2889581927029712 -0.2005897206484733 0.00032688068088604285 -0.00212161682091453 0.3069291255902855 0.2022685121450759
46954000.0 -0.9401408261444434 0.2405112125378844 -0.3190633748626612 -0.2087570897987634 0.0028584650814601114 0.0012622332534730808 0.33127244766027303 0.18258575267301577
47953000.0 -0.9374723429618209 0.2487867685281393 -0.3481317094686754 -0.21393107289830013 0.0019442299254418722 0.00324839650701947 0.3340874208011932 0.17402830202701655
48952000.0 -0.9312365270133872 0.2569257662828792 -0.3770059386896719 -0.2231598382274896 -0.0024498051984150906 -0.0011894670648313042 0.3284186868383952 0.1637801306274485
49951000.0 -0.9334094658486675 0.2641187823879725 -0.40504394735710125 -0.22313206812643008 0.0006243994744731334 -0.0023441867605508045 0.3487695898027636 0.15463697174289195
50950000.0 -0.9279245975393461 0.2769185082554842 -0.4369071738573873 -0.2339730405195239 -6.035118401707507e-06 0.0017416297091945572 0.3462500263926974 0.14463548283895047
51949000.0 -0.9240635874215587 0.2852460023674288 -0.4599325816489286 -0.24115074530830632 -0.001895577482957931 -0.0008684211549288025 0.35492609140513537 0.1469675798428807
52948000.0 -0.9193717549078673 0.2999536403773565 -0.4917064226271472 -0.24804769790750575 -0.00231525485498002 -0.00319663710115669 0.3708557007249552 0.14043632221331648
53947000.0 -0.9202453350643723 0.30350664367071273 -0.521623048262136 -0.25769906060309455 0.0009189275371035895 -2.443096975113994e-05 0.37320200002520865 0.1316321980147114
54946000.0 -0.9174216250547145 0.3134365074891039 -0.5471042649056224 -0.26479752579485827 -0.00012356343256424406 0.001642681484084027 0.37775458080082774 0.12897380883726317
55945000.0 -0.916506001751582 0.3211340708774591 -0.5795998819681148 -0.27310186675771253 3.3176477752634954e-05 0.0008861819954389612 0.38439820272605657 0.11108908342059323
56944000.0 -0.9092457474983133 0.33235581871577574 -0.612534287637085 -0.27699611955211356 0.0018281734773793377 -0.002610365968060176 0.390197535987509 0.1018851191817855
57943000.0 -0.9041195360479475 0.3378564588777966 -0.6435010629626536 -0.28185814018036615 0.0015691414728473477 -0.0017650561352519235 0.3951906514133027 0.0957713337140582
58942000.0 -0.904469614828456 0.3470448184400171 -0.6834936384328681 -0.2890517311344109 -0.000424003468926108 0.00030443227233101775 0.4168080093651592 0.08457203259437082
59941000.0 -0.9005125852242482 0.35758973626453716 -0.714280845984789 -0.29167109350131726 -0.002032807197724947 -0.0002325797422823814 0.413823824376212 0.09416086268538554
60940000.0 -0.8985087940064563 0.36680781767849946 -0.7496405984738345 -0.2967922465863812 -0.0021823228624163037 -0.0020735413261073698 0.40222322418229123 0.08045316252181955
61939000.0 -0.8934114942995874 0.3753467656199775 -0.783579526018406 -0.3072519688753356 4.877363559345335e-05 -0.0017899020788096221 0.41120200457303435 0.06541083824656443
62938000.0 -0.8897307749690372 0.381303258560685 -0.8197499099025446 -0.30311190126547327 0.0004798046907290439 0.0015550535878735517 0.42649970566683854 0.06458118622679616
63937000.0 -0.8854410502809058 0.3891633865954588 -0.8605919664705967 -0.30448737537420384 0.000457245353067979 -0.0006026146040860105 0.42612274008325696 0.04149079166932123
64936000.0 -0.883864015064812 0.39909574051787333 -0.9012597163323145 -0.31197148314003953 0.0005125246325091181 -0.0005373071206166855 0.4270332981943916 0.0397054824691729
65935000.0 -0.8774770582991411 0.40789525581782093 -0.9377452019129812 -0.3038391031108113 -0.0030769706991326698 0.002280807269516434 0.42982668456438133 0.029584898003917334
66934000.0 -0.8746585736005165 0.41468824721242087 -0.9767956745975529 -0.30303066983972354 -0.002603019423713284 -0.000481634545508691 0.44116361821195316 0.021130393730692566
67933000.0 -0.8695987620734097 0.42295621609144524 -1.0211273464944868 -0.29784249597753587 -0.0019700575169914877 0.0004106613210972434 0.4444357474204732 0.008334747519591417
68932000.0 -0.8732675628780828 0.4302663890719022 -1.068079278050006 -0.28320291370178113 0.0021263173954223554 -0.0020821355987841643 0.4484472769066695 0.0007800211233625941
69931000.0 -0.8640437019050574 0.43597019522692637 -1.1079509960847402 -0.2798278903823412 0.003803460398134839 0.0013698023433400786 0.45119098502801963 -0.01658631376935056
70930000.0 -0.8589619930239131 0.44704121674671926 -1.1502015858129844 -0.26049176041152644 -0.00018468696928500527 -0.004954352589888241 0.4377466399509439 -0.021460649674896724
71929000.0 -0.8526263984333184 0.45492232215910006 -1.1998565315967438 -0.2414495661636856 -0.0027742694699371454 6.54121678181572e-05 0.4379483927601018 -0.03265847908038013
72928000.0 -0.8503387986594058 0.46237371829665946 -1.2479794274854388 -0.22182036380169565 0.003280447562686249 -0.00344071519294548 0.455597053616859 -0.05228611539832505
73927000.0 -0.8464810475957443 0.46817497804903174 -1.3083865863388193 -0.20201688283077107 0.003295994873252565 -0.0014098349507984298 0.46331088566297696 -0.04877763558668968
74926000.0 -0.8400725254827225 0.47717421618742195 -1.3585985143451453 -0.17399887428823693 0.003364132249784873 -0.002256020102383259 0.4632949822273022 -0.062033905315107545
75925000.0 -0.8374830646054566 0.4851723901295833 -1.4177084203468988 -0.14714536548142135 0.001133834610590306 0.0034864639579705293 0.4732807901144339 -0.06800539829974665
76924000.0 -0.8310474043151613 0.4927057536897988 -1.4811461830020374 -0.11317036246409805 0.0041251634249697584 0.0037965781683763303 0.4617830818386116 -0.07446897878737216
77923000.0 -0.8272248061199152 0.4996052855924051 -1.5410767268933845 -0.07510242514368468 -0.0007890596818725263 -0.0009630055303165333 0.4586195349010318 -0.09062296104278036
78922000.0 -0.8204150987329502 0.5059656056561588 -1.6058398835640653 -0.042222149530186596 -0.00233415868364905 -0.0003643300668991466 0.4501156357650679 -0.10568284759982911
79921000.0 -0.8175911603465478 0.5136504387773708 -1.673307113051787 -0.0034049972531884493 0.002398452577188919 -0.0017987954973747934 0.4611871050133565 -0.11436809330140653
80920000.0 -0.8108418367036491 0.5201033174716857 -1.7287178677413035 0.025039557742915688 0.0020710506827402147 -0.0011436795427134695 0.4662662362077268 -0.13150112484948676
81919000.0 -0.8078035948995976 0.5287199149041834 -1.798423323037019 0.07007050957775304 0.003024525115628939 -0.0015867872032285086 0.4595583838803122 -0.13504618616723538
82918000.0 -0.8016715139140854 0.5357604714307489 -1.8683005619281514 0.08261717533269673 0.0004141907170249316 0.0025058966076896257 0.47545556085719337 -0.13948204692709257
83917000.0 -0.796210586115274 0.5430274884708617 -1.9268707587537721 0.12861957698835258 -0.0013281073379183743 0.0013968832477581543 0.4681335773947264 -0.14640035567106974
84916000.0 -0.7920503214956137 0.5495579092222173 -2.0012915678809344 0.15386778026822476 -0.001783774164797055 0.0022066237998359774 0.4652357415770778 -0.16308848806775544
85915000.0 -0.7855438818534656 0.5583530106040341 -2.057575508780726 0.1972863493750536 0.003319999834308791 -0.00012542311301590547 0.46154874260008283 -0.17852780763030304
86914000.0 -0.7789153430620385 0.5633743262366034 -2.1247306471544207 0.22020083131486312 0.003891975098334853 -0.0037988945850525274 0.46140804898843646 -0.17847446144668605
87913000.0 -0.7741055760245997 0.5690880801999131 -2.1748344758188725 0.2574961296906226 -0.001122208325993847 0.002091897752345962 0.46229060768395375 -0.18808911876076398
88912000.0 -0.7682555642361043 0.5773179604215211 -2.2447836544307758 0.283015240093907 -0.0010839688689039313 -0.0010571281906694818 0.46105059163993684 -0.20612091157974302
89911000.0 -0.7608396513062831 0.5816851866603909 -2.308148441770135 0.3036021921694558 0.0007852043255241785 -0.0019813204177210005 0.4635321758320761 -0.19780771461543467
90910000.0 -0.7569612412777909 0.5890089344018357 -2.3737012194528333 0.3395091197657774 -0.0015191042888534718 -0.0002462858764713025 0.4600732570325361 -0.21731342751996238
91909000.0 -0.7505362610162086 0.5979483054494005 -2.445983252901282 0.3661010120546851 -0.0022288275613187446 -0.0025694172874614857 0.4642822719051397 -0.2285950661904187
92908000.0 -0.7444414229387157 0.6030659951190916 -2.5011775041863014 0.3968169692092126 -0.002240626683727302 0.0012207114636429007 0.46018467387825734 -0.23193420193572553
93907000.0 -0.7365328535977315 0.6109361602689618 -2.554392980275191 0.4396137665563135 -0.0010316217675353653 0.0017746483127448686 0.46620993882568057 -0.24694779344257192
94906000.0 -0.7349766399848012 0.6141029832973065 -2.6136741235489165 0.44908278489250203 0.0014220814153957267 -0.0005888302544121585 0.45865888866007154 -0.24905982616051933
95905000.0 -0.7273787046920182 0.6207089358415602 -2.679917415180719 0.49926360447672796 0.0005625306041643166 -0.0020080046099467826 0.4679629530424231 -0.26644911785332476
96904000.0 -0.7233170806905888 0.6270200612972796 -2.749786967147616 0.5241505227557383 0.0006759676510804085 0.00022707675331225583 0.45734422761072924 -0.27623308172835753
97903000.0 -0.7150675945070692 0.6311577762492305 -2.7978958449425564 0.5682442117339846 0.0014794275241231866 0.0003120892355572967 0.443512380040457 -0.290566572314933
98902000.0 -0.7067658064417488 0.6383739778411589 -2.8582930479633855 0.6167952292456371 -0.002076702565073224 -0.004027594395817222 0.4456355407118992 -0.2981519431555213
99901000.0 -0.7053183411403913 0.6410147130315862 -2.9189267419707 0.6533000851594266 0.000602596001677415 -0.000970626496374065 0.45613525399725763 -0.31030104703151945
100900000.0 -0.6972262426598249 0.6507444653867315 -2.9668144801882947 0.7298618440808231 0.0007680813748429348 0.000898991645690541 0.4608372678234413 -0.3178924495077319
101899000.0 -0.6899353750762222 0.6574776300152216 -3.030193133247383 0.7717568891953004 -0.0027273844407628223 0.0034005337406332065 0.4601395839390471 -0.314378513922947
102898000.0 -0.685287706751317 0.6595061710852453 -3.0841425285324386 0.8307572363798793 -0.0005090922706591969 0.00025535579140693675 0.4557202790519782 -0.3372757010381672
103897000.0 -0.6787488651213762 0.6673875634954879 -3.138191933955557 0.9128235411930828 0.0020202034159651854 0.0004969700500257495 0.45231785011904363 -0.3272842389173154
104896000.0 -0.6722274718019196 0.6687389532656219 -3.1692869320781774 0.9854226093197248 0.0002721715911714554 0.00021197926263009342 0.43501395628341666 -0.3357923235225155
105895000.0 -0.6680630229910003 0.6768363748921346 -3.256536449723177 1.064348585814049 0.002392467549473471 -0.00039668892421821495 0.4394889386156524 -0.35174371333044074
106894000.0 -0.6583440123080293 0.683307715368534 -3.3010607897196182 1.1654511340574036 -0.00022002758937230384 -0.0024480925879582275 0.4298516124414297 -0.3601830914680794
107893000.0 -0.6516320731755814 0.6877973345556768 -3.3490124270424393 1.2527152230316787 0.0015087472273080172 -0.0018104688427836506 0.43497094456010543 -0.3747955215333952
108892000.0 -0.6458188701502274 0.692897577700257 -3.4065500626633693 1.356997432078703 0.0010602919698250335 -0.0015175774884824006 0.4253625756465229 -0.3722817692882047
109891000.0 -0.6381805249460867 0.6977805558537277 -3.4586276119422372 1.4398064041081136 0.00019749864499023911 -0.0010860224550148395 0.448347668706284 -0.36485792917194526
110890000.0 -0.642666523988975 0.704892318792685 -3.5029235553050864 1.53978672633218 0.004060017705166799 -0.0016352966812575986 0.4298321455107238 -0.3741882403091363
111889000.0 -0.6286779631392644 0.7075069263887569 -3.577235294467304 1.636134248928683 0.00014800024481851642 -0.0022334105549456553 0.42597236260003457 -0.38705339291491125
112888000.0 -0.6231093076853094 0.7114499157494746 -3.639555928418134 1.7547853262483173 0.001204375109270407 -0.0005439043974320262 0.42219126382725986 -0.4131739781507797
