! Created with skrf 1.9.0 (http://scikit-rf.org).
# Hz S RI R 50.0 
!freq ReS11 ImS11 ReS21 ImS21 ReS12 ImS12 ReS22 ImS22
1000000.0 0.9782203358684158 -0.0009849652512959363 0.013202397452510199 -0.06384692838340739 -0.00564337447549085 0.008115985062170724 0.3500235376116857 0.32867673510426754
1999000.0 0.9928265501041599 -0.01453860157072042 0.00574603305883042 -0.025030216574461115 -0.011648502348596518 0.001036486808570859 0.24151951694616605 -0.06750690153347738
2998000.0 0.9994620700222593 -0.021758374057598423 0.01054403690686911 -0.012929889476193604 -0.0059003634220008965 -0.004196244499801444 0.18867269168551512 -0.12515089041689853
3997000.0 0.9976674914824272 -0.030018495298754746 0.015459251235457244 -0.012018091185334456 0.0009057557163857397 0.0013455784183924607 0.09829276702425634 -0.19774849858334012
4996000.0 0.9946773955496914 -0.03649024607100926 0.018873541280855652 -0.0026984136406299187 -0.005635573760519784 -0.0033935861550638277 -0.023159370497926098 -0.20569603864717423
5995000.0 0.9937086088922724 -0.05038417293153301 0.007918014295888743 0.005493758539934341 0.0037299376710283882 -0.0011977506625100748 -0.10801969293693688 -0.12382426052599654
6994000.0 0.9928896679308317 -0.05897252823275148 0.006222875995119673 -9.57428499018827e-05 -0.0009483544241623091 -0.0012610032273835683 -0.15974307367575918 -0.02843145897260586
7993000.0 0.9912735920126332 -0.06595045663383653 0.0036753544975397646 0.00440327332209962 -0.006613184851146476 -0.002014454074871594 -0.17342292355316796 0.020452604931452165
8992000.0 0.9944458409315461 -0.07408511723949758 0.008349517626294883 0.009704719207513996 -0.001621899217884818 0.002528149053205648 -0.1730623047347057 0.0671783970891823
9991000.0 0.9922740543442571 -0.08362851011957798 0.0015458107050877114 0.00045732427867021467 -0.0004689023960770395 0.0017103090455453398 -0.1578171404157051 0.08543681131935822
10990000.0 0.9909706970411917 -0.09283354352115768 -0.0026849464836149585 0.006365735855556973 -0.004672302969545939 -0.0020886951015818963 -0.14329791477549672 0.1175496593699636
11989000.0 0.9916055128907297 -0.10020795683833177 0.0013404415471819692 -0.002778005427332425 -0.0009094204543369899 0.0038170986146855708 -0.12953990955921837 0.14284157150980079
12988000.0 0.9885515430699312 -0.11144784295381331 0.002122550970773459 -0.0027904114429540047 0.0027874740825329014 0.0030525700918746096 -0.12082598760497588 0.1553263711424503
13987000.0 0.9867957456939159 -0.11664452671423713 0.0013034859510750423 -0.00018979928813088896 -0.005270096490180963 0.0007408027371380941 -0.09766980683213644 0.18343508834902103
14986000.0 0.9855561785776913 -0.12574070128776083 0.0019232745350649073 0.000153807239539836 -0.0013114064085448837 -5.9842486568489154e-05 -0.09797536991453405 0.20311101136843915
15985000.0 0.987597121023763 -0.13436367178138198 -0.0001511062693847843 -0.006254572050078935 0.00033482072360616565 -0.001520928143361429 -0.08143446356895737 0.2205915225276714
16984000.0 0.9819044993489295 -0.1485191161511816 -0.003567998587650096 -0.004419771580741126 -0.004292568899676909 -0.002461387981307817 -0.06820588140715785 0.21896480593630271
17983000.0 0.9839704355338432 -0.15289744463312302 -0.0018083404640899265 -0.006280554719412532 0.0014449029766895524 -0.0035233537993442656 -0.05852384072935422 0.22894345891283982
18982000.0 0.9806960384445625 -0.15946925461712358 -0.0026519896670261214 -0.0009028194319146445 0.0030544752271776925 0.001104378201323162 -0.027435300209417555 0.23893051947882074
19981000.0 0.9808931136780457 -0.16797577711083353 -0.004663257911533986 -0.0048275374257913 0.002563560703864892 0.0003458433550622845 -0.014029618043548901 0.2367449090571897
20980000.0 0.9801995978849026 -0.17730328998435224 -0.007766926598482689 -0.005096629159531043 0.0015854980062343154 -0.0013221462558760323 -0.011618529939450258 0.26775671126967426
21979000.0 0.9774007820462384 -0.1861684271738947 -0.0039338737492497925 -0.0025773834572805393 -0.0020512987469170343 0.00216550919293745 0.012228385592054674 0.25004711632150856
22978000.0 0.9759171347806145 -0.19397774581274985 -0.0069563667065399935 -0.009104189176343048 0.0009103131622267299 0.003995724441797353 0.009276506721484072 0.25215150029473604
23977000.0 0.9770805353568567 -0.20059388865755223 -0.009793319446014054 0.002894620070825009 -0.00384174613259797 -0.0007695936888829986 0.037346220877475224 0.26991559231889667
24976000.0 0.9708196081641698 -0.2144426856970595 -0.005509314161922418 -0.003189080349652716 0.0033702316600228046 -0.0020507019712234947 0.059896799726077976 0.25801544953962374
25975000.0 0.972622761916871 -0.21873647215358893 -0.006508087349747428 -0.0029713422929978123 -0.01527710030140433 0.02364395568492784 0.06471420541499856 0.2676808804097621
26974000.0 0.9689048262684621 -0.22951710998241795 -0.0037883420717751614 -0.0016776094773868796 -0.0019583036947477383 0.0035826779902242622 0.09464796150539945 0.26797385279887376
27973000.0 0.9679896039065974 -0.2364892000361723 -0.0005761200913386872 1.4597188985100059e-06 -0.0005436817978952248 0.0004651666098962995 0.09755849342055042 0.25259953671674146
28972000.0 0.9657919505791066 -0.24485226294768933 -0.0022068154876516938 -0.004746677553358835 0.001853284393259906 -0.0025873386201846994 0.11337593869886968 0.27677392518832067
29971000.0 0.9629114864749649 -0.25564372893652887 0.002401258726789742 -0.0036902623438200307 -9.41698439202722e-05 0.0016959978369465336 0.14772897031674673 0.26713222447723106
30970000.0 0.9601390276056176 -0.2618240757121834 0.0003434099369325583 0.0003917805288946559 -0.0001947740402545987 0.002902329929113386 0.17076537418753865 0.25677311550002646
31969000.0 0.9597482477075046 -0.27031931879052695 0.0032819086934212953 -0.0047130060455982566 -0.0008075709534778681 -8.920263111527022e-05 0.1475563516291347 0.24727103341657136
32968000.0 0.956532343153284 -0.2785403143490873 0.010531437051198226 -0.004244178585668753 -0.0004183309402085907 -0.001496930047483915 0.16382037616503475 0.2485643916355408
33967000.0 0.9531212099278538 -0.2913414285862278 0.01205364506455986 -0.006992702827069928 0.0020167199039914253 -2.4579709636559665e-05 0.19864619230109862 0.24593433314865767
34966000.0 0.951761996497508 -0.2985674011476766 0.015651609854986554 -0.010719861226587208 -0.0020207962843492885 0.0004252641006258433 0.1849322123418204 0.25014784561007086
35965000.0 0.9486239088808149 -0.3066393849519062 0.014191017998331177 -0.015464111562939548 0.0022624315793710807 -0.0007484180449324276 0.20885002841293976 0.2524681022741571
36964000.0 0.946838704375136 -0.3159136224685697 0.01906151523961232 -0.013728749917600922 0.004475239987860657 0.00027601389934783945 0.20444309037650554 0.256485215243109
37963000.0 0.9434825216507322 -0.32484482436476586 0.02000009439566799 -0.021791280425307043 0.004963230701385813 0.0001545735882615644 0.22320303842802966 0.2405883578698178
38962000.0 0.9401108760094421 -0.3342039318182227 0.021906914532012708 -0.02306117079198475 -0.0008860157022016059 0.00348540143762712 0.2340140819591348 0.23316051584868167
39961000.0 0.9373410923388009 -0.3419975466083106 0.0264666162769246 -0.029086925628708682 0.004515005521921366 0.0004598306789249439 0.2399668165498645 0.2311392351266303
40960000.0 0.9337026460103353 -0.349889801169309 0.022409201150470553 -0.024329580507640267 -0.0006781524770692878 0.001803005426102148 0.268798106473321 0.23062164739320812
41959000.0 0.9290976167194809 -0.35963717559115155 0.029474119737181833 -0.034859030260153086 0.00012660881640904397 0.0008410900776358624 0.27025323372896465 0.22177828123835214
42958000.0 0.9262429265735261 -0.3671366008088942 0.033649483862520174 -0.04083507881804557 0.0014607216725869038 -0.0010687482206932174 0.2788647189511509 0.21084016311959072
43957000.0 0.9228034938461722 -0.3735810251796759 0.03242557876687851 -0.04506758499379524 -2.1966138151250605e-05 -0.001276510639947713 0.2790121413374341 0.20253064427463727
44956000.0 0.9196624866284817 -0.3837746493103962 0.033745162728527456 -0.05170197599313977 0.0009332552720797051 0.0037596749233990215 0.29500395773675653 0.1995271585941372
45955000.0 0.9153486498661807 -0.3928938343740714 0.03476067668258384 -0.05830785258546975 -0.0007097657371139415 -7.18899949221951e-05 0.29765024116859407 0.19877508676460887
46954000.0 0.9135062575162556 -0.4008357747951704 0.0380898013053249 -0.06468325170436989 0.0008659753605597337 -8.88920719099255e-05 0.32329608027178064 0.18546695177821404
47953000.0 0.9091819934499091 -0.40922762950031777 0.03556225264664041 -0.07417044142612687 0.0031169732950876968 0.0020520990314090944 0.3313426672563706 0.17522925913623574
48952000.0 0.9035787384719804 -0.420595553375668 0.03894275328221146 -0.07920089661475309 0.0006823611665712819 0.0019420965607691804 0.3346588402913646 0.16441758955427768
49951000.0 0.9017218632271068 -0.42317011329751897 0.03720027301780927 -0.0910331795400471 0.0017377538148262662 0.0045587940842350795 0.34415100383113495 0.1519379903382368
50950000.0 0.8966459839479918 -0.4340085907616779 0.041395733578047 -0.09723880760373069 0.001347214494775664 0.0014346112564616075 0.3493758332821761 0.15485572507138742
51949000.0 0.8928799284329089 -0.44362800522469653 0.03931546591547547 -0.10434779965811013 -0.0037739873521438505 -0.0007875017899168543 0.360120918967636 0.14657231715063174
52948000.0 0.8897228871950005 -0.45168850921225845 0.03932298324717726 -0.11047387408334251 -0.0023158454060868395 0.0024855516749620154 0.3701627127740156 0.14286036175504271
53947000.0 0.8837051960255196 -0.45898003620146477 0.043394154562540865 -0.12013186529015651 0.001098193720086865 7.031741102178094e-05 0.36755182195855635 0.14164449249775185
54946000.0 0.8790030134141489 -0.46869200947087397 0.046576404677335856 -0.13251134385532073 0.0011579832516677977 -4.666576369110692e-05 0.38011180027459546 0.1222370086062566
55945000.0 0.8762987107678929 -0.4764098758721619 0.045279567184697174 -0.14129279727352168 -0.004817673283580183 0.0015513726384005007 0.3800681459222321 0.11192645471557151
56944000.0 0.8720689697932689 -0.48471631398758075 0.04772345013716892 -0.1527296516765659 -6.445154495640098e-05 8.586445976620956e-05 0.3964095832071621 0.10735031761375483
57943000.0 0.8661187001340763 -0.4952982862549173 0.047986922096597225 -0.16384164251674574 -0.0010623069856423954 0.001035986709891284 0.3976061204128634 0.09607668215790763
58942000.0 0.8608022040890376 -0.4984498683964665 0.04929924449627098 -0.1732022329607413 0.0002911199832655691 -0.0005978332711086383 0.42087089426440544 0.08992409096993786
59941000.0 0.8574243701355561 -0.5071722705172719 0.05211090221013302 -0.18371641729536847 -0.002230178589954652 -0.001954819422506304 0.41800113649755927 0.09310406182862713
60940000.0 0.8502321390142701 -0.5153471277306383 0.04889894581688189 -0.18705249291190335 8.283632510710167e-05 -9.652370857276754e-05 0.4071838785126284 0.0732174065540642
61939000.0 0.8474046070316705 -0.5209074873271646 0.049924217275112856 -0.19676350791360506 0.0014751928930199641 0.0009919329266051152 0.4194030341553095 0.06627152666326847
62938000.0 0.8414642527431888 -0.5330495134641312 0.057531203468538517 -0.2140228102762685 -0.0012502429045812944 -0.0017627130995270127 0.4423928505278079 0.05511335440381573
63937000.0 0.8359565969258888 -0.5409727187761754 0.057067723541481 -0.23527875133516224 0.0011371730414831346 -0.0003307750013725298 0.4298881303239946 0.04994078366606052
64936000.0 0.8287953893814579 -0.5457665683138145 0.05629208127618119 -0.24848858029093773 -0.0023220304208438516 0.0016277447550447602 0.42166102285050167 0.03621446003019727
65935000.0 0.8263896064574903 -0.5585616954330418 0.05445549449183643 -0.2609375887968033 0.002125571877922193 -0.001617080104938009 0.4407526657018134 0.01986579410111946
66934000.0 0.8221939707854109 -0.563406596787896 0.05812295327255464 -0.2734280779588783 -0.0020896171533487645 0.0018286097212173531 0.4362993053212479 0.01192298258350149
67933000.0 0.8197542904556894 -0.570044119394709 0.058622752050331926 -0.2906250661923284 0.002215504178643875 -0.0007523467315623358 0.45126338526511833 0.010119070646821922
68932000.0 0.8010621957507101 -0.5665867112949711 0.050791479732439936 -0.29592405386395876 -0.0005588830285235221 -0.0005499700652275322 0.44701999160649397 -0.005276010009475381
69931000.0 0.8033901313419504 -0.5871700768536862 0.052661799891454864 -0.3195280494063117 0.00033197637552294493 -0.002378138653577341 0.4415089264902529 -0.010023570956222909
70930000.0 0.798740120763056 -0.592433914037185 0.052922467398957174 -0.33353445484094496 0.0008446250848330394 0.0021680689238515413 0.45319752236339883 -0.027658308084852198
71929000.0 0.7944954367298324 -0.6015441915150315 0.04749032523720929 -0.3527150562440227 0.003298044084254076 0.001760290761697253 0.4439812301729028 -0.03944815123672967
72928000.0 0.7883256406646597 -0.6115117280376998 0.038505718118987474 -0.3680820620389116 0.0003946809395441198 -0.003355605461305243 0.46775883796612266 -0.04700175242044346
73927000.0 0.7817120212233565 -0.618304466054463 0.034579415727771894 -0.3913737583530685 0.0008665266450022301 0.0005440449382672162 0.4631176416647714 -0.054421562744011755
74926000.0 0.7754068543402738 -0.6259131161991426 0.0262418212093679 -0.4059884215787356 -0.0014498332077019444 0.001231093572538128 0.4655861658371705 -0.060564925170289136
75925000.0 0.7688134507959097 -0.6325570231285756 0.01653925550035554 -0.42752810770697164 -0.0008002547433669842 0.0004362148396921432 0.46489145927950126 -0.0717931628637143
76924000.0 0.7645430020209999 -0.639253368032361 0.006687267889201184 -0.45291076852972706 0.003950169671791986 -0.0008439823136504645 0.4640291476216309 -0.07981481665419435
77923000.0 0.755452523069336 -0.6455813183776111 -0.0077487509850739066 -0.47825177106721867 -0.001606381252023578 -0.00020436355291874288 0.4588226555262111 -0.08422649740951965
78922000.0 0.7511544569321921 -0.6547681234787651 -0.030025634397384832 -0.5035627511139745 0.0010652702308670586 -0.0001373882808992226 0.4617823710952458 -0.10667928110768625
79921000.0 0.7416263258779953 -0.6597082706391557 -0.04099859869062823 -0.5266964959037082 -0.0010263923538989942 -0.0016748780732512086 0.46352389877983247 -0.11640612958493023
80920000.0 0.7361990382571011 -0.6707777829164584 -0.055393364341073364 -0.5564938372228188 0.001793853057416618 -0.002277732675117309 0.46737367522954426 -0.13185633719859072
81919000.0 0.7337129784868773 -0.6760559238109782 -0.07565032749032247 -0.584060113457174 -0.00018738334543284748 -0.003180902806590983 0.4631341223206125 -0.1250992079523925
82918000.0 0.721004787728974 -0.6847846859684416 -0.08470713725161903 -0.6186372051175353 0.0006390380666907547 -0.001982015439147774 0.4792183358456287 -0.15180109029037395
83917000.0 0.7144250027649836 -0.691813392255638 -0.109449535276084 -0.6452610441269869 -0.00037591373823679994 0.0015295257575408249 0.4825605052097529 -0.15064341091699984
84916000.0 0.7089764396522367 -0.6993959851958248 -0.11916574730348757 -0.6840459310014214 -0.0038175047069677268 -0.001079675611636779 0.46633633828642035 -0.16263106060532626
85915000.0 0.7026653379119464 -0.7052627967148772 -0.14661222590892223 -0.7128863475022026 -0.0016866282541618855 -0.0006301127882941519 0.464642278690375 -0.15961012250611145
86914000.0 0.6932461802056303 -0.7162364003311357 -0.1586263856239033 -0.7514397541798656 0.00022210140434762178 -0.00035587146532394844 0.4572912145738616 -0.1609121362190013
87913000.0 0.6862563456499043 -0.7223163529584796 -0.17653565911352234 -0.777651046064592 0.001299095095979229 0.00025239744136325564 0.46298016024575006 -0.17717178858051752
88912000.0 0.6802915210529322 -0.7279890085657118 -0.18824034526122396 -0.8136282204993477 0.003626780103752323 0.003763833244861718 0.47327380982765765 -0.19712826140666434
89911000.0 0.6724826208091865 -0.7367354391649745 -0.21009005967630467 -0.8482415455601116 -0.0011890790088060293 0.0003000290101987992 0.46540707737454917 -0.20631102815816804
90910000.0 0.6646758177007108 -0.7405430186706855 -0.22194073180942153 -0.8840073095336364 -0.0054520203350561045 0.0027168749109656694 0.46082772070730366 -0.2122047123621701
91909000.0 0.6563365530037419 -0.746931802640754 -0.24384323026546387 -0.9195218921476008 -0.00012815326421633308 -0.0009982908348125305 0.46450253926052504 -0.2234137297516076
92908000.0 0.6480242636796253 -0.7561973897624082 -0.26538085700739933 -0.9502391456696668 0.0005202596469123271 -0.0032419700910742005 0.4620393872861931 -0.23796659475901077
93907000.0 0.6422702758619581 -0.7600098018244266 -0.2821107655344348 -0.9832474288105589 0.0004688104122994642 0.0007293644687230154 0.4644012714934688 -0.23404576214973316
94906000.0 0.6287434430407152 -0.7683542882513944 -0.2994130079574594 -1.0154403460144108 -0.0030032038518827157 -0.0010157032356283098 0.4533859553611962 -0.2583961049923459
95905000.0 0.6232045714621698 -0.774374361005485 -0.3238636197289685 -1.052098976302634 -0.003178863372342766 -0.0006294347738142345 0.4614146260953054 -0.27583671947427424
96904000.0 0.6130718449326392 -0.784216770813332 -0.34632925979202545 -1.0890839641955563 -0.0011400520057899194 -0.0023685360794158026 0.4443241420806762 -0.27291757365415487
97903000.0 0.6039859281783874 -0.7894575813522168 -0.36565039734144084 -1.1202928306135171 -0.0003538885876221341 0.0029902915092690895 0.4546052119998733 -0.27928214303737753
98902000.0 0.5996693516370704 -0.7950517005724695 -0.38751248965990287 -1.1637605502587651 -0.002459819117430473 0.001409502558643853 0.45259013462165354 -0.29206382344986437
99901000.0 0.5890499264513285 -0.8008457742984504 -0.4156534973350703 -1.1931250186271865 -0.0009328790719926884 0.0013499850672000265 0.45908494249139514 -0.3198939726951297
100900000.0 0.5799734924746027 -0.8047624086628377 -0.4496499684410966 -1.223061227445675 -0.0021894385285481026 0.0005203493490465042 0.4534693695799815 -0.29815882529741455
101899000.0 0.5721176430199384 -0.8134716109731861 -0.4796546271588127 -1.2670147606800564 -6.557633491717866e-05 -0.0022291206849910194 0.45385264646001977 -0.31521649431341037
102898000.0 0.5614700137798438 -0.8203635175920868 -0.5171077362108684 -1.2991330595254171 -0.0018882612939699558 -3.7639960081113186e-05 0.4423777385611496 -0.3252769137973416
103897000.0 0.553951033052778 -0.826654817163585 -0.5553555958007835 -1.3399222268089879 -0.0018899709816605338 0.00024827363182005095 0.45409762500442225 -0.3306532570765683
104896000.0 0.5470688460637756 -0.8366640645871251 -0.5976135722846325 -1.370397085740188 -0.0027952671560816642 0.0013323048342369413 0.43902815398401945 -0.3359286056580834
105895000.0 0.5365971376090002 -0.8377534017405287 -0.6445399706241018 -1.4138980669100167 -0.004429117975627321 -0.0009840289689617566 0.43761473491294167 -0.36013740718241943
106894000.0 0.526193224730395 -0.8436110539258173 -0.6988656057810352 -1.4531910555110454 0.00013559641794637736 -0.0008344786686550839 0.4229665694798038 -0.35879501242978046
107893000.0 0.5170504382107501 -0.8505402086245372 -0.756422519483002 -1.4916921647052341 0.0016586984878521978 0.0037442289261738295 0.43166387147823637 -0.38239872543906395
108892000.0 0.5079800224649681 -0.8528144270745486 -0.8128869348246137 -1.53148073646796 -0.00027150587868769705 0.0018616180482030845 0.42779602686645934 -0.3701743454674724
109891000.0 0.49576856707806555 -0.8619171253353546 -0.8681254971332054 -1.5625277421304316 0.0015758248814704424 0.002245204736842203 0.44443310584927415 -0.37669487580688943
110890000.0 0.4789922515224555 -0.8758234446813173 -0.9554807270874539 -1.5765095699565006 0.002468111206550096 0.001621300131469133 0.4321335949677379 -0.3880911024028496
111889000.0 0.47313942770767814 -0.8683927518545113 -0.9986270431753247 -1.6336419721098343 -0.0032395387281594023 -0.0027648515073427295 0.43504490253917993 -0.39871398758467885
