! Created with skrf 1.9.0 (http://scikit-rf.org).
# Hz S RI R 50.0 
!freq ReS11 ImS11 ReS21 ImS21 ReS12 ImS12 ReS22 ImS22
1000000.0 0.9826336697217894 0.015216776016270549 -0.01781951473714875 -0.04218992654203771 -0.014077465899079803 0.01219189280260638 0.33289249285053607 0.34444549061608537
1999000.0 0.9928621452984111 -0.009388681860458306 0.008173941047013428 -0.024939160421362405 -0.00014320825236644117 -0.0006503024139576523 0.2608390487702713 -0.048121090019450294
2998000.0 0.9975392409887702 -0.022041542766976487 0.010487122712883839 -0.00864257955446844 -0.004019842257037639 -0.007794801826540207 0.18604513203178127 -0.13056492248792195
3997000.0 0.9976257108773682 -0.030951843567645257 0.012180318711842344 -0.007822270192491643 -0.0014965732886310476 0.0005699033157308802 0.10320857785172498 -0.2312702189622011
4996000.0 0.9953971258189194 -0.03730743465362471 0.013372720245077296 0.001153749374604295 -0.001004569532684165 0.00022435239187206774 -0.03578252932354594 -0.22529437554863543
5995000.0 0.9940743780904295 -0.04999749108080882 0.009197427768209112 0.003698066518638615 -0.0016240487589488715 0.002755539486735153 -0.13791326970356055 -0.10243549681469294
6994000.0 0.9959932292122902 -0.05676665028231269 0.008700471001272688 0.003713057597292699 -0.001177874007604623 -0.001692884672477551 -0.16869007821119197 -0.02797675686908582
7993000.0 0.9964620426133295 -0.06837588036055615 0.010042855610029353 0.009100111710946296 0.000982152383051789 0.0011925564831045494 -0.16749879267338763 0.03647636450151665
8992000.0 0.9934702036791198 -0.06990766187627968 0.0037562321843902817 0.00384583821061815 -0.0013250749092014362 -0.0028246491943256964 -0.16873059666535167 0.041623053404506616
9991000.0 0.9927455496911151 -0.08358911496897135 0.0009917239319424045 -0.0016688068446473058 -0.0016089803527024906 -0.0004183701993430807 -0.1569035520182038 0.08380067230327463
10990000.0 0.9936587053697282 -0.09222813768560789 0.007370064194980246 -0.0007186489366799233 -0.0016858479857455656 -0.002234845634368875 -0.13705569569288223 0.11653568208982201
11989000.0 0.9897973709746845 -0.10057233961981311 0.0026016662273928744 -0.0009152739689799602 0.005543614994204997 0.0026411492316841052 -0.129408056200685 0.1347045153042776
12988000.0 0.9902240675011073 -0.10837994220132482 0.003740497546042223 -0.0014706007884371984 0.0011169001337846163 0.005214961878638415 -0.11385783298201996 0.17247808467639722
13987000.0 0.9877151775003247 -0.11951908375026273 -0.0008153183686794872 -0.004810780679153314 0.002419256024031623 -0.0005150174431829519 -0.10744309397266406 0.18815176227338737
14986000.0 0.9868665092110057 -0.12731657299300767 0.003196299675685056 -0.00975431474155492 0.0016810970899393345 0.001184552503985155 -0.0957751415060693 0.197216839508832
15985000.0 0.988372557011831 -0.13634182370386136 -0.0008657464762165773 -0.003809769100662477 -0.0013637383316124792 7.05010657657108e-05 -0.06764057149182628 0.21505424900594067
16984000.0 0.9836817972536094 -0.14514392946626767 -0.002035826286636674 -0.0016628832321119633 0.0002555196518074947 -0.0008390089572013975 -0.06510065571346667 0.2176836081993237
17983000.0 0.9855270116557259 -0.15341744538003083 -0.0003192561932737017 -0.005479312746315945 0.0034251008851395935 0.0013235547680077206 -0.05593325810839283 0.23025209794785778
18982000.0 0.9814091122522007 -0.16367980217591688 -0.0034552301934310035 -0.005430587114797326 0.00011400701508143203 0.0005309244790478418 -0.0166949022131379 0.22855252607298782
19981000.0 0.9805533996744323 -0.16924276897969023 -0.003644308079741004 -0.005988526442659699 -0.0007199465975429596 0.004235281779285803 -0.019065753473166316 0.24315234525362991
20980000.0 0.9817623330631254 -0.17669215680513098 -0.005593347576773649 -0.004152709394250981 -0.0024818814254029217 0.00020219701763369205 -0.0016516579470509845 0.2578401244328625
21979000.0 0.9783438193978735 -0.18784622261834583 -0.005790879402103865 -0.006792855905603268 -0.002536127511657258 0.0030433798104435084 0.011313307778153186 0.24011131061263397
22978000.0 0.977382677285323 -0.19586861073835743 -0.009094666651283945 -0.006109622790502185 0.0044741190874589025 0.0019846605841140484 0.028111468536147006 0.25928825322868215
23977000.0 0.9758025815322343 -0.20380656402586028 -0.008116211226842576 -0.003093758572897136 -0.0005073857695018387 -0.00011774216709415108 0.03190203343869261 0.2582047256754154
24976000.0 0.9745780909339211 -0.213274647911077 -0.008141506034215738 -6.966095228130984e-05 0.0004615691609032292 -0.001744527932388613 0.05993640739470152 0.24310064349889404
25975000.0 0.9725673103884662 -0.22731115017250003 -0.003173232258967763 -0.004418034831307507 0.026993327481385603 -0.001974237084236045 0.07386642124403298 0.26259613781462793
26974000.0 0.9709338464731161 -0.22849882023529008 -0.004825160635535422 -0.0030138868060661135 0.0017360679461739287 -0.000761827499265048 0.08336373854977723 0.2584061486449082
27973000.0 0.9689669254323773 -0.23550720378605358 -0.005276069417901022 -0.0016658660437110701 -0.0003619013061522384 -0.001233709342158964 0.0980016786953093 0.25448515672412286
28972000.0 0.9648364913276215 -0.24737706048784008 0.000267226095769303 0.0005583251615661749 -0.002845702667198721 0.0006097088272233616 0.11535327077172591 0.251194411297833
29971000.0 0.9645532356759541 -0.253265807877904 0.0006525647216726601 -0.002765262714472765 0.00042179933734751363 -0.00018077657711716515 0.14708373360866195 0.2550627148521245
30970000.0 0.962656433830941 -0.2614326502445614 0.0026188777122678657 0.00015398180023752677 0.0032043400668538904 -0.000660633687347842 0.16044129957354708 0.26301788261856135
31969000.0 0.9598052720237629 -0.26980425352538545 0.0053006947573402555 -0.004614185790960907 0.00010694398079661257 0.002097077063384265 0.15495120647442143 0.2493493047696769
32968000.0 0.958496403670052 -0.27827946518486957 0.008251451588988264 -0.006949581584892939 -0.0022191003754194103 0.0003294413028286397 0.16161239014615458 0.24365848501795934
33967000.0 0.954892638114416 -0.29034013583190826 0.010851537351583911 -0.01105971766851122 0.0025578841691989984 -8.928142338780108e-05 0.1766793773219002 0.25108654011942894
34966000.0 0.9538942353471966 -0.2962913959877794 0.011556575439849143 -0.010860943857836463 -0.000659307233794193 0.0002412029229604178 0.1907453405072721 0.2487240784479155
35965000.0 0.9492200153645882 -0.3044596393107811 0.01983139893864652 -0.014468013165125667 -0.000776109175081048 8.164605365242736e-05 0.2081961464799896 0.24939259395555977
36964000.0 0.9478698701920752 -0.3141880043016579 0.016342082343270798 -0.011733601290982956 -0.00011414331420882538 -0.001017869606836959 0.21131866986386202 0.25117055065227706
37963000.0 0.9440334684464031 -0.32273860081814504 0.02212878551584819 -0.019700826798730746 0.0027784670806486177 -0.001288167136575044 0.22108541556421638 0.23764112095931073
38962000.0 0.9405639365682993 -0.33309159143416395 0.02280774333625555 -0.0250737070017078 -0.000133882011669086 -0.0005652575415962521 0.23415800462730005 0.23296338831232974
39961000.0 0.9382680759347285 -0.338732637817413 0.028214670261517437 -0.02535027906836221 0.0021104808234696268 -0.0014345896913985424 0.24839953326845862 0.2226938211199671
40960000.0 0.9344126351810947 -0.3473379411854141 0.022931855309247035 -0.023810712479801155 -0.001471613039615222 -0.0023179047468855243 0.2652409885481639 0.22622604663034002
41959000.0 0.9322135732155193 -0.3572101559960937 0.029892563412508424 -0.028697532729472806 -0.001424188731301916 0.0030032025430417847 0.2693749975736668 0.22184853261220142
42958000.0 0.9251607111003631 -0.3678979881411019 0.031786115791411274 -0.03648131196030366 -0.00029281149211225055 -0.0006182409491379533 0.2815489965435065 0.20118073001991157
43957000.0 0.9265945155529908 -0.3704550854140327 0.030246252028655222 -0.044517505746718 -0.0018072338083451377 0.0011560219779806653 0.2839498736976956 0.2117849044362292
44956000.0 0.9214039932798855 -0.38229624761156183 0.03460258105267298 -0.052941911405739756 0.0005109892774077465 5.3911522335759626e-05 0.3010438451235404 0.20145036018392679
45955000.0 0.9168122049759333 -0.3914548140681977 0.031679009626723834 -0.0580567477531246 0.0012224946573928161 -0.0009370642219432033 0.29670537590286383 0.19789670721702338
46954000.0 0.9132192420647742 -0.40012909372806094 0.030292139510970297 -0.0647763135164229 0.0014628869734538404 0.0046841681891130965 0.32895036986765913 0.1789495410833184
47953000.0 0.9115161939446014 -0.406184276571297 0.03786838536046511 -0.07144490611059204 -0.001244738163214287 -0.0005913754283345926 0.33273979856040387 0.17855991854831776
48952000.0 0.9048676674955619 -0.41976137895016147 0.035462589118836055 -0.07544251587353519 -0.004216689413364592 -0.0015799305374664331 0.3409854559753109 0.163187041713824
49951000.0 0.903602811778094 -0.4221442475419063 0.038811348517203574 -0.08548714159343591 -0.0007042264757372422 0.001092478816302954 0.3454257721148401 0.15644811703522207
50950000.0 0.8979871059870599 -0.4314355237830849 0.0348762712732334 -0.09352171939034182 -0.0002408524170575725 -0.0037467608464510412 0.3471322048308207 0.14945944409535689
51949000.0 0.8943386430731104 -0.44167089597928866 0.03780002940929338 -0.10135357451030799 -0.0023737193091856153 0.002235993947330664 0.3627841751677351 0.1424320142133295
52948000.0 0.8910611708282172 -0.45011613555531055 0.041094172334909536 -0.11239110475686567 -0.0007349889810642067 -0.0003576338162816811 0.38015375652773314 0.12961842138698107
53947000.0 0.8852274883683654 -0.45693741679910105 0.03896950361597031 -0.11907191923444788 -0.004652197150239982 0.0028079749186556108 0.36558576669936893 0.12949610018774552
54946000.0 0.8799457749507342 -0.46807978917952847 0.04387734764682866 -0.12958220877716717 -0.0008994374882708475 0.0009624363895016798 0.3834509928548708 0.11932880195750653
55945000.0 0.8793972064306725 -0.47561714033761343 0.044659152210073445 -0.14034055124477562 -0.0005901890260827599 -0.0016460161173938981 0.38887580007174066 0.11044539743354452
56944000.0 0.8734225661648083 -0.4841798721333644 0.04609754276722642 -0.14989955329764573 -0.0021925956324269523 0.00262139073157022 0.40478708207241604 0.10907243547344625
57943000.0 0.8692572430956798 -0.4926835105325713 0.04805875147231145 -0.15801607083829353 -0.0010393569957393982 -0.0010686002128988993 0.3999516653649479 0.09077366551756498
58942000.0 0.8615279897890892 -0.4991213593626013 0.048945174220356054 -0.17207554155236296 -0.00030878513568606623 0.003286870141824769 0.41886541037670677 0.097087766309886
59941000.0 0.86062412747092 -0.5049223020742079 0.049679312651379565 -0.18083635848038548 -0.002899894823304651 -0.0011252223701028552 0.4236639410089223 0.09415879758040888
60940000.0 0.8527602911526656 -0.5124583146932254 0.052651271932474125 -0.18235551419338178 0.0007920276212365342 -6.26093650534588e-05 0.4046074951137965 0.07621591468682347
61939000.0 0.8501111534100979 -0.5199877554632927 0.0506905729588828 -0.19271003008266116 -0.00033422080652661793 0.00011530775275191616 0.4162889498211205 0.07244708725317113
62938000.0 0.8422598094046602 -0.5315768347488683 0.053503462105052385 -0.20728827950131004 0.00133722556313287 0.0020128034574205147 0.4407018674113184 0.06229773252163131
63937000.0 0.8393745677905502 -0.5376631030630864 0.05496344540773514 -0.22842427832144055 -0.0011162145609201648 0.004559833223315388 0.4373881462716479 0.04749969533809171
64936000.0 0.8318125453619291 -0.5446833306716012 0.054056963139618996 -0.24196556195847763 -0.0023248756764637007 -0.001535602497063433 0.44128764853872754 0.0413750367512887
65935000.0 0.8282431928821209 -0.5570063104754108 0.05310957705935894 -0.2558295374193254 0.0008077898138732195 0.001062376198739255 0.4393417217928178 0.015340278131843885
66934000.0 0.8242761057666053 -0.5607442042698615 0.053243111860349114 -0.2659958121299588 -0.0004352974678742208 0.004436776827735348 0.4311962116857799 0.008951408908216697
67933000.0 0.8202152799210712 -0.5694004597697464 0.05676536598377695 -0.2799480939955974 0.0018323639573613927 -0.0035886632661149605 0.44001476537308487 0.012651435803064078
68932000.0 0.80696831847571 -0.5760428785606893 0.050047422826497635 -0.2932303241669179 0.0011963776461724543 0.00038406629324617617 0.4578325775922451 -0.002654566731291038
69931000.0 0.807335731838385 -0.5837894368665633 0.05105721439055845 -0.3122520631411849 0.004450278591636165 0.0003743213530298811 0.4442818766936326 -0.006255652063839938
70930000.0 0.8018872423785544 -0.5909668562546614 0.05165226075045637 -0.32459301956968645 0.0013999110994331835 0.002215332768272924 0.45280368795379045 -0.028608353529980184
71929000.0 0.797591080110458 -0.6019321116872175 0.04480627545434384 -0.34296578194420424 -0.0004792331822644678 0.0009872791307328802 0.44867679642869795 -0.028648747328298543
72928000.0 0.7887953562065746 -0.6089817175022112 0.038724741840921305 -0.357422673721394 0.0012168709094237272 -0.0010951624803189118 0.46556755319544346 -0.029651164231745384
73927000.0 0.7820608073125739 -0.615911660114992 0.030258455838596852 -0.3795617231143918 -0.0007171571233766438 -0.0025061983566976773 0.46501356084693063 -0.05228996246611709
74926000.0 0.7792305453657717 -0.6237028341036794 0.02768029793908511 -0.39630258598537244 -0.0030159173431237793 -0.0046859591658427 0.4684065694010805 -0.05548083195943198
75925000.0 0.7710508045921755 -0.63130974369303 0.013086713296372428 -0.4140519392819439 0.003127226010450842 0.0013304234030036119 0.47015106527077954 -0.06291836403182464
76924000.0 0.7669107704999335 -0.6372805838500012 0.0028049313800124764 -0.4399891336858143 0.0018321789985676223 -0.0009342187305485503 0.4715383945319576 -0.07812902786560075
77923000.0 0.7592643259979037 -0.645288785586693 -0.010270421325696805 -0.45992253679152606 -0.0017077819877793876 0.00044746475034384984 0.45083053981953214 -0.09126840400724269
78922000.0 0.7528333427130789 -0.6557722128845136 -0.019765556062398534 -0.48718927641219095 -0.003137467989020591 0.003131147877260206 0.46368652272260913 -0.09722728657848714
79921000.0 0.7457143941475165 -0.6588617649842815 -0.04365375146009868 -0.5128160243850322 -0.0002498688339107542 0.0023417954635217056 0.4641852915710921 -0.11232278101106712
80920000.0 0.7389551428480953 -0.6707995196020575 -0.056441286344295925 -0.5407271730076095 -0.003657367680897649 -0.00698937564170258 0.46308025958532145 -0.12259935053413328
81919000.0 0.7328996476263804 -0.6755838508172967 -0.07162243462567708 -0.5695170440744427 0.001406052849119845 -0.00264135363501027 0.4699687808775175 -0.125929421425257
82918000.0 0.7237082076622453 -0.6833269268441718 -0.08596421708705951 -0.5976046692911702 -0.003271171889457453 -0.0029210744276247664 0.4790015635015448 -0.14511386637077617
83917000.0 0.715939112603309 -0.6915119351318433 -0.1078369899044953 -0.6279867296275756 0.0014450233547202629 0.0006931984489408479 0.47352218623287595 -0.14952989617878268
84916000.0 0.7116652471751433 -0.6988463779681069 -0.1236345492681962 -0.6626074390068754 0.0011262459947981155 -0.002773335369802434 0.46621692863674985 -0.15799584072536743
85915000.0 0.7072336498497375 -0.7035062495225035 -0.14121235457993683 -0.6950619813246802 0.007009408539611659 0.0008456328885799909 0.4769048190600706 -0.16897651992889812
86914000.0 0.6983780430949124 -0.7143236966725386 -0.15626711790040482 -0.7317741493631085 0.002973344727632717 -0.00036172021084634564 0.45821357590713047 -0.16538321736016734
87913000.0 0.6911228497410824 -0.72028486583557 -0.17722419053526095 -0.7544990780816908 0.0006185499067112312 -0.0037148212808446827 0.4588125272448968 -0.17201885658308158
88912000.0 0.6817011440141644 -0.7274227108461624 -0.19299322402966262 -0.7902411076289542 -0.001335788630698694 -0.002638952151725398 0.467538114921353 -0.20469447452432046
89911000.0 0.6764695786880628 -0.7361253441952635 -0.20384052240251307 -0.8284979562748908 0.0006761609099584289 -0.0001692803493622031 0.46395346743930355 -0.21112667247187675
90910000.0 0.6697600899394449 -0.7410017133430303 -0.2231866084012033 -0.8593432928186314 0.00013439885222377504 -0.004341336472169594 0.46271495311788646 -0.20610718377851872
91909000.0 0.6595554198548266 -0.7441036256316209 -0.24054716390582787 -0.8905827158539869 -0.0014513825405925104 -0.0038556233021605248 0.47011637171052356 -0.21237799261159995
92908000.0 0.651908116378809 -0.7536524242987833 -0.263159984843428 -0.9235173946635801 -0.0017719274125318223 0.0012441592435127754 0.45532455992140813 -0.22875686384757074
93907000.0 0.6456447214624034 -0.7595164197314863 -0.27689124278549593 -0.9563994275577039 -0.003298020967708467 -0.00022086309389372167 0.46116127547902047 -0.2502167857050422
94906000.0 0.6337815162159385 -0.7683219203491632 -0.2919287059606572 -0.9877928145401424 0.000620180801471709 0.00273347262338786 0.46422980186498186 -0.24595563156878458
95905000.0 0.6263928486580225 -0.7742668225360607 -0.31657432267201946 -1.0205694848792768 -0.00028302506166506277 0.00010816302442834803 0.4625646973032077 -0.26212670834310614
96904000.0 0.6185991130635387 -0.7816833468438503 -0.330066064785838 -1.0622486265939772 0.00020721428672431592 0.0008629837110590981 0.4613960363374854 -0.26037600583014153
97903000.0 0.6079667572759546 -0.7885241994925462 -0.35847864655259853 -1.0846772976170458 -0.0008531209486354246 0.0007873445313631087 0.4575060617301234 -0.280969036289041
98902000.0 0.6032999475900908 -0.7941229863936654 -0.37087313109717956 -1.1259989328725735 0.00118688692261539 -0.001232983740940881 0.4497989853242069 -0.2877385024676292
99901000.0 0.5929155592975748 -0.801778260597557 -0.40437582886900925 -1.1586327848060842 -7.130077674681426e-05 0.005032808895529344 0.4587350746120255 -0.30715469950287166
100900000.0 0.5848414118868064 -0.8040907267468311 -0.43136515521989444 -1.1908090196845658 -0.0019319073276762504 -0.0041308550267191435 0.46518435110426715 -0.2940202543018115
101899000.0 0.5741620199350969 -0.8140742186637834 -0.45976181728549304 -1.2263532172348799 -0.00035153835808493424 -0.002523371925312626 0.44603779710809194 -0.32046301531371846
102898000.0 0.5652500149183843 -0.8182997927091062 -0.49479832763375686 -1.2652565014809596 -0.001386140115035254 -0.0010604561331587709 0.4530306350194781 -0.33122637545770484
103897000.0 0.5568281917970752 -0.8276889189768096 -0.5334549121560918 -1.299216008219009 0.0019723537913781874 -0.003915942935058692 0.45873479948767787 -0.32542762430992245
104896000.0 0.5454884598821863 -0.8344938619428908 -0.57768649263637 -1.3280450191354543 -0.0024203278576704883 -0.0029664959681388716 0.4393060880871234 -0.33200057477297934
105895000.0 0.5378127013823252 -0.8376669973831163 -0.6227452049371338 -1.3744429541278924 -0.00017464984882918684 -0.0007843911312686688 0.4396633481930315 -0.3482447593011173
106894000.0 0.5302984785724014 -0.8443788800081373 -0.676600271027566 -1.4066150356691145 0.00038250528133105773 0.0017011697961117369 0.4356090805527812 -0.368985857280412
107893000.0 0.5200266336276791 -0.8505092434787899 -0.7335438828021117 -1.4468318554706354 -0.0018305710722993332 -0.0011271700010778622 0.4373746934900013 -0.3742394315388578
108892000.0 0.5103041631065107 -0.8540874185428349 -0.7906773288734945 -1.481551968923627 -0.001049761212364858 -0.003376487622710064 0.4304725412170298 -0.37675518742965247
109891000.0 0.4985655799683476 -0.8631381383949067 -0.8443109830370934 -1.513401623635622 0.00044676229425938066 -0.0007984689940117239 0.4423310493532614 -0.3755788545312989
110890000.0 0.487802380218954 -0.8628773758435916 -0.9029430611849018 -1.5161223713005618 -0.00280148167623936 -0.0025089876386692514 0.42570018587180286 -0.38148500579408434
111889000.0 0.4765353428712546 -0.8687415156740098 -0.9727039183703317 -1.5773596329585096 6.341395710673277e-05 -0.0041589788245136655 0.4293752825021528 -0.38882377031528886
