! Created with skrf 1.9.0 (http://scikit-rf.org).
# Hz S RI R 50.0 
!freq ReS11 ImS11 ReS21 ImS21 ReS12 ImS12 ReS22 ImS22
1000000.0 0.9881352588000073 0.01654084095482495 -0.012386299972329753 -0.02620570975904801 -0.0012439528139541083 0.01117375941756201 0.38245739361967157 0.2899193568626414
1999000.0 0.9948237429583433 -0.01484619713301197 0.009875997346662524 -0.019084349840149513 -0.010001565387638226 0.006780561739361792 0.2586980557747839 -0.07060067063836442
2998000.0 0.9983277171547951 -0.018960795945992193 0.008932363499406395 -0.020007177450989243 0.003474238683463562 0.0023962934898558185 0.18744877386500367 -0.14569874850013886
3997000.0 0.9988614095505336 -0.03275723698484039 0.013399994913307935 -0.013026500402000589 -0.004545008338911307 -0.000755993181088086 0.08429045135768415 -0.24419174098099197
4996000.0 0.9983168890836011 -0.03447795774013812 0.01474912192948313 -0.0004987214326052547 -0.0018525546685269386 -0.006941942599000588 -0.06115969903265713 -0.20151938444756323
5995000.0 0.9990490264336785 -0.04617645252592565 0.007184693255127011 0.0015371461956926677 0.004594524573359873 -0.003253243037615278 -0.11387982037398932 -0.11126590408381144
6994000.0 0.9960751709654436 -0.05610000293157166 0.004426160855306966 0.0016560520039987582 -0.001685602829992507 -0.005022615625480537 -0.14566651617810672 -0.020908193769270746
7993000.0 0.9977445158852869 -0.06492270171669096 0.004859141808206563 0.007933780855697936 0.004416983203879479 -0.002402399490997818 -0.14872820017892335 0.025713451214259435
8992000.0 0.9948083546154476 -0.07020470961627807 -0.0007308080337875023 0.008438602695913622 -0.002595677772496535 -0.001444469387134053 -0.14898062185841288 0.06273998825853087
9991000.0 0.9956999127564211 -0.0828724118817927 0.006342006235828982 0.0037282651693792256 0.0011331992263773313 0.0008714422317416216 -0.14437009747650248 0.1030277935298295
10990000.0 0.994132704951183 -0.09298176784426199 0.003139810105715618 0.0010862202493261116 -0.0014569873423803021 0.0029893222792706014 -0.13646751459394094 0.10617522022841547
11989000.0 0.9924602336561095 -0.09857336827592196 0.003489139704347403 -0.000747302578924706 0.005702309752149194 0.0011085198809873457 -0.11983969825780687 0.13454256165792963
12988000.0 0.9900452121493198 -0.10753242071676898 0.0016596834746492898 0.0010568225923380235 -0.0024319999366280705 0.004565139201080407 -0.11153485541812697 0.17108701626031567
13987000.0 0.9882264304937244 -0.11726878735039564 -0.0030663340065970107 -0.0015494688912290962 -0.0023650657675422034 -0.0017146443594226793 -0.08772987439589185 0.18581676837543765
14986000.0 0.9867847179606908 -0.12526558400550342 -0.004954784851838584 -0.001315050689361784 -0.0007648149955243743 -0.0024631087524153395 -0.07946691574388624 0.2069371543498269
15985000.0 0.9906007338082562 -0.1356796926719109 -0.004789404566824886 -0.0026745036946276457 0.0003937272918345373 -0.0006150278422011813 -0.07396503235237453 0.20320909935549686
16984000.0 0.9884594121831497 -0.14255352865342208 0.0008855959457982087 -0.002411386050305877 -5.550978312281734e-05 -0.00011384218102451211 -0.047489253017358034 0.2216049260048462
17983000.0 0.9868238821536232 -0.14729829114844523 -0.002966248753566635 -0.0025934441822534726 -0.0005569661449531398 -0.003514140464405491 -0.049065075302772196 0.2194956812426461
18982000.0 0.9857543684092679 -0.16046002406844362 -0.005120350242491722 -0.00528545011959388 0.0012182341818022715 0.0029439203004138124 -0.012737920528930784 0.2352050426509507
19981000.0 0.9818430462503702 -0.16590135067199824 -0.005064332960753122 -0.005535592633605683 -0.002128997009334901 -0.0010456450259256475 -0.005980405673575089 0.23197985699347665
20980000.0 0.981451556615322 -0.17427315028529608 -0.0053096040538603085 -0.003912438749837521 0.0034379626715886607 0.0046868088865733544 -0.0008984212712445044 0.2555558711800998
21979000.0 0.9818801670962612 -0.1846199928312696 -0.007554479384830274 -0.0030094448769622632 0.005925148453711473 -0.001668959938848307 0.018489429941309185 0.2454335548772527
22978000.0 0.9764090969038761 -0.19471708801067553 -0.002755780533823197 -0.0029348734158564887 -0.0018212489859996434 0.0016016208236331315 0.044181589578605795 0.25008357433729556
23977000.0 0.97959992094391 -0.20135824009879827 -0.0057666954103572496 -0.004556176369749599 0.0017880255452138632 0.005995380912682918 0.03431957388643131 0.24870328469182668
24976000.0 0.9743813663399504 -0.2114471604431977 -0.0017341553003328851 -0.002336449539820486 -0.004045272294856877 -0.0010394351361385557 0.06102539463706549 0.2648397424354593
25975000.0 0.9709196171689207 -0.22441230955889338 -0.005186870919160483 -0.0008882934591177027 0.02287468386117153 -0.018746586020165344 0.07712817509039088 0.26450751986080856
26974000.0 0.9701741330107531 -0.22784804917715112 0.0012261419158304395 -0.004388876555286519 0.001589993507534225 -0.002086125567073807 0.08941385880572998 0.26326170236422347
27973000.0 0.9712519936743864 -0.23289035625489024 -0.0028488440248266977 -0.0012314381830645104 0.0022726517075213042 -0.0005234914592708287 0.10346128360207435 0.24490347981278487
28972000.0 0.9664097437144379 -0.24373818394087213 -0.00031702957767136596 -0.0007791732301378914 0.000876194022652338 -0.00012122462979244056 0.1182921645944009 0.2524231172249704
29971000.0 0.9655756163447068 -0.25023509534943295 0.002988989735079069 -0.0012718196421238187 -0.0014307041047730298 0.000589391282105193 0.15489612189001895 0.2620759273978295
30970000.0 0.9637159162662003 -0.25802243096327476 0.0018702736850102807 -0.0007396113190873066 0.0002195808639364894 -0.004405810109151539 0.17189591513286648 0.2504217836144339
31969000.0 0.9619842409184788 -0.26566694700225374 0.004905055596794414 -0.006431643039562736 -0.0009159455002742175 0.004205940852140389 0.15452074669689417 0.2415687577983425
32968000.0 0.9592054501701176 -0.2745809027608112 0.00863285375615251 -0.005957443607746824 -0.0019293256307093298 -0.001593032188465772 0.167401816822247 0.24720592511024256
33967000.0 0.9572172317047036 -0.28409960024185815 0.013276380813971303 -0.009148101061559975 0.0005209257903661217 0.003471867548980006 0.1804616957883383 0.23670044004647994
34966000.0 0.9531072786776847 -0.2940347956511576 0.014318501346267226 -0.01142629037338644 -0.0006348556728848562 -0.0005312007697725188 0.19639958561822085 0.2600685547869852
35965000.0 0.9500874997131445 -0.30244559199602444 0.015794269472596264 -0.01575678462653513 -0.0016817659931040124 0.0008259515446222467 0.22166433276206118 0.25396258501234037
36964000.0 0.9493026877144928 -0.31028551328581233 0.01346467595644995 -0.01467121787029961 -0.0004455042219616907 0.0012554293606628405 0.22232500598990296 0.2555808866574134
37963000.0 0.9469036450958235 -0.31848485591820996 0.022601767596870805 -0.018345170789530442 -0.002499461505672015 0.0015509767057450558 0.2370915460560301 0.23115643813175815
38962000.0 0.9440719456462122 -0.3275598375270929 0.022334513052170827 -0.025235947458583978 -4.099838590538431e-05 0.0005257773000317846 0.24585560866736456 0.22959977304823215
39961000.0 0.9400493505692131 -0.3360426289496626 0.027251433558366258 -0.027208480785665883 0.0004751714748208228 0.0010002641629277757 0.26221467978553264 0.22720611644489364
40960000.0 0.9372978045410607 -0.3438492430288416 0.021582551981034717 -0.021583716161864584 0.00041955627060205765 0.002889706012092492 0.27245860340694106 0.22973423238503052
41959000.0 0.9348327708896499 -0.3530969537333613 0.027579289291824523 -0.03360908176576464 -0.0009675167991083355 0.0018870604766059197 0.2799732832171535 0.21785420778494866
42958000.0 0.9299761574788518 -0.36160076376145817 0.031955756862881456 -0.036560057210846986 -0.001182628085558779 -0.0024951022996557836 0.28601615509630995 0.20116274582517404
43957000.0 0.9266399691766669 -0.36854360259576563 0.03152129103788298 -0.0454975077361945 -0.0014302431993048316 -0.000424399045670793 0.28499180449490163 0.20922793864285846
44956000.0 0.9235088217813443 -0.3765467775948073 0.0354109724204 -0.0514563589645796 -0.0006223465526341897 0.001436716358210047 0.30647659983555414 0.19539750731838318
45955000.0 0.920318454410162 -0.38702031701977946 0.033655095271578554 -0.05688600343239952 -0.0005675191474339157 0.0028441334903221193 0.3208085769443433 0.18377867450807603
46954000.0 0.9151496570436757 -0.39289277346604734 0.03421149919087305 -0.0656486328541036 -0.0050374670994851895 -0.0008528900863559602 0.3267115983278775 0.18174092550122992
47953000.0 0.915266085360375 -0.40078443798018737 0.03664739310302767 -0.06916754839664452 -0.0019628685322788464 0.0026150657518864587 0.3444178982854925 0.18502500031240143
48952000.0 0.9079287376590606 -0.41317363545708563 0.036231459866499595 -0.07927392048127951 -0.0018280322476284527 -0.0020201245609195654 0.3435016812183174 0.17225287226107266
49951000.0 0.9044728822837388 -0.4196139072044039 0.03712776609191612 -0.0853414683618343 0.0002602749759564951 -0.00022339500100907787 0.3550454009991452 0.1568157236834246
50950000.0 0.902456127302882 -0.42645475247731063 0.03541257135378972 -0.0938788519549145 -0.00012231654636126897 -0.0015435936920933084 0.35416021475038256 0.1465637879490118
51949000.0 0.8987336282309333 -0.434939997115536 0.039543782202568614 -0.1018024639423124 0.00045910529710737946 0.0032000239949551857 0.36363813770887937 0.14063278613686817
52948000.0 0.8960363829947359 -0.4407305554584468 0.03944260906962675 -0.11018486453697077 0.0018576783894376182 -0.0021982982912053715 0.3735793321563964 0.13938285645509227
53947000.0 0.8903167029190956 -0.4485545904449881 0.04253545531967981 -0.1183282594256652 0.0005309577469543308 0.0023788533981322136 0.3731181484506819 0.1305999460135221
54946000.0 0.8842783752818743 -0.46054781613839896 0.04308350538336404 -0.12841661137828564 -0.000568538925622497 0.00020146999713361024 0.3798578392870954 0.1269750900851786
55945000.0 0.8822901188205787 -0.46888940751158914 0.04292257294892069 -0.13654204451378552 -0.0030352539729810468 -0.0012735561974262346 0.39061486165645126 0.10277973412473605
56944000.0 0.8780095321631101 -0.47551463741794187 0.047441662655712154 -0.14891765378071067 0.003752761871432503 0.0002514239033698074 0.4049657465605181 0.10185059290201601
57943000.0 0.8732636556457074 -0.4856182875225101 0.04970535748589683 -0.15977468141792428 -0.0006174552513469856 -0.0011523832112557138 0.4079097358738849 0.0968445039858094
58942000.0 0.8684486602451331 -0.4902377939076436 0.046430379859102165 -0.17129273530021488 0.002228812757162113 -0.004792664371465148 0.42397278342842065 0.09176240580568654
59941000.0 0.8634800811846717 -0.49974349409203195 0.0511943518477253 -0.180690230031652 -0.0009238690614536498 0.0017080531568068225 0.4224049308827834 0.09019664089460841
60940000.0 0.8583252319570319 -0.5052942032587622 0.04949740693398114 -0.18439367278868837 -0.00034177261426160605 -0.00038896601537510633 0.4167030021494352 0.07579748136012045
61939000.0 0.8543013644235763 -0.5126794381102249 0.05306661223359793 -0.19136806748331592 0.0021431513678771374 -8.220543665327283e-05 0.42418841313264444 0.07346040341067438
62938000.0 0.8488649602328019 -0.5238818254052756 0.05136153555578349 -0.20820660266966076 0.001879553362419879 0.0007040608827737321 0.4539126404062038 0.05424683909527207
63937000.0 0.8444466410041096 -0.531328856514378 0.05721925518181644 -0.2322592030434923 -0.00041988331846248004 7.554108563262886e-06 0.4378281838070802 0.04378032630992564
64936000.0 0.8369916263884627 -0.5370969485256794 0.054910548387466195 -0.2442354309739636 -0.0014242483691877968 -0.0005364975883700707 0.4423871398314116 0.041689088495589444
65935000.0 0.8353540692942116 -0.5469873890352512 0.05352102186856471 -0.25729759525612483 0.001998589138735065 -0.0005438934556935136 0.44805135276021946 0.01461482595701413
66934000.0 0.8310889598014696 -0.553449252208467 0.05384721971760484 -0.2727298466774108 0.0013636246626024789 -0.0006198921964432815 0.44474346625316885 0.012736468969321842
67933000.0 0.8266947300911565 -0.5597546413854108 0.054705011394637015 -0.284726304939608 -0.0023643084186533315 -0.0016436649690204459 0.44433613251808196 0.0025425299533181267
68932000.0 0.8103085463656842 -0.5567437385213521 0.05062705132034203 -0.2924981270957088 0.00015817945153563285 0.0005643094464820577 0.45625282292951785 -0.009352809304485772
69931000.0 0.8140406807842383 -0.5772279718225147 0.05590054690119325 -0.3135728702371388 -0.0017874928557756232 0.0010602567498257706 0.45520936757784797 -0.014456207204369857
70930000.0 0.8074442869281389 -0.5841517369512046 0.04870760924990514 -0.32779196604120514 -0.0009501297686992197 0.000432286657268724 0.45942082806272894 -0.0328360327432595
71929000.0 0.8036170059099248 -0.5906554138432728 0.05095012189243821 -0.34524713126766987 0.0006036842271179208 -0.0007394475436926128 0.45332493539739027 -0.036392427675437274
72928000.0 0.7962486887848264 -0.6001785673292946 0.041042411062948855 -0.3590252292351471 0.000498256814799725 0.0034611997504892193 0.4650847995095986 -0.05399807050401398
73927000.0 0.7904090142458381 -0.6081082914160294 0.03503804920211525 -0.3806966445782129 0.000596751332196439 -0.000610846966830298 0.466349030207793 -0.0655056463326711
74926000.0 0.7856315126716674 -0.6159222370618126 0.030537269118250845 -0.3946127613171632 0.0015296314938462615 0.0014724245722731112 0.4674583495628618 -0.06196037237666746
75925000.0 0.7820344163473851 -0.6217050368994967 0.024137611263192443 -0.4153239411095356 -0.002400865949828743 0.001989163071483313 0.47371990397933367 -0.08480099330674659
76924000.0 0.7724561739027538 -0.6298340419773438 0.009167342412952304 -0.4391079536938197 -0.003113663618905313 -0.0030958922849326446 0.4655356366441108 -0.07774784631976911
77923000.0 0.7689973581284943 -0.6364061052412966 -0.005565489316142802 -0.46132804250693665 0.00027927389933805967 0.0016152763225744118 0.4600756354629193 -0.09965520858636027
78922000.0 0.7610386899197255 -0.6465188050515376 -0.01803333953170854 -0.48791916221659515 0.0025569584886051605 0.005189073566451916 0.46795626707425075 -0.09807698607692066
79921000.0 0.754789579763906 -0.6517369578172058 -0.03352790524258198 -0.5132084832541688 -5.555992704493556e-06 0.0011660320478955445 0.46010179285642083 -0.11570976238117182
80920000.0 0.7484334717779317 -0.6600686225775558 -0.04968660625718534 -0.5402160004338389 0.00010205373928924441 0.00012994775157378804 0.4737134451909759 -0.12002540560354816
81919000.0 0.7428481073065427 -0.6661924205423588 -0.06815860215874538 -0.5659209331627219 -0.0013799639775927213 0.0027107033242770176 0.47337280295523326 -0.12587410710827654
82918000.0 0.7347195217706901 -0.6744809748429146 -0.08225076046400273 -0.6009420140605025 0.001518852983017699 0.004322326201130386 0.48325552335226274 -0.13486709691592935
83917000.0 0.7257285835545421 -0.6835705460930263 -0.10093465198185445 -0.6283184962097662 4.3474305247557315e-06 -0.0030201885685910133 0.4775312623549491 -0.14098012598834192
84916000.0 0.7222970386758409 -0.6890374691467153 -0.12003473054848451 -0.6623113775160085 0.0004166907395878482 -0.0034899719557099215 0.473005570383318 -0.16604802652049802
85915000.0 0.7153619358546318 -0.6932263699977904 -0.13771975620480537 -0.6910861755750067 -9.085861238599709e-05 0.0034323587430052076 0.48126279591453414 -0.17358481868678904
86914000.0 0.7075802048414142 -0.7052502760053216 -0.15605216232162214 -0.7319910160860897 0.0005570391792899042 0.0009095035514064967 0.4647197995985786 -0.17694510543684708
87913000.0 0.7029587818558843 -0.7108167224937039 -0.17435155817816272 -0.7615587304245462 0.0002897385557975791 -0.0011858908989988638 0.4635225787851468 -0.18163210331152196
88912000.0 0.694368151906543 -0.7181509051187585 -0.187440408727421 -0.7930970894544358 0.00016536376917432826 0.002373616098604292 0.46778266313424527 -0.2038081586591499
89911000.0 0.6857693938348591 -0.7264526434285787 -0.20415442507728 -0.8266269393374288 0.0005900490072990223 -0.002603261109418231 0.47076967200254793 -0.20795881567178964
90910000.0 0.6787693571645277 -0.7306144340050049 -0.22084152508386637 -0.8622816974102094 0.002287425844520808 0.002125661907175802 0.46497451207997204 -0.2048011578385043
91909000.0 0.670993759402934 -0.7369766778177701 -0.24217059865985976 -0.8977488506685626 -0.001280017061170904 -0.00025127705060431257 0.4637050228871321 -0.21623932986911584
92908000.0 0.6627739607757263 -0.7451714312711243 -0.25992836786764106 -0.9259033182177632 -0.0021889918239635835 0.001397263203666576 0.44960362832467854 -0.2373315372264806
93907000.0 0.6569631072428774 -0.7513276612096638 -0.2764498802864121 -0.9616098891830451 0.0023336965575196096 -0.0013339493360773197 0.46777980112538275 -0.2510637347768437
94906000.0 0.6409786688903208 -0.7606466923806297 -0.29522681315498617 -0.995274535085848 -0.0014510235439736056 -0.0033059123175054536 0.4673020499797077 -0.24720925231423427
95905000.0 0.6372164741437786 -0.7646558880547323 -0.3165615824129556 -1.029932738792299 -0.0023981318528064084 4.228100200422721e-06 0.4682656235981599 -0.26135363651234406
96904000.0 0.6283299395512596 -0.772560720505845 -0.3332468664311368 -1.0659726693676663 -8.765157972605618e-06 0.003297858790956143 0.45672182220250046 -0.2806080396300639
97903000.0 0.6194287809803644 -0.778940253882273 -0.3573226279445247 -1.0972970839562177 -0.0016540523522995732 0.0011513965742315933 0.44522382568909835 -0.28932901247328
98902000.0 0.6147694805514745 -0.7869208849734961 -0.3724329661622865 -1.1375639495591274 0.0012424343093441403 -0.00060665612313777 0.457333477398137 -0.29023563418699594
99901000.0 0.6068870221117996 -0.7932232465562719 -0.40041940353993294 -1.1681071095827318 0.0021193112967558877 -0.0028825562168226446 0.46066095802141493 -0.314208985429749
100900000.0 0.5963018009260539 -0.7938948768050748 -0.42979644168327236 -1.1918153051112397 -0.002796530063714571 0.0012416246776061493 0.4621829955223205 -0.31272727810028766
101899000.0 0.589295667252078 -0.8038757746536015 -0.45374236776580223 -1.2344117499535086 0.003010609850299677 0.0005868800593669509 0.45654141518074676 -0.32750870108862906
102898000.0 0.5772593617875049 -0.8089012592607844 -0.4959825728486235 -1.2696564268519497 -4.989905312124258e-05 0.00018961734183247432 0.4491790967020972 -0.3338373726590359
103897000.0 0.5694449894693119 -0.8172651861503066 -0.5284466168538647 -1.3063313138651713 -0.00368197937938217 -0.0016973944513885067 0.45039730561790653 -0.3311949414198987
104896000.0 0.5616840341504292 -0.8251345110541065 -0.5705601718693251 -1.3401845853912984 0.0006076644390023481 -7.651730478762048e-05 0.4471928787495785 -0.33772801381091383
105895000.0 0.5527164162603753 -0.829462188397571 -0.6091439398736775 -1.376751408552457 -0.0011459961232369383 0.0010616889983539946 0.4275626772601128 -0.34831558178204525
106894000.0 0.5449538915145784 -0.8364909245055304 -0.6607713719276124 -1.4165312001847685 -0.0003034109015596089 0.0021346562978202806 0.43405472344420115 -0.3719010092911528
107893000.0 0.5374131172549421 -0.8410236402933783 -0.7048236810183715 -1.4561883537182658 -0.0021238606109378736 -0.004090223078917164 0.4284884922958 -0.36800756687746533
108892000.0 0.5261790961566754 -0.8452414748944493 -0.7721967087423165 -1.4908043923907435 -0.001719995907445948 0.0020550566896485336 0.42639683062427014 -0.369179065351189
109891000.0 0.5119358882125314 -0.8530760075567982 -0.8267000051704272 -1.5310975913361027 0.0013299766305713754 -0.0025512562870542844 0.43827338622396106 -0.36577402963138683
110890000.0 0.5088405093831225 -0.8656435074721721 -0.8979799114417131 -1.5472543826879706 0.0013448558194163942 0.00033943479051337584 0.42764468252053767 -0.3773288185719567
111889000.0 0.4912756320260992 -0.858965465896247 -0.9489300025805149 -1.59152055692113 -0.001209079352361958 8.710361243274228e-06 0.4157947709579739 -0.3931843476894853
