! Created with skrf 1.9.0 (http://scikit-rf.org).
# Hz S RI R 50.0 
!freq ReS11 ImS11 ReS21 ImS21 ReS12 ImS12 ReS22 ImS22
1000000.0 0.98331069754065 0.010194728438579872 0.011477108762698033 -0.029701881035705462 -0.01920596278529366 0.004236906741009872 0.3382393588322366 0.29405023063884417
1999000.0 0.9938344593990287 -0.015219784991919798 0.010753397727676089 -0.015456332880745377 -0.0017090290162703205 0.00047830938774719975 0.2685629825478438 -0.04470543918693313
2998000.0 0.9963420813528587 -0.02129085821528749 0.01336390694156217 -0.01352821533008942 -0.0011490750336295322 -0.008934186189916196 0.20856681334535543 -0.1498988824239983
3997000.0 0.9956614129952345 -0.03483769030551915 0.012240003381999353 -0.005327280984850005 0.005904191105697887 8.975937717148437e-05 0.10022098361716304 -0.2303778440131957
4996000.0 0.9960257192218288 -0.035530496955274334 0.012101450537354824 -0.002492090824900782 -0.00011697153518909031 0.0015151958031790834 -0.03793171819701867 -0.2145768283275526
5995000.0 0.9937602607174704 -0.04843507107453484 0.009995953245419489 -0.00015997327135668026 -0.002214928200595069 -0.003314128490736092 -0.11087579204970906 -0.12137746857365939
6994000.0 0.9914841445245828 -0.061071783604183534 0.008764197950863513 0.0012931002525248514 0.0039813020841890775 -0.008082943562813716 -0.14174843407419788 -0.032654000844502616
7993000.0 0.9916273988076554 -0.06709357113019991 0.005064854228523 0.006452312831552163 0.0009193590573209623 0.004256940210487212 -0.1605453274342703 0.033906077696822134
8992000.0 0.9938952837240569 -0.07420325360680952 0.0021337444564496614 0.0052575920609695785 -0.00021628831778714824 0.002282804594031168 -0.15653667855585154 0.06092018340740613
9991000.0 0.9885379752351391 -0.08357743389798121 -0.0027138521842347695 0.0021819345016347693 -0.00016545611204902552 0.0017994553776380841 -0.1516317393370656 0.10790561468995108
10990000.0 0.9894643969764685 -0.09308573613606726 0.0018150963922113294 -0.00010752772803987237 -0.0012998669430056933 0.0006950510561692814 -0.14148269091933247 0.1055768457343969
11989000.0 0.9864346054749791 -0.10103181453098004 0.0019188755336157 -0.004912918070097552 -8.899321585326996e-05 0.0010081936083682803 -0.13010349433647628 0.13436707375483956
12988000.0 0.9870698145070712 -0.11010054734185391 -0.005310743112917738 -0.004773094894834672 0.0008514976402641901 0.002978748851837717 -0.13177196308305913 0.16633154746240084
13987000.0 0.986621747952633 -0.11409144293456432 -0.00610463759605894 -0.002063895569762127 0.002178800014532541 0.0026899894576694907 -0.09473509602443382 0.18401467472321686
14986000.0 0.9865012034139397 -0.12649505204097425 0.0009598067446491915 -0.00013544702859022675 -0.0009270030191622112 0.00019421340390957792 -0.08395664216685177 0.2007288195570263
15985000.0 0.9851862699079876 -0.13479970033270036 0.0008114848139844811 -0.00529073736810594 -0.0006961182045933356 0.0002675543486448147 -0.06922937834449476 0.21509964487484587
16984000.0 0.982187285145434 -0.14413015702705032 0.0010052383775853804 -0.006031276839731245 -0.007273356335609579 0.0019438944611907267 -0.0598017046614202 0.22051804838885247
17983000.0 0.9848218840749939 -0.15298404937763685 -0.003617516922937737 -0.0026344733392386203 0.0006989073761203432 -0.0011959566779718973 -0.0497694804352344 0.22204471905104345
18982000.0 0.9820494367751789 -0.16134897453208033 -0.0043554297450027315 -0.005405410660518352 0.0006645115912648812 -0.00233817352184897 -0.01779618109427979 0.23447176209091705
19981000.0 0.9802348272186401 -0.16657963387414068 -0.0007744375962177562 -0.007201086043657127 0.004850440910621486 0.005162716215324004 -0.015932311534561344 0.24859194015650565
20980000.0 0.9792855252470375 -0.1772460954679506 -0.007333770453898153 -0.00518579281865661 -0.0017333830359867117 -0.0015147832836922546 -0.0032777792178525457 0.2603962005707439
21979000.0 0.9771561425566417 -0.18644408007181149 -0.006141315178389596 0.00019522367729753193 -0.0018137492302437044 0.0033617840520013135 0.009478353469918899 0.23871614205769429
22978000.0 0.9756373436433109 -0.19433092270820923 -0.009414764988251948 -0.0019448609864165872 -0.0030328926376810227 -0.0009047752491841553 0.014480357278935648 0.26063071646226654
23977000.0 0.974676509245212 -0.20236252413569097 -0.00689451399966797 0.00028556385104451564 -0.001591244435883302 -0.003346601041993269 0.03136208258442326 0.2622681267982403
24976000.0 0.9711826118352309 -0.21137412832676375 -0.010468813849445991 -0.0009222520861720962 -0.0018419813147567698 0.004045435927818771 0.05761764927038659 0.2560672961035921
25975000.0 0.9685823106602105 -0.22575993188811788 -0.0039814168167939135 -0.006649839145532065 0.020134820120008442 -0.011762981175488779 0.07615750897820357 0.2576797977903484
26974000.0 0.9668878938694906 -0.22841743516776628 -0.004087507765658625 -0.000590820723510476 0.0009711140056411233 0.0019498512851362929 0.09442602911687395 0.2695509786704906
27973000.0 0.9654281211172299 -0.23650144420923797 -0.0039690659168452715 -0.0011072017763267934 -1.8713689341180433e-05 0.0019521316382106004 0.1003121296417978 0.2590741100278589
28972000.0 0.9618553623074175 -0.2456084274662957 -0.001237299518531251 -0.00024309408973961975 -0.0025926600909866294 -0.0009154411012518518 0.11033323923968576 0.25865342969285804
29971000.0 0.9607464075479537 -0.2543753846458049 0.00017038380880370185 -0.002067352044892583 -0.0029993633334467625 -0.0015299663371378877 0.1536987284691958 0.2683829321174363
30970000.0 0.9608192395360758 -0.25895191141854307 0.00011275639232741557 -0.0015783451080588794 0.001886423072128749 0.0012352014033915008 0.1764473574280528 0.25514713411805545
31969000.0 0.957885558552599 -0.26831060524395106 0.0012234161508377958 -0.005091426309627709 0.0015608832200017934 -0.00028009137404217424 0.15122129583992672 0.2501364843290426
32968000.0 0.9569205738224941 -0.27673649231033615 0.009910685002414087 -0.006576731246859984 -0.0017510154975733162 -0.0017810561323434114 0.16534709871459466 0.2398384356846627
33967000.0 0.9545597316508877 -0.2859299721970143 0.00969393729953011 -0.008326652292438954 2.3657362962523614e-05 0.0013987469367552337 0.18550687706177116 0.24954972967484637
34966000.0 0.9506026785055545 -0.29809853891467775 0.01349447599012924 -0.012713879716743644 0.001159296610737019 0.0001832229449568482 0.19627533834359384 0.25356553452334124
35965000.0 0.9475895794644705 -0.30467092294859377 0.016922057409927922 -0.01318577313717719 -0.0005716026718439833 -0.001723927646572448 0.21122402459268533 0.2523500381451698
36964000.0 0.9466729591545949 -0.31276998738766926 0.015622281959765035 -0.014701406808179957 -0.004743390090550777 0.0009208596858722238 0.21240050489664658 0.24763723111367886
37963000.0 0.9415963012464653 -0.32202800033999485 0.021329851263940377 -0.0176250762570884 -0.002260096808362902 0.0009905264509985712 0.2228925754024282 0.23168878542448457
38962000.0 0.9400294447882569 -0.3298488986431232 0.024641703777100305 -0.02262089691704643 -0.0005546193306195138 0.0005140684307640011 0.24070259059760826 0.22726391706692065
39961000.0 0.9361632619402794 -0.33872325438672773 0.024589782390870424 -0.02769459560527358 -0.000622345845179851 0.0020140374390570244 0.2536536943870598 0.2268032979649901
40960000.0 0.9340466875481988 -0.348065097516596 0.021716391646877248 -0.02300579879159687 -0.000941348497783319 0.0012091462490708426 0.27161493763814365 0.21954097236012082
41959000.0 0.93163753055779 -0.3567491626593999 0.027064493877320177 -0.029676248819122994 -0.0004982422668500386 -0.0003299732406501094 0.26598463036075115 0.2182604167888777
42958000.0 0.925913432380303 -0.36500754947634434 0.03070555279752045 -0.038693502859894764 0.0008191986679866337 -0.002561667971022967 0.2832403808553805 0.21205735040997511
43957000.0 0.9236301316970831 -0.3726224001938544 0.03403452433449981 -0.045193016092139056 -0.00022303426591038789 -0.0009773844539585303 0.28833361032698845 0.21376892514302537
44956000.0 0.9201240766669966 -0.38144702828532706 0.03232076877675675 -0.05243081275823813 0.0039268785538231574 0.00015494412049995852 0.3009471363292699 0.1918187782053985
45955000.0 0.914888708651088 -0.39102653041417124 0.03263981234716159 -0.05897479615184844 0.001850218475659198 0.0011905266011431048 0.309078178881871 0.1924822189270119
46954000.0 0.9134017871528233 -0.3988824192353287 0.03407027245195263 -0.06262602880032965 0.0003333604370859901 -0.0011251051908932061 0.3239088096327973 0.1735211218476421
47953000.0 0.9092412502517091 -0.40908032494695823 0.03627999703157985 -0.07255312500443077 0.004101123533051607 -0.003008857295029178 0.33460548505290366 0.17087453801696448
48952000.0 0.9024003691933749 -0.419914607824806 0.03586996122319503 -0.07676968283311117 0.002351985768149329 0.0029075251948904946 0.33657352517559486 0.1710773260951703
49951000.0 0.9011123258405013 -0.4221241280326465 0.03563553913449398 -0.0861517262191185 0.0019143171899862104 0.0016119183188435138 0.3533231234094321 0.14741525417066992
50950000.0 0.8975621348890441 -0.43027183930443474 0.03500714126445814 -0.09192197046773024 -0.0047094181710079655 0.0004173843880597291 0.3538898238996705 0.13499897683041975
51949000.0 0.8925768565821223 -0.440237061483898 0.03823954580368791 -0.10081750483287936 0.0008583024216927564 -0.0018654456105020455 0.362446572051058 0.14689317652102576
52948000.0 0.8912021072126923 -0.4470703479830181 0.04183036047361038 -0.10925675424767942 -0.0009619346783485669 -0.00098161995079279 0.36860875361436213 0.14785268585611322
53947000.0 0.8834665089425332 -0.4572561274230152 0.0425868337178849 -0.11822505547693865 0.0013825077953531083 0.0021604822104076414 0.37963157583131213 0.1263587843239824
54946000.0 0.8803388575353248 -0.46271474835194004 0.04146913103506375 -0.12521595010974726 -0.0007131974461768505 0.0018004402364676865 0.3786663741574706 0.11871311866190061
55945000.0 0.8754610318593402 -0.47117836260675133 0.04766862387091626 -0.1357795969189153 -0.001369101226861527 -0.002632458223240449 0.38843807087130855 0.11326129725191326
56944000.0 0.8709454588073329 -0.4800810336223297 0.04611508750293965 -0.1460111518494605 -0.0020029117997441134 0.001495655888848032 0.3980814363504797 0.10611284420911987
57943000.0 0.8672504723729224 -0.49110083707721686 0.04901294713134895 -0.15963638831776292 3.0645474658431e-05 -0.0021189885230616418 0.39449640755524784 0.08959061722197144
58942000.0 0.8595052596674069 -0.49786071038098945 0.0459902866312258 -0.16835329811921623 -0.0017724385750654624 -0.0009466336783829916 0.42215407991599546 0.09533093385590684
59941000.0 0.859618132811404 -0.5032456853186476 0.046647237919062896 -0.1772989241590663 0.0018274380436616264 -0.0023574819022588846 0.42204383370884063 0.08909287578608337
60940000.0 0.8504751399737162 -0.5130119473235373 0.0489518476301443 -0.17897515875773135 0.0005565673136620193 0.0012974109866052633 0.4076590310059163 0.08327827342517038
61939000.0 0.8470057092704906 -0.5204523076086736 0.049597390095897205 -0.1893049209995223 -0.00035370328382937566 0.00019516516707987654 0.4177254612615224 0.07309434090638185
62938000.0 0.841570817195873 -0.5302201760827955 0.055920489305602394 -0.20807532925945835 0.0005687011411689567 0.0012489687946818872 0.4365217419322712 0.059915003835981154
63937000.0 0.8364064914820013 -0.5387576641745052 0.05645989286546978 -0.22401604590399252 0.0014397561395017213 -0.0008218819866155361 0.4270252242776062 0.04235172692760133
64936000.0 0.8288636073063874 -0.5459862847554349 0.054482899211382184 -0.24071547667227874 0.002226899944792299 0.0024710795506587917 0.4364803958575716 0.04411356547115244
65935000.0 0.8259256756562477 -0.5541336046241652 0.05532730152398336 -0.256840181886488 -0.0014893167043585397 -0.002889151623248357 0.4368144503444623 0.02012886466508388
66934000.0 0.8218822125056476 -0.5582591931923929 0.05246984658613577 -0.26956748347201925 -0.002770506930831893 -0.0007417846472099853 0.43952652574111056 0.007448028058411685
67933000.0 0.8188634773597685 -0.5674439307422964 0.05501829916247243 -0.2796509219715156 0.0003310594860214522 -0.00017271564829282805 0.4455977288442824 0.011364917074372526
68932000.0 0.8099517884237044 -0.560463141493928 0.05356037939698594 -0.290588182758162 -0.0014021680033112836 -0.0006527524450900571 0.4456670425220545 0.002899806361683804
69931000.0 0.8022362152346378 -0.5857841798094274 0.05377904049389474 -0.311101719856249 -0.0011220507376047831 -0.0015714108117041074 0.4452423234363517 -0.007502713575715101
70930000.0 0.798379189805115 -0.5927452094653555 0.045425763183700014 -0.32307303031275825 -0.0017683731313522751 -0.004534980473751938 0.44804736466422296 -0.03244583862508061
71929000.0 0.7947425386166542 -0.601273995923785 0.048688670231752156 -0.34176138305581527 -0.002720724326724918 0.0025492034362065426 0.44436261381054387 -0.039770106219514
72928000.0 0.7878516071335954 -0.608080165680489 0.039102047220421356 -0.35484724148328334 0.0009393132147511205 0.0007816311865054485 0.45509936018202846 -0.04549419554787579
73927000.0 0.7808350492780154 -0.615183337219076 0.036037149995220605 -0.3768836831914999 -0.001316788141310367 -0.003612743488473045 0.46637658939144305 -0.04996468860120473
74926000.0 0.7788036231917883 -0.6241942091715871 0.027059905415861472 -0.3928811552002727 0.004690184343863017 -0.0015635362474155294 0.46100111944358735 -0.057356495931753536
75925000.0 0.769576150931646 -0.6299957061815838 0.02096398374673367 -0.4146905570564112 -0.001198883181644922 -0.0009925867922096026 0.46534198968550466 -0.07107509437584808
76924000.0 0.7637888029581535 -0.6356897674972839 0.008839834140220425 -0.4383269535015881 0.0014296287625405902 0.0032033707731570285 0.46336464489265866 -0.07325390870458946
77923000.0 0.7567045553881421 -0.6432250815319894 -0.0077733793695017785 -0.4605064113319898 -0.00032918236384823195 0.004182524354430576 0.4507799705399868 -0.08986252785765969
78922000.0 0.7523582263195332 -0.6534926889402252 -0.020700657512456443 -0.4891024469451283 -0.000703734069786699 -0.000401948428928948 0.46239652826207955 -0.09735816931914798
79921000.0 0.7418251790828554 -0.6568552577750213 -0.03923556234005192 -0.5091691172968957 -0.003528919594481349 -0.0019479561577678255 0.46058471994545036 -0.10712559254338352
80920000.0 0.7395754047342923 -0.6670494247775857 -0.05213998917253339 -0.5378499638320041 -0.00014836742421681773 0.003583118120008224 0.4663282649629785 -0.11800866582848092
81919000.0 0.7323220474991272 -0.6728751383753795 -0.07020319600157107 -0.5690792236456756 0.005082211359593092 -0.0013810526363694229 0.46496571332342695 -0.13220463935368046
82918000.0 0.7236913669027438 -0.682102645263481 -0.08513609871711762 -0.5988538049785016 0.00204146339197955 0.00012404133228562182 0.47471872197620074 -0.13227075068692484
83917000.0 0.7142594827995977 -0.6904614739367079 -0.10576466003254016 -0.6248253835690426 0.003120798988536738 0.0037939279881473863 0.46474561945787324 -0.13843500489297378
84916000.0 0.7098537911300916 -0.6964532350561925 -0.11951493438257545 -0.6604042099688104 -0.002050563452632957 -0.0013611626593563343 0.4727422617624684 -0.16654544145279324
85915000.0 0.7034973967496645 -0.7025282731566362 -0.1360795072099246 -0.6925367694769022 -0.0042531508274334 0.003449511373282103 0.46986526488874025 -0.15950171507239028
86914000.0 0.694913201192553 -0.7121207659900941 -0.15570688931223725 -0.7253457093556884 0.0030040915349401707 -0.0023556109572254944 0.4601938081971923 -0.16806517524152875
87913000.0 0.6862890667080545 -0.7186365310426319 -0.1686216825480848 -0.7558425933702418 2.4713522623644887e-05 -0.0006889319077545259 0.4660668542700082 -0.18542472169551422
88912000.0 0.6799960580595353 -0.7255619134667235 -0.18881185133503306 -0.7883193073301182 0.00019980818461262043 0.0022310683010582193 0.4653834370477673 -0.20728796585090709
89911000.0 0.6725031448612462 -0.7352400449817282 -0.19748012417025085 -0.8263249633326482 0.0013307696376774303 0.001387652362025836 0.461040903596937 -0.20610848546219496
90910000.0 0.6667344067901897 -0.7380991111518382 -0.21821356319523103 -0.8576022657139153 -0.0017989618092454868 -0.00047516773091215353 0.46266480069045374 -0.2092986846376793
91909000.0 0.6577167236218002 -0.7445440767215897 -0.23431741115430513 -0.8915568609432291 0.001478207873015898 -0.003167465616601673 0.47012781781643503 -0.21396135422116974
92908000.0 0.6496527402230797 -0.7510579102024316 -0.25564324616375095 -0.9219938380937586 0.001461008765898421 0.0018522411270587783 0.46029744153444363 -0.22983270141092949
93907000.0 0.6430340559790123 -0.7569049636752162 -0.27017620096289197 -0.9502786165558283 -0.0006562726784386013 0.001619434726821376 0.45544942439751895 -0.24862518047045962
94906000.0 0.6295666407976621 -0.7662770000063602 -0.2903221556697037 -0.9852204496432747 0.0020335885305103507 0.0012482820063898835 0.45342874828527296 -0.2476320976639552
95905000.0 0.6245188383902871 -0.772262533256435 -0.31051714598982505 -1.0186593184884405 -0.002128135446709614 0.0009281346969907289 0.4569706389093955 -0.26705569431251397
96904000.0 0.6151621432773255 -0.7816062450367495 -0.32830235078973596 -1.058661327757812 0.0021933116509598844 0.004074662416196417 0.4583122150810855 -0.26659282933242756
97903000.0 0.6047690458850646 -0.7851210076289313 -0.3451083718036697 -1.0899651401012878 0.0017602828389906016 -0.0001412661419278779 0.4444595284251935 -0.2907337606437453
98902000.0 0.6024060753220849 -0.7930985000011301 -0.36613858524110054 -1.1275942546384516 -0.001229095646416171 0.00016416320903849023 0.44482393492593153 -0.2803262605304945
99901000.0 0.592863677772951 -0.7986176596566911 -0.3943148096332036 -1.1595204941823714 -0.002198276056549165 0.0009029370995272324 0.46724812565463625 -0.31164030971174006
100900000.0 0.5829911349552173 -0.8035800103123694 -0.422975318394986 -1.1896544084723348 -0.0003754123319514438 -0.0001308315511479512 0.45380098416096765 -0.3084847075245987
101899000.0 0.5742828495651026 -0.8112705981116201 -0.4545217985720301 -1.2261419238782463 0.0022708918877219248 -0.000560378375357003 0.4533267341160384 -0.31539587437486655
102898000.0 0.5631638176375734 -0.8166298496245861 -0.4835415998724019 -1.2604805115200464 -0.0019926696159730402 -0.00088238877157569 0.4517042404270731 -0.33559000392324106
103897000.0 0.5569530081570544 -0.823488527462167 -0.525157476788344 -1.299694850905127 -0.0011177778651089863 -0.00020469901302157525 0.4580451042106255 -0.3374808464693623
104896000.0 0.5485383499690973 -0.8331817051467106 -0.5675197743610132 -1.331179706282448 0.0023361284292963158 -0.0003397252243542231 0.4366847169225073 -0.3365267300086423
105895000.0 0.5398794891308597 -0.8343353634892877 -0.6129133238539028 -1.3743332118607048 0.0026393271078319113 0.001419965616190631 0.4383686064794011 -0.35484192989880436
106894000.0 0.5301156816181412 -0.8414210954869943 -0.6632930408702568 -1.4079809443558131 0.0005729558503177746 -0.0007809777214483367 0.43420847912191635 -0.3523125019902534
107893000.0 0.5217485149951586 -0.8464885433461853 -0.7141648986197341 -1.44825526969677 -0.00047490319333364737 0.00016002446796194742 0.42845363551185284 -0.371184908736436
108892000.0 0.5095649132992315 -0.852277654270219 -0.7717161984982326 -1.4821793690290783 0.0011549092478013766 -0.0002950012587411432 0.4143159625981032 -0.36844091871073054
109891000.0 0.4959538167720448 -0.8578042251966593 -0.8327695529206842 -1.5168306600699644 0.0025684012487760524 -0.002233552055512836 0.4360292214967485 -0.369275234724642
110890000.0 0.49486790236595973 -0.8682327931746848 -0.8907462733914697 -1.5421778979220293 0.00019117992233252148 0.001037935004574916 0.42536086012950647 -0.37647606198918737
111889000.0 0.47726290929093335 -0.8661098842209078 -0.9562425835979274 -1.5851608480889128 0.0004941735917780606 -0.0011754052371051316 0.41897094547342006 -0.4040810400576949
