! Created with skrf 1.9.0 (http://scikit-rf.org).
# Hz S RI R 50.0 
!freq ReS11 ImS11 ReS21 ImS21 ReS12 ImS12 ReS22 ImS22
1000000.0 0.9736527497495918 0.0051480195068806175 0.0035401950218244423 -0.040919574171659576 -0.013645036104862665 -0.0005877575467514734 0.3362375498095632 0.30394445246962715
1999000.0 0.9979584850472133 -0.009860528630901456 0.0060064982523103765 -0.021916412384874774 -0.005802790636615998 0.0012871445268118492 0.24054159231263195 -0.06586433923598994
2998000.0 0.9955990091726606 -0.020560068953587664 0.013541460259357757 -0.017914131804367038 -0.004046743756427826 -0.001255865642340933 0.19360784014490667 -0.14768079906482176
3997000.0 0.9996047182928643 -0.027550422138387928 0.005453155443069547 -0.005111592307483156 -0.003064536879181829 0.006439615459220721 0.09680244214887838 -0.23411003177235498
4996000.0 0.9967861385541492 -0.03801964194884812 0.011734724173259076 -0.0015093621136192227 -0.0023633596709730156 -0.0015525017833221055 -0.030840915089940885 -0.21244827005100575
5995000.0 0.9953407326665658 -0.04526600182503542 0.01025007836118834 -0.0002968185026636853 -0.0005290718469233911 0.0029548587078156666 -0.13449638634457184 -0.1164574607324566
6994000.0 0.9919007152908567 -0.05898220686314577 0.004642198626828318 0.0027366145509138255 -0.0024805238869261685 0.0012782911493821323 -0.14053984979199635 -0.0300137246614461
7993000.0 0.9956884292519436 -0.06546415039246409 0.004642368916869332 0.0014170063656121896 -0.0013324887412594132 0.0021446176836249636 -0.17180162404873844 0.033767178571150004
8992000.0 0.9944747332982788 -0.0729636649528868 0.005894961190663855 0.0031778676515183857 0.005779583838014665 0.0010057259472742396 -0.15577174090961973 0.06542825113508917
9991000.0 0.9922584306150714 -0.08336940321290366 0.003705284429991154 0.003573320881905951 -0.005242140511143378 0.0024453758114509607 -0.1589044695332148 0.09390137513565824
10990000.0 0.9918742686662892 -0.09253861417653661 0.0022785720504376566 0.0003869701508389684 -0.001444751566101669 -0.001559779103029264 -0.13835525183358277 0.11944810716820044
11989000.0 0.98950184491721 -0.10102036009853443 0.0041409791417391035 0.0052958994972980445 -0.002492831379224725 0.004150879340772574 -0.13749419207921387 0.14582384624431025
12988000.0 0.9900366002113202 -0.1095665449213874 -0.0014656182472657423 -0.0035872765331769023 0.0016992893189581124 -0.0034243543426717505 -0.12800439228881658 0.16812022834796161
13987000.0 0.987018225225167 -0.11917065653239264 0.0014431015696493674 -0.0031176542125892557 -0.0009527705689367574 0.0035825144623000374 -0.10490578942421096 0.19320274699207335
14986000.0 0.988526771462264 -0.12864705345398672 -0.0014009023648403577 -0.0026158765492057708 0.0012280226015537463 -0.0016789810754362804 -0.08886581054123449 0.19817510036495356
15985000.0 0.9895118928188619 -0.13361666042089693 -0.00449127682579383 -0.002866740518583309 0.004154729932884195 -0.0020163250741128272 -0.07415104607902892 0.2240785186500387
16984000.0 0.9840581793681217 -0.14780673747734835 0.0007080579578989627 -0.004163531389188263 0.0012768676487029437 -0.00016749578961817457 -0.06917721415765594 0.2210893629484372
17983000.0 0.9872195467638383 -0.14725691050813805 1.3317198575211733e-05 -0.006961290865973286 -0.0006864689064383396 0.0009085168145952776 -0.04578156275352455 0.22393080131963777
18982000.0 0.9823059303250711 -0.1623055000460441 -0.0035952228195747235 -0.006983905574362325 -0.0027893945739184706 -0.002430231549687024 -0.030560895292423382 0.2417681091632342
19981000.0 0.9810704489411154 -0.1658389846069923 -0.002740968775766013 -0.004677843074834358 0.00283452308787519 -0.002393466944581123 -0.01651146949502874 0.2501248812176125
20980000.0 0.9811741482633425 -0.17853421506732148 -0.007220682880292674 -0.005188497850269218 -0.0017345012785726906 -0.003354170600853466 -0.009692263397246036 0.255184493729189
21979000.0 0.9773113966563121 -0.18557189364418517 -0.004837413132121641 -0.004992799038583177 -0.0013126216310698612 0.0006918792843672206 0.0002459230765148825 0.24747618332265703
22978000.0 0.9752055664811191 -0.19537134064452602 -0.008760999210945794 -0.005258402522088546 0.0008114655269779167 0.0018176911929671806 0.020487183169458224 0.2669389028800056
23977000.0 0.9794061439973587 -0.201467370455429 -0.008025539498249334 -0.003421243507869591 0.00206744444333562 -0.003269382013381224 0.03602425358956383 0.258945877777046
24976000.0 0.9735473091536466 -0.21295546940075047 -0.007427595122207165 0.00022945215231139822 0.002393838652437482 0.0007559175666838943 0.06085875164920602 0.2628230247556334
25975000.0 0.9709254288677446 -0.21892327290397062 -0.0008344522275689023 -0.004836936863403253 -0.019963367077668187 0.01782485821352512 0.08169461820498979 0.2638674806442638
26974000.0 0.9690328805860248 -0.2293041261995762 -0.0046668825623350264 -0.002511600750870501 -0.0005199691800249545 0.0006142564978591406 0.08353763380754245 0.27483005916217923
27973000.0 0.9698477098100939 -0.2345900348376202 -0.001311482209239375 -0.0013849092466470892 -0.003516612008931692 0.002734801934553472 0.1046554893061126 0.2576278117092527
28972000.0 0.9644671569591059 -0.24725292699424087 -0.0043346871629404045 -0.0014821217247040369 -0.002046929371623024 -0.0016341040837679138 0.11243525817474435 0.25821449302697663
29971000.0 0.9637063395479235 -0.2538107931513993 -0.0001940379673332757 -0.0009909812050115634 -0.0007466435522277672 -0.0014114924836146673 0.14230623827994582 0.26997356698686503
30970000.0 0.9610913981133388 -0.2602423325547704 0.0005287775706676964 -0.0012924994054477432 -0.0031729358349840866 0.002852886414330903 0.16471953291561298 0.25312906345392716
31969000.0 0.9580073769187114 -0.27168052887597566 0.007581921239083755 -0.006706900674620928 0.0007598156181212781 0.00035437869753835377 0.1496721534111225 0.2547932873885759
32968000.0 0.957935673399834 -0.282591910728185 0.010072789521737182 -0.00707337850137271 -0.00011506676169212777 0.0023009568478880014 0.16627748620787283 0.25067540519243336
33967000.0 0.9548033872400216 -0.2915577512397525 0.01016335142186958 -0.008615002268419991 -0.00012094389670207126 0.000973010910188991 0.18513045272039663 0.2491611711654546
34966000.0 0.9517964852360867 -0.2965523030044312 0.014080296951351752 -0.011675605470028291 0.00019976976115465347 0.0022315015248879425 0.19211465403768993 0.25667154580899443
35965000.0 0.9499264478594973 -0.30600105493615165 0.01653405377605063 -0.01639586335087805 -0.0009794985872060367 0.004795718406762575 0.21070009080656796 0.2605864872822534
36964000.0 0.9479767553520236 -0.31482132535971835 0.013252940134472741 -0.011521388040166065 0.004739772285565001 -0.0019769680778884435 0.2143028862826295 0.2557722252785364
37963000.0 0.9444144602034896 -0.32331218104882953 0.022464967996410366 -0.02090615954522155 4.256779689631708e-05 6.400106349658496e-05 0.22526730940314857 0.23753736682733967
38962000.0 0.9418825070176197 -0.3332129214394356 0.02408619967631424 -0.024743676265921357 -0.002437348507914172 -0.0030541513738792585 0.2386140916395637 0.2357776117468024
39961000.0 0.937316300025961 -0.3404094501561945 0.026653494650240205 -0.029392699668788793 0.0005021044418806327 0.0001039774250451908 0.23608631650841122 0.23479552934732442
40960000.0 0.9346680262633287 -0.34810557221339267 0.024937541149943503 -0.026475030671840104 -0.0005949412272649231 0.002035921683317044 0.2590021954850866 0.23735300089087774
41959000.0 0.9296559476476778 -0.36092162705952974 0.0289930502946833 -0.03408603686335454 0.0012926667437295751 -0.0007719780887250472 0.2634712384489991 0.21383246567149397
42958000.0 0.9253181303168643 -0.3692319406103737 0.032615462821225676 -0.040180616369802566 0.00054881244038234 -0.0007790641802127604 0.2801134617268018 0.19742709980503576
43957000.0 0.9252626218255472 -0.3741419267584353 0.032412085367797785 -0.04711185127248332 -0.003959560216677433 0.002059666837477693 0.28221890819873224 0.21113668885372705
44956000.0 0.9210227551764355 -0.38271804792981423 0.03283530878623109 -0.051868199588600096 0.00021134554617567185 -0.000134032689601108 0.30202537189368206 0.19978229627642946
45955000.0 0.9153622392243062 -0.3928558827028864 0.0318174725438423 -0.05901469224033827 0.002102953405717277 0.0006552696101896582 0.3060611650324317 0.18792200868708975
46954000.0 0.911896621208796 -0.40122930237705945 0.034093978311016314 -0.06484235606683296 -0.0002288020112061015 -0.0007613889412160141 0.3227059542147857 0.17763244801365718
47953000.0 0.9119556024715462 -0.40753284957504887 0.03645190630643884 -0.07240276642896047 0.002092806804510602 0.0007382553743239003 0.32641875800681924 0.17249763421648875
48952000.0 0.9034046626196259 -0.42080495871854895 0.036577185691252845 -0.07943024855524253 0.0016961913074479535 0.0022082574751912426 0.33660096583002386 0.1732025392634159
49951000.0 0.9013649752100339 -0.4241865191924595 0.03502483656599058 -0.08809039663536344 -0.0003854741171994563 0.0025470229315870518 0.3495260849685784 0.15259558273927237
50950000.0 0.8979206927754152 -0.4321621001970422 0.038120339715837226 -0.09511803060050793 0.001697705492076115 0.0009464650176966905 0.3535392298560495 0.143980317310358
51949000.0 0.8921105406414414 -0.4428107247181746 0.03935014774631754 -0.10516418154216282 0.002584113561012019 3.9783524149886426e-05 0.35421766932196347 0.14494867044618295
52948000.0 0.892369691541791 -0.44834542085718765 0.036758261350511835 -0.11299285827399654 -0.0013254308783743857 -6.228776389263035e-05 0.3719713482243425 0.14577582103409648
53947000.0 0.8860154983817756 -0.4569740940231662 0.04128151638704864 -0.12313898261069008 0.000352533061179856 0.0008731516275402343 0.3681696118066859 0.12764500930359257
54946000.0 0.8807135634176199 -0.46721425993674265 0.04213397045295085 -0.13489530073664488 0.002361004403217512 0.0043519440856917635 0.38185135524330144 0.12623584825181008
55945000.0 0.8775425193853854 -0.47464520362977475 0.04557734341468137 -0.14412354299097074 -0.0010114140891611854 0.0007486429574064326 0.3861353176731536 0.1051843419469492
56944000.0 0.8734767345749639 -0.48218222256866566 0.04611059107850072 -0.15465881151102023 0.0017003565020949237 -0.0023030994301339917 0.40303674927506905 0.10854126004241503
57943000.0 0.8682308757677072 -0.4938936097467147 0.04389990065130528 -0.16353486247221272 -0.0001651004186098479 -0.00035611123582506205 0.39413747822007034 0.09751244767789193
58942000.0 0.8644651794834733 -0.49757011544264423 0.0463182396719408 -0.1739138396479781 -0.0011870988136738155 -0.0023897352624452396 0.4185394673906873 0.09181581497002475
59941000.0 0.8597837409537977 -0.508713030830244 0.05107104211604037 -0.18253192650827316 -5.405893025599911e-05 0.0017286314359595968 0.41706099615577963 0.09070049673948172
60940000.0 0.85165073082854 -0.5157397360144104 0.04990588058909278 -0.185624832460496 -0.0016936644124887637 7.079710255435004e-05 0.4045059500354434 0.08527814112170481
61939000.0 0.8484615757848666 -0.520895952390361 0.04792878282094569 -0.19564105473011695 0.0009635302539509464 -0.0004230654230567946 0.41600991032060836 0.0669059869791142
62938000.0 0.8407247605283417 -0.5323488386007457 0.051542249138831965 -0.21454628926026795 -0.0016937000428780692 0.0007259185939338005 0.43939720913712516 0.05604085216576875
63937000.0 0.8375628912412592 -0.5408145714638083 0.054234876588370784 -0.23533806659672418 -0.0014804431271708619 0.0028844428491673325 0.4334167933510597 0.03589668021829912
64936000.0 0.8300218962614615 -0.5449669797487989 0.05089938291158378 -0.24609847978291122 -0.0014748204850820888 0.0009563805247296875 0.422960624612352 0.04150328109642699
65935000.0 0.8278734808183141 -0.5558976567919388 0.05037674309146122 -0.2589956280598322 0.0011625611858370056 -0.002590580072433442 0.4396542273341284 0.024665080502658514
66934000.0 0.8243286920301425 -0.5612826461747009 0.054296764097978296 -0.2744579861297144 -0.002681135461819543 0.0008540909786865238 0.434957260273687 0.011195269494216219
67933000.0 0.8193852459187104 -0.569134038008389 0.05430966995706459 -0.2837623999854715 0.003522862978142894 0.0006839422140876975 0.4483490797502854 0.00042310484777877475
68932000.0 0.8010547307929745 -0.5690016550364289 0.04679209337110366 -0.2934345711420348 -0.004882944840287841 -0.0017557166128980917 0.45098723392983653 -0.004440736696194315
69931000.0 0.805912726971018 -0.585322793363745 0.051212293862847355 -0.3159745833852232 -0.0006966131091535913 0.0028690214411989617 0.4421366297010554 -0.01801980892911668
70930000.0 0.7999369397129775 -0.5934121391652146 0.04804269462826601 -0.3263465615336941 0.0006359139414830384 -0.00041216425585500116 0.44098386407676576 -0.031646772488273606
71929000.0 0.7959760694518576 -0.6017645361143938 0.04314050888490914 -0.34486221278822515 -0.002001189392278587 0.0012726083592101932 0.4518819855835686 -0.03661276838059993
72928000.0 0.7898404489104791 -0.6098618341082616 0.038979282541333156 -0.36090658197096576 -0.0029523272717742882 -0.002767144413802393 0.4693189417617306 -0.040633118960514296
73927000.0 0.7813598669253315 -0.6171687581913299 0.03145273213304046 -0.38176064403668203 -0.001065016672171227 0.0014209325777465043 0.4552662198557534 -0.06560642743102861
74926000.0 0.7784095641756261 -0.6263643629660868 0.026080885213399074 -0.39897442403984235 0.002043303899394069 0.0012075617742877559 0.4649516414060634 -0.0569924736329932
75925000.0 0.7727140140077705 -0.6311384123185652 0.016137983975016028 -0.4161710704448618 0.002548988466637239 0.004200793951891753 0.4725727105400674 -0.07409863549900002
76924000.0 0.7655595402691653 -0.6397248910858981 0.0013077759482420682 -0.4453134309890386 -0.0034400067454680673 -0.00125524018421145 0.4684472162294672 -0.08656231558168231
77923000.0 0.7563119373059758 -0.6461723075229097 -0.012502138404512081 -0.46477363490227624 0.0002342704575944533 -0.0022834690523425307 0.46588794343742695 -0.09166065047033484
78922000.0 0.7528560859631311 -0.6553058656484576 -0.027259797940831085 -0.4935071977758633 -0.004810071978421652 0.0006493283413673051 0.4587543689278859 -0.1071560282885528
79921000.0 0.7422863955210671 -0.6606665947316708 -0.04491208731843893 -0.5152089965448399 -0.001252140803073797 0.0007028523672142723 0.45896077040014194 -0.1126139227880292
80920000.0 0.7409151034143611 -0.6705907336382502 -0.058168456423341876 -0.5444810318912182 -0.0014710375544337597 0.0005236780524048561 0.4721785553154513 -0.12412344528417381
81919000.0 0.7329700498649865 -0.677017204759908 -0.07847160863550628 -0.5716306839167715 0.0007559465658580818 -0.0007082705982895044 0.47429413511936985 -0.12945463357241777
82918000.0 0.7243990755455945 -0.683717575750169 -0.09253179685130218 -0.6055599423248449 -0.0006525600820751994 -0.00476088976703746 0.46586217021835863 -0.13893607160648036
83917000.0 0.7174449979988309 -0.6925577186541623 -0.11768294421280533 -0.6296698780935973 0.0018258485317528914 0.0039389496864387355 0.47602174440845635 -0.14269126276801344
84916000.0 0.7109318523615064 -0.6991987996577491 -0.12858764375287168 -0.6663608795653332 -0.0014830799869807879 -0.004453383964876268 0.4615417649622033 -0.16142772746828307
85915000.0 0.7037075317660583 -0.7066608989895522 -0.14969381123087305 -0.6994057909519878 0.0017073314696709767 0.0007590106045347077 0.4681704978214645 -0.1683380463579226
86914000.0 0.6953734214357365 -0.7150455364644672 -0.16446919275063052 -0.7356852102359785 0.0021842770360562223 0.0006310769806112763 0.464613382296879 -0.16847076835954125
87913000.0 0.6893783224968927 -0.7210073848279018 -0.1832365517209486 -0.7650203674500543 0.001936189889077589 -0.0007355844566429567 0.45645351374252985 -0.17244359331995532
88912000.0 0.6836994879438036 -0.7277845319882669 -0.19763688888349773 -0.7969667411846318 -0.0017851952743585904 0.002825867462958544 0.4642382014645384 -0.2010068541293321
89911000.0 0.6731529350067852 -0.7377795822952482 -0.21532836576816886 -0.8351645445932255 -0.000984488777956856 -0.0022730396868680092 0.46578453470245407 -0.19891015260418046
90910000.0 0.6675149679049938 -0.741624571312733 -0.22783327541845805 -0.8652680505884272 0.0007048143061156272 -0.0019777530882786522 0.4608086089894574 -0.21371319495810584
91909000.0 0.6582543195452192 -0.7459799877993112 -0.2496525091833668 -0.8978481251595111 0.0011321590431895654 0.001958900358421553 0.4690281813828788 -0.22386034410468794
92908000.0 0.6510527406287914 -0.7561967828282131 -0.2656890587764916 -0.9322612788142935 -0.0032163188586123463 -0.0018623048697338934 0.4593784032996628 -0.234590894946612
93907000.0 0.6444625140921415 -0.761470158130991 -0.2807112601753866 -0.9616656892432768 -0.0022109065486590686 0.0007162051611741195 0.457404107972891 -0.2519766644880511
94906000.0 0.6316828732223831 -0.7682602552407058 -0.30270106091378346 -0.9976992698983347 -0.0019842015267281347 -0.0018467857012468287 0.46291285889172157 -0.249401056681188
95905000.0 0.6250419815297465 -0.7754199274756667 -0.32336419822204915 -1.027286873063319 -0.001513665431360219 -2.5169165760552842e-05 0.4600149325630839 -0.2713266499608568
96904000.0 0.6156598301496349 -0.7832641861627039 -0.33501731801544943 -1.0660802993952825 -0.0009770002424293056 -0.0019353933461684417 0.45351927727636027 -0.2833972846107172
97903000.0 0.6072861241210235 -0.7890934828213099 -0.3598952341951868 -1.0977879823989656 0.0019113285851467346 -0.00042862399700084613 0.4482912114550037 -0.28124621205841177
98902000.0 0.6036286864466834 -0.7976503611631174 -0.3839752812274257 -1.1371404987842615 0.0012022781797895767 -0.0002843141964989831 0.4422679325636765 -0.302250944175285
99901000.0 0.5915123379424414 -0.8028007491444357 -0.411146957068363 -1.1667484691215262 0.0008831584904365167 -0.0015528741210538903 0.45794679556855156 -0.3134465800762471
100900000.0 0.5843024475597655 -0.8044986268009833 -0.43667012910706804 -1.1969815404869937 0.00014522847835233703 0.002099305757312275 0.4620723477973894 -0.3118292129580043
101899000.0 0.5720119361424343 -0.8139949426615523 -0.4657002946768996 -1.2271598461903195 -0.0031056934088131527 -0.0015949034787894035 0.4488493739469767 -0.31364126475546394
102898000.0 0.5639245753439762 -0.8183504970934617 -0.5024320346305882 -1.2674790184069982 -0.0034707108214821216 0.00447378202858017 0.4497198842197839 -0.3346385353517197
103897000.0 0.5551239093679711 -0.8246012424390474 -0.5354138888310473 -1.3025016642245857 0.0018608215402222345 0.0017573021480795357 0.46766866036980187 -0.3308376048772494
104896000.0 0.5485596063106785 -0.8357118010278864 -0.581897888249748 -1.3371853267335396 0.00032874278325956255 0.0027770478514276193 0.4431687521541864 -0.33786494415979496
105895000.0 0.5366526246479995 -0.83656721196292 -0.6274872499409925 -1.370537735288777 0.001879986543208661 0.001097192377960378 0.43597196003107647 -0.3662300989264282
106894000.0 0.5251688137841142 -0.8454633887263164 -0.6811785924846894 -1.405213393191432 0.0036369385979632958 -0.0010532643967422312 0.43079102563467264 -0.36265802820512166
107893000.0 0.5180868793540998 -0.852386328814658 -0.733377709832348 -1.446871686917005 -0.0010062324486839872 0.0012364543650355342 0.43231678273206864 -0.37679829510786444
108892000.0 0.5096921231456213 -0.8533103103867365 -0.7878073640583083 -1.4850321452064599 0.0030685647372475765 0.001575826907411063 0.42287908153862835 -0.371870210038457
109891000.0 0.49666048519583017 -0.8630296445806729 -0.8460635066089901 -1.5160423737430624 0.0008794669262655018 0.0008517964288549879 0.4420242260682984 -0.37614854696744715
110890000.0 0.4859832953138966 -0.8770791184869504 -0.9302512194513841 -1.5360398659244534 0.0013525221447639273 -0.00027803480772591445 0.4259046831613567 -0.3964456904662029
111889000.0 0.47591236617433463 -0.8676938382259874 -0.9747419167728647 -1.5856478512538534 0.0005824454035130617 -0.001239888052622295 0.4263852666463476 -0.4007884138194654
