! Created with skrf 1.9.0 (http://scikit-rf.org).
# Hz S RI R 50.0 
!freq ReS11 ImS11 ReS21 ImS21 ReS12 ImS12 ReS22 ImS22
1000000.0 0.9870414465976732 0.0034160737669878525 0.005119810543154182 -0.04352701634525168 -0.003950395538995536 -0.0024721979372178443 0.3078473149966637 0.24886664702676606
1999000.0 0.9919289392074235 -0.014963830179650427 0.009892332508139094 -0.023275628325587997 -0.004007999627313392 -0.0010282989500897614 0.258796367599033 -0.07441901334629582
2998000.0 1.0016062866805653 -0.020744622928827276 0.0078097328995048775 -0.01766859610244377 -8.637949791950579e-05 0.0026616509855810137 0.1816712865429898 -0.12695401371289874
3997000.0 1.0011594109747233 -0.030405793510201392 0.005340873405688706 -0.007125135129224366 -0.0019199066704007023 -0.005766696054748411 0.09110663183622034 -0.23821417981492915
4996000.0 0.9985246805494387 -0.040768329839364445 0.011434168684657502 -0.003544214546736372 0.0003972682101057829 0.0019547637509081113 -0.039322148907806914 -0.21499328349107152
5995000.0 0.9990919088457044 -0.04947987651608175 0.009152510249019323 -0.005082441964272317 -0.0032785926067702524 -0.001161918688562776 -0.12081075744526437 -0.12824047142186237
6994000.0 0.9975861047415704 -0.052897537836655115 0.004535527800103383 0.0030531883742883226 0.0009173691698403037 -0.0005367818367153567 -0.15970246488835588 -0.029430211446631865
7993000.0 0.9991224445554026 -0.06813638769700603 0.007551547759184932 0.006816995806310066 -0.0024910806401574853 -0.002296870638027439 -0.1742809257887855 0.03648099714390817
8992000.0 0.9984219383923824 -0.0730066932791629 0.0002277234104480556 0.008419779384417084 0.0003246390068385712 -0.0035221992667983544 -0.16381955707683177 0.049630590893527116
9991000.0 0.9960862834683208 -0.08220979724040146 2.1651588461000543e-05 0.007714483106596112 0.0029239839446446067 -0.004516679230813337 -0.1518567804645498 0.08794922724266271
10990000.0 0.99776646232259 -0.09176467238138927 0.002094372619103494 0.00040600104544024246 0.0013104117276100538 -0.0015383630916796052 -0.15146503068683032 0.1188184506717604
11989000.0 0.9936005081572163 -0.10152986925886205 0.007361374590908327 0.001475989887509142 7.251858189788407e-05 0.0009400546597319539 -0.1317262974690213 0.13857892031294988
12988000.0 0.9928059742302635 -0.11011501354809647 0.0003038039174262317 -0.003335905230817038 0.0058166076509624165 0.002233566076740395 -0.11171432799491686 0.17029204293108982
13987000.0 0.9934424429716728 -0.11858069048320889 -0.001009565426014186 -0.005579221448499495 0.001865616933570763 -0.0029561734631908905 -0.08817516948293426 0.19108797077863332
14986000.0 0.9923653303325612 -0.12739146818742103 -0.004264245173293783 -0.006618591439743102 -0.000752896902118449 -0.0012311512512365988 -0.100491590925033 0.2088707702210049
15985000.0 0.9940543863127416 -0.13408948564819922 0.0008228454192548953 -0.00544106598994859 -0.0005602662223320881 0.0016063148703008795 -0.06760603772557364 0.20833559891916772
16984000.0 0.9898925179113267 -0.14710925833941824 -0.00423813512789231 -0.002992562797089685 0.0028514423603546554 0.0008195707133317247 -0.06181660158341067 0.2181183721078256
17983000.0 0.9898569015974095 -0.15256041629458286 -0.0016310337452521266 -0.0055858043959262325 0.0025995736550532117 -0.0022383232172216074 -0.0535787793705154 0.21784838136744472
18982000.0 0.9883894234445412 -0.1618635713462653 -0.004103293440577783 -0.0075603491026216075 0.0010464912550388636 0.0006193747772683224 -0.018110543778129068 0.23782303775772118
19981000.0 0.9899798096709638 -0.1657007365217252 -0.004194585370991069 -0.001097046323483067 0.0038506731215334857 0.0027841240011176878 -0.03330791423193836 0.24155866662009426
20980000.0 0.986196929818543 -0.17872499868367533 -0.002055951778857837 -0.008131288451162663 -0.0016264643206568266 -0.002733835285479052 -0.007261577826414566 0.24992163720750016
21979000.0 0.984601449393441 -0.18583722356496662 -0.002464990564581182 -0.0035075469117498265 0.0005433413401272366 0.0006782814741578444 0.00843204565352144 0.24522574116798368
22978000.0 0.9806352468639679 -0.1946322970039786 -0.0031353731581653718 -0.0017576577694921453 0.0011971808707650757 -0.00506599575538454 0.02595292978626104 0.25596629914260083
23977000.0 0.9812265391084118 -0.20068685544979847 -0.004624413068520879 -0.005295850262440708 0.0026577656387708998 0.0010825245538872133 0.037220930184539765 0.24926891675547438
24976000.0 0.9771657793606507 -0.21148389095033227 -0.005917162020013158 0.000282820544626455 -0.002874226668056045 0.0028561646848064355 0.06155389967627995 0.26415251025960823
25975000.0 0.9800823174936318 -0.22140670549988317 -0.009898136720294291 -0.0010719218723222181 0.004038333191219307 0.02131544152355978 0.08386132438565821 0.25755152543817983
26974000.0 0.9729069406836968 -0.22915656254074385 -0.0019174438204140538 -0.005158078450097086 -0.0006786726838363033 0.000854069767285688 0.08889797113203285 0.26600387851978446
27973000.0 0.971803528468094 -0.23642921191333827 0.0006715854425775378 -0.0015015712051627565 0.0016261405490475402 0.0033325110887052374 0.10283238321127162 0.25358225560770253
28972000.0 0.9680923506339101 -0.24681957225696347 -0.0020164274737196936 -0.00046081253450553505 0.0004888170954208177 -0.0009393895820756984 0.1050225760978736 0.2603455184476321
29971000.0 0.9674732396857506 -0.25685077775229403 0.002740374512833329 -0.000163204600160333 0.0004749521078962644 -0.001910463545134765 0.1522680652345151 0.2677355401244621
30970000.0 0.9641084316885103 -0.2602718534765543 0.0023389827012131924 0.0007125670185248816 -0.0009691946493549556 -0.0019507405040552483 0.16901767639936216 0.2521906617314775
31969000.0 0.962516398958037 -0.2701060947606566 0.0065582893862150314 -0.006154009411884195 0.0007279571081696607 -0.00015729394320909134 0.15044440116482774 0.2542774505754617
32968000.0 0.9611400959624526 -0.27692546533370194 0.009212163245227075 -0.008080262221375452 -0.0010656873306209326 -0.0009621358086850478 0.16316901816970197 0.23899649628924577
33967000.0 0.9600208726526988 -0.2863953940990513 0.01069443433191256 -0.010982187724693561 5.318210479605416e-05 0.0019145252735844104 0.19372348648384163 0.24558238687972886
34966000.0 0.9549731946407558 -0.2991044388948935 0.014397447023410528 -0.015786952203895702 0.0002708660659789967 -3.489329010141938e-05 0.1942714802443615 0.24506376030262952
35965000.0 0.9523786840609076 -0.3035908973197549 0.01880010559646324 -0.014437523433118011 -0.0009908281568471523 -0.0018259500989071073 0.21566840770144563 0.24929723061342463
36964000.0 0.9496816415206712 -0.3144996663457738 0.01489544059239053 -0.01477676788944607 -0.0011909329162206493 -0.0009967051873303258 0.22065667933765626 0.23933631285009535
37963000.0 0.9482138900706046 -0.32150004050726266 0.02112218576501313 -0.020644094966800475 -5.0474858164444456e-06 -0.002311335076143877 0.228271882618389 0.235467741049292
38962000.0 0.9453202804514509 -0.3300787732575214 0.025938277077864377 -0.02409976123391963 -0.0027922609727977815 -0.0012997096601127447 0.24630403657687983 0.22791734491901897
39961000.0 0.9412227330526359 -0.33985087507453376 0.028549975709552568 -0.027536701872118933 0.0007613014022587083 -0.0011754414098711701 0.25153634140407694 0.2234682835953497
40960000.0 0.937693567943116 -0.34592669346858596 0.02018574088437287 -0.024445740167746147 0.000559838372216345 -0.006672425129909676 0.2629939741965348 0.22315495104817276
41959000.0 0.9357329640307537 -0.3559385800826038 0.03036407604037782 -0.033148002005764295 0.0018275493125570724 -0.002563395708230037 0.27425257558411564 0.2130188499722007
42958000.0 0.9309113720995074 -0.3639931282013611 0.03448731952156696 -0.04287997215609342 3.622958408205115e-05 -0.0021769995560378054 0.28343582229233705 0.20977053576340682
43957000.0 0.9276396011433391 -0.3699031083630234 0.036895834657120756 -0.049331590844958646 0.00047772416071455663 -0.0010077876975184668 0.29560683236419305 0.20058698612972847
44956000.0 0.9253624053361057 -0.3798151603761716 0.0366342992269556 -0.054939572442729116 0.0053689082067356515 -0.0012433449479716285 0.3140733267928968 0.19581513578434698
45955000.0 0.9209377247367044 -0.3888024310067803 0.03698784722171639 -0.0582435434350707 0.00024935425387339596 0.0016839531038301636 0.3105871025917305 0.1982317796436128
46954000.0 0.9176464298944204 -0.3947863812215722 0.03749662530958443 -0.06837526491475286 -0.0016918608820427846 -0.0016887489068577993 0.32310320684004373 0.18129452224124123
47953000.0 0.9152235502022148 -0.4046874366684167 0.03603560742522588 -0.0745709550151063 -0.003252095427098104 -0.003345992763358522 0.3360344582042679 0.17097061276243977
48952000.0 0.9087208481984005 -0.4161321664935067 0.03833691450018202 -0.0811252660015715 0.00013081354141801388 0.0015515259410215085 0.3417675768347609 0.15988956930486675
49951000.0 0.9051946259610089 -0.4198744202833858 0.03770565307054714 -0.08813129082212254 -0.0018640382929081439 -0.0010670285408891803 0.36067659272369623 0.14113788168392266
50950000.0 0.9019909743770224 -0.4279123233179781 0.040778334980173095 -0.09795319365337096 0.0015873319973578079 -0.0033765315132490725 0.3577831132971648 0.14400711058967933
51949000.0 0.899205684297283 -0.43705417214855063 0.04235231457836123 -0.10622520018745803 0.0024027499584381717 -0.001597333478465084 0.36676483706903273 0.1496954193144395
52948000.0 0.8957638585057748 -0.44557878940524803 0.04369659693741492 -0.11568122855973263 0.0008396625969857571 -0.0013841892366263128 0.3784306397090597 0.13552950167912467
53947000.0 0.8899195262564846 -0.4550857538711072 0.039820189143887054 -0.12643553034469804 0.0009946346361595563 -0.00039839392647572706 0.376980798054054 0.1252448715937246
54946000.0 0.887511014596851 -0.45988773503787644 0.041350305667071416 -0.13574834957556486 0.0013169090775378136 0.0019004990856873638 0.38966622323730965 0.11778830364349076
55945000.0 0.8836978832581706 -0.47046608892780856 0.045058341512226235 -0.14537349435704428 0.003053753072962908 -0.00153058854022549 0.3833297543920525 0.09340170126297848
56944000.0 0.8788884658326587 -0.4773261228869794 0.04825483473202151 -0.15661158043907636 0.0010647434847677404 0.0005626650755161975 0.4055913001016955 0.09386548700058174
57943000.0 0.8745326406435168 -0.48611323709098636 0.049112284100219915 -0.16985044832269144 0.001870817596679479 0.00012617081205519682 0.41159025201377514 0.08291219417357773
58942000.0 0.8669193944663436 -0.49415354136857914 0.049183076005062484 -0.17786259819208827 0.004542487045587375 -0.0019822204646988413 0.4278604030486686 0.09098238597371898
59941000.0 0.8673684949434356 -0.5009444630511044 0.050369967980269346 -0.18828832660902436 -0.00046896481476626405 -0.0010200373337953094 0.4205386264010551 0.07887396814161052
60940000.0 0.8587940976486402 -0.5078793448338471 0.050032220700428766 -0.1920853859740079 -0.00010711761766538281 -0.002342715209343571 0.40870920514697334 0.07090672098023762
61939000.0 0.8558383279750397 -0.5157646238487945 0.05088160354792697 -0.20182379397187436 0.001939061868318919 -0.0004857117283899396 0.41789893406089745 0.06811289742600664
62938000.0 0.8492157161366537 -0.5261242424708353 0.056403059966961294 -0.21895730270135627 -0.0011442449327861226 -0.0010518601430296146 0.44827521963954703 0.04609213595783861
63937000.0 0.8450554281249781 -0.5329971695070339 0.05362523168110904 -0.24067418535104132 0.0020967869940299306 2.1878391748209304e-05 0.44293739913494345 0.030589493830755578
64936000.0 0.8390277764522436 -0.5389411204042647 0.05420856322510356 -0.25434871784034996 -0.0007228295313757835 -0.0004521910831142796 0.4418554948316752 0.038649774337057075
65935000.0 0.8351169231087426 -0.5512814921647438 0.051015762762233775 -0.2666365354556413 0.0011631454839760155 0.00134842988082666 0.4454055180597113 0.016925173538566957
66934000.0 0.8313659266165153 -0.5551241833662652 0.054397001004453854 -0.28086380687749973 -0.0013965699881188893 -0.00040384091149189605 0.4437183090895807 0.0037268604539675834
67933000.0 0.8286510219678823 -0.5631931809144923 0.05352625295062722 -0.295632245132488 0.0037652235994335343 0.0026780850023045907 0.4504710709460142 -0.0018436429998929453
68932000.0 0.8243913897895232 -0.5587962348306388 0.05338339851582171 -0.30754487427999994 0.0014188995348587172 -0.00029029997227474216 0.4574742686404805 -0.004112513204533903
69931000.0 0.8130258861316776 -0.5791247999151826 0.052158898511934164 -0.32521451659369655 -5.414533851621838e-05 0.0017947657149227371 0.4559008078845673 -0.02164175642153091
70930000.0 0.8070148979632771 -0.5858628106249121 0.04982225973172005 -0.33930803733932535 -0.0020267850344925726 -0.002459351484204106 0.4471403914191502 -0.04809864602189064
71929000.0 0.8044848977352633 -0.5955554399431534 0.04137712748381152 -0.36127017871010114 -0.005522870186568512 0.0030430448593986715 0.4510015672948597 -0.0487526945313811
72928000.0 0.7986062816893922 -0.603382285122163 0.0427202309242864 -0.3728504634998133 -0.00036447460092357364 0.0013780779227669246 0.4645877109087036 -0.05935436581727484
73927000.0 0.7927919696522499 -0.6111923412747465 0.0345589218995721 -0.39603691316952366 -0.001442985304018521 0.00045322815570921464 0.46603748721898813 -0.06585002266189037
74926000.0 0.7883989085096598 -0.6194748458604087 0.028288383941648357 -0.4156257264788761 -0.0011188072320283044 -8.487423387373594e-05 0.469978680898679 -0.06342192429079782
75925000.0 0.7805346771277462 -0.6248035230255068 0.01496011844291379 -0.4362902277548558 -0.0009753277389730297 -0.0006442313946981764 0.4788080189755848 -0.0790965163118833
76924000.0 0.775068616900619 -0.6318000823082894 0.002643082200008384 -0.45763170019294336 0.0006262160769306734 -0.0048219150497470975 0.4661544425810725 -0.09531303465386849
77923000.0 0.7679172672092162 -0.6416834363476506 -0.01004855786428233 -0.483090729803148 -0.00023679605548263487 0.0020746367158304764 0.46683685904609384 -0.10226726920172217
78922000.0 0.7630829934906284 -0.6498609348979071 -0.02719561118586103 -0.508975111954983 0.0011815657277349418 -0.001954105160819703 0.4611868949956765 -0.11390213917765932
79921000.0 0.7535350118824793 -0.6542832707262749 -0.04528274353149165 -0.5347782867034722 0.000812137264408657 0.0035426341386966312 0.46652271267177586 -0.1228252619226503
80920000.0 0.7495629944444266 -0.6658986345454573 -0.061952468919197874 -0.5639695976192474 -0.0009599992252726429 -0.003195482332915631 0.47401891848046246 -0.12431457919171293
81919000.0 0.7438782360416687 -0.6708017774160527 -0.07901409817591888 -0.5927234300468022 -0.000655043070442467 -0.0017377916116986828 0.46918544853654204 -0.13565797888647696
82918000.0 0.7350720761562335 -0.6787808126776746 -0.09471038963200952 -0.6228709389542532 4.383657460363792e-05 0.00010412691588878297 0.4762964744289728 -0.15294134445443722
83917000.0 0.7273816449345092 -0.6866462614690096 -0.11912148816915148 -0.6498694210042251 -0.002092821187053435 -0.0005599337452960399 0.4858470995693102 -0.15261654285197512
84916000.0 0.7218937394910685 -0.6935554686783179 -0.1358822046051119 -0.6881079275765208 0.002272455529157252 -0.0010428058220985504 0.4680414288667027 -0.17206413689207664
85915000.0 0.7163510155107106 -0.6984800800615389 -0.15531991897975744 -0.7174132467052177 0.0009144691049723857 -0.004108943954196382 0.4624121800347237 -0.17087908940398272
86914000.0 0.7059532749549536 -0.710039844268176 -0.16851261130416945 -0.7541224821051618 0.002790041708139366 -0.0007955142668939184 0.45995831738337317 -0.18637035047951214
87913000.0 0.701058060010648 -0.714057127015834 -0.19344395677905768 -0.7867594584430886 -0.002028134325245577 -0.0021195306499460363 0.46727713509452906 -0.19326111650782019
88912000.0 0.695927412758199 -0.72236092383564 -0.20687320336169096 -0.8238973442212765 -0.0003238879413195092 -0.004504144903800477 0.47380332524612945 -0.2173454765890252
89911000.0 0.6873900541423557 -0.7307742373668966 -0.22463279296072208 -0.8594008711862383 0.0035905592417824327 0.006936034245392013 0.4746784909871543 -0.21366723919721076
90910000.0 0.6783273231457962 -0.7362886859315838 -0.2454295080511545 -0.8942589268023933 0.0007455839274133786 -0.004073433246526429 0.4688945285314531 -0.21701023216951396
91909000.0 0.6696616272990367 -0.7412179512182674 -0.2658588954631007 -0.9233814535516405 -0.00024244286755448384 -0.0020670542129968337 0.46503253602188344 -0.23367285977206612
92908000.0 0.6621589914502043 -0.7513263790149047 -0.2816768647013454 -0.9615316242604921 0.0015621634730855118 -0.0002987432286385947 0.46569768158486724 -0.24123481631696456
93907000.0 0.6555702459445504 -0.755336881009528 -0.3004812127188615 -0.9921587607091933 -0.004460306015967333 0.0057720762159491285 0.46667922691344305 -0.2614504111174261
94906000.0 0.6433526836907356 -0.7639907759213643 -0.32008333214371487 -1.0245481739399942 0.0002128708506298121 0.004404183053208409 0.46246416798461226 -0.2474262011596595
95905000.0 0.6370401382357855 -0.7714429570574428 -0.3440255931116826 -1.0610729285210112 -6.324979005869092e-05 -0.005185262080797607 0.4575868035453745 -0.2786941314095559
96904000.0 0.6288833012999556 -0.7785534964715458 -0.36193726304739793 -1.1021141598045816 0.0007265916323180291 -0.003615636291351969 0.4593628077504672 -0.2768415558141647
97903000.0 0.6198214842092811 -0.7833468553135347 -0.38390456573940657 -1.1302611717498914 -0.00012219124752705065 -0.002464877832710738 0.44275738816680427 -0.30122041671956734
98902000.0 0.6155942266479854 -0.7913481590644339 -0.4042823018771383 -1.1696364021395376 0.0030604954971037764 0.0019928980017571173 0.44726046244543943 -0.29751484772712045
99901000.0 0.6052267837730899 -0.7965595531457027 -0.4389742015813697 -1.2030503500876422 0.001358958256298236 0.00036175535293877457 0.4582887088731683 -0.3202423068183909
100900000.0 0.5977975223250501 -0.8002528892694054 -0.46818877543868725 -1.235460705932092 0.00035619411701297906 0.0007844798315969277 0.4614817299443675 -0.3227967491186271
101899000.0 0.5889322375813665 -0.8075290777993105 -0.4948592329351065 -1.273197407865284 0.00461602192434342 0.001230363602101781 0.4403222726947645 -0.3181505285630018
102898000.0 0.5781247751965427 -0.8124751866007645 -0.5335466757155669 -1.3136922446801869 -0.002838437456992329 0.0023323706033224908 0.45168767154475586 -0.3471162216023284
103897000.0 0.5708609265087906 -0.8194063370791839 -0.5725259864498419 -1.343864669697301 0.0038814583482088315 -0.0006075678320393267 0.457597447801514 -0.35114168244533533
104896000.0 0.56253543888413 -0.8304537323297663 -0.6240239283074369 -1.377773244805093 -0.0014559560397529963 -0.003618339744676662 0.4353558659380737 -0.3499925725759192
105895000.0 0.5515850470136925 -0.8323378872044109 -0.6667625769982818 -1.4209626463196035 0.002235637307001973 -8.955141370599992e-06 0.4400521343775518 -0.36540581170769726
106894000.0 0.5435638290365201 -0.838894385407458 -0.7216929965305756 -1.4567338177082039 0.00046621828386399423 0.00638501246287671 0.43798196061624506 -0.37722410737352136
107893000.0 0.5320811245285539 -0.8451779084077088 -0.7785103716588845 -1.4900939568901506 -0.0012537739504364675 -1.6444249589882887e-05 0.43248240671222515 -0.3914760516524624
108892000.0 0.5242135004690212 -0.8474300914877968 -0.8370129712804126 -1.5261301358591066 -0.0028816403727534184 -0.0009014294829422533 0.41877967837474955 -0.3946311283836354
109891000.0 0.511380068383913 -0.8570916048122653 -0.894909516540992 -1.5597344002118978 0.00024822694485106733 0.0006901502147959568 0.43213882458166736 -0.38195948858246076
110890000.0 0.49011492838919973 -0.8655907302039744 -0.9743857914549188 -1.5565587203542215 -0.002153118779402936 -0.004184859716344433 0.416815791093294 -0.3965561707416385
111889000.0 0.4929960760939132 -0.8639281756610352 -1.0210707774730203 -1.6251767093736733 0.002764580438780381 -0.003408047086428366 0.4010097730410164 -0.4117386952553676
