! Created with skrf 1.9.0 (http://scikit-rf.org).
# Hz S RI R 50.0 
!freq ReS11 ImS11 ReS21 ImS21 ReS12 ImS12 ReS22 ImS22
1000000.0 0.9720763218141708 0.004738083271199683 -0.004700372108802365 -0.03591260428413948 -0.012582130350875988 0.005959470505041973 0.36037341984478616 0.31084094191302003
1999000.0 0.9956307861719362 -0.013904055302760258 0.015120901590440038 -0.02904357405799479 -0.0012906874518496207 -0.003433002539299663 0.2864822885307785 -0.057785770907878044
2998000.0 0.9991101716107764 -0.02154494838436345 0.013796657189813115 -0.018728660776648667 -0.0017560258504551013 -0.0006306873176007574 0.18716387385359254 -0.12784392694655655
3997000.0 0.9986166086894883 -0.030930801325951954 0.020358984839366913 -0.00650669450326571 -0.004848242857511535 -0.0017239214365476119 0.09219741026275324 -0.23714443698059112
4996000.0 0.9963819483311035 -0.03870908434933877 0.010287211286489949 -0.0029625144129799288 -0.00541221899752673 -0.00351093067623255 -0.025507468523695852 -0.19290835562399225
5995000.0 0.9942067216080424 -0.0482497194271464 0.00945094179136425 0.001030314493786099 0.0004992629983157606 0.0028039523352134136 -0.10347686688376109 -0.10223170811896076
6994000.0 0.9928401035948973 -0.06034567903896447 0.0066732024309904435 0.00381092981166319 -0.0009058234412856052 0.001535216909959796 -0.1468006932594908 -0.018012673910968773
7993000.0 0.9958052782555571 -0.06723825450450334 0.0037275918875272736 0.0015228807113627965 7.250915620122706e-05 -0.001796651760457765 -0.15337421746065502 0.04600221087177997
8992000.0 0.9950223490039071 -0.07563198615524407 0.0009715176276203562 0.007651865621122924 0.0017134678634625176 0.0002246983430784368 -0.15034707752695953 0.06524216933902816
9991000.0 0.9927547047873104 -0.08123955738844396 0.0015695856665063983 4.432918026160162e-05 -0.0011974006300706855 0.0010415635051720681 -0.1407544882521289 0.09117339804883495
10990000.0 0.9922431399018499 -0.0940231174643659 0.0035434776087280933 0.0015844240315466805 0.0028605888534871823 0.0010244066458437724 -0.1235397196944713 0.12038610100344417
11989000.0 0.9902201597634938 -0.10115232896459211 0.004620170138603428 0.0007734619920727728 -0.0003602745689803813 -0.0023751380895465847 -0.11508316226733177 0.1328232960724548
12988000.0 0.9883323265248184 -0.11116277961637973 -0.002007332932211945 -0.0012698143203860146 0.0025014841713259066 0.004544303020882955 -0.1241405358540136 0.16599276073334754
13987000.0 0.9882820320814262 -0.11827975292926123 -0.005877112974180873 2.308583062941566e-05 -0.002621011553774954 -0.0037689479865578145 -0.0881203875745554 0.19479287307373475
14986000.0 0.9859134452563074 -0.12851582029788464 -0.0004498057300160897 -0.0008827160336533446 0.002502142960818346 0.00039378968880380975 -0.07800717373976948 0.19173838978781327
15985000.0 0.9873163633490522 -0.1347800551721302 -0.0017738972129381647 0.00013226869378356776 1.235663958235618e-05 -0.0027344116932113338 -0.06685258592709668 0.2270636780177538
16984000.0 0.985080627317927 -0.14364726669491237 -0.0055057684402927045 -0.0035564710312860465 -0.0024113672655403347 0.0037915066635284354 -0.05331437970787011 0.21932199521401186
17983000.0 0.9857372623023324 -0.15366323322676362 -0.008034241853090608 -0.002040383969390856 -0.004523296519844297 0.0011580551325236933 -0.05273045680726688 0.23601210810284068
18982000.0 0.9836079400048816 -0.16130957043323005 -0.003072676129209676 -0.005773175878109469 0.0027563993910455806 -0.0011882696227471078 -0.02089279068867978 0.24135241882046474
19981000.0 0.9822419684508087 -0.16834521425297605 -0.0037271844324103564 -0.004991000995681918 0.0022689434730980467 -0.003986659218554524 -0.020792672940060108 0.23379414816418673
20980000.0 0.9796125937112923 -0.17778872906411838 -0.0034820602754885035 -0.006192656058046897 0.0014244346141063639 0.0043126409002298876 -0.007631854496268256 0.2598037798973292
21979000.0 0.9776162258228808 -0.1877405458014499 -0.006714889804118371 -0.003573262967393689 0.006059833847850644 0.0007951458898891836 0.014444315633787258 0.23884332710802605
22978000.0 0.9757473566648088 -0.19495170699852343 -0.006300794012666358 0.00037201419926768465 -0.00048813094997992185 0.0010468437811405767 0.031233818519416805 0.2531968449356866
23977000.0 0.9775157102000666 -0.20124765914926723 -0.003691675429666609 -0.00432495428906432 0.0018599983686375292 -0.0008864436462075463 0.03672888807023235 0.2612194351765089
24976000.0 0.9714106825051834 -0.21374760863414094 -0.002938426947538388 -0.002808719916488689 -0.00029543330829691296 0.00039414441822096266 0.06708553266410519 0.25200378923354166
25975000.0 0.9746990894118174 -0.22388142085437587 -0.0053001638150232625 -0.0006810886941794463 0.016315501610191744 0.020000009320693592 0.0696876343181391 0.2574741468894136
26974000.0 0.9691189357139649 -0.22869444471309724 -0.0038933231586054124 -0.006171382817510738 -0.0005858132563608526 0.00024532278234174257 0.08064944110378977 0.26080566738513633
27973000.0 0.9685454127209343 -0.23828782800268047 -0.0018344851782443072 -0.002373931080234208 -0.00167685971020792 -0.0008092652945421612 0.10174115637238605 0.265837790061928
28972000.0 0.9646081346483097 -0.24848322423115016 -0.0013376485712657477 -0.004266242085933556 0.0029542336390065735 -0.0009951559491667523 0.11416112594355916 0.25789289476117566
29971000.0 0.9629308944560862 -0.25524756693649747 -0.0006893038363505202 -0.001814172562749601 0.0009558652306015525 -0.00024548281198495523 0.15568975326042137 0.2633482571248747
30970000.0 0.9609646533751947 -0.2620745434518433 0.0009051485604838229 8.509471928917275e-05 -0.0012558694165031455 -0.0021517470589249212 0.16902100377499402 0.2511398871304466
31969000.0 0.9592751781531406 -0.27191607086794345 0.0039469369653642485 -0.0051216873909231565 0.0007729225788850771 0.000499474412807745 0.14941380398543133 0.24654359493526312
32968000.0 0.9589952636511619 -0.2789371601895995 0.009304378972972068 -0.009176058806280354 0.0010914024978990824 -0.00456435024988537 0.1654723671942787 0.24800963075074683
33967000.0 0.9561009086306556 -0.2882123270154056 0.009845133780083342 -0.00959027983581094 0.00010673318206273465 0.0009265715151647838 0.18797077739879228 0.2501194841212769
34966000.0 0.9503839062757027 -0.2991104493412698 0.015613923739534878 -0.008291974592248166 0.002165582143092368 0.00037215647074915527 0.1913926773789215 0.25065115913501795
35965000.0 0.9488871492313237 -0.30641886393734274 0.018628710624769496 -0.011728193275121281 0.0010617472063211705 -0.00029780555818384257 0.20978238598662982 0.23941425861204813
36964000.0 0.9443887384842791 -0.3155327745545176 0.017636593259850356 -0.013413244463462265 -0.000450831761865102 -0.0020254340800573115 0.21667007772045307 0.24404275786962581
37963000.0 0.9435410665402488 -0.32434501090365114 0.02445892877176104 -0.02045450649656257 0.00010207462532507125 0.0010186963905353481 0.22594416996244412 0.2448924377843917
38962000.0 0.9414638646273126 -0.33214815172300016 0.020911129742597054 -0.026625114161788546 0.001688113989890771 0.0011044663098234654 0.23982041293194437 0.23942263766434385
39961000.0 0.937281455901389 -0.3423814795390848 0.027343980670529237 -0.028952363483828458 0.003425418159666337 -0.005205503249977669 0.24679651967883096 0.22528044274507367
40960000.0 0.9338141677506385 -0.34935453403839245 0.02099056414990682 -0.021885087881218266 -0.001905958119685409 -0.001445574520011078 0.2706502784587868 0.21803280205551906
41959000.0 0.9299808533606759 -0.35966639947950235 0.028641366685733555 -0.034400985889700204 0.0030851683099216085 0.002766892845043958 0.2722007495574379 0.21623114151613076
42958000.0 0.9264861939269714 -0.367383432724877 0.03128817190016863 -0.041749357652130385 -0.00196153582894673 0.0003451132012575938 0.28173341992649664 0.2010947183009049
43957000.0 0.9229161818871487 -0.3744347127135083 0.03278319456517206 -0.04834925127798851 -6.461474311774657e-05 0.00129734211295242 0.2848040855004195 0.2087800227087585
44956000.0 0.9199470135422941 -0.38266055935203713 0.03445719859542634 -0.05586586114216221 -0.00250771904675639 0.0035479484800564997 0.3072083030220583 0.18591656712436144
45955000.0 0.9156867158315983 -0.39241712544503166 0.0361673078423519 -0.05914815053284887 0.0006171907284712341 -0.0004902346145165063 0.30866292709027926 0.18453358439335896
46954000.0 0.9136868805074818 -0.4008850224858827 0.03494187327476662 -0.06799305341511111 0.002753127277385821 -0.00025632812579803925 0.3269300415851539 0.17999202591817662
47953000.0 0.9096864602903282 -0.40982915938894976 0.037365014814498096 -0.07467979712320018 0.0030659410791506444 -0.0002927610223724854 0.33561655787907624 0.1697696806776779
48952000.0 0.9036357906998049 -0.4201706521597363 0.039092543534531114 -0.08200681155471654 0.00038479121178494147 -0.002070688794569111 0.33536632965777985 0.16352656553865896
49951000.0 0.9016041315074829 -0.4231923897917321 0.04146733725255196 -0.09000763943523414 -0.0004908097977303944 -0.0004249915329472452 0.34925152214463684 0.1532320065412387
50950000.0 0.8973660712622916 -0.434447412205758 0.04231717313441326 -0.09885434215426298 0.00026534971825225976 0.0015723514257440817 0.35171983149661873 0.1480720301069385
51949000.0 0.8924694603481818 -0.4431545657339267 0.04387883609450244 -0.10622389854920498 0.0023939795898371623 -0.0006953583634264365 0.35934956137883006 0.1432310843736179
52948000.0 0.8895440054325108 -0.4519264027074377 0.04301362806847548 -0.11674983763430619 -1.6444214265958973e-05 -0.001713342425733156 0.37178592578328784 0.13743982520166267
53947000.0 0.8856698048926652 -0.4571105528506076 0.04254956250096007 -0.12779459803112528 -0.0016576168467857407 -0.001897269251912363 0.3672650030716683 0.12359491164593912
54946000.0 0.8780623339089587 -0.4687193420250036 0.04681460943900103 -0.1350954809611106 -0.0018630404228920715 -5.9400172058854225e-05 0.3869740950665002 0.12636648401955025
55945000.0 0.8763445628791205 -0.4757412425018489 0.049024687688138245 -0.14692165162007437 0.0036706680042882123 -0.0012061524633290735 0.39077664210803265 0.110033918499618
56944000.0 0.8732079453791669 -0.48462035246024704 0.04867577632036846 -0.15790160134770467 0.0016112740185008632 -0.001090286417004303 0.4020420503368509 0.0948536727027007
57943000.0 0.8662671077331361 -0.49469227620174866 0.049835828395484304 -0.16757330002352952 -0.0019398621965318755 -0.0004517637428075953 0.4081014722541744 0.08848572874433108
58942000.0 0.8611531643657145 -0.4998065672887026 0.053855332240014764 -0.18083942761004201 0.00215170902713904 0.002737463152725232 0.4212896366327133 0.07928190580527436
59941000.0 0.8593173692526945 -0.5069137761410991 0.051784389993635056 -0.19066114690727398 -0.0021289763704247524 0.00034852774173234455 0.4235703262503551 0.07658138468666996
60940000.0 0.8500776212038529 -0.5169210061396217 0.05192299564001086 -0.1968796055884342 0.0005677266646818258 0.0013162446535295975 0.4039675681643853 0.07202935548033693
61939000.0 0.8472609727440337 -0.5221887293774483 0.0555159781583256 -0.20343311646770867 5.685155610545498e-06 0.00017707068976805247 0.4173754741021024 0.062125080499306026
62938000.0 0.8412415070770992 -0.5336534450564813 0.05535710850997064 -0.22270985197935303 0.0016754875303159021 0.0009626771816034276 0.44163021803316427 0.052728303746468266
63937000.0 0.8375026866303507 -0.5404344301679387 0.06212671268810333 -0.2441926702137676 0.00263375730593543 0.00219474376780793 0.4338850727246855 0.044676638773909545
64936000.0 0.8296127523008013 -0.5475849037773862 0.059288563615954935 -0.25866815230686374 -3.2071606160106604e-05 0.002576754134701895 0.4314784511287816 0.03977943103159821
65935000.0 0.8269486204536273 -0.5567233754521563 0.05403861908606553 -0.2712894982625039 0.0018348909575597967 -0.0031306791401971065 0.44055280574990824 0.01620966276161256
66934000.0 0.8228796749720974 -0.5621630185762982 0.05771650148189559 -0.28601813125272385 -0.0008354012599193077 -0.0015240397861831668 0.4433562198572626 0.008675572870917568
67933000.0 0.8193521402822305 -0.5716947402591073 0.058905683222236 -0.29924513810107517 0.0009578438768831926 -0.0015885982200586073 0.44651938658682394 0.009677737461642083
68932000.0 0.8059380692165184 -0.5630065020908287 0.05280352604259448 -0.31309287360807025 -0.002092313485146748 0.0010828966548443435 0.44857478859710237 -0.013850798538529325
69931000.0 0.8052412435688439 -0.5855042624812408 0.051168263136593256 -0.33268762923136225 0.000403273156498944 -0.0003443829299665972 0.4511381273662245 -0.015545485984561182
70930000.0 0.7984726533923181 -0.5926746009823867 0.05229352973019232 -0.34499121304816954 -0.00044112956975898637 -0.0016049569455238518 0.4493998044117345 -0.03488225163180813
71929000.0 0.7950490136781905 -0.6024973932577106 0.044922483207654906 -0.36523768324961753 -0.001957126798060782 0.0027026374716029437 0.45585981079785043 -0.04846882486050183
72928000.0 0.7857454455764008 -0.6104832178012294 0.03635568818201722 -0.38459987572827536 0.0028933127080654594 -0.002177257008106053 0.46747782332607646 -0.03970461052980712
73927000.0 0.7821520336227487 -0.618252754466002 0.03211814077816999 -0.4098890653508625 -0.000896450399701641 0.002920216635200164 0.45769599768199626 -0.06118947027987822
74926000.0 0.7734913050891707 -0.6266677201128611 0.0208884295752421 -0.42772794499888617 -0.0008259983397169843 -0.0013569386387456087 0.4616624759205665 -0.059575248739156324
75925000.0 0.7723460623327454 -0.6316110946271472 0.013791297886078911 -0.44836329398859964 -0.0014939087060546145 -0.00163595527639793 0.4697245025362052 -0.07410301348200736
76924000.0 0.7635514462713349 -0.6384079975837965 -0.0005126691252331343 -0.4711717225022933 0.0006244614390902616 -0.0022478112428879165 0.4658776737865127 -0.08626243955087089
77923000.0 0.755850708783222 -0.6472338013993869 -0.01326823595293268 -0.5006043412802742 -0.0028113500670204914 -0.0030713380848522483 0.459994699064203 -0.09259739096666464
78922000.0 0.7514044918880723 -0.6556710678407488 -0.033603914898347145 -0.5275323531412596 0.0009198777818641928 0.0003584542098031668 0.46012376625411894 -0.11134422730040812
79921000.0 0.7429477202646776 -0.6598708217844751 -0.04781479526539961 -0.5527391546438227 -6.119521794035184e-05 0.0010990656549989142 0.45475080639827226 -0.12908186838251556
80920000.0 0.7382659203140144 -0.6713942004395789 -0.061785388278742866 -0.5812653095646125 0.0022880957333966706 0.0033600164024171 0.47092826472091415 -0.13283402812513295
81919000.0 0.7320410887744824 -0.6756806841680991 -0.07930548240559361 -0.6168444287244687 0.0004830388393068349 0.001408269180241159 0.46627953494706265 -0.1346383794263397
82918000.0 0.723229249066095 -0.6825431030992052 -0.09286224637738963 -0.6462554551009569 0.002940494901308609 0.0006881549051972768 0.48051225594730396 -0.14649120377835875
83917000.0 0.7130530008845252 -0.6918342690374433 -0.11416788800580596 -0.6764695011782081 -0.0008589964441703593 0.002649735061603646 0.4724886185433468 -0.15161084255751553
84916000.0 0.7079279689826019 -0.7019261105395412 -0.13311101847776435 -0.7094704117606402 0.0015560256679249935 0.004044322524831394 0.4608745627736281 -0.17911362770659608
85915000.0 0.7017303393112426 -0.706136233384981 -0.15422523387018297 -0.7405847448345715 -0.0014872034787762156 0.0033734297548957386 0.4674431007897718 -0.17451167596766473
86914000.0 0.6946223228707109 -0.714752492192016 -0.16861525514927447 -0.7805800708837916 0.0003777869955188068 0.00011116756443982696 0.4626456543335815 -0.1785249491646818
87913000.0 0.6884177494948581 -0.7214123101392399 -0.1915355501682335 -0.8115123962052287 0.0014539344651036802 0.0007055146204606079 0.45840547245346236 -0.20218100913220796
88912000.0 0.6800057855123408 -0.7287100385240649 -0.20385358158181643 -0.8436319045497661 -0.00723806637133921 -0.0006963434967599027 0.4607864989278005 -0.20926664266160563
89911000.0 0.6717637411806774 -0.7371801571427028 -0.21931372776469588 -0.8844980985677431 -6.327639347353272e-05 0.001768156116157446 0.47309411821283104 -0.21325763690996818
90910000.0 0.6641479904563226 -0.7429584977950172 -0.24336129872177656 -0.9186941781319016 -0.0016647987384133139 0.0016114667011072363 0.4626903687201084 -0.2103932001815888
91909000.0 0.6554153841865351 -0.747730539149376 -0.2618907173752163 -0.9539948467935739 0.0016796470733372996 0.0006792206048328068 0.4699540936661674 -0.22968214618339655
92908000.0 0.6493699815079081 -0.755721923121474 -0.282245683230631 -0.9879616014945491 0.0008820072483530163 -0.00046341609194949264 0.460050433676884 -0.23510814263591753
93907000.0 0.6425557105724836 -0.7601011912440938 -0.30109397466257865 -1.0193948613500514 0.0008766121170365257 0.0007060019470580379 0.45915251094352494 -0.25334544900442985
94906000.0 0.6298807458050336 -0.7679561947670548 -0.32143101300110916 -1.0586646077535988 0.0026772883689138707 -0.002321156693327382 0.4608103898794284 -0.25691428142508776
95905000.0 0.6232554157784842 -0.7764401312868808 -0.34779916389892496 -1.0930379962504544 -0.0008796304092807481 -0.0038336894006124936 0.46440702971438086 -0.2766986826872621
96904000.0 0.6144669399499512 -0.7849882647489345 -0.37014899032139276 -1.1327291593779394 -0.0007096291666210273 0.0004600250881177527 0.45453841690741886 -0.2731182494219261
97903000.0 0.6040694816287276 -0.7890019018366181 -0.39116458489726585 -1.1663754509531437 0.0013938363345712761 0.004746495195923926 0.44346275274589864 -0.29752329842220754
98902000.0 0.5993491141696028 -0.7957535872901311 -0.41601570698651547 -1.2071082679153142 0.0005807260075488968 -0.0011587906182828366 0.4522028713420185 -0.29048576383367547
99901000.0 0.5875490804962601 -0.8000117560617466 -0.4531597182529853 -1.2350991343826918 -0.001833975906298513 -0.00048604574064335524 0.4598148398563627 -0.3156945472776931
100900000.0 0.5802518574960772 -0.8044965930974177 -0.4824004515782826 -1.2705823262890403 -0.001027496987482631 -0.0024092211105073186 0.4619166093086607 -0.3182490654892645
101899000.0 0.5723460020986119 -0.812388166405528 -0.5084642914780155 -1.3145306693614114 -0.0009277319742188292 -0.0014029579005130674 0.43995515800594814 -0.3238670391904079
102898000.0 0.5615521913804317 -0.8202333798114017 -0.5572658285616265 -1.34751773555769 -0.00328830939547913 -0.0006121240086164551 0.4433492829437976 -0.3409146051714718
103897000.0 0.553626605315367 -0.8276280831309333 -0.5961816332479637 -1.385317175232369 -0.0019596655985470754 0.002894008938284596 0.4539730870745723 -0.33674881474621826
104896000.0 0.5441488303218346 -0.8372615426761099 -0.6493451302336699 -1.4209178778278562 0.0013311327166312561 -0.0004866571180357805 0.43597331484359175 -0.3291559516859606
105895000.0 0.5334352550826945 -0.8390049143812333 -0.7015572657974976 -1.466650104170296 0.0005912448558616335 0.0007292519477451919 0.4460453162772449 -0.36109506884494086
106894000.0 0.5267891065640836 -0.84512920867428 -0.753890655808448 -1.5060527876570957 0.0009522672728624968 -0.0014788627105282706 0.42929045543773353 -0.3672805231033404
107893000.0 0.5169994566079901 -0.8530109797341667 -0.8112964595356832 -1.545996132507732 0.00039433428609818365 0.0011826901529832046 0.431924188172844 -0.38478777215658716
108892000.0 0.506440566417205 -0.855353501724299 -0.8734404851411313 -1.582757326887614 -0.0018778224028762008 -0.0009047428548246469 0.433416277484719 -0.3757314619848717
109891000.0 0.49508682183611685 -0.8630094299746748 -0.9379689496234211 -1.6239662336829348 0.0017383138084366807 -0.0012800049937005571 0.441836661871953 -0.38707611690189503
110890000.0 0.4885073377586235 -0.8721660222394484 -1.007952619711365 -1.6460218644407478 0.0011897388496643919 0.00010729859141111541 0.42599103014666756 -0.3898701657572441
111889000.0 0.4766468194466933 -0.868357436290121 -1.0699836385739536 -1.6917930674831492 -0.0011513590397574985 0.00023562421912378008 0.4166778301444851 -0.4032991998641748
