! Created with skrf 1.9.0 (http://scikit-rf.org).
# Hz S RI R 50.0 
!freq ReS11 ImS11 ReS21 ImS21 ReS12 ImS12 ReS22 ImS22
1000000.0 0.9753039794227125 -0.0019063437593641241 0.0009401306292803697 -0.036772723555210024 0.00040682431720414605 0.0009644469419892317 0.3607811132657681 0.3241104442249787
1999000.0 0.9994377636539503 -0.01368073294200927 0.012583610671520624 -0.02388591182512387 0.0003827554762194759 -0.0014178795352388024 0.2675810689949049 -0.0663665813040264
2998000.0 0.9983668728415266 -0.021760705021693864 0.014350421877868426 -0.019693837274061026 0.0005760874543986792 0.007828995023993849 0.1834145830156741 -0.12626468983522832
3997000.0 0.9967621257580851 -0.030329575641332467 0.009473873335509735 -0.011188266869163323 -0.0033571848616278793 0.0017984527699821862 0.09623852655075879 -0.21194207462084752
4996000.0 0.9944248939489421 -0.036835454438288555 0.011648881066734113 -0.0038566065714152812 0.0023947286577841857 -0.001789639797413757 -0.031616734071679156 -0.20938940283092344
5995000.0 0.997817578001672 -0.04530913440706234 0.007331221786818871 -0.0006950734826860594 0.0013846984489387605 -0.0038282581294900417 -0.11749990041939301 -0.11045183991872985
6994000.0 0.996304883336875 -0.06091521896788939 0.0056111247547415335 0.0025341060646560873 -0.0013976475539153558 -0.004128699139963388 -0.15849640211631016 -0.03894759550055579
7993000.0 0.9997913116608222 -0.06723400937540948 0.002141513920232875 0.006447778006774801 0.001971139907911764 0.0015934552091720698 -0.16081276922270782 0.033324545200409325
8992000.0 0.9970870185863935 -0.07406595675515862 0.0035345708879951495 0.004487205066891548 -0.0007470232642022865 0.0029748345257377866 -0.15564160102232144 0.04778404707858582
9991000.0 0.9967236605677267 -0.0803727022528864 0.0024946656866188005 0.002822947435926987 -0.002225700277708411 0.0021816250605016215 -0.15233921138365975 0.08436811939615951
10990000.0 0.993308535736014 -0.09136641800451589 -0.0002288517576658333 0.0016401280022492937 0.0014554728410580977 -0.0017025314655072512 -0.15301029606471128 0.12126150877829868
11989000.0 0.9921066181264793 -0.10037407620815425 0.001771480783270101 0.0005085038157474818 -0.001602999868323299 0.002728651268879093 -0.1372604493694867 0.15117567563892867
12988000.0 0.9906028368516617 -0.10857931120356218 0.0040592467141269736 -0.006193670038866243 0.004219512941725975 -0.0017754295086561474 -0.11452283381850203 0.1666926728419092
13987000.0 0.9898920805398805 -0.11446172840485498 0.0011785487144795645 -0.005601635066487156 0.0020726099931103006 -0.0013042085379874342 -0.09649160338722419 0.19228786540549728
14986000.0 0.987687086306626 -0.1234099053241973 0.0012095063756778952 -0.005306370762177716 -0.0008352571882244049 0.001482707257915554 -0.08581614053520772 0.19672369212395713
15985000.0 0.990536488910877 -0.13228625303149286 -0.00418676434308555 -0.0005910344602782627 0.0020007025846823603 -0.0017547748885385055 -0.06959935146891656 0.21470880851328905
16984000.0 0.9850115145984237 -0.14141132584952068 -0.003492640389350596 -0.0058605232074173145 -0.0035381878364299712 -0.00010952913577874263 -0.0557374709608646 0.21625056184871935
17983000.0 0.987251830839357 -0.14559553105894976 -0.003801882024582641 -0.005036060192020683 -0.002699390646850342 0.0009260584412664755 -0.054740908293166766 0.22597899970660795
18982000.0 0.9821637986657978 -0.15977403141740637 -0.003149827997453484 -0.0061815375184057705 0.002647127699720928 -0.0006532427330404744 -0.024566345569407008 0.24125113134917
19981000.0 0.983869968667973 -0.1632374417934855 -5.236351573205475e-06 -0.004971707573711998 -9.114807360546237e-05 0.0026822883311225184 -0.015178108751248108 0.2459267986559116
20980000.0 0.9831277779676882 -0.1744942090509478 -0.0037539990946363314 -0.003595876770854309 0.005433567446320477 -0.0012428974984230881 -0.005829534877382735 0.2587558092455877
21979000.0 0.9809350110516761 -0.18173819442551942 -0.005511537889390877 -0.005802489527806901 -0.0009872512593096128 0.0007149097461502282 0.016440260641978423 0.24388905891005813
22978000.0 0.9768116661367227 -0.19474220797813627 -0.004737760863835914 -0.008156393542222246 -0.0030684486255387997 -0.0012544729412901068 0.033744627806773696 0.2502403046257383
23977000.0 0.9799112701387533 -0.19731103147075962 -0.007497286498573239 -0.004723059818561631 0.0003736079082220579 -0.0028596382017106532 0.04132344106953304 0.2605924767468601
24976000.0 0.97641433312359 -0.2078540659472767 -0.004975366026061157 -0.0005001388866629076 0.001114485541136435 -0.0011573734140707687 0.047384955683126666 0.25853170256685754
25975000.0 0.9775993021486712 -0.21944620025972425 -0.0045901334303849245 -0.002787769021433218 0.014918984906167849 0.019990121843789142 0.08405839176785057 0.26183874682934644
26974000.0 0.9724170953491665 -0.22455860956705662 -0.0021640488765444065 -0.0010290804135551761 0.0013311182474314914 0.0014236917658520451 0.09961180922782664 0.26915261480869745
27973000.0 0.9715665822536237 -0.2296399313556173 -0.004260338326253028 0.0014392778741645236 0.0015376908665014513 -0.0013487375273113804 0.1003118857476608 0.2459219095622597
28972000.0 0.9669600108519933 -0.2428513248329375 -0.0026611674120080066 -0.0038458703111476093 -0.002407902756531842 0.0009829591095698528 0.11510306108325906 0.26107220439040146
29971000.0 0.9665682069970087 -0.2500106654116735 -0.00017350630970253218 -0.0029640945791316125 -0.0018493373030687198 0.001981121745471114 0.15246716307743277 0.2648285812240052
30970000.0 0.965175603540897 -0.25405151544414206 0.0007028957022514708 -0.0016975673067600033 0.0018961592417400207 0.0021041452515840986 0.16518837470768225 0.24938068494258808
31969000.0 0.9627389751548954 -0.26395874729718977 0.004639045791452391 -0.005199028798016786 -0.0008083345142142096 0.001620547741949949 0.153748883592277 0.25494602958102414
32968000.0 0.9609682927677771 -0.27131207636960025 0.009301946147259146 -0.007162545507240474 0.001509584198365357 -0.0004008747824079521 0.16680106411488912 0.24025496688963713
33967000.0 0.9587972693221579 -0.2812456601360694 0.01175603866950109 -0.011850866693250544 -0.001883236261425956 0.00022233118419688359 0.1937381801308491 0.24285172247399578
34966000.0 0.9548245216331639 -0.2899908215375094 0.013758335976057533 -0.013036728664044558 -0.0001686903835319107 0.001636553245430425 0.19748184147164335 0.24869508868083562
35965000.0 0.9521228008747549 -0.2987704757826853 0.013631122137336438 -0.02021253137157779 -0.0005954688930559716 -0.0002250614935805232 0.21825114348198119 0.24292120991961086
36964000.0 0.9490430670502897 -0.3076353770420092 0.017675864312336743 -0.014824606237666493 -0.0004201853970766419 0.00026107816130144777 0.22514902546421567 0.24963541476624257
37963000.0 0.9457047967731319 -0.31690181684756774 0.024381667120795352 -0.020820600551154308 0.0005275276433107602 -0.0019636645618760847 0.22703623612760557 0.2369026650019162
38962000.0 0.9461846548538628 -0.3243238961178724 0.02594491969786229 -0.025525606935810116 0.0003161530533575373 0.002816808584035079 0.2436781724472368 0.2333655867062981
39961000.0 0.9419627172077341 -0.3298548734513744 0.026263749941889684 -0.02882622635396263 0.000793328994352579 0.001203422111582019 0.254984042102959 0.22677299324839464
40960000.0 0.938226726823792 -0.3405938308594466 0.023768226431540043 -0.024159781946429922 -0.0018699067223298949 -0.002551848669863766 0.26805638328508924 0.21608232676717765
41959000.0 0.9356608294767655 -0.35020349145154317 0.03386548012142245 -0.03281105656323095 -0.0018454703188649408 0.00026018710347081687 0.2672464324895489 0.21209425495898984
42958000.0 0.9307645969433287 -0.35804751578096833 0.03728954948405724 -0.044738023610526735 -0.005467501044631783 -0.0015721178400331082 0.2803404558554669 0.19694251145638675
43957000.0 0.9286468048838433 -0.3655653312104815 0.037360647293015 -0.04663240021376694 0.0008982911989118877 0.00109317276069176 0.2883421204986967 0.20562030774783677
44956000.0 0.9255207261103553 -0.37392176750513023 0.03392120134292005 -0.05203109186489439 -0.002429232241847337 -0.0029098914064221303 0.30079588275628033 0.19001065606136416
45955000.0 0.9219113483592759 -0.3823903803175257 0.038839873938197385 -0.060603653017577544 0.0016859443976223868 -0.0013963792840506074 0.3086812719453062 0.19168965127838258
46954000.0 0.9186546281187856 -0.3906477231853983 0.038904147905427705 -0.06802081041528839 0.000644991595449016 -3.7176739393644745e-05 0.33752941550027893 0.17221766305475192
47953000.0 0.916325982899563 -0.3974323238403611 0.036888773059452755 -0.07588197407697161 0.0016098996154113613 0.0037902874831994412 0.33192902273557184 0.17097586751003266
48952000.0 0.9100689391117177 -0.4085553323334217 0.0385394091651656 -0.08423347035145798 -0.005267245501002571 -0.000973256907681197 0.33645973260807116 0.16190342199689678
49951000.0 0.9080028632209817 -0.4125142082965134 0.04008530210425855 -0.08762226319383862 -0.002135712723213408 0.0005674725025315055 0.3502103980027218 0.15364036244026244
50950000.0 0.9050418232733706 -0.4236738626290428 0.04056283272838073 -0.09946119019828491 -0.0026094990232330907 0.0010349022581121116 0.3528458582991635 0.15414215400767764
51949000.0 0.9006728413912103 -0.4316038786645501 0.041003757519772914 -0.10773244000239514 -0.0036677953690056335 -0.001385648431637993 0.3631454712512785 0.14089386995780503
52948000.0 0.8965879359760458 -0.43920111166778036 0.04150829239749959 -0.1187425121272229 -0.004357302525540864 -0.0008984908685964549 0.3755896642939576 0.14195531242102996
53947000.0 0.8929811338941105 -0.44621863462790146 0.04221643836709826 -0.12653912798105965 -0.0008515105995585472 -0.0036283806460237116 0.37471350381480645 0.11872027184870768
54946000.0 0.8866156904020216 -0.45733886007308255 0.04456890171306103 -0.1376319101354461 -0.003964605741820178 -0.00044823922549290106 0.3848952505458159 0.11094214192052357
55945000.0 0.8855898369821925 -0.4642738549927767 0.045624064627647065 -0.14715589507424526 0.0023641461557010173 -0.0001437035505062445 0.3872280703917384 0.0912361619267869
56944000.0 0.8795415943114707 -0.47049138044924516 0.04658317480806049 -0.15413965474063343 -0.005072656541308819 0.0052110305313744654 0.40776345490914506 0.09892714107138444
57943000.0 0.876980507017328 -0.4821815825771762 0.04785895835908331 -0.16854185448707845 0.0019244056999124194 -0.0005884411013972349 0.3954374393201208 0.09851445603151739
58942000.0 0.8716742896584991 -0.4860875524824215 0.04854484926432243 -0.17898554771339562 0.0014245140260497962 0.001365015280679085 0.42862959780783083 0.08280755348721032
59941000.0 0.866504218663928 -0.49457829666051417 0.05256224117043396 -0.18979293875163306 2.8353864829261804e-05 -0.002742536525687533 0.4241448363597116 0.08866736724631807
60940000.0 0.8595770586382545 -0.504083569143854 0.05133727393025044 -0.19248315609270966 0.00011789401214854567 -0.0001235186615557284 0.4098416580904216 0.06641966739343086
61939000.0 0.8565056809621021 -0.5085533545436957 0.052055745031667607 -0.2028251096194897 0.0016022096583318743 -0.000972833813016416 0.41909119725564864 0.05206268853283514
62938000.0 0.8520108002107835 -0.5200275816619543 0.057894214297075516 -0.22079309821659798 -0.001147103677975395 0.0018675937488852657 0.44175015484472724 0.05047943878114631
63937000.0 0.8468405496754067 -0.5277190855696381 0.05784551991810314 -0.24108431220542811 0.002030889304550615 0.0010750260216226956 0.430335539507166 0.027017781424262744
64936000.0 0.839905973920995 -0.5335703065733933 0.0579233855734035 -0.25752498630516385 -0.0007708617705814992 0.004714195224071227 0.43510085591985825 0.03993360042378724
65935000.0 0.8352180191726575 -0.5456018438846245 0.05420171894355017 -0.2702557828706065 0.002818128493394181 0.0012948078393027454 0.451562481190498 -0.002669438017841417
66934000.0 0.8322077454013814 -0.5480126039964313 0.05295477203214535 -0.2821748921346184 0.001994062137784549 0.002329682012454514 0.4342377565896758 -0.005654270532568497
67933000.0 0.8297425345434507 -0.5578660776399748 0.055834520673996337 -0.2991844258876372 0.0025216072691969047 -0.00312985115224883 0.453212961075216 -0.004667854608357463
68932000.0 0.8228972843334813 -0.5509033569089788 0.04893790320313487 -0.3095734364764532 0.0037374114289089383 0.0035962459075487107 0.4504856328421029 -0.008548457978495173
69931000.0 0.814453039498299 -0.5737472217178766 0.04933837882716901 -0.32832840809274605 -0.002861823466784786 0.005065631976324366 0.45234427838889213 -0.03130385407713307
70930000.0 0.8094493183544722 -0.5808315107571906 0.04273326494072905 -0.3400182567021298 0.002752214453215378 0.002301040710876792 0.45243832234955544 -0.0506544810824247
71929000.0 0.8092148261363951 -0.5854055282528889 0.045617643647956334 -0.3625505532301641 7.731605433482309e-06 -0.0011649274010944463 0.44542499478081493 -0.058110935393615865
72928000.0 0.800692582893614 -0.5989280641706088 0.03739250062759899 -0.37937774369341304 0.0018078619700138939 -0.0005200083538929762 0.4589142233283646 -0.053577295978183406
73927000.0 0.7951590169529564 -0.6046082012339957 0.0330461331527852 -0.3970106346317473 0.0034263720844293446 0.0007213207156454803 0.45921838651595887 -0.06240668941459273
74926000.0 0.7895628307274518 -0.610412076688079 0.0239221084570546 -0.41885262856338923 0.0032382929498438197 -0.00114909437253509 0.46189811065263964 -0.06233877404322196
75925000.0 0.783935474362223 -0.6169441139402145 0.013177902109779014 -0.4373529307387171 0.0022038668529730135 0.0027787122172630305 0.46454302748707105 -0.09156208869475571
76924000.0 0.7773645787539182 -0.6261234350435569 -0.00015454361541378313 -0.46390636201943913 0.0022903879437376237 -0.0010007000100336469 0.4562567755759 -0.09785132637365135
77923000.0 0.7724895255482955 -0.630914195581435 -0.01821581123819089 -0.4849416954879675 0.004200881040211419 -0.0008635488103125522 0.45849834718322563 -0.09740309764709885
78922000.0 0.7659412792616731 -0.643521441586053 -0.03048866284514226 -0.513406907895604 -0.0010893921604946798 0.003274006139256421 0.46014017551675 -0.11734472952976861
79921000.0 0.7576874165480875 -0.6486244644481775 -0.05222922282828157 -0.5402654524399221 0.0007639635035776169 -0.0004459281300819812 0.46478745128815135 -0.12209125515803461
80920000.0 0.7540323283056003 -0.6565944564067194 -0.0668102191214917 -0.5704864502316757 -0.0014259777425004842 0.00032251903397198577 0.4604045844261823 -0.14775233365451226
81919000.0 0.7479019571989083 -0.6636776588706617 -0.08159358436607379 -0.5984502647741887 0.004045138116993973 0.002949563441942292 0.46495903239133685 -0.1476435441450515
82918000.0 0.737410654998974 -0.6711876913829575 -0.09775200088126057 -0.6268922816415194 0.0009496525554354027 -0.0016095940209195638 0.4737600091935094 -0.15722518853531664
83917000.0 0.7325027919415061 -0.6777905840057815 -0.12356714449099844 -0.6558402345055849 0.0016312969388591486 0.0010313338774605297 0.4716135972104753 -0.1641221284781413
84916000.0 0.726889078163696 -0.6839079242992673 -0.1368376649208431 -0.6952381135898772 -0.00019297268939875493 -0.004305457578070792 0.463933506118504 -0.17568727789055189
85915000.0 0.7209418560775879 -0.6920368834255893 -0.15888187508367932 -0.7258389026270872 0.004189556886003679 -0.0010617546688096809 0.458730347628724 -0.18331080111774645
86914000.0 0.7122679397020724 -0.7017226027103337 -0.17086044897478406 -0.7632208936298425 0.0013285235614186196 0.0004117494936385321 0.45259664485950246 -0.20005029414355135
87913000.0 0.7060773718466332 -0.7077426014047418 -0.1956591092225625 -0.7950423871915467 -0.0008927408451760438 -0.0015355630721511776 0.4517529316946359 -0.19996337417212595
88912000.0 0.6978125101826207 -0.7147102189857298 -0.21267538480267154 -0.8272354172471315 0.005484556971601079 -0.001986630430568806 0.4662553125331516 -0.21740508434628
89911000.0 0.6907526417100983 -0.7230781718234347 -0.23160675398917904 -0.8657900799458238 0.0019832749269236023 0.0007788485160159068 0.4705384342125916 -0.22226150402344214
90910000.0 0.6851583697357085 -0.7272797972383848 -0.24876149669727082 -0.90142790501844 -0.0010930736043666895 0.0011908087317116943 0.4664862784259467 -0.21728387322880216
91909000.0 0.675280076044134 -0.7319959189748455 -0.2695607252816347 -0.9333063964731192 0.0020397588968192448 0.0016399014222954803 0.4662314461248703 -0.23975037337262317
92908000.0 0.6682811192316148 -0.7427180332720756 -0.2888219346999125 -0.9669549618597546 0.0003939064521092568 0.0019562184128523834 0.45186088154035897 -0.25414689119005507
93907000.0 0.6610528374186406 -0.7462583903459743 -0.30504811258497133 -0.998281520431159 -0.0009980312420747102 -0.002003169245756037 0.45739548394528706 -0.2656171500702781
94906000.0 0.6497097012572423 -0.7547748943759489 -0.3248189725224479 -1.03663752773593 -0.001330078860022507 0.0018145259537193808 0.45342334994800476 -0.26092152165340665
95905000.0 0.6424811084699914 -0.7604930578382496 -0.3481653904487145 -1.0641760002263227 0.0023222951579191793 0.0017231052573784154 0.45447700745361996 -0.280309571989617
96904000.0 0.6346418231877037 -0.7702139131085517 -0.37341266153138336 -1.1062304826337268 0.005734506380270728 -0.0027147797260798708 0.44320481423560465 -0.2922935063568522
97903000.0 0.6274099788256631 -0.774038877957678 -0.3938349358624081 -1.1439026686699585 0.0023344537865717806 -0.0010585220500587964 0.43529750695178426 -0.30356436344630666
98902000.0 0.6219488198021194 -0.7802807343032063 -0.41756598356320024 -1.1807164765916063 -0.0011456809192847057 -0.0010750679154690424 0.43676295385679004 -0.30421781292404876
99901000.0 0.6119763955757205 -0.7875086470300814 -0.44724219745557486 -1.2128977223373405 0.001589828814596322 0.003255673979543906 0.44052054807320923 -0.331784812213096
100900000.0 0.6023262648997102 -0.7899276727732509 -0.4831625598332316 -1.237244219852895 -0.0007647726227096795 0.0026562307953118002 0.450744075869249 -0.3246410240338962
101899000.0 0.5944166591019772 -0.7991346300161467 -0.5071741380347582 -1.2820923565658988 0.0004666506845658384 -0.0023622626203187555 0.430061711622282 -0.33435556748544376
102898000.0 0.58476810236722 -0.8049844136030464 -0.547673973154123 -1.3161304391110242 0.0016237711378275636 0.0010798677129547766 0.4370389663509455 -0.3468842988892652
103897000.0 0.5774747100073941 -0.8115134039847254 -0.5857901042569664 -1.3484477961191574 0.0019778062732329635 0.0025015086552039626 0.43661055503624024 -0.3516604348515002
104896000.0 0.5710311144587082 -0.821794478462861 -0.634308200593887 -1.386863139168514 0.0015749035960321723 0.00013711605907227496 0.43893427879697927 -0.3527509419150794
105895000.0 0.5575991160158454 -0.8236142144665474 -0.6845336354506861 -1.429353879690284 0.0032062158430477333 0.00021903644732316948 0.42384328444747293 -0.3755512077543868
106894000.0 0.5526807083189003 -0.8312902416587835 -0.7358039755138913 -1.4656345017343009 0.002973983676528654 -9.563227654462799e-05 0.4220498259968939 -0.3806459014162527
107893000.0 0.5429544737214342 -0.8367657052878544 -0.794816123703051 -1.502640618847586 -0.0003565718026652344 -0.0012680599187077342 0.43300420066276457 -0.3920789580076955
108892000.0 0.5325719973388309 -0.8417177361874516 -0.8514169393870021 -1.5429656448738156 0.0017350071235473048 -9.8345463795276e-05 0.4065216533826161 -0.3802702183396225
109891000.0 0.5232474322801753 -0.8469390237043062 -0.9089017887159211 -1.5777201951451973 -0.0013880193782463254 0.0030620510924726074 0.42075390038678184 -0.39851190538716663
110890000.0 0.5167616401252917 -0.8542941842427693 -0.9743971053207848 -1.59440370908452 0.002946166414569179 0.0028242916553650388 0.414605758533953 -0.3972032565834343
111889000.0 0.5012628361457407 -0.8563383926440109 -1.0516024026951947 -1.6457818364369239 0.0019393774195179657 0.0007728748050931908 0.4068657627637421 -0.4052438802951604
