! Created with skrf 1.9.0 (http://scikit-rf.org).
# Hz S RI R 50.0 
!freq ReS11 ImS11 ReS21 ImS21 ReS12 ImS12 ReS22 ImS22
1000000.0 0.998601254749934 0.015376962260065019 -0.005830984109263345 -0.05637621603149611 -0.022186300598721908 -0.006201441565414598 0.2999614149136104 0.29227814094116733
1999000.0 0.9992548468011762 -0.013142843859603603 0.007444444074985193 -0.018959331071177535 -0.006160935250717619 -0.0060788298071063835 0.25666780953342194 -0.0323406743486438
2998000.0 1.0001969920415483 -0.021022425485398802 0.009325282217793288 -0.014158769803574332 -0.0030754022466917066 -0.0071334744863666266 0.1943677622204158 -0.14044157966723353
3997000.0 1.0010093712443588 -0.03332932170047288 0.013301882254202707 -0.010132713389084244 -0.0004959880542247136 -0.003162732444037336 0.09371598580988721 -0.22939150731221722
4996000.0 0.9970774006056253 -0.036244352521313944 0.008278238050868964 -0.003951157339786053 0.0012468697213633675 -0.002004456986155412 -0.0378625303336867 -0.22905837349675878
5995000.0 0.9951105815473302 -0.04844760925261727 0.009139168481565887 0.001113919382699082 0.0005766597950921932 -0.0021197440339456625 -0.13217882299976125 -0.13228987613720783
6994000.0 0.9951440786376227 -0.05776458368271379 0.00850119234277261 0.009199243455941598 -0.004090768709017408 0.002802494533058726 -0.16309119814911024 -0.03951487841671358
7993000.0 0.9972629524146258 -0.06704313210548585 0.004742258075332424 0.003317992430890163 -0.0022969578956511696 0.004688389543244647 -0.18043928841641935 0.030463562365984687
8992000.0 0.9962090566748815 -0.07016047172869466 0.006977122980843167 0.003350305051706511 -0.0004182962455814937 0.0007980214738103398 -0.1667154426604486 0.05619443997212423
9991000.0 0.9943155909313274 -0.08166635801708788 0.002189126061777047 0.004905267497145137 0.0019296578448094479 -0.005786045439275892 -0.16274377447837277 0.08996125233022573
10990000.0 0.994495148843875 -0.09003864321478225 0.0037981694437893916 0.00498727165464892 0.0057751547334725034 0.001748077249480163 -0.13733155110682554 0.10012311828740338
11989000.0 0.9927910620939384 -0.10100111405024095 0.004008520720025748 0.0007402982767022095 0.0031816100452131913 0.0024189710359155837 -0.11905011820105348 0.14094370384772492
12988000.0 0.9927548894688984 -0.1066753683124426 0.0013753626090882265 -0.0010995163118944738 0.0004239663663185293 -0.0034992445076374216 -0.12393186229900532 0.16562056088270077
13987000.0 0.9909912967638583 -0.11740883201568099 0.0015149055400628247 -0.002987064462911198 -1.4623742160512705e-05 0.0031948985965169325 -0.10520912558016361 0.1790711568948427
14986000.0 0.9894679971571975 -0.12213905146071923 -0.0001953773815128022 -0.008934685816643874 -0.0009610949723362084 -0.0011647457719927824 -0.0935051624704997 0.2051350574898534
15985000.0 0.9901516853504749 -0.1331105728844031 -0.0034919680474972893 -0.004604163484516809 0.002929105706314302 0.0018997452103998033 -0.07242150467976974 0.20668980541661483
16984000.0 0.9869694057400702 -0.1406989058347386 -0.006845722134227852 -0.008648563785631858 0.002601014497482676 -3.506543573520509e-06 -0.06764629312506891 0.2190665947447197
17983000.0 0.9869362715588907 -0.14810566319501584 -0.0011010860212007294 -0.0014483708362212858 0.0007433230026269354 -0.0030933889348521435 -0.04967919447329779 0.2224648777087616
18982000.0 0.9865833842394912 -0.15674612399530774 0.0013977897654527428 -0.007096333233141999 -0.0003084317867489612 0.0016819178139013938 -0.021256815909082724 0.23029772761939568
19981000.0 0.9840025281847198 -0.16485441859434566 -0.0025458546037185822 -0.0077048858124196045 -0.00010559769257915749 7.580867290170531e-05 -0.021612563407961298 0.2346069452279426
20980000.0 0.9821806203624172 -0.17309592386159012 -0.008633134504377705 -0.001532455321705376 0.0029428756501066276 0.004593153117076492 -0.007888483227341578 0.25704483375932213
21979000.0 0.9800366433931114 -0.18231412632257388 -0.002087855885572657 -0.010168361467492174 -0.006364407380625519 0.0026998392900947662 0.014204663875996554 0.25218279970356816
22978000.0 0.9781030426379305 -0.19158330868690707 -0.0052618316793385115 -0.006474781426025875 0.002595586236939269 0.0029651684327052057 0.018610087977745386 0.2503617764889652
23977000.0 0.9808982799692754 -0.197643928743883 -0.006987416205657811 -0.005358724120927537 -0.0022548767698584546 0.0013183128159707392 0.031491198186774115 0.25514547685844113
24976000.0 0.9776272505874687 -0.20910552758305234 -0.004550840304588908 -0.001099194188771542 0.0005267364114092045 -0.002243057431026846 0.04919537575576268 0.25834605074058964
25975000.0 0.9756158705299615 -0.22220379051462108 -0.005340013648151214 -0.004950557522952213 0.02661773973551883 0.009876273837261801 0.07372109975547346 0.249616910240239
26974000.0 0.9731649818099055 -0.22493651410770601 -0.00410944841875622 9.071121336970207e-05 0.0014430547386168535 0.006567386158751093 0.07951828608957068 0.26395717226235244
27973000.0 0.970471638071334 -0.23334609206957319 -0.0056439897308379035 0.0006771169347256787 0.00011950635007022308 -0.0020674735398545216 0.10213107906435816 0.26067793327044353
28972000.0 0.9662682082221444 -0.24274637664889384 -0.0024445229876964457 1.1497482646271845e-05 -0.005022071155044216 -0.0017979528480115536 0.11089469180183333 0.2544414904023642
29971000.0 0.9664371535907567 -0.2514194730652266 0.001821120327483524 -0.0049100592218247535 0.0017434059763324595 -0.00033556427308678696 0.1369811813282054 0.2670975233260865
30970000.0 0.9641498222899197 -0.25574018173004454 0.0030777927124518646 -0.0008584776681627734 0.0015741734199785952 -0.001431092296231411 0.16225682767804073 0.24256938455184035
31969000.0 0.9637196352251393 -0.26543757481472835 0.003510404540959783 -0.003635918938894119 -0.000197360763922684 -0.0030569986069909905 0.13875512533829262 0.25265790908134006
32968000.0 0.9609616379748334 -0.2731749989964774 0.010446102141096926 -0.008551598591454709 0.0014939545737849321 0.001803092027065474 0.16053540080614964 0.23769922662475973
33967000.0 0.9590756325537507 -0.28246311153604287 0.009977602421536511 -0.008708485266000555 0.002535305614040256 -0.00107598696740061 0.18783306649475612 0.25249368663825345
34966000.0 0.9557417103593379 -0.28998348392349427 0.012673357437765653 -0.013666550751181882 0.0023363617216333728 -0.0007720664765331692 0.1971293905222713 0.2499854387605763
35965000.0 0.9526304470732256 -0.29943622749104065 0.015305104865936262 -0.01356295440575888 0.0016094243405746246 0.0015906710133984131 0.20545442370597083 0.24611810763055897
36964000.0 0.9504627735467851 -0.3086511538205432 0.01815938295001892 -0.015574962637661836 -0.0009235110748236843 -0.0055548646840474876 0.2121125272012343 0.2448387640556651
37963000.0 0.9465056404886625 -0.3163586204343845 0.022426928245920675 -0.02039558480902976 -0.004031279193555115 -0.0038937404267503023 0.22427400817887602 0.23329819156474713
38962000.0 0.9431698032837748 -0.3279620167879899 0.019753575236893736 -0.024494372483498707 -0.00045277881078233367 -0.002005593492193155 0.2375496922586068 0.22474469924748214
39961000.0 0.941782419245564 -0.3311117432317564 0.02504980494836762 -0.027873515667183737 0.0002561991929214457 -0.0012665079083852577 0.24699577707295314 0.22640687603985887
40960000.0 0.9377694651078278 -0.3414823350649028 0.021114068187702242 -0.02449454711287923 -0.0005330771155897009 -0.001934484687057141 0.26195278703711233 0.2227884823604876
41959000.0 0.9357327840925491 -0.35176691830728907 0.02594656949139504 -0.03162166066461736 -0.002653136972569759 -0.001903757726624734 0.2673106988652003 0.20741766968413808
42958000.0 0.9310606318844992 -0.3597638281982183 0.03166674946878821 -0.037158468980583705 -0.0004857191089886621 -0.0012091530886303274 0.2769074011921181 0.19879775717554604
43957000.0 0.9282878532489727 -0.36701479584400093 0.033351101004850114 -0.043000684607739516 -0.0011634836933988363 0.0009392935525377585 0.2911902807616865 0.19818289858090735
44956000.0 0.9251601942570105 -0.37576793618180193 0.032307156030147555 -0.05111705424076882 0.002432797211178788 -0.0018088156359564987 0.29830289774656255 0.19114778742638858
45955000.0 0.9212275016410318 -0.38422056682877176 0.03627641070291509 -0.05569008835621854 0.0012377903780341456 -0.0011524465383461772 0.30532728389534064 0.18454507031371514
46954000.0 0.917378540454315 -0.39174566547558737 0.03359382733851844 -0.0648268404394338 0.0017340598685079097 0.0005532688261155978 0.327713319919645 0.17133396596193187
47953000.0 0.9165413478261485 -0.39954128447261505 0.03560725727846356 -0.07228044140419526 -0.0003797277669988049 -0.001207524401142313 0.33233604354159235 0.16651849899672053
48952000.0 0.9093214879775352 -0.4088477683127562 0.034860093818351985 -0.07904497985144723 -0.00018572835843783475 -0.0022534453998739323 0.3291840528693654 0.15178970624353552
49951000.0 0.9058009684894004 -0.4146308567300126 0.03535742660597073 -0.085201176257628 -0.002610912182231951 0.0008129149954957106 0.3496082579278301 0.1457607774048555
50950000.0 0.9031476552539783 -0.4260603553514938 0.034811691154511014 -0.09356716558030888 -0.002571232334870785 -0.0008665309322897449 0.3537516617416664 0.1417723284178179
51949000.0 0.9014329400862621 -0.43258318963343617 0.03589136564343284 -0.10153547973200998 0.0010822440082930444 -0.00083071112645119 0.35774826649072555 0.14045668947715098
52948000.0 0.8985165584684702 -0.4394373325002966 0.04126115194268587 -0.1082801577934415 0.00036661797418949537 -6.283536366124183e-05 0.3730568198421329 0.13835500146461796
53947000.0 0.8906621706818887 -0.44840455036744 0.03899554233377193 -0.12104934749888163 0.0036810454358466205 -0.001936268526892065 0.37113022338045015 0.11615752771618894
54946000.0 0.8874127245785947 -0.45582588237285876 0.042565638013033265 -0.12917730523704007 -0.002280667642380529 -0.0005919097679836351 0.3794065503647712 0.1105025928759335
55945000.0 0.8847364711771851 -0.462503524005971 0.042791361761098136 -0.14075285121371728 0.0004503522365738176 0.00013166015018205087 0.3838088434558061 0.10134685701469234
56944000.0 0.8788607664894783 -0.4716037263832069 0.043099345763612 -0.14727832769704652 -0.0034092580394097863 0.0003303920350806611 0.3999163397821507 0.09861733275371724
57943000.0 0.875187997631214 -0.48262062027566344 0.04407709722704796 -0.15995562234381558 -0.0030486159787517014 -0.0010227667642824555 0.3961022166304111 0.08678022909116366
58942000.0 0.8697885633155812 -0.48719565949874505 0.04808413637516673 -0.17049494345670305 -0.0032964570250024663 0.000804098684690435 0.41865483264602893 0.08444792671513883
59941000.0 0.8663038904449047 -0.497141874161715 0.04764352482208155 -0.1787814548945659 -0.003994114296086258 1.94067636502326e-05 0.42667810050470983 0.07562576228444062
60940000.0 0.8595087049409791 -0.5028845008505243 0.0475610882453144 -0.18456994183282233 -3.154176332627626e-05 0.0021349111000806167 0.41382740446058003 0.06646558996706134
61939000.0 0.8558866028307573 -0.5100651333857527 0.04600744318814844 -0.19332969409094738 -1.348886042119997e-05 -0.00043063150667406745 0.4192668414305565 0.05836374364795839
62938000.0 0.8508045414879041 -0.5209315688817076 0.052581806044746514 -0.2097412867360946 0.002603362525567128 -0.0010123956109015604 0.4410853938586757 0.04718960315129733
63937000.0 0.8446181658588028 -0.5295899303445184 0.05386546377010994 -0.22822535829973184 0.0015295574900417506 0.0006764018255868179 0.43953962870509905 0.03304992489229241
64936000.0 0.8411914236546855 -0.5332717299799452 0.05219773853016652 -0.2421862294006337 -0.002477513999518926 -0.004149807789125629 0.4290342394843024 0.03879466104267707
65935000.0 0.8368465860122092 -0.5466520148464743 0.05058622305326212 -0.25442058706640786 -0.0010807051531598587 -0.00045993059662271515 0.44481349661715897 0.007826070141310811
66934000.0 0.83214872886908 -0.5504339098525582 0.05085329050763976 -0.2672022983442238 0.0017568744939126658 0.0003765043207442835 0.4356684655801067 -0.0006021871183026111
67933000.0 0.8306056326160632 -0.5567542603361643 0.05539679771890221 -0.28361004996355654 0.0053806239446653106 -0.0018203959377823026 0.44599211590010923 -0.004232281368663435
68932000.0 0.8249285493753148 -0.5531299092505655 0.053933320157141376 -0.28990051446507864 0.0014903653410417892 -0.0017590704243779982 0.4470481445626913 -0.014079373322170952
69931000.0 0.8148763289023477 -0.573840168371501 0.049591590975967825 -0.31170389573395185 -0.0009741616014790792 0.00022503931749966657 0.44494448869387787 -0.017869665384489215
70930000.0 0.8094905838660635 -0.5784847286715352 0.05006373535049998 -0.3206505827410814 -0.0024883888282059806 -0.0015750697439033186 0.448405038696194 -0.0374105345130849
71929000.0 0.8053851079649094 -0.5904396637026947 0.042004226861541274 -0.33698704966418835 -0.0034779538361140215 -0.002157164647461978 0.44618758030677813 -0.04159509881154738
72928000.0 0.7998749323172714 -0.5976714351342555 0.038412385594545045 -0.3544516086698239 -0.0028780677336450455 0.001130647578404196 0.4651123021422983 -0.053325289993598736
73927000.0 0.7943674870152518 -0.6052122487136836 0.03633647087438488 -0.3783595955904977 0.0005528171206172329 -0.0008416098883036437 0.46341730341137594 -0.0683496664013714
74926000.0 0.7898529728951073 -0.6138205076353842 0.030008096695999124 -0.39247580381631575 0.004327889514636369 0.0019722965299621086 0.4554138084651585 -0.0651027686129394
75925000.0 0.7833453671056443 -0.6183221656176684 0.019181981347991033 -0.41378253035533635 0.00014720393557440234 0.0022167516468789205 0.46581207473402714 -0.07929830399813807
76924000.0 0.7773919360246839 -0.624968159500781 0.008046599648977344 -0.43299755177111465 -0.0042983745393762535 -0.0006131831390563307 0.4652611341431618 -0.0907115129452641
77923000.0 0.7701621300331527 -0.6339082831078934 -0.006128295681405603 -0.4598857546420429 0.0004474534970221227 0.0029910063105890753 0.453777324936784 -0.09376553885738792
78922000.0 0.7657269061895171 -0.6406373285185858 -0.021578133475893345 -0.4824539046834801 -0.0027709463477558127 -0.000393319314810146 0.4566456139733387 -0.11203732935460647
79921000.0 0.7567403605171391 -0.6480977141522646 -0.04072178484938013 -0.505173802774343 0.0015783767361813755 0.0027881380746264035 0.4590510232570924 -0.1254694597765385
80920000.0 0.7520465199821935 -0.6570864993953781 -0.0551589756330729 -0.5313059848640518 -0.0008739471463848789 0.0027474133708347797 0.46408764436720784 -0.13995762734376432
81919000.0 0.747093792993643 -0.6642624738989639 -0.07408456142432718 -0.561556913022683 -0.0007084465624627378 0.0029253152206787443 0.46448673418959785 -0.14780287841203174
82918000.0 0.7374505014635352 -0.6710425147344842 -0.08570799765140037 -0.5897895077937445 0.005094024275974752 -9.950544703135679e-05 0.4730459867735036 -0.15945334314928064
83917000.0 0.731142196920842 -0.6784605445939836 -0.1076685314813318 -0.6179759303343889 -0.0013399646101597581 -0.001630997675203557 0.46980766983498246 -0.1667386414848824
84916000.0 0.7262495375141079 -0.6856657814486183 -0.11939105034110542 -0.6557568660322571 0.0024883230538665173 0.0012011146109328651 0.46544011686625003 -0.16945722130535332
85915000.0 0.7195243588532396 -0.6937903059699194 -0.14705185133137538 -0.6826117768029022 0.005508604001058427 -5.9461723016512226e-05 0.4637624189563852 -0.1953469654633065
86914000.0 0.7109345686164225 -0.7035232413603558 -0.15811525364748 -0.7167047569236534 -0.0005068381841102291 0.002480596804215438 0.461052241484511 -0.18167868605620244
87913000.0 0.7057225371546749 -0.7079718116605833 -0.1808534962991428 -0.7459898597952763 0.0009016283727273732 0.0028836899860409733 0.45281511398891333 -0.20152434847483677
88912000.0 0.6958654197883504 -0.7160374638751683 -0.1931177449645595 -0.7824047676649237 -0.001387108056939581 -0.0007232486283825915 0.4524235873268983 -0.21711432186813573
89911000.0 0.69040307844906 -0.7235282590666801 -0.2121926372185723 -0.8181109614974166 0.0003262821280602044 -0.002524340849119529 0.4577692324186721 -0.2158542976473244
90910000.0 0.6829946445786046 -0.7266955563253058 -0.2241389633130347 -0.8484629218810672 -0.003364880433842571 -0.0015895185165148056 0.45247885464372833 -0.2283370982326345
91909000.0 0.6745801955258234 -0.7344141150504542 -0.24951827300967 -0.8834578016290715 -0.00039366882028642896 -0.0032824910373975575 0.4514834804416624 -0.23655793132821193
92908000.0 0.6674431508129747 -0.7419679793211085 -0.2644339736172451 -0.9170124159671962 0.0034140887020286097 -0.0016875195117036724 0.4410688025813805 -0.24362916968094606
93907000.0 0.6615284381505977 -0.746259361820025 -0.2800838567110997 -0.9431297164201943 0.0006416378744639108 -0.00012748725091723772 0.4499067300960002 -0.26619482799506977
94906000.0 0.6495513264238452 -0.756484284446163 -0.29725071806669584 -0.9810485026836511 -0.0014541032837127826 -0.00363478118818667 0.4494203758770179 -0.2677373256842608
95905000.0 0.6418201021397973 -0.7619037493819415 -0.3211199742046345 -1.0074244834784465 -0.0002711162590110105 -0.00029211392291343235 0.44514563005295693 -0.28355301349616446
96904000.0 0.6342067335121421 -0.7708610197259029 -0.3418498573479125 -1.048433879549498 -0.0007408869267988669 0.0019580401108300945 0.4479376505376492 -0.28234474258751635
97903000.0 0.6256578951283667 -0.7730193841040092 -0.35517279185379474 -1.077965265501065 0.001013093278643532 0.000882401690553287 0.4457624140416192 -0.301136128572757
98902000.0 0.6219252476624092 -0.7829231047076404 -0.3793955326691171 -1.1169905956362018 0.0060870330376951096 0.0014487536716613545 0.450716202678729 -0.3083015950329594
99901000.0 0.6117729667927098 -0.789334567272108 -0.4029409865064303 -1.1453383229584282 -0.0005830430094124659 0.0007668764243717858 0.45951214639285365 -0.32146953973655523
100900000.0 0.6038206783128347 -0.7932555960822643 -0.4357524421289598 -1.1777689328147722 -0.00036084213207126305 0.0033750406385343367 0.456030071080345 -0.3220444648436851
101899000.0 0.5942763771241665 -0.7982153341080184 -0.454854462406589 -1.213992087505027 -0.00254012486280376 5.4675675269539207e-05 0.44049485073203254 -0.33120833166387037
102898000.0 0.5819939875805649 -0.807627595804572 -0.495678585430205 -1.2441952173039048 0.0011191051206778974 0.001964791131742127 0.4434021632450833 -0.34521548695065885
103897000.0 0.5763907985444149 -0.8133374264463255 -0.5307976824506909 -1.2810801306342925 -0.0023664852718258264 0.0014412502724826962 0.4411499253098195 -0.34911553514437127
104896000.0 0.5666990890326107 -0.8213385040034402 -0.5696892685245575 -1.3073707751376251 -0.0018268834524743092 -0.002240186097331101 0.4220955912728828 -0.3422652699544543
105895000.0 0.5585065763767411 -0.8254197605593966 -0.6115579450900501 -1.3511044534151444 -0.0009160730078890306 0.0009742709874368343 0.42262607698025617 -0.36678607421394643
106894000.0 0.5508457165530629 -0.8322421671912223 -0.6627819007105911 -1.3861591559003807 -0.001826304232239247 0.00060290994518337 0.41782371884447267 -0.38019721629698333
107893000.0 0.543139504202358 -0.8373672538903206 -0.7154422221692395 -1.4232941325718802 -0.0004980695883144183 -0.001399078762762235 0.42935918067713214 -0.3844523944759114
108892000.0 0.5297450041825237 -0.8422159195815868 -0.771829907478538 -1.458827325892503 0.0012284009943804215 0.0033469525736115817 0.4084819885437233 -0.39135083050935965
109891000.0 0.5192660750385205 -0.8486398953967988 -0.8305150684777134 -1.489251098759527 -0.0012554879879417425 -0.00261338131757193 0.42938911650201517 -0.3851843157835205
110890000.0 0.5011384705982637 -0.8643758231437487 -0.905066543997071 -1.4957803053380525 0.002107755806461312 0.0014652411427231436 0.4139359854521059 -0.40568923684612834
111889000.0 0.5002342176625414 -0.8568115036415801 -0.9515551513529447 -1.5558796479270738 -0.0024367875548682747 0.0011252306962303757 0.4071265894852785 -0.41365073960297166
