! Created with skrf 1.9.0 (http://scikit-rf.org).
# Hz S RI R 50.0 
!freq ReS11 ImS11 ReS21 ImS21 ReS12 ImS12 ReS22 ImS22
1000000.0 0.9741338765086737 0.007201754739400947 -0.0032769959870337624 -0.04298417950712756 -0.01721260033166693 0.022702810742996106 0.37321042717184166 0.34903038506011397
1999000.0 0.9953195645404995 -0.00524500195333309 -0.0031752062253617036 -0.01809251336952454 -0.005725601102808088 -0.0005173535608486829 0.21850516690159366 -0.052158633303286336
2998000.0 0.997675335289822 -0.022778878342695714 0.005950730921875566 -0.013681957929077037 0.0018059512679122 -0.004601059151252712 0.19207275997187823 -0.13116683727903652
3997000.0 0.9978741728334697 -0.030318544060010676 0.011685438837041207 -0.009357670613853059 -0.005412378594022525 -0.0008563035872088584 0.08584499029602487 -0.22869098716076547
4996000.0 0.9951635257345852 -0.03707936209806595 0.011112457900973682 -0.002426265939151673 -0.0005373625815918395 -0.001976905584873732 -0.034873090005872145 -0.19546503567096687
5995000.0 0.9936840525477164 -0.04900663045453201 0.007999302269903655 0.0009159775959024456 -0.0010473557376553325 -0.0016478765217395551 -0.12657183428386581 -0.10154995538658602
6994000.0 0.9938663028785258 -0.060769756673696745 0.008257035153961798 0.005731672014887023 -0.0035018848130928806 -0.001538466453429987 -0.1517054330063342 -0.028027506402115807
7993000.0 0.9937454942186342 -0.06861027707401057 0.006162480460623304 0.008268701998967915 -0.001447448826028989 0.00019653126574746804 -0.17644741792730662 0.029084002273181007
8992000.0 0.9927826549139713 -0.0742397554008406 0.002957127615813097 0.009074639708913822 0.0010232407692085776 0.0028264123831333314 -0.16258335264815563 0.06560233009257724
9991000.0 0.9921457492415682 -0.08503824152684107 0.002877529192838836 0.0072256127572449015 -0.001567331620327591 0.002356318611398146 -0.13625436306538527 0.08949285689978931
10990000.0 0.9917801388746866 -0.09298611454785807 0.004821564927008595 0.00048063663096106264 0.006023531833490467 -0.0010480640273508902 -0.12554619324241761 0.11735832559873006
11989000.0 0.991011174316321 -0.09971585760141932 0.0004358220818914984 -0.0024306376973882307 -0.0008717468853696653 -0.0008198940580015734 -0.12668821936009866 0.14766428195189085
12988000.0 0.9889648523975814 -0.11212144328017708 -0.0010874769053336156 0.0030547695991622716 0.0011867386718408329 0.0036396560874974787 -0.11929007448105018 0.16883503261854604
13987000.0 0.9883341861647441 -0.11864480217469707 0.0023510419622796755 -0.005767966955574568 0.000569452258986993 -0.0012823269045912633 -0.10431472530609745 0.18790069557698139
14986000.0 0.9876233837194657 -0.12639650072495287 -0.0014316575520518684 -0.004713842846113227 -0.0005995158918116952 8.724730700524623e-05 -0.09403314335617736 0.20812004934519546
15985000.0 0.9877629500948915 -0.13363878163855433 -0.002271568679381417 -0.006471898272489561 0.0014587628394536068 -0.0006420773172860494 -0.08108253807628019 0.22461893821115925
16984000.0 0.9837675106657814 -0.14694039995335448 -0.004660814120745656 -0.003761942921039326 -0.003617099580363454 -0.004796717406178368 -0.054488672139070896 0.22250060410722672
17983000.0 0.9843147476312079 -0.15286577162239912 -0.0010915057216557623 -0.005312493846254576 -0.001662869155301048 0.001275070674962129 -0.056622704527204366 0.23277938480248828
18982000.0 0.9805962894580621 -0.1639985012586405 -0.005297865582539025 -0.004655070717674268 -0.0013042909296249597 0.002378181874583619 -0.02013097217859759 0.24845930652168083
19981000.0 0.9809968634091077 -0.17025476745598742 -0.003783971846369189 -0.0011590074165359564 0.002784200424537721 -0.004136723891922686 -0.01393600714177285 0.23738267500381016
20980000.0 0.9783069166676487 -0.17918165384948972 -0.008442207072350223 -0.004208179502986994 -0.0012441929732802408 -0.0030513087191957606 -0.01501162507901936 0.2621743676873217
21979000.0 0.9767103243871137 -0.18613164102220559 -0.005115765488319613 -0.006619956786129197 -0.0017870522167719428 -0.0003980233187282946 0.007545926160742435 0.26105961044791404
22978000.0 0.9747719418426837 -0.1975363992287084 -0.00557038876731417 -0.004878824812009562 -0.001682026108064138 0.0007507016408344989 0.028307204304929952 0.2562036115527628
23977000.0 0.9767700939482977 -0.20082443178117976 -0.0007725324655796877 -0.003916286692718801 -0.0020026287447891962 -0.0020764127381241067 0.05268638864254849 0.2587144560060306
24976000.0 0.9730676167971594 -0.21523362133666865 -0.005216007157290572 -0.0016641822345204644 -0.0011336617992844587 0.006282959423477771 0.0736214093950161 0.258828787061991
25975000.0 0.9656395376444548 -0.22061847023040423 -0.009211146113187473 -0.0003977619819280408 -0.020235631426771854 -0.010962261680868746 0.08088509824675248 0.27358135996857164
26974000.0 0.9670397892951189 -0.23148588881409585 -0.0011985914539993537 -0.00277032545541128 -0.0009275588168558901 0.0039420621142485695 0.08257482550872819 0.27558515885078627
27973000.0 0.9679345997511698 -0.23626017701792804 -0.0018805043005956147 0.0003648176000214332 -0.005029960298604156 0.001307808039035545 0.09900676334714276 0.25826935675089846
28972000.0 0.9658579462468381 -0.24657800614174824 -0.0013014188057120827 0.0020987295817086436 0.0012170209341525074 0.0015545508712919492 0.10907597377174644 0.2608577390048938
29971000.0 0.9625657422709712 -0.2576129556744655 0.003707830850801111 0.0007655757610560226 -0.0006393709051293947 0.0012556668886922276 0.15648792060289596 0.26852539348520044
30970000.0 0.9611700320927449 -0.26200958513923095 0.0014868780166557955 -0.004712408086550413 0.0027119459666552423 -0.0026999703416042114 0.1692833693988816 0.25722443224733105
31969000.0 0.9598012268682199 -0.27013876905076 0.0053348156206667035 -0.006859380698488059 0.001256811509086904 -6.832093057004722e-06 0.15314379971008507 0.2509895370057432
32968000.0 0.9576898951738341 -0.2785038956763996 0.003093672524228671 -0.0071073730536980115 0.0006702674415063829 0.0005221367843415052 0.17343347302893805 0.24672569816320436
33967000.0 0.9565208258545816 -0.287990125473894 0.010194103275592736 -0.011988176529541492 0.0020071303722608773 0.0017921197099379027 0.188598487299024 0.2506346979420844
34966000.0 0.9509525684860134 -0.29962124899922254 0.014648915277793717 -0.01284668928378132 -0.0011277483785921063 -0.002459348638294879 0.19860402983474865 0.25929878804459977
35965000.0 0.9483732150111049 -0.3070294895323584 0.01658700078755515 -0.018290990025792615 0.002685378277360662 -0.001866713490597709 0.2244805719655196 0.24964001789583573
36964000.0 0.9462443687528861 -0.31414298129427015 0.01651263085491617 -0.016461418758395966 -0.004695992444216287 -0.000828356073188662 0.21879650786879604 0.24865421586295267
37963000.0 0.9407455419063712 -0.3267448248592284 0.022738132725381065 -0.019260538315762483 0.0009675285129980468 -0.001319822333805497 0.2398942811828863 0.23811093596419777
38962000.0 0.9396580383585325 -0.33209046734917697 0.024918207860462192 -0.025889318859189797 -0.002317374487420815 0.001736602284534693 0.25393690845376643 0.2337417606033279
39961000.0 0.9368559012184492 -0.3404151893235195 0.026872826401264076 -0.02681016806917712 0.0010671168402490636 0.002820929726465524 0.2589081044772614 0.23090577923904695
40960000.0 0.9328339684714042 -0.3492394932934865 0.023492381970285612 -0.024359242462814797 -0.002637518071819957 -0.0025847260863238746 0.2758773597303473 0.22668411220950735
41959000.0 0.9296979520641798 -0.3591821651803859 0.028119485270785637 -0.029763194605184267 -0.0015900463031647725 0.0007048432388248048 0.273077432495604 0.21515813265040395
42958000.0 0.9260079577744258 -0.36872558591374865 0.03207931051057162 -0.04132585616555729 -0.0012277005666268613 0.004250849556253912 0.29022029701482943 0.20628199497441405
43957000.0 0.9245964841571502 -0.37154095490031325 0.03093653869911192 -0.045454170917731525 -0.0008102866344088014 -0.00033380678705421376 0.29485500076128246 0.21363095121977085
44956000.0 0.9202444144016948 -0.383134801620111 0.03463721428972033 -0.05322160014146506 0.00020550536703654488 0.0006110863873292998 0.31014028921216674 0.1949731307652251
45955000.0 0.9158779158995318 -0.39176048206082514 0.03291515477568649 -0.05995537444910675 -0.0003464889952404587 7.619706626411148e-05 0.3139848424476386 0.19618499756640811
46954000.0 0.9129915943041573 -0.40091874333205374 0.03250984702465441 -0.0653180501256243 -0.002051268483404498 0.0023182241377812047 0.34016054292716447 0.18037623971160044
47953000.0 0.9090197892901253 -0.4104231953958453 0.035619908425772645 -0.07188433445987777 0.0018152962095214025 0.0030863582640058536 0.3409799479450082 0.17390534035911467
48952000.0 0.904265205182011 -0.4187963503698848 0.035656327097171654 -0.08219566537548985 -0.0009400922265695247 0.0037413696925948864 0.3362529011804054 0.16881220749922243
49951000.0 0.9003129699533315 -0.426585847002466 0.03864126650957464 -0.08926133041365687 -0.000779527033239899 -0.0009084650014899867 0.3570728248061894 0.1536240801011624
50950000.0 0.8975026454554462 -0.4348717616958768 0.03843562068284447 -0.09620299714922867 0.0026695519837121387 -0.0015311300805152333 0.3493407330151975 0.15000514479978505
51949000.0 0.8915034957479627 -0.44228141432029694 0.03835297353263633 -0.10192171537000787 0.0006411660305657274 -0.0013533355328777816 0.36554627921733035 0.15257355128712702
52948000.0 0.8895481170469312 -0.45002287648102884 0.03947036381833916 -0.1118244265840784 -0.0007476980488121665 -0.0018794833348629294 0.37824915794782427 0.14134370211920277
53947000.0 0.8848061866272244 -0.45819577240977377 0.04097665685444065 -0.12103779203737741 -0.0012745935023622573 0.0006280927210348122 0.383280761754141 0.12885885454312185
54946000.0 0.8772513626880462 -0.4681910706185736 0.03973961691999298 -0.1325070822773719 -0.001029464907775885 0.0007187011338289294 0.38778244082733654 0.12220703343913246
55945000.0 0.8770348470877768 -0.47686871388121066 0.043533752950073695 -0.1396531668431545 0.0028962355887991328 -0.001152014617604022 0.39599125748491426 0.10918727246307755
56944000.0 0.8722709573854656 -0.48370302182211283 0.04543322611747658 -0.15290220456591935 0.00023915968688731124 0.0007606365042068144 0.40464295632759434 0.10036825043062464
57943000.0 0.8674055972421753 -0.495368292205855 0.0464377189214894 -0.1634584836955817 0.002943985434636378 0.0022579175188542334 0.4057571578808344 0.09797357514533017
58942000.0 0.862363478804937 -0.4976726057243323 0.04799478848558153 -0.17222796597670859 0.0006655849754527605 -0.0016320381593601136 0.42215470429770396 0.0886648916853121
59941000.0 0.8576045525691508 -0.5083844368798741 0.04958062641780034 -0.18187256322719084 0.002655390038236864 -0.0009137670421570409 0.42100630665317523 0.0841253668913996
60940000.0 0.8512172780583193 -0.5148253298158378 0.049181343417290475 -0.18522636679487764 0.000696882529635572 -0.0010303703137439113 0.4161879547845516 0.07170832885580326
61939000.0 0.8467066500610907 -0.5225209587608192 0.04974582511310111 -0.19401323559135536 -0.0012942898933390266 -0.0008475119112699543 0.4261713241604549 0.0666706515262487
62938000.0 0.8397532783646355 -0.5339665525450512 0.056157448727833376 -0.21048752960814748 -0.0038946348931989676 0.00018018526079029097 0.45169458299659115 0.05611092249130856
63937000.0 0.836140358435079 -0.5412975998432449 0.05514032507226059 -0.2321453061464208 -0.0031605654518456197 0.00023853925606468753 0.43126217500005243 0.029676253376843428
64936000.0 0.8307518198223928 -0.5450872444368724 0.054983627490971014 -0.24616533945495686 -0.002869255462075102 -0.0016043217768740145 0.4411028677172253 0.040413955335380065
65935000.0 0.8264869991487278 -0.5554354267843661 0.052111362796165836 -0.2593839303133029 -0.0024173138576179276 -0.0006485922438730925 0.447709641213441 0.021229588716526707
66934000.0 0.8218445389903517 -0.5620603759959746 0.05664142116239255 -0.2709161156549098 0.0008588074956462782 -0.0018776593982324824 0.4486265391667819 0.005216992950530009
67933000.0 0.8183959933739743 -0.5703584584438331 0.05558840546132572 -0.28657455671477056 -0.0005852254019348319 0.0016586178198229435 0.4474836088146608 0.010944130029270794
68932000.0 0.8034704609286801 -0.5746763861235769 0.04793216310069527 -0.29719239512695866 -0.0036832938996711876 0.0011678871784316393 0.46442343104506945 -0.013961849862237828
69931000.0 0.8040397028076496 -0.5882598295370731 0.04976707259725294 -0.31277089490887694 0.00019033617230343025 0.000323721562156244 0.4503129862162687 -0.022689361667455554
70930000.0 0.7975835060207199 -0.5923943244197197 0.04795150156251951 -0.3295806131821314 0.0034380463325600855 0.004094553222473747 0.4539517290084768 -0.03161540191448528
71929000.0 0.7929082211661915 -0.6029357132556222 0.041506754199741286 -0.3462322271818328 0.004402394230541479 0.0025002681970930844 0.4588507895312361 -0.03919943376850262
72928000.0 0.7873649313569271 -0.6128103494706185 0.03865234183478903 -0.3623568958687149 -0.003195964312064888 0.0033480272214257176 0.46406119196061835 -0.04808292540289276
73927000.0 0.7804725678900993 -0.618402977143573 0.030952347914685832 -0.3811658112226766 0.0019175065193346359 -0.00044487704353581806 0.461947944015954 -0.05484480448386163
74926000.0 0.7762640746847235 -0.6271220468344818 0.02539912627504125 -0.40135758873790023 -0.002733315646268707 -0.00012609804171231242 0.46979169655280273 -0.05231587143304907
75925000.0 0.7677604427004433 -0.6313398206183571 0.012320819773512471 -0.41850322577818755 -0.0022747824824568613 -0.00023620826429803486 0.47718318661191 -0.07251362465015167
76924000.0 0.7639878698176448 -0.6395426796926826 0.003027301062704242 -0.44428622720169453 -0.003319483256991227 -0.0002689026064449265 0.47556265066234166 -0.08521426594184535
77923000.0 0.7558916558598973 -0.6467716008618366 -0.013515760576221442 -0.4668863324511505 4.887568109142495e-05 -0.0011089048431755085 0.46107094189635484 -0.09937308822718638
78922000.0 0.7517804507541531 -0.6559402739532635 -0.026354197343173732 -0.4925596270304714 0.0019575244602439623 -0.0015855223923195109 0.4679620682164221 -0.10993348446496508
79921000.0 0.7419805745094927 -0.6607301203869573 -0.0381797248706004 -0.518978679941484 0.004383464216150957 0.004172723650018543 0.46569032180066455 -0.1082324415376159
80920000.0 0.7386058933695273 -0.6699585952286922 -0.05599143842668383 -0.5475046192708432 -0.0008757406849942474 0.0037379895009893764 0.47900568689685985 -0.13020081867817665
81919000.0 0.731740161693855 -0.6762931218319842 -0.07676058928723266 -0.5757475538187521 -0.0018987496180593515 -5.7594929077710325e-05 0.474450562543924 -0.13167814598768493
82918000.0 0.7232945435232458 -0.6843386160158574 -0.09033646418739372 -0.606176649301274 0.003216918662541494 -0.0009650713154437055 0.4734318914956094 -0.13941210184158884
83917000.0 0.7137008626031799 -0.6930668582607864 -0.11090259607962145 -0.6345500322092815 0.00016498783815047926 -0.0016497714079137195 0.47599660466987354 -0.14405694830778606
84916000.0 0.7093424195798986 -0.7009515698745062 -0.12934752250911313 -0.6673985280008898 0.00048043466764322094 0.0002487407020062215 0.4652107928385443 -0.15476159077281748
85915000.0 0.702779672255769 -0.7043998565907535 -0.14143935427772533 -0.6966720518626394 0.00022631364536371016 -0.0027333065784070376 0.4664452993486468 -0.16401723737934146
86914000.0 0.694216036175861 -0.7144616329105963 -0.1603063904360285 -0.7313080684871265 -0.0002203207280662772 -0.001194291037438256 0.4600009346383178 -0.17420645790806405
87913000.0 0.6879281611988797 -0.7217066081182355 -0.18048951054791681 -0.7653701456564487 -0.0027774553006824332 -0.0017814309063253213 0.4653503293731681 -0.18540769018917183
88912000.0 0.6788037106928619 -0.7277447436839385 -0.1924981458785911 -0.798690533030976 -0.0016989801262649446 0.004370169743323108 0.46466929122215955 -0.20785821907515672
89911000.0 0.6736757129964281 -0.7365653890760508 -0.21121546987930137 -0.8310974452082416 -0.0007470267673979757 -0.0038045669861484807 0.4750873326116161 -0.20397554736286316
90910000.0 0.6663813419846528 -0.7417312496738513 -0.22515048467751925 -0.8670419555577908 0.004434333414352655 0.0002851109185641986 0.4654699932962956 -0.21294784775326206
91909000.0 0.6566841357708754 -0.7461810248973492 -0.24240955394480487 -0.9019702725867859 0.003606837444384738 0.001500563837557128 0.4777506583396312 -0.23521845617223353
92908000.0 0.6490047237701867 -0.7551343154419509 -0.26100593596229893 -0.9307697085989876 0.002702016394693067 0.0018868572587532634 0.459855345579728 -0.24323704918196346
93907000.0 0.642977829948325 -0.7617763247410246 -0.2782618049169195 -0.9646511129882028 0.0028422545768147147 -0.0001869406069633003 0.4609722771435437 -0.2491588728403945
94906000.0 0.6279514272778487 -0.7701287817090805 -0.29664986372429747 -0.9952416479636268 -0.00021943568291321911 0.0016755152777422739 0.46620633109947296 -0.2400126358439668
95905000.0 0.6219870941951473 -0.7741835362055156 -0.3132073497734398 -1.0333625980070589 0.0050480889194795394 -0.0033333653148024276 0.46527038337574783 -0.26790603294697307
96904000.0 0.6145764286699097 -0.783660274831728 -0.33803471248276556 -1.0706524384601634 0.002154092419968343 -0.002011608728340312 0.45026383139135756 -0.2762903475707668
97903000.0 0.606900521415974 -0.7892546521541821 -0.3602483773581227 -1.097878042970092 0.001983011930814938 0.0006595047518514267 0.45004553696874683 -0.2793583375944099
98902000.0 0.6008649468157624 -0.7954515932689376 -0.37897129146038 -1.1366621031202948 0.001389808966915701 0.001688043041003609 0.44485472056859704 -0.2883968154831731
99901000.0 0.5912525410577916 -0.8032725495034077 -0.407819449104253 -1.169033685905288 -0.0010074465894887004 0.0014830854075394936 0.4699937855225611 -0.3112328334674425
100900000.0 0.5803319547865213 -0.8060124045712044 -0.4379462202260412 -1.1947638309803006 0.003333299664091536 0.001673348473739781 0.4607741230413517 -0.3008042214621885
101899000.0 0.5705177687316413 -0.8135093371132686 -0.46666503025629946 -1.2357505067738745 0.003070208899613351 -0.0010970905659675402 0.4517822290750202 -0.32431345819439245
102898000.0 0.5616654162554097 -0.8176968877204055 -0.4981139615274741 -1.2723049986883672 0.00022543660500872137 -0.0026907623175929443 0.4516492633818939 -0.33710136970441495
103897000.0 0.5549346029968963 -0.8241711295493656 -0.5389703294536815 -1.3080528740114408 0.0025196702641213536 0.002245316083450753 0.4666410351335435 -0.3271105868502195
104896000.0 0.5463292058140369 -0.8373020977374915 -0.5846403175495506 -1.3355017227018315 -0.0013082977845593608 0.0007543683127611261 0.4453802638214745 -0.33928993614063147
105895000.0 0.5350325022381057 -0.8369778959983539 -0.6263279394133259 -1.3737611992796483 -0.0008394132263803911 0.0007724774021508087 0.4428677766115526 -0.3507221190873766
106894000.0 0.5248104860817068 -0.8441794497644932 -0.6826913443455437 -1.4118375747867296 0.0012086680071875537 -0.0016450284718588515 0.429393069172879 -0.3694606367291313
107893000.0 0.5178299713752105 -0.8498996830235604 -0.7333449101130478 -1.4506262473677656 -0.0016969781011068866 -0.000727689635366387 0.43041993610470886 -0.36510832565228957
108892000.0 0.5077412667439575 -0.8529067347431613 -0.7948747986134834 -1.4893947010867117 0.002225292167382823 0.0004907399697891526 0.43352946225180666 -0.36258578804975145
109891000.0 0.4951396805300717 -0.8610522416959255 -0.8510105274745488 -1.5251449879036059 -0.0019608414582061385 0.0005653046352445946 0.4507569476728131 -0.3689200295967797
110890000.0 0.4869041695419048 -0.8753308005364074 -0.9274559497735326 -1.5468832310583998 0.0007478412035751348 -0.001310567889603699 0.42874833811776947 -0.39012263902810207
111889000.0 0.47665403723598415 -0.8685699095908384 -0.9747994488974608 -1.5961613230902467 -0.0008886415184407494 0.0005050535405611164 0.41520884176872513 -0.401904367203286
