! Created with skrf 1.9.0 (http://scikit-rf.org).
# Hz S RI R 50.0 
!freq ReS11 ImS11 ReS21 ImS21 ReS12 ImS12 ReS22 ImS22
1000000.0 0.9675308440235124 0.005287722652742594 -0.01713105619453547 -0.02530709351623904 -0.0022705677952916665 0.0006395236764845712 0.39394176968803735 0.26891084622241884
1999000.0 0.995038842251787 -0.012556927270378897 0.015519352168778432 -0.02337198340473979 -0.005563996562643428 -0.0007752523632573485 0.2755019643834214 -0.0705314938174146
2998000.0 0.9962200126206964 -0.01986168542142189 0.009330122973321298 -0.016276364327364453 -0.0012637944062399427 -0.00104061471821065 0.1850243880908383 -0.13546172727235856
3997000.0 0.9987407774646948 -0.02846302308007666 0.008331979146998398 -0.011558401370586845 -0.003838926691601707 -0.0006539938606317133 0.08933392043762804 -0.23352401327872802
4996000.0 0.9972634784816561 -0.03720146872849668 0.013503132696965065 0.0007356614712175593 -0.0005300987441362707 -0.0026774373374256863 -0.041411845206756864 -0.2108108808157957
5995000.0 0.9977409663762583 -0.04538532691884315 0.011930065405123291 0.004347709331300848 -0.0022143709264887406 -0.0015151660241773499 -0.11450482596980907 -0.10501292559310846
6994000.0 0.9955414891515292 -0.059509545336572246 0.003811649316061051 0.007048976169109335 0.0017450083307613642 -0.002429594013343266 -0.14154723826229085 -0.019215242127234976
7993000.0 0.997938167640287 -0.06663212193646881 0.005420609961659033 0.0015051943662075214 0.003421358612744446 -0.0033422528008963353 -0.15853349877459336 0.04478986033887596
8992000.0 0.9974580538682543 -0.07263407064948733 0.003138913113670013 0.0033861263363658516 0.0010030642187368116 0.0002124905188729839 -0.16916134900166355 0.0658560205063849
9991000.0 0.9956214911073342 -0.08223615670110299 0.006401471611042745 0.00041883357562378363 0.0009209246030509502 0.0011869875342207473 -0.13225849111120308 0.10118879155809607
10990000.0 0.9930703808622436 -0.09231169058747782 -0.0008135612127433527 0.00289550578664049 -0.0007462403648745812 0.004348918903838154 -0.14242982662327275 0.12664988250316092
11989000.0 0.9920612554719825 -0.0961313182337257 -0.0016416638823653939 -0.00148601151309032 0.00014205370585903323 0.0022153622733439592 -0.1255507715444726 0.13956519084136862
12988000.0 0.9940725051901615 -0.10618175023023686 0.0011915331122371912 -0.0026658242159119105 -0.00022838202206450388 0.002145646966082428 -0.12299902583058861 0.173276020772426
13987000.0 0.9904214541660542 -0.11792866315530988 0.002520585877238799 -0.0026959433465049516 -0.0008860208567079882 -0.0005871132100306061 -0.10099990890967837 0.18151500301538898
14986000.0 0.9890836870909226 -0.1220389526447432 -0.003559950723456762 -0.00260040110726397 -0.00047649364530202257 0.0010894704844078109 -0.09571011766945134 0.19917027624821373
15985000.0 0.9910144200971275 -0.13147066503427302 0.0032057397294094864 0.0004119421398322724 -0.0021194820685316476 -0.003654396598779723 -0.06371517509935506 0.21977302659823503
16984000.0 0.9871348723987969 -0.14238768728443832 -0.0032128344804122824 -0.0069051792270348735 -0.0018037077749911647 -0.00013433067431313804 -0.06229868940038049 0.22057784432493424
17983000.0 0.98844218854298 -0.14547927041459796 -0.0015165750343370315 -0.004806677317911577 0.004296932055161457 -0.002201559962714153 -0.049279479998582454 0.23249393019534795
18982000.0 0.9836647606499519 -0.15969773513883326 -0.003538862966373037 -0.0054483548760459275 0.0015133534012681468 -0.002831649666161076 -0.016490164278029833 0.23418002207347577
19981000.0 0.9833781592584738 -0.1632528205037066 -0.007235246623577127 -0.0056483595944765925 -0.0030525427317554155 -0.00010531696978737613 -0.013509842513784343 0.24264091280527125
20980000.0 0.9843739557531892 -0.17331873513506368 -0.0063012989582342535 -0.005011408538111408 0.003199573533333104 0.0024196177361712153 -0.005426828644079197 0.258300726789697
21979000.0 0.980466548308411 -0.18449345460527966 -0.010455483697130293 -0.0020914844635910286 0.00303309125347324 -0.0007995296774936672 0.024581098858998195 0.24601335849681852
22978000.0 0.9799072959391111 -0.19091484176537785 -0.005510534830251824 -0.0026165415250443674 0.004219983764075762 0.004205248677823579 0.024639359599537267 0.2639997919604572
23977000.0 0.9813368407769538 -0.19580758198524278 -0.008742814977475784 -0.0004439211247520093 -0.003376295524464124 0.0013154062340142393 0.0488928195990862 0.2630090185562107
24976000.0 0.9748638098837434 -0.20897332895599968 -0.005620472451095039 -0.00244839138272085 -0.001389327317560578 0.0031617006535533893 0.0645132198089411 0.25522872133827973
25975000.0 0.9694943651671233 -0.21484151932342316 -0.007361732106203247 -0.0016538549716031054 -0.023788768247042454 -0.01470450531532784 0.07178460120562255 0.2617251123514703
26974000.0 0.973291943772749 -0.2256727896403641 -0.005921572254610459 0.0011044640144104272 0.00018373738828171552 0.002730611579421616 0.08691246269341878 0.2589248343999762
27973000.0 0.9693995902971233 -0.23230835820686557 -0.003763787232444736 -0.0022141077754675802 -0.0022076179568328493 3.7899007790804557e-06 0.10532460508163617 0.25290971850918936
28972000.0 0.9671967979368596 -0.24239433809741834 -0.003011220219050443 -0.0011918199625706063 0.0005548123695703211 0.0033143463841054342 0.11784177013425963 0.2613258827969865
29971000.0 0.9671374375635077 -0.2511084821368892 -0.0033359479769429724 -0.00038501763314696306 0.000355097197478018 0.0017578420618381098 0.1503520860840709 0.2698497099130702
30970000.0 0.9637179028078275 -0.25555952027596746 -0.0010254272170418025 0.002151474330242846 0.0025298014284649275 0.0027822504519789035 0.17488587737655129 0.25323426859774306
31969000.0 0.9634207469366887 -0.26474846321924683 0.004066600276572366 -0.00337196527821411 0.0017608990871104762 -0.0026435690071404403 0.16031134833083516 0.2461624223177649
32968000.0 0.9609234959956777 -0.27345518141817093 0.00482360290315899 -0.007412647472491604 0.001631550142895764 -0.0012700969163874116 0.17469413550357116 0.24168064744753545
33967000.0 0.9581856624567688 -0.28423862138576994 0.010096650779840406 -0.007469946578520367 0.0011653356817794796 -0.005626775960278813 0.19222815714266084 0.24624965531252319
34966000.0 0.9538066160683413 -0.2925592983742948 0.01651124293873322 -0.009334608744464463 0.001100132242898663 0.0021175181077466034 0.19212285584504676 0.2552238908721975
35965000.0 0.9523886847037898 -0.29837113784376923 0.016367856223022823 -0.012157624407854234 0.0017767732759403512 -0.0012019793014874226 0.21226378646763586 0.2543792399851487
36964000.0 0.9513438248741835 -0.30800407534115326 0.016366407186194667 -0.014002046352432764 0.003974411578650282 -0.002029049632830743 0.21369363639236166 0.2526797470760352
37963000.0 0.9457167467596662 -0.3173636720173146 0.021912903180551804 -0.02158587217440525 0.0008366474093516182 -4.8770290562860104e-05 0.2321336969046402 0.2370317216816868
38962000.0 0.9440780087512162 -0.3275616371819792 0.025615062495502577 -0.022279459447470833 -0.004755719299885182 0.002132222548234493 0.2449912793843198 0.23279358830439073
39961000.0 0.9414826628792372 -0.33538142941704524 0.02610877066248243 -0.02673394788230681 -0.001882391933168743 -0.0022718895800723335 0.2558478027268514 0.21753248581727308
40960000.0 0.9381723099392425 -0.3406687761906949 0.020717774822948704 -0.023602946967605398 0.0010003625642591464 -0.002191557106842043 0.2707387669231053 0.23014322684571115
41959000.0 0.9348959068011693 -0.35150567818944173 0.029839520434687947 -0.028900143219676967 0.0012723691274131844 -0.00017315948327138275 0.2747129369346039 0.2141695121411176
42958000.0 0.9299361912782864 -0.36029134912017285 0.03184227689245172 -0.042629797936472036 0.004431052828115019 0.0006616039969119733 0.2831482613222008 0.20657130481074734
43957000.0 0.9296478202359169 -0.36720197969592766 0.03177070638247499 -0.04622499944465725 -0.00040950495550696493 -0.000988172343996855 0.2897170970352741 0.21216759974711874
44956000.0 0.9260038664335637 -0.37394227184833045 0.03399964151949098 -0.052515576703356354 0.0005927805669306016 0.002126376160517803 0.3019647948946287 0.199532678557285
45955000.0 0.9233820732343387 -0.3818183415584619 0.03513751550358241 -0.054372043377874865 -0.0007086246605774563 -0.0004792600110310528 0.30425633609074487 0.1896560732289786
46954000.0 0.9191186405382051 -0.3928379098154882 0.037948190444302 -0.06276370514503574 0.002063987891662847 0.0007270143215192923 0.3278960522654311 0.18198408567439534
47953000.0 0.9144243781420182 -0.40102903961257363 0.03714541537482575 -0.06820662201195467 -0.0008236343323248175 -0.0015440162735916522 0.34145184582706983 0.17280881605487303
48952000.0 0.9102599103037273 -0.4091739040785107 0.03788101306008409 -0.07950413080149822 0.00430702516733328 -0.0005282541176306496 0.3375114632482697 0.1749046333120192
49951000.0 0.9070467629882432 -0.41556267058838403 0.039732085419952004 -0.08536839154178576 -0.0016885174872417685 0.001792786265838386 0.3564010038028222 0.14752978064899547
50950000.0 0.9040541694104345 -0.422505643536994 0.038860042330785036 -0.09365009906908586 -7.745419499449972e-05 -0.0028510312914631006 0.35045222541994236 0.1426391299861644
51949000.0 0.900420608626183 -0.43239482027569887 0.04020429240032477 -0.10169656054925942 -0.004281467805902058 0.0022637627582245035 0.3641556686494539 0.14296015798630435
52948000.0 0.8985937667734952 -0.4387531520579898 0.043575108402293575 -0.1114654622550338 0.00037243085172507365 0.001077657470611296 0.37128830934199364 0.14125237175695157
53947000.0 0.8908968047404429 -0.4469772550726371 0.045855075795055864 -0.11917881053492556 -0.002948859640670273 -0.001236570783022949 0.37385893760273203 0.12837877145212334
54946000.0 0.8866484203639589 -0.45720417989788376 0.04373509656210083 -0.12794605883521273 0.0003980727089540583 0.00042562028980181106 0.3844028274826044 0.1232917210699042
55945000.0 0.8850433474274169 -0.4645912682352874 0.04473434527534192 -0.13944616995825482 -0.0009562567543920568 0.0005551879909008924 0.39088135660922574 0.09907749726033288
56944000.0 0.8799945796589268 -0.4727470573487566 0.048199463745286227 -0.15038711300050558 -0.0008917468834186597 0.0009492475280911231 0.4040396424460152 0.1009174667481114
57943000.0 0.8766209122297254 -0.4832316176188433 0.04842754678891172 -0.16345317987010152 -0.006220585552677249 0.0020416518213503196 0.39468157238413704 0.08707282269247499
58942000.0 0.8711135112283317 -0.48738034850355527 0.05134100711046606 -0.17116163530722378 0.0007358446234467102 0.0025799429772352662 0.42130283542464286 0.08225463389965498
59941000.0 0.8671946566004636 -0.49558734990776754 0.052258747424530815 -0.18303464916356438 -0.002253749496256656 0.0010052769382726673 0.4268257755803997 0.07821946433209759
60940000.0 0.8603818615047046 -0.5036351749577258 0.05063465725225932 -0.18498728198131953 0.0012106990358053014 0.0002124365784325145 0.41979923703539784 0.07241644855623523
61939000.0 0.8574867117022346 -0.510100736748232 0.0532738799737658 -0.19695785084619197 2.265123118735237e-05 -0.0012373555659554402 0.4243843711887486 0.06893460066969595
62938000.0 0.8504564596963975 -0.5209953267551158 0.05792941770941883 -0.211597400389366 0.0006499586445882179 -0.0008032505682600208 0.45089541554018575 0.05651785629421231
63937000.0 0.8469142987754337 -0.5280796033503996 0.058086014637945105 -0.2345459867860468 -0.000260620235413929 0.0008792216732529905 0.4333918929166248 0.039145912605338826
64936000.0 0.8404689509841037 -0.5342592142786875 0.055675196871245274 -0.24860825748964596 0.0006931559239269986 0.0009275353480654574 0.4413542633526299 0.04290740954505858
65935000.0 0.8393335900691825 -0.5432889925717045 0.05271949787967019 -0.2631979890171569 0.002831234077189298 0.0022924316184266143 0.4250885208605525 0.01437094735988314
66934000.0 0.8331588827416994 -0.5516002019058762 0.055881494617449255 -0.27247817690993165 -0.0013821039367864123 -0.000998484231682955 0.44761055937211236 0.014567580964068945
67933000.0 0.8288502604171752 -0.5566086119809689 0.0575103141274304 -0.28710023285287367 0.0011476484562094017 -7.756154366808928e-05 0.4508979769559305 0.017299090788769463
68932000.0 0.8223049537651713 -0.5506086341615607 0.05507010713984591 -0.2989549158017742 -0.00029584409310676223 -0.0032799367934790813 0.44737270237967347 -0.012851188680744521
69931000.0 0.8167398070540913 -0.5735576454910575 0.05462987551966523 -0.315931505827934 0.004587178968504332 -5.202199089359968e-05 0.44920354914503513 -0.027004484296946536
70930000.0 0.8097057099241627 -0.5810784689783367 0.04852320917722805 -0.331009647345063 0.0009801827163197381 0.0010080971095504936 0.45265665280498096 -0.032980290611225364
71929000.0 0.8077267130634397 -0.5881909503900342 0.04978215812028011 -0.3502597701123231 0.0017013409468238179 -0.0008927809163336962 0.4480824092370817 -0.044833088980600524
72928000.0 0.8014088960362457 -0.596850548230431 0.044100761967011445 -0.3630305720416519 0.0029128950863697265 0.00043081049592959487 0.46574520621111587 -0.05748590904365298
73927000.0 0.7954286043106586 -0.6040691533172321 0.038972921035350584 -0.38595968108730255 -0.0005178528385236892 -0.0026248606356821993 0.4688123553409145 -0.06438806712360716
74926000.0 0.7903355102947794 -0.6123877872656267 0.030995879906950425 -0.40451351525779267 0.004237615377631117 0.0012011391098953905 0.4681588247134936 -0.06725986903704449
75925000.0 0.7851134815242001 -0.618158466494595 0.024611908068489237 -0.4270054550496285 0.0001716332431976609 0.0013629435032746046 0.46940407639905046 -0.08120970087960194
76924000.0 0.7764380555127616 -0.6276414095768074 0.013420572516709516 -0.4470349523676239 0.0037483513509681114 -0.0025586923191535816 0.46867826880498187 -0.09290172770710546
77923000.0 0.7720555872652667 -0.6320895910750975 -0.006620744242704976 -0.46860360720872896 0.0011435990707929311 4.799369934100244e-05 0.46481149913257025 -0.09964023185507254
78922000.0 0.7654091949692742 -0.6423034562389397 -0.01634077701140916 -0.4969759592180123 0.0008970281347044085 -0.001114835240026404 0.4569089202993421 -0.10977935110433776
79921000.0 0.7583309998549715 -0.646628020477739 -0.03585747770721787 -0.5212608239462911 0.0011343259122839331 -0.004749966445073294 0.45100423137511236 -0.11810679222950768
80920000.0 0.7537264932328878 -0.657071671146956 -0.047960045077448395 -0.5492325820284691 0.00015967941040662977 0.003242453330231322 0.4674310207879813 -0.12839520181496564
81919000.0 0.7510631724522148 -0.6631117055843719 -0.06789375381554515 -0.578145638776973 0.0004735826527954428 0.0020727516847049553 0.4605039801225315 -0.15110303114202267
82918000.0 0.7364122070829384 -0.6711741725455737 -0.08112689352131838 -0.608088142249609 0.0021054933161112586 0.002717299099898798 0.479886267288076 -0.14675787122099213
83917000.0 0.7301699380947827 -0.6783657934718267 -0.10510160707363587 -0.6393743062326942 -0.0037611618733043375 -0.0032736485482259404 0.47480784902419987 -0.16176497864189465
84916000.0 0.7260102288542385 -0.6866657076285493 -0.12080966857659307 -0.6728253006207583 -0.0022331419735672343 0.003381268453582507 0.45848998826557796 -0.1650529904492197
85915000.0 0.7185974295529918 -0.6916112905793491 -0.1415187135180682 -0.7040015922284487 0.00036382626617246925 0.002002442482447873 0.4763249150546026 -0.18182010426854772
86914000.0 0.7110859510952339 -0.702671699614398 -0.1554122983848083 -0.7425945854446767 -0.0015218948409617531 0.0017833578624476918 0.454821043778043 -0.17496480490273333
87913000.0 0.7048818182667231 -0.7069920072150735 -0.1775417979708689 -0.7721408350387067 -0.004498058403221101 0.0011484280538684346 0.4614735673573163 -0.18552019656768493
88912000.0 0.6964939065699463 -0.7143560473992887 -0.19420077325053886 -0.8039495636660876 0.0007821239850085543 -0.00038784010335747717 0.46680719018130123 -0.21505519731463937
89911000.0 0.6923270694382989 -0.7230625728275366 -0.2062133851009776 -0.8444580277119733 0.0029643856061943295 0.00034522433951979383 0.46398508155642293 -0.21077455242765805
90910000.0 0.682468038851846 -0.7286973333879541 -0.22779250285088787 -0.8741653937241671 -7.781480851843635e-05 -0.0011942620830333846 0.4695929637256868 -0.21660362882538642
91909000.0 0.6751860740029342 -0.7335711083654427 -0.24368842936114724 -0.9105078480806726 -0.0006135415804482709 0.0010115683425933404 0.4702196861477495 -0.23316153739652667
92908000.0 0.6668845423588167 -0.7423363291479621 -0.2619892665644469 -0.9435897245673159 -0.0009686518271404896 0.00024855321552213095 0.45462311103969677 -0.23459120380267362
93907000.0 0.6619711635692807 -0.745988090362529 -0.2803642875150146 -0.974644729153243 -0.002150676330838975 -0.0014079738229345752 0.45750106259314516 -0.259484479351161
94906000.0 0.650408029729224 -0.7557034967371455 -0.2970061923606362 -1.012613211207239 -0.0018194736169170821 0.0006312226956975414 0.46679956565638725 -0.2572485458404151
95905000.0 0.6442313548237578 -0.7609877796804266 -0.31787013448145895 -1.0459900395456638 0.000531722887524716 -0.0015709579825273425 0.45687489208752835 -0.2705439142912095
96904000.0 0.6344523651359091 -0.771512975326696 -0.33918301837329895 -1.0824897992975167 0.002443799253871743 -0.0012537597140105882 0.44377748468350237 -0.28374624073806476
97903000.0 0.6260328045377817 -0.7744661670644882 -0.3591042177720805 -1.1112705683708637 0.0022193322298809303 -0.0020948449789690254 0.44457604191128874 -0.29918869046889457
98902000.0 0.6214883709401352 -0.7841542666504957 -0.38381222511910434 -1.1553692283997883 0.0020402263711213173 -0.00223307802384537 0.44670849813600255 -0.29436741887151335
99901000.0 0.6117781076984028 -0.7902765436895881 -0.41077007491420725 -1.1861377564680153 0.0022164398750287705 0.0008232083090071722 0.4585038783553715 -0.3186842387537902
100900000.0 0.6012784909679791 -0.7915817978555784 -0.4362641954181069 -1.215537711515851 0.002829856923790038 -0.0007650048919304913 0.45774192253457086 -0.31227581966645274
101899000.0 0.5921301038969168 -0.8011295203124313 -0.46538116234364757 -1.253576488844887 0.00031161799988832007 0.0005967362974971465 0.4507566359372486 -0.31431675395774683
102898000.0 0.5855135125308691 -0.8053444978819708 -0.49751263806164625 -1.2898738787547956 -0.002982322489293034 0.0024861277621146104 0.44907359377388456 -0.3383426377047506
103897000.0 0.5772055220326141 -0.8125633291412169 -0.5321800210454274 -1.3240841178448932 0.0003864024974455046 0.0002205909893941201 0.4501578741044844 -0.3474574674398742
104896000.0 0.5697415128259747 -0.8239171194190407 -0.5776896339573234 -1.3592054632715591 -0.001566958703493499 0.0010858213301211082 0.4394910323724102 -0.34022260944598176
105895000.0 0.5592307552423661 -0.8277851083077377 -0.623170321960181 -1.4016051485036876 0.0009117990640037639 0.0014798647645923126 0.4364449194754384 -0.3624740433590771
106894000.0 0.5505795910774034 -0.8333298961240015 -0.6778938954742554 -1.4367172561738581 -0.0014486145642656515 -0.00047968026684285886 0.4309793861908639 -0.37230506718086204
107893000.0 0.5432763122583427 -0.8381319208477719 -0.7251446459154136 -1.4778456410519367 -0.0015809972539603302 -0.0012175787015096381 0.4254981245869573 -0.3914030571686713
108892000.0 0.5308100296570147 -0.8424903822178144 -0.7846074114961554 -1.5093148990871 0.0003940911740619765 -0.005208664397634939 0.4213649484866822 -0.3863661720347883
109891000.0 0.5199423391756902 -0.8493166049480674 -0.8455212265590185 -1.5479937012268925 -0.0015470091829543813 0.00015593232522738374 0.43081342974518977 -0.3748634845289502
110890000.0 0.5027811315957601 -0.8661697857540904 -0.9304831500944286 -1.5561550105919235 0.00058515405905165 -0.007000598967662678 0.4276248449481516 -0.3910372259364437
111889000.0 0.5008870175809771 -0.8571247579575765 -0.964574792681012 -1.6145899769986134 0.004259989698528301 -0.0010195048330109853 0.41365342402333843 -0.4084544993359336
