! Created with skrf 1.9.0 (http://scikit-rf.org).
# Hz S RI R 50.0 
!freq ReS11 ImS11 ReS21 ImS21 ReS12 ImS12 ReS22 ImS22
1000000.0 0.986632931269581 0.001674244895624872 -0.01313040540821998 -0.05549644489492806 -0.010145518894452202 0.0019237316951210726 0.30821742207285374 0.318877977008078
1999000.0 0.9964863358820252 -0.011084858538824682 0.0001732238241240898 -0.029587150920416055 -0.014754234883372113 0.0007233157627796457 0.24950475790154228 -0.044414631311008104
2998000.0 0.9985378483353577 -0.02292477187136754 0.003641357592037099 -0.015173081481670549 -0.006246629985768558 -0.0018828509600595342 0.1890814000960666 -0.13989868327726032
3997000.0 0.9971126809804325 -0.03225289238229973 0.01288719719070406 -0.005400348499199787 3.0091925898939296e-05 -0.0039000909711314406 0.09654904469230491 -0.2159710703175157
4996000.0 0.9987843770719513 -0.03576557846874898 0.011975275096304023 -0.007263297315871125 0.00013815517208074656 0.0004503055269040558 -0.03769232892382683 -0.2115575210109488
5995000.0 0.9969485529469303 -0.04843731633019778 0.003970954646532217 0.0025300012737514963 -0.0024850653971463456 0.004746640675215039 -0.13090327587551395 -0.10899726665407296
6994000.0 0.9966022502226604 -0.05762128752579191 0.003538462655725334 0.00279060839720252 -0.0036848415544260414 0.004905424678870839 -0.1568225858607862 -0.034415339396500794
7993000.0 0.9979976056582701 -0.06508178096364438 0.002429661745668465 0.0066382962040598395 0.000731098763699025 -0.00027211435368013396 -0.16992972294017106 0.04402962104897916
8992000.0 0.9989974681969352 -0.07072531473668658 0.0047460875755700955 0.0012910313089229 0.003331534293859602 0.0008291918059372036 -0.1691022312838341 0.059519384908101006
9991000.0 0.995509822979298 -0.08039694104241016 0.0021454078204659853 0.007611945985251301 -0.002329692847461791 0.0027894240404580605 -0.1456118510512317 0.09730383936250361
10990000.0 0.9960525812030703 -0.09327979498638005 0.0017040837395307935 -0.0012539281966152391 -0.00030234454244164414 -0.005360058242005562 -0.1308574498167286 0.12368992556979878
11989000.0 0.9921297948331316 -0.09814072271166768 0.0005879882328867529 -0.0008943741898756434 -0.0015342492477693065 0.00024451849054890883 -0.12649157158265964 0.1338915852604221
12988000.0 0.9917838391695094 -0.11092137941888786 0.0044615331258094654 -0.0020877287191837972 0.00010892577624845864 -0.0018570925415437867 -0.12099898964322094 0.16555505527261832
13987000.0 0.9914424339704168 -0.11691441799802096 0.0008328569663685098 -0.006213087153399061 0.0018439843716602977 -0.002502246217076285 -0.09374497746301015 0.18319702409556143
14986000.0 0.9896032452249915 -0.12521057436640592 -0.0013327504785274464 -0.006124485016634857 0.0004111314257890943 0.005387789863205935 -0.10328826818149511 0.20669694757801224
15985000.0 0.991222172378657 -0.12910261436135245 -0.0018403199187519445 -0.0053663039238795295 0.0003000668436645576 0.0016976903827580546 -0.08123093804263189 0.21977550751146976
16984000.0 0.9856911402525287 -0.1413114761110009 -0.005297267049728194 -0.0063476578615473565 -0.003841316089715201 -0.0020633394155822053 -0.055867051107875355 0.22251435978172296
17983000.0 0.9871033860890241 -0.14961227851878572 -0.004460859105194 -0.0073744369189252534 0.00031083997422006913 -0.0012561797156043664 -0.051578406786082304 0.23120760346169286
18982000.0 0.9850015129843452 -0.15862096487712743 -0.005895309469658926 -0.004963530623402036 -0.0002603267074113201 0.00017440203394852066 -0.030350591111619977 0.24282053656051264
19981000.0 0.9836504085596359 -0.1638522705166491 -0.0010099461712012275 -0.004840955036000229 0.0020294325670147943 -0.0012032618655719723 -0.015608567771307027 0.2391357597963519
20980000.0 0.9847186550399732 -0.1728514960081805 -0.00432233385572589 -0.003299742358404026 0.00116212958542518 0.000815230064585145 0.0012740949639004654 0.25960716898561
21979000.0 0.9811854441269274 -0.18314674981130308 -0.007267112914840348 -0.0037944954289813857 -0.0002913218335897192 -0.00020525208441066786 0.013566314574829912 0.24333173677419634
22978000.0 0.9784308520080747 -0.1899365722122865 -0.005788127935691267 -0.005452735007780072 0.0009050756772057224 0.0013886300478653784 0.03274284770264674 0.25120344506875547
23977000.0 0.9820914130013982 -0.19685537908301362 -0.00387733727639708 -0.0033707402589285445 -0.0009548834110186153 0.003764219499691995 0.04616721823204706 0.2545283152582528
24976000.0 0.9777784563493485 -0.20699983130448454 -0.009261623745236161 -0.0022342503187596677 -0.0034245075946486344 0.0010745933609946714 0.06802693979012864 0.2654134567194177
25975000.0 0.9753924446554622 -0.22268385496717333 -0.007166624025007034 -9.952378281067443e-05 0.027234866685584322 -0.004589357828863355 0.08546673984704561 0.2650317308956749
26974000.0 0.9709185705113073 -0.22564034951284695 -0.004946013276699925 -0.00046430230941927334 -0.0005517976418497004 -0.002365413583303797 0.09819437811641359 0.26045783873082184
27973000.0 0.9707410214282092 -0.23411388735937289 -0.0025210092107041285 -0.003684555255515236 -0.0004380109489989126 0.003433809967384053 0.11170097156254227 0.25115172775233724
28972000.0 0.9673424905339515 -0.2431899829096006 -0.004981951079145997 -5.644603819044883e-05 -0.00011201406144407654 0.0006404377811259754 0.11645413132775381 0.2534043688291468
29971000.0 0.9670646289214897 -0.24947280829970545 -0.0003619340785221379 -0.0010250820739337563 -0.00023856216174260815 -0.001421843253424826 0.15492704831653792 0.2691008510668911
30970000.0 0.9652272124616722 -0.2548694381295448 0.0019919531251031334 -0.0005757120016430605 0.004249586655028225 0.001970243663155911 0.16903331773437533 0.25240013093837677
31969000.0 0.9632286156698608 -0.2636452889010599 0.002537621998441885 -0.004690218732108751 -0.0005931660012977266 -0.00048321395380252147 0.15086650175794128 0.25147963015783426
32968000.0 0.9600712498286951 -0.2738142711992334 0.007086280901995491 -0.008686936996140468 0.0005455853715776696 -0.0008919874866266096 0.16607477240559423 0.24480486011398972
33967000.0 0.9572405483248115 -0.2831085097640375 0.009683322708889427 -0.009487654289206914 0.0025140567888207424 -0.0003700988414374442 0.1887134773589802 0.2416311275148168
34966000.0 0.9553025857180838 -0.29102603394600807 0.013780582545267591 -0.012210219383904047 -0.0008087778338235429 3.3017635931537924e-05 0.19981925257347585 0.2498561478270596
35965000.0 0.9521076751857869 -0.30023462748709756 0.013602039169688744 -0.015951166516159663 0.001167922021445596 -0.00048550256728305036 0.21737975644325402 0.2474613064635996
36964000.0 0.9510370928209535 -0.30693820975510533 0.013812307265493741 -0.013877347494877715 -0.0005027765667668657 -0.004146839902532906 0.21858510033221043 0.2512995910974737
37963000.0 0.9479374475179492 -0.3166694558102429 0.02137611495160806 -0.01955534879427208 0.004604972666049522 -0.00024169807363890171 0.2306589139581653 0.23171281237048524
38962000.0 0.9444516995582916 -0.326341555143464 0.02231383140412768 -0.02354621976471309 0.0010005437688031602 0.000763124896547196 0.25282903818152025 0.22373836273917663
39961000.0 0.9416237235853231 -0.3331493302084081 0.025884560906915093 -0.025887893459997917 0.0003479515356039265 -0.0013420022839126875 0.2598023310361936 0.21906497263633934
40960000.0 0.9395154223860626 -0.3391589689330633 0.02187356999303507 -0.02297513194325107 0.0022296199740728553 -0.00046475804535194275 0.2769178945450007 0.22894478793098536
41959000.0 0.9363210092826079 -0.3511474870150699 0.0292440879176544 -0.030508015048418016 -0.00226457270447652 0.0016305927515906295 0.2696824923007682 0.21790025466585883
42958000.0 0.931990604350846 -0.3589812560214596 0.03000272512536012 -0.04065395267021504 -0.0009779556088834846 -0.001045958521526228 0.2827066621645505 0.19714767651884393
43957000.0 0.9290636669447416 -0.36622117495878104 0.030056335101552808 -0.04557451912892955 0.001397758106362693 0.000796822953734629 0.29162629091900233 0.2107660549871004
44956000.0 0.9261587209588144 -0.37516223458383074 0.031114236787747846 -0.052641460594439804 0.0003510210957946879 0.0014802719573453712 0.30484544572575073 0.18302133322175415
45955000.0 0.9218786864838601 -0.3851828018834599 0.033139580324448456 -0.059671764646015195 0.0011768062864604446 -0.00023122741697985958 0.3186551173302065 0.1777485079523098
46954000.0 0.917175511380209 -0.39277361303994446 0.035056286561579275 -0.06440626917212669 0.0013311583589009767 -0.005225121460150766 0.33146341910728483 0.1804724207592629
47953000.0 0.9162632342812175 -0.3985898550973454 0.03189294989004256 -0.07085210042448449 0.0021522741242156083 -0.0008406471454468493 0.34769443202890943 0.16918443824446172
48952000.0 0.9095472381958744 -0.4115937411529205 0.03511176695875441 -0.07726753667643431 -0.0019093423736880673 -0.0028229138665285584 0.3430417656955838 0.16243121498177662
49951000.0 0.9085981551018518 -0.41412933199969226 0.032173358855488964 -0.08638963112860205 0.0023366083318659813 0.0012429283535081487 0.35919296051939714 0.1608594388101327
50950000.0 0.904102528337591 -0.4241250710327974 0.035044491403963096 -0.09571797701877927 0.0033926034380189042 -2.6870617620619614e-05 0.3622310382351296 0.13959153262680396
51949000.0 0.8998710872419704 -0.4327114576839327 0.03470789115173696 -0.10239890843636558 -0.002283021734433166 -0.004608008238827898 0.3555185339739423 0.13893553271218578
52948000.0 0.8974815296626557 -0.4394600563013434 0.03495159308098765 -0.11384608426266166 0.0025553023550102688 -0.0007237605300124992 0.3834660401265454 0.13453394322499698
53947000.0 0.8923360997648923 -0.4472333601928419 0.037682998482832 -0.11908176470536067 -0.002557855489836301 -0.0014133063528174988 0.37719904799594517 0.12147685580781492
54946000.0 0.8857765010525297 -0.458037918894427 0.036610327697229286 -0.12894371953011705 0.0007258360058232128 0.0005960533120582464 0.3922203735467541 0.11619176488518744
55945000.0 0.8842483932153555 -0.4646111880928635 0.03839821162051548 -0.13953680586822284 -0.0010492616615659983 0.0014912532440523843 0.39853445526249676 0.09626830911901861
56944000.0 0.880952774735399 -0.47229503058469874 0.04461240633861526 -0.14965572585183062 -0.0018147345931348025 4.3319564215987234e-05 0.3988517805409037 0.09707451370344736
57943000.0 0.8755738488883613 -0.4833574681618365 0.040256494927841384 -0.15897727714844873 -0.0013898589223933356 0.003693155404290975 0.4037576472611495 0.08680852074987318
58942000.0 0.8688354028102054 -0.4877141853428377 0.04257249934109324 -0.171505854043565 -4.151110615270894e-05 0.00023691445620337002 0.42655632886717343 0.0839324788446032
59941000.0 0.868641849855374 -0.494183603248665 0.044414767488718344 -0.18108380919663436 -0.0011346132636019292 -0.0013204845652481437 0.4201628881774204 0.08307771475948604
60940000.0 0.8598330372491808 -0.5015728905601344 0.0460232552607108 -0.18407294799838855 0.000667176251944539 0.0010202800044033192 0.40796142733217367 0.05829674786251475
61939000.0 0.8575923553156787 -0.5096174879231546 0.04371695046877675 -0.19262381195311892 0.0003220503875940206 0.002052036617346665 0.42052284720364874 0.05595418580720027
62938000.0 0.8513106199247046 -0.5205278491573868 0.04688059109900579 -0.20731705836763123 -0.00181037609273702 -0.0004880701730563347 0.4410456359015126 0.044415779201432776
63937000.0 0.8471774439883113 -0.5288644336485785 0.049449061666560754 -0.22893837327136024 0.0011647561406376837 0.0042754116696929675 0.4427913393669086 0.034484918304951116
64936000.0 0.8418249825053676 -0.5322521157476384 0.0480054801845808 -0.23846817526925437 -0.0013539684631271407 0.0019893473213235366 0.435580963740307 0.024610152394128774
65935000.0 0.8391831318749574 -0.5443531252381472 0.04529348669571854 -0.25233827531992603 -0.004262828472569826 0.001189044042728446 0.44693449360468385 0.0053883320772623935
66934000.0 0.8333533951311968 -0.5515510294508635 0.04859435764785337 -0.2694317107544739 -0.0027467921525056002 0.0009405681473097272 0.43891235946305823 -0.0018481424650745378
67933000.0 0.829372491519819 -0.5586017278018461 0.04787853859551856 -0.27981550192147586 -0.0009183491683253464 -8.515570775618263e-06 0.44676560289866846 -0.008493876111604135
68932000.0 0.8138987401095247 -0.5544449288550923 0.04659938955498055 -0.2879134435522301 0.0024868927391588232 0.005778750187403771 0.45610153460953085 -0.026677064327263394
69931000.0 0.8163943997974309 -0.574786406585431 0.0499262174931347 -0.3089715486743694 0.00394962121474835 0.0004487614677206265 0.45289527714548206 -0.024695563713488605
70930000.0 0.8113449399240548 -0.5802549096256161 0.0459051249899283 -0.3197024356486185 -0.0011686936357958471 -0.0025292390022792 0.44809392119120284 -0.04198954590290346
71929000.0 0.806730764065449 -0.5914861720204259 0.03966106938021533 -0.3386655445428539 0.0008189461801450708 0.0006393087683668957 0.4545069325968562 -0.0543574336278564
72928000.0 0.8016960421310839 -0.5975200018286879 0.03770684921826106 -0.35377652065205134 0.002501611332526826 -0.00030462566089769404 0.47065752537866634 -0.05626453154012813
73927000.0 0.7958939810923571 -0.6059976733329581 0.03292182058946971 -0.3740571371769127 -0.000946202983597115 4.99163180925592e-05 0.4653789016167372 -0.06646620854659376
74926000.0 0.7911348054446257 -0.6132755807457967 0.0260070510763272 -0.3897800254873532 0.00319078795191528 -0.0006359749556808751 0.4654989048291905 -0.07042834382771096
75925000.0 0.7825999109852719 -0.6191741633715383 0.012889370397029674 -0.40718402442342716 -0.00317249248042892 -0.003276003112349248 0.47638542342006884 -0.08180885843160093
76924000.0 0.7789421544692817 -0.6259126084268902 0.000578084438325493 -0.42978993016652 -0.003808280772955656 -0.002020875722363024 0.4715855137868859 -0.09581782228979538
77923000.0 0.7714545480305628 -0.6342332134388423 -0.01190254002140761 -0.4531258310247263 -0.002262673933256012 -0.0036863600003613005 0.47177283616999766 -0.10763658068759246
78922000.0 0.7655509392373915 -0.6429493885592767 -0.028053717431340757 -0.48019977450845647 0.0025476247285148574 -0.0009998792662914851 0.46793876876767604 -0.11039835656925093
79921000.0 0.7577134238395123 -0.6490496804177657 -0.04678745310522124 -0.504745588458747 0.0015263024739851075 0.0018144544331305044 0.46902719879342164 -0.13394013080475967
80920000.0 0.7529122917811966 -0.6576481613863042 -0.05838388393351332 -0.5266522000920892 -0.0008660075878947496 0.001722748008428603 0.46987686356725095 -0.13726952354110866
81919000.0 0.7481880276713737 -0.6636686763997678 -0.07636183622339797 -0.5585613495548999 -0.0011356309627394117 -0.0007077482751717285 0.47591220958781855 -0.1436259331257425
82918000.0 0.7379165401106369 -0.6713664097474247 -0.09121449008294384 -0.5834051169769671 -0.0030368503724523166 0.0015758995708598385 0.47789616965542187 -0.15715865558624575
83917000.0 0.7303641205980085 -0.6800823045132829 -0.11702704969148735 -0.6097052939072336 -0.0012581401665181474 0.00015805775374428332 0.46964972646284897 -0.14635152813131516
84916000.0 0.7265569001597747 -0.6873188810233712 -0.1335517856891821 -0.6474927039814663 -6.618529345459921e-05 -0.000109571574199555 0.4662886261620676 -0.17368210094564027
85915000.0 0.71988418244861 -0.6936927150880975 -0.15407879611295652 -0.6758737425913082 0.003014177853821469 0.0005810627989883734 0.4724334369150245 -0.18168399442619476
86914000.0 0.7115315039213652 -0.7033786583678809 -0.17053042147052372 -0.7125750178367788 0.00022957262504499587 0.0003472456357032435 0.47500703733644495 -0.18976649649728272
87913000.0 0.7051978762144224 -0.7093850603640227 -0.18531439641105144 -0.7402442113382636 0.0010720414585550083 -0.002989366239697011 0.46204926230940035 -0.2008739349177463
88912000.0 0.6981552435109287 -0.714812560891452 -0.20003354571467058 -0.7746349616837706 0.003832764891387814 -0.00024331455608112874 0.4644576888052417 -0.21207172227973556
89911000.0 0.6927127050552659 -0.7224161471389022 -0.21121804282496165 -0.8146746646871944 -0.0023815256693116627 -0.0030048251663632006 0.4618081211430524 -0.21998369746716182
90910000.0 0.6845375795154861 -0.7277974114793755 -0.2308357750581229 -0.84630835407038 -0.0009954708530804806 0.004293076209677184 0.4633928531246935 -0.22152217063525767
91909000.0 0.6746698812027306 -0.7336527600219965 -0.25401026338435573 -0.8744222290698072 0.00045108848518744094 0.003161828806775645 0.4570999291548365 -0.2336240203117895
92908000.0 0.6699976108237315 -0.7432629384144561 -0.2701862972966764 -0.9097777124980102 -0.00016726752368395546 0.0014467745167986085 0.4560473099771971 -0.24200476296048865
93907000.0 0.6622641119845932 -0.7474513504986516 -0.2875156284390081 -0.93770024738683 0.0008051407317482808 -0.001421656346204962 0.45801666735916396 -0.2689469963379494
94906000.0 0.6476996163791047 -0.7583941760426174 -0.3003112517963492 -0.9709761747357707 0.000777610052570244 -0.005146781255320426 0.46471943656094344 -0.25354021037200236
95905000.0 0.6450201491286635 -0.762165297215136 -0.324333061107381 -1.0060113725290167 0.004178769323280244 -0.0011871467972462248 0.4545692107730181 -0.2887026467270355
96904000.0 0.6382546167471038 -0.7711770993299838 -0.3419759238855775 -1.0445011142084077 -0.000712145100525693 -0.002438209111779843 0.4549445110565913 -0.28382362279500106
97903000.0 0.6258588871257672 -0.7770295869937619 -0.36387986343301953 -1.0730737237692327 -0.0011682711920505114 -0.0015835699780953408 0.45690076065565083 -0.2890407716245024
98902000.0 0.6229269428242333 -0.7819984686696351 -0.3776454210652854 -1.1081549723772497 0.004209535339705706 -0.0010656693544757536 0.4439063639254495 -0.29963393317093845
99901000.0 0.6114693501976726 -0.7881410669733154 -0.4048272072521199 -1.1391847250435063 -0.0032712443185253727 0.0026554612810424237 0.45561694644971645 -0.3230944943214542
100900000.0 0.6031325449433099 -0.7934815462222209 -0.43879150675676815 -1.1609156544930925 0.0007471093535334274 -0.0011614137387971886 0.44897262155161444 -0.3203657819822067
101899000.0 0.5938588517495891 -0.8019044653826661 -0.4616786460960585 -1.2054239251599042 0.0025463757245900035 0.00029183322377540497 0.4443154964555256 -0.3529057598814162
102898000.0 0.5856429801129599 -0.8072504837542132 -0.4948819838688249 -1.2390573096604758 -0.0021992156197736383 0.0007731943803240251 0.4441210756519856 -0.3534441596231621
103897000.0 0.5785617002217716 -0.812154772267265 -0.5308972776625376 -1.2738011261835602 0.0010419089818263512 -0.00016465812630592024 0.4544840233823214 -0.3442082660878694
104896000.0 0.5703236901136078 -0.8247665248615498 -0.5721974484438785 -1.3026932755393017 0.000609825864209525 -0.0005075179268765844 0.435949268813383 -0.34162571025916183
105895000.0 0.5598460815592659 -0.8265074360008723 -0.615775470712132 -1.345024955193491 -0.002017213398279973 0.0018571267111050238 0.42433358330525395 -0.3659395028052084
106894000.0 0.5521906532064529 -0.8324988487027659 -0.6632055744257855 -1.376799455606939 0.00098189869568155 -0.0007998008442536619 0.42223687215903183 -0.37433977045240263
107893000.0 0.5438915985901699 -0.8377909696344485 -0.7113473621766933 -1.4103405415006196 0.0002525783541821114 8.652943792268551e-05 0.42315199889276434 -0.38297658137940754
108892000.0 0.5330554930403145 -0.8407296663991031 -0.7685078830908338 -1.4424556136128577 0.0008961991611303096 0.0006943326571660944 0.4095823547879069 -0.38871420157667663
109891000.0 0.5212645224143225 -0.8509350243879776 -0.8225565503185797 -1.4792954293842047 -0.0010878214735883481 0.0009645589739300936 0.424760003624575 -0.3954326673567209
110890000.0 0.5090394055497945 -0.8495609342851822 -0.8829515125226332 -1.480929773937304 0.0010308814361914696 0.00018675614201065174 0.41639920458589474 -0.3902347594528634
111889000.0 0.5030659816646159 -0.855938853862714 -0.9474273566422554 -1.5466014901990328 0.0008758812199341269 0.003199368484914907 0.40075660038555844 -0.41988794120861556
