! Created with skrf 1.9.0 (http://scikit-rf.org).
# Hz S RI R 50.0 
!freq ReS11 ImS11 ReS21 ImS21 ReS12 ImS12 ReS22 ImS22
1000000.0 0.975146135036833 0.00846885545601224 0.0012729230417152775 -0.04268604620091056 -0.01988006156508089 -0.0041032843243789 -0.9825930745329866 -0.1297135601269686
1999000.0 0.9987292959392591 -0.005191117876922981 -0.0025703974368395236 -0.014284134581891504 -0.0031083463533234028 0.001591864825630965 -0.9812765806735901 0.03704800828043479
2998000.0 1.00056614057192 -0.02068878098518284 0.005460760175451093 -0.017074607421952853 -0.0057914330401393375 0.0018291766946313395 -0.9727205290613643 0.005461711456971385
3997000.0 0.9975297140215378 -0.029033452766058045 0.007848626029810955 -0.010896819870690435 -0.0023625378790762806 0.0027276662301736537 -0.95338526961612 0.048428080740496274
4996000.0 0.9990101685659272 -0.0345421057672766 0.012990462499441151 -0.00916518531294448 0.0007050136496543867 -0.0026491957598367474 -0.9548054739054471 0.015328610021605618
5995000.0 0.9974778177629885 -0.049074819894488204 0.011720548118005419 -0.003973020771959248 -0.002171614919750246 -0.0028651179003521187 -0.9313210038257608 0.03884373583973673
6994000.0 0.993927937642811 -0.057576830971045594 0.004379515510649622 0.0035401205601616696 0.0024723400444375083 0.003387307685119664 -0.9127180638806869 0.04872582395250372
7993000.0 0.9975398628591259 -0.0670290450288989 0.004030988750716801 0.007518733352187361 0.0002576305366268249 0.0009555626109184966 -0.9200917269059782 0.01537644282449045
8992000.0 0.9945122429009734 -0.07227864028352594 0.002998324650444656 0.006748160679439689 -0.0010912173073437806 -0.0009514551669807617 -0.9114459296969957 0.029820963894871662
9991000.0 0.9939427319481053 -0.08297608105217229 0.004513138873310761 0.006588273188409181 -0.0007914729204753205 -0.0023696031616138313 -0.9043106277520441 0.05770895101891933
10990000.0 0.9931182520687557 -0.09208423213503633 -0.0017996607002449471 0.008440022189952694 -0.0020761786730838176 -0.003362582039182378 -0.8976215505757811 0.055183340582284524
11989000.0 0.9932356192236035 -0.09841143550677962 0.0010507163850413679 0.0028367510372793734 0.0036359881118544837 0.003470448424476708 -0.8952169202091889 0.053050831226141945
12988000.0 0.9920866640132536 -0.11009097583386954 -0.0007491458637121948 -0.0001778624178625429 -0.0009495781402032632 -0.0032044562232572487 -0.9034775754152441 0.053397202863370526
13987000.0 0.9892701472092633 -0.11690331721795753 0.002710150977015353 0.00014099862333629052 -0.004081425615113659 -0.0005752452696703277 -0.9041255439242365 0.05439096610048094
14986000.0 0.9877826521363182 -0.12376671363715434 0.0015213873040007414 0.0004913846787694504 -0.0003017347859849193 -0.002081211530726186 -0.8893552950104952 0.06738430218407783
15985000.0 0.9888905723942226 -0.13193664779668557 0.00037384051887229725 -0.0016047569121749533 -0.0038656680155885513 -0.000352424252598583 -0.9013958402463649 0.0671895278384958
16984000.0 0.9872241402922945 -0.14330349088958 -0.003064861636042193 -0.00012201587432925123 -0.0008332518717292588 -0.0013920742563242404 -0.9054414813855938 0.06488198225410226
17983000.0 0.9881668660175744 -0.14950496383399842 -0.00038593493079524394 -3.411176788617526e-05 -0.0030304759770088106 -0.002402052154548792 -0.8863684128969624 0.08523432789973708
18982000.0 0.9849143310557911 -0.15922845505098507 -0.0036368951241955 -3.995665014351471e-05 -0.000190209831772091 -0.0015321962067676687 -0.895333035072228 0.08006893285384008
19981000.0 0.9849679931774071 -0.16716330974550353 0.00046137163840229877 -0.0014844685637904155 -0.0015649954984602572 0.0035665362661129823 -0.9123563202115642 0.08072941097533007
20980000.0 0.9827820478333485 -0.1738972964323767 -0.004283080418525978 4.872377201055767e-06 0.001259054608008135 -0.0005840996749677933 -0.902643414038225 0.08920963915641233
21979000.0 0.9819857834410488 -0.18219658878164977 0.004813264423962274 -0.00043105213551855793 0.003705799738850536 0.0024022269065255464 -0.8994563067675009 0.10535899586256224
22978000.0 0.9779899582322121 -0.19203961112738194 -0.0009212772477989174 -0.002573023070941466 -0.0013801438438905717 -0.0011757158891377445 -0.8887039220903402 0.10318661521363368
23977000.0 0.9794208643809409 -0.19979157237804263 0.000601098646760002 -0.0009274868677713416 0.0016811049840332846 -0.0022975922426876467 -0.8880079271754897 0.12243784737772165
24976000.0 0.9755491672097235 -0.20907676171543965 0.0019216693370841527 -0.0038610210642018713 -0.0005879833402439387 -0.002415271305817336 -0.8870471090099794 0.11650205284473558
25975000.0 0.9754139109524576 -0.21678793441156088 0.0009768350823097563 -0.0023286201038367964 -0.0032003927185041176 0.02713205598872754 -0.8996130505431412 0.12951058594749532
26974000.0 0.9717587770325093 -0.2247698014086451 0.0012785750926643704 -8.420996997563069e-05 0.0002639557010527508 -0.00034493751548179106 -0.905640692985974 0.1156970791415446
27973000.0 0.9709436299136173 -0.23350788422271385 0.0023283520797783516 -0.001491507285732063 -0.00016366290439996507 -0.0013893370517363193 -0.9003988020318745 0.11703590731294902
28972000.0 0.9664712070956275 -0.24379668396457088 -0.0020679279674077223 0.0009124880746689054 -0.0006838096586550709 0.002200237502339017 -0.8893295789941571 0.12520909344003442
29971000.0 0.9660341400953986 -0.2510326421944844 0.0005947065791481888 0.0016586300278672332 0.0008503061393507982 -0.0030433470951763517 -0.8825561390151477 0.1304686383452937
30970000.0 0.963824197582942 -0.2560238761963382 0.0015951135862596574 0.0015816408169460772 -0.0012119944367157717 0.0012373941625731144 -0.905322796218886 0.150935254965225
31969000.0 0.9609346455358746 -0.2652924079084116 -0.0001329572513840589 0.0007786128737867081 0.00021363903546139666 -0.00039429487663057976 -0.8725270964179165 0.13722696019922534
32968000.0 0.9598279033051436 -0.274410344575149 -0.0016762756725489357 -0.00205883648124872 -0.0009109351835894743 -2.8118683842994247e-06 -0.8637912144980944 0.15897068715303211
33967000.0 0.9574936981078012 -0.2839735433977029 0.004412098616647805 5.113217727642193e-06 0.00014294928238878612 -0.0020044986844489003 -0.8736328146406835 0.15671675102552654
34966000.0 0.9540875182851933 -0.2930551470856651 -0.0002875906743849607 0.0019847628783587227 0.0017724589714216818 1.0727755190807723e-05 -0.8801779986226343 0.14680567835289496
35965000.0 0.9529811241921756 -0.3009862063806533 0.0030403379835388243 -0.00035310156685446287 0.0006617820334983619 0.0013578212746822658 -0.8852895174817134 0.15506910791964687
36964000.0 0.9496083511391932 -0.3094764818458791 0.004461417395274811 -0.0019140510281701808 -0.0016180885522807447 -0.0019102540772049155 -0.8722736338725167 0.16963356306708458
37963000.0 0.9472753912861971 -0.31683296283149315 0.0023437869595994572 -0.002562372074038338 -0.000801144704268264 -0.0007650222135486759 -0.877158745362533 0.14941238805074644
38962000.0 0.9446882197642856 -0.3261726078376063 0.005285160727608013 0.0017446598997655504 -0.001616581972638252 -0.00018780549850847718 -0.8830085948695141 0.16802029210653766
39961000.0 0.9401183002437118 -0.33683273903211086 0.007228222713354161 -0.0004695929363129466 -0.002268038855266738 -0.0013737817730266855 -0.8697144385990256 0.18190056189407944
40960000.0 0.9384785202421965 -0.342932466374966 0.0036586559062070315 0.0009305336483445428 -2.8369025949651345e-05 -0.0008036077570717683 -0.8681109725569356 0.17898416095077052
41959000.0 0.9340635295230404 -0.35128630392738086 0.008227755204542843 -0.001051791507722967 0.0009071640951315495 0.0004511556757862603 -0.8639698246617851 0.18350989627233832
42958000.0 0.9296704412362579 -0.360029903303297 0.008614763524522779 -0.0008828889732304275 0.001088900956958634 -0.0023193395220265987 -0.8570527319957294 0.1909072733754701
43957000.0 0.9287047235931485 -0.36473457828505035 0.01098618650289757 0.00230874824665906 0.003650788664948445 -0.0004336460985457499 -0.8533110283270939 0.18712988003084274
44956000.0 0.9246555063206624 -0.3730712925110688 0.012899944193732757 -0.0009950893060326478 0.00042106302197641505 0.0019465975242594679 -0.8569609335721302 0.19366799691271402
45955000.0 0.9203838858926534 -0.3837362348464624 0.014753634892576155 -0.003327092519747443 0.002923591917698841 0.001108262017515268 -0.8488396646925714 0.19280250255793585
46954000.0 0.9179029944499665 -0.3941456015177446 0.014880437209125533 -0.002863636623049849 -0.000953776477311644 4.445600138733907e-05 -0.8501491071155447 0.1971143456870707
47953000.0 0.9130961394000956 -0.40202915502814124 0.014849598521202928 -0.0022199495776228343 -0.002043313505570955 0.002442407553204693 -0.8570989816061889 0.2080660795483824
48952000.0 0.9086228637904337 -0.4124430426062138 0.019675376027112286 -0.001707303326487487 -0.0011966026395520079 0.0010282171896137352 -0.8497023306067016 0.20861727560664625
49951000.0 0.9066297477927232 -0.41618198337422446 0.018799940227966185 -0.0037659004831910713 -0.0006392606896568534 0.0021313699375989244 -0.8534896722182916 0.20145448205913233
50950000.0 0.9027214459837846 -0.42389982332025683 0.020881568913521022 -0.00871111473970309 -0.0011691057465347985 -0.0016005655511472537 -0.8377055085746357 0.2142081070004379
51949000.0 0.8997504978050463 -0.433536605057256 0.021420486546294745 -0.007205567855076097 0.0020452813764879913 -0.0010660261035694148 -0.8475997255207951 0.20614791284675363
52948000.0 0.8971185816912045 -0.4404224126646618 0.02225871850718827 -0.012384455593919113 0.0009435092311220904 -0.000222543919142721 -0.8221205887972282 0.23125202743478604
53947000.0 0.8904318709139313 -0.4483380671599458 0.02583877650112237 -0.009539435890294906 -0.002168367806227366 0.0043933671141183645 -0.8414291484379723 0.2124492297090034
54946000.0 0.8866286164206145 -0.4560128005276461 0.026737967027173088 -0.009427759551123743 -0.0013249080524937395 0.00096482105202843 -0.845544633332639 0.22853541940446143
55945000.0 0.8828388932130492 -0.46725638954899096 0.02647119687998539 -0.016250376647975018 -0.003993648655216193 -0.0008853968604789012 -0.8408522341248481 0.22682748871389355
56944000.0 0.8784046707036517 -0.47369431999128836 0.028089904756290782 -0.01532331421405019 -0.0015375885762216493 -4.767592787446858e-05 -0.8433445802275499 0.23196875769339645
57943000.0 0.874798122672825 -0.4842328359922539 0.030536038714725124 -0.017639873594297896 0.0024836214376639165 -0.0013135250328700325 -0.8303742260108142 0.23476740077562164
58942000.0 0.8678409109347551 -0.4891629610016833 0.03155369342054381 -0.01752613054876433 0.0007681495744169065 -0.0002779132662326962 -0.8488480587588365 0.2510448896738486
59941000.0 0.8678436448998551 -0.49580548790824625 0.02997330048291343 -0.01556835881302141 -1.2842514161586117e-05 -0.004090416000378814 -0.8414042594424422 0.2282124726830578
60940000.0 0.8596738106159586 -0.504345899193239 0.027731282102171566 -0.017523444064160995 0.0003798794951378747 0.0002486274066928129 -0.846879561846465 0.23989272203161904
61939000.0 0.8554904539028947 -0.5117023218376279 0.029086355714561907 -0.017661213061847477 0.0008460070305543362 -2.290929733685241e-06 -0.836058149562878 0.24347380024860232
62938000.0 0.8483294875515034 -0.5236822533441472 0.03332802391998814 -0.02074647326532147 0.0033400650628070748 -0.0001768531462444817 -0.8299298144227988 0.2511526436435396
63937000.0 0.8446653338318768 -0.529738581554793 0.03746312364248866 -0.02578134398528532 -0.0007740844040994671 0.002166853967822007 -0.8273884770203893 0.2463855114711107
64936000.0 0.8382037168063581 -0.5358359565277481 0.044844515988318685 -0.029526926261692555 -0.00043210443247655315 0.00341847133072008 -0.8251027272873286 0.2439800400196953
65935000.0 0.835779096647201 -0.5493612611356835 0.04813401020643797 -0.031445337873467434 -0.0034374465337802577 0.00017185281702111958 -0.8156091422103041 0.24951090900393888
66934000.0 0.8296498277885469 -0.551944873250431 0.057410465404872456 -0.032421244407887 -0.002692492910344618 0.0015724760963028881 -0.8093024030819892 0.2573944439624087
67933000.0 0.8267862968931735 -0.5584832104904078 0.062102737294035294 -0.03574099071035997 -0.00020188798153145265 0.001614856645507011 -0.8128551518218339 0.2715646654274141
68932000.0 0.8167367828781245 -0.5671672163162212 0.06708333098268787 -0.036149468550272616 -0.0016413117029926336 0.0005015365099924639 -0.8273465988459063 0.26405116646989285
69931000.0 0.8133328246553955 -0.5762443968630634 0.07469224315122411 -0.0394764571677654 -0.001720443859697833 0.0033205371773446573 -0.7990505531826433 0.27403940087423884
70930000.0 0.8073066645434225 -0.583202318139918 0.07924142442498369 -0.042879420717514334 0.0015733527248664918 -0.0012315024692038522 -0.7977935727348466 0.2665804716628151
71929000.0 0.8046223351702219 -0.5903362100237618 0.08620634106343061 -0.04574434273017239 -0.0037903213773975027 -0.0004163271588156334 -0.7912068675349727 0.25852587214144773
72928000.0 0.7984060212889463 -0.6015010927417793 0.09036398784636072 -0.04692016005975226 -0.003540814026799684 0.00037235460535302403 -0.806128637994885 0.2802013157651329
73927000.0 0.791054371304564 -0.608093619444359 0.10114581136943067 -0.05159498038132728 -0.004034325154756601 -0.0007794791767982806 -0.7983172766645742 0.28325858896220196
74926000.0 0.7865057307109128 -0.6169004327579071 0.10042011198104787 -0.05067791594416452 0.001891855465228908 0.000329197651851455 -0.8112310812582815 0.27406752866131295
75925000.0 0.7803550142070752 -0.6217377240701062 0.10650482892990472 -0.05441046751041319 0.00032794038495861027 -0.0009257046671623723 -0.7980038444004235 0.28079495547132716
76924000.0 0.7725613653415412 -0.6306118207127216 0.1081173355715609 -0.059474516094849335 0.0002783176231709986 0.0030415971174000754 -0.7978642097603108 0.28942403066876604
77923000.0 0.7697438227528883 -0.6341586009444089 0.11399077355560451 -0.06415754948371155 -0.004366171611831238 0.0021941086402088228 -0.784832795901656 0.29874001043916043
78922000.0 0.7623783671561974 -0.6471531786812534 0.11524960415872834 -0.06728458126269662 -4.528751433313626e-05 -0.0008373499526831813 -0.7893335620254065 0.2844320524928298
79921000.0 0.7520240785192653 -0.6497526184143084 0.11796227604325657 -0.06972737442485938 0.0011696542226146526 -0.0012218058797205523 -0.7779055159953946 0.2886818013123427
80920000.0 0.7493143931065613 -0.6604578302506116 0.1206159425184978 -0.07570000742816631 -9.83882199227433e-05 -0.0026819486250824107 -0.7819438398729396 0.29829294588837085
81919000.0 0.7452783273446953 -0.6671712374640361 0.12273986737798223 -0.08187823403399302 0.004137998053658563 0.002388098086766526 -0.7808967957851543 0.3087238315104279
82918000.0 0.7339470602759719 -0.6733406822317056 0.12414801441916853 -0.08754313337788362 0.00045481357139243 -0.00039356492349453985 -0.7712836235908602 0.3125632503519124
83917000.0 0.7276996501863587 -0.681766051057583 0.12494259679805868 -0.09392147321224119 0.00019979819095252202 -0.005072380389841943 -0.7724244009107292 0.2954802078612054
84916000.0 0.7228669382561089 -0.691144770612669 0.12726517563373005 -0.0970329506967393 -0.0033436975626813872 0.0003572546531293214 -0.7697539909183262 0.31185941929547273
85915000.0 0.7144141244817237 -0.6951769528853874 0.1294746796414856 -0.10881067942410193 -0.0025056912546179153 -0.001330717726315877 -0.7639839091715563 0.3080222101845045
86914000.0 0.7073698070451052 -0.7064010069761869 0.12912389321320084 -0.11475236735887373 0.0027841164483064637 0.0015718883658419902 -0.7661749339166054 0.311538617859625
87913000.0 0.7024649479139994 -0.7114785540718582 0.1319910099290553 -0.12620112811662196 0.0016766691371817005 0.0004507969151029898 -0.7712843326886873 0.3125093905244551
88912000.0 0.695844717250505 -0.7174420639623555 0.1353852861453375 -0.13362908366573903 0.002391646390912933 0.0002073481988847548 -0.7573672366798536 0.3251903568449142
89911000.0 0.6866567961512412 -0.7268679145796111 0.14010992637759048 -0.14483079815932168 0.00407628408526918 0.00023489931490527273 -0.7627962329197734 0.32000567358783316
90910000.0 0.6809434393236763 -0.7306732962617716 0.1440945858065715 -0.1552161898586375 0.002553702849055934 -0.003118182214387672 -0.7644078400946742 0.3201704736336491
91909000.0 0.6715305472800408 -0.7365312984570098 0.14921453799854092 -0.16578237125786924 -0.002629438140015134 -0.003124202165455007 -0.7665000885554613 0.33967322404698014
92908000.0 0.6637347491964549 -0.7453961213033771 0.14855392226283382 -0.1693115787692263 0.0018167109945808606 -0.0009520323212312806 -0.748705586897779 0.3249225350957552
93907000.0 0.6590144147060739 -0.7485356865157538 0.16395205757914894 -0.18930568982617355 -0.0011369123746291518 0.0009459144412763254 -0.7394445892562864 0.3381558940438592
94906000.0 0.6453168949097463 -0.7585683035805301 0.16992772147890928 -0.20183623372176324 0.0006801781196611131 -0.001251615685553386 -0.7455055144363295 0.3372647888144027
95905000.0 0.6406519203245797 -0.7646432968348239 0.1811523585639421 -0.21472854089692167 0.003653318955721501 -0.0019769348138889064 -0.7375901399659196 0.34277118788348465
96904000.0 0.6321966701341384 -0.7738641139995494 0.1901759013930126 -0.2305736498157479 0.0018464646694830837 -0.0013670951775391228 -0.7433987479037752 0.3391006323189314
97903000.0 0.6224778157337494 -0.7784774741585916 0.20241390849388527 -0.24251887873983966 0.002906518311469789 4.977562446426035e-05 -0.7386853808139804 0.34097334893610776
98902000.0 0.6182249649543865 -0.7861040003174818 0.21424491359913939 -0.257738518677161 -0.002521665476994933 0.005071394173226128 -0.7415194104772281 0.3479167370887812
99901000.0 0.6065298437153017 -0.7915786674024835 0.2250279016026631 -0.2741807984474882 0.0016249977210495668 -0.0018336347195348679 -0.7187785206376525 0.35235143802593993
100900000.0 0.6008127233892258 -0.7947475130295293 0.2358428342229416 -0.2890712988774397 -0.0007612786606471091 -0.0006913419558549471 -0.7265731697626586 0.3548619898017295
101899000.0 0.5896992875030072 -0.8015600277561536 0.24964871500946173 -0.30552316208452107 0.0021283716324431486 0.0005742514253419717 -0.7216782527894696 0.34799504070422954
102898000.0 0.5779314671718014 -0.8094665541859337 0.2615856837140305 -0.3223391701482512 0.0008419591792191243 -0.001974108040800619 -0.7207468888286187 0.3623875431756268
103897000.0 0.5701839756423053 -0.8156494892616161 0.27239063414921877 -0.3409604004071243 0.0010993858326610274 -0.0011308315623116555 -0.7211222054524726 0.37475027812579653
104896000.0 0.5635196748892911 -0.8265713297893097 0.27894542972897013 -0.3599618897179536 -0.000996717267693502 -0.0029321427159470937 -0.7044762961909031 0.37178237169229394
105895000.0 0.5537286490006664 -0.8291195429839396 0.2928100007810678 -0.3778710698725044 0.0009386547405735303 -0.0013113574028112392 -0.711068499962051 0.36449090768593745
106894000.0 0.5418054097871815 -0.8345081968862524 0.3048279715696299 -0.3948839471259181 -0.001662105632607575 -0.001339135477147168 -0.7121269898499379 0.37446874778580164
107893000.0 0.534370700646362 -0.8411917776771931 0.3168615131610084 -0.4153352899457451 -0.0004088590373219976 -0.00013262364189423162 -0.7037500535501341 0.37546858214527534
108892000.0 0.5255404353103108 -0.8435594319927014 0.32700730543220663 -0.43645409542696184 0.00023883884747037234 7.512929655510033e-05 -0.6995483238170448 0.3750163200618917
109891000.0 0.5144303022966202 -0.8524931255986806 0.3299969867174649 -0.4579233842930423 -0.0023749689642535666 -0.0003998652687760494 -0.704367896536021 0.38080129867087
110890000.0 0.5034295798506746 -0.8695235531671199 0.33167437913038844 -0.4813809661634653 0.0022755602519709634 -0.0010318938885611477 -0.7141342263640973 0.38062651675540465
111889000.0 0.4952535905905456 -0.8580926574066301 0.3446851758604324 -0.49885616319943654 -0.0036860290278713497 -0.00031751418241167585 -0.6808019711017946 0.380355417378156
