! Created with skrf 1.9.0 (http://scikit-rf.org).
# Hz S RI R 50.0 
!freq ReS11 ImS11 ReS21 ImS21 ReS12 ImS12 ReS22 ImS22
1000000.0 0.9816060248297177 0.010947073083236315 -0.009335528379258955 -0.03813945229604839 -0.007697911017999151 0.0019511069106451556 0.324338448722211 0.29587529977757476
1999000.0 0.9938315129082702 -0.012364684334791532 0.015065502890773944 -0.023998346081513237 -0.0033743873133125577 0.001228797759501236 0.2961942000154474 -0.042223651043569815
2998000.0 1.0003866988003256 -0.020907440287768104 0.01709432379606115 -0.010594301062619351 -0.010317070437523295 -0.0020903883670942277 0.20230061481984776 -0.13996891209304874
3997000.0 1.0024868819024353 -0.029661266186270546 0.008815928053211906 -0.008089047605348315 0.0018286947673282036 -0.0035023222733561294 0.10636544594381216 -0.23020570336369595
4996000.0 0.9987050364043878 -0.033572496477926345 0.008900975152590236 -0.0044664394752611655 -0.002022748149182681 0.0007962645245940806 -0.03176986784895568 -0.2037899876787618
5995000.0 0.9959046264288153 -0.04356238756510017 0.010510568791916575 0.004343463734209064 -0.005396670763510383 -0.0013762035065978662 -0.10801614665439535 -0.1210699565372688
6994000.0 0.9949494375940102 -0.057657642230780994 0.00430958634018178 0.0026764549948427325 0.0020679946131780614 -0.0008801684979425928 -0.1416273301376691 -0.04617345617382008
7993000.0 0.9961062010504562 -0.06532237377222357 0.0039695162460583345 0.005352471989546414 -0.005259998765324302 -0.0019682168513115673 -0.15723130297522592 0.034022331935843544
8992000.0 0.9946352835368842 -0.07280531263130458 -0.002673901425300691 0.003780658936452075 0.001015718795478385 -0.004036626052268892 -0.16159084958508113 0.05115760467087643
9991000.0 0.9935536325397107 -0.0822615689876227 0.003645840588572419 0.00578577906295409 -0.002882690442234313 -3.695021718553017e-06 -0.1489270850138159 0.07770958165231394
10990000.0 0.9922023225239262 -0.09423090702167106 0.0029620564673686336 -0.00021135230031549103 -0.004402305263295929 0.002426089061381911 -0.15065647310947214 0.10016402822977372
11989000.0 0.9905546091303543 -0.09861984587095585 0.007794147588194637 0.0006285395627609452 -0.001827858012012033 0.00114191727739947 -0.12058739251417125 0.14419162344128453
12988000.0 0.9901508944412503 -0.11066444262811832 -0.0007058287399520347 -0.0019215217116966758 0.0017057662372025372 0.004094725805328104 -0.12606552943743507 0.171257971063128
13987000.0 0.9905618278832222 -0.11493977703845487 -0.005139606536000052 -0.0042912571744892596 0.0018907216712896041 0.00037368902563474695 -0.09912330438086644 0.17676138936970398
14986000.0 0.9886386085146982 -0.12516689351071011 0.0014618949851705897 -0.004347038979217128 -0.0012445231410832247 -0.00015460320491291095 -0.0919456175156995 0.19899991192565056
15985000.0 0.990971553940128 -0.13118722281338113 -0.004617720513028257 -0.0018704869492348918 -0.0036285453725214845 0.001364080995855056 -0.06215737627513269 0.21357207551688862
16984000.0 0.9866707185951958 -0.14341651489225346 0.0013205091144119507 -0.001723263939492429 -0.003048332275541196 2.6106607091760896e-05 -0.06802636335706129 0.20798216399213915
17983000.0 0.9866316841369664 -0.14911345062419198 0.0006825174544671002 -0.007768440027047178 -8.72853908283395e-05 0.0017089268658865523 -0.05701787512279932 0.22692824668013648
18982000.0 0.9818384080841457 -0.16012334212347218 -0.002046486946950955 -0.0017243561843364493 0.0001936978497863979 0.003062516180339971 -0.027756274627735538 0.23935482939725644
19981000.0 0.9836817171857413 -0.1653379527740418 -0.004624133652971125 -0.0022958515113046677 -0.002175697048848182 -0.00045653159287097837 -0.02946939001818397 0.24067496507521544
20980000.0 0.9805073892163259 -0.17684444644145408 -0.0019958756119935334 -0.002843739727304424 -0.0032904507182499095 0.0037648610323315597 -0.0032083032701676097 0.2563199150201057
21979000.0 0.9813394977137585 -0.18266777956965496 -0.007686967796082241 -0.004613092946017294 0.004770014008993174 0.0027033474807558254 0.009491338623716353 0.23551838917615317
22978000.0 0.9779397562260835 -0.19402097448592587 -0.006700584148981472 -0.00016809277562406183 0.004187253310988093 0.0006046790493668995 0.023850344343635754 0.253292868302564
23977000.0 0.9788075704514375 -0.20120240140951115 -0.006266821728255095 0.0007571010687159427 0.0012231087332095227 -0.003687274091540605 0.03712306842833644 0.2525446204183036
24976000.0 0.9751986110444621 -0.2116848158511886 -0.001782536413854462 -0.003904358890788969 -0.00022031613566833922 7.118105786949181e-05 0.05729326548123863 0.26483166690283905
25975000.0 0.9694482340134136 -0.22341764297672115 -0.007293294023237766 -0.0009675221695099737 0.013285446514952857 -0.024186711070923368 0.06986145841866176 0.26422538510078397
26974000.0 0.9700300079806932 -0.22640898247414176 -0.002431624120688218 -0.0022059562007635714 0.0019191599445134951 -0.0026235785955017544 0.08879905799653968 0.2574485443193206
27973000.0 0.9714233401878213 -0.230889702018813 -0.002874991085869343 0.001515275371895095 0.0010357580368397048 -0.0002875022895960317 0.10829989351737279 0.2527154822505454
28972000.0 0.9685991077184443 -0.24206560830492574 0.001030060611892498 9.020320309114614e-05 0.0006194756068454704 0.001423349774071165 0.11392858876292267 0.2580722090956112
29971000.0 0.9657312570287978 -0.25260689339679193 0.0030125557637698465 -0.002209633598082966 0.0017751010394287767 -0.0006509045700983177 0.14569403750331414 0.25978618943466353
30970000.0 0.9629734425483666 -0.2572187501943583 0.0033165986002606277 -0.001352869408793489 -0.0020120577889871216 -0.0029860270099542397 0.1635201012234704 0.2493309498254599
31969000.0 0.9619061905315708 -0.26614325062086636 0.004737906162587728 -0.004757336208290647 0.00047849696360405996 -0.0014035725734801515 0.15049033592833652 0.24902182844316362
32968000.0 0.9603375048426718 -0.2773071687453306 0.0066193537817883785 -0.006688375356431776 -0.0019878704651362703 -0.0031146756505034206 0.16668824812378538 0.23742183901533437
33967000.0 0.9577171730194904 -0.28381400668141016 0.012462649656290254 -0.01031229014548022 -0.00010098609310377836 0.000685112766841288 0.1828707819604277 0.23726531951632057
34966000.0 0.9539196661163667 -0.2956463004291437 0.009833166847182497 -0.010073879056027576 0.0002558425468224129 0.0034947766987978536 0.19525058681782434 0.24818737156490298
35965000.0 0.9516339282489964 -0.3020770152964042 0.017183758481733164 -0.015281713112457764 -0.0015709756867191814 0.0006977893641158457 0.21111661514022673 0.2516439188073763
36964000.0 0.9499241874491073 -0.3104820306638585 0.019549878466569793 -0.013552137220466396 0.0015013364935682 -0.0010535065389357305 0.2134813534402078 0.2456179609033856
37963000.0 0.9460872296770475 -0.3195978545093972 0.024212168870962524 -0.02064451323388356 -2.932724774990526e-07 0.0014049143785180695 0.22570877585624946 0.22858090021144228
38962000.0 0.94390650292154 -0.3278805082380301 0.024075944342832636 -0.023670648062332912 -0.0023344167756040425 -0.0001994019053254668 0.2379274350589594 0.23158841887768192
39961000.0 0.9395019226516097 -0.33747810610901696 0.025778510904620883 -0.025521545023378625 0.0011085585040191122 -0.000400752511353214 0.2522873213934589 0.22947437334289325
40960000.0 0.9375623785473651 -0.3434027348036228 0.024284995939767667 -0.023513129632302628 4.448770516213333e-05 -0.0010056549584631946 0.2697542561093256 0.22958056490675424
41959000.0 0.9330924638916411 -0.3537906312900703 0.03320205970425917 -0.031382839097264754 0.002159812447393981 -0.00025215447271667113 0.2664996604352043 0.20166807485797253
42958000.0 0.9283663410243796 -0.3637111160976596 0.030681584050077586 -0.04094836240227471 -0.002219729140976441 -0.00010245262381877669 0.27608810352722046 0.20405697768207484
43957000.0 0.9301723849457261 -0.3664598073000365 0.03367465103280784 -0.04416133566185033 0.0015666483575440106 6.120821319524075e-05 0.2867688282233826 0.21129588246908193
44956000.0 0.9245812861497462 -0.37536381936286994 0.0335482794046564 -0.04930832612984452 -0.00136197015090719 0.001834406522812718 0.3093915806043778 0.1979275935061223
45955000.0 0.9213640625848506 -0.3870153627262611 0.03757769974199998 -0.058775283996167084 0.00048651003919739235 -0.0010089425275927027 0.3043242940332905 0.18263058308820942
46954000.0 0.9169945072082569 -0.3947013999809045 0.03674191055101478 -0.06250385005262658 -0.0016761956736296548 0.0015494450078028675 0.3333805723668388 0.17218459261315722
47953000.0 0.9133740752127333 -0.40304964936132165 0.04038811405366083 -0.07601872149469817 0.000931829544441384 -0.0017910215607273307 0.3338123475289204 0.1635887202444938
48952000.0 0.9079541431445234 -0.41426152265772204 0.0394541969712732 -0.08049592258991742 -0.004721149078827018 0.0012934590957934464 0.3387915694199221 0.15802560984532252
49951000.0 0.9060490315181529 -0.4164359333859378 0.03697482757891506 -0.08582550685332131 -0.00045635327606930744 -3.0910020706892005e-05 0.3577441615470745 0.15452821313592102
50950000.0 0.9018354748379748 -0.42760478487589976 0.03845823245895195 -0.09634735189870668 -0.0010459971301726176 -0.0010519383737513566 0.34289305029933737 0.14490575953155246
51949000.0 0.89799532926119 -0.4344752255251006 0.03980157225347448 -0.10217958129759316 0.0025196459935058688 -0.00010936964446694142 0.355410710496328 0.14849972546942752
52948000.0 0.8966933183923512 -0.44175595873685 0.043405032400238935 -0.1144960158865548 0.0013778450172338662 1.2746309326516134e-05 0.36721263852472275 0.14412573640301482
53947000.0 0.8887988066509823 -0.452485525310799 0.04324178480785685 -0.12214218719951352 -0.0015132196949274185 -0.0016395344863356096 0.37183271598216106 0.12871975230837568
54946000.0 0.8841612739414031 -0.45836991042968256 0.0440291915973626 -0.12990357802036376 -0.0022014676101351645 -0.0009523936095096226 0.3875612241975844 0.1252702165060384
55945000.0 0.8831346482287272 -0.4663212270119411 0.048771604734590954 -0.14204645447128492 -0.000921437786564183 0.0011389670442381989 0.38712954299763963 0.10746326643876351
56944000.0 0.878322333743633 -0.4767188779135334 0.04947128572428405 -0.1527129826214728 0.0010539694768816625 -0.0013132949290764033 0.4000878211338678 0.09627420725430128
57943000.0 0.8736377786644469 -0.48607737571321985 0.04974223308430722 -0.16446543880668804 -0.0015736217749189622 -0.0006491372373927524 0.40406521820498004 0.08755560934201685
58942000.0 0.8686776438490517 -0.48873840119419704 0.051583393687852634 -0.17557805180786124 0.0022709811625720652 -0.0032622442114812363 0.4132259308271276 0.0953972311076895
59941000.0 0.8656390462926972 -0.5013322998266415 0.0546540277879017 -0.18456808451950535 0.003738616922472069 -2.5492538231303652e-05 0.42157658244759755 0.09074827743248913
60940000.0 0.8571284880958308 -0.5062546396859541 0.05203708492150579 -0.1906159183101768 0.0016341321574693272 0.002038149906048287 0.4019890926433367 0.08294911178515946
61939000.0 0.8542180092381547 -0.5126938573010251 0.054560718123521465 -0.19919497891948892 0.00019427968651971198 -0.00047459400663599037 0.41166627360984104 0.06308291669126846
62938000.0 0.84914446306221 -0.5238277590723796 0.05824954186294112 -0.21768899500295705 -0.0028714408765561305 0.001983070042949205 0.4444061002097841 0.05202980171537592
63937000.0 0.844831141092713 -0.5312357722414639 0.059746862844893125 -0.23247287744896938 -0.003180115428817595 0.0004243989234450114 0.42762233235502833 0.03926888909118368
64936000.0 0.8380916168843175 -0.5381146488298105 0.06081047458039467 -0.24920728324027205 0.0005851316390540072 -0.0020008848547747498 0.4306434795232294 0.040845685759035806
65935000.0 0.834307605800305 -0.5490734700873489 0.05900172653593479 -0.2638233138210851 -0.0023919829722309095 0.004026456636194831 0.4416610556049837 0.01123474214441631
66934000.0 0.83089088770861 -0.5519981862395908 0.061306772018442916 -0.2768202760523128 -0.0009331902114706465 -0.0011593411562591791 0.4346125208252267 0.016016136032326683
67933000.0 0.8261112367316045 -0.5613871488124563 0.06054106132206765 -0.29319936681206804 -0.0024970541379346735 0.0011184294729768732 0.44213613240310956 0.002177936009153502
68932000.0 0.8207142130657727 -0.5693734407160467 0.05829390119265622 -0.30814781890498727 -0.0028349552119505644 0.002570296453083638 0.4581465515282136 -0.006783952119961552
69931000.0 0.8127564398840419 -0.5783364524539482 0.053119156179884545 -0.3227829722488116 -0.0046360739422400925 -0.0021646829492751136 0.44395363952854217 -0.02110193364247054
70930000.0 0.8067022283267757 -0.584984098670737 0.04912355909320697 -0.339678282754883 -0.002246079397994475 0.004050297536490965 0.45027186460619323 -0.036670430208438805
71929000.0 0.8038020066241214 -0.5949090710621547 0.04840689618002213 -0.35567465503775575 0.0034699740745944953 -0.0002918634826474109 0.44951486152716863 -0.04883551632992551
72928000.0 0.7978565722969246 -0.6018328694817211 0.04698045004163163 -0.3702839365542688 0.00012372118581585408 -0.0013397096061400504 0.46226920519124864 -0.04964294498980944
73927000.0 0.790502003727101 -0.6093278560745753 0.038320025918466644 -0.39131249321331163 0.0003648940196425982 -0.0016952688974478552 0.4500301674150074 -0.06117812947999025
74926000.0 0.7844543598811545 -0.6174615100420819 0.0318978644063458 -0.4102180914501535 -0.0005640014721531384 0.0012228692650934083 0.45749109936311205 -0.06144152321208474
75925000.0 0.7797213983396906 -0.6221816338949564 0.028065806215547898 -0.4309404028664475 0.003007994192261319 -0.0026194436655370495 0.4749377178153263 -0.07350733444609099
76924000.0 0.7749800674675734 -0.6293375923087348 0.014811098635218919 -0.4536089073418949 -0.0035606437804018743 5.358528983265432e-05 0.45918978143889777 -0.08363112726788562
77923000.0 0.7678309636145748 -0.637689356517508 0.00018175361378012177 -0.4784018011342703 0.004149395122066836 0.00021157820981327914 0.458914837140942 -0.09752152532596416
78922000.0 0.7623253223541677 -0.6464551656090421 -0.019982757494002686 -0.506091141493996 0.0020698583075845997 -0.0015970079852721515 0.45880164305166454 -0.11044934333029345
79921000.0 0.7517137295769327 -0.6519027336516836 -0.03435129455560075 -0.5331996960100074 -0.0003617501414801088 0.0014350019237977076 0.45246782347719555 -0.12300382767544027
80920000.0 0.7499997538711783 -0.6620353430468587 -0.05257661766861553 -0.5594495981129474 0.001479707938967529 4.38398289996404e-05 0.45876942810719856 -0.12294815745749882
81919000.0 0.7449577694938038 -0.6668448088129777 -0.06971234928575859 -0.5900718366419976 -0.0010905296742362118 -0.0006017507337646227 0.46750235791777783 -0.13046900297893724
82918000.0 0.7317284981899211 -0.6769934883133828 -0.0822840148319853 -0.6205748942401147 0.0006229417558374417 -0.004708631114215167 0.475806610992614 -0.14960306198979786
83917000.0 0.7264715396585761 -0.6832215514978269 -0.10393832129202409 -0.6492088094835097 -0.0005468136974474943 0.0013100725008658109 0.4777069137517867 -0.1500407527098656
84916000.0 0.7234990243054459 -0.6888831333238372 -0.11887102960639909 -0.6851314574921478 -0.0009010576254612916 0.0001434845973721876 0.46462721083322417 -0.1683896241053429
85915000.0 0.7130851964419498 -0.695827939263972 -0.14379625824309575 -0.7159799103084421 0.002165030060162618 -0.0049695638958254925 0.46544195392113624 -0.17685409561295123
86914000.0 0.7074667414102866 -0.7055184103928902 -0.15703617535877948 -0.7525986199095018 0.002497137916113161 -0.0021113710020766166 0.4623515927199523 -0.17044036984037378
87913000.0 0.7013493881967023 -0.7115663237542312 -0.1789639705120051 -0.7834585449777022 -0.0007577641871840874 -0.0033181529569809225 0.45527365038165724 -0.1864489626819108
88912000.0 0.6935871504234418 -0.7190917439377884 -0.19382758056647464 -0.8191550841182313 0.0009099464189330781 -0.003542135604175942 0.46129100932614936 -0.20778174429882523
89911000.0 0.6870242021685394 -0.7278386322617684 -0.20603044660120634 -0.8587559573000396 0.003734295789422038 0.002856906132305511 0.471867479326445 -0.2138254777619051
90910000.0 0.6787466568886633 -0.7328408736959635 -0.22937632595861715 -0.892350134067747 0.001011285991943028 -0.0015867188874516512 0.4580410727269353 -0.2182378327150414
91909000.0 0.6699088083633102 -0.7371220402669082 -0.24433574383539444 -0.9278704331696342 0.0007573808584856572 -0.001678323249384197 0.4594712176973795 -0.22857239249018535
92908000.0 0.6625082571401462 -0.7471827575942354 -0.2680045070317294 -0.9589111148149654 0.004002208327113923 -0.0009166204307018129 0.45853272650473165 -0.24462473293830483
93907000.0 0.6573212845756617 -0.7515156213072367 -0.2824576183371445 -0.9858313800850063 0.0017866556516168918 0.003131846280861406 0.454871096370521 -0.2502927992725325
94906000.0 0.6442414219859379 -0.7600289948518653 -0.3002292207661275 -1.0266724030722574 0.0025343930113069404 -0.001730137141569575 0.46019724462597894 -0.25259282602373495
95905000.0 0.6362869394062752 -0.7661568098287681 -0.3262407854888091 -1.0593968432554652 -0.00014443289956491667 0.0005770936771887825 0.45985523742571904 -0.2758073491644767
96904000.0 0.6315796650638146 -0.7725806476995652 -0.3384630865201277 -1.1072632490800318 -0.0016084726348828586 0.005302148238066622 0.45910866293436026 -0.27353930273294186
97903000.0 0.6202656407443013 -0.7784477787707157 -0.3666195879295843 -1.1337636513164207 -0.0013802872136540708 0.0028199114322302894 0.44631110637793237 -0.2895357628147272
98902000.0 0.6156047690355586 -0.7860815649222901 -0.38491345970440194 -1.1768345531443183 -0.0020338166719010807 0.004153769058722116 0.4454477593538596 -0.29414065308220483
99901000.0 0.6038735540258248 -0.791994110642383 -0.4178402106265272 -1.2067225197896903 0.0018917842549299464 0.0009967929287586002 0.4494881665647895 -0.31595787452479174
100900000.0 0.5969026689383314 -0.7954389667091353 -0.4418233269323732 -1.238590827504955 -0.002402202841466197 0.0011937317815370958 0.4518470655443963 -0.3011242950143978
101899000.0 0.5871116035447198 -0.8045578235684168 -0.47345219079409523 -1.2725857643637508 0.0021531971795095413 0.0003756193268738381 0.44023130897993085 -0.3235372958312791
102898000.0 0.5773750291010519 -0.8094060672169189 -0.5109615483742964 -1.3112341169417236 0.0020930736338499287 -0.00033334803652977337 0.4504413607661297 -0.344447484177425
103897000.0 0.5693764930908055 -0.8166407974523535 -0.5438288834179724 -1.3505095744052915 0.000588754220418867 -0.0010915834084828204 0.4454461677051354 -0.33822371182223226
104896000.0 0.5625146483297058 -0.8283853252729115 -0.59628408684341 -1.3846999557526247 0.00011761283862229742 0.0019363921611737654 0.4373075302812112 -0.33803755324127466
105895000.0 0.5509619945557842 -0.8290486615151804 -0.6363568316674948 -1.4267353995517555 0.0012550100630697822 -0.0001710800505423745 0.4317916119544013 -0.35724295005894763
106894000.0 0.5446073005608644 -0.835467215703769 -0.6886183007475656 -1.4714885206825552 0.0046677580784884225 0.002478145835822836 0.42946946271926073 -0.3678188439240566
107893000.0 0.5354005812867734 -0.8401849341607984 -0.7441501218075346 -1.5022451597175583 0.0008481524607047644 -0.0016713102304851885 0.4283749061603996 -0.3827985148927159
108892000.0 0.5241227170748054 -0.84555945299377 -0.8009906266944825 -1.5421077846076714 -0.000757388660099706 0.0003700579016010494 0.41705150266205726 -0.37395576957886345
109891000.0 0.5139977435745046 -0.8517804623177957 -0.8573605920746685 -1.5770682957758595 0.0002400637405576237 0.0017493319599977252 0.4335140345173681 -0.3844118131190484
110890000.0 0.4963678688238333 -0.8558651120271733 -0.9242641890295127 -1.5724172313281284 -0.0034649545033541675 0.0016669076500471383 0.4186120422821281 -0.38259604396332414
111889000.0 0.49115762606989966 -0.8591495408654891 -0.9900046851305792 -1.648404752910978 0.0022017919774903532 -0.004146470366897504 0.4159878683882219 -0.4046495453930764
