! Created with skrf 1.9.0 (http://scikit-rf.org).
# Hz S RI R 50.0 
!freq ReS11 ImS11 ReS21 ImS21 ReS12 ImS12 ReS22 ImS22
1000000.0 0.9845416893908419 0.01720727786219995 -0.004447081734193184 -0.0532939529106099 -0.000519352504479017 -0.005643438079076652 0.31359642422077044 0.3031564195822787
1999000.0 0.9916157598446 -0.013685161994896684 0.00990243258257391 -0.02526551417560463 0.001056574533478893 0.0005462882494616365 0.27625254419643747 -0.047893022186487444
2998000.0 0.9989070592530894 -0.019093915791034095 0.003850233857554973 -0.015254755924449834 -0.003436292433531442 -0.0005078559820171056 0.20640239084327255 -0.1552017902995354
3997000.0 0.9992153642766765 -0.02628649341846093 0.012496924761673762 -0.007196958447195955 0.000707700746726229 0.0019868463699813676 0.0999072636861744 -0.22244600625767866
4996000.0 0.9992152563558 -0.03714515594129267 0.007765371723105515 -0.0034644345448129454 -0.006676012598900073 0.0013310656632290897 -0.030531148799280063 -0.20306586406640634
5995000.0 1.0007317390764119 -0.04670296004912464 0.011729631698213942 0.0005198628780512436 0.003307813964625282 0.003559486161741604 -0.12092023952307196 -0.116241866724872
6994000.0 0.9971618151325745 -0.055030705361182444 0.004179712617387798 -0.0037087878219910666 -0.00529815427408032 -0.004850778037278601 -0.13487661973478154 -0.023625637196891387
7993000.0 1.0008160842259164 -0.06646330912250288 0.007350446974392576 0.0033671384176987775 -0.0016091396191006788 0.005191587174144389 -0.15783566746839922 0.028931326222883542
8992000.0 0.9994816894392123 -0.07231784989439193 0.0015226578999003237 0.006519652400732047 -0.002351735374261502 -0.0012279813716612777 -0.17025202402457168 0.0546456008891536
9991000.0 0.997043248313213 -0.08173192971101655 0.0028282725113944 0.006083700854166879 0.00431109182765981 0.0005352011833327731 -0.15217837654015062 0.07894186295980182
10990000.0 0.9983310529984465 -0.09129136236804093 0.004640868194762392 0.0018237433356815458 0.0014548537775045682 -0.0026703483862935726 -0.14273066786557267 0.11760777519640266
11989000.0 0.9958169347501565 -0.09784202515178445 0.004692327444188124 0.0015486949484385044 0.0007646942472194581 0.0029324765752083114 -0.13577313988872186 0.14318302754781226
12988000.0 0.9937859487799493 -0.10893309143477081 -0.0015286420015963506 -0.005695169343588959 0.001022737067200152 0.0010511860120239575 -0.10948301746728284 0.16496769946646722
13987000.0 0.9925093383252576 -0.11773875597338158 -0.0005380939210908656 -0.004863044940475573 0.0003350567452752604 -0.003277211003409843 -0.10032316372340874 0.19023041300017232
14986000.0 0.992443833297331 -0.12547330883936825 -0.002086616631313365 -0.004954148337305461 0.00013816113612774187 0.0005224308570910524 -0.07855736600002171 0.20398519861278813
15985000.0 0.9914704943486378 -0.13462874376620945 -0.0017306167944797382 -0.005569199778753199 0.002980580016357011 0.003347406493644481 -0.06674679512070897 0.21293035758051063
16984000.0 0.989821315272901 -0.14447101267529192 -0.0029453205593997 -0.0037339818364953837 -0.0029653151399841897 0.0018564115040261267 -0.06209329897120344 0.2127259544389512
17983000.0 0.9888806093866145 -0.1524183651800459 0.0016743608228771685 -0.00551346673297428 0.0019223047329624617 -0.0003831670677799937 -0.04432461542741411 0.220764311058676
18982000.0 0.9874061566638048 -0.15901210778558278 8.611140794349252e-05 -0.0021840949695194115 0.0019694186946079694 -0.0027329783090666204 -0.012663162579670078 0.23133273902004542
19981000.0 0.9855230261358979 -0.16510555795896828 -0.0019418352635519787 -0.002611815466399956 -0.0025008288622551983 0.000508849588844651 -0.009693621826042827 0.22264423397690444
20980000.0 0.9831518006507424 -0.17908051289071888 -0.003826835674823903 -0.0045095415981222615 0.004695076709766269 -0.002730437245261344 -8.309210201486981e-05 0.2577373435380047
21979000.0 0.9831686399021278 -0.1841527714399115 -0.005098310944393559 -0.0016558375751192652 0.000740262566063512 8.353062838399064e-05 0.02111913026838928 0.2451603010030719
22978000.0 0.978707078258247 -0.19408095697467473 -0.006133703676586095 -0.0011365788352922196 0.003075278538261421 0.0018184796870761846 0.033568536698921195 0.2551698487914533
23977000.0 0.9822491332543893 -0.20222227663390804 -0.005737677932242169 -0.0016250481724740442 -0.0006344608918497911 -0.001658468843455664 0.04691612756413023 0.26038631413349334
24976000.0 0.9768952936145506 -0.2106184532222682 -0.004655414603474689 0.0011888660034901361 0.0012548400608368368 0.005176172614221728 0.07275801536207019 0.25394371412541944
25975000.0 0.9770075489056038 -0.2172507638340177 -0.005966233316002164 -0.000987013010829554 -0.016506650833909016 0.020767846847889907 0.07736798203225245 0.25617074727661054
26974000.0 0.9738882908870777 -0.2267683680808382 -0.0006961877365440402 0.0001275267432646427 0.0017871365710153526 -0.001060077583877467 0.0943288562167532 0.26236609983540005
27973000.0 0.9721619716988803 -0.23283664410600274 -0.005675128370298712 -0.0007390320221152075 -0.0012769654526252605 0.0022597622709704585 0.10816941402882005 0.24979468302720478
28972000.0 0.9695545480411831 -0.24235510232849894 -0.0037916658155319246 -0.0006337610163860075 -0.0007834463988228055 -4.762286386954883e-05 0.12709807738904524 0.2553709082374268
29971000.0 0.9672491091286182 -0.25269914849459774 -0.0002319071830135782 -0.001430938671728354 -0.0011636152549817217 0.0009560242332063672 0.14395717988200668 0.2674665073059047
30970000.0 0.9642866219402476 -0.2563747917328574 0.0021037434530053116 0.0005494912038907326 -0.0023805312014055337 0.0004579013840989427 0.16930188971184548 0.24722631164380163
31969000.0 0.9627590768870262 -0.26524667777682187 0.0018193722644469696 -0.006875314132798669 0.0008254777785169765 -8.600375689280956e-05 0.1463496011577009 0.2534969424706773
32968000.0 0.9622161011889142 -0.27385001532555237 0.011478922096048979 -0.00661598954542996 0.00016835579458757943 -0.00043174549483438124 0.1624236942301766 0.2449413890742479
33967000.0 0.9604113768236803 -0.2850255143625613 0.009981858579544015 -0.008744758643552352 -0.0003861201491024236 -0.0017535843871619417 0.18834333098031636 0.2460464738951546
34966000.0 0.9544173947300689 -0.2953613403843971 0.01248261033454494 -0.012373292956845071 -0.0007234365565946932 -0.0024782052728148677 0.20237638995069296 0.2531744608674521
35965000.0 0.9534094977737472 -0.30122018517159727 0.016383836271174127 -0.015617619508726643 -0.0011077415871411174 -0.0019872337779229896 0.21198774744460414 0.2422696770509317
36964000.0 0.9512187379939968 -0.30965383510318084 0.017282977963743767 -0.015443396684497466 0.0027710600374280456 -0.001931025944173014 0.2248019686556968 0.2384085642474345
37963000.0 0.9478151426924015 -0.31823823448476896 0.02000080868276932 -0.019988101514532574 7.693977117839617e-05 4.665367571388172e-05 0.2280436107646556 0.23387979395924363
38962000.0 0.9461483192867819 -0.32669340951234066 0.025401787584668083 -0.023864283668767486 -0.00025491999308622246 -0.0007811863893597482 0.24343558479801972 0.2365774391674873
39961000.0 0.9419735314536843 -0.33754196477723264 0.028449954927556066 -0.029093733831703838 0.0006285801389878443 -0.0016022742237828775 0.25551503659508745 0.2289006978447447
40960000.0 0.9381783295001217 -0.3414140202882139 0.026224419119057818 -0.024876345866666084 0.0010837440863286003 -0.0004994161931863918 0.2716111454866768 0.2322729903635274
41959000.0 0.9353807927436542 -0.35174549191461324 0.029017826979765505 -0.031489694266893 -0.0024517482734127028 0.0008941635071723918 0.275618546129474 0.21261098912679705
42958000.0 0.9283784631635397 -0.36218464891696356 0.03137557409298057 -0.04379998989378749 0.0016858853451931837 -0.00046331808025141814 0.2899812533783031 0.19844285012604604
43957000.0 0.9310630231564504 -0.3652055614797933 0.03663234157304115 -0.04640992419651254 -0.002489591388115012 0.0007012131535051 0.3016229457951563 0.20198653898181482
44956000.0 0.9277642315049813 -0.37287404209058506 0.03408632876435356 -0.05208169606126901 -0.00017585062877496294 -0.00039159451402752084 0.31357884415225457 0.19202513935715823
45955000.0 0.9225886220734126 -0.3856013188588465 0.036540350178640255 -0.05868773758905982 -0.0004367832701697089 0.00028184863002302335 0.3193624402101829 0.18496559048914293
46954000.0 0.9188583663799469 -0.3936359639255227 0.035953041695155924 -0.06427582121160633 -0.0014424146378671327 0.0006242047244635598 0.33227312452117175 0.18088215987470382
47953000.0 0.9157946691077941 -0.3988792452807565 0.033468087615594555 -0.0749724340645606 -0.002711528871481827 -0.0008552858540186951 0.3440298022769242 0.16673123507699586
48952000.0 0.9102133576868553 -0.41002458665965497 0.038175764590811435 -0.07898828303797309 -0.0016484443281485133 3.703772293211631e-05 0.3343341945325502 0.15950143846458217
49951000.0 0.9073425145085909 -0.41832258273158934 0.0414087764224311 -0.08966636694099475 -0.0016546969585121377 -0.0011711823474125117 0.3577042890417165 0.14740449064109315
50950000.0 0.904667521260568 -0.42385928917302196 0.03949409113964771 -0.09592206051197608 0.0013765369464869793 -0.0017217628199482945 0.35675873274476216 0.13577966423714324
51949000.0 0.9010239818160428 -0.4348294961871414 0.04046241044440639 -0.10492938001302778 -0.0023478064210619063 -0.0022633429828950993 0.37174597862655945 0.1407640898062486
52948000.0 0.897827451453929 -0.4414895151243605 0.04427972665221863 -0.1127844490676565 -0.0021458531703897592 1.648648210560766e-05 0.38587231089426716 0.12793193693960103
53947000.0 0.8929398830514783 -0.4487592169170592 0.04428450906156822 -0.11879553687856241 -0.0011786896654590589 -0.0018974005794612828 0.37830637499501124 0.1195433129670329
54946000.0 0.8893492692213104 -0.45624066526398216 0.04418680653020987 -0.13075020963620593 0.0007065667168143994 0.0014904633628258432 0.3965059784192365 0.11072757692017793
55945000.0 0.8858620785346225 -0.46806919180749157 0.045959974781415495 -0.14351310261123076 0.0019072554495551735 0.002023454233394492 0.3838627956546099 0.10433324708470064
56944000.0 0.8813678235354184 -0.4750681577894268 0.049890409929818684 -0.15457808158676525 0.0013477634796865707 1.85554723991829e-05 0.4059567967612884 0.0930137469041753
57943000.0 0.8758272645312675 -0.4840077492640766 0.04784290845162655 -0.16576334711611995 0.0011184248647513368 -0.0005153019104388748 0.4043587868120667 0.07986734655235277
58942000.0 0.8718466911315212 -0.4887592655531124 0.051037870097240014 -0.17655323416110863 -0.0003384657783578824 -0.000947212501759026 0.42736433463706686 0.07968279854182525
59941000.0 0.8672368461876083 -0.4980373927724408 0.053436268966448805 -0.18596111400331883 -0.002234957536214767 0.001029563116189006 0.42838640379801335 0.0771959294150635
60940000.0 0.8598947802462552 -0.5067276383524432 0.05418524831612467 -0.19085936325265762 -6.48551519302176e-05 0.00131602535412014 0.41224613772879654 0.07322071564782812
61939000.0 0.8568723883188841 -0.5119677597209531 0.054880895251641075 -0.1962854001515864 -0.0012925400362002897 0.0007614112551994185 0.4222496549557629 0.058619586009278475
62938000.0 0.8514929312681743 -0.5231208035677154 0.05400449625530573 -0.21747092724033404 0.0028357892152621415 0.00026635818944408023 0.44679196988675424 0.050095196563280424
63937000.0 0.8468830108529516 -0.5290297186412495 0.057622166067772616 -0.23545018001426127 0.0024367284516743906 -0.0033879044197852645 0.450820971699094 0.032811880555579195
64936000.0 0.8398942144543345 -0.5351113175126614 0.057148345833667236 -0.25108465348675846 0.001204044460606791 -0.004227243775370791 0.4404921529398878 0.036290502802007
65935000.0 0.837879658326452 -0.5457876152898196 0.0562364551876432 -0.26598764905628264 -0.0025163038610751813 0.00490798790773145 0.44868577763952927 0.0037977051822001254
66934000.0 0.8327429259383827 -0.5531384258615389 0.0557805511205481 -0.2808400504835055 0.0043929327076839475 0.0009465961582879925 0.43859700674619184 0.0005898455484245016
67933000.0 0.8295779133613009 -0.5581711167626913 0.05648617571927104 -0.29504654430982863 0.002712899101844091 -0.003184063584056311 0.45132859916539747 -0.0019180144524892665
68932000.0 0.8258680788645579 -0.5600246331274762 0.05191228193849048 -0.3075249427496714 0.0013441114678973231 -0.00023476134135735238 0.4572041293789465 -0.01438638866705426
69931000.0 0.8158634250505307 -0.5753229937807258 0.05298372830925067 -0.3253032636807407 -0.0014667510232609896 0.003228596907382964 0.4550375797492979 -0.02872228123445823
70930000.0 0.811154619996826 -0.58207573754865 0.04995250033003203 -0.3414821398545144 0.00315556126564783 -0.0014079571259250276 0.4545903505632399 -0.03566495549528532
71929000.0 0.8068013830872532 -0.5917062582620662 0.04615148410988868 -0.35753017633483003 -0.0012269769033066364 0.0015309604438234375 0.46092214969798795 -0.04421124724304428
72928000.0 0.8004094928728429 -0.5985008264848416 0.03793184805660105 -0.3721101147154844 0.0010435603668682376 0.0004747815888235654 0.4681981343414031 -0.06207321389810135
73927000.0 0.7942042534289891 -0.6063728325306982 0.029582846184334648 -0.3951148286938253 0.0033621120456748216 -0.0009410233941450489 0.46767051968625656 -0.06262513215664103
74926000.0 0.7901281230766072 -0.6145504339177035 0.027809671742943763 -0.41109185431758705 -0.00044731749154258807 0.0027148271810899945 0.465179246045298 -0.07243027743097567
75925000.0 0.7850946906804841 -0.6211309053760848 0.016605985442731595 -0.436226240420869 -0.00455756237654762 -0.003949433287546152 0.4792042063726726 -0.09148707080094427
76924000.0 0.7782468678162653 -0.6289527020882989 0.0037117842317793263 -0.45611455539850587 -0.0013392988541927188 -0.0013214327799998267 0.4821329965732163 -0.09193450400872893
77923000.0 0.7714395398548807 -0.6359209316483377 -0.009040283545416658 -0.48123884245832493 0.0006165613494560209 -0.0006716972559583451 0.4629563330735763 -0.10073796538082305
78922000.0 0.7665036355956714 -0.6473753549677485 -0.022172879251067895 -0.5097061077150317 0.006296556452329356 -0.0033762184824340895 0.4728446230990296 -0.10764455877719366
79921000.0 0.7552275314606275 -0.6511337444956198 -0.04145637319358502 -0.5358811817470681 0.0034026095076995456 0.002087299348299772 0.4597528401542389 -0.13133391423052476
80920000.0 0.7537621196095731 -0.6583562706025391 -0.057875962498752834 -0.5615702884678311 0.005299272903964015 -0.0017289275224290932 0.4747633694893548 -0.12808022955989096
81919000.0 0.747196005932008 -0.6665980343274758 -0.07418495859405928 -0.5899549693013847 0.0029168391788038763 0.0009081512540429196 0.4738731481915717 -0.1491456118865343
82918000.0 0.7384795582954706 -0.6737255376633179 -0.08527211381560133 -0.6248892240216815 0.000957413201750348 0.00028926143923472977 0.4785127191196288 -0.16314447948594296
83917000.0 0.7317991031158646 -0.6822552981104771 -0.10996578290953964 -0.6507640327630991 -0.00036268854678912787 -0.0008146637211156458 0.4757412624022511 -0.15317157812372523
84916000.0 0.7242007126361505 -0.690775340100739 -0.12965235151906665 -0.6860027523994174 -0.000436209108511834 -0.0017206784492682853 0.4819683623722501 -0.18012588689639086
85915000.0 0.7185209225758528 -0.6955293921199488 -0.1396394294302345 -0.7169929271990056 0.002343221735510059 -0.0012831415813670866 0.4790749943539735 -0.18176575496154446
86914000.0 0.7118407252191419 -0.7053020457934929 -0.16590041572340616 -0.7559909871888693 -2.011474809753303e-06 0.0016717532917775546 0.4630638873765033 -0.18481833855372998
87913000.0 0.7030357972175963 -0.7118157603478718 -0.18182131136980936 -0.7848610984427518 0.0012085555355090248 -0.0014095155798324811 0.47128611665948084 -0.19144914994856008
88912000.0 0.6975907530752049 -0.7184988874570151 -0.2000206487642419 -0.8210613242127117 0.00557257979468049 0.000861705313407513 0.4713439589292985 -0.21741732587320586
89911000.0 0.6895580202683451 -0.7272689465263869 -0.21760604706572556 -0.8532984981947578 -0.0010819723340855462 0.0029981327204315817 0.462979788505457 -0.22284356679842088
90910000.0 0.6831641501156025 -0.7311518080992663 -0.23405890264596327 -0.8878400989717503 0.0026090271820733966 0.001566729916514697 0.46417262229053313 -0.22258159927750107
91909000.0 0.6735015413893365 -0.7371439127084939 -0.2551100651937997 -0.9208241336964488 -0.0011837887466737765 -0.0014443361591224288 0.47331207050699486 -0.23328610053190382
92908000.0 0.6659802753052217 -0.7446059861916106 -0.2733405273236379 -0.956924930421627 -0.0010127302724143152 0.0014846194673853725 0.45567398666205705 -0.24124617828995218
93907000.0 0.6603682463795543 -0.7496048505816864 -0.2896018270460933 -0.9917725905612459 -0.0030103977530025975 -0.0005171522079358376 0.45972416242180153 -0.2581489988564222
94906000.0 0.6480127479542479 -0.7603011077709834 -0.3113175702389367 -1.0242082853865833 0.000706501529343422 0.0012139445688104569 0.4621927496639557 -0.25610519269642296
95905000.0 0.6402509623564183 -0.7648928738925996 -0.33833914626385736 -1.0551061600281955 -0.0007085162261829059 0.002769931861930097 0.45653962741324816 -0.27277548830929177
96904000.0 0.635022308598763 -0.7735248084333801 -0.3553565749850122 -1.0979053659600728 0.0006469939783695133 0.002574414368678358 0.4530918066917563 -0.2849385001588942
97903000.0 0.6230380579747569 -0.7793207070038902 -0.3815695166654369 -1.127620512396216 0.0007022393496019294 -0.007031160876222337 0.4492926864609708 -0.2979421796618998
98902000.0 0.6193622787646467 -0.786748517421205 -0.39893856599675603 -1.173907857142311 -0.004041695851192273 0.0018111609480538097 0.4468974463142212 -0.3005285761967201
99901000.0 0.6089444751861974 -0.7906719988523727 -0.4317032588763333 -1.2014555356219194 -0.0009873500270393505 -0.0005985662997783904 0.4590542290638279 -0.3253796591362383
100900000.0 0.6012124682869667 -0.7949368725202606 -0.460083642984145 -1.2360168254285369 0.0031912157687375166 0.0028770277554902076 0.4592789903491342 -0.3167241974082181
101899000.0 0.5939595491033769 -0.8025190465757888 -0.49060774215940106 -1.2745891747940803 -0.00014319607492458016 0.003654973493111981 0.43068780884766683 -0.3354828736835839
102898000.0 0.5830371264922788 -0.8086792569719014 -0.5264522389985477 -1.3130777459672434 -0.000579052930073975 -0.0003240565433111083 0.4527124311186965 -0.3494937339189352
103897000.0 0.5740473940356531 -0.8155734674361813 -0.5696607076376554 -1.3511226212904457 -0.0013798985861030167 -0.00037919604263084833 0.46206202934781543 -0.3453743147948014
104896000.0 0.5656894519127774 -0.825407922006823 -0.6166687765724397 -1.3813501131218147 0.005061298461321161 0.0009674442704383804 0.4417941355882724 -0.3498894323251436
105895000.0 0.5557549685676219 -0.8287875233872682 -0.6686835539072651 -1.4226699754370125 -0.0018992924858849973 -0.00043356440399298023 0.43610035774109956 -0.3651012424781447
106894000.0 0.546735866062459 -0.8344422733125 -0.7198492510417035 -1.4583550775801133 0.0031656558723483753 0.0009995651357576686 0.42172681090332576 -0.38726425417576377
107893000.0 0.5395485244284236 -0.8409080279953991 -0.777645062309178 -1.499022285721982 0.00040620752757981627 -0.00029576866849362674 0.4269018401038612 -0.3964550801048428
108892000.0 0.5288105714601836 -0.8445525933901062 -0.831560207117062 -1.5350997280448684 0.003231867486206209 -0.00020356913254263796 0.41473364007377517 -0.3878625362060073
109891000.0 0.5164123332330034 -0.8521974308790454 -0.8870855230212338 -1.5686413708193927 -0.0005022941228826571 -0.0009506999759627335 0.4248781545576124 -0.3872521944879301
110890000.0 0.509642467976928 -0.8546396866623887 -0.9483118477970552 -1.5825972218880378 0.0013665432356347095 0.0018682607971428984 0.4176749718960557 -0.38877581128026617
111889000.0 0.49914517871792896 -0.8592151434184845 -1.0218066711709455 -1.6329299384084277 -6.93318710186952e-05 0.0021691520515595597 0.40792876069142064 -0.4219280298211552
