! Created with skrf 1.9.0 (http://scikit-rf.org).
# Hz S RI R 50.0 
!freq ReS11 ImS11 ReS21 ImS21 ReS12 ImS12 ReS22 ImS22
1000000.0 0.9766407544101817 -0.0028149045569316037 -0.019390677954732528 -0.034452294098011094 -0.016657618419923127 0.009423296263231767 0.40683113721340486 0.3241005234347019
1999000.0 0.9987289150122846 -0.019638549502059493 0.01356292485469723 -0.027587273242309324 -0.006616043431360161 0.004154920701813219 0.26255364076412274 -0.05280247307147624
2998000.0 1.001166132223429 -0.02068474760951146 0.014949903564079076 -0.019884428768881836 0.0008742654572484993 -0.004206272490000864 0.18378576308956118 -0.1606238752352454
3997000.0 0.9954772715792564 -0.030668055403129724 0.016747232672440264 -0.007519935414293752 -0.004564499188666046 4.8710335980901486e-05 0.07714410791810228 -0.2331773005751636
4996000.0 0.9957130998555688 -0.037350672869764165 0.009525318648314166 -0.004959404675500717 0.006032131490634814 -0.002586017803997455 -0.060036098735258656 -0.18016756038937828
5995000.0 0.9987316074626976 -0.04863910682502276 0.010839754888089324 0.002320775182680049 0.003154430870082894 -0.0023760911502650893 -0.1262460465419123 -0.09390279387844279
6994000.0 0.9948843268939095 -0.0593165599040645 0.004856894065838207 0.005537448496467087 0.0034882055941399446 -0.00477727725001499 -0.14680421179964834 -0.019926657074732526
7993000.0 0.9962862572632678 -0.06870562548030382 0.006536478536055612 0.0014495522735604538 0.0004819440698561487 0.0015696599238862192 -0.16036606619283086 0.054855367947417834
8992000.0 0.9965711048717064 -0.07160043887872823 0.0014461452412471013 0.0026827953389735796 -0.0017697087343707082 0.0031347374747643588 -0.1430667908843298 0.07098858859858709
9991000.0 0.9921521180435195 -0.08197229479768198 0.0034589283367676004 0.003961476833846959 0.0017393058212903808 -0.00012213601907051672 -0.1325803613015367 0.0951196252833451
10990000.0 0.992691788663057 -0.09054235970075399 -0.0007965273998054441 0.0038833650352269457 0.0034658088506721763 -0.0021230380967854554 -0.13633937202397398 0.1319094473876243
11989000.0 0.9924551690974145 -0.09709934305556607 -0.0004653119143373916 0.002829249183392066 0.00462834275217655 0.001417714193790411 -0.1116287278131817 0.1460855296626281
12988000.0 0.9883816345214659 -0.11101205208748967 0.0053552299488710264 0.0032266635600283495 0.0002791260554936774 0.001413368069638458 -0.10665368699074174 0.16839728341419552
13987000.0 0.9867329167290416 -0.11849268139593365 -0.0011974331113335298 -0.005451949050420603 -0.003874174242110295 0.0013774354287113154 -0.08747467327636313 0.20149376852338022
14986000.0 0.9875751309341588 -0.12490145719878151 -0.0004633074303443892 -0.0031824618026370212 0.00016780229172084132 0.0015218019554584736 -0.07375388059840628 0.1983752914873121
15985000.0 0.9878157002553289 -0.13136624102513553 -0.004137660535351001 -0.005690127708250392 -0.0023534765615793774 -0.003140800979908869 -0.06902831351269088 0.20948189974590564
16984000.0 0.9857902110516604 -0.14173008568657144 -0.004134108795884966 -0.0013745247807102497 9.936160381515932e-05 0.00137360663866599 -0.05578793181529452 0.22191541184780758
17983000.0 0.9861381618306916 -0.14503853703821137 -0.00160241189264155 -0.005426764092691052 -0.0034850225233580443 -0.0064827007294326906 -0.04715017781249296 0.22492375546484702
18982000.0 0.9833554459086367 -0.15788850314961653 -0.004769869982495654 -0.002208283261288486 0.00022596536291457053 -0.001837961994468843 -0.019225925027015443 0.2413299630077989
19981000.0 0.9836919948522603 -0.16423861826190686 -0.0061169720727349795 -0.009413498381870597 0.001976623532265872 0.0018629637096016624 -0.018078355451063875 0.2551601418408153
20980000.0 0.983723980008462 -0.17304631536473422 -0.011169058611851586 -0.0035862857409057537 0.001365653105676061 0.006917110051130987 -0.005977195313313817 0.2723822982269123
21979000.0 0.9775119160582033 -0.18251246160528387 -0.004791901215381938 -0.0034222338155101423 0.0027391493664740887 -0.0011348542637028768 0.014301676918540182 0.24373116696015243
22978000.0 0.9754949490023814 -0.19196146419487756 -0.00825514738169948 -0.0004213516370790941 0.0006921969071457016 -0.0029071265671963657 0.03204890881950732 0.2611780610170749
23977000.0 0.9774437613470339 -0.19784957428501668 -0.0063552879918409655 -0.004334470769409113 -0.0025624108751365546 -0.0007951876743655651 0.049723774423776505 0.24507296742673068
24976000.0 0.9738235616589984 -0.20930154935590622 -0.008832410351947975 0.001237373826942461 0.000640674105771167 -0.0036018669270664783 0.07183770965838168 0.26100421424239123
25975000.0 0.9693174207129931 -0.21439432735105268 -0.007747335269571167 -0.0011420718457170976 -0.02727831759035416 -0.004272117432360066 0.08832811955893925 0.2615573842874097
26974000.0 0.9718809381453305 -0.2245579366817218 -0.00613208036138221 -0.0016488496797921373 -0.004665133892610913 -0.0030543073802439965 0.09470090985669573 0.2601708517653621
27973000.0 0.9700147748214408 -0.2300020345086306 -0.0032261659675287637 -0.00013599197311609432 -0.0011189124603763455 0.00027010851075734925 0.1141431303247317 0.2564046178692406
28972000.0 0.9666383824424295 -0.24303232252950124 -0.0005116342082628518 -0.003651055713663001 -0.001269301385907059 -0.0017732601881659724 0.11977157811827416 0.25555445505813074
29971000.0 0.9662215392491135 -0.24897118213976907 0.0009869521127390693 -0.002628367218457285 -0.002238226179501556 0.0002049585695180131 0.15593802914496327 0.2546674716024498
30970000.0 0.9635604776599074 -0.2534619449321949 0.001169792405270519 0.000728911325591401 -0.00015934885068508232 0.001069688290132384 0.17308788306767195 0.2534062844843275
31969000.0 0.9623363854605009 -0.2628783161156852 0.005249946303682855 -0.004680425091361544 0.0008786794035344623 -0.0013219520753663203 0.15606265804960057 0.24995344380202775
32968000.0 0.9588927442390948 -0.2760192577241993 0.006748921259786671 -0.008211472611450365 -0.0002261409434018786 -0.0021203317375746438 0.16590093668288283 0.24472309128429645
33967000.0 0.9578003549478025 -0.2818847898022589 0.008568265782950687 -0.011500331525009028 0.0037678241086654468 0.001154668635176097 0.1858134680581095 0.24956681387800325
34966000.0 0.9534207683845479 -0.2909931018461058 0.013750234549348721 -0.016838404938648337 -0.0042096944412961445 0.00023368786277712318 0.20816385491044054 0.24812266323297646
35965000.0 0.950565565928779 -0.2984930801752364 0.01550660839095624 -0.01590813941539128 -0.0002050063980397568 0.0005855349168203079 0.21390445830913754 0.25612980015506676
36964000.0 0.9480536739825433 -0.3082098327474342 0.01838236798499039 -0.014878207175409284 -0.0009680873660604086 -0.0006889424070988956 0.21941431758870025 0.25500266262548116
37963000.0 0.9474150644602939 -0.315460725095371 0.02258610971852823 -0.019080943615099457 0.000866519999645087 0.00011512565185951517 0.22893573947304277 0.23510039642019126
38962000.0 0.944472501615494 -0.32498011352722916 0.022337457655295524 -0.02580895776330147 -0.0012097319445387512 -8.69890856299916e-05 0.2546173904636764 0.23353505407426045
39961000.0 0.9409679164170593 -0.33363594808524144 0.02379844926874105 -0.02878410888759905 -0.0022239297053194378 0.00152341883262542 0.2608968242650706 0.22905658714911667
40960000.0 0.9369299207952563 -0.3403069264775475 0.023203622832718707 -0.027266533986132803 0.0016715753196859678 -0.0026241923114582806 0.26786812846903973 0.2234691884231337
41959000.0 0.9346591001281668 -0.35056454451157154 0.027280507761187154 -0.030193986930046313 0.00024672737057004424 -0.00044350130304723125 0.27617575264664873 0.2190431895199143
42958000.0 0.9303058887544726 -0.3584735953480405 0.030510144080995585 -0.04032644051248375 -0.00024247283716761245 0.0004784418904965247 0.28374172130734027 0.20727282405213585
43957000.0 0.9291323420003087 -0.36306138418457734 0.03237356165765998 -0.0476164009026059 0.0014092481157851322 0.0023205537475904443 0.2912918703359755 0.21690795891614784
44956000.0 0.9248459050380754 -0.371459814516057 0.03467107095133249 -0.05103308105814961 0.0015028330647200796 -0.00034717991068760457 0.31535104283019094 0.20085110269528286
45955000.0 0.9207225654295766 -0.38379801810689324 0.03172731760534798 -0.0588549387207172 0.003784689787575005 0.0031755892877740758 0.31822921810849264 0.1881348256757835
46954000.0 0.9173705244192669 -0.3912706057496769 0.03726194580175348 -0.063844193895821 0.0023505820842832058 0.0008611860130092808 0.32977960348414204 0.18283083758994828
47953000.0 0.914273875482057 -0.3996250171948949 0.03563240536900782 -0.07006273156214153 0.0011364199184948018 -0.0009593718459743689 0.34184998757959184 0.1695590448098623
48952000.0 0.9103771384982261 -0.4076907225149742 0.030870281465139388 -0.08060384758033 -0.0006869458586878246 -0.004269604587163505 0.3442654288913978 0.1625878623028851
49951000.0 0.9075900972758786 -0.41349166482985034 0.03695328117198782 -0.08899199514200144 0.002761358107285649 0.00107512175696933 0.36120923221145673 0.15672917435566985
50950000.0 0.9027091365168536 -0.42246500469861015 0.03588228687684705 -0.09588700031780976 0.0025264977660742014 0.00038869547893829694 0.35572173512808114 0.14596702743588108
51949000.0 0.8996563012794977 -0.43168195683870497 0.03703621236753976 -0.10505690643411549 0.00040452409269519903 0.0006715187161301806 0.3721265310843815 0.145160487971434
52948000.0 0.8972337348554469 -0.4390047731657888 0.04022804452531353 -0.11294468321669415 0.0007628027546436651 0.0014162319981051964 0.3720728041867605 0.14368003500347779
53947000.0 0.8900887728043153 -0.44777824782553693 0.039673193513542745 -0.12383752169870405 0.0005284280244419865 -0.0012291221709286428 0.3714306559986537 0.12969879662282835
54946000.0 0.8877249933038598 -0.45473506513646156 0.042954999255169164 -0.13055080921705703 0.0010465205120103033 -0.0002106839745156059 0.3951489006340711 0.1243709188383082
55945000.0 0.8829744877853788 -0.4657972664863416 0.041764832570836255 -0.14234581287726736 -0.002372250783596544 0.00026307865881059346 0.39711121647836284 0.09922465439035225
56944000.0 0.8792074638119375 -0.47264012445663217 0.04520181535859834 -0.15312952439192512 0.0024172370445358017 0.0011855604324638295 0.4021983122233474 0.10330303925195405
57943000.0 0.8747325990241976 -0.48256303461140926 0.046305609353311676 -0.16524149513296743 0.0006878347464057882 -0.0024218434900366466 0.4005537934938464 0.0877100057734524
58942000.0 0.8683495899581802 -0.4874712782148916 0.0447952523569248 -0.1756219297220009 0.003156224615790217 -0.0033978653511844603 0.43045239313718153 0.09734702712786517
59941000.0 0.8658519865096144 -0.4959413880796345 0.04591852167716005 -0.18344814943246002 0.0012647281965705221 -0.0007679710684840115 0.419724588362743 0.08503069749429293
60940000.0 0.8588800341077045 -0.5037352922370519 0.046615036124510394 -0.1839655391568502 0.00035168193248166004 4.124101656670354e-05 0.415566085492568 0.07856642913957351
61939000.0 0.8563386433543476 -0.5102244988934141 0.046733905559221474 -0.19533564096547198 -0.0016062114524765176 0.0009793045273219544 0.4186275236250708 0.07655827286153215
62938000.0 0.851015049320553 -0.5208421515881149 0.05223148488211609 -0.2112078392830609 -0.0050717033273527815 0.000360687210457652 0.4482723027373536 0.05268400952319783
63937000.0 0.8439408035874676 -0.5275457949885863 0.05457876675720126 -0.23395533752208567 -0.00141342687323048 0.002635451484078185 0.44069291453437315 0.03676501195701857
64936000.0 0.8383310427030103 -0.5352960851393215 0.05213807614473867 -0.24469320663223457 -0.0017393362727184457 -0.000283469343060065 0.44499191376880814 0.036378533719950694
65935000.0 0.8371336269600596 -0.5438855211280181 0.05243803473749043 -0.26152399915470426 0.0014174141485002142 -0.001026138247621349 0.44417420329176327 0.021246373866789774
66934000.0 0.8316911834824577 -0.5494554098683067 0.05186333858965916 -0.27133508597027106 -0.002291168084060999 0.0007847180720515172 0.4441654008562228 0.014095471400097296
67933000.0 0.8282615124313967 -0.5574420841216201 0.055473350102914896 -0.2882342065972036 0.0037571520841464838 0.0015000388028960233 0.4526824334883567 0.010359162131154781
68932000.0 0.8169067185327948 -0.5660372862859664 0.047266462785677005 -0.3000772241567497 -0.0005328834568951264 -0.0017043306090437677 0.47200041932916953 -0.00942338829339632
69931000.0 0.8132875750556656 -0.574697344674634 0.047680692966254414 -0.31838855951057315 -0.003359719962942023 0.0016721137433227601 0.4577193234909953 -0.015524831986066814
70930000.0 0.8072045713610209 -0.5815324358140916 0.04358437630569913 -0.3321827027048416 -0.006400607396281245 0.003424016034727323 0.4542943521677887 -0.022435657851045454
71929000.0 0.8061085931383674 -0.5882712554837962 0.04604901724454297 -0.3489106447616234 -0.0031108805837684215 -0.0024706795399510326 0.4626051767195313 -0.03995597705952421
72928000.0 0.7975564322208728 -0.5990070575745432 0.037219234899452065 -0.36210196638883285 -0.0029112842014709086 0.00015698982854279154 0.465519905351128 -0.04997132763332221
73927000.0 0.7931796340259171 -0.6046168746499823 0.02982300104505275 -0.3812802848643644 -0.002808683956063834 -0.004170309220783227 0.4658056357539422 -0.05376320999443515
74926000.0 0.7867660571106941 -0.6121030348000994 0.019784944018090438 -0.39954955209803095 -0.004011519155291539 0.0017750682803850265 0.4667626919418757 -0.05111814245269131
75925000.0 0.7815104480197703 -0.6186765847879955 0.015567131184642187 -0.426205067150216 -0.0008079014451525651 -0.003311277890742545 0.4813251141176087 -0.07243646728458632
76924000.0 0.7749861701077296 -0.6270803411579358 0.0025396998964513327 -0.44404203455690544 -0.006013124174580665 -0.001920241014579577 0.4732537246608975 -0.07278419742353019
77923000.0 0.7708599335678421 -0.6328426151356924 -0.01284654842232224 -0.4680364595409561 0.002199162532037429 0.0032563672929635445 0.46986338354421187 -0.09585708648495879
78922000.0 0.7654059091830364 -0.6414216823429727 -0.025743909749149488 -0.49298788734347987 -0.003111562764923927 -0.006955637450150703 0.4688785128513045 -0.10467488716186478
79921000.0 0.756214151166886 -0.6481125707907125 -0.04665443830980004 -0.5165311970057928 -0.0011367041797356063 -0.0004717495888080901 0.47108358208732 -0.10678805608203223
80920000.0 0.7541441329500056 -0.6579950811678491 -0.05991232837438574 -0.5459495017325043 -0.0006686851206999349 0.004438882618149585 0.48206698114037655 -0.12699244931964979
81919000.0 0.7458789717716104 -0.6630462739160256 -0.07804263456295406 -0.5711636753299996 0.0012242239744704785 -0.0027389042538270127 0.4743733723591143 -0.13534810889569546
82918000.0 0.7384520158050292 -0.6717365161925387 -0.09119962324216734 -0.6028511968641074 -0.0031545068993819652 0.004782984561824508 0.48151064191814824 -0.1418179747583952
83917000.0 0.7292686578204821 -0.6780303536603007 -0.11288373638131284 -0.6318916393659552 -0.0020025152328890625 0.0012972919909362206 0.4817630079711514 -0.1503051552129478
84916000.0 0.7236462039960813 -0.6853682842319608 -0.13044337038065076 -0.6653265693580381 0.00188086988192469 0.0010031926352787898 0.4809171846154049 -0.1656078615029872
85915000.0 0.7169915584810436 -0.6918905451232329 -0.14804014862507064 -0.6947134888082043 0.0014976238630349502 -0.00019421166333995768 0.4812862310455617 -0.16657447113515983
86914000.0 0.7096883895058193 -0.702783456510351 -0.16559150557174865 -0.7310590979801027 0.0015590036592623225 0.001444229289312015 0.468467361034374 -0.16776630441030016
87913000.0 0.7033001567222904 -0.7093931677175936 -0.18086221314840323 -0.7604208034240394 -0.0005546473976449836 -0.0036671431729359367 0.46957422348099204 -0.1845462564432651
88912000.0 0.6977247467771733 -0.7138714564539818 -0.20007321084397736 -0.7988002346116213 0.0010411600669279516 -0.0014644911568905369 0.4693055915848803 -0.1939085462458154
89911000.0 0.6882524361734633 -0.7246993708471761 -0.21672153457313165 -0.8308919590231132 -0.0006443035020052264 -0.0017393208722199024 0.4822817970581378 -0.20253772106788703
90910000.0 0.6838613046611177 -0.7273163238352304 -0.23126497089088435 -0.8679190179180535 0.0024691357547111012 -0.00032225231027292934 0.47541456472263494 -0.21169253548150335
91909000.0 0.6732066993243412 -0.7322640196608228 -0.25447485330339115 -0.8996862447087971 -0.0013428440612038202 0.00028661314326044264 0.47668156833158004 -0.21440977436895262
92908000.0 0.6662773882722732 -0.7431800097244802 -0.2662844490632694 -0.9293581798408357 0.0020932676193446526 0.0002920295694414702 0.4536638050425171 -0.22923001755299205
93907000.0 0.6607414944968778 -0.7474420776294524 -0.29097233705095554 -0.9633702943983196 0.0037022249696049892 0.0015438416239152697 0.4724596938172546 -0.25405169802838556
94906000.0 0.6484976245504995 -0.7549714905533581 -0.3028297994636206 -0.9992584240389586 -0.004014412683344788 0.001731803539175416 0.47327253859651336 -0.2408074730555755
95905000.0 0.6404443419531869 -0.7612649646694307 -0.32627254480463314 -1.0281862524833276 -0.00025520738008916687 -0.005965602504070483 0.47323075611128795 -0.2706254313831918
96904000.0 0.6333747809491035 -0.7690053379285967 -0.34323850766222597 -1.067429595758806 -0.0005490785006377905 -0.00270750628577541 0.46798079666725784 -0.27287299347622995
97903000.0 0.6232543575488746 -0.7752725865147946 -0.3708200267489669 -1.0994426630188112 -0.00021149901105224332 0.0017826329855651956 0.460537031383584 -0.28472959160121686
98902000.0 0.6197057055929652 -0.7817277645878551 -0.3830569236156599 -1.1422614017439732 -0.004472896979631711 0.0020385863587548876 0.46313020977154684 -0.2958097187567762
99901000.0 0.6101855924851545 -0.788163341073753 -0.41476679939117134 -1.1719627849175942 -0.00322969655027992 0.00046009893784487716 0.4662207233335083 -0.3060263158363679
100900000.0 0.6032670944265878 -0.7913752009427023 -0.44492016372823473 -1.202232475192731 -0.0025387261512325957 -0.0032646228250515757 0.46831113346244163 -0.3154249530968075
101899000.0 0.5934819743973643 -0.7991788849928445 -0.46863658137995606 -1.2399147128659727 -0.0020011709891403434 -0.0010524424317268184 0.4607193201155588 -0.3140593652181976
102898000.0 0.5843074269309243 -0.8041636145153315 -0.5052599149598075 -1.2760910074406169 -0.0016126169874404927 -0.0005449809035547479 0.45535732683954094 -0.33595397473991506
103897000.0 0.5748603715791383 -0.8127786041991356 -0.5392677465447577 -1.3089942814227797 -0.0010969088846664895 0.0009792007238762226 0.4685045112409695 -0.3279833566827139
104896000.0 0.5665385318674064 -0.8208579216518067 -0.5884542895263024 -1.3386527063888136 0.00017398383650567747 -0.002506431536646723 0.4451066695090019 -0.3420640451766367
105895000.0 0.5562505116335573 -0.8249662929480244 -0.6316140364956048 -1.3825697555514982 0.0032407888666445123 0.0002272971920460457 0.44059558504034124 -0.36307736364576554
106894000.0 0.5488759714318171 -0.8307632699137457 -0.6813205186514697 -1.4185010778259888 -0.0006705062830221186 -0.0010574272535119674 0.4387013879389973 -0.3564555181020451
107893000.0 0.5420705992912483 -0.8371997179508764 -0.7309973451299294 -1.4583953795394426 5.205307977831159e-05 0.002674698184891445 0.4331846846314421 -0.37402908782708066
108892000.0 0.5303441860942809 -0.8408846491219795 -0.7928878318927507 -1.4926915203073319 0.001365922211580501 0.0017161168820657388 0.4293798317539937 -0.38147765137804873
109891000.0 0.5184924667421524 -0.8497280292138409 -0.8506325301016542 -1.5305906333337007 0.001665062400832264 0.002522955775243533 0.4475295612497666 -0.385510507987255
110890000.0 0.5133986771347394 -0.8613189672945207 -0.9190487195180432 -1.550507400708634 0.0002192436339343467 0.002870037157917692 0.4412557752923325 -0.38539838501369283
111889000.0 0.49990487008934725 -0.8554165286683165 -0.974777520145869 -1.5916961579140252 0.0004507949760714321 -0.0003965655958523848 0.43431207956092494 -0.3985324047294834
