! Created with skrf 1.9.0 (http://scikit-rf.org).
# Hz S RI R 50.0 
!freq ReS11 ImS11 ReS21 ImS21 ReS12 ImS12 ReS22 ImS22
1000000.0 0.9961536586606341 0.01724827648906116 0.012775793262215122 -0.05536489194761549 -0.0020362448731760007 -0.007200182331126377 0.32835079196508987 0.32085762616446917
1999000.0 0.99163104676791 -0.010919331929622295 0.005530390805243455 -0.030016359421176954 -0.00818152147806826 0.006386556161689003 0.2650028297961992 -0.06561904209150482
2998000.0 0.9995376376066004 -0.019710706274167003 0.0072444541399410345 -0.007293836237652393 -0.004127773914716809 -0.0007584004812317004 0.18936240109349145 -0.13909198417632723
3997000.0 1.000361026217281 -0.030881216552432113 0.011631337721789241 -0.009645517314363325 0.0010253373447655038 -0.0044966340955796295 0.09630287180909103 -0.2170688899527792
4996000.0 0.9972966896529946 -0.039599049031239085 0.009664851222809289 -0.002092044102298462 -4.645017565641057e-05 -0.008600430536293571 -0.04396351131042102 -0.2068303883669382
5995000.0 0.9994851227985295 -0.046781231791909336 0.006213421275130453 0.002659481171122716 -0.0026006181909241956 -0.0015802511623897529 -0.12090943518307377 -0.12164887960318452
6994000.0 0.9942727301516299 -0.057373271702373156 0.005233758739025669 0.002913746459744299 0.00743664559150831 0.0006202697697744347 -0.1533859096022463 -0.03538688005647756
7993000.0 0.9954410500678696 -0.06677013943363565 0.0076926812224513055 0.010324362019018178 0.003272693308262598 0.0014796080307477426 -0.17087717211696923 0.040463281040316997
8992000.0 0.9951235778791364 -0.07245045935835295 0.0044778191393119995 0.004962500446721506 -0.0019308583790694882 0.0054651071675198785 -0.17527633483813124 0.07000056707142664
9991000.0 0.995219029257073 -0.08159656115774436 0.004453810946037499 0.003955802842983527 -0.00016529846864583465 0.001282688425217653 -0.14331705297993091 0.09745880326783044
10990000.0 0.99225024172962 -0.0928343968177249 -0.0004516201581935183 0.0016279817901921573 0.00036954730238375493 -0.002836770622418543 -0.13248688901873126 0.11833889689420968
11989000.0 0.9929255357630757 -0.09918764504518221 0.002449939746876252 -0.005839582973130523 -0.003040448560408984 0.0019355306479637406 -0.13133464020907648 0.14285201305600292
12988000.0 0.9914753311919706 -0.11132882000080745 -0.0014304319503726365 -0.007285572886668085 0.005936128130679125 0.0014785946162014635 -0.12741855305201774 0.17171846655537706
13987000.0 0.9903936023206737 -0.11685091862402756 -0.0015598945496355214 -0.004895387531678917 0.0010411007072243432 0.0012108905385364 -0.1032639481520901 0.1848600414828539
14986000.0 0.9894091741717823 -0.12458000206578826 -0.004645158998031429 -0.0028004822370455503 -0.0005832213737529546 0.001253760525139756 -0.08480416486596279 0.20037951297362364
15985000.0 0.9895580322712333 -0.1315255148345176 -0.00235395144726214 -0.0045567849019163146 -0.00021617651786770531 0.0006800127599035136 -0.08185860102292497 0.20574198525961973
16984000.0 0.9860066035791311 -0.14631443332544602 -0.004598574204283538 -0.003808625870271065 0.0007701316515880199 0.003921541338472835 -0.07666966279298416 0.221899151915572
17983000.0 0.9884517575342653 -0.1483214576769728 -0.001161172605320882 -0.008440065174864012 0.000373630457221996 -0.0005210718141984674 -0.04943286044264812 0.22446176141727944
18982000.0 0.9819554794637021 -0.15963238357930698 -0.0019078436075277308 -0.0037795375189718086 0.0030507545047265016 0.00040174132383905605 -0.025413007482037828 0.23793543390131677
19981000.0 0.9852174154052364 -0.16577686048488682 -0.005007892241609429 -0.005005861181148363 0.005372263295756412 0.0002058076137305144 -0.026856978869872372 0.24808613821056838
20980000.0 0.9839351608662188 -0.17305454004205711 -0.009266658439525451 -0.0046248550389468126 0.0005642717709151091 0.0007360981831830092 -0.010478948227774416 0.2663212911005722
21979000.0 0.9817656219668459 -0.1843250870610188 -0.0077028440335342955 -0.0016802464827355278 0.0006306241518705918 0.0028505731438539686 -9.91834596815382e-05 0.24486863861389319
22978000.0 0.9782188630186207 -0.1938194691550794 -0.008446992532488365 -0.004756122713028526 0.003139693104653987 -0.0015139578201152793 0.022480398412157147 0.2520296118619212
23977000.0 0.9775360405149124 -0.2012383961385781 -0.005837797175375042 -0.005322763122447135 0.0004271577772783161 0.0015152664711814382 0.04309854712017244 0.26024660116376214
24976000.0 0.9751486183320078 -0.21022955033290633 -0.007339427428069562 -0.003092780081593292 0.0028287442104708697 -0.0009719541259378114 0.04932294743316244 0.2530125478365756
25975000.0 0.9752882387906588 -0.2254308355163838 -0.0016230875269559212 0.0012078294469999116 0.026399025101211174 0.0031387914364803594 0.055331064191935654 0.255604322436824
26974000.0 0.9720140169602269 -0.22808280874025466 -0.0047174155236256185 -0.002071499352825395 0.0029868820067112775 -0.0010321590948998184 0.08522233682677627 0.2720083936620771
27973000.0 0.9717324294477588 -0.23407723850164605 -0.004879982899748209 0.00017315753621793828 0.0001230568491738151 -0.00024209564226027063 0.10850946446925137 0.26043239380997957
28972000.0 0.9669100387250402 -0.24516126331405075 0.0022309638192781747 0.0003640854663011696 0.00011996991396891942 0.001227331400544812 0.1054397079252324 0.2554190971259621
29971000.0 0.9669837590671726 -0.2518276427029412 0.0009476097093318089 -0.0015545071706586254 0.0013316957608272622 -0.0005334769612820213 0.13937633794124507 0.26050285200758905
30970000.0 0.9638720581378715 -0.2575711519853564 -0.0009734308940631425 -0.002183999521310257 0.004171127939981247 -0.0017424717134024886 0.16651080802303259 0.24824817660864457
31969000.0 0.96226698879352 -0.26642452382288623 0.006109855113584646 -0.003187866992709004 0.0012509044802858445 -0.0014956439481710886 0.14274002873433406 0.2535465501361071
32968000.0 0.9605214239431084 -0.27477500074843664 0.0036570874851680753 -0.006423866634444323 0.0020061687797313637 0.0019115511678820345 0.15951285560272643 0.24430880984210077
33967000.0 0.9593582896461801 -0.2840706021170726 0.009222662016672234 -0.00847657998123248 0.0011408482443556688 0.0024211688769581086 0.18003906080350288 0.2538443328853189
34966000.0 0.953727390711398 -0.29402931243641023 0.015029217667599504 -0.014427720132783104 -0.0011193663418387007 0.00197792231143153 0.1982884224939934 0.24356726340549864
35965000.0 0.9517955980617259 -0.3024552372836709 0.015413795581700944 -0.015117581389413338 1.934900425285554e-06 0.0004023278676611331 0.2018918152359859 0.250928298987417
36964000.0 0.9494859168776478 -0.3098455222929846 0.012799599503184218 -0.012526524176246431 0.0041470908697862465 -0.002944081602169946 0.2112030369293665 0.2609725050801571
37963000.0 0.9451836905659093 -0.3209247840759695 0.021124839706138612 -0.019710736216588906 -0.0029953248884785504 -0.002447238307431657 0.2182390733786864 0.23415719736068827
38962000.0 0.9428943978735697 -0.33066465269762146 0.025388870870877465 -0.022005211368262514 -0.0007491990171344785 0.0031042149706366554 0.24013127892245967 0.23907929761287128
39961000.0 0.940353636701956 -0.33539989265115405 0.02819424734171495 -0.029109721343808834 0.005054805569640398 -0.0001421907357474796 0.2486881351941171 0.22736230996731308
40960000.0 0.936988041540745 -0.34165571963401875 0.023422777141137566 -0.021698204982822968 9.84255455493712e-05 0.0007386523409786966 0.2686986710343778 0.22588870140040035
41959000.0 0.9342148094267756 -0.35364039980281287 0.027739280967647 -0.03396656793845879 -0.0015487505961468064 0.001244277716643239 0.2674566067500418 0.21866550071456972
42958000.0 0.929006956774684 -0.3614491458369219 0.03215186135501484 -0.0408435714361257 -0.000554028742823639 0.001679952775759265 0.2743194471683318 0.21012599265026885
43957000.0 0.929021221601751 -0.3662367760118995 0.03463270862986158 -0.044332198357391564 0.0001457417517992269 0.0008512008198072253 0.29348206839984725 0.206045376652201
44956000.0 0.9251136123751181 -0.374814020499847 0.03289043605839703 -0.05126714837338329 -0.004591531231295954 -0.0025082297071906848 0.29477635100059507 0.20218234351390324
45955000.0 0.9210593422730312 -0.38672207186113794 0.037581470788788485 -0.05647262440795042 -0.00021375097244625023 -0.0026049151720803276 0.3085553484445923 0.19973967887286748
46954000.0 0.9162910286848834 -0.3946785315058295 0.03633453821311821 -0.06353500841016275 0.0022136937293928648 -0.0018059482651910906 0.32445900839455194 0.1823049118417385
47953000.0 0.9143774014342708 -0.40181361477718774 0.0389380439061694 -0.06988782372460331 0.00308148262036519 0.00041126117639801854 0.33424524284369755 0.18113167124044782
48952000.0 0.9081549165273024 -0.41269378222998293 0.03957678808604242 -0.07602520883609916 -0.0035510254873373105 -0.0023650078224988634 0.3315917449676158 0.18004128285016097
49951000.0 0.9058290730397771 -0.41827396256628036 0.037965020782369234 -0.08419715543552686 0.0016907527855403275 0.001268149467289887 0.3548987690434816 0.1670233751797081
50950000.0 0.9019218674857216 -0.42781923606012423 0.04033346994454167 -0.0936472800232487 -0.0030883239582402485 -0.0008607209115382784 0.34093615462821864 0.15234093567824575
51949000.0 0.8962266714090334 -0.43653253989145435 0.0425209748863833 -0.10214096044663748 -0.0013084318130432884 0.0010479404614367428 0.3639652072134733 0.1511635465813548
52948000.0 0.8944358759574967 -0.4441242268072588 0.04170389368060359 -0.10855475160893194 -0.0006957985290069307 0.0017494541705860122 0.37205743922752754 0.14743496095721212
53947000.0 0.8898199972768798 -0.45179184692308655 0.044360401488026786 -0.12048082901632554 -0.000591358602136513 -0.0010868832249787232 0.3752499990259496 0.13757995877316165
54946000.0 0.8849620029628796 -0.4589220245792614 0.04311895329804946 -0.12654999018068167 -0.0003654917332793112 -0.0007248420426475584 0.37863930908280147 0.1357658168549755
55945000.0 0.8831537692834693 -0.46676381868071215 0.04937380547149985 -0.13931716512010459 -0.001302349448967903 0.0005358496314247115 0.3889881137494127 0.11850052443206302
56944000.0 0.8782968742254481 -0.47660698147510117 0.04949078869849691 -0.14990484100752294 -0.0008653482563997329 0.001804551821730244 0.3997133875789224 0.10203196458792789
57943000.0 0.8736767620611521 -0.48716978328129196 0.04932222585853355 -0.1565675195813289 -4.553077328398184e-05 -0.000984374219451552 0.39913937178454395 0.10921103702867953
58942000.0 0.8688537661571764 -0.48993106079885423 0.05041557555735469 -0.1729566163796883 -0.0006680191936756123 0.0004996384370672306 0.4185327295481602 0.10981630388975311
59941000.0 0.8647427505853513 -0.4999592856224202 0.052529077482104815 -0.1795996990183698 0.00021542642070917494 -0.00574158274790223 0.42822442066619987 0.09632549753028784
60940000.0 0.8578054911843334 -0.5075081774070291 0.051961546874354135 -0.18453081710777824 0.0015432489498132247 -5.66745506368485e-07 0.40859574133983 0.08558433754609968
61939000.0 0.855090797901113 -0.5134057877399105 0.052221244818348514 -0.19298920633709574 -0.0003390425265529789 0.0013812724160615721 0.4238255801060585 0.07335018342692132
62938000.0 0.849150730876217 -0.5251192813193841 0.05638251041004091 -0.20726506445858556 -0.0028286039853999364 0.0014216289849955917 0.4390033497353199 0.058151135811851676
63937000.0 0.843916051356204 -0.5316262024838064 0.056392838096366624 -0.2287514954158704 -0.0009102562467818733 -0.005811788580651792 0.43947331627738095 0.04718962798551293
64936000.0 0.8371360991084267 -0.5395957827805241 0.05923703822495858 -0.24004742016021502 -0.00010076645413505219 0.0034293548993561953 0.43368867762844343 0.05394770669437249
65935000.0 0.8363892757491614 -0.5473357847809635 0.05873299906122882 -0.2547132255567302 -0.001551783679407743 -0.0022098454281971325 0.4477586028563102 0.03381492328083416
66934000.0 0.830372560370422 -0.5533048712706856 0.05808728581024927 -0.27120726310334764 -0.0016921328333127854 0.0005278463970520645 0.43282900463867197 0.02933470682644334
67933000.0 0.8276903092131562 -0.5610662187608784 0.06036173591848832 -0.28447940775197894 -0.0025822020582506777 0.003976463555028006 0.4448534048819887 0.02104007965998031
68932000.0 0.8084903660649791 -0.5624473592480597 0.05381352641243765 -0.29385406506532774 -0.001371769017646186 -0.0006036145710029021 0.4571559960731733 0.007082136041105713
69931000.0 0.8127071561011023 -0.5790716946648821 0.05539816340059165 -0.3153293804074263 0.0018268608136408565 -0.0011054142352907657 0.4521718284342347 -0.009343914818265834
70930000.0 0.8049120481986964 -0.5860281825318467 0.051565857057750374 -0.32604273227782526 -0.0036445024830454474 -0.0022071962101216933 0.44581069265212653 -0.023526237597013444
71929000.0 0.8028331600536036 -0.5920691025195832 0.04903614923279404 -0.34551414665699165 -0.002270537290782793 1.5693639499323068e-05 0.45783571672224194 -0.02163569503947177
72928000.0 0.7973684433317604 -0.6043891337703594 0.04510065726447424 -0.3616207380499664 -0.00012872047739504946 -8.356154381317137e-05 0.46653565255606705 -0.029229105271539022
73927000.0 0.7912254831956418 -0.6078994578602809 0.04191256128109576 -0.38214697673532416 -0.001155781031394888 -0.00177584936826516 0.4615086679697424 -0.03264878423592709
74926000.0 0.7864848747379503 -0.6175300477421569 0.03339362062769252 -0.3994557573339497 -9.492021080749853e-05 0.0014048014352748856 0.4586931143047096 -0.04134553890973777
75925000.0 0.7798195581346228 -0.6243919129847229 0.024549937419345805 -0.41804219418771865 -0.00031884690151329665 0.0004750494965320667 0.47084345623574103 -0.06424406554532316
76924000.0 0.7753247084842559 -0.6306027280997153 0.010737339099630218 -0.4396908312228259 -0.003808236992374577 -6.35873511465442e-05 0.4709946883272824 -0.06975637263774638
77923000.0 0.7678656853099326 -0.6372320432727059 -0.0023417823821429004 -0.4641102180250664 0.0010094707582072161 -0.00178932590084885 0.468586364282384 -0.07339469992865272
78922000.0 0.7622655242317917 -0.6486170763806884 -0.009410643418691312 -0.4906912460505651 0.0023835299457611115 0.0002715450389162615 0.46775276156150014 -0.08913622489532767
79921000.0 0.7536053182748949 -0.6506570723021418 -0.030560313026876448 -0.5141556153470069 0.0034193873552616333 -0.0038918841035129573 0.4611642252044083 -0.09455742486244945
80920000.0 0.7503201858539654 -0.6624803153430829 -0.047271143500335656 -0.5441160028287448 0.003451314128303027 0.0019082488533406529 0.4752627813977227 -0.11263527317452747
81919000.0 0.7429170657573166 -0.6671639768876456 -0.06341818620898797 -0.5719473687280693 0.002241547265545768 -0.0017560578862111267 0.47287554521476444 -0.11369884202945613
82918000.0 0.7356158548394869 -0.6747513468639917 -0.07146566353480963 -0.599805960704401 0.002575648045241848 -0.0018283863625453587 0.4798967562162386 -0.12843209238399897
83917000.0 0.7253347431154545 -0.6836288445367394 -0.0913678627964086 -0.6276232202348927 0.0030703895632698606 0.0019384914475858571 0.48299739611987025 -0.13187922286480586
84916000.0 0.7215724782856526 -0.6905769032118736 -0.11284200164675262 -0.6655602094516726 0.0003889454466076078 -0.0021001170614859087 0.4698002433447957 -0.14524665282604896
85915000.0 0.7148982714314897 -0.6955575468041937 -0.1301225001360939 -0.6928411414511499 0.0010681782163767589 -0.0020325039316464225 0.46495484227333295 -0.15764020464202672
86914000.0 0.7066226135383276 -0.7060343097394511 -0.14474594917814887 -0.7291811425383385 0.001798042237594574 -0.0015140356414318319 0.46477118264598466 -0.15607353492137221
87913000.0 0.6998211827387136 -0.7122085449608057 -0.16340923934026924 -0.7603183375634409 0.0018788746518888612 0.004873001201578911 0.4645215273112143 -0.17192992217312494
88912000.0 0.693277189711842 -0.7184172779584651 -0.17758082715519918 -0.796436984096592 0.004371421687630998 -0.0025748658193213408 0.46390627382121996 -0.19851359919741346
89911000.0 0.6841860196838726 -0.7280626081170076 -0.19313384725451158 -0.832661905903393 -0.0029060424729694147 -0.001335972973752766 0.47719964705906387 -0.1898140723621535
90910000.0 0.6786196433937091 -0.7327293722515803 -0.20747576811853724 -0.8696358255532155 -0.0009639532900931543 -0.001850009637682621 0.4681158181587651 -0.1886425984621448
91909000.0 0.6681386537200544 -0.7378538309056565 -0.23115232610238212 -0.896354218154552 0.0009128512021552126 -0.0006663658379042125 0.47744254491031884 -0.21372201013128753
92908000.0 0.6620577529363291 -0.746587534138428 -0.25046589918418066 -0.9310575481713576 -0.002964002821392251 -0.0010591304137110668 0.46420081968375015 -0.20517734295222384
93907000.0 0.6561014370157771 -0.7526668536602582 -0.263385276879642 -0.9653423867147004 0.0018127277755884976 0.0013047428246631505 0.4742573403497353 -0.2347571030094623
94906000.0 0.6418253225825371 -0.7608308730676103 -0.28396689573524825 -0.9954778198631483 -0.0032697542476324798 0.0001966841607714113 0.4693648409575537 -0.22031375233037606
95905000.0 0.637997044667792 -0.7665534822307989 -0.3029351402490591 -1.0327457105223352 0.0005762439310591886 0.0010241424583520857 0.4685466170662453 -0.24971680143269748
96904000.0 0.629387131738613 -0.7746887460411709 -0.31877087408255195 -1.0710428568911916 -0.003551691926163823 0.004005496135614501 0.4634499828400379 -0.25389276009876405
97903000.0 0.6196822756365159 -0.781430790864392 -0.34677574319507226 -1.103231070649982 -0.00042580353113066103 -0.0013393778966672028 0.45321480230930417 -0.2650773641858889
98902000.0 0.6167426734026291 -0.787231828653528 -0.3606094985141157 -1.1450590168552004 -0.0009115320378700371 -0.002004560479116681 0.45505996207142535 -0.27248703962125054
99901000.0 0.6059420934572989 -0.7936170470614816 -0.38980204359050424 -1.1768081134733337 0.00022962948870793026 4.9124279909475765e-05 0.4742555054891368 -0.2883008770629103
100900000.0 0.5974871603416381 -0.7966301588848402 -0.4174423324693446 -1.2075061530657114 0.001981524071347689 0.002300733706183677 0.4695003356318647 -0.2933590863746449
101899000.0 0.5858338152905569 -0.804546635292268 -0.44716250995032564 -1.2416057649749075 -0.0013780409712539174 -0.0014548670656955433 0.45727669806974497 -0.30059232235609623
102898000.0 0.5773117246404694 -0.810581130425972 -0.47787506448737155 -1.279390169243609 0.002041673461450335 -0.004528217570624164 0.45925148685012557 -0.3220346740817655
103897000.0 0.571162153864405 -0.8165013069450493 -0.5153766216222515 -1.3213697221800695 0.00015348269171922663 0.003682527574014704 0.4570320346089092 -0.30643330178888983
104896000.0 0.5609617826155664 -0.8264854047288227 -0.5590104950620585 -1.3486413984226766 0.0016507215630008137 0.0006214660986290006 0.45303636505305356 -0.3144281918411841
105895000.0 0.5511895500944399 -0.830109467094364 -0.599170734051229 -1.391433784573492 -0.0006599495673159608 0.00053373857483929 0.4430392216007073 -0.3253119633650742
106894000.0 0.5427940602165036 -0.8362725538026957 -0.6555566755584362 -1.4345563333542435 0.002081920531122899 -0.002427365680689448 0.44136204184857 -0.3532300522793343
107893000.0 0.5349962305672332 -0.8421704631823962 -0.7002439917732975 -1.4740271781026963 -0.0017453610320268503 0.0025850454810858107 0.4446877358376402 -0.36666990261759014
108892000.0 0.5245082878264294 -0.844587529542313 -0.7617931058221417 -1.5074640612733874 -0.0016554574481135631 0.00017624330406948633 0.4358006279048411 -0.3567872530258701
109891000.0 0.5120936365564721 -0.8538677230738774 -0.8159529852500124 -1.545719539866658 -4.0270504473470815e-05 -0.001243801942796944 0.4492153575528055 -0.3502671221563695
110890000.0 0.49352969040919914 -0.8674396743206989 -0.9018248158116845 -1.5469505564452346 -0.003755601274860872 0.00027794632108447433 0.43583898513050473 -0.37924955534108634
111889000.0 0.49431947184113073 -0.8610550831292418 -0.9378459146099616 -1.6161995660961566 -0.00030579533269859234 5.476582547535644e-05 0.432967188439089 -0.3786586570740862
