! Created with skrf 1.9.0 (http://scikit-rf.org).
# Hz S RI R 50.0 
!freq ReS11 ImS11 ReS21 ImS21 ReS12 ImS12 ReS22 ImS22
1000000.0 0.9855474498186215 -0.00034661208047128176 0.007676849161087474 -0.03952313781986332 -0.01850581234113163 -0.00034923276639542677 0.338435932708984 0.36529643386898814
1999000.0 0.9970466158647443 -0.007048488238150443 -7.968800247919827e-05 -0.01788542918360409 -0.005575585142286824 0.0012150842649011713 0.232168581413727 -0.03383578903391525
2998000.0 0.9990312320755221 -0.028710942586829283 0.009281135544363547 -0.0131356249096551 -0.005473892406655649 0.0007022729781805827 0.18428384386630764 -0.13008462154251108
3997000.0 0.9953969325624878 -0.03135531503270691 0.01253260154599611 -0.01009066204910738 0.0030085490472735563 -0.003929045354109492 0.07976748354559417 -0.22535559152329315
4996000.0 0.9951557636243621 -0.03582598573414133 0.009926726633510193 -0.0011110557968704398 -8.072977842063805e-05 -0.003916065750227025 -0.04539811406447977 -0.19849587699405366
5995000.0 0.9927495888301661 -0.0506242260933064 0.004721501963239079 0.0018490059197118639 -0.0007683511369628615 -0.0037295608105394765 -0.12923794478883763 -0.11259134156655812
6994000.0 0.9901253657790818 -0.05895517963537527 0.0032051149708016 0.004231386735355617 0.002229690099458242 -0.003893013204508546 -0.15589006669975733 -0.022638656720424186
7993000.0 0.9906086675878643 -0.06792801687548423 0.002506295749375941 0.0030436696782601244 0.0024704835788179665 0.0029213368807774927 -0.1702143742833573 0.03612683258652971
8992000.0 0.9885771279248331 -0.07350901077812344 0.005353139574307252 0.0001247426054513356 0.004899356161872678 0.004315709755303318 -0.15607633308055943 0.05150966693627779
9991000.0 0.9895744574742256 -0.08267475611601327 0.0007374678208575353 0.003584818848318648 0.0019542034045679523 -0.003797828256790323 -0.1429032207163552 0.08877269168462043
10990000.0 0.987859208009731 -0.09484162718652114 0.004464287928905979 0.00022219846319982984 0.0007676600426615337 0.003011785875543262 -0.13785501869459882 0.09346485767132913
11989000.0 0.9858358408184001 -0.09818945883789167 0.0018106702696431933 -0.0041955555175840825 0.0030075970888848317 0.0001141185668068296 -0.12857268782910208 0.1358924987569228
12988000.0 0.9854456162624323 -0.10619741871700544 -0.0015018181253878893 -0.0026882753700386433 -0.0053453912380587495 0.0009894368904507 -0.112385977475246 0.1673097570583781
13987000.0 0.982072539898647 -0.11652693838345092 2.672553506291481e-05 -0.0037071772974791063 -0.0047051620107985736 0.004554939780626955 -0.09177344682856829 0.18859890696980178
14986000.0 0.9844507875799208 -0.12330134261342691 0.0004710219346353741 -0.003739370143316699 -0.0002458718335461341 -0.004409036560436833 -0.09065388427408541 0.1988733082751698
15985000.0 0.9845280753331992 -0.13269689508691104 0.0009297837164495539 -0.004827955277609172 0.0004608383804239368 0.0003099152231066472 -0.05843918296459423 0.21819150245138028
16984000.0 0.9819387627831508 -0.14406904536330922 -0.0032215982942272133 -0.0053283988650092914 -0.0010063342269676582 -0.008345461645597168 -0.06881837535489096 0.2219228835982295
17983000.0 0.9827198794783782 -0.147565220936377 0.00012272938947945912 -0.0063214730919861194 -0.00017450886411305493 -0.001672906659204264 -0.05450541018453009 0.2212778056467167
18982000.0 0.9784223512694136 -0.16082911807702055 -0.007193845724357005 -0.004520564722150368 -0.0008927635222637847 -0.00041261332935711215 -0.022456515316842417 0.2379615112830527
19981000.0 0.9785357732977521 -0.16399011890528742 -0.0035589617663692127 -0.00727197018949625 0.002766192175973301 -0.00022073941353571933 -0.025457915118683443 0.24375674384527274
20980000.0 0.9769580950747517 -0.17212120270876685 -0.007732405562291993 -0.005082516081896429 -0.0013288940554217253 0.0021524779475675933 -0.016814599095687305 0.2612405322065114
21979000.0 0.9755238588461572 -0.18242737260318911 -0.005031648772052017 -0.003589491425983274 -0.0031538594431562697 0.003089743695165349 0.010301934429785584 0.2484311153285039
22978000.0 0.9748440176398658 -0.19293370337959337 -0.003738693409373118 -0.0043154144005888954 -0.0037602273443393657 -0.003955106123352764 0.031057088050808677 0.24819518357755116
23977000.0 0.9735175029813258 -0.19981796965989912 -0.005222448895616865 -0.0009804684585947633 -0.005167144797563015 0.0008722601769067908 0.03384041437053774 0.257635968255192
24976000.0 0.970751780182774 -0.21032754288484262 -0.002285273873907851 9.059499035930289e-05 -0.00020767662106594683 -0.00010526515664108011 0.0618845228640837 0.25300340331411497
25975000.0 0.967750970841759 -0.22485754499423205 -0.00298445398905077 -0.004309554401703145 0.02391433665346813 -0.013059487308642353 0.07347481712750543 0.26140676520021366
26974000.0 0.9675555758449923 -0.22646184758865098 -0.005274052346971076 0.002014931544819547 -0.00044452649751925956 0.002042249413801424 0.07916894511945909 0.2667308274235134
27973000.0 0.9656083655104502 -0.23159763497980088 -0.0035260229590362764 0.0007522742569363021 0.0024038192467004515 -0.001447900071307573 0.1118923884699588 0.2604528871936109
28972000.0 0.9650354914518298 -0.24103178201084913 -0.004140843855382019 -0.0036943505261879217 0.002748388358535595 -0.003678777513640369 0.10174853808596714 0.24627792133556856
29971000.0 0.960761246765114 -0.2523199552995042 -0.0020754404634057886 -0.003003590624945078 -0.0017324964264840406 -0.0010498669747734848 0.13688085140678904 0.26912852658748854
30970000.0 0.9597794893655062 -0.2570181395646781 0.002917316631830115 0.0008756139840200114 0.002526213717136749 0.003289379928899994 0.16825997455277256 0.2582766199629775
31969000.0 0.9562150985455584 -0.2660120055909279 0.001483933022956877 -0.0038298897247672895 -0.003553156647348553 0.0014236090162340193 0.14851794950236216 0.2427655723380352
32968000.0 0.9563833831871994 -0.27427264344700214 0.006904797627517394 -0.005293523195748761 0.0027401248490001805 0.0012990932054289782 0.16187115749470038 0.24469252392405844
33967000.0 0.9533181422023269 -0.2858628853784699 0.006308809302032806 -0.011432092923760039 0.002643366139842245 0.0014907649202793546 0.1851974141436842 0.24681512317622012
34966000.0 0.9503010707314359 -0.2920820899827419 0.01168785914263272 -0.010792935848135886 3.5028197169677575e-05 0.0009003338679269442 0.19651021598684884 0.2512597276162697
35965000.0 0.9477871034014016 -0.30131674044098644 0.01658512684871974 -0.012810522984713609 -0.002689315222225772 -0.0018485168534543434 0.20878200948508374 0.24365840974686348
36964000.0 0.944826611669722 -0.31070267754995656 0.015039230289261274 -0.013965512305195478 -0.0019637039860962734 -0.0017267241259650043 0.21513532455658602 0.25191252366830114
37963000.0 0.9416745908822662 -0.3207129886545235 0.019926433670413166 -0.016435223615717087 -0.0002525891069068172 0.002351566643924007 0.22182721723205764 0.23221408721281642
38962000.0 0.938850810558423 -0.33036489026346605 0.025373828041601893 -0.024110034637785518 -0.00034568613751212885 -0.0041396299437737125 0.2310878707112574 0.23579762520037642
39961000.0 0.9364434324465131 -0.3361776180247473 0.026178455352839386 -0.02566332150266981 0.002670230725690798 0.001677753292137075 0.24924332087702716 0.22215248991670405
40960000.0 0.9337015838657212 -0.3461877833584593 0.021438359835424907 -0.02340206617837066 0.0008321610059607076 -0.00010395135881008561 0.2562210752469779 0.22904909197873383
41959000.0 0.9306671925867495 -0.3557664067273614 0.02931541056905084 -0.029253885886459295 0.0014649915711033629 -0.002758811563535303 0.2592981851744213 0.21490737328033097
42958000.0 0.9267510427959087 -0.3632280175739417 0.0298215539807924 -0.035830596060499535 0.001007065561574939 0.0022546793961869065 0.2804719323873422 0.20861598642460305
43957000.0 0.9236698258474508 -0.3712984567001861 0.029835130424587946 -0.04280371530542444 -0.0027989157467666137 0.0020436553333186805 0.28013743722949014 0.21187482204238772
44956000.0 0.9199797381071425 -0.37799427280887943 0.035101542533088725 -0.04899952495828673 -0.0008430592124968869 -0.00015145507501938943 0.2953150258490651 0.19680742687400288
45955000.0 0.9156005838552564 -0.3886829426317978 0.03833549880963851 -0.05442400554678242 -0.0011240959183341952 0.0006393884854518436 0.2998620235493167 0.18476682646219
46954000.0 0.9130466469307702 -0.3967290896222225 0.03341986509212077 -0.06578903984619663 -0.002142119180325586 -0.000852949656468797 0.32231613184235214 0.17838581612948784
47953000.0 0.9082201891868631 -0.40645888654374224 0.03727182592076657 -0.06945534043565027 -0.003920862664197349 0.00016725327135594546 0.3356272791763512 0.16736294553359057
48952000.0 0.9038467993879502 -0.4149329277174305 0.03690378415772364 -0.07622512515017699 0.0006912462354564108 0.002817979080765388 0.3271767637227839 0.16453173955163067
49951000.0 0.899809843108862 -0.422134114712854 0.03597991253417133 -0.08601892813330902 -0.0016430484350940292 0.001166626058527351 0.344192719013562 0.15192282974606258
50950000.0 0.8982306699254484 -0.42868318266906635 0.03286444978699061 -0.0962047547586312 -0.00017897080735461687 0.00046542385374606296 0.34412967370541686 0.14261025853494308
51949000.0 0.8941355676110421 -0.43794580747608414 0.03939488701627864 -0.10021176794900208 -0.0027106222881793413 -0.0056089372071120025 0.35678153293981224 0.13744017123868008
52948000.0 0.8909216426184818 -0.4460071915451434 0.03790929945298181 -0.10935645621610161 0.0026673950558018904 -0.0025967206467357304 0.36364076000160267 0.14081678424625668
53947000.0 0.884558342263281 -0.453990487975724 0.03839762495880154 -0.11631596000189837 0.0003419919154973621 -0.0010957822907304376 0.3709333249395391 0.12842558775531557
54946000.0 0.8797509330457426 -0.463675744602999 0.041212481789499315 -0.12814888250152703 0.0012509275723650765 -0.005506137682704439 0.3747555430679761 0.11800044373639589
55945000.0 0.8761284407030135 -0.4718863381962929 0.04506706221216308 -0.13755573625627185 0.0015627317862521913 0.00026847013460166356 0.37971735495629655 0.10138802347044694
56944000.0 0.8725686957073205 -0.4804590309325296 0.045906712590914674 -0.14974565721644537 0.0011811782149183316 0.0011264951365639996 0.3893255971917429 0.09933576115545062
57943000.0 0.8678315162311736 -0.48926274104197054 0.044592957613761905 -0.15991897399401123 -0.0014266131776207293 -0.002141527614913916 0.3974907255922453 0.08465784398034443
58942000.0 0.8636325481815428 -0.4939795040580683 0.04819476756030334 -0.1688748528367037 0.006089558693868176 -0.0009476317810914311 0.4170152518741089 0.0800350575996762
59941000.0 0.8579090375702827 -0.5045815604837647 0.047543453132473934 -0.17833892374139826 -0.0014172570207342792 -0.0016709745761618862 0.41386697207565415 0.08073505364920329
60940000.0 0.8496965700276471 -0.5100796020438887 0.04934572910524333 -0.17973154319938375 4.322698086163423e-05 -0.001336627989551853 0.39561307096982035 0.07365602936160703
61939000.0 0.8477300976906696 -0.5174563592752223 0.04842558824517234 -0.19079468097436317 0.001868584770434018 -0.0022811613599660256 0.4043271900040123 0.06539933165881243
62938000.0 0.840639323165566 -0.5283227504922907 0.05189895888789964 -0.2037425824702389 0.0017692307155222496 0.0003279707233163164 0.42991766470433607 0.05137426884316766
63937000.0 0.8355541553366168 -0.5362849272100726 0.05133425705246171 -0.22654162802944583 0.0036546353692675435 -4.732465953060116e-05 0.4261164617121138 0.03878845816990711
64936000.0 0.8301139915540384 -0.541492289624905 0.05242115941944674 -0.23668346122211614 -0.00262880002993672 0.0027205898843458013 0.41720595462581495 0.04172927436192111
65935000.0 0.8281294744945191 -0.5506105865032305 0.05290919056507938 -0.25152338760041404 -0.0005891725545927642 0.0016805367970427296 0.4295166357950055 0.012513428207352992
66934000.0 0.8217384641816227 -0.5572100385711192 0.05265668188807548 -0.26903562111205276 5.116534088721169e-05 0.005626495218189819 0.4179353248701312 0.011492906449540506
67933000.0 0.8198819899169513 -0.56542012438524 0.052721678717640164 -0.2793383972646867 0.0014392549348250909 -0.0013758253026389734 0.4332191999203586 0.007987987634839943
68932000.0 0.8043872477910305 -0.5582547666282583 0.05099359132539672 -0.28966464391461105 0.002200186641181813 -0.00015311996363992606 0.4471199710407978 -0.01851299453589666
69931000.0 0.8055468273027498 -0.5807355965691045 0.05304940599490096 -0.3078667069570663 -0.0012460838975471692 0.0030164936047625984 0.4391117817708569 -0.026072700696002326
70930000.0 0.7975736131941372 -0.5903572799597282 0.04757342995815661 -0.3246670893191615 -0.0007959696451150433 0.004404020347622322 0.43562721421853035 -0.04416644313834527
71929000.0 0.7960325489965894 -0.5956257949518241 0.04799895381968387 -0.3393007739298215 0.0021112453335615945 -0.001339151959866539 0.4433748749811311 -0.040602818561724846
72928000.0 0.7870194329363176 -0.6055588215735918 0.03977054818077721 -0.35429958953943264 -0.0027858071005703255 -0.001607499916302317 0.4542535711375311 -0.05326253470770965
73927000.0 0.7811404959285689 -0.6112206145005824 0.03353242357902892 -0.3750970060388975 -0.002228972013788265 0.0010432753521236319 0.4504528324931224 -0.06624556476937167
74926000.0 0.7777813848917275 -0.6210348380541193 0.02850212525879158 -0.39061828672915944 0.0009709493314087004 -0.001910093954060375 0.46234285927374486 -0.07010551617795947
75925000.0 0.7700191564061978 -0.6269827429973551 0.01713027930810389 -0.4117422156299088 -0.0015058783520942765 -0.0013443335123375546 0.46763874017519624 -0.08483739713331209
76924000.0 0.7636154539005136 -0.6333035807685857 0.006413951546755313 -0.43442016030860703 -0.004025043662627408 -0.0018924552803020046 0.46599987181171254 -0.08862862395675247
77923000.0 0.7567530467843929 -0.6410398278660527 -0.01172173224902114 -0.4548807800972935 -0.0036589720027223275 -0.005107593716917406 0.451701828882796 -0.10395251814139635
78922000.0 0.7508825302376836 -0.6520163295415645 -0.02312898618760347 -0.48179473446751536 0.0006020939063149745 0.00023919234347147234 0.459333323321034 -0.12673569132984785
79921000.0 0.7429783010265487 -0.6544978467410747 -0.04423038023170132 -0.5051375931943682 -3.242072069213661e-05 0.00318388379734104 0.450939469241978 -0.11545533664912681
80920000.0 0.7381131375419351 -0.6647579678920745 -0.054556731483294305 -0.5358891074876031 0.001290392175481015 -0.0021297085755232746 0.45750991532729524 -0.1364943195822123
81919000.0 0.7354714972725301 -0.6713519233134755 -0.07611525403438552 -0.5608446441897087 0.003555867095162191 -0.004039037393989168 0.46303431916318866 -0.13561844040204243
82918000.0 0.722377723447727 -0.6801606612591464 -0.09096093033706261 -0.5912084546530234 0.0004513775888562248 0.0010775111357096692 0.46907213070043186 -0.1484983777458762
83917000.0 0.7173040266440313 -0.6847132163068411 -0.11074997071014486 -0.6230704652097563 -0.004200852887530781 -0.004536406102954662 0.4615345374846034 -0.16343439841683635
84916000.0 0.7096466314253548 -0.6923559025267615 -0.12371060411931696 -0.6557072450487592 -0.0009928008310237306 0.003096924487676054 0.45793740354410156 -0.1748001333388697
85915000.0 0.7055224529383635 -0.6985295513067681 -0.1444903630099291 -0.6821876417015036 -0.0016185265251514728 -0.001100948043043403 0.45420924481510305 -0.1855682045839043
86914000.0 0.697103807816128 -0.7099399027158955 -0.15981335506521954 -0.7204614526036754 0.001112093420014902 -0.004122211408991606 0.4428683437711931 -0.18316756867513503
87913000.0 0.6889469884960789 -0.7148618717508884 -0.1742593928951251 -0.7483259742470674 0.00018597893854646993 0.0019776917396735843 0.45411079754099903 -0.18667231036679705
88912000.0 0.684020619275913 -0.721254209203937 -0.1930567755749034 -0.7801804979455853 2.2100748024698903e-05 0.00178537547723182 0.4602928173015711 -0.21536075871333318
89911000.0 0.6751141548714186 -0.7310271253614673 -0.2098543705224973 -0.8184436341799027 0.004035849393531974 -0.0053768657878105535 0.4645970512597849 -0.2193876625376022
90910000.0 0.6694535913723342 -0.7331269699422357 -0.22220314023136487 -0.8501322941562216 0.0009149982491606203 -1.4302957945809097e-05 0.4520981346198374 -0.2164473285057207
91909000.0 0.6593893236776592 -0.7402773292421693 -0.2412259554859424 -0.885707040414546 0.0013779137839423185 -0.002579195389752735 0.46158689521536705 -0.23020574725761672
92908000.0 0.6519269193118844 -0.7493607718839544 -0.26010868337979676 -0.913363103335376 -0.00185865182841893 0.0005504108763269203 0.45009936680039164 -0.2358217006360664
93907000.0 0.648285022862132 -0.7527430900836254 -0.2715992089329682 -0.9459000198266125 -0.002344231886784444 -0.0004543659463604695 0.44908481364613745 -0.25658443790965574
94906000.0 0.6334854365622243 -0.7612266517257315 -0.2881357829022708 -0.9780682119429582 -0.0015946821253050992 -0.0017134539555332124 0.45914458056161356 -0.2529105752274901
95905000.0 0.6265684890817921 -0.7681160223083231 -0.31331870068488127 -1.0099186523072725 0.0013697642479110045 0.003916077873286588 0.4576294776266369 -0.2762781048729186
96904000.0 0.620265237986828 -0.7755568883448484 -0.3251505044131116 -1.0498582991075027 0.0020399339539023034 0.0013084906077677884 0.4578132988458676 -0.2747280693774561
97903000.0 0.6116956116984775 -0.7822774487615155 -0.35337448376089986 -1.0789203298217702 0.001834206316959271 0.0007489363981184959 0.436904730588454 -0.2990037731374478
98902000.0 0.6065514474322277 -0.7872103581831666 -0.3665158171789379 -1.1171600698564441 -0.0025671505122961164 -0.0003399402675511488 0.4507274110472748 -0.30579581000991657
99901000.0 0.59629779225384 -0.7938708727716342 -0.3956480450647746 -1.146467367802687 0.003301799060274934 0.0031375922712914054 0.4486014953390257 -0.3202766106486548
100900000.0 0.589293514628281 -0.7983046685740026 -0.424496847867015 -1.1761497769310543 -0.0016879571203266346 -0.0027208145215796347 0.44546654211102193 -0.3180177773720349
101899000.0 0.5778640893720547 -0.8065689903605309 -0.45371478747259475 -1.2114280077073083 0.00011866097696156006 0.0008312905761065309 0.43892601695148625 -0.33507234260843366
102898000.0 0.569029513591379 -0.811855815693254 -0.4833671592577784 -1.24731880682529 -0.005176275280814458 0.003249872378498762 0.4490286349284802 -0.3428773107107929
103897000.0 0.5608982365147208 -0.817632214099149 -0.5201399639896103 -1.2793255930316907 -0.0005473835831123433 0.00018120078321048303 0.4518766768440099 -0.33602936694047186
104896000.0 0.5541783014155792 -0.8293274165377288 -0.5648449874471276 -1.3149725836517865 0.00019719932418792556 -0.0030239423739563598 0.4283257509367646 -0.3397703102295089
105895000.0 0.5414136364976543 -0.8307950786339467 -0.6107359076253376 -1.3465762076533414 0.0027482877526623234 0.0006846356034901155 0.40986974231826223 -0.3562408071360738
106894000.0 0.53216548852725 -0.8374209804092284 -0.6665174270577573 -1.388750724837725 0.00114685129904634 5.72192280346583e-05 0.42744220582150166 -0.3729648579242406
107893000.0 0.5253502455292685 -0.8441199095290534 -0.7135990288994695 -1.4267819783687115 -0.000947826954898875 -0.0013385358749645547 0.41880835859551485 -0.3841165259286961
108892000.0 0.5154023303296452 -0.8459908170357237 -0.7686438762484445 -1.4630489439163565 -0.0010709268938282198 0.0029069457271403334 0.42410586556091484 -0.3779972381894175
109891000.0 0.5045527134339278 -0.8550648885619505 -0.8277021255647399 -1.499195513912582 0.0005291385449487371 -0.0001577414506765211 0.4348240921851994 -0.3854171258264444
110890000.0 0.4931104305426173 -0.857262602939773 -0.8822201797332327 -1.5028218192691583 0.00039157165104433526 0.0023634300096231774 0.420592572202733 -0.39173531020944347
111889000.0 0.4852246444768745 -0.860853171385975 -0.9504238740188204 -1.561604629826339 -0.0008968256595065208 0.00023836954952487975 0.4090680739182439 -0.4100363345056364
