! Created with skrf 1.9.0 (http://scikit-rf.org).
# Hz S RI R 50.0 
!freq ReS11 ImS11 ReS21 ImS21 ReS12 ImS12 ReS22 ImS22
43957000.0 0.924727165840202 -0.37332128866051517 0.031168881269080934 -0.04750688268760576 -0.0026882037861170193 0.0001278590212152456 0.2843173323823809 0.20955657431817007
44956000.0 0.920975428039112 -0.38160081333400514 0.03271281230997886 -0.050335671904247946 0.0018875617216093914 0.0007744318050002794 0.30389947955289187 0.1893949633424328
45955000.0 0.9162502191675123 -0.39061719544905577 0.03347856094267961 -0.057396108433040015 -0.001047711260319575 0.0025386805393827257 0.29387640546065713 0.18815585303286061
46954000.0 0.9127325808283889 -0.3996780717319232 0.03531568360162404 -0.06447829447465234 0.002890403021867462 -0.0027095269728828024 0.3191320203860905 0.18339513367123977
47953000.0 0.9094592600383203 -0.4070000264748774 0.03600902411605309 -0.07122509195550053 0.003122531242881113 0.0018609159965542056 0.332935601106614 0.17186717722932912
48952000.0 0.9050506151707545 -0.4165984404195951 0.038795645764875736 -0.07725518168230709 0.0019245330700585468 0.0024181660532624767 0.3298918669163103 0.16745780169186333
49951000.0 0.9013191263346564 -0.4240614157127852 0.03589827377886658 -0.08482374038084822 0.0011001025550286655 0.0006475114788506859 0.34590754871077123 0.1542143255696611
50950000.0 0.898455128529068 -0.4313910726844218 0.03944185207940187 -0.09282209295262946 -0.0008731619872828204 0.0019473730119022696 0.3492875591328263 0.14513372359666235
51949000.0 0.8927606974661082 -0.44102679531841155 0.042526086910644814 -0.10253477590885096 0.0019468250120427653 -0.0021086306713563397 0.35567184870163915 0.14357242652458838
52948000.0 0.892453151542636 -0.4487403264512972 0.04432607952079901 -0.10950002240733013 -0.003505159148644342 0.0005038767402886048 0.36624588322625534 0.14630863484367604
53947000.0 0.8843368717150699 -0.45778499569033926 0.04450070569325119 -0.12213038244172758 -0.0006811906398541844 -0.0005160344948499535 0.37084694107637967 0.12822320735066717
54946000.0 0.8789655969324323 -0.46536806407317316 0.04376033564817629 -0.12791526750880425 -0.0008671275065524074 -0.001331258496472118 0.3821214972578587 0.12497154477084876
55945000.0 0.8765585099220919 -0.47353274806834816 0.04774242462446683 -0.13945540934731468 -0.0022844031462421603 0.0008492277411318589 0.3760115881129779 0.10209451204994441
56944000.0 0.8732322244285083 -0.483052445406955 0.04965050999890196 -0.14986303356818498 -0.0021862116795235546 -0.0014602524151717054 0.3895400373593426 0.10146386116826013
57943000.0 0.8663057895072511 -0.49297048738765126 0.051630109790897175 -0.16045271356144122 -0.0015276167240519717 0.00026081757284685046 0.394473153976105 0.09735284292604997
58942000.0 0.8635181097490349 -0.4966008420456551 0.05397789621217456 -0.16931193320220436 -0.0011334608003342951 -0.0013612384978781416 0.41570134667349345 0.09603356513268677
59941000.0 0.858258087802359 -0.50833952920842 0.0551977917744843 -0.17959507022705462 -0.0021722957380103393 -0.0014970936151163417 0.4123136678063842 0.07803696528759099
60940000.0 0.8507291267516559 -0.5138463475372428 0.05214472373190796 -0.18097947593791677 0.000129238394057844 0.0023573924344551436 0.4067039490309439 0.06475673491804083
61939000.0 0.8484025391579343 -0.5208749839216412 0.053130510684271916 -0.1897106353793547 -0.0023377762614817522 0.0007012765844354163 0.41142586978701184 0.06534687883778968
62938000.0 0.8417829605135249 -0.5311561446788368 0.057050102192362395 -0.2069470858743389 0.001602654082970798 -0.0008138557692896392 0.4356324431203448 0.05535975417069317
63937000.0 0.8358054894587096 -0.5399149893526635 0.05960408176963089 -0.22735506173129105 -0.0029454586155588216 -0.00030477775408725374 0.43683148153313395 0.040921273978913264
64936000.0 0.8320509845428501 -0.542737669149907 0.06042620667172277 -0.24257221209550414 -0.0021587048052533597 -0.001290163662399486 0.43647594162325315 0.03429029881897422
65935000.0 0.8275901714580611 -0.5578068777865838 0.05905194921093751 -0.2578592169438177 0.002035712536363459 -0.001515717573228157 0.44199559635437796 0.017141988690702763
66934000.0 0.8219434309215248 -0.5611029312790593 0.05954616126670906 -0.27108225167260414 -0.004332471638662896 0.0048037936110309366 0.4346552478642059 0.005544354797061477
67933000.0 0.8187551720516238 -0.5689419731182749 0.05952363680098644 -0.28240322958023023 -7.68267825501978e-05 -0.0013886754833534666 0.4344260199695527 0.0064225657687402085
68932000.0 0.8052016898673954 -0.5749690213260978 0.05197180752343285 -0.29276217181116015 0.0015370242292902271 0.0014442649129487234 0.44735086355710335 -0.013530856580569234
69931000.0 0.803648521316678 -0.586086650519799 0.05673593485436692 -0.31190985077448424 -0.0034237279817234015 0.0008254947360608691 0.44810987158965493 -0.017885923379936875
70930000.0 0.7970848850898742 -0.5924128221850554 0.051390283952334415 -0.32805366971051925 -0.003392831662828845 0.005444512210373492 0.4367323793310499 -0.042898076360134214
71929000.0 0.7954170779322456 -0.5997525200903516 0.054060256724475265 -0.3416943549930754 -0.0029361754103711057 -0.0007046101357297302 0.4509370088709687 -0.04300373589519767
72928000.0 0.7872026658059331 -0.6092624224856087 0.045753879751596414 -0.36142647634600106 -0.003041212649849228 0.0017539898569823708 0.4634172403718683 -0.04764217500715121
73927000.0 0.7808692447033753 -0.6149897715380154 0.03991258548775013 -0.38135510660863925 -0.003119611947034701 0.009733663484342285 0.45992877322360737 -0.06467066757833502
74926000.0 0.7762969525043969 -0.6240135380201185 0.033129735678724674 -0.3981063829074764 0.0031586743954406535 0.004072623958787212 0.46791718729868154 -0.06276795540067075
75925000.0 0.771048772102697 -0.6283955287268707 0.024050830632188856 -0.416329788496982 0.0012771748052921442 0.0018565140684699843 0.4698178765419509 -0.07681489941158681
76924000.0 0.7651387461907544 -0.636230875867904 0.008582848770100767 -0.43704558922491094 -0.0009555326333946208 0.0014217544736535707 0.46070156629557796 -0.08870334783310707
77923000.0 0.7577315996279184 -0.6447041028738036 0.0009283483155658573 -0.4620704436637936 -0.00037636724509188766 -0.002639382273643957 0.45980256804577635 -0.10578843480980907
78922000.0 0.7496348301406113 -0.6551640103493603 -0.01594935601084546 -0.4891780779625037 0.0029438888438288054 0.0029864570000219825 0.4521048059088958 -0.11470345994816246
79921000.0 0.7425744361233408 -0.6590020525689602 -0.028145727144285825 -0.5135763595151936 -0.006155320759083205 0.004795182003146424 0.46358709113284924 -0.12092206268081639
80920000.0 0.7383955247818315 -0.6706045000648027 -0.046083340647319344 -0.5439307898352723 -0.004382542507917597 -0.0030808073395289324 0.4656055132107332 -0.13591913968889638
81919000.0 0.7333547802063177 -0.6743698280272803 -0.06726804531176911 -0.5717410734588988 -0.0025621310534065995 0.0012009200952476354 0.4565485811392561 -0.14038768712295288
82918000.0 0.7218736985971157 -0.6839041776475127 -0.07737973255279111 -0.6007893854921694 0.00026050689582685077 -0.001897400956923027 0.476265471071587 -0.14387126900447952
83917000.0 0.7142197597440381 -0.6912173324412291 -0.09505505135740627 -0.629696616167215 -0.0017599902380311511 -0.0016487737055263382 0.468868441003365 -0.1577461536807603
84916000.0 0.709666130736597 -0.6982894269243571 -0.1109582187653576 -0.6668059633884652 -0.006687803870499374 -0.0016199008202586371 0.4656013515346303 -0.17221895236914445
85915000.0 0.7036326265508253 -0.7041396855498112 -0.13660214441129465 -0.691965327130078 -0.001260722998952286 0.002971506171289697 0.4562732420456804 -0.17962612174771217
86914000.0 0.6944637456376688 -0.7152272366086875 -0.1486835379766178 -0.7317547705206682 -0.0012659141898185033 -0.0026623811517166667 0.4607453080916426 -0.18482970365322052
87913000.0 0.6870168930926281 -0.7192911712139614 -0.16241459026903565 -0.7581486431180506 -0.002053470515763869 -0.0011905162151258047 0.4482769571499209 -0.18554697739766068
88912000.0 0.6815786241797529 -0.7256854872306839 -0.17911859325403634 -0.7965972510225573 -0.0026132392879783433 -0.001946777122982095 0.4548499929879665 -0.20648533627317658
89911000.0 0.6736619591322707 -0.7353807520720617 -0.19487815121262006 -0.8314075238810094 -0.0071172833972772695 -0.0027503538853102757 0.46209062720675925 -0.2117285464354391
90910000.0 0.6671233117486348 -0.7414236348670938 -0.2114290802877126 -0.8660713034206202 -0.002703894925265063 -0.0015906004260108314 0.45334855590994405 -0.21295079542318762
91909000.0 0.6576163013447384 -0.7467148828774381 -0.23296781634519456 -0.8948241956140613 -0.0015757336413369323 -0.0034233823222157137 0.45468146633745793 -0.23116834686915746
92908000.0 0.6498488877922931 -0.7541626817127189 -0.2466339321459065 -0.9283091291343893 -0.00129073468651491 0.00022091391615798462 0.4510145507268495 -0.23731118356002123
93907000.0 0.6437718369162788 -0.7588773004336341 -0.2653686644996888 -0.9570337954694451 0.0008618399351459105 -0.0011386735332555567 0.45919946734110445 -0.2641091193401809
94906000.0 0.6319365677713956 -0.7677501728201096 -0.2792543400385353 -0.9951951754116587 0.0011640081462896883 0.0015587437687353376 0.4586870687429576 -0.2541325428767306
95905000.0 0.6258800104860233 -0.7722321436893282 -0.29963661030455463 -1.0302871783173837 -0.001192952373355527 0.0026875827014262122 0.4546029644476772 -0.27052623874290627
96904000.0 0.6167026009797504 -0.7820894427882343 -0.31596147802000973 -1.0680830602567437 0.0013369460578894605 0.00015429964386758934 0.4490863395923557 -0.28591057657340935
97903000.0 0.607625340880989 -0.7875194110345866 -0.34280236213481324 -1.0966491699790744 -0.00024206073459484974 8.469326079093724e-05 0.4399334438841092 -0.2905510485014076
98902000.0 0.6017400304451147 -0.7923976796091168 -0.3585023155067576 -1.1330766362873665 -0.0001265032394026366 0.004314168850016958 0.44622068244810087 -0.3012324225254498
99901000.0 0.5892845095399752 -0.8004603293938001 -0.38776283327355043 -1.1715715506415596 0.0009507331798895741 -0.0040455455748739325 0.45395556298988876 -0.3200391309864048
100900000.0 0.581312026781347 -0.802205613811922 -0.419238804970757 -1.195603420443289 -0.0014674865981589302 -0.002704688128458424 0.4477348054931983 -0.31684859037712
101899000.0 0.574537961037467 -0.8106338853532524 -0.4427157338604585 -1.2365284644489167 -0.003412964612843724 -0.0006380495461839076 0.44494699082019057 -0.323197073404227
102898000.0 0.5646252753981745 -0.8158864612913586 -0.47850088151896414 -1.2753612409202244 0.0009102099331707095 -0.0033455448470684672 0.4468520854179079 -0.3460647765110844
103897000.0 0.5565618382853407 -0.824261347707414 -0.5138529894418656 -1.3093920124399943 0.00028898054308385397 -0.0005000846210402404 0.45198281559681047 -0.32928071703362716
104896000.0 0.5484863510294439 -0.835770141954955 -0.5635824717564076 -1.3390346138057587 -0.0005851046902396884 -0.0036138535732732056 0.426609816722056 -0.3333844929152731
105895000.0 0.5391021006578081 -0.8373572450491716 -0.6008067499296352 -1.3813104064126893 0.003920678594252534 -0.0004765404032545116 0.43396114433183086 -0.3693120666783145
106894000.0 0.5276391283626995 -0.843146403857391 -0.6582662778615048 -1.412037702871407 0.00012918908511614258 -0.0006738123769251676 0.4265294073564998 -0.36877965434946786
107893000.0 0.5225002173771035 -0.848703684996053 -0.7073427561437833 -1.4612034393372184 0.000858560364870753 0.0008595265467936398 0.4394854075085889 -0.37797221325384434
108892000.0 0.5101862338407858 -0.8527660084292495 -0.7635938910674782 -1.4963293026685096 -0.0002275826494229866 -0.0017303822384217929 0.418331046883821 -0.3870406314821306
109891000.0 0.498494560770758 -0.8604078011861405 -0.8201353034594201 -1.5332048788467656 0.0026089799737496256 0.00161729907171599 0.44200927081360225 -0.3726482712154018
110890000.0 0.48153423534575024 -0.8626260496640381 -0.8796264127051068 -1.5321494235457405 9.603675763866711e-05 0.0028778340903502847 0.4225189183096256 -0.38696623318380635
111889000.0 0.4793976214280704 -0.867402847132812 -0.9424273291046673 -1.6021654516798955 0.0020255280309238914 0.0006001048490102242 0.412313259675139 -0.41214909464423355
112888000.0 0.4679455234960987 -0.8747579069993949 -1.0171661318227854 -1.6456636282888044 0.002047833179427109 -0.002059510337273756 0.4060998034588591 -0.4214441352963355
113887000.0 0.45652382311869716 -0.8829706959333863 -1.0901132232656188 -1.689788497108867 0.002477396589340031 0.0018037065580704596 0.41293661906757917 -0.42576579622843946
114886000.0 0.4469020258359206 -0.8855700244434372 -1.151445796517404 -1.7327507883946847 -0.0012996329415066853 -0.0022289688256121216 0.40696960992914943 -0.4140921627610404
115885000.0 0.43563458604397154 -0.8893926430251701 -1.2292984513931695 -1.7691949355575136 -0.0008487447114749601 -0.0005211409746971414 0.4119742967004354 -0.4391899405088664
116884000.0 0.42341072994085843 -0.8936717452397996 -1.3218599472000954 -1.802906485674773 -0.00267733336363879 -0.0004884210254387107 0.40592220988126365 -0.43392605469378237
117883000.0 0.4117302620145207 -0.8994748314357962 -1.3988362299632118 -1.8415785472638164 0.0019177413043885737 0.0027631996196333716 0.3862492813090405 -0.45962341889556685
118882000.0 0.40019330905963957 -0.9021699951305717 -1.5035608396078155 -1.8811823558596972 0.00214818942543384 -0.0005177782979453915 0.3878128721506415 -0.4536331257384873
119881000.0 0.3912475722082359 -0.9097003231208404 -1.5892680645246076 -1.9400372873690364 -0.00025637468264872484 -0.000269398789356533 0.39710890403008714 -0.4615226370320562
120880000.0 0.37877248478150294 -0.9113316446017039 -1.6783876504264519 -1.9628330536741974 -0.001115257551144036 0.0016839219597550262 0.38769607385864113 -0.46272131306499725
121879000.0 0.3665380917612872 -0.9141128242689707 -1.7803986629643411 -2.019805034505753 -0.002150319818734853 -0.0012280639726822498 0.37368745361698946 -0.46290094059447573
122878000.0 0.35886702158947714 -0.9170271254883892 -1.8632605906220505 -2.055493540402102 -0.0010988611320811006 -0.0028569093355935264 0.34673537935903687 -0.44057532433483476
123877000.0 0.34655192881002106 -0.9208971100785658 -1.9572668455025803 -2.113371262342795 -6.297595644338643e-05 -0.0017465019213556683 0.33561377827438893 -0.45645523758019185
124876000.0 0.33479832031326723 -0.9270326497143534 -2.06388490307477 -2.1595907523788034 -0.0009849778669275646 0.0016822236972967729 0.3564872682938856 -0.488410985721414
125875000.0 0.32181916214255907 -0.9313185566613935 -2.1662915724385776 -2.1975992432155587 0.0009706469350692768 -0.0016349418810577394 0.3387753139939191 -0.48513940988990106
126874000.0 0.3049225864796401 -0.9343157463168253 -2.2752635967087635 -2.219747665116894 0.0016017139648785187 -0.0008308633940745827 0.34718232052099823 -0.4951376313538033
127873000.0 0.29751693551711905 -0.9387526553813323 -2.3601515344448623 -2.2812201256909783 0.0006072014083444387 -0.0020335012569714654 0.3527844973831209 -0.49282635167586036
128872000.0 0.2811099832034618 -0.9399661709169906 -2.4678663825014575 -2.3033961952124455 0.001641486219000532 -0.002335817347703227 0.31988918577003567 -0.515064528585869
129871000.0 0.2694240603580153 -0.9433895056391928 -2.5725347307377993 -2.3515815694225446 0.0031661271040237023 -0.0006277994805401501 0.34933074220702076 -0.5082446836643665
130870000.0 0.26233539220450647 -0.9475772330530097 -2.6865249954956014 -2.3994503541805896 0.003246608921581541 -0.002430849561636249 0.344722216334126 -0.5123892414080218
131869000.0 0.24523217363203398 -0.9493285428583448 -2.7945255591326856 -2.4168384615762286 0.0026663791262789283 0.00040498883334507237 0.31160086473874116 -0.5328823382127322
132868000.0 0.2341747992565684 -0.948556622538953 -2.883008790007451 -2.4564284901742557 0.0024182125720867307 0.0019632106970984236 0.30779120082134076 -0.5171525176985579
133867000.0 0.21673807617665844 -0.9539717877073101 -3.0356687278656125 -2.459533590837656 -0.0010903897449325442 0.0007645276426440977 0.31161420708769494 -0.5213645403075541
134866000.0 0.20699993854280704 -0.9584313996568373 -3.137855039153451 -2.503633420263297 -0.0011955623140100895 0.0019491555550593801 0.288401944097483 -0.5305017416953429
135865000.0 0.19178763811576466 -0.957137793172456 -3.2509367830160536 -2.505429430822835 0.0020218506943349276 -0.0024896868773236066 0.28771336731629304 -0.5412282783193426
136864000.0 0.1810587068675881 -0.9612302763207559 -3.3831752945259077 -2.5211235319614036 -0.0012073725992298005 0.0035607412842391505 0.2904787840490385 -0.533190877929651
137863000.0 0.16752605417036678 -0.9593174107706726 -3.5303980020052808 -2.535472823683409 0.001851958189150041 -0.0026111684334106256 0.28274152658144636 -0.5507919285359884
138862000.0 0.15370154025513183 -0.9589245103249213 -3.6200279199010037 -2.524314186395428 -0.0017025690955424424 -0.0004984200957062126 0.25854903484480996 -0.5387900487776452
139861000.0 0.14783905225396315 -0.9632337150021586 -3.7815198248534596 -2.5613289984772085 -0.0027950221308268588 0.003027388763503638 0.262868209530625 -0.5456972516314916
140860000.0 0.12739889831021584 -0.9644643262606365 -3.91461472508356 -2.5505046839711865 -0.00020434761158729677 0.002355569429686709 0.27322989829765204 -0.5537379698280178
141859000.0 0.1132699724640862 -0.9619861662835881 -4.078311805292646 -2.53076987017995 -0.004208700894775729 -0.0014854136606514599 0.24986874010510976 -0.5536332818240655
142858000.0 0.10125657109342778 -0.9710387869609596 -4.253622343474456 -2.5386893940170943 -0.00036388255457690355 0.004995143746995734 0.2504293930223667 -0.5487656539320305
143857000.0 0.09013152210213377 -0.9684485512599791 -4.398025052575842 -2.5203983119767526 0.0016947862278750235 -0.00021976191625062953 0.23262165869693366 -0.5430473916750612
144856000.0 0.0721375147282403 -0.965551720385207 -4.5677925560834245 -2.4803265610578094 -0.002002062986484607 0.00011001742675293471 0.2307119570243482 -0.529732135917763
145855000.0 0.06350286474080599 -0.9647193459207248 -4.763946721967505 -2.4512733709554038 -0.00140625120649529 -0.0040176514071196545 0.23340006878640843 -0.5706942253891306
146854000.0 0.04413489439180278 -0.9623722127420473 -4.940771580584202 -2.376281867748751 0.0012393373978588005 -0.0010450357808556494 0.2166180053183523 -0.542050680198723
147853000.0 0.032416723620859976 -0.9612248281800094 -5.095325476801865 -2.396491253469088 0.002174051055230576 -0.0010531750002971112 0.21462435904422036 -0.5541994866515645
148852000.0 0.01844294798426357 -0.9634643114592516 -5.311161879898601 -2.3555248291648194 0.0030227476613758023 0.0007708089283448376 0.189289726187418 -0.5784017385043827
149851000.0 0.009404831971955418 -0.9633298190835677 -5.496405843885182 -2.3161216426830453 0.002124211462060094 -0.0001448945998908041 0.17373510205698758 -0.5640161452849449
150850000.0 -0.009484537361721942 -0.9580281065083811 -5.718279005965256 -2.2341430184383904 0.004216097512214311 0.001088521164527957 0.19876469153881077 -0.5689925646003481
151849000.0 -0.024031477124067634 -0.956642072182295 -5.91592723927025 -2.2040254274758913 -0.0017296889276334016 -0.0013950321666981065 0.16659631411402545 -0.561137057915605
152848000.0 -0.03611334515798419 -0.9608142253872496 -6.165083942698615 -2.1396258992589554 0.004372123644945298 -0.002370367052717836 0.16748940234080784 -0.5660086137734381
153847000.0 -0.055378442288156284 -0.9525705366899279 -6.385448991940044 -2.0933704025692337 0.0011529927833519177 -0.0018345040368610251 0.14994727503313135 -0.5497493681995264
154846000.0 -0.06590185851002392 -0.9502474934589012 -6.583079297105053 -2.0012340062388625 0.0022325843158393474 -0.0008878127232520113 0.1354167495300499 -0.5752033990591117
155845000.0 -0.08524465870259376 -0.9515699254866551 -6.828245327479237 -1.9368495536654262 0.003041031368353676 0.0032153104956736244 0.1370459287227332 -0.5635937738748747
