! Created with skrf 1.9.0 (http://scikit-rf.org).
# Hz S RI R 50.0 
!freq ReS11 ImS11 ReS21 ImS21 ReS12 ImS12 ReS22 ImS22
1000000.0 0.9750303311238614 0.00473349669717588 -0.005686508241976958 -0.03945443548465531 -0.0003376637292032093 -0.003791649025107226 0.31781289501488874 0.27883604016026203
1999000.0 0.9999113198014109 -0.011586273068180034 0.0032378452050845293 -0.014620428942144999 -0.003321967371266021 -0.002779869118185949 0.25507819924209335 -0.03921992786646756
2998000.0 1.0016050993748276 -0.020568973639727706 0.015225964595963305 -0.0142411290287137 -0.004091190752273402 -0.003890883700563742 0.163417127978983 -0.14145935398233897
3997000.0 1.000338285779722 -0.029080243354159638 0.010625834431902674 -0.006102694816906017 -0.002703029290298959 -0.0057739482940693115 0.08119710105443882 -0.2393815933366541
4996000.0 0.994917343684922 -0.03834161391463173 0.01088217249045611 -0.00038371456968069845 -0.0013483440376705887 0.0015914946549951633 -0.05330675123949008 -0.19720103882885892
5995000.0 0.9947421346923545 -0.05020409689047008 0.009186502843321667 -7.380627916318858e-05 -0.00021222862303899102 -0.00203175431239901 -0.12529715568723807 -0.11254130901001654
6994000.0 0.9913047590709363 -0.06072672259650511 0.006090055159488291 0.0020071731469382625 -0.0028019245914809453 -0.0005264869262606027 -0.149237810476707 -0.007080016213320488
7993000.0 0.9967583967667955 -0.07180358029720806 0.0027951632565722286 0.004272604221222524 0.0027064515575175667 -0.0051911436397494085 -0.17295177070514745 0.03814030526823429
8992000.0 0.9940683544732801 -0.0760358211160062 0.0009799747715552951 0.003987708552052814 -0.0008665796880212356 -0.006047090432402182 -0.16690030084586846 0.06820195642500733
9991000.0 0.9936504757080832 -0.08293370044837067 0.00022190690165145512 0.004913249285994396 0.0006156663654143717 -0.0024874713422120983 -0.1553702641553258 0.09760425577603818
10990000.0 0.9947852481174958 -0.0923848330507352 0.00118048065797797 -0.0012827204993839847 0.0011238682354645627 -0.0019489954379920368 -0.14142573534899347 0.11038563311408083
11989000.0 0.9918771701610218 -0.10227169018532635 0.004522898458353827 0.0008793000045749895 0.0008267979906641568 -0.003959645949061319 -0.12825946217687365 0.14046410216172361
12988000.0 0.9903784731737597 -0.1121427576217584 0.00417769022200165 -0.0008473849552008832 0.0014426190239688068 8.61225207207594e-05 -0.12969910450410943 0.16505842912081803
13987000.0 0.9876913513201788 -0.11973259092377138 0.0017695974906389088 -0.006905942300166176 -0.0041815910368089015 0.0033986144246412327 -0.09917408136200297 0.1791350245787038
14986000.0 0.9868043788466707 -0.1258325494696673 -6.0925287681450714e-05 -0.007527032719814956 -0.0010780209299439104 0.0026262836561961214 -0.09993008208140465 0.20923047864547303
15985000.0 0.9887552649029224 -0.13516196919160298 -0.00415580260165823 0.0010994119378334403 -0.005499202370513428 -0.0005043388468088625 -0.06945336659770375 0.2198969432554372
16984000.0 0.9844659203041909 -0.14484521213910564 -0.003310926643141161 -0.004441547903809888 -0.001234872368461051 0.006480507378300822 -0.06090482302987811 0.21586783852744074
17983000.0 0.9845940753269787 -0.15295477183799105 -0.0011996795592940721 -0.0018710413680921062 -0.00042952470073003853 0.0007176574675935386 -0.05146501726847828 0.22828637588293618
18982000.0 0.9816226019021512 -0.16215159336513088 -0.0020114143584521447 -0.002124015344297811 -0.0022703481156195107 -0.004125463945061566 -0.022786671602773992 0.2374708623384295
19981000.0 0.98130650071784 -0.17088135642576027 -0.004645290186875912 -0.0015799269656266866 0.002561370341655784 0.0019452206265321503 -0.008127358793420577 0.22990981090085175
20980000.0 0.9815702492238535 -0.17648770681444725 -0.009115800745967644 -0.005729364255955085 0.0045771979941161165 0.0029736969908111684 0.000895161619911224 0.2574286174348195
21979000.0 0.978691558443624 -0.18565349291405928 -0.007650694374071004 -0.006291766200214236 0.002881214850750561 -0.000967211040473807 0.015732765582663674 0.2442455701550613
22978000.0 0.9761870024409107 -0.19763996323473976 -0.009793753009854696 -0.007083176278842855 0.005103494093938978 0.00035098866695374987 0.03067708980639829 0.25956278917830294
23977000.0 0.9779358691833537 -0.2035408559198831 -0.007937368853574227 -0.004786828098115679 -0.0006687943147399286 -0.00207994799485385 0.05071017340539946 0.25499742959417127
24976000.0 0.9739794638445777 -0.213238542400357 -0.004606826559386799 -0.003991138380140232 0.002790569236048358 0.000378882966929742 0.06392070711568246 0.25727272867692597
25975000.0 0.9669590444915435 -0.22220456974824226 -0.005011622450461984 0.0021851978309813083 -0.022304680824772934 -0.01615777226584799 0.08201688599296182 0.2575582453369674
26974000.0 0.9694315255154717 -0.2309302415768561 -0.005802136516923794 -0.0014066834090794669 -0.000584748477155883 -0.0018942162691902094 0.09095446481635178 0.2666507867204052
27973000.0 0.9669883481718233 -0.23732001707594833 -0.0031483147931401275 -0.0036508901407458203 -0.0006624630729782648 -3.6685548950563654e-05 0.10606996679169504 0.2559395088801429
28972000.0 0.9666645014382514 -0.24664937646614202 -0.0008721305777500402 -0.004406532828012675 -0.002263796529679548 -0.0034445009154753952 0.1178391196792477 0.25479971838724613
29971000.0 0.9642415884832684 -0.25735947298722733 0.0010892527898969581 -0.001724410632332593 -0.0010077312776348131 -0.0008565468802707223 0.15446671551570743 0.26933075799616635
30970000.0 0.9595861788798722 -0.2620242138805612 0.001205549217361015 0.000463481546128046 -0.0007712412004505253 0.00030609131165819224 0.1763815303162502 0.25143991052197284
31969000.0 0.9598802105334031 -0.2710311297293168 0.003321977478736561 -0.0031158305597973517 0.00048117794197284836 -0.0005501408470308074 0.1553412446652123 0.25676840823368957
32968000.0 0.9570292175672453 -0.28203912340600235 0.010463596149456416 -0.007756059024187531 -8.875387208630082e-05 0.0025778868591975266 0.1644297993707914 0.25639664835734743
33967000.0 0.9553422741260696 -0.28941673047291133 0.010896296545682076 -0.0057123157199998045 0.0019232301061249278 -0.0034559487226801704 0.19153559506137877 0.24515199249747804
34966000.0 0.9521790017241153 -0.29863909243712106 0.012140084316562584 -0.012328869568080892 0.001661474468010995 -0.003233993719404473 0.2046179040024578 0.24445576788376458
35965000.0 0.9487137954949069 -0.304726441566281 0.01663029499740501 -0.01313924245226055 -0.00042772646914604706 -0.00010889361175392999 0.21475898391843048 0.24697244318409964
36964000.0 0.945183082820652 -0.3157509993818681 0.01824281063661136 -0.013942173751848726 0.002419692055897104 0.002415820134659956 0.21893918921979302 0.2491221635438719
37963000.0 0.9422496120124263 -0.3275160538239798 0.02171864188273495 -0.020802085042839126 0.000954860560236968 0.0033373844512587917 0.22462408652081667 0.2386872891393437
38962000.0 0.9393474040629636 -0.33599619702932854 0.0259273483956956 -0.021754412177032525 0.001269085594723766 -0.0006966941497247019 0.2484904268354812 0.23435325220726155
39961000.0 0.9380344943922068 -0.33980236379306894 0.02678781983307236 -0.029125577608192683 6.086613631937024e-05 -0.003736815849884705 0.25087465680602705 0.22402769872821118
40960000.0 0.9342070549924482 -0.34794471361889806 0.022154313502166106 -0.022253545809774688 -0.0005422717430234184 0.0004287169390732581 0.2667609249048788 0.2225249973910653
41959000.0 0.9313765694847232 -0.3580867800629738 0.028152703272640134 -0.03229952493153231 -0.0023566818994589242 -0.0004962323537403386 0.270280561453778 0.2080867510756765
42958000.0 0.9256303149133613 -0.3679438603420247 0.02976664462706713 -0.03960746107964881 -0.0019191515077967374 -0.0012173101613892447 0.28425873615656744 0.19796998552222753
43957000.0 0.9235433727176404 -0.3749391140042949 0.03164632680800632 -0.04483168165640076 0.0030543348103702394 0.0019823879441372193 0.2904917413561868 0.214165659891707
44956000.0 0.9213256831485179 -0.38250057461253134 0.03176294272286896 -0.05330196107718501 -0.0037658149172971962 0.0006331400892266371 0.303526022002042 0.1995461496010783
45955000.0 0.9163600582736603 -0.3913737008163603 0.03408221703797507 -0.059020613920446156 -0.00015477041546415403 -0.00020186652357202063 0.3148099999657883 0.1839485074213444
46954000.0 0.9133257867730968 -0.39992064895089335 0.03512047504417411 -0.06383935924389862 -0.002097245332338399 0.0004168740808695089 0.32817214732221006 0.18384429620178497
47953000.0 0.912820815970907 -0.4072832767389395 0.03490418030406469 -0.07364405476032225 0.0006661078212496747 -0.0012132404005447607 0.33656425633894976 0.17722491753703742
48952000.0 0.9039634453838686 -0.42126479219099877 0.03458005168842826 -0.08022835786151696 0.001201149480022043 0.0003768351184586907 0.3356691293451974 0.16489205349148015
49951000.0 0.9019268486969553 -0.4263415410449461 0.03724375188193248 -0.0845276620058017 0.00031224278121936373 0.0015939299050624516 0.3592461701494706 0.15609413516509074
50950000.0 0.8968468326987943 -0.4337887253953714 0.03692995493281092 -0.09289884694241665 0.000558297906875751 -0.0028939065727364376 0.3583048386278063 0.1444278606429579
51949000.0 0.8926710152396541 -0.44191565588017484 0.038002317031952025 -0.1032839642527484 0.002228239763594917 -0.0019495840237687813 0.3584446682912635 0.1408717279995035
52948000.0 0.892738637458595 -0.44904703607258256 0.03928975279437269 -0.11223912866753324 0.0002892684698211164 0.0015090135758446144 0.3781564195786373 0.14254566742439279
53947000.0 0.8846353722053305 -0.45772732024223356 0.0422204205199767 -0.11822967807346989 -2.002017205419911e-05 0.0011288062520219005 0.365645017225749 0.13232520665006248
54946000.0 0.8795633991921066 -0.46631895705260273 0.04481758923786726 -0.12483471880977585 -0.0028606901471093 -0.00031892395834708223 0.3873186730874784 0.12489056702071233
55945000.0 0.8773083172622332 -0.4746645779816613 0.04390396376151717 -0.13842896392080445 0.0010659750800177158 0.0005529783063649279 0.38900512962540656 0.1093171369332395
56944000.0 0.8738002722352884 -0.4834324371031963 0.043242161529273196 -0.15082652313315534 0.0012783342115304072 -0.002198618277926146 0.3962700993247575 0.11309913492660705
57943000.0 0.8675492056952485 -0.49318448781621604 0.04523555499687205 -0.15898031742038057 0.0007241089270613513 -0.00020643080702758144 0.41161895854185115 0.09496731263841175
58942000.0 0.8622861719225361 -0.49903159382065015 0.04827331576735751 -0.16981770235766055 -0.0027995271361831125 -0.0018041871362678484 0.4190501724686666 0.09686835480295296
59941000.0 0.8590536137263126 -0.5072500543329328 0.050937971942312685 -0.17654395905939171 -0.0021037827558730627 -0.0021915102546625565 0.4261767558156411 0.09227944736367578
60940000.0 0.8517945965809568 -0.5122447848494752 0.049937042580322805 -0.18044706634659105 0.0013368044496897386 -0.0008249522082634332 0.4191942547661041 0.07742755863444634
61939000.0 0.8474600192972992 -0.5219726889422676 0.04927928171928802 -0.18875006330539612 -0.0016818010644487735 0.00339281735395806 0.41433172666354495 0.06728036687062189
62938000.0 0.8421054355820177 -0.5335008687202116 0.05226560520481951 -0.20633190670028217 -0.002476167511497959 0.002653063590926912 0.4458719173358956 0.05433466227282782
63937000.0 0.838367496234122 -0.5380767343968044 0.05477743561316279 -0.22611168901152767 0.0007410250945741204 -0.00039517938428062756 0.4330797985724286 0.043551105145044136
64936000.0 0.8308225833759761 -0.5475941649620356 0.056112244728762015 -0.24062722620489047 0.004545590635069394 0.0008317618034019249 0.44212354286887917 0.0490165965998288
65935000.0 0.8279381829552634 -0.5559348540159509 0.053265508468894475 -0.25421016835838833 0.00016031709671501156 0.0019410055373774364 0.43904337114530434 0.027389126510470298
66934000.0 0.8223262610052687 -0.5638953669769726 0.05617125066178387 -0.2657599776126967 -0.0016478623501103712 0.0016783943308080866 0.44668259188453613 0.01216045012789124
67933000.0 0.8195762087196621 -0.5706628147117216 0.05562895499026276 -0.27995740763184196 0.0016244199343271716 -0.0007960108445677778 0.45818609930179477 0.006478121916559119
68932000.0 0.8011308109027232 -0.5730380898267977 0.04774584665690545 -0.28914403741418443 -0.0018933228762369751 0.0028254049992908537 0.4493118325979139 -0.006817358402943627
69931000.0 0.8054345795864662 -0.5868186620339987 0.052918231338890856 -0.3096779975382875 0.0029047494687713706 0.0010849729629319976 0.45093948321226174 -0.012342740176649415
70930000.0 0.7991031258531767 -0.5914470886703919 0.050624701429367175 -0.3221422884539492 -0.000483963467027942 0.002296543075512257 0.4551318700408939 -0.02649342383628099
71929000.0 0.7977919896843251 -0.6013338973918948 0.04934276158985599 -0.33996650430078645 0.0044674874259324 -0.00040646931203339295 0.45700640880572574 -0.039221301081222515
72928000.0 0.7893974749040102 -0.6121719767509554 0.04331846491627444 -0.3563257947111709 -0.0006906722084523849 -0.0009822614041615936 0.4682084391112144 -0.04221820537872515
73927000.0 0.7820861355707791 -0.6178504082882563 0.035087441487923005 -0.3782649023322472 0.0014626275740031312 -0.003773623555505466 0.47098024256325566 -0.04707086336224176
74926000.0 0.7768457004581472 -0.6272026226353734 0.026663993743730168 -0.39455221458281126 -0.0027037635401976445 -0.0013468028852055153 0.46475177019340225 -0.05271017276682915
75925000.0 0.7690820073399878 -0.6305110100830081 0.014493154165254213 -0.41287842231046923 0.0013279803044426253 -0.002972122609232747 0.46874464605535654 -0.06794934149554767
76924000.0 0.764783283169474 -0.6391499563807543 0.003347943873683159 -0.4357479452153833 0.003924917989506945 0.003128087392616254 0.4643335018173827 -0.07329170102410405
77923000.0 0.7575173992976801 -0.6486287177872093 -0.006504248425681156 -0.45674238649048876 0.0018451112620332286 -0.0018338309373871263 0.46763069795602075 -0.09185632286982175
78922000.0 0.7494625194186337 -0.6563140055733034 -0.024355467070217875 -0.48540712431422095 0.001973698501696459 -0.0002756378518457741 0.46389902406446426 -0.10561706775440048
79921000.0 0.743435185594654 -0.6597939416695505 -0.04031892813536189 -0.509915216186824 -0.0013307298058489552 -0.0015203868426243371 0.46514154471112573 -0.10753769575245618
80920000.0 0.7381755516032174 -0.6723253736222409 -0.054271619552219506 -0.5380068138380584 0.0024646545136578313 0.0009458557827861917 0.47973591757606665 -0.12700998381012954
81919000.0 0.7336685802689198 -0.6769730202062618 -0.07495334763771232 -0.5674850205740238 0.0019617900090318774 -0.0005988955082380445 0.46558163641888517 -0.126746252802649
82918000.0 0.722360459215339 -0.6849277098163021 -0.08613458872906876 -0.5960789486405925 0.0003516289657737021 0.0019000398291648827 0.4746068104716513 -0.13707609019783865
83917000.0 0.7150829556497024 -0.6931827410065011 -0.11099912923483936 -0.6254995631965761 -0.0022612656805615005 0.0012692295319660402 0.4781642537864237 -0.13894690894320974
84916000.0 0.7097999446055137 -0.6988535420265177 -0.12198623258148875 -0.6557611412409056 -0.002533455839566775 0.0013157077537831142 0.4639149300742617 -0.16167119276541778
85915000.0 0.7032724275474954 -0.7039595836952948 -0.1392482823464727 -0.687307650130971 -0.0023266926725826987 -0.0016716226792700493 0.463504381938501 -0.16986304457652995
86914000.0 0.6951529332938935 -0.7168848705774838 -0.15996330159537217 -0.7250098411136969 0.0016551622092640466 0.00035732573994068866 0.463592110905072 -0.1706672814472047
87913000.0 0.6889473897555592 -0.7215886541049559 -0.17423828783869888 -0.7513119622873302 0.0009341393547745642 0.0066218367713393065 0.4630912269349151 -0.18031472561306494
88912000.0 0.6790803549900768 -0.7285788617408216 -0.18921538962254653 -0.7861299789284135 0.0005689003930986643 0.004028532907410984 0.4634767219744151 -0.21030116475390895
89911000.0 0.6737354120099093 -0.7371888255425728 -0.2050665425803667 -0.8224097024592637 -0.003484490909036785 0.0006370235242194781 0.4712961410263788 -0.202924313628613
90910000.0 0.6674725698785857 -0.7415453096741131 -0.22278479568702778 -0.8545073880901728 -0.002131365149067275 0.0006231499520062819 0.4653832337331429 -0.20451827013761598
91909000.0 0.6567323736987534 -0.7463825021970979 -0.23839279584866974 -0.8859307421573396 -0.001733492968717673 0.00104149975151528 0.469464666839242 -0.21669068431872998
92908000.0 0.6493665572884454 -0.7562357025242541 -0.2551722104714102 -0.9167974725969386 -0.0014383537585441976 0.0004628684204293704 0.4589634381686494 -0.22434414868547897
93907000.0 0.6452305975439561 -0.7601380380872078 -0.2710615336376262 -0.9481794893431401 -0.0009460685477564019 0.0009548351572109673 0.468476867001491 -0.24050499850204204
94906000.0 0.6290160522932999 -0.770583823000037 -0.28389024597499657 -0.9802678367289503 0.0004393365010619907 0.0018950805588772758 0.45889770598469193 -0.23678287982661936
95905000.0 0.6237085389849127 -0.7755959160537822 -0.31106732006085125 -1.0163788697405902 -0.0034948028699861608 -0.001674938823341466 0.46449538452286915 -0.26440938415448095
96904000.0 0.6159275209285255 -0.783739361548111 -0.32827069787414437 -1.05245970522069 0.0021832025126287532 0.0009478160497456763 0.45773483818134114 -0.26721689737009785
97903000.0 0.6049305830978953 -0.7883724089774072 -0.34886676915202025 -1.084923851538637 0.0006279612440407799 0.004057476934769038 0.4536652587131231 -0.28553871157122473
98902000.0 0.6008763545718699 -0.7973602676421873 -0.36922432685040607 -1.124080373632982 -0.004704407447854928 -0.006066325699644479 0.449978619169263 -0.2901942192024564
99901000.0 0.5903777409227848 -0.803256279168678 -0.39657682986199616 -1.1534892218883577 0.0053347012701950355 0.0022586104081668175 0.4616867031790246 -0.30391172296850155
100900000.0 0.5804113801613325 -0.8056900203131582 -0.4282052048531439 -1.1787645835134668 -0.001935482980870406 0.0005671754093091547 0.46308125836962344 -0.3135888030969953
101899000.0 0.5717919385826726 -0.8126313671874039 -0.44885837469539264 -1.2202729040287712 -0.001971597393161642 0.0005964608522939443 0.4473490698569494 -0.30966583161711947
102898000.0 0.5615259663060794 -0.8198643239274557 -0.4906769272977391 -1.256541764062639 0.00037643158597723563 9.20853807228545e-05 0.4550915971905837 -0.33554796636028594
103897000.0 0.5549701000549636 -0.8276234050248844 -0.5257424314270306 -1.2911337789470902 0.0013252358775995958 -0.0004262209375099135 0.4602617412095122 -0.32279032076688424
104896000.0 0.5440810672146722 -0.8363587458211599 -0.572216493187251 -1.3220062757209152 -0.0027993992697902463 0.0009353010512117676 0.4373808185309006 -0.3368813658088547
105895000.0 0.5338902578758019 -0.8388763318852842 -0.6160685292731694 -1.3584884829339532 0.0033752466610285016 -0.0006093543492221497 0.4369520560568406 -0.3534581286485
106894000.0 0.5244888363281646 -0.8467895224523788 -0.6647601195053501 -1.3925042919633077 0.002962411757285677 0.000586913051162254 0.4376906699636186 -0.3595262702109523
107893000.0 0.5197495126465799 -0.8511411089406049 -0.7127660338483192 -1.4365034114032367 0.0013030698942560147 0.0012914016142097772 0.43966626291149474 -0.37495897972103615
108892000.0 0.5071725292662014 -0.8541443965230493 -0.7721408821355057 -1.4714388318074942 0.0019708275032145096 -0.0023996735596895804 0.4328405398781006 -0.35808433328900946
109891000.0 0.4957083775975684 -0.8637094917115282 -0.8304722725585627 -1.5066217569487759 0.0006787585637131734 0.0011536173221701508 0.44029359348871305 -0.372448893892566
110890000.0 0.4744048133578204 -0.8721006729873171 -0.9072673546977492 -1.5034881722513642 -0.0012517480598730557 0.0011471983881631113 0.428899252660122 -0.38167262424699633
111889000.0 0.47366799952106087 -0.8706317196609117 -0.956826272902223 -1.573661204320689 -0.00024081188320895878 0.002407289614041602 0.42394456112747003 -0.3955129767219236
