! Created with skrf 1.9.0 (http://scikit-rf.org).
# Hz S RI R 50.0 
!freq ReS11 ImS11 ReS21 ImS21 ReS12 ImS12 ReS22 ImS22
1000000.0 0.9899571257325183 0.0041760626352692915 -0.01225890621890968 -0.04848376515665813 -0.025097185604398806 0.0039914025999962955 0.25951886364419857 0.36646217922020796
1999000.0 0.9949298644125354 -0.010357901992876664 0.0056596330792694155 -0.01843169701144307 -0.011009577216893562 0.0015069301276629263 0.2576374774953976 -0.028135455852331556
2998000.0 0.9980732785687729 -0.021811000464687463 0.009434403732901197 -0.011223387638477075 -0.006452246992809151 -0.002147756475996586 0.1932002741529036 -0.12686181268310368
3997000.0 0.9961623771249425 -0.0337570716027632 0.007428033388568048 -0.009088657780867222 -0.0017635389860419506 -0.0072383549359236405 0.08931239510737181 -0.21221754487099953
4996000.0 0.9961966298083527 -0.038378071758754316 0.012485435489286868 -0.003292677853018116 0.0023415603970741417 -0.001488352621307863 -0.04039880235410015 -0.20779573391942954
5995000.0 0.9985729877706004 -0.047547868418953934 0.0054719531506384166 0.003446983691594478 0.0012779771170086012 0.0015362665849722775 -0.13475445206462155 -0.1027676430534612
6994000.0 0.9937558227113779 -0.05632732512974844 0.006358360214742866 0.004501901236375033 0.0035750349366219544 -0.0012040957863610595 -0.15069025050140258 -0.026126348722784413
7993000.0 0.9954686869274558 -0.06781315492009463 0.003900294281312422 0.006366103656559608 0.00033119374569138654 -0.0017890845146372792 -0.16507253543839107 0.026330271980766273
8992000.0 0.9931451478619867 -0.07085902697746213 0.005748489423698112 0.00981065135228701 0.0023730002224029707 0.0015772698419025991 -0.1579103060306102 0.06111799392428574
9991000.0 0.9914398187590654 -0.08411822022606949 0.0005243753203504601 0.007019086334148579 0.0005287420939124723 0.0017497216386288574 -0.15487473040036978 0.09473564971948402
10990000.0 0.9909277314454399 -0.09309623527508552 0.005538165044068998 0.0014707891614885655 0.006404093842359902 -0.0011936778986175395 -0.13190247454354298 0.11101883500239948
11989000.0 0.9889132892150709 -0.09902495232429895 0.0063740051090631425 -0.005150458306843864 -0.0033846112205328086 -0.0013777001053362126 -0.12913603586778152 0.12945711967039528
12988000.0 0.9891850916479249 -0.10872087940449292 3.488701877986239e-06 -0.0044786231406388115 -0.003005731811081902 -0.0007916881446120748 -0.12178963089933793 0.16411181658370316
13987000.0 0.9873907888642999 -0.11894032126632134 0.001241539490198485 -0.0042290038683805535 -0.0007193636806753412 -0.004602197617103619 -0.10432301039910469 0.18583543231114
14986000.0 0.9863500755428116 -0.12653823035229247 0.00017295834973769277 -0.002320274426906441 -0.0002334301540641486 -0.0005328777641894882 -0.11125062515311487 0.21031255053382128
15985000.0 0.9860855057231082 -0.13488961111517092 -0.0023970227835978524 -0.0051070853132401065 0.0002551623014851989 0.002190775691378918 -0.07735644824628536 0.21011349178339256
16984000.0 0.9825637989957094 -0.14528353568150454 0.0029622943020852265 -0.006515250752260683 -0.00027922558141938174 0.0011697725987737991 -0.0644401204372221 0.2121899670653547
17983000.0 0.9846587479936912 -0.14964209596399125 -0.0010954028765273753 -0.004244397753768554 -0.0025984458728939668 0.0007901684603053389 -0.057359738464829335 0.22370542321921114
18982000.0 0.9827233206168632 -0.16265353789501702 0.0014854183967221257 -0.002047488276273998 0.0023467910420169676 -0.0014965523511086785 -0.017135404289435885 0.2283950601059436
19981000.0 0.9807141637184896 -0.16551181669881898 -0.004133792106952378 -0.002103915420780555 0.0007305041978871607 -0.0014579038022895187 -0.011655667470940335 0.2423920277596088
20980000.0 0.9801917243950813 -0.17655820005141928 -0.008195481947697607 -0.004134223178949417 -0.0023576613777224306 0.0026684413506944406 -0.017137186890934977 0.25715679524701496
21979000.0 0.9770457413763375 -0.18487173132570348 -0.005154198322525237 -0.006462523843722206 0.0014776064595194822 -0.0010445572508897257 0.010544400511780598 0.24688656360095249
22978000.0 0.9764189724951472 -0.19225372234763324 -0.008121830487868529 -0.005164399195340078 -0.0027032955471820515 -0.002634480861191763 0.030132983827243286 0.2545806174135554
23977000.0 0.9767188034849398 -0.2013234330721285 -0.004947772808198203 -0.0002332307239183245 -0.001173938946509178 0.000499076119549835 0.03768828332519697 0.25944950899026514
24976000.0 0.9716692374320711 -0.211412148433285 -0.012470781603353588 -0.0049152861030013015 8.056937011934725e-05 -0.0029793343947999815 0.05636085676659081 0.2631551060483072
25975000.0 0.9654136922549377 -0.2176547195897406 -0.00028213417092807537 -0.0014752701377695977 -0.017139383425530338 -0.013120962874829575 0.06593275151189487 0.2723162948000555
26974000.0 0.9698848748108233 -0.2291818893765245 -0.0026509695987679146 0.001066473417816066 -0.002651271583576493 0.0006363920733076402 0.09274611623360046 0.25487141003532243
27973000.0 0.9675265359746604 -0.23381327102171548 -0.0033802639607672285 0.0009142440063452697 -0.002839270713745866 0.0001747566837235207 0.09834761483074529 0.253608498757639
28972000.0 0.9642695285069791 -0.24627913646496363 -0.0018378167083615052 -0.0007003684923890294 4.627695462135286e-05 -0.0005156300343885462 0.11128112115517298 0.2516905589577164
29971000.0 0.9638632749950622 -0.25292343343548285 0.0011920585884932584 -0.0030638223801812436 -3.0287213991132926e-05 -0.0036805849804885165 0.1480196568342839 0.2638117976449515
30970000.0 0.9602800744158629 -0.2591444496566824 0.0009292743526483178 0.0005591849833964158 -0.003538092300242612 0.00111323007804494 0.16265084400940588 0.2449999459612755
31969000.0 0.9590881144467983 -0.2683408595217753 0.003789854572235249 -0.005714301580990242 0.00018874576047945812 0.0005504104422710665 0.14834170692030788 0.24772656614495242
32968000.0 0.9579864157800494 -0.2774891422432496 0.007650475477709558 -0.005892414342980703 0.0010750455248881524 0.004464211592063929 0.16716581002511327 0.24853054953395115
33967000.0 0.9553128463855973 -0.28564086461087507 0.01034135931979167 -0.009345654682073268 0.0010873750521465642 0.0034749972367714567 0.17851473009594002 0.2463728756007318
34966000.0 0.9511596388485537 -0.2984316983004469 0.014399673489241488 -0.011838555606713002 0.00012713657542695546 -0.00023824424876732294 0.18745544812147988 0.24230757838246658
35965000.0 0.9487954977995695 -0.30473834675056444 0.01296173873092065 -0.013521962088075512 -0.0001265213651572371 -0.0007437888244278407 0.2035022044547663 0.2446298904938857
36964000.0 0.9462979314419917 -0.3132820608343345 0.01530213195848721 -0.01334063170674629 -0.0019029232926358443 -0.0018916406060464966 0.21052512684414704 0.2519338556213829
37963000.0 0.9430072283934055 -0.3217066335930727 0.018680320062579147 -0.019481936968884873 0.0008896418709107367 -0.0020650697106437944 0.22501334619148317 0.2300445067801267
38962000.0 0.9400036613072736 -0.33176214619953315 0.02440334002498241 -0.022566470713097593 -0.0011527909009218622 -0.0013363885090989678 0.23412314717100857 0.23128617068848334
39961000.0 0.9362831969769337 -0.3395418309481944 0.02785279129762731 -0.02687882665855815 -0.0013843005500795123 0.0015021481774610517 0.24339914949894817 0.2244150596733398
40960000.0 0.9346828627330476 -0.34763094301162956 0.02166623827963436 -0.02321918409979357 -0.0019962812456114265 0.0030021703314302623 0.269855253257286 0.2239987843660006
41959000.0 0.9307705890960786 -0.3560598452419748 0.031191507440009893 -0.03143101771085066 -0.0009083888563139811 0.00033852894087445104 0.2692092627500792 0.20729819347635134
42958000.0 0.9257296264272965 -0.36634801222168245 0.033515289047498543 -0.04061470894346806 -0.0005503597699286774 0.002352460206609254 0.28156507129510955 0.2018068023818322
43957000.0 0.9262364579219639 -0.37053023681364267 0.03223348284600342 -0.04652979797663431 -0.0025056655214631533 -0.0033839146774927386 0.2832920465192462 0.2117931750645833
44956000.0 0.9208758221576647 -0.379574066268291 0.03241599976748946 -0.05359535580527593 0.0012661718050303234 0.0027539388394345744 0.30238396011137625 0.1961757557609034
45955000.0 0.915970226660457 -0.39082862438745575 0.03397126959872686 -0.05524953081267402 -0.0009990544538925885 0.001385023043885329 0.30798649251653265 0.19338132174634592
46954000.0 0.9134944486609585 -0.3978080176135363 0.03601762284100109 -0.06641828473344819 0.0014375296582008733 0.002113112711402986 0.3209947054805139 0.1785837690790463
47953000.0 0.9097003711467969 -0.4054573889823441 0.03660429987485485 -0.07323686150765679 -0.0008128225201815916 -0.0001402826712780165 0.33466139144602436 0.17572834605552642
48952000.0 0.9054151591221312 -0.4153666012630838 0.03807498239165838 -0.07930786708501814 0.003296842636816447 -0.0016597039960996585 0.32630755953730334 0.16506838196883514
49951000.0 0.9019810275265654 -0.4229915779624 0.03647352931800285 -0.08830605590427414 0.0010813838807191612 -0.00041900843314397296 0.35016776951082 0.15371921877832068
50950000.0 0.8973786745812332 -0.43021576510842674 0.03782922207871712 -0.0965295005227371 0.0016974814496434547 0.0029492044632097583 0.3522651612216791 0.1332785416579294
51949000.0 0.8946063981174066 -0.43935834300989435 0.039768102252467664 -0.10367370622509489 -0.0023066410735134426 -0.003465488085649806 0.35530044775977276 0.14342109463640618
52948000.0 0.8927779761064719 -0.44633468350132954 0.03980929299047204 -0.11170567783133833 0.00038809148563075194 0.0029805320342022688 0.37027212514750735 0.13916140866902948
53947000.0 0.8855963009978851 -0.45629778155592987 0.042203155387139236 -0.12058022443659233 0.00023521162965740576 0.0022872566360815105 0.3757956790579617 0.12497303544911376
54946000.0 0.8808152900262012 -0.4640300399856233 0.041514367078852275 -0.1293673160705296 0.0021264767767029042 0.0006078521307022199 0.3862476246640266 0.11707324710691698
55945000.0 0.8764690239255818 -0.47390087339541576 0.046542211173683165 -0.14364681480044825 -0.0025720880337821396 -0.002427758903078048 0.3885514018252093 0.09608323875117204
56944000.0 0.8736499697770979 -0.48146214926354897 0.048031216959463385 -0.14848057897854172 5.301567621616058e-05 0.002571224492223762 0.3933038626719791 0.09878013446534181
57943000.0 0.8672607374923599 -0.492042097735761 0.0475513088758816 -0.16263987293735968 0.0010020386988331934 0.0007562397987680104 0.3982391734241188 0.09349308607396949
58942000.0 0.8614695401778185 -0.4952339606638643 0.0500354651100837 -0.1719036400230594 0.0001072834896921093 -0.004442796238775247 0.4115337048767092 0.09437299326019923
59941000.0 0.8598295805974214 -0.5055340154595557 0.051054696809900005 -0.1818755024677573 -3.9916763780353235e-05 -0.0005859366996703172 0.42227521190841344 0.083729782838095
60940000.0 0.8528220406028619 -0.5135329602186899 0.049579194730057806 -0.18694481456624842 0.0029038399031217363 -0.0026646304081875865 0.4148732591432016 0.0786196081245505
61939000.0 0.8495421267379816 -0.5187413323222927 0.05061413708111922 -0.19324579140693768 0.0008590087672799196 -8.427300196523842e-05 0.4150683097862336 0.06631028752161469
62938000.0 0.8440669608453024 -0.529043071210062 0.05399936302179544 -0.21324102512755455 -0.0006179876033461466 -0.0009272591001200719 0.4337731618130207 0.0537591214769638
63937000.0 0.8394165902163472 -0.5360609410501395 0.05695064243597405 -0.23292300596166932 -0.0022623489172934543 -0.001676245744430433 0.43120101821935425 0.03814997714851398
64936000.0 0.8317223321733694 -0.5435940228268623 0.055982514607620326 -0.24565675048713312 0.0007057298813487877 0.00125405572365323 0.4274915788003598 0.03846769261374773
65935000.0 0.830765412605097 -0.5520729583017837 0.051465292591088854 -0.2594087194260702 0.0039996263551540946 -0.00276920267982623 0.4434685282020328 0.01962399173553651
66934000.0 0.8242836936116938 -0.5588361320949669 0.05611202795502618 -0.27104100597476827 0.001334635103185387 -0.0004676708171238948 0.4311927793508134 0.008135756887391227
67933000.0 0.8206664124679357 -0.5660615682732825 0.05784954221397646 -0.284808556195005 -0.0017326611423663328 0.002225499115037747 0.44407558794034907 0.01332319921915479
68932000.0 0.8079338446557486 -0.559657734795813 0.04965518034416289 -0.2955223762442172 0.0019975845912584512 -0.003275717518860075 0.4423651815812697 -0.0015574784943377861
69931000.0 0.8074052342218512 -0.5820101352005459 0.0505544387493419 -0.3169693767002563 0.004757506292282662 -0.0006826475586939956 0.44949574111897916 -0.022855528604468357
70930000.0 0.8017414790600795 -0.5888066687500714 0.04719703003027846 -0.32941927528504006 -0.0011852619368170488 0.00034764618501818595 0.4497823920299182 -0.030632439570738548
71929000.0 0.7968525961608638 -0.5981029345620128 0.04342160613661706 -0.3490683439054256 0.0020070045070961213 0.0006840964063966827 0.4408086567184859 -0.038353120955719515
72928000.0 0.7902537419190143 -0.6081257010807847 0.0382671703950225 -0.3638191069135331 -0.00039663762209707907 6.170250178894469e-05 0.4615741381615573 -0.05078316884387652
73927000.0 0.7850523588340145 -0.6131570311936004 0.03406824639576548 -0.3836874581479232 0.0022705637479841015 0.0035325061317484493 0.45284226372499004 -0.05749107078352785
74926000.0 0.7769409745945708 -0.6225179295996529 0.020855043937075525 -0.4016680053397242 0.0006408239660647372 0.0032578534118597267 0.46501097765688215 -0.06574237640784383
75925000.0 0.7717097645454427 -0.6280585376429633 0.013222081081782284 -0.42206242614684 0.0010234936794459566 0.0028663951199257537 0.4628743088198876 -0.07696721582278615
76924000.0 0.7652667986028518 -0.6359545199746143 0.0006920454716224396 -0.4432786975076799 0.0014859252289408428 0.003974439406205245 0.465193900733544 -0.08823284671996916
77923000.0 0.7600609669974377 -0.6412812980798052 -0.01434452022992678 -0.46912506277130755 -0.0005621609410928077 0.0032176634654510795 0.4584305316288455 -0.09249055354734416
78922000.0 0.7545810276304455 -0.6523517681137844 -0.026697189177837234 -0.49635806448439296 -0.0030460097654947103 0.0010367275888153362 0.46107256969213384 -0.10868706395653724
79921000.0 0.7459179507374425 -0.6554054587601894 -0.046754683389947024 -0.5200174500755775 -0.0032018789404927722 -0.000670542583429928 0.4559812239660312 -0.11707301687169443
80920000.0 0.7404882110369501 -0.6685005824719208 -0.06318540620712801 -0.5486600207482227 -0.0011065859253522022 0.0010257376474578726 0.46391601790452075 -0.1260531539494841
81919000.0 0.7344680361796628 -0.6725857915540512 -0.07417334482350371 -0.5756287637311861 0.002083787612137585 0.002651213694367533 0.4715837085633785 -0.13861948370128385
82918000.0 0.7252554488883538 -0.6793692035607386 -0.08689430437576934 -0.6055084002225329 -0.0017676735576890729 -0.000728584276642624 0.46571083156089693 -0.15446251490849763
83917000.0 0.7190555572883361 -0.6857159253384454 -0.11055209178352161 -0.636164858434736 -0.0015116276412581698 0.0007325978913321156 0.46120482120926987 -0.16046271872720289
84916000.0 0.7122426456942909 -0.6956181716627282 -0.12863971603658503 -0.6664141850741374 -0.0020671618298266034 0.002463281379909313 0.456066987034754 -0.17585841642082842
85915000.0 0.7047106300947963 -0.6998806633193942 -0.1479177948845163 -0.700408243413441 -0.0017076432794818042 0.0006193015926102793 0.46073480126109667 -0.17759126318571464
86914000.0 0.697028713083515 -0.7124495492609558 -0.15985408255917677 -0.7383861452445896 0.002267790498367197 0.0011646432080252998 0.4618919775843672 -0.18174082779387382
87913000.0 0.6902061229403434 -0.7161138323937469 -0.18370058520067556 -0.7640480686638305 0.0030473451593696107 0.0026598710960808987 0.4574102314013737 -0.18956720953620051
88912000.0 0.6849185288366771 -0.7238569036578997 -0.1920358595311759 -0.7994866820955322 0.0016948821528982411 -0.002256949521430868 0.46133495781782335 -0.21113512596256254
89911000.0 0.675004141949731 -0.734102233677781 -0.21003437251817433 -0.83338319104353 0.00040427947685642393 0.0016519597695324472 0.4544863244236346 -0.21380521183519993
90910000.0 0.6702082102771704 -0.7369067763272855 -0.2275115793999519 -0.8720734517280866 0.003741744184017596 0.0023472877260937784 0.4623319413759211 -0.2188508601321271
91909000.0 0.6599047313262862 -0.7414247031810997 -0.24626395881160648 -0.8970940937423652 0.0031631552229499605 -0.0004369089605173902 0.4573752490476822 -0.23554582933172621
92908000.0 0.6530004747545698 -0.7513624910729219 -0.26340477862041306 -0.9315206033330293 0.000740325966563908 0.003474291684607269 0.4438238883840039 -0.23885954142278515
93907000.0 0.6486962189380735 -0.7568465888087537 -0.2818868303535146 -0.9676885875286785 -0.005280714804043927 0.0011365260159588578 0.4626775508722097 -0.25227636598558695
94906000.0 0.6358775909936668 -0.764671239244743 -0.29638840857053483 -1.0010787132538708 0.0021463143699858903 0.005372863104006287 0.45363139044324635 -0.2446212570577769
95905000.0 0.627637093499633 -0.7705226875526333 -0.3222955163454384 -1.0318160491524773 -0.0013035420082313123 -0.0017760478928723394 0.4564368781778294 -0.2715726638144519
96904000.0 0.6204596333559562 -0.7784612689053917 -0.3384205250661976 -1.0727983391219988 -0.0012410449570451104 -0.0012347676181342381 0.4453853055942874 -0.25801773399067596
97903000.0 0.6112965860000239 -0.7856364104302418 -0.36226087083861813 -1.1046657046433759 0.002624245652716734 0.0026116607627135117 0.4483115991618403 -0.28638494286877825
98902000.0 0.6045169374890204 -0.789834100222886 -0.3795741952453066 -1.1425478998400362 0.002118208932128619 -0.0026418563879875333 0.44545948691755816 -0.28760557173870227
99901000.0 0.5947951682282038 -0.7977682542050559 -0.4132307722845484 -1.1685782109461547 0.0013277714703017907 0.00013803706903810586 0.45036970563330886 -0.3234541186903742
100900000.0 0.5859359526349561 -0.8003999829802387 -0.4424085323059198 -1.2024291833467458 0.0012900112334533341 -0.00037940097613106845 0.4545276349148803 -0.30651960124710675
101899000.0 0.5783445499821909 -0.8101480359878045 -0.47364780197584494 -1.2394080496803508 0.0029923729855986063 -0.0015451141360947036 0.4437004322303378 -0.3237111129766962
102898000.0 0.5676918497780907 -0.8159480938512754 -0.5077026516061628 -1.2759873820979075 0.0006357976849829707 -0.005314336664916324 0.4443728738197807 -0.3396607141400802
103897000.0 0.5598795461413797 -0.8235138341075533 -0.5458668713410235 -1.310911383937283 -0.0003414829471575136 -0.0008572218917145191 0.4433203621610677 -0.3418354582286335
104896000.0 0.551653763711292 -0.8319366873898315 -0.5929986232770944 -1.3411939652620983 0.002421301058020589 -0.0024853658556495003 0.43973818531659703 -0.3367108054450676
105895000.0 0.5428822716022764 -0.8343006730100079 -0.6346663185447886 -1.3873794704423175 0.004271700511142912 0.0025262214675482006 0.44073979859545964 -0.3514707548887015
106894000.0 0.5323167494057879 -0.8402500269176167 -0.6886058779893637 -1.4192247512281124 0.00032880395708267024 -0.0013258798557345903 0.4308720353871553 -0.36896888380638543
107893000.0 0.5235265591391527 -0.8461947883087672 -0.744815653623714 -1.4591543713884692 -0.0023888980680129234 -0.0015665985574626709 0.428963492274053 -0.38056424427164526
108892000.0 0.514879960906544 -0.8499681822673574 -0.7991191448917102 -1.4964370510972194 -0.0005692673772998965 0.0007736026634617394 0.4294052591829099 -0.369571761571495
109891000.0 0.5016951429928794 -0.8593227949928678 -0.8574809999456255 -1.5280195289106255 0.0034566735862152915 0.0006863314157209444 0.42914145047248675 -0.38042630513592274
110890000.0 0.49530258871287397 -0.8663398745869462 -0.923773641415013 -1.5515647164159305 -0.0008458204502807296 0.0017013781989751436 0.43008193278361984 -0.388713340526288
111889000.0 0.4839156422457922 -0.8636687115044995 -0.988006122745577 -1.600322364530738 -0.00364433051471955 -0.000544037426624255 0.4208647570049127 -0.4064283480654317
