! Created with skrf 1.9.0 (http://scikit-rf.org).
# Hz S RI R 50.0 
!freq ReS11 ImS11 ReS21 ImS21 ReS12 ImS12 ReS22 ImS22
1000000.0 0.9727909062660731 -0.004167776847801344 0.0051402544238709855 -0.04336489912179521 -0.018781497185156627 0.0037997409035424702 0.328722287570817 0.2694669157878367
1999000.0 0.9946826738733717 -0.014218936610369827 0.004926193510573466 -0.026968169283486484 -0.006924236437788039 -0.0034991073881789347 0.25189321368311174 -0.061022405902129206
2998000.0 0.999511156078871 -0.02147877972532482 0.01327249305969541 -0.016227739822610453 -0.006463935896835463 -0.0011577956991204925 0.1879427119059229 -0.15253054498508578
3997000.0 1.0000702350640172 -0.027421087260746116 0.01093774804691832 -0.00741508257301525 0.0016595908126862684 0.001081145995436015 0.10522355693297522 -0.21844141322417074
4996000.0 0.9991370184919227 -0.03802869715519044 0.011474167631362619 -0.0005641605281215276 -0.002391983351090237 -0.004097160484861085 -0.048011340154858834 -0.20145806503283614
5995000.0 0.9955163823519545 -0.05056006302890831 0.008571771620891268 0.00495385183961764 -0.008389044672901708 -0.004726319135422352 -0.12783845830136661 -0.11601315962911167
6994000.0 0.99729227469361 -0.05594604383023879 0.00463268225523338 0.004973472045819274 0.0022081143843810398 -0.0036893360610263655 -0.141014783797983 -0.02672738837537463
7993000.0 0.996756608403767 -0.06537994351044696 0.006651496689921066 0.006536998800402911 0.001446166503843504 -0.0032800279165216043 -0.16554992121360274 0.034996171781066635
8992000.0 0.9978768912669219 -0.06987157904344081 0.002283592581475321 0.00523984122587993 0.0022549980581402186 -0.003877154544028887 -0.15123304333354365 0.05848462273388204
9991000.0 0.9935915411462266 -0.08095909889293644 0.0035138025584907718 0.00025164563442409566 -0.002752252934412153 -0.00032707954301773937 -0.13378036073909774 0.09136228318555134
10990000.0 0.9924843312009706 -0.09188216201506184 0.0021978869472176403 0.002975378670127605 0.0006375977578639272 0.00106300897925036 -0.13873710619310167 0.11118180179401678
11989000.0 0.9925982606356847 -0.09691187089316465 0.0025280920709624503 0.004166790799372676 0.0005678610627121675 0.0021180338366681983 -0.11693108854366877 0.13681550832048497
12988000.0 0.9912299709935433 -0.10813634081167751 -0.0043916489497697565 -0.003600207401593163 0.0018729769143075962 -0.002933878643071454 -0.10610833757050514 0.17572356282531873
13987000.0 0.9909498983424273 -0.11821438286491588 -0.0006914400723637878 -0.0007042220663310403 0.0010734841376934074 -0.006718145981617298 -0.0931416047043239 0.18781131116986396
14986000.0 0.9900185092786119 -0.12342812415229869 -0.0019846538052923583 -0.003912652872788303 0.0012724829118852055 -0.003713882243887136 -0.09267551238589827 0.20259414321599034
15985000.0 0.9917631233223115 -0.13195750841832887 0.0030341632241880174 -0.005739132811164503 -0.0021461981379439507 -0.002307813881812378 -0.07090121471994373 0.2254405382939733
16984000.0 0.9874559885253608 -0.14308411131709414 -0.005123128103701391 -0.006825283098712096 -0.002155686293140878 0.001912052981892641 -0.06224815833314618 0.22013451025084996
17983000.0 0.9884973000796695 -0.14757367169384789 -0.0041063813166600585 -0.006941795201177085 0.0014942700748564425 0.0008841603513489634 -0.05690661503190424 0.22309847766854138
18982000.0 0.9837492537918321 -0.16158161462249862 -0.004546934400671384 -0.007928986730282197 0.0002615354849068365 -0.002259128570101876 -0.025907666904138243 0.23885278285135014
19981000.0 0.9828387968575918 -0.1666414984465797 -0.006985878099041507 -0.0005147034594134997 9.701356402787705e-06 0.00011771632572823571 -0.01480730786873525 0.2431395444881817
20980000.0 0.983719384240155 -0.17524974992898015 -0.0028913780014259544 -0.006603287861684516 0.00116583131729646 0.0031914719848544497 -0.011404547170605147 0.25076589327238624
21979000.0 0.9811504215679108 -0.18293236832805435 -0.005340815219905318 -0.004488625222095034 -7.642539299217816e-05 0.0022832484499871845 0.01858862086798343 0.25213146372778694
22978000.0 0.9786244985858866 -0.1933884415613352 -0.001181023408278303 -0.001060822882294071 -0.0023218902529007794 7.505783892676009e-05 0.029538288041577404 0.26213953380370314
23977000.0 0.9806792075828435 -0.20018693725537154 -0.006179203649055666 -1.3344176000644974e-05 0.0010175359558096072 -0.0023659648285922655 0.03765658009199838 0.2666069614447734
24976000.0 0.97513577859944 -0.20704310150368158 -0.0058407799775505405 -0.0047082982525690435 -0.00035884003774552353 0.0030551368448969336 0.07321823456544317 0.2506935251640132
25975000.0 0.9767221239275353 -0.2222933193946332 -0.004879157178318556 -0.004213101330345914 0.02166068638146525 0.014354910945519864 0.07401209423907303 0.25313097059409106
26974000.0 0.9704733581573929 -0.22720199862834062 -0.005796017401225904 -0.0012892864436138804 0.002373453061436548 0.0013421172017217715 0.09073390818454745 0.2581538731504103
27973000.0 0.971283788724841 -0.23216839290764427 -0.0009508585227937435 -0.003925444837802526 -0.0003691796076967179 -0.0017960860541137492 0.09953533661199428 0.25795616801219734
28972000.0 0.9664255563340968 -0.24283951939775297 -0.003332351387013023 -0.0003434613900766463 0.002026718628376993 -0.00019851922599506427 0.11909192405337196 0.25110689771144457
29971000.0 0.9661450989902678 -0.251381921629392 -0.0015499168325577932 -0.0010290329834315407 -0.0007832972556831655 -0.0010859342633254654 0.15191405064212324 0.2661982952941329
30970000.0 0.9643999464476405 -0.25748418686355884 0.0026639920585289235 -0.00021349721621330067 0.0025115123389952377 -0.0005750792387972899 0.1616115368461051 0.2528042168778836
31969000.0 0.9621508932262355 -0.2659455093979919 0.005476265772654275 -0.0033156188661176474 0.0031656307350566254 0.002098313039912027 0.160220076723832 0.24522568249596
32968000.0 0.9612773723192489 -0.2734102197943599 0.008171748714624113 -0.007780905178681922 -0.002723671465760487 0.00344115988641942 0.1674035204281119 0.239916262902861
33967000.0 0.9587289759370159 -0.2833435166644206 0.00951025076121897 -0.00927825470866876 -0.0011446102161961854 0.0016111037958739102 0.18324987520999816 0.25122547228440056
34966000.0 0.9560622104396397 -0.2920758616854021 0.01359302726963233 -0.013532795263988583 -0.0004630929644002896 0.0002017773982584573 0.20171816003441975 0.24317625265911186
35965000.0 0.9531415262985783 -0.3011273558201195 0.018358708543026157 -0.015361672561352764 -0.0020638334653034396 0.0010469609858507606 0.21091136013544093 0.244889828832923
36964000.0 0.9491360003992666 -0.3106789600280058 0.014987930820904645 -0.014617120754710094 0.0015716466084384456 0.002756760556773825 0.21900789404107113 0.23887871035254474
37963000.0 0.945584379255971 -0.3186216135278649 0.0249891288494706 -0.02040182717784258 -0.0006125663206808134 0.002301726006279542 0.23682102691724916 0.23502385282319652
38962000.0 0.9433765344555569 -0.3284624278416384 0.026160928778569476 -0.024635765170633834 -0.0019915048069664557 0.002143065132708173 0.2367302152730251 0.2269814626391045
39961000.0 0.9415337883817659 -0.33218383310371996 0.02806145639711172 -0.028176250784534798 -0.0007264053461686804 0.0006756397705867821 0.25641661958538564 0.22956384647936973
40960000.0 0.9368317959495148 -0.3428258872780857 0.022236893695268024 -0.024679546490066408 0.0021752558649415685 0.0020874639229067665 0.2662665098338892 0.2125046630003195
41959000.0 0.9343804310592291 -0.3517532701106975 0.03564884401405609 -0.03233574291262685 -0.0006586531773363668 -0.002538056025188118 0.27510962405556955 0.21496375097677098
42958000.0 0.9273594730018616 -0.36288642598299187 0.03500535482485014 -0.04206746165489833 -0.001332727015507646 0.0014297177045263457 0.2769499212356406 0.2002761999528962
43957000.0 0.9283688925704168 -0.36624021619775415 0.03386960438856692 -0.04753303803736901 0.0009448095938346166 -0.0011649986606318769 0.2808402984801013 0.2038004859430115
44956000.0 0.924033149475416 -0.3744311355009669 0.03626079701550487 -0.05309175191355389 0.0029624772601740293 0.00041635751454222107 0.30409161876031904 0.18620451573398747
45955000.0 0.9212966635870523 -0.38608729032871025 0.04027703750767521 -0.05980251390071595 0.0005221581836838342 -0.0028024724081510593 0.30240653255111577 0.18387762474648994
46954000.0 0.9171641070453134 -0.3924888413047853 0.0401304349613251 -0.06582206628589578 -0.004893038159049084 -0.0022131643525480776 0.33046137193610337 0.1707161714047862
47953000.0 0.9161295367537585 -0.399652206249814 0.039545823016092704 -0.07304491694361676 0.0002788674463068301 0.0023612794974842153 0.340409180369593 0.15925883104588556
48952000.0 0.9089470180774537 -0.41121745295294215 0.04341556621577795 -0.08051595727713483 -0.002343757071839319 -0.0009036358979960802 0.34155124732489317 0.16073350623566215
49951000.0 0.9066113985311992 -0.41610369349875176 0.04401626873274139 -0.08957094948099575 0.0027227360011188593 -0.0010121844149221443 0.3531458339283425 0.15247958600762118
50950000.0 0.9019360158181224 -0.42614103916324636 0.044837323782508265 -0.09858157126477808 0.003910889854411072 -0.0006781000949812226 0.3603184279943445 0.12795565070634582
51949000.0 0.8982018968031771 -0.43215680799355083 0.043849749751991525 -0.10500774394151947 9.0491116993672e-05 -0.0003860702221335875 0.35978211306704505 0.1303977513073443
52948000.0 0.8975639067020601 -0.44006495548581875 0.04583585082466789 -0.11767111636960362 -0.0011995451795527342 0.0022333334470722908 0.3701736624528638 0.1332919557934134
53947000.0 0.8898688813375337 -0.45054828496298416 0.04834375954344012 -0.12441548793577127 0.0015862980830253684 0.0019497318696143945 0.36763775325045395 0.12467865979773096
54946000.0 0.8845889931359322 -0.45771316368196974 0.0500328728446566 -0.1349250277085405 0.002798830453770489 -0.0008311275078926692 0.3787645893932076 0.1132172367035818
55945000.0 0.8833023723240917 -0.4646333121361746 0.051608674011959274 -0.14770547250937358 0.0005268742662380189 -0.0013797908601219785 0.39098469575313727 0.0865955220728341
56944000.0 0.8802648095904737 -0.47340471971205283 0.053744954915472695 -0.1566041634813513 0.0008145187740912872 -0.0011759828978147712 0.3969213021110084 0.09652934150889882
57943000.0 0.8746607404231451 -0.48362087266208376 0.05618902314590675 -0.16673258615780168 0.002576903792511403 -0.0038560069527219924 0.4048570472167488 0.08229579787142959
58942000.0 0.8675693188229682 -0.4909698817871123 0.05684456439246079 -0.17795167669544837 0.0002587363240541842 -0.0017584729957525445 0.42182151460595124 0.07006132406528771
59941000.0 0.8665506913260145 -0.496798821213785 0.05921097769435644 -0.1895030738771496 0.0018289821668082292 0.0028172136323675336 0.41575836965742535 0.0776707501750801
60940000.0 0.858602383624927 -0.504866234856911 0.05488896363046587 -0.19266773678883914 0.0015235972014197244 -0.002704771728080946 0.4145590877461009 0.06674840426954509
61939000.0 0.8553840112552236 -0.5123788822286918 0.05626217695389024 -0.20259512532936017 0.0007213893518517405 0.0009940678973792113 0.41707438107304196 0.048608707072899986
62938000.0 0.8492923745909705 -0.5230016385123766 0.0632975311114554 -0.21956396197783534 0.0001278318783176647 0.002677871104578183 0.4424257083663157 0.04370060300503626
63937000.0 0.8436501663085487 -0.5309747194514615 0.06339610606188671 -0.2409052052529169 -0.0015024575016707258 0.0036705153271813697 0.4360407706382989 0.0373638037490624
64936000.0 0.8390050416779316 -0.5346447976591677 0.061281718525197405 -0.256659676513878 -0.002181777396343908 8.0276896575534e-05 0.44380986988481497 0.030534349735961638
65935000.0 0.8342166807585645 -0.548667937552545 0.06201434535315041 -0.2748324759282647 -0.0034269215328442235 0.000869430062873718 0.4402723004748542 0.013926561499153741
66934000.0 0.8306110960007123 -0.5516065044807719 0.06131339499118751 -0.28814077885149236 0.0008203873316315352 0.0016564395290195443 0.43580585637325087 -0.004907679775358159
67933000.0 0.8279154773167775 -0.5596458056783169 0.06004805158146327 -0.30420938104483225 -0.0008163590729435813 -0.0017323790907416011 0.44846045038778437 0.0038817018465616003
68932000.0 0.8219122407174377 -0.5544222791977615 0.06263151482444895 -0.313196348975343 -0.002038064381656564 0.00266872019358022 0.450921029421262 -0.014827050580253668
69931000.0 0.8119074256736871 -0.5768844552533255 0.05364497665971957 -0.3347878043585491 -0.00038001868355680706 -0.0006991847800458412 0.4516602748225793 -0.02819178385278542
70930000.0 0.808968366900174 -0.5819556276099281 0.05432079352854574 -0.3480467644113203 0.0005682744152399033 -0.00020868847535200852 0.44351071817259674 -0.0367127352136481
71929000.0 0.804310333982842 -0.5920755973466642 0.0489240628731101 -0.36941248760375983 0.0012842399054149732 0.0018721110190743871 0.45759628030755317 -0.05980602624268929
72928000.0 0.7991041747608568 -0.5994537633277233 0.046238841480718745 -0.3872401031656342 0.0007962488835243265 0.001888849103127686 0.46352961069189097 -0.059484171715373214
73927000.0 0.7917822093348751 -0.6070677457671294 0.040212843691738415 -0.40855227641865344 -0.0008919043392599968 -0.004149802056051492 0.4580147658955763 -0.0667218824997501
74926000.0 0.7883537262642547 -0.6163243056583639 0.034273274183664534 -0.4309738074689354 0.0012295662381362586 -0.0003709682381760591 0.4585051905304484 -0.0801623534125414
75925000.0 0.7825333249471285 -0.6208680164642013 0.023649065478276454 -0.45031114306369224 0.00025781386949642074 -0.0019232318809335712 0.4663197769696754 -0.09009973091498186
76924000.0 0.775390730280728 -0.6290290197015709 0.007926983227329503 -0.47631560400193024 0.000748277649214403 -1.0802447864107819e-05 0.4706844665845897 -0.09524794604074292
77923000.0 0.7702017660575071 -0.6325757134153169 -0.005889407363399753 -0.5000621046582094 -0.005325240612564797 -0.00029371776371332005 0.46005150836126274 -0.10538465209188204
78922000.0 0.7637579197279222 -0.6456720859421421 -0.015391256553270295 -0.5290314430700706 -0.001682282330450921 -0.003499212664822276 0.4532953620198427 -0.12223251943856743
79921000.0 0.7541743552397314 -0.6483760429440121 -0.03732952742410771 -0.5544973482062225 0.0019330928413415242 -0.0016354826127336704 0.45636729405764026 -0.11997469658018436
80920000.0 0.750140476432185 -0.6588781352360196 -0.04865450134811237 -0.5839488396248481 0.002337073566045004 -0.000159081421337277 0.467462427966126 -0.14518066560329035
81919000.0 0.7464428457651451 -0.6648162434410216 -0.06997576272003549 -0.6115206637046285 0.0020382424675448943 0.0006818939534095463 0.4603442859699595 -0.13601423507415716
82918000.0 0.735135542922886 -0.6745798404128851 -0.07879792528465059 -0.6443449632485961 0.00035283678514656515 -0.0009334412933117093 0.47975606161188694 -0.1542032864197495
83917000.0 0.7275129208845276 -0.6808670982402242 -0.10386997223190166 -0.6740817199164683 0.0012238360966564871 -0.004596842856296548 0.4757120891026143 -0.16910695166558445
84916000.0 0.7244358470336937 -0.687491735402379 -0.11904214792708018 -0.7090544348051898 0.0025103997911231257 0.004759128049309975 0.4677122731414433 -0.18252099896960874
85915000.0 0.71783446076216 -0.6950152441078533 -0.13981064421555325 -0.7387779317318783 -0.0002504333147828781 -0.00036966737778827593 0.459994646201983 -0.19080696541141395
86914000.0 0.7092655754320493 -0.7027205815628598 -0.1541482379163314 -0.7806757827884058 9.91369756198483e-05 0.0017476605988809581 0.4548177235412311 -0.19933094548707758
87913000.0 0.7037933377520432 -0.7095907973507255 -0.17547850924200448 -0.8063999641085086 0.002817663399727219 -0.001068041149880308 0.45730450232859776 -0.20724538512351376
88912000.0 0.6939005428551018 -0.7164173357446029 -0.18717720375385438 -0.845631797249777 0.0007533996258819124 0.0007434687518349339 0.4691839320363238 -0.21772783162456355
89911000.0 0.6886527004834567 -0.7260195986616632 -0.21161782149395805 -0.8837947064263008 -9.511237215314494e-05 -0.00043665463584897576 0.4636306325271033 -0.2159782563859568
90910000.0 0.6807502821659493 -0.7307304216713442 -0.22952477665050708 -0.9219586787701142 0.0012102201300764907 -0.003309625254489946 0.4621876509033792 -0.2247337560078951
91909000.0 0.6702667782479347 -0.7347056101392816 -0.24973041651224176 -0.954581854073616 -0.0018575564746561486 -0.004311195021576155 0.46915469950769345 -0.2386021039530998
92908000.0 0.6635459615467167 -0.7441802462179731 -0.2699089785471876 -0.9889920276709079 -0.0029815068345724846 0.00020079445070410383 0.4500623841249859 -0.2449718639940792
93907000.0 0.6587241406887947 -0.7506948127267226 -0.2905263370780695 -1.023997543395979 -0.0011922449831549315 -0.002004942991968075 0.46544422053260465 -0.2716820487790758
94906000.0 0.6462857434940854 -0.7579208891687161 -0.30629456568737695 -1.059595728784984 0.0010241179817617662 0.004937576222068091 0.4474354661840606 -0.2574462643924987
95905000.0 0.6400624246542489 -0.7640123294389457 -0.3331342573463772 -1.096030090036892 -0.0007406543965624201 0.0009626897778213694 0.4572136132721066 -0.2766111494077282
96904000.0 0.6305025637117164 -0.7738237601954032 -0.3588764802529271 -1.1382449251533127 0.001961254714916389 -0.0018498825476819419 0.44952432779614787 -0.281902317139149
97903000.0 0.6207467285926276 -0.778464734070562 -0.3841079828901974 -1.1675538164196217 -0.0030663147940275305 -0.0015348123695187973 0.4431959544899029 -0.30285430183800244
98902000.0 0.6175110272285912 -0.7844723248216537 -0.4057046996609962 -1.2131744375286602 -0.0004715534455129573 -0.0027562646350393965 0.45591320581324685 -0.3038290932252671
99901000.0 0.6060395524601634 -0.7904322157091553 -0.4402424615642331 -1.2430472529879404 -0.00100981059078264 0.0016223360987302276 0.45930855340373383 -0.32593055216590144
100900000.0 0.5987627115959511 -0.7950567647836625 -0.47134134365056785 -1.277869600207579 0.0024090921281732297 0.002903477497841817 0.4548614073774463 -0.3312047252193255
101899000.0 0.5873436207039745 -0.8023232701370101 -0.5021183904188459 -1.3144386321636272 0.005182120313499262 -0.003211664680398361 0.4475645812570843 -0.338309525950971
102898000.0 0.5786038889368007 -0.8088482711035552 -0.538884864030408 -1.355418548213034 -0.00042654370249482353 -0.0015842076396615462 0.4428531061721718 -0.349674279200886
103897000.0 0.5713828374240735 -0.8145320688267681 -0.5791864630361272 -1.3949593075827342 -0.0013131023809970677 -0.0009847560704666063 0.44839880888722794 -0.34473536906519364
104896000.0 0.5642109395351282 -0.8248748224390704 -0.6289855840908145 -1.4318693987616107 9.982452432698225e-05 -0.0013513774647234767 0.4360007052853256 -0.3598668320527729
105895000.0 0.5543711239688588 -0.8269437665902707 -0.6783137725226438 -1.4806742971589326 -0.0010150306175747813 -0.0023580812748261585 0.434452642638677 -0.36549685711544777
106894000.0 0.545356655292655 -0.8352501270445928 -0.7341795204911808 -1.5190940894794303 -0.0015685291428720355 0.0010301095941506017 0.427588944656838 -0.3754406051258328
107893000.0 0.537050944629024 -0.8387954861270255 -0.7886541151222781 -1.5566546415662328 0.0014988520491789076 0.0014378502151727035 0.42717738608259104 -0.38989443566899606
108892000.0 0.5252577349628202 -0.844708583207089 -0.847672929779763 -1.5912354235459922 -7.98374342145767e-05 0.0019418618483869863 0.4251352172918475 -0.3847536081951846
109891000.0 0.5149854975645417 -0.8504914165252941 -0.9085019873913911 -1.633048732618195 0.0016214183673038676 -0.0010189735995940529 0.4440957701054295 -0.38315639448594035
110890000.0 0.5040529050720541 -0.85362674859298 -0.9714680810204291 -1.6387836202679367 -0.0027339371114006067 0.0022861884704036333 0.41748886022521176 -0.39116388570246824
111889000.0 0.4940771895932625 -0.8582915963258778 -1.038868175746428 -1.7069469503828434 0.00034959615075330207 -0.0020839639989650672 0.41433949147295657 -0.41544802558916055
