! Created with skrf 1.9.0 (http://scikit-rf.org).
# Hz S RI R 50.0 
!freq ReS11 ImS11 ReS21 ImS21 ReS12 ImS12 ReS22 ImS22
1000000.0 0.9885252673689247 0.008319320430088 0.00839882018037041 -0.03847566124770181 -0.0028782511147667834 0.014291288229996753 0.3531893787597225 0.297181157338956
1999000.0 0.9982890892855483 -0.01211228805761705 -0.0035354628934129643 -0.016086857001630244 -0.0055761747132815525 0.000665383224933862 0.2288173498355974 -0.04478982794356141
2998000.0 0.9990222629932222 -0.021912530576395767 0.016359809229458365 -0.010112748571764694 -0.0010148317369691685 -0.00015948419853120379 0.18702694159124528 -0.1348757609951652
3997000.0 1.0000354456362965 -0.028950414673604093 0.012550293130897804 -0.005101747532379413 -0.0009152428566500917 -0.0017684616913238409 0.10923449792454716 -0.21962716292884196
4996000.0 0.9958595436749709 -0.036280539486601614 0.013434341091618989 -0.0005060470373765107 -0.00044260692101642167 -0.0005892629327340751 -0.019961216053844846 -0.2314454394246984
5995000.0 0.9968951139641546 -0.04972130619196456 0.009642281462839117 0.004914860139311103 0.001547514504327938 -0.002990727925254094 -0.13582519977903895 -0.13867803083035232
6994000.0 0.9963764321713058 -0.05480108372860235 0.008377009401225809 0.004787428089765359 0.001067870924826656 0.0006074717445362066 -0.1693581036252054 -0.04957809057753422
7993000.0 0.9961949263617246 -0.0683638398363348 0.003715644025841284 0.010537074893993588 0.0015717457600955222 -0.0038337675619319633 -0.17054550257029547 0.017516971983917332
8992000.0 0.9940744827426103 -0.07113746225457955 -0.0020233833454354725 0.005234962013760401 -0.0005571402835624498 0.0001566028729651952 -0.19556211728624384 0.05980915031231766
9991000.0 0.9929777286632017 -0.08391913391395944 0.005730635716128351 0.006757062878642917 0.0022782126846119894 -0.0008788166814967909 -0.17758633476601768 0.08766795133218241
10990000.0 0.9923080000779516 -0.0925948452090933 0.004105700099551141 0.004710117730327528 0.0035400238616020464 0.0002478197027117394 -0.15559266239652825 0.10247326540303078
11989000.0 0.9914913411007005 -0.09956732210587227 0.0007377826313287213 0.0010569206265063937 -0.00022563821474731868 -0.0038124746247262605 -0.14224072463777687 0.1394777280303925
12988000.0 0.9910969747601668 -0.10967290743955527 0.0030684146310377878 -0.0014132413200983178 -0.0014113469807311716 0.002740171447990254 -0.1238621083356468 0.1573568334316896
13987000.0 0.9891950244774284 -0.1158031346989355 0.001066971368413575 -0.004177147224684051 -0.0007850683929597785 -0.002979885613592668 -0.10688206391802837 0.19167965146468335
14986000.0 0.9888025325296763 -0.12484677334996823 0.0002692695080493892 -0.004253178479423928 -0.0011703560526072447 0.003937295004520945 -0.10684195682549319 0.1945449781071191
15985000.0 0.9896399268515951 -0.13327856169005436 0.0006330618827315445 -0.004060748905194262 0.0004623100358004939 -0.002787195996549067 -0.07207006668806627 0.21475415513236915
16984000.0 0.9871514028476593 -0.14373658933583433 0.0017037635298552361 -0.006562140544619205 -0.0007934126267970093 0.0001675904757051238 -0.07511299451119177 0.22236805965752293
17983000.0 0.9879839361803069 -0.15003282998619735 -0.00011096590395601564 -0.008380590922171551 -0.00012519460658880246 -0.0033643539048799657 -0.07374263160214224 0.2316900798478017
18982000.0 0.9849508731584907 -0.15919986003865277 -0.00011335146829215929 -0.004611392348108325 -0.0007948168155600469 -0.001476845475437084 -0.04140756679186105 0.24974684217148285
19981000.0 0.984532976205301 -0.16464135311741102 -0.00604100242667342 -0.002819825849042075 0.002043336917574149 -0.0005173400569089712 -0.020409131897776545 0.22490050313980883
20980000.0 0.9825678740515131 -0.17472825948280332 -0.004483351397199871 -0.008508627015548748 0.002932438559254919 0.005881529174108969 -0.013815093158167542 0.2523023070521822
21979000.0 0.9800241870942863 -0.1825033929086888 -0.004300830443329623 -0.00037996438226512737 -0.004430798673306577 0.001121373818860008 -0.0020901812768318235 0.2467047581585043
22978000.0 0.9780031385842202 -0.19388670730200872 -0.0060635991343373 -0.005782911116571302 0.0024985823504358974 -0.0030569339316691532 0.011526823476911013 0.26324552298799336
23977000.0 0.9795271603615002 -0.19833709612711348 -0.008498086221919046 -0.0043114241302996004 -0.003581566274566322 -0.005677113319054774 0.03637718997194995 0.2610605067455334
24976000.0 0.9755802665880752 -0.2103023774091488 -0.00371996944690811 -0.005512491067518402 0.00017044400059919228 0.0011843647042227923 0.05402156647914639 0.25649332336951614
25975000.0 0.9721172117583965 -0.2133150738580867 -0.008683013996192106 0.0026649064524729535 -0.02399495590968795 0.010452081275618334 0.061618241874079674 0.26758311731749335
26974000.0 0.9712601186807179 -0.2238770305263978 0.0009014393017510474 0.001508722387912231 -0.0019212428258756924 0.0009493309967140987 0.08157968513308617 0.26219570993139174
27973000.0 0.9701205777662409 -0.23351551067005127 -0.0016029850076076508 -0.006460270010137742 -0.0020758417744362084 -0.0022158048283198437 0.08894097757372667 0.25602461345478067
28972000.0 0.9666231573972718 -0.24120114007054205 0.0007042940330494653 -0.002052335461170985 0.002002369056712522 0.0009489670072037297 0.11082704218008865 0.2629002972052577
29971000.0 0.9645924664430454 -0.25184673683278563 -0.00016762917465794845 -0.0008260776919736393 0.00019036445100565846 0.0003698163140997355 0.13643732118614324 0.2666008935385423
30970000.0 0.964146148457819 -0.2552601114196131 0.0024383568792698813 0.0030069887017774516 0.002412299562460534 0.0011774525807236212 0.14969096895551207 0.2587659265459035
31969000.0 0.962083901656511 -0.26517604911338594 0.006496033087689683 -0.004699346328729226 -0.001382344649812577 0.0007051522385524589 0.14185700852785338 0.25425445713207967
32968000.0 0.9596333785750805 -0.27386059360480525 0.008113127414282353 -0.01161128532060599 -0.0015560735892436995 0.0032604986306021093 0.15909891833717482 0.24837303682151365
33967000.0 0.9568579067982246 -0.2839899571317976 0.009852420549517805 -0.012542234357284163 0.002473480918036116 -0.00041605765668620065 0.19105121539217929 0.24872357792973934
34966000.0 0.9540748471732328 -0.2932005893179145 0.015259667827239375 -0.013271256621070798 -0.0018223747005061423 0.0006271046113521631 0.17924923192511258 0.24655009284779675
35965000.0 0.9511447149461981 -0.3005442911384536 0.01850038432412848 -0.012755606479487409 0.003009383513014417 -0.0033198569349592475 0.20400366404178052 0.24945144265673896
36964000.0 0.9495276304408553 -0.3086296045413893 0.017160731044390625 -0.015166657076366167 -0.0013736644146272493 -0.0013687780851864835 0.20947312856534894 0.2530899551721577
37963000.0 0.9473061517660812 -0.31713412523432144 0.024307122059569426 -0.022301328643630037 -0.0006014642978529259 0.0005733908128190465 0.22267178327120665 0.23703974623429877
38962000.0 0.9438643395815682 -0.32405179680299584 0.026820023898087617 -0.025954712107939266 -0.0025609751215725706 0.0006861783067733609 0.23381857906376516 0.23741608671402573
39961000.0 0.9402605143505591 -0.334986824584523 0.030182115361991224 -0.029617918140299015 0.0005329163016338834 -2.424116142813256e-06 0.23982108246230457 0.23490547699789485
40960000.0 0.9373481277175921 -0.34271179299569565 0.026101430849218683 -0.025230684554198194 0.0019464052520068436 -0.0024310176327332917 0.26668049168825125 0.22255244479653
41959000.0 0.9341211889949306 -0.3510240742850798 0.030845522153974 -0.03436439803079197 -0.0001555664614076756 -0.0020300196040960038 0.25519239095164303 0.21845893873765793
42958000.0 0.930140939219677 -0.35946129654322595 0.03461231843845514 -0.04121948417938995 -0.001767287112998728 0.0019307119972768135 0.2656528511233804 0.21469107906715434
43957000.0 0.9290743468259022 -0.3673335557120029 0.034143539194267096 -0.04716037564025065 0.00037015003905722243 -0.0018665122022175308 0.28543076946842383 0.20857646051427647
44956000.0 0.9262002273852796 -0.3706853572997675 0.03593370914060159 -0.05198800980051695 -0.004590403228849114 0.0022568574873641518 0.28932561155044434 0.19663893143770225
45955000.0 0.9212864378684978 -0.3832475120918262 0.03793916874103994 -0.05897228593202826 -0.0014320550239172005 0.002023930953731749 0.29995864883552464 0.19309327910822377
46954000.0 0.9180357179810044 -0.3913870811780862 0.034212712598993854 -0.06589757848600089 0.00045067148279663414 0.002185902411260595 0.3182971301590354 0.18563423558848752
47953000.0 0.9151823831112488 -0.3981506583892779 0.0378165436937788 -0.07372117595125922 -0.0009452508175858458 0.00011635192442882113 0.32191910425474746 0.1768546713005372
48952000.0 0.9080907497327296 -0.4106056412810826 0.038427445910165635 -0.08269136865587177 -0.0005465348524330018 -0.0009522627666206618 0.3289774829147669 0.17035755681525916
49951000.0 0.9067591142650455 -0.41447292740210445 0.03764144918101905 -0.09123291071188488 -0.0001920159362161807 0.001079668206864972 0.34374926606662765 0.15786916831241884
50950000.0 0.9022919139020804 -0.42523272999020284 0.0411918478290754 -0.09845436685077152 -0.003459194964846297 0.00144801993590628 0.3456240061738036 0.14850197476589508
51949000.0 0.8981213244525579 -0.43221343039473353 0.0394876665084825 -0.10764646991757265 -0.0033573672237404493 -0.0001966759128932335 0.35095365673090934 0.13969620067919902
52948000.0 0.8970861131267504 -0.44074520639496384 0.04250350201754366 -0.11604761735893013 -0.0006437950998009594 -0.0016154696155719775 0.3649412771724333 0.1379383911235492
53947000.0 0.8893702924220411 -0.4497203301977053 0.041023991842148076 -0.1221506235051437 -0.0032815096707708206 -0.0033190702763179905 0.368374921556505 0.1384822656993986
54946000.0 0.8857780344390715 -0.45616979827500076 0.044217718536877004 -0.1311552149298057 0.0009136788755471549 -0.0012004079077246564 0.37725527017532756 0.11812174529247611
55945000.0 0.8829047306663926 -0.46599281429213546 0.04480909529937395 -0.14802111937116144 0.001955114604263739 -0.0008268517207429898 0.37181077986221656 0.10243296890772194
56944000.0 0.879225384411877 -0.4731738836271368 0.048432769043280026 -0.15707460499660758 0.0016647114961195707 -0.0007941773012094595 0.3961239691195545 0.11778376962778123
57943000.0 0.8756020050420851 -0.483461204515192 0.048923583066452156 -0.16448227324359288 -0.0031628915173699647 -0.00012360175414293962 0.3955242784302324 0.09841550165336753
58942000.0 0.8677565204454132 -0.48917721741457787 0.0505501543637194 -0.17928570843423117 0.00044747116320846244 -0.003533929914721126 0.4179532446374808 0.09688121013329758
59941000.0 0.8674913331284997 -0.4947511059016829 0.05085822669962443 -0.18740063819917904 0.0013775694842668642 0.0021450018144553457 0.4065500070886759 0.10009565792879126
60940000.0 0.8596315063912582 -0.5030122967965058 0.05183584760422729 -0.192397543116957 -0.00039699445016413824 -0.0003842433059246102 0.407342497597106 0.07277234738526506
61939000.0 0.8562766695770309 -0.5104350630188608 0.05367008995885658 -0.20071032762929328 0.0007010733927497164 0.00311668988396061 0.41240898287992234 0.06885030320338427
62938000.0 0.8503856764655985 -0.5210572116017074 0.05549664146035393 -0.21681519194537757 0.0007277041930017616 -0.00016958913777614072 0.4303972548549461 0.058063523312718156
63937000.0 0.8436583230418588 -0.5298576162925267 0.05642610935023793 -0.23784981872424246 0.00011006190531521426 7.571019164151421e-05 0.43009147438719725 0.04118595086248286
64936000.0 0.8404290580634008 -0.5347141181749971 0.055823681820842 -0.2525159727184904 0.004327655845235397 -0.00012522071883240042 0.42173984184167224 0.03830806635385393
65935000.0 0.8361444588831252 -0.5462778671555765 0.05481406444082938 -0.26760483632230303 -0.0024490228662211624 0.002385435889649077 0.44174620098417977 0.02143711260766168
66934000.0 0.8312327721815901 -0.5501627026501422 0.056360854019815915 -0.27842764368632117 -0.0003854290209719947 0.00040368550522599855 0.42777581226008177 0.012947439253664244
67933000.0 0.8290932074687808 -0.5588122448292709 0.055895028640516806 -0.29497312679638427 -0.0014650171408710285 0.00045911060274195063 0.43640321173156554 0.015320311995411978
68932000.0 0.8252621178254556 -0.5583914006825713 0.05267414574165232 -0.30612452491722575 -0.002452631960544831 0.002111805468837984 0.45004203379290203 -0.004671332871724936
69931000.0 0.8145400041510041 -0.5753889568211074 0.05454942968849193 -0.32297737042415264 0.0011540743444397475 0.004685022522550555 0.4408595605092351 -0.019044515147782746
70930000.0 0.8070209634997481 -0.5820574902429643 0.046748401408866234 -0.33900045804707324 -0.0024218862780847335 -0.0031785544037698766 0.44000438095271294 -0.02553365021260901
71929000.0 0.8064135406713411 -0.588685347263639 0.047673349932768214 -0.35447173897121587 -0.0017242819701207054 -0.0007024785543186775 0.4431210288164875 -0.04147517401262638
72928000.0 0.7988711251796785 -0.5984783578260406 0.040753212941325195 -0.3710083881444852 0.001637853063799297 0.0014622539084246811 0.45806946246057867 -0.043784006181784164
73927000.0 0.7925495856978334 -0.6047788749718304 0.03764214822256302 -0.3938534393893249 -0.0028519770262210066 -0.0008971687343145569 0.45524558926158215 -0.05763729026840911
74926000.0 0.7882717696860274 -0.6130218028015468 0.02990573417165392 -0.4078095762590811 0.002347170228430798 -0.0002584051747239512 0.4497959482556427 -0.0559764010137059
75925000.0 0.7831871706512178 -0.6186180167319251 0.01868627536678265 -0.4301203019232429 -0.002470871418743992 0.00021114298818111486 0.4613199028600771 -0.06928392088658834
76924000.0 0.7743599762388845 -0.626930050643861 0.004858752964016167 -0.45600729880303964 0.0013175172708393926 0.0008598463037566182 0.45514663557639706 -0.07469606506695252
77923000.0 0.7724079241987485 -0.6326554520874536 -0.007388720383946442 -0.4782033618746818 0.0030276737287829245 -0.0004480493216585673 0.45987428460458984 -0.10402023216382811
78922000.0 0.7644038913820459 -0.6456796768622856 -0.02201309050924648 -0.5054451736486577 -0.0012752526984907892 0.0033882691333174757 0.4582442280294321 -0.10112284122645035
79921000.0 0.7565839616585787 -0.6461287935350122 -0.04160171230785199 -0.5307152999731727 0.0005862546192766308 -0.0023057471367792723 0.4528040258791176 -0.1275385242413575
80920000.0 0.7509291607650018 -0.6580919049751106 -0.050424985765246594 -0.5586095755880083 -0.003253580310477173 -0.0033941926116935767 0.46540800651985215 -0.11904053328684847
81919000.0 0.7435282103706738 -0.6640347074423015 -0.07256861014530942 -0.5877947668358218 0.00047277322876292056 -0.0023755232459584737 0.4611318685143583 -0.13203680327263517
82918000.0 0.7374870313183074 -0.6714168696058433 -0.0919403306832699 -0.6220422228264341 -0.003935210210485463 0.001843741128518577 0.4668874529568743 -0.14190805029822132
83917000.0 0.7281519705369943 -0.6797676108407137 -0.10921454518106405 -0.6491501368943038 0.0029872212288002283 0.002589040321877057 0.47529920117769864 -0.1444171601605624
84916000.0 0.7231198585437902 -0.687110914848257 -0.12779956882575036 -0.6854002258096741 -0.000401658389843881 -0.0016058853121888937 0.4563046118771749 -0.16885869511997526
85915000.0 0.7180057455646673 -0.6912546295947146 -0.14538177895423524 -0.7147118941119575 0.0015863144452682692 -3.7991644571187673e-05 0.457961280673674 -0.17611022884752722
86914000.0 0.7098710238351474 -0.7022043488331866 -0.16118340489927346 -0.7545983386743419 -0.0011987200730011773 -0.0004435394746807239 0.4552338661499978 -0.17714779635695702
87913000.0 0.7037593151428675 -0.7072277119815387 -0.1820189743770944 -0.7798018983740105 0.0024078887604333165 -0.0014203221238081546 0.4556951614999233 -0.18763848921678847
88912000.0 0.6971538971868437 -0.7138686734303414 -0.19767185791596933 -0.8164392568666997 -0.002111422597913864 -0.001024007770303853 0.451428178233726 -0.21106008486111083
89911000.0 0.689227349843631 -0.7233026216443053 -0.2132764726057899 -0.8573454690367424 -0.0020121397821085693 -0.004783601183779442 0.463066763726897 -0.2138873642375776
90910000.0 0.6814389965213826 -0.7290079326186589 -0.23637133730342916 -0.8884472158920802 0.0026236514054707788 0.002021068265094281 0.4623440795730228 -0.21520008205336352
91909000.0 0.6740732890278549 -0.7332341697965049 -0.25029454074759144 -0.9253533496670083 0.0006546436222357649 -0.0030902565747688393 0.46528327997248614 -0.22300502721473586
92908000.0 0.6657361855333598 -0.744020462337893 -0.2739229700762597 -0.9542602177842271 -0.0009329046846261672 -0.002916354834429883 0.44501698598566347 -0.22820965967556187
93907000.0 0.6585006799802738 -0.7466587569402217 -0.2884987976761896 -0.98811132859177 -0.005539786633471232 -0.0017407182641982813 0.45731473575190185 -0.2548339193517381
94906000.0 0.6458184407050321 -0.7569585061351255 -0.30497885145801223 -1.0235626343846047 -0.0013496646569602499 5.418385494839442e-06 0.4567933438596479 -0.2444877391905807
95905000.0 0.6429038558004913 -0.7626156243730267 -0.3282186948814894 -1.05650658454138 0.002580000944869066 -4.450162104606633e-05 0.4531503366213258 -0.2756580534738267
96904000.0 0.6336438843563587 -0.7714193653427335 -0.34644667059207174 -1.0960650932333664 -0.0011002622015948945 0.0004673054058220979 0.4521020032585533 -0.2650418856437657
97903000.0 0.6235712548952873 -0.778149181910716 -0.3750054748997127 -1.1253538541295538 0.002776035136875827 -0.004002945408674819 0.43453014804209456 -0.2936489434197157
98902000.0 0.6197922037866224 -0.7834044360113886 -0.39051384690144564 -1.1695038442943377 0.0004009186887458933 0.00237169006944716 0.44144087129598747 -0.2926901352120352
99901000.0 0.6054105931494284 -0.7878142259869755 -0.4248077243554208 -1.1953362660845561 -0.0033610115192090595 -0.0022741939898443158 0.4511324651713823 -0.32189243289861846
100900000.0 0.6009834697606891 -0.7928397924848393 -0.45186957798061267 -1.23141522656317 -0.0006040201526810638 -0.0015409809459497365 0.4482407433502226 -0.30850652077847535
101899000.0 0.5921919482104487 -0.8010558773841643 -0.4776983297551999 -1.2677107977050968 -0.0019829522300761405 -0.0007223639849688387 0.4403701774453227 -0.314951145788954
102898000.0 0.581251067448262 -0.8089738534608246 -0.5191643545668353 -1.3035834297459452 -0.003873151124575263 0.0020780524708248773 0.43980148556485626 -0.3398892205056605
103897000.0 0.5726561419496219 -0.8158696863300993 -0.5571216356796762 -1.3383414906897277 0.00021825016475775677 -0.0026711021916808898 0.45187892368858645 -0.3334109804296263
104896000.0 0.567238691552222 -0.824758983227296 -0.6009504089924036 -1.3759665751012498 0.0021453516867225905 -0.0013454794398564912 0.4334470528946872 -0.3365373494724029
105895000.0 0.5569545114203447 -0.8261436226810235 -0.6439129564857194 -1.4202909295400785 -0.0017296784141082845 -0.0002792187936526657 0.4242692504892391 -0.3589634005776903
106894000.0 0.5450875579283246 -0.8340195082536951 -0.7011820945487334 -1.454305522855583 0.005625915711123615 -0.002283998198561563 0.42568892261746405 -0.3612057598070423
107893000.0 0.5370407893181653 -0.8400246138135012 -0.751576040915624 -1.4923363592654293 -0.0032706015159292157 -0.003650216178721682 0.4222333873780523 -0.3701935877986754
108892000.0 0.531735694946842 -0.8409549706211379 -0.8105674798921269 -1.531146430730035 0.000963506947817541 4.733287639016086e-05 0.41685596476205544 -0.3746592025391823
109891000.0 0.5173423546451715 -0.8517585126942904 -0.8706714111856795 -1.5674940554094414 -0.0013941600540653986 0.0008259947490222712 0.4376226086532083 -0.3881544221782883
110890000.0 0.49906726696741704 -0.8538663997761434 -0.9393581636762983 -1.5592033927729545 -0.0010068130589429194 -0.0022776272511633683 0.41954351484578956 -0.38237281344761
111889000.0 0.497573407154408 -0.857381497009793 -0.9967588621173628 -1.6332214201664452 0.004209319654796966 0.0024967187099350923 0.40955558672626724 -0.4099123345415492
