! Created with skrf 1.9.0 (http://scikit-rf.org).
# Hz S RI R 50.0 
!freq ReS11 ImS11 ReS21 ImS21 ReS12 ImS12 ReS22 ImS22
1000000.0 0.9673028867639917 -0.009247599702535338 0.002475436233762819 -0.027555884298542735 -0.005671242963582728 -0.0030930341847469752 0.3650972747533388 0.3076361460064227
1999000.0 0.9947582069429958 -0.01369819520652592 0.006262593262443892 -0.018426717211627586 -0.011370459598479397 -0.0040947203659649056 0.2407839533162397 -0.06662890914380101
2998000.0 1.001422327308831 -0.02229235552772912 0.009674049302311189 -0.011661667766548334 -0.0019312444588670393 -0.0013481858856238468 0.18438367185544893 -0.13901238690527593
3997000.0 0.9991424697791348 -0.03376530461125536 0.011572763494060405 -0.0005119275695045409 -0.003075431052580316 -0.005221476454741966 0.1020785682633809 -0.2115971153094916
4996000.0 0.9948901187206465 -0.036306854515754265 0.008365425221463085 -0.0020367402426940203 0.0012698507018266527 -0.00360192644912002 -0.00934810879352812 -0.2106256601105961
5995000.0 0.9949610046543003 -0.046492130303907406 0.00133687248697405 0.0033702339555098867 0.0014744760080041988 -0.001875535240623327 -0.1178062380884594 -0.12337348453150383
6994000.0 0.9934481548832611 -0.05993920901458496 0.0031362817090280085 0.005540487593453878 0.005159882334154785 0.000563686638147798 -0.14414056933229713 -0.050627943389113084
7993000.0 0.9958732481667787 -0.06857637801568178 0.0032351986636036272 0.006075145941754592 0.0014765709297333402 0.003135661686130444 -0.1544705504619063 0.04168850056737063
8992000.0 0.9927019714924192 -0.07561657952740386 -0.0009326869288477815 0.00165615720562889 -0.0003736892391682098 0.002212330667133393 -0.16524498083282185 0.06616984207182554
9991000.0 0.9917994434586431 -0.0844465249099435 0.0045073054957465095 -0.0010589094059990703 -0.00060202966885634 0.0009362888507878995 -0.16113512473172936 0.08463326848999755
10990000.0 0.9912062274996346 -0.09202082560998202 0.003396126827539341 -0.00394484728370663 0.0019215843480763193 0.006027411444262629 -0.14142328531882753 0.1133037967485181
11989000.0 0.9890327920524541 -0.10221339631343496 0.0013714814151614119 -0.0012629167481140041 -0.0013645643307609475 0.0058463933422337345 -0.13447979839857369 0.1309991741488433
12988000.0 0.9869846602923477 -0.11377970237524336 0.002293449812508232 -0.005441833662517254 0.0006111271750824949 0.002074755234313602 -0.1235486880744318 0.1698148592676352
13987000.0 0.9869119963059588 -0.1172693713310817 0.00028334491393562297 -0.0044400625226012095 0.001793025457625845 0.003380461349742906 -0.09989542601934336 0.18988787636998813
14986000.0 0.9863350455263292 -0.127347723464434 0.0030829868709106897 -0.0031311639743539965 -0.0035864491852109466 -0.0015878470063578972 -0.07996996197330176 0.20757061367804133
15985000.0 0.9874755206659079 -0.13415934030321594 -0.0018331308403029616 -0.004467530246660917 -0.002267468667626164 0.0020477330978752157 -0.07886126814519352 0.2208701673214875
16984000.0 0.9848569990853878 -0.1466534296002805 -0.004868471389351206 -0.0030393534637433574 0.001378082561899016 -0.0023939908520898413 -0.07429297980044865 0.22382632921202575
17983000.0 0.9847598751903971 -0.1492484269531631 -0.001554423070651738 -0.002018804929735813 9.645744256522984e-05 -0.004358097879129564 -0.06519467633872471 0.2237700058964537
18982000.0 0.9814534913730235 -0.16252621668119402 -0.001393860336269435 -0.00817236505520127 0.00351341148379666 0.0025979425448854235 -0.027985964501051876 0.2383911374918033
19981000.0 0.9808324637919509 -0.16720217023953735 -0.0026687876578594533 -0.005202179357784298 0.0008552712930916255 0.0018916059500948866 -0.008368481072329133 0.24839944713661136
20980000.0 0.9803617678453719 -0.17594394422115534 -0.004632730523858102 -0.0031728880250984966 -0.0014492733590529263 0.0007489373226542042 -0.014214496131187575 0.26763320708449473
21979000.0 0.9773693463115556 -0.1870328025521795 -0.0021762668699296366 -0.0033075970151979915 -0.0024648182707377154 -0.002352424019928708 0.014780472871959776 0.2445169901858995
22978000.0 0.9750732981221717 -0.19654720036456977 -0.007542815133418906 -0.0051607892352882176 0.0026358879709872376 -0.0036898198094493426 0.0211118145322943 0.26088641313192995
23977000.0 0.9752787839644879 -0.2005122803240485 -0.006684759559671543 -0.0009637121548267992 -0.0005238158294842084 0.003679880350610706 0.043430401814861914 0.25473099192866117
24976000.0 0.9723598880596646 -0.21290692925688587 -0.0023552588830866327 0.0003405794704360586 0.0012702454291890254 -0.003464683014133384 0.060187454925858606 0.24320024960864603
25975000.0 0.9656837436413273 -0.2212562851172174 -0.004994599660932898 -0.0015387622476227367 -0.015391918894182694 -0.018465372341897192 0.0711503136502162 0.26319649669797257
26974000.0 0.9698803525472351 -0.2285586161225403 -0.004923714172987683 0.0009372740224823331 0.0006518310930229306 -0.0018452452622536473 0.07577394328428591 0.26692336546954787
27973000.0 0.9664105517003495 -0.2370554244880849 -0.003431685675297649 0.0002747438070874807 -0.0023016593898845627 0.0025255433555883026 0.10842411159396323 0.2625091642934772
28972000.0 0.9641789524347975 -0.24555120928787233 0.0015920985297938717 -0.0028571778421771703 -0.0005279773080916414 -0.0018893765652416418 0.11166359664136744 0.26536497073674586
29971000.0 0.9623372397918899 -0.25650856461281496 -0.006068242257324793 0.002569515731206505 -0.0016354874657315288 -0.0024212463823896696 0.14646492665322758 0.2740889781466315
30970000.0 0.9602667447542039 -0.26022203878066247 0.0019912275867710713 0.0010213898953415662 -0.002040006349394434 0.0038415149142142337 0.16707971721435758 0.2644364245552611
31969000.0 0.9569810770508633 -0.27279253543227594 0.003368212658484368 -0.004752804972900283 -0.0004716161723798078 0.00023896634081564582 0.14734165128106205 0.2540046507030332
32968000.0 0.9564225125197577 -0.28234142290212016 0.005671057691631647 -0.0056960703075265426 0.003104193262052439 -0.0019122868046473145 0.16247778384178013 0.2508139617841554
33967000.0 0.9533826232755135 -0.2914281065053615 0.010314161282808506 -0.008651167029494575 0.0036133401927408958 -0.0027570892146107978 0.1840705907733816 0.24778449776436434
34966000.0 0.9508793457062683 -0.29847345658570584 0.013863619041799596 -0.0145667920021483 0.002021832359787033 -0.002643970796854231 0.19419093780193147 0.2509433912431375
35965000.0 0.9480357867785705 -0.3060752551859378 0.017978548464539522 -0.014502504477096483 -0.0012629324257640074 0.000569304979136701 0.21122953068493752 0.2527404144801956
36964000.0 0.94511299468382 -0.3155383384943608 0.016776998440156708 -0.013774330209450455 -0.002605424738179637 -0.0009327574569230584 0.2046306622268066 0.2533707003850654
37963000.0 0.9443926794011055 -0.3239572473994071 0.02277657298829067 -0.023208195509109884 -0.00017319940604484742 0.0006074850011133707 0.2224942538202293 0.2384391809623145
38962000.0 0.939806972695517 -0.3345259702876411 0.022139920038366113 -0.025000610539439926 0.0025224850014121244 0.0006596900756013195 0.2394939653641356 0.23521978898928173
39961000.0 0.9363588462413726 -0.34203850517379736 0.02779232555918576 -0.026283969419823746 0.001878718184672273 -0.001196008476174696 0.24790607713535556 0.2397640708558293
40960000.0 0.9332580741682196 -0.3493513832301596 0.022953098025713648 -0.023851661802104695 -6.174772056269496e-05 -0.0003604884357047689 0.26362920087142344 0.22854983179362587
41959000.0 0.930426409894749 -0.3589299862972842 0.03131607810721693 -0.03180646958376061 0.0016756548592235497 0.0002486298632596385 0.26115008062017037 0.21507865158606168
42958000.0 0.9262981080609207 -0.3674708896113524 0.033546310823285026 -0.042376113397143325 -0.0028983961809865674 -0.001130630500854935 0.284693405811138 0.21043671982963116
43957000.0 0.9232394578634903 -0.3743316465060475 0.03292250553293517 -0.045765373528507916 -0.002344444120816046 -0.00023049194900272757 0.28733922763786984 0.2006209569324013
44956000.0 0.9193946828588819 -0.38272039927317153 0.03435437188475126 -0.05441583085366071 -0.0027792890218724083 0.0006860206832599966 0.3043480050280428 0.19953803141368923
45955000.0 0.9152525934468569 -0.3918378243531404 0.033676523645917944 -0.05739019082148037 -0.001091614796621804 -0.00032035931163669614 0.2993284089416138 0.19257053150854112
46954000.0 0.9130939651191669 -0.4009210272397267 0.03469020063022555 -0.06560292259651775 0.0011795416510089294 0.0034092642951867387 0.3232337524971781 0.18049600506269664
47953000.0 0.9085496016774632 -0.41061515270594084 0.035625553531721456 -0.07107941226936565 -0.0018119926129609482 0.0010303740685183005 0.33068068707384596 0.17198104866923325
48952000.0 0.9024275719098266 -0.4210854916842121 0.03944631589369134 -0.07926289013312039 0.0002395357983786502 0.0001104511201300949 0.32522278710070796 0.16552155385763992
49951000.0 0.9007094584627097 -0.42643579080655536 0.03496747421644983 -0.0880174556944923 0.0002577660384649199 0.0005418740494174836 0.3470079390933026 0.15110316645993488
50950000.0 0.8966005044754427 -0.43558984710319143 0.03607786652816472 -0.09662595453016717 -0.0013318266320717636 -0.0015401437172564072 0.35625009547502995 0.14164082770879322
51949000.0 0.8919716979896306 -0.4423084820297877 0.038709953369336816 -0.1053936362210915 -0.0006952625742369106 0.0035330435358157516 0.34742092883907333 0.1476843781806171
52948000.0 0.8892644990211346 -0.45159217499165166 0.04205639754422895 -0.1149525215008865 0.0012848614200158686 -0.0013403506876391736 0.3714470223067827 0.14787144297809662
53947000.0 0.8845932485926762 -0.4580985541324659 0.04159690536303071 -0.1226996804324244 0.000510404013928174 -0.006368690144071622 0.36897714330438414 0.13190268588598175
54946000.0 0.8792431474876088 -0.4700385430303382 0.04661289429995108 -0.13245594062940924 -0.00026791031872479444 -0.00013734891876450667 0.38519550849099793 0.12506696457243022
55945000.0 0.8763047204300797 -0.4753611943742987 0.046854488189566244 -0.1437380162552127 0.00048516835544641586 -0.00038623436272219527 0.38792976472480445 0.09959574670495666
56944000.0 0.8713533349589759 -0.4847243004728264 0.046911020651400494 -0.15253616281214719 0.0022060059648155365 -0.0019534785970156607 0.3963363856957813 0.1013530040539743
57943000.0 0.8658982696863948 -0.4951907854747578 0.04659139122820447 -0.16312255932589578 -0.0014494298292562512 -0.0039982028573050405 0.40165653314827504 0.100246068404445
58942000.0 0.8597027273761545 -0.49925417925541826 0.051190192651187856 -0.17505094685840542 -0.00032982036826062114 0.0018852825770322675 0.41672801839657897 0.10205359823749745
59941000.0 0.8577185527849219 -0.5090361775881348 0.05134496403872284 -0.18559735916782938 0.0005318718001231371 0.000589755930170078 0.4125311631290124 0.08333941327645754
60940000.0 0.8489931955780357 -0.5154710961210098 0.05125643244672428 -0.1890861118019893 -0.00042263361344957884 0.0007414098641200776 0.40329981444421836 0.08019486018361176
61939000.0 0.8464419489679829 -0.5238297839329898 0.05360096126537634 -0.1971249359701548 0.0006207807634661587 -0.0006114579912924298 0.420071522929468 0.07020034006667975
62938000.0 0.8405225958487982 -0.533185863356858 0.054264903367182885 -0.21099408056104393 -0.002324056897069271 -0.003374163356698183 0.4397884979919661 0.06179659686754949
63937000.0 0.8347491360888171 -0.5420960924125662 0.055943996414667116 -0.23380297452803228 -0.0023155625034170387 0.0019444768092391892 0.4273278747575937 0.0475169090973765
64936000.0 0.8296487989403046 -0.5467572186683136 0.055788172691335784 -0.24720245232758453 -0.001883548227546836 -0.0015995429696338806 0.4343528656837609 0.04220926334188688
65935000.0 0.8254535308301467 -0.5583761464640514 0.056585856786382345 -0.2601246288629953 -0.0010056054257681715 -0.003622554312065675 0.4381015066916634 0.030785441965396083
66934000.0 0.8214927891813621 -0.563715526161934 0.05388215509987626 -0.2767925734141595 -0.002773344535320499 0.0018829714020419765 0.43277067485715703 0.009040930313349207
67933000.0 0.8158492144414797 -0.5711035443912255 0.054753842387647446 -0.28974698019313105 -0.002347333618053373 0.0007474684235587893 0.44591971910987255 0.017132612351080993
68932000.0 0.8010071703937267 -0.5726532079948868 0.051526492247185515 -0.3006257448377646 0.0025095824301012825 0.002280491969515995 0.45960923539854454 -0.0017139381917945457
69931000.0 0.80137559466062 -0.5896788897123056 0.05363750424325246 -0.31810847791185176 0.0009837816767047137 -0.0024589939765644127 0.4434149629773735 -0.020637448217608836
70930000.0 0.7967249601117437 -0.5934103952450955 0.04916947068023256 -0.3359086751064726 -0.002890625944512784 0.001765945401820106 0.44757323782547903 -0.024202428508461233
71929000.0 0.7933505188154688 -0.6051756076257753 0.04587243223222356 -0.351906384472277 -1.0891946758678463e-05 0.00010816262611546657 0.4496287500156927 -0.035540455942148094
72928000.0 0.7856839759771749 -0.6114143233206907 0.03888619974073572 -0.3688771036196556 0.0006222611050592892 0.00354265711706332 0.4580149811228418 -0.04527036487640569
73927000.0 0.7785306543649525 -0.6176424313784464 0.03203729487529554 -0.385885996556244 0.004076758020431282 -0.0013507880608923139 0.4565010695635694 -0.047681712390361806
74926000.0 0.7738301295618688 -0.6292474270684475 0.02399359854635142 -0.408477167817929 -0.00314463880368689 0.0016232572122577144 0.4601409335876818 -0.058732689934538
75925000.0 0.7673173510411693 -0.6340973528088278 0.015706192857625378 -0.42555798566930814 0.0024121997276018653 0.0003310345249690525 0.47092229852150436 -0.07623598483146363
76924000.0 0.7618322650946134 -0.6416172604402182 0.0045200072823633145 -0.45362413240745625 0.0006903880022541766 -0.0012918292118358707 0.45998814921593617 -0.07590516745187806
77923000.0 0.7569460374940707 -0.6465797249396434 -0.01383177412080704 -0.4789484419652297 0.0014410839369812902 0.0011205770515723159 0.4500313137452861 -0.0961836238072359
78922000.0 0.7492090340856564 -0.6565141609778403 -0.025415658181164518 -0.49951029685440745 2.5271813232677707e-05 -0.0014764916592994804 0.4568351966400637 -0.10347467490567099
79921000.0 0.7387910559857611 -0.6615491787406617 -0.04311912280425287 -0.5238653909103289 -9.050786086973951e-06 0.0007572360575707536 0.4588279678248262 -0.10990651379122258
80920000.0 0.7335352456149393 -0.672470595298137 -0.05917956926210125 -0.5551211791095275 -0.0015586680608279172 -0.0008367987352666952 0.46170202564079676 -0.13562232696788912
81919000.0 0.732126622039097 -0.6761962848475442 -0.07902171317766787 -0.5831889805470148 0.0020465632428630543 -0.0006969391761967896 0.4716161374724634 -0.1245978508303998
82918000.0 0.7203468843088374 -0.6874497653462036 -0.09211197681637191 -0.614485330839541 0.003026134209799304 0.0038982490680794556 0.47166152841957765 -0.14508611757817466
83917000.0 0.7125987411972471 -0.6922684765183945 -0.11101129419206147 -0.6485289091928005 0.0012542181514634872 -0.0012092352594261849 0.47737715163628275 -0.16013074198176167
84916000.0 0.7090471329111322 -0.7000471967306942 -0.12680616569121914 -0.6821465019134021 -0.00110247973921575 0.0005256317104397071 0.47179966735550155 -0.17645091952222305
85915000.0 0.700586332238187 -0.707881025010591 -0.14858044522550035 -0.7090601218525774 0.0001368943356938158 -0.0014088563870417652 0.46570631491597614 -0.1744893191212049
86914000.0 0.6926381506817332 -0.7189109180630023 -0.16150823535085232 -0.7458463482272027 2.2782636430863447e-05 -0.001973808516466899 0.456479703380298 -0.17532297948311049
87913000.0 0.686869181795269 -0.7227010630557407 -0.1811107059242631 -0.7724564112670793 0.0011013021565266612 0.00019449034926632093 0.45611877320414335 -0.17817731573841616
88912000.0 0.680430402309715 -0.727318593025532 -0.1966450184150862 -0.8091681068038522 0.003976752913841729 -0.003920636900613384 0.4594505567005109 -0.20480530784281603
89911000.0 0.6706074429054054 -0.7403906203956623 -0.2195330966134174 -0.8437248583444273 -0.0005547932925103006 0.004747211356014795 0.470249539562657 -0.20618543772562853
90910000.0 0.664139138634247 -0.7422902211717196 -0.22868243867397395 -0.880578095257385 -0.0020310787903574747 0.0004184574004424079 0.4629933297586244 -0.2126811968181994
91909000.0 0.654582211747935 -0.7469953223870827 -0.24905830379076702 -0.9144062852309504 0.001175981702899106 -0.00031621731816508525 0.4645850776123212 -0.23442883467260053
92908000.0 0.6460889272093213 -0.7569455941106391 -0.26882617121666424 -0.9487333784235636 0.0008167699578698165 -0.002392192021557287 0.4594077544607142 -0.2366274320833578
93907000.0 0.6389436512724513 -0.761498498516332 -0.28469812485473517 -0.9774556010552078 -0.0013484589152140283 -0.0007825769235166637 0.4553363139328594 -0.24970640154997323
94906000.0 0.6288165411031699 -0.7697398086133037 -0.30386713489565476 -1.0127393828124323 -0.0022867684115734236 0.0022965557701980508 0.45093705296955267 -0.2504072676503916
95905000.0 0.6220773284935835 -0.7758908132103938 -0.3243091560045261 -1.0463230177304867 0.0006813676273284555 -0.0015507913176919682 0.4579957055252821 -0.27538562399006794
96904000.0 0.6131905740392146 -0.7843620546708379 -0.34131578536647844 -1.0886563262828466 0.003327504684677165 0.004250431985710572 0.4580077268049736 -0.2781600801246301
97903000.0 0.6021225289105637 -0.7904685255488338 -0.3666907151325552 -1.1147242437287237 -0.0021240593118049774 -0.00045418939558246525 0.4526539956545493 -0.28328217350897894
98902000.0 0.5973100335226239 -0.7952853991707642 -0.38575043146795973 -1.15419020674726 -0.005268107913960877 -0.002398024884537853 0.44809103429033637 -0.2862790339801653
99901000.0 0.5906089261600534 -0.8033419026822071 -0.4157792692807209 -1.1883582332934752 0.0008604137124769096 0.0015553639838255552 0.45852258064364365 -0.3209169639718245
100900000.0 0.5779189773238834 -0.8060765899651948 -0.4485826450791592 -1.2156790298161704 -5.341574933939555e-05 -0.001218193318462842 0.4659305174801871 -0.30088901173961985
101899000.0 0.5697601062476696 -0.8142343588787225 -0.4780770205199239 -1.2532576613748636 1.0515097771182689e-05 0.002290177332663098 0.45191117645894757 -0.3181363782554425
102898000.0 0.5595023089174286 -0.8195666063207226 -0.512474970154365 -1.2928249026895648 0.003187098405015732 0.0019799691757060706 0.44343863130124106 -0.3366836929919268
103897000.0 0.5514482240629877 -0.8259064989420879 -0.5517424603315894 -1.3240916706569996 -6.510062909160105e-05 0.000713184767802347 0.4528203895541015 -0.3363073926961342
104896000.0 0.5442184681713595 -0.8387513774219504 -0.5946405978324046 -1.3598751815918697 0.0027807930664770102 -6.410147859750906e-05 0.44013157222161453 -0.3322245768794503
105895000.0 0.5305963848308651 -0.8398058018223121 -0.6482605557501037 -1.3998045589251262 -0.0009272647557056657 0.0009603666433202018 0.44203619403133415 -0.35610931876924073
106894000.0 0.5211882907617716 -0.8458923379874196 -0.7006693592996909 -1.4351160692249112 -0.0008204787753247443 0.000423806873917363 0.42379315574004156 -0.3601194644501972
107893000.0 0.5142683103098495 -0.8539878491717855 -0.751499197352489 -1.4783137135542526 0.000970449792517432 0.0008510191599505109 0.4302480998136806 -0.3646386403437205
108892000.0 0.5046749095994142 -0.8541596608631334 -0.813313513083858 -1.5185534673445626 -0.003201301813012298 -0.0003703642015191755 0.4254381711124995 -0.3818825281293341
109891000.0 0.4928864336780659 -0.8643320489500071 -0.8686233401698146 -1.5475921821372174 0.0005821294874097403 -0.002054547654204466 0.44253413786044776 -0.3611339502374572
110890000.0 0.4815126816492019 -0.8790274237661726 -0.9505021919604966 -1.5697045285907445 0.00413102219054242 -0.002809485271032062 0.4298703921251315 -0.3857758879650019
111889000.0 0.47179918396142123 -0.869830309401401 -0.9962198332745537 -1.6199220981857185 0.002233062545732765 -0.001209769620401134 0.4283592207150954 -0.4008001753871325
