! Created with skrf 1.9.0 (http://scikit-rf.org).
# Hz S RI R 50.0 
!freq ReS11 ImS11 ReS21 ImS21 ReS12 ImS12 ReS22 ImS22
1000000.0 0.9806400846525488 0.00031866780679831735 -0.02387681379135409 -0.057277369060327855 -0.023180316735866 0.0026302468931700433 0.3333081019560995 0.3616017393423632
1999000.0 0.9955337806093258 -0.014867687228106372 0.007446114852873305 -0.02203393259797759 -0.005113130503176192 0.0004904922068342974 0.24237937071003235 -0.04539621086003439
2998000.0 0.9967740421408718 -0.022220277223912142 0.01459569975072732 -0.01833411551388881 -0.007865229735526176 -0.0016506148166955433 0.18092024606262977 -0.1390399127360108
3997000.0 0.9984589509711449 -0.033503812588430826 0.013323838820320445 -0.009494026101513623 0.0026266520395107633 -0.0065214511788967595 0.09319767087146648 -0.2287222167664825
4996000.0 0.9955800431625357 -0.04226858413436005 0.009141481142820127 9.279907119303278e-05 -0.00033278186091596567 -0.003775439249389971 -0.03842687510675507 -0.20939353712349829
5995000.0 0.996454623729651 -0.0500178611502892 0.009296681386339944 0.005168283648725216 -0.0006190086647056685 0.0013915416295013619 -0.12498589983221782 -0.10078783154791462
6994000.0 0.9938802455114153 -0.058299528155627715 0.005745556140582868 0.00656819510306374 0.0062542861626471175 0.0038996966974523535 -0.14341304292099508 -0.027726975124431116
7993000.0 0.9960200365438304 -0.06750001140915904 0.003059921652338409 0.004727293157870641 0.0034444784453305805 0.0027742101255948557 -0.17191197446841072 0.047540996169753276
8992000.0 0.9952724975985039 -0.07152619071386504 0.002436369467008707 0.009159866478062205 -0.0025218009169737264 -0.002389428528006325 -0.15793991513105252 0.07390878013880306
9991000.0 0.9930812011550955 -0.08479608447323932 -0.003105568003223778 -0.00011816230066602072 0.0016754974298313202 -0.0018259882741761073 -0.15824356631915262 0.08959151846149246
10990000.0 0.990747206654217 -0.0925174637615306 0.005035216036661053 0.004025636109567202 -0.0023273365629403056 -0.0029088303907414755 -0.13097899612152533 0.10922422366855009
11989000.0 0.9909700434881431 -0.10218278627101429 -0.0013029836592375777 0.0036503981620584695 0.0019125581176324292 -0.0016212989135808047 -0.12456154338339638 0.1418671108324486
12988000.0 0.9895049415915171 -0.11076260023567679 0.004760354565328636 -0.0016295826650878456 -0.00037535558602809916 -0.0038205106507038433 -0.09604745005012746 0.1732274697676967
13987000.0 0.9878494390855805 -0.11819434797952039 6.2088261746047e-05 -0.0044028644674465565 -0.0003177397294016551 -0.0011639819155827822 -0.09845551637079247 0.18726281521639745
14986000.0 0.988032769421494 -0.1252616405061537 -0.0004105599668365596 -0.0039177562893391105 -0.0018070841982098934 1.6778898825535055e-05 -0.0866080632122697 0.20479049818853776
15985000.0 0.9910541606653976 -0.13409336701643443 -0.0016004310695687193 -0.005579183341714011 0.0001799131054178842 0.001232845822491561 -0.07189791947944006 0.22305115534802314
16984000.0 0.9855246504936125 -0.1434201074586233 -0.0071987362078957595 -0.0032716512222928937 -0.001988598658931378 -0.0011243230056777838 -0.06744358851037098 0.21958749285297138
17983000.0 0.9847588129478791 -0.15226753044389962 -0.003086254426320962 -0.004085426282986179 -0.001627158254499876 0.004628848614214222 -0.04284074517617973 0.23287571492104892
18982000.0 0.9831034101489879 -0.16202912326933996 -0.006003221428303234 -0.00478858831610746 0.0021749037521082907 0.0033211257284639618 -0.02116080999683328 0.24678026492269986
19981000.0 0.9832147926256202 -0.16722517916617277 -0.00951063485813247 -0.00505539998459821 0.0009788230221994259 -0.0017680472714668525 -0.015724077065072055 0.2429303693208029
20980000.0 0.9805885453734273 -0.17713204108355393 -0.006034944548242064 -0.00942586152827652 -0.002165968484848659 0.0011082472051137354 -0.012067614174480164 0.260463849960332
21979000.0 0.9801954741889236 -0.18369139237468643 -0.006187180972222121 -0.003490394289041358 0.0017005444479777892 -0.0005117978538455548 0.020005971462478938 0.24919773764441056
22978000.0 0.9773334038766849 -0.19503004426962706 -0.005994172915412633 -0.008107764396097955 0.0019297852319048376 0.00027025156654863694 0.03144563281186967 0.2657764290643944
23977000.0 0.9767019363448818 -0.20207361780588404 -0.007072485409420109 -0.003010580823900874 -0.0012085924013855679 -0.0028647715209616743 0.036730797059730425 0.26726273620577357
24976000.0 0.9741401090192797 -0.2106391134735092 -0.011352990487261506 -0.002947313704757227 -0.004749839639383104 -0.0009620681098789123 0.07003021271580186 0.2630143155240595
25975000.0 0.9742854378060913 -0.2173210501193865 -0.007175969042751154 -0.0002025642952909706 -0.017438259110231336 0.020276612617112205 0.07508966675770735 0.26739140335144745
26974000.0 0.969668146519958 -0.2285068569420818 -0.006821323148743529 -0.004493038863543879 -0.0046093481436142 0.0032460820142227362 0.09599463906808978 0.2670574191053062
27973000.0 0.970858742634353 -0.23452019600759988 -0.003408159822623603 -0.0018981482871088483 0.003317898508991015 -0.0007814507447915069 0.10161439192851805 0.2551675086585232
28972000.0 0.9656840131096426 -0.2447704203911408 -0.0004631187343300161 -0.0020736988581008 0.0016652690715424044 -0.0036619562140697832 0.12199695261660773 0.25239285651591087
29971000.0 0.9646587755299524 -0.25483301748017856 -0.0009915213489123003 -0.00042055619420017156 -0.0015049765622607964 -0.00023645416601674702 0.15729892068593204 0.27200051836906647
30970000.0 0.962746496466423 -0.25839815193926563 -0.0001771644283392275 -0.0033074248850347657 -0.0004686514173413613 0.0027181031642329054 0.17378637732994198 0.2575745373276152
31969000.0 0.9607505623483653 -0.26767730945356516 -1.7771484774264676e-05 -0.0057485880439921 -0.0017410324008717392 -0.0028052708193710614 0.14778652254795432 0.25435122223646384
32968000.0 0.9589284164291181 -0.2763273770109356 0.007916179077198155 -0.00601741343554107 0.0035783215925335055 0.00019073640487774054 0.17362477131321755 0.2482829517595457
33967000.0 0.9556147676245446 -0.2863519374439218 0.009847458428284595 -0.006747899265994321 -0.0018524908019534746 0.0018401799596446465 0.18388009523126703 0.251867424560502
34966000.0 0.9523778643802996 -0.2963805758588433 0.012776291792244113 -0.009391106374854654 -0.0019257020307214775 -2.6158511059825673e-05 0.19720016732250978 0.2587801608508159
35965000.0 0.9505918428672879 -0.303688716278978 0.016088442449067326 -0.01464859693940169 -0.0017510270794462107 -0.002539249145996917 0.21315775796380793 0.25156857974882846
36964000.0 0.9480834081582965 -0.3121368453370235 0.01765211158200504 -0.014230357141914729 -0.0013341087683660844 -0.0019892994238597493 0.2149345621694866 0.2550897969127952
37963000.0 0.9448499849076152 -0.3202902491804574 0.01853902684753352 -0.019814302187218996 -5.896565863874466e-06 -0.00031650772399614987 0.22732408884973018 0.23551001364196802
38962000.0 0.9424351795692064 -0.32949125483289793 0.024298525910338452 -0.0212848908375075 -0.0012648382193385613 0.0003455053324472107 0.2458604536724003 0.23997331253704338
39961000.0 0.9393796505602917 -0.3376483692456166 0.024309172644435637 -0.027315648478354344 -0.0008348977192804768 -0.002100481617026261 0.2519881582946099 0.22696211809306555
40960000.0 0.9351242455734504 -0.34564721616944216 0.02102259465955587 -0.022862527405998073 -0.00041151784524431776 -0.0010223352539585407 0.27506739471733 0.22535506421072626
41959000.0 0.9320074499709619 -0.35599083896025335 0.029621425125557734 -0.03303188969497472 0.0037470791169525704 -0.00361006015676996 0.2737113207165747 0.22480716907071355
42958000.0 0.9290361414389345 -0.3638026551858246 0.03076057786583549 -0.03979046043877693 0.0032708665139717067 -0.0009901764129581028 0.2865828378684245 0.201209901268005
43957000.0 0.9270616348539195 -0.3718901551587216 0.03395541090495644 -0.044458577674680116 0.0011133562707606065 -0.0010031588230973378 0.2985885957121341 0.21385610951211045
44956000.0 0.923166231207312 -0.3803747139446679 0.035139973122425755 -0.051649624068769336 0.0009043380688968529 -0.0007224182300668437 0.3080061857221091 0.20135647291785194
45955000.0 0.9183161355427999 -0.38955368003233914 0.03505240499323825 -0.05805686976198429 0.0036892723254541753 -0.001132928995629445 0.3149544228630383 0.1945160181270695
46954000.0 0.9146444042769485 -0.3967700967233621 0.03737474863104746 -0.0650217627565265 0.00030449608576714254 0.0011572313505870332 0.3369727736632002 0.18196139939484313
47953000.0 0.9122908501687174 -0.4034822779595639 0.0378358112103174 -0.07306166579757965 0.0035288653520849375 0.0005424245541487334 0.33720575009458653 0.1824640802682743
48952000.0 0.9067798505194892 -0.4159569865561257 0.038789643081599656 -0.07589914804925091 -0.0001533416708577242 -0.0033001186252258506 0.3488599054277222 0.16995882881733657
49951000.0 0.9033843535913808 -0.4191548273791956 0.03803400538324895 -0.08596731968351107 0.001828700475801889 -0.0006811786911420126 0.356395818987425 0.1634931822012239
50950000.0 0.9010834003213327 -0.4277345613044902 0.04175011353709447 -0.09579715926210819 0.003094314249157185 0.0010754856168758418 0.3572676066762535 0.15678173414279417
51949000.0 0.8967092625651996 -0.4373709978665433 0.041250001273825096 -0.10480191454548637 -1.2228944830016936e-05 0.004294051339228764 0.36940489996129217 0.14923837235305046
52948000.0 0.8955678447572961 -0.44412014804754313 0.04234042760454786 -0.11298283667740885 -0.0015111294266610925 0.0010373833944973857 0.3787805250930912 0.14899672196461944
53947000.0 0.8869307820107399 -0.45361559475266855 0.04368948204013503 -0.12253832060912505 0.0005067913095796549 -0.0021334295670423567 0.38038345182469646 0.13158491854285145
54946000.0 0.8841656090297738 -0.4602777998937263 0.04665584056876674 -0.131285906198121 0.003941732894988657 0.0024702940315606847 0.397136777071841 0.1302312556262547
55945000.0 0.8802578819675169 -0.47184865325553416 0.04626929359184793 -0.14066543599389078 -0.004441276590889311 0.0003172398659289628 0.3935319564689395 0.10889988286026153
56944000.0 0.8771177499998977 -0.479600722288986 0.04688519903003455 -0.15187963605501578 -0.0025109205308385214 0.0019160566805586934 0.40959626878834654 0.10993661495909618
57943000.0 0.8702965829015188 -0.4895585875530526 0.048868970959043634 -0.16645726637718206 -0.0011965336343882408 0.001803821911464008 0.40656391471682934 0.10459634177908281
58942000.0 0.8640296321925309 -0.4935539198205598 0.04997096763629771 -0.17502114011085085 0.0012964174645685963 -0.0004899723652845462 0.4274033882725 0.09914060827605688
59941000.0 0.8632756682759319 -0.5013069749402487 0.05388071847425466 -0.1865094481395999 -0.0017326503677792488 -0.002852391729187005 0.42648252231697564 0.09702705589633433
60940000.0 0.8551306012878317 -0.5091012197924017 0.05130760367346313 -0.19029280670599935 0.0007181129841283441 0.0026063312892814073 0.42993377092796997 0.08729281480543422
61939000.0 0.8526106762602413 -0.5166712276255124 0.05150752233249082 -0.1983896117351359 -0.0013445308981073947 0.0019103970969760512 0.42742891011769674 0.07806534122674386
62938000.0 0.8461293445713453 -0.5268527996483133 0.05551781838771104 -0.21493244477760712 -0.0029369527133738587 -0.00015235018565306247 0.4509082665483684 0.05669406339278864
63937000.0 0.841730749066673 -0.5343052272883522 0.056217526700531616 -0.23742339705706136 0.0003083744745012723 -0.0012686201796050164 0.44779208977182217 0.05148233598375625
64936000.0 0.8359683631713756 -0.5398497784130054 0.05920297306078719 -0.2532108393788143 -0.0020989788454953426 -0.002269433719380903 0.44499194719922547 0.05860617210910221
65935000.0 0.832644552212208 -0.5514155934323325 0.05676338741462623 -0.2645803344403681 0.0015130631932768316 0.002853028282798984 0.45119502954475094 0.03347874279735505
66934000.0 0.8284094415780497 -0.5560943612970228 0.05358946696166096 -0.2779806164121072 -0.003943712745383657 -0.0007039667841081011 0.4554917180613839 0.026948426836808002
67933000.0 0.8245128557401589 -0.5638457797742286 0.05744797076487021 -0.2893604632648327 -0.0029051312585287206 0.00014236205549349474 0.45906003038110377 0.01565728894764589
68932000.0 0.8166405013355764 -0.5715073614594814 0.05047282746283229 -0.3070764619557597 0.0009571403050763726 0.0009509766343729526 0.46985604363728156 -0.001596541189866062
69931000.0 0.8118046232790072 -0.5793750039213199 0.05572556814382132 -0.32570905575996556 -0.0013032522475133752 0.00031465980193112693 0.46076903153174303 -0.010188856863729901
70930000.0 0.8031316595002692 -0.5876477263202368 0.04816921543031778 -0.33843588553052056 0.0009569629257546523 0.0014122856510037534 0.46109190961976865 -0.025265256926361876
71929000.0 0.8029442206155959 -0.593910757903082 0.04819940515838441 -0.35685733577486944 -0.005268913294884443 -6.856228624867011e-06 0.46870380716038784 -0.03791784758722423
72928000.0 0.7939068424943159 -0.6043100411524746 0.0427789541004332 -0.37433765728294427 -0.00033817180407817087 -0.0037108808760619783 0.47592391464709805 -0.04492882911975084
73927000.0 0.7878319096430096 -0.6111095481304876 0.03448728962699553 -0.39366979774351984 9.925560485833987e-05 -0.0019541063398192137 0.4748953155560127 -0.0484385491173622
74926000.0 0.7812347551390337 -0.6184009238510677 0.026260579986610237 -0.41402405044602403 -0.0009731005105534122 -0.0004439424012399453 0.47428423470747105 -0.05417238822461611
75925000.0 0.7766893207116783 -0.6243813452982333 0.020877913025375103 -0.4328772746371157 0.0009685721146212454 0.001519484084476744 0.47860284892733956 -0.06145653454144763
76924000.0 0.7700755207174237 -0.6328475151249223 0.005126812128688061 -0.4576123435046711 0.0004927810089444044 -0.0029084476646233015 0.4720728208570813 -0.07570216438806773
77923000.0 0.7664426524800807 -0.6371733698957435 -0.007118390874981865 -0.4790545080234617 0.0007545719500045549 0.0013496747179903472 0.4768494306938274 -0.0833172267479702
78922000.0 0.7590067928483891 -0.6502628718633738 -0.019192953189808782 -0.5080130587141377 5.757803107015288e-05 -0.000678903335127855 0.4704880227444326 -0.09794459564485579
79921000.0 0.7510749139240428 -0.6518390739185491 -0.03908325409072568 -0.5343776616495489 -0.0006574282610494005 -7.771733809003881e-05 0.4633136637861516 -0.11058947497412616
80920000.0 0.7466737714316066 -0.6640944850554782 -0.05334171092479702 -0.56169973600191 0.0012819323329183948 -0.0005002500528159909 0.4785966342318627 -0.10624004798065845
81919000.0 0.7391867244225689 -0.6700984135501539 -0.06795872102225053 -0.5924940352121867 0.005796988738545077 0.0012679780968209058 0.48619837165612734 -0.122832997524811
82918000.0 0.7325943575949695 -0.6770033620507464 -0.08435774160175986 -0.6205791702569872 -0.00016731569819538746 -0.0010302058621641551 0.4746194415102701 -0.12389398854052334
83917000.0 0.7221131135466259 -0.6865335360730732 -0.10208524681323952 -0.6532493703327085 0.0010593881532194064 0.0018650745307677052 0.4878518204351537 -0.14541821948815967
84916000.0 0.7192992378117579 -0.6906144098492473 -0.12110835076104012 -0.6891931688372578 -0.0007526644307874459 0.0006972163907600063 0.4883884684279671 -0.15642705090739456
85915000.0 0.7119435338696852 -0.6976373282688824 -0.1371488358224383 -0.7176882174123732 0.0014561539666811732 0.0017360729925088648 0.48535404145403654 -0.16077809912495347
86914000.0 0.7027956125303022 -0.7089455787556316 -0.15898936381322823 -0.7549302433485262 0.003478036857112884 0.0017110460847868277 0.47292998308942547 -0.1734495230752618
87913000.0 0.6951453261317236 -0.7147898773669222 -0.1757726422129147 -0.785934923116724 0.0031195005924878755 0.0024328240000599704 0.47220156839944755 -0.17472147763255053
88912000.0 0.6898931417829681 -0.7204202698743459 -0.19572012333130573 -0.819687729294015 0.0013772990076010038 -0.0024517592596666766 0.4822477623772526 -0.1926725271597715
89911000.0 0.6801897135370849 -0.730144715986727 -0.20902042232618953 -0.8593862708442468 -0.0030747862945930183 -0.0023009993089705473 0.4926995139588514 -0.19576518545878271
90910000.0 0.6758035395079243 -0.7334184592594881 -0.22699169939324265 -0.8932769787924502 -0.0012034094378250058 0.0028133193425414226 0.46494093026892885 -0.21526021908997267
91909000.0 0.6660167641207255 -0.7404809651862482 -0.2451363399713788 -0.924534227116788 -0.00011974549431216992 0.0016245232207700668 0.48204770176393863 -0.20448769676463388
92908000.0 0.6586891078263221 -0.7480526423674766 -0.26654696125614874 -0.9582966538218283 -0.0021895130124769814 -0.0009044379615506929 0.46528697539781977 -0.21884429293255211
93907000.0 0.6516292818297762 -0.7544572050202782 -0.28515160706636905 -0.9927550991525891 0.002872929173276542 -0.00017915977967323778 0.47759960285643005 -0.23229741617241523
94906000.0 0.6406691941346775 -0.7631157783199237 -0.30611648208805403 -1.0306095612005712 0.001775340592153728 0.0019040409946089003 0.46732150228298125 -0.24072175960842737
95905000.0 0.6350712426706633 -0.7684266687334189 -0.3263490543185721 -1.0642211871342226 -0.0028394173011490344 -0.0019314991811894553 0.4651702348203984 -0.25436489296900894
96904000.0 0.625996106650411 -0.7769131306417256 -0.3448187175417673 -1.104069257953436 0.0028286172404108235 -8.536755666913791e-05 0.46687563923334796 -0.2581361690202533
97903000.0 0.6151653136513692 -0.7839470850492478 -0.3760112240998073 -1.140718328235312 -0.00043877496238506916 0.0026986337467874337 0.46546493099940145 -0.2809797980900451
98902000.0 0.6112313618847466 -0.7880899791955979 -0.3859576056066287 -1.1778647159153715 0.003355810912802861 -0.0029256664460620306 0.4545596405763702 -0.28420608119475754
99901000.0 0.5974297138845013 -0.7953272876903463 -0.4246761299434555 -1.2067955341201133 -0.002565401921069479 0.0008902543863261934 0.4701589319512425 -0.31019256149441593
100900000.0 0.5926316286470017 -0.7982181491122601 -0.45442087913830653 -1.2389882874636744 -0.0022898322701032734 -0.0025076255675027903 0.4661165022736036 -0.3132051281160986
101899000.0 0.5828789720553755 -0.8059793831610512 -0.48089922945098357 -1.281504802386027 0.0012148858788406031 0.0003874231714155661 0.4638602646548162 -0.30604859700276976
102898000.0 0.5742690335340528 -0.8114259267510898 -0.5138679127979127 -1.3218545354757145 0.002631229191746102 0.000280506740783736 0.45654121649719864 -0.3249826707937794
103897000.0 0.5651177483999249 -0.8201562672158271 -0.5564276695523493 -1.3551248530469586 -0.0002644071690586853 -0.0027781429898675793 0.4675033392593512 -0.33464383081472754
104896000.0 0.5575865943384564 -0.8285380074897238 -0.601827013091662 -1.3921865616996771 0.0037603402885026758 0.00236498675604402 0.4528396951426413 -0.33337144697187215
105895000.0 0.5457630918880491 -0.8310816071739268 -0.6480192076727317 -1.4325540140700475 -0.00014995964738743835 -0.001097893854193763 0.44468576877720156 -0.35853224747577345
106894000.0 0.5374603860048245 -0.8377721162067553 -0.7041760179625299 -1.4707400428544244 -0.0004557307219137837 0.0008444934646525937 0.44423514140056614 -0.3558908123144219
107893000.0 0.5292340385763226 -0.8444151715064075 -0.757056343473725 -1.5133282584856447 -0.00043397626574224595 0.0010615207105626418 0.4448908278688761 -0.36935548851769623
108892000.0 0.5186961336490739 -0.8484267962455583 -0.8170402345195633 -1.550096597577137 -0.0007787847805229013 -0.0015183208718024315 0.43950541786066305 -0.3631458701226326
109891000.0 0.5070106540954523 -0.85485450942409 -0.8762972234061336 -1.5883109893061564 0.0013587664751609737 -0.002655848474852928 0.45565152550959925 -0.3600926107972434
110890000.0 0.4866908770564781 -0.8613871507208569 -0.9466691933036198 -1.5838398747821303 -0.0024530374442654364 0.0006678103544096146 0.43598109930409323 -0.3705730912824007
111889000.0 0.48939580820145184 -0.8621861297079927 -1.0025787756238294 -1.6579062658572177 -0.0007595315028609468 0.0019347889555550476 0.43217027858851986 -0.38667356441541373
