! Created with skrf 1.9.0 (http://scikit-rf.org).
# Hz S RI R 50.0 
!freq ReS11 ImS11 ReS21 ImS21 ReS12 ImS12 ReS22 ImS22
1000000.0 1.0049774100511377 0.015197497542274379 -0.002024085337068836 -0.07015222431354806 0.005958515612072944 -0.010008000285410818 0.2715089481933272 0.3109706197102118
1999000.0 0.9922159317719694 -0.009090832604485299 0.002809716569140623 -0.027990523269385243 -0.008092091175379275 0.000625418156315329 0.24922935830729664 -0.05445750026482252
2998000.0 1.0007353081560284 -0.020362847589399345 0.011193809360985948 -0.0166340738978731 0.0014672547139227587 -0.0007547857884860073 0.180474955179603 -0.15384806214873262
3997000.0 0.9992699514865738 -0.031154635684923118 0.011264765751723005 -0.006585530366554272 -0.003788888109679539 -0.001431154298504884 0.07499085324552354 -0.21352831008697265
4996000.0 0.9964938473681623 -0.03846375789867212 0.014015562281299179 -0.004586134700499295 -0.00797005921524538 4.549531293232712e-06 -0.03868289619690138 -0.2044025522145449
5995000.0 0.9957603245454977 -0.05230923922535319 0.013716170179026745 0.0004576220405732624 -0.0017456909154742618 -0.0020463834864048905 -0.12450153459137094 -0.11013954531136244
6994000.0 0.9968713419245816 -0.0564617625946425 0.00814715514195348 0.01047482630375516 0.0034157583269776816 -0.004856284072383188 -0.14245415042458293 -0.0334116245586816
7993000.0 0.9979116965747142 -0.06685660750991941 0.005186926979440464 0.004693407807356253 0.0003729528371675466 0.00026246898728169284 -0.16558266958622508 0.03949695364137608
8992000.0 0.9931909767954491 -0.07472773993204833 -0.0013310692160690884 0.002527212029219793 0.004970255094127495 -0.0007977696926279464 -0.16359666563187605 0.06780215053390376
9991000.0 0.9931490583589432 -0.07961271856295613 0.002072404928945885 0.0012454195192708357 0.0027446842509138395 0.0013865943320183942 -0.16070880675228302 0.09880966631487706
10990000.0 0.9939094995632304 -0.09093276897779354 0.0008171473575660737 0.001684712324494536 0.0003570592446824933 0.000471497999254257 -0.14602817373069432 0.11874885585502774
11989000.0 0.9913875646754793 -0.09792629698310043 -0.0002815922949000333 -0.00016380401857992577 -0.0015342374141553608 0.004141325064699205 -0.131680611223713 0.12237057672802457
12988000.0 0.9914422418131676 -0.10797898103557188 0.005590744993738479 -0.002274305148103072 -0.0031648848882985677 -0.0014812028646743025 -0.11820310563521245 0.16576709445239973
13987000.0 0.9886020683289081 -0.11715230036924136 -0.003502364128843296 -0.005719137340997482 -0.005188637819819138 -0.0036945518609491066 -0.0946618485887711 0.18489253321637025
14986000.0 0.9886995485487984 -0.12296993577050576 -0.0024738398499571696 -0.0019697845343244753 0.0006947122821168626 -7.480518501274301e-05 -0.08971921428583532 0.20519497662733452
15985000.0 0.9895201728381742 -0.13344420883391628 -0.0002870233914505324 -0.003439122178842914 0.002526345954554316 0.0016183740747759896 -0.07645538963275444 0.22070371069230738
16984000.0 0.9855708609382406 -0.14357245441398264 -0.0032088359882395507 0.0009073712365948711 0.00230228909976678 -0.002647497118921014 -0.05736022495943638 0.21884202782382284
17983000.0 0.9871605359776543 -0.14727312762792177 5.825292856626615e-05 -0.008208646220254232 -0.0008300053854126149 0.002690624168356119 -0.06641544484230252 0.22916975479010987
18982000.0 0.9832875776833186 -0.160183901786889 -0.0028860759407820023 -0.0024764931917611406 -0.0039053616989032543 0.0012414035553515584 -0.031259744663193166 0.23480827970868481
19981000.0 0.9828994060294218 -0.16315396027068974 -0.0036605695880623157 -0.006726269485313035 -0.0021354089674119293 -0.0037218892562778812 -0.012625430908245121 0.24103630580030477
20980000.0 0.9828700306328634 -0.17501390156714436 -0.00473673643994886 -0.005760164067824857 0.0030107286802732 -0.0031921496285074727 -0.002225890348965397 0.2499279957499135
21979000.0 0.9799772391823305 -0.1814390856722373 -0.003027859206650604 -0.005789252802322694 0.0016159905888946567 -0.0016963769607029862 0.010147359353950464 0.24116324374040043
22978000.0 0.9774339452224788 -0.19326973735383485 -0.0059212079200823406 -0.004754282513866225 -0.001352747441620119 0.003921931475445514 0.026268132878426234 0.25133745232609356
23977000.0 0.9798407947882148 -0.19670134448142287 -0.008805697626903915 -0.005219990982668337 -0.0035173056750811924 0.0032591914003386848 0.0433342721385408 0.25234372126364246
24976000.0 0.9735881694814114 -0.20937957834238435 -0.006769153363524325 -0.002846177036585623 0.005138108175258307 0.0012590045131546422 0.0646527836271835 0.25045258495511
25975000.0 0.976538049571297 -0.21949170813834237 -0.004046067471517214 -0.001838917838738398 0.014554128681440447 0.023368068136328097 0.07457751123269815 0.2678215028262234
26974000.0 0.9720257335791249 -0.2251997772244988 -0.007445804915955571 -5.3200091925170525e-05 -0.003805716859423243 -0.0020253497494511137 0.08795905304602065 0.27043303937007646
27973000.0 0.9710268124012276 -0.2315433423744055 -0.003552797565287139 0.00215052150258717 -0.002085206170696139 0.0003513123479352033 0.10842436203012606 0.23739126166386193
28972000.0 0.9662308657342218 -0.2442717639894064 -0.0024772448684349945 -0.0022597571155131887 0.0026392747614611867 0.0003357141512343447 0.12499755451170064 0.252862870629704
29971000.0 0.9648168614285784 -0.251467880804105 -0.0008879575964457323 -0.0012199703132204972 -0.000520548078938972 0.000687954091434847 0.1513250471791244 0.26897555219989006
30970000.0 0.9627707897800771 -0.25534044514578275 0.004275791132676142 -0.0017296959474798086 0.0009461643929250635 0.003797235986933225 0.1714916504870571 0.24499865351308575
31969000.0 0.9608634498067987 -0.26363473237678253 0.0024976815800082245 -0.0030339140342118495 -0.0006997684155543565 0.0002397612520874578 0.14874756170309558 0.2436558878918869
32968000.0 0.9595978022991101 -0.27384058539178957 0.007222665187061789 -0.006821337232046637 0.0016811207184481887 0.004577235480222123 0.1615010170065622 0.2485855926554194
33967000.0 0.9588009108971695 -0.2823039983329287 0.008933243114022778 -0.008622062661264104 0.0001362116554130113 0.002242366406374892 0.17137470038382918 0.24782462902898247
34966000.0 0.954634872478768 -0.29430038777997936 0.018190547572735045 -0.011425522196121413 0.001046547544342808 0.0009508612679939376 0.19204964922629547 0.2439880782273119
35965000.0 0.950140579478065 -0.29882626408347546 0.014894878887535061 -0.012018336687148615 0.0007590314146945422 -0.0033295595762664774 0.20698896322341223 0.2504946731184057
36964000.0 0.9477395406923745 -0.30992458062278144 0.015180507351295705 -0.013865782668398385 -0.0014338255763122788 -0.00040521497428989685 0.2127841615790612 0.24816584404606526
37963000.0 0.9460396452010726 -0.31794252743668727 0.020999616906029805 -0.02019207176517524 0.0004883821924351666 0.0028303132593075664 0.2337696966701582 0.23568740818877493
38962000.0 0.9423976856087517 -0.328392894143994 0.0236696840284113 -0.025127616372532652 0.004607323131036217 0.0023852908033861696 0.24080053514613375 0.22759589663114668
39961000.0 0.9407338847579251 -0.3351658063082552 0.02687897239427788 -0.026232226632667836 0.0022035548668847727 0.0010088640442940922 0.2530988700171492 0.21972486305614622
40960000.0 0.938035379388949 -0.3431080430937616 0.022706083853856637 -0.02695115609452832 0.003362817848088511 0.0019949953277833394 0.2705991563816241 0.22144751175742156
41959000.0 0.9345544394798927 -0.3524494928261687 0.02783347917704565 -0.033734906056945915 8.44735060654076e-05 3.647760180408718e-05 0.26530642582702574 0.2124931974979173
42958000.0 0.9302803939548425 -0.3611373145553129 0.03136924853780578 -0.044104416038117655 0.0019861264378829967 0.00020285288823972448 0.2765764765685314 0.2073213815744449
43957000.0 0.9281037757763605 -0.3654145685213756 0.03274617237065557 -0.047352371213818994 -0.0029862891696174894 0.0007941496025147196 0.28504473700188476 0.2047178831942299
44956000.0 0.9240481660599711 -0.37516209685575136 0.03660506358777292 -0.04922900760837152 -0.0004973152367451608 0.0008828364170819557 0.3059469765191312 0.18883929230645338
45955000.0 0.920996195293908 -0.3839364077645485 0.03548129946079406 -0.05495341369081138 0.0003716166169365721 -2.0736849673395898e-05 0.3045982597733625 0.19153341874732766
46954000.0 0.9178308108444295 -0.39411746742647313 0.03964144062942059 -0.06612107289680139 -0.0023594889252895306 0.0010509748854925394 0.3384312898238364 0.17301126919416093
47953000.0 0.9125007867114886 -0.40261997833181884 0.03942238221696416 -0.0738140093367078 -0.0012746797995719999 0.0009622986675471845 0.3378544105573514 0.17406018869329273
48952000.0 0.908765235011486 -0.4109387938118263 0.039091163782938324 -0.08115719904811582 -0.00020520711581060164 -0.001213027039649444 0.3333007958126989 0.15939152902090378
49951000.0 0.9060225491504056 -0.4181165840588019 0.04113955025428516 -0.08593187135519129 0.0009400878708459095 0.001275249931769222 0.3507822738349231 0.1509186556168621
50950000.0 0.9014273775636328 -0.425515533666812 0.04274389860258018 -0.09654714267766988 -0.001572758907516165 -0.000177002685585725 0.3454529758482538 0.1383847934080394
51949000.0 0.8974367699726999 -0.43311962362142775 0.03859248757349991 -0.10688678306474218 -0.0001025053610812025 -0.002671681284466883 0.35516136428534356 0.14626695779968044
52948000.0 0.8951737003770837 -0.44193170311847896 0.04116088759360062 -0.11212841668549937 -0.00034367396932308286 0.0035364700895043235 0.37409815717938577 0.14118028756518247
53947000.0 0.8914894717994405 -0.4481962984505278 0.04311588365164222 -0.1243511542746108 0.0019866929016753793 -0.0008660035185359597 0.3686770783270998 0.12092727600170912
54946000.0 0.8844732714986945 -0.4601352383097786 0.04411968370038032 -0.1344892842243515 0.0010300657485698586 -0.0008807469091136324 0.3913148245114832 0.11975000720896471
55945000.0 0.881026992434793 -0.46679824593640384 0.0486743335255111 -0.1429480167608047 0.0009469451094203065 -0.00023858198454611705 0.38334151700692987 0.09455317715542749
56944000.0 0.877571948700827 -0.4735966109026048 0.049421114211561354 -0.1512146682121077 0.0012862546254818574 -0.0006221075522379764 0.39630430714914794 0.09997762158265135
57943000.0 0.8735762686409458 -0.4842862281712768 0.05016265926592798 -0.1670670702920848 -0.0014044200690198642 -0.0010042664638228438 0.4010223817076289 0.09002650745614209
58942000.0 0.8669367660768219 -0.48960092341545053 0.051142648989806805 -0.17556784391167826 -0.0005144952009197926 -0.00043670594758315605 0.4219372643706268 0.08815204699036669
59941000.0 0.8665816601515662 -0.49636667548391605 0.05217385017894779 -0.18356158763026842 -0.0015947733535729828 -8.002757804759056e-05 0.41512555422848785 0.08017427166947527
60940000.0 0.856964010043446 -0.5071163426337753 0.05114983114603221 -0.1885045357423062 -0.0005110114246241391 -0.0007499146445567042 0.4018590203903879 0.0672237982223394
61939000.0 0.8543570918791602 -0.513961283440479 0.05097034811712507 -0.1969555979721802 -0.002636664654120625 -0.0012676723290389227 0.41233693463067533 0.06408336350901216
62938000.0 0.8500880041919839 -0.5227496096688065 0.05513733050895355 -0.21886903929369822 0.002253813164350812 -0.0004554173026181358 0.43895908134873307 0.0460829928494921
63937000.0 0.8454211142724775 -0.5292917460978231 0.055618319077713745 -0.239981236298444 -0.001267762720874441 -0.003958081883306741 0.4297947243386307 0.03284721724348077
64936000.0 0.8373493235692057 -0.5361416952991008 0.056574326975891334 -0.24976597686191157 0.001781614107977572 0.0012312950223465056 0.43553251791059583 0.03477172811950147
65935000.0 0.8337446164138997 -0.5491962908950122 0.055249100120779944 -0.2664820428385448 -0.00446985585334092 -0.0018023154113678119 0.4287368507026436 0.019492334395141017
66934000.0 0.8305382316949573 -0.5508744684209039 0.05779293424132825 -0.27996963346551984 -0.0019089666872666904 0.002084477964121002 0.4465482972834142 0.005070773737168175
67933000.0 0.8273493149095988 -0.560575131309459 0.05610890939047815 -0.29421069317645665 0.0018071705379534176 -0.0006393722761225695 0.4412499438726724 -0.003329406099207082
68932000.0 0.8104173245775169 -0.561555655322444 0.052895275214821 -0.30518515983053357 0.001992088735205685 -0.0019262865164524753 0.4531432936236966 -0.017980570488955305
69931000.0 0.8147190047413709 -0.5750647164956566 0.055028037976988756 -0.3237796656292873 0.0006315527074950378 9.954309388690547e-05 0.4428356941640726 -0.027018133525170667
70930000.0 0.8070041555778428 -0.5832526900144507 0.05076488507950198 -0.340926799401433 -0.00146063165314438 0.0008415505785944869 0.4480679775984195 -0.03441694501945572
71929000.0 0.8053872648917908 -0.589332450829004 0.04416674135315759 -0.3575049305509551 -0.000821452035878468 0.0017447680137978572 0.45399396635660555 -0.05439008399329188
72928000.0 0.7969547814129698 -0.6005444063655955 0.039425562035777725 -0.375451966374133 0.0024630024769203454 0.001800455210796493 0.4643104088553286 -0.0631573914457967
73927000.0 0.7924537378001175 -0.6058640653608881 0.033146462935616273 -0.3979452106855156 -0.00044009650481444335 0.0005761552515668938 0.4601666456884699 -0.06275841450859183
74926000.0 0.7875229812393977 -0.6162451684125493 0.026910754795471215 -0.41342899517084053 0.0007246777155102877 -0.0012362035562494516 0.4604278912174552 -0.0639473927247018
75925000.0 0.7813833121847328 -0.6208122791667514 0.01955875104720166 -0.434676973882807 -0.0007396818224546483 -0.0024128564988890595 0.46455938815561215 -0.07876885679939304
76924000.0 0.7745020041983759 -0.6278567356274033 0.0061655923013549585 -0.4585963457215762 -0.003963595876849995 0.0017322456223981988 0.4626446170918282 -0.0934924594604061
77923000.0 0.7678135927498412 -0.6358915447217245 -0.009007822002508993 -0.4828170971552075 -0.00039502224153926973 5.6328628853371435e-05 0.4638887109788077 -0.09999939619527826
78922000.0 0.7634216032873766 -0.6466158302146116 -0.021422357004268623 -0.5128603311308758 -0.0029681145953365856 0.0018300864409775662 0.4597068222361165 -0.11056054874398731
79921000.0 0.7532281022832672 -0.6497706953531747 -0.03891711070443868 -0.533537629635163 -0.0006259853624244404 0.0022563316566751312 0.4545292333928032 -0.12095822796879328
80920000.0 0.7503914551684875 -0.6598992648428395 -0.056032770286977625 -0.565778856954912 0.0010415614581470495 -0.003184451731413681 0.4716767365630238 -0.1411258073998369
81919000.0 0.7455271737907675 -0.6657844943565077 -0.07278792977743294 -0.5899218711818672 -0.0006198389039462001 -0.0010268788081184523 0.465894007709867 -0.13899843054523459
82918000.0 0.7344318155029047 -0.672328920219194 -0.0837686549725705 -0.6242109877005421 -0.00302504966403898 -0.0008298240841007522 0.4711237279361749 -0.14926911097585138
83917000.0 0.7258072562246062 -0.6823878983809053 -0.10397589699228463 -0.6505086806566457 0.001268904363339171 3.500378600912867e-05 0.4749889661739831 -0.1650342887492498
84916000.0 0.7216469426411922 -0.688672530596088 -0.1237677056702163 -0.6868125772160341 -0.005017293220000692 -0.0023941745297983374 0.46410192976076853 -0.1739912818773707
85915000.0 0.7159548310353392 -0.6949115036140637 -0.14612896208188145 -0.7184544845749604 -0.003134531709700782 0.00046433639820855465 0.4634013879217267 -0.17704542622224775
86914000.0 0.707321101654421 -0.7030564367818392 -0.15673514383017162 -0.7552898337655124 0.003681324676619249 0.0004807569973730819 0.45427340996598936 -0.18631142123571542
87913000.0 0.7003249591855593 -0.71118495359136 -0.1812630337556711 -0.7840035891975817 0.00046712163163115664 0.00011085181310405354 0.4520972058887709 -0.19791696383222518
88912000.0 0.6927886776827804 -0.7156292641497722 -0.19650908220200103 -0.8205489754262857 0.0013213001801925647 0.0015017166214446372 0.45764391171106555 -0.213400825628193
89911000.0 0.6861957161002149 -0.7261140059733824 -0.21398216176552268 -0.8557852511641887 -0.0012942561915756027 -0.0002215520078270941 0.4666260505410843 -0.22264417229613132
90910000.0 0.6789344567114913 -0.7303639002955117 -0.2293029193211722 -0.8921559705655665 0.0011565383739828117 -0.0011955025043491937 0.47087999395611674 -0.2239587410057655
91909000.0 0.6700935262691733 -0.7347091811132787 -0.2495366554588051 -0.9250891321637249 0.0014587658361655863 -0.0014793459636731762 0.46955480693072515 -0.23484788778324028
92908000.0 0.6624567678081639 -0.7455607468517641 -0.2676980963267747 -0.959597322130497 -0.0019487312118347275 0.0018568855603459124 0.4475483091539236 -0.23861807992158524
93907000.0 0.6574650364929198 -0.748317885798117 -0.2904018141882597 -0.991347284115999 0.00667478181413375 0.0041949677650381725 0.46106820826231115 -0.2597345128988099
94906000.0 0.6443923892657837 -0.7579560141765053 -0.3076494316539051 -1.0232221488235236 -0.001734441731092692 0.0008849459902413176 0.44094036513888124 -0.26748336135391687
95905000.0 0.6400281819008133 -0.7644515929519275 -0.3314914405710294 -1.0644857105368508 0.0004254140083081829 -0.002597737259159241 0.45596948872619464 -0.2813546196684403
96904000.0 0.6321819252583835 -0.7722438055139087 -0.3486912687608686 -1.102177755097124 0.0020782761585023952 0.0030357332065747353 0.44009760224856165 -0.28891739044243564
97903000.0 0.6200739534847686 -0.7789153854371919 -0.37863402778531713 -1.1324256935618635 -0.0014704511186853827 -0.0005585457415941036 0.4441147542276548 -0.29936457018042373
98902000.0 0.616117934344627 -0.7835443397912526 -0.39304090906366507 -1.1746110667124705 0.004759865598590263 -0.001010017357601819 0.4390826843988268 -0.3027363581618836
99901000.0 0.6066145716405598 -0.7911368595498129 -0.42298590675889075 -1.2060111581985298 -0.0007181351561929386 -0.0010810813871488787 0.4576821445002345 -0.3196182293700823
100900000.0 0.596858268098177 -0.794667930675351 -0.46266454611765806 -1.2306559987184644 0.0014550986861787422 -0.0010488884094511186 0.4485797065440947 -0.32394698482439055
101899000.0 0.5905824113210618 -0.8027679670435287 -0.4890263307519526 -1.2782474130258514 -0.0012871318851709025 0.002518698102785723 0.4421154044667706 -0.3326199515110057
102898000.0 0.5796875157931181 -0.8066960680842591 -0.5229691208760939 -1.3135890816153601 -0.004973495746385997 0.0025488858025381187 0.44121041253145177 -0.34525288760968553
103897000.0 0.5705445557689834 -0.8148825896774169 -0.5630346943950689 -1.348997216738586 -0.0021036308118584897 -0.00058601605140183 0.44944956180524637 -0.34161068151196916
104896000.0 0.5630879948982019 -0.8246793196452318 -0.6103547509249032 -1.3809130042998363 -0.00010742559034545179 0.0024006563122954375 0.4306281796744496 -0.34589573372227356
105895000.0 0.5523278763381911 -0.8286639642881448 -0.6568247960882482 -1.4288513290096458 -0.0011818360261126488 3.0259635263210975e-05 0.4249612981978511 -0.3706998456514341
106894000.0 0.5421736597081683 -0.8338128027565007 -0.7142208081088312 -1.4636518871057995 -0.0011005776872149925 0.002472330556311898 0.416934569300961 -0.3776407268897545
107893000.0 0.536536608803743 -0.8398280889833224 -0.7584506955427773 -1.507872032014215 -0.0028697875543717923 -0.001181158342294871 0.42902654948316826 -0.3791178146903235
108892000.0 0.5243479907292401 -0.8433942505134884 -0.8252532410161495 -1.538337382072392 -0.0008812657357851966 -0.001201785869773387 0.4091335607784205 -0.38520032267480064
109891000.0 0.5134862575980298 -0.8526651854925061 -0.8832171396831558 -1.5797321106662057 -0.0011943679250646898 -0.001998463618026775 0.43331545777019076 -0.3803812033295152
110890000.0 0.5016911177816961 -0.8522786529750421 -0.9412196380212666 -1.584656726803353 -0.003947940133916974 -0.0009606783490932987 0.41235586014594044 -0.3941514533060885
111889000.0 0.4930602978551217 -0.8581417591045309 -1.0118818626987724 -1.6464786164542988 -0.001632650468997168 -0.0003993034057259317 0.41357959017589246 -0.40949878740106277
