! Created with skrf 1.9.0 (http://scikit-rf.org).
# Hz S RI R 50.0 
!freq ReS11 ImS11 ReS21 ImS21 ReS12 ImS12 ReS22 ImS22
1000000.0 0.9749051004417147 -0.0008190339689932959 0.014489887127972953 -0.0451431422737563 -0.012192249604422176 0.00370527534420416 0.30984187441486183 0.30693795517675065
1999000.0 0.9927367027202411 -0.017095862888537386 0.0065240595444019415 -0.018014017803463445 0.003923594276319156 -0.006456168328647849 0.2519445000048831 -0.04950642085002165
2998000.0 0.9963805959801066 -0.020936693531153187 0.012779379671749644 -0.014949029769362021 -0.004394485217648925 9.887590259552299e-05 0.18302687623838576 -0.15520206576723974
3997000.0 0.9984321545985916 -0.03031372329332442 0.013047789594501157 -0.007420526828340919 0.006992486598270202 -0.0034473215952405176 0.0899543922857443 -0.218651301194716
4996000.0 0.9956151049385604 -0.039306359680583075 0.013604308870062436 -0.0027252995764760458 0.0011568099843355351 0.005617787838014321 -0.029733947459552032 -0.19476617178679312
5995000.0 0.9942036688260282 -0.050031607729067146 0.008862439833065897 -0.0013655116531494423 -0.007020644314951243 0.0023429444098917035 -0.1237567282103299 -0.12011219562839792
6994000.0 0.9933089794083055 -0.06084161423795796 0.00626253259250788 0.004692320114684902 -0.0008159403601331004 -0.005137677331577944 -0.15032575638387308 -0.0371259924864836
7993000.0 0.9955844694332241 -0.07020720973386936 0.00751399573550672 0.005254592007833418 0.003358282717806105 0.0021506178599846226 -0.1727001711345494 0.0396028325828766
8992000.0 0.9938166907634711 -0.07320286326471981 0.002635324987951351 0.005376701348678315 0.0017522344357855098 -0.0039094506379346245 -0.17771498504096667 0.06587061070841076
9991000.0 0.9915683788853686 -0.08508731771029124 0.0030640372401787076 0.002457223969197364 0.0028208757090042256 0.002686797956741427 -0.16198121371943597 0.10071727934658682
10990000.0 0.9915593745489832 -0.09404363434081553 5.75190395457903e-05 0.000617171458364829 -0.0018055762209336565 -0.0021570457159965192 -0.13834368469694508 0.10262741529178375
11989000.0 0.9907172384655826 -0.097516478890135 0.0032553025415950998 -0.007208253135821777 0.0017263593497604216 -0.0015969678688047468 -0.13474176993216555 0.12940228720369423
12988000.0 0.9894951275641304 -0.1093253450616337 0.005272771116298582 -0.0029795465291428845 0.0016144872856235573 -0.004963105208290459 -0.12844168228409483 0.1712563819570869
13987000.0 0.9870035158746466 -0.12225153443244113 -0.0008702866618136341 -0.004727010035429403 -0.002573440445171486 -0.0026606442620642815 -0.10430485415456583 0.17811305972554273
14986000.0 0.9877483066268076 -0.12543767056938762 -0.0031427658398361373 -0.007206702688036954 -0.0010112082161669446 -0.002244356914476052 -0.0986517746531136 0.2021248998739178
15985000.0 0.9878675787795416 -0.13505179502785694 0.000470660691543957 -0.0032907688733424235 0.0032001110466108643 0.00020957213980659986 -0.0727648039157691 0.213509174717949
16984000.0 0.9837923957792979 -0.14487322489276447 -0.0037740597556258195 -0.0032967854189597445 0.006447154216287987 -0.0026487900637649714 -0.07232489340402377 0.21896752984425932
17983000.0 0.9848770995661024 -0.15243548648284566 -0.00017954220922331726 -0.007146159970475907 0.0024362970244903148 -0.0009585229010616479 -0.06800182718344859 0.22586833651267366
18982000.0 0.9803358363197243 -0.16372132051845462 0.0001632294279371056 -0.0011077848849827862 0.0010868539937864546 -0.0009272577993235933 -0.027833153562806436 0.2386817611438906
19981000.0 0.9814656687131361 -0.1675225942208292 -0.0036772758684065626 -0.006460333874045114 2.128997656611152e-05 -0.0019451218794992807 -0.028466319166350344 0.2431511377224657
20980000.0 0.9809623833568364 -0.17735292186731882 -0.005819989031081191 -0.005966355128811444 0.00025664656406940427 -0.0026117299451437104 -0.005165159248281777 0.26339247417861106
21979000.0 0.9783268827803719 -0.18605989869727563 -0.00029639495716708697 -0.004752710922939341 -0.0003899651775909154 -0.003847918571770391 0.00588235195732305 0.23323773641632306
22978000.0 0.9752272888392087 -0.1961400396357827 -0.005553884478658518 -0.004878390581689418 0.0015326556170318912 0.003531592142827452 0.020330287814649458 0.2553552701904026
23977000.0 0.9776124498393324 -0.20281829801361345 -0.004719405237638791 -0.0023484850895306004 8.683735732152276e-05 0.00041297373784899953 0.02408261227539139 0.25014799526966663
24976000.0 0.9719327227588364 -0.21282380401542234 -0.007908091003656036 -0.0007856978702525929 -0.0008019420136082259 -0.0028011202631788206 0.04990028361674275 0.25771612502375296
25975000.0 0.9714695783196848 -0.21891749588457698 -0.006743983534569923 -0.006757959481437408 -0.017660580764257628 0.015343624416647245 0.067116663642689 0.2594542304825923
26974000.0 0.9693309502317029 -0.22998936665833888 -0.006424298709478559 -0.0027377363125568027 0.0004004077715407602 0.0001151179062168974 0.07695307475966448 0.26987652903660125
27973000.0 0.9689988826197611 -0.2372943220636655 -0.002928753172832598 0.0006334739238887355 0.001403866527586139 0.0025128553394740487 0.08972089150654877 0.24906428347579287
28972000.0 0.9657011251141878 -0.24574667881009468 -0.0038699767167145395 0.0007541847221313598 0.0012166689124488267 -0.001319671428492937 0.110194283149238 0.26357448285299845
29971000.0 0.9621792785509894 -0.25772926041700744 0.005889394737528857 -0.00277672260769192 -0.0016639796871573155 0.0007270710677862533 0.13785125974885568 0.2662774005556114
30970000.0 0.9607384363586451 -0.26279001522726386 0.0022085067767818193 -0.0004161028393772126 0.002491957329035265 -0.0012862395763882507 0.15687617443161944 0.2477377948006725
31969000.0 0.9586858201820274 -0.2714069164887171 0.0065314200848391 -0.004882064926305302 0.0007386793333086459 0.0015694679530094567 0.13742809396724387 0.26059521709642025
32968000.0 0.9552436705505903 -0.2818732865846553 0.006433908759795864 -0.006905358136912382 -0.0006955018045942777 0.001889433311170866 0.15008838419112527 0.250407217028378
33967000.0 0.9532978051388 -0.2916023330351566 0.010651000748763266 -0.010954633887987508 -0.0010929630423630197 -0.000593793626504674 0.17249034290434567 0.25241349477145875
34966000.0 0.9509176304727872 -0.30052303685411513 0.015182210925993133 -0.013300712236517813 -0.0011366719506714096 -0.00016089569763623975 0.1906264833081953 0.24836420490592107
35965000.0 0.9480081290836676 -0.30677853681651884 0.015957787573763062 -0.014020268992806562 0.002698278237973368 -0.00012929524122849297 0.198911380841983 0.24961148216285164
36964000.0 0.9459645341317157 -0.31604899744970916 0.01589086310821051 -0.013978998657132567 0.0010644678881767545 -0.0017128541668526601 0.209216296411417 0.25710459327653035
37963000.0 0.9420744287651318 -0.32476747822380664 0.020128773798958215 -0.021327652275634407 -0.002124033894347191 0.0014470987116863543 0.21705795041337286 0.24430483917504742
38962000.0 0.9392731177117948 -0.3368004398645655 0.02394384727183703 -0.02291330303541902 0.003845787637483347 0.0034948977572999552 0.22814450008458695 0.2355554076245203
39961000.0 0.9367893672512606 -0.3431451743475096 0.028617787208660105 -0.025735047280311143 0.00040300682799851385 0.0018345684839840611 0.2338812873075442 0.23273279712444045
40960000.0 0.9334086210468387 -0.3506659179909544 0.02369542788075561 -0.024393863384833275 -0.002094563251596947 -0.0013801228468725611 0.25845417827288913 0.2381115265233618
41959000.0 0.9292634946853241 -0.35990290007336523 0.030250594288410405 -0.03220729014443768 -0.0013968657847460125 0.000972312116506787 0.2649674142079375 0.2127846092412684
42958000.0 0.9236705472964363 -0.3705202430557634 0.03208369804151728 -0.04232434757241676 0.0029315247676179206 0.0022989723976252294 0.26538899133783667 0.20795983149080893
43957000.0 0.923940974306946 -0.37493666938128556 0.034928055009446984 -0.04535007156937071 -0.0009940103444758756 0.00028758571488332146 0.2773066412007228 0.21015275646770273
44956000.0 0.9198794326760267 -0.38427600289067126 0.035550044920970074 -0.052856560200291225 0.002472454506241043 -0.002505041757150639 0.29404016598870714 0.20610086032652453
45955000.0 0.9160795006077638 -0.392510077688752 0.03356615802002015 -0.060792200593456365 0.0012345697559883889 0.0002993031479666901 0.30909250806265937 0.19670433778779473
46954000.0 0.9116534768478922 -0.4014026396776058 0.03663415114724464 -0.06601507959012724 -0.0013943498569101889 0.0005918336423645884 0.3133581579152844 0.17915515098634394
47953000.0 0.9075077161973716 -0.4109948639730561 0.03694078413914451 -0.0746270938586994 0.0004627921497530606 -0.0026295390385137735 0.3238635572257907 0.18863929277342245
48952000.0 0.9034464720489415 -0.41971955189545435 0.03936067053919035 -0.08271931257883681 0.0033722511760305536 -0.000665929539397035 0.31806825096933306 0.17155259081199958
49951000.0 0.899341247133301 -0.427683389603476 0.04093103511431475 -0.08870536079511054 0.002520803407760211 0.0009738643366960874 0.3387109728077882 0.1590612024272473
50950000.0 0.8965185739095137 -0.43535508683745944 0.04401094845979185 -0.09807027537959474 0.0004687899282402438 -0.000716612849048569 0.3357752652943814 0.15178088338288118
51949000.0 0.8914832241846182 -0.44390316925360834 0.04395226563497146 -0.10669837311394634 6.213052173025786e-06 -0.001474988130576628 0.3453839428038763 0.14646890753415448
52948000.0 0.8896747484269905 -0.45062114439223944 0.04381108432865056 -0.11469275404993058 0.00019007540657173442 0.001495920897768525 0.36291420476839253 0.1498736092690279
53947000.0 0.8830508535431545 -0.46092291574373506 0.047227142877436984 -0.12424715112079696 -2.222228090522819e-05 -0.0009535191658848704 0.36668976188896013 0.1363550084552003
54946000.0 0.8790308865439788 -0.46966574510678005 0.04939473815274927 -0.1334350156105261 0.0040827877062558 -0.0023461436492351654 0.3689894552486271 0.12397625503023334
55945000.0 0.8761654091442436 -0.4777794946793971 0.049323396006753124 -0.14749971956624527 0.0005521191165594608 -0.002265028195025086 0.37948072424104046 0.11117708137172617
56944000.0 0.8724363216647906 -0.4849447994411427 0.05059423104428149 -0.15514878548711836 -0.0008270156299424407 0.0005824197655093 0.39075653659275156 0.1168187294798125
57943000.0 0.8650572609513199 -0.49652126820953024 0.05199753319298682 -0.1686784489087276 0.002349908234942149 -0.0018383768513422574 0.3975985946625734 0.10244816894853055
58942000.0 0.8588776818432783 -0.49886281769792806 0.05348637238136182 -0.1785861766114396 -0.0015960535569690666 -0.0005472675647527362 0.4090293210996582 0.09282741495184867
59941000.0 0.8574012996210473 -0.5105982465462834 0.054798094111298 -0.1901843943706458 1.2294548059000177e-05 0.0010810168702295238 0.4032464080178514 0.09373639564086357
60940000.0 0.8500134600921989 -0.5145970267180795 0.054219913941905645 -0.1934541681967394 0.0005666243770201087 0.001965737593438039 0.399129816749443 0.08749528434016374
61939000.0 0.846841659455348 -0.5238091072241037 0.05766095561823612 -0.20166571392825258 -0.0003944191210121048 -0.0006928747251026253 0.40870229229089683 0.07593316495297926
62938000.0 0.8415090147089924 -0.5334541446127313 0.06225237927157514 -0.21958538299820404 0.001837817519054138 0.003851449176901818 0.432472753140412 0.05883706644754038
63937000.0 0.8339471808109474 -0.5423899184364259 0.061530637455674234 -0.2405896125793015 0.00158092925132096 -0.0011448170824711471 0.4299431428826013 0.03965886204710254
64936000.0 0.8286866493488028 -0.5470748318978441 0.05856415362100752 -0.2561850948852119 -0.0035605142785130246 -0.000528477492733488 0.42498805412512697 0.04326796654452507
65935000.0 0.8256205124841197 -0.5571525586546825 0.06032095034171258 -0.2699599780165805 0.00029234510938936796 0.001655117458568158 0.42940904982754535 0.026157180448285897
66934000.0 0.82080060569595 -0.562858503978719 0.05930175832013504 -0.28261379472458575 -0.0025181169514421867 0.0015027027688001074 0.4280446262524929 0.01679315302651035
67933000.0 0.8181315689119908 -0.5721576781924754 0.06075251395400624 -0.2996087604988851 0.0016487643362688561 -0.0004771819870750757 0.439979036268487 0.009469158643374083
68932000.0 0.8119304735235856 -0.5688686548200437 0.0566838599160723 -0.31273588342565534 0.0013548896397372044 0.002803778090850414 0.44367207884977516 0.007664528867379776
69931000.0 0.804625900683229 -0.587700886739762 0.05496009058999236 -0.33305257280734196 0.00047819133916209727 0.0002433483876900769 0.4377984869181526 -0.021270805120309294
70930000.0 0.7978084659162533 -0.5931497514813224 0.054041423167603624 -0.3458633182548129 0.0025539378293064153 -0.0003249177695996883 0.43627676824871253 -0.02648511622060876
71929000.0 0.7932021428392828 -0.6037362318688269 0.04800317853572187 -0.3670353937534603 0.0012991662944885228 0.004841777883150462 0.447634078930804 -0.03240587129612096
72928000.0 0.7850156233747332 -0.6133886781010706 0.04094861886244377 -0.3819004815581519 0.002390248568342628 0.002206521574409826 0.44209827431621523 -0.03937969562394486
73927000.0 0.7796702903956793 -0.6179091797945045 0.03691908362248414 -0.4043203265541036 -0.0014351353080032222 0.001428173470913984 0.4471464100036141 -0.05045813464883357
74926000.0 0.7729017737626419 -0.628098268893938 0.02826717767204989 -0.4213764849496726 -0.000672068011333311 0.0034287909857510256 0.450861408547545 -0.05786416357369865
75925000.0 0.7660512843131928 -0.6344375234135413 0.020016205434026865 -0.44732200523926036 0.001314348466839044 -1.2293320050083736e-05 0.4677553038068645 -0.06541627759478465
76924000.0 0.7613321935569033 -0.6418483198636837 0.002252323667418147 -0.4692350511268177 0.0005681135606214335 0.004415481312400951 0.4588302655795563 -0.07987770952020205
77923000.0 0.753761192653745 -0.6484825957558183 -0.008322425589065197 -0.4950135193832129 -0.001867449604826885 0.00274667030076999 0.447747100325875 -0.08965224408664223
78922000.0 0.7488321338470922 -0.6584686039189799 -0.023717840114962276 -0.5276016829856413 -0.0023622827025601987 0.0006270929407264003 0.4460354328215598 -0.08918558307082954
79921000.0 0.7390115615977568 -0.6640683066205199 -0.04374438906428004 -0.5493119405262213 0.0011300765398605582 0.0002090554251431617 0.4494456645045185 -0.11255719717588819
80920000.0 0.734448351228772 -0.6725348381030818 -0.05487845846581364 -0.5780255227569245 -5.049729633174939e-06 0.0004996581254078851 0.46429827918539035 -0.1217915874167232
81919000.0 0.7313201452416463 -0.6782580559733421 -0.07531268942735503 -0.6100657615079039 0.0009931705017769093 0.0006323543931817048 0.4607884977400026 -0.12697410056980776
82918000.0 0.718454498830247 -0.6872021705150374 -0.08564366184827481 -0.6413924009786975 0.00026939107668800573 -0.0014267703587140003 0.47983183199450635 -0.1358393775854255
83917000.0 0.7130834007013459 -0.6928345959095892 -0.10592677685073033 -0.6720084757434355 -0.0019984182166970523 -2.3934360705351603e-05 0.46407931631042665 -0.1395678954947985
84916000.0 0.7065952288800983 -0.701830419269414 -0.12490472263205203 -0.7075699808903781 0.002383030837883906 -0.0008183090053239842 0.46978836058275153 -0.15631731939542282
85915000.0 0.7008449171298275 -0.707528468839442 -0.13983353978102084 -0.7381216814484652 -0.0008897232050739853 0.0012757306877193458 0.4586640660874808 -0.16478304344834482
86914000.0 0.6929384834803205 -0.7186233590080368 -0.16327812048102747 -0.7785539086165987 -0.00515940287117312 -0.003101184584546777 0.45783425227267616 -0.16413881486083506
87913000.0 0.6852942356304186 -0.7230348362988607 -0.177298667038912 -0.8080073003774316 -0.004109097857810749 0.0005884095944655574 0.4554446785163528 -0.17662928041844034
88912000.0 0.6770013255103614 -0.7293044576493508 -0.1960077960278179 -0.84184246132891 -0.002655049112155229 -0.002025281555992581 0.4524205028523868 -0.20585446173642546
89911000.0 0.6721484301525905 -0.7381576127145262 -0.2067106004817473 -0.8835873825363711 0.0012057532350126792 -0.003954021394865797 0.4527113805694157 -0.20134523802646462
90910000.0 0.6624140567766456 -0.7443779406415177 -0.23103119967483896 -0.9166763915989135 0.0005426669171613046 0.0007491522295305845 0.4559630434903664 -0.1987991103400671
91909000.0 0.6533952510642117 -0.7482650362663859 -0.24972485215435578 -0.9476873219677918 0.0025011654076290755 -0.0012519131834435174 0.4603217556285776 -0.21179254593829322
92908000.0 0.6467059791987464 -0.7588728646786566 -0.27194567179870865 -0.9860946431387553 0.0012706967675476873 0.0007578776207626524 0.44947091056795474 -0.21820640237677166
93907000.0 0.6409358800407511 -0.7630558971598266 -0.29168759502843467 -1.0188363972255448 0.0034660509910518973 -0.001602366157227543 0.4553689446389669 -0.24770067194780374
94906000.0 0.627653624964309 -0.7705125925766318 -0.308943998123224 -1.0530978179749673 0.002097784626354435 -0.0027658944889548814 0.4545848290588279 -0.23457295457395816
95905000.0 0.6192993426487021 -0.7777592895002189 -0.33437834347101 -1.087242627061036 0.003470513419087779 -0.0012563002463311284 0.4483636722250597 -0.26782244426832347
96904000.0 0.6140317907829771 -0.7857490710333996 -0.3509981476938379 -1.1328297111289476 0.0019651969475537492 0.0016080079474696096 0.4485163324006843 -0.26304766720470807
97903000.0 0.6032355818455073 -0.7922451676523576 -0.38106233845711496 -1.1658020175546941 -0.0008290027502887445 -0.0020654337892108032 0.44154205462918944 -0.2734511164117526
98902000.0 0.5984035357821041 -0.7982216242657649 -0.39990732078503033 -1.2059509909459585 6.634735264576958e-05 0.002119233719393144 0.44637853837255714 -0.2809810964822714
99901000.0 0.5869687975109046 -0.803445098697853 -0.43451387977356265 -1.23745680959342 0.0045200130839435 0.003077332240282087 0.4535830075666358 -0.307856071130334
100900000.0 0.5777164932813745 -0.8076224645437197 -0.46601619139730577 -1.2671209978847917 0.002483096621152929 0.002308304613546251 0.45999004719933223 -0.31321258175168526
101899000.0 0.5690915874698044 -0.816678155032996 -0.5038945497947117 -1.3149919566340262 0.0031090742209955004 0.001433560502155812 0.44110801864037175 -0.31684773976969666
102898000.0 0.5582183354796895 -0.8196315078706313 -0.5346434542485238 -1.3491907392749205 0.0008070212635857203 -0.00019877398603818225 0.4530096040194756 -0.33388343957003613
103897000.0 0.5497970002835999 -0.8272124844054006 -0.579735261055238 -1.3857991199370185 0.0022403211289961805 -0.0007028237016274272 0.45341846755009063 -0.3319605730874186
104896000.0 0.5418107716410469 -0.8374535494603467 -0.6288005277255897 -1.4233442833555834 -0.0003374533678381859 0.0002677520469383306 0.4429215009466718 -0.32918719071547636
105895000.0 0.5307019090644618 -0.8392460897212066 -0.6781429217404421 -1.4660341647432154 -0.0025208460265016535 0.0035123479911408017 0.4369340878464157 -0.34627793776361304
106894000.0 0.5222498799551194 -0.8457697762292429 -0.7396703665617005 -1.5079613040282167 -0.0028785488042351024 0.0002164022059999869 0.4357710451755824 -0.3614423377131966
107893000.0 0.5148200575845011 -0.852760911950525 -0.7876169384036521 -1.5462407545788779 -0.002170160827620181 0.003570945656582145 0.429958707863581 -0.3639602670694698
108892000.0 0.5037198948063614 -0.8558532336383781 -0.8526316533888341 -1.5853099375325392 -0.004184250920203024 -0.0013336579218094697 0.4271523786453876 -0.36388611980616614
109891000.0 0.49084436887193034 -0.8633006444088389 -0.9140187430712374 -1.6267633940479715 -0.001124274799208811 0.0018011745198841748 0.4362527950024779 -0.359543867252003
110890000.0 0.477728555863218 -0.8653246079228558 -0.97864948770405 -1.6229363136662511 -0.0003546409142614677 -0.0005918338499982831 0.41843289718491444 -0.3688437112740826
111889000.0 0.4691193968538066 -0.8694839135904245 -1.0490575998340472 -1.693786407056813 0.0009380445980002597 -0.002119249002176604 0.425242878322824 -0.382499361987337
112888000.0 0.4611100014726411 -0.8768340073502515 -1.1230659260213327 -1.741832750613516 0.0005181113942276229 -0.0016314147775092357 0.41098981452685157 -0.41231747913129285
