! Created with skrf 1.9.0 (http://scikit-rf.org).
# Hz S RI R 50.0 
!freq ReS11 ImS11 ReS21 ImS21 ReS12 ImS12 ReS22 ImS22
1000000.0 0.9831198853720973 0.0005534987958437914 0.001321899133465164 -0.030819700893443856 0.002839417018309511 0.0022079649783079275 0.3322472677010344 0.2936788389060356
1999000.0 0.9892381496286125 -0.012155411328666614 0.0023848579383304452 -0.026734634633268924 -0.005277738513681873 -0.0007083157795327277 0.26093996731732355 -0.06631055891541043
2998000.0 0.9997810835639612 -0.020276185960667447 0.00889200627302642 -0.014184760595912742 -0.005471766845329486 -0.0011363079878945693 0.18515183115522918 -0.1303963957663919
3997000.0 1.0015408404881017 -0.0308246963227057 0.012015673213963926 -0.004292227260540829 -0.001392540990325687 0.0006594220781311127 0.1034813100922346 -0.22139518774940609
4996000.0 1.0005207559076594 -0.03326796088815251 0.01681345070579997 -0.004958910764838833 0.0011728371172911782 -0.003982524960223617 -0.023247836956599256 -0.20941982925377287
5995000.0 1.001483978703861 -0.045182495941394674 0.012289005001353274 0.001261597081129404 -0.0013950570084651994 0.0019367520207120292 -0.1185426195242017 -0.11777309895447412
6994000.0 1.0011713594362939 -0.05930327641811182 0.00757003433616688 0.004409602464412689 -0.00029113391727433413 -0.0008117417356231605 -0.1546630648776833 -0.0338075399118528
7993000.0 0.9982285811362481 -0.0669853513822454 0.006022506026198685 0.002759382243637246 -0.004927069999105214 0.001169488271389391 -0.17161504903277913 0.02455585662600294
8992000.0 0.9991684897070309 -0.07242345371895058 0.0033070084682743075 0.00830239564504499 -0.0012713518988159366 0.0023595881364715143 -0.15746593919483295 0.05521968775255047
9991000.0 0.9978426140046466 -0.08235854446615641 0.006166545859630058 0.007069990801322119 -0.0007597258588944979 0.0003347333330175194 -0.15582680098858878 0.09556098844022463
10990000.0 0.9981455426846417 -0.09273216350750191 0.0008924609184198196 0.002564934792476653 -0.0006681094441631281 0.0006789156289113072 -0.14942235894023867 0.11314177927597956
11989000.0 0.9956645524296901 -0.0964355090201993 0.005887039152891337 -0.003361647002575442 -0.001841088409861142 -0.0009342521112183647 -0.12431240854378633 0.13671032725819493
12988000.0 0.9953474620328945 -0.10897080563470059 -0.001389135250851957 -0.008315713783394692 -4.367987355825388e-06 -0.000684970368520967 -0.11818458614575801 0.15482466227173208
13987000.0 0.9949674749937907 -0.11530327468238113 -0.0005336979516343358 -0.006836139391149827 0.0001363250587720919 0.00017909439765884832 -0.09934706690068465 0.18542038055197949
14986000.0 0.9914088874209852 -0.12587556253174984 -0.0007338212154699624 -0.0005374572998510552 0.0031428173983330146 5.1769398803836477e-05 -0.09110268777624225 0.20653193561748392
15985000.0 0.9931976049493806 -0.13330408721721196 -0.003222567009577668 -0.0023300227691766544 -0.00028604389076741397 0.0018079536108425568 -0.07402281130020369 0.2087678212484492
16984000.0 0.9907225497809592 -0.14372088644492456 -0.003415676050442689 -0.00442555972867074 0.0006357435384277188 -0.001457992155059966 -0.05387835910438611 0.21500954840999228
17983000.0 0.9894413373074739 -0.14880834562348266 -0.0007587750271872027 -0.007087274998969707 9.026165231404408e-05 0.0019234321706412053 -0.05595665724219527 0.22651798138805554
18982000.0 0.9861422993855943 -0.16131785945918384 -0.004284611540074583 -0.0046092441233308214 0.001086003315080626 0.0002073411887925088 -0.030608180187476665 0.23587963848331836
19981000.0 0.9876222654793168 -0.16727411835218825 -0.005958546085678863 -0.00535216889656344 -0.0014116002883721 -0.00039985948107904663 -0.017277413042742454 0.23217023683321356
20980000.0 0.984864381733055 -0.17652547746307704 -0.00861875624561271 -0.0027527413875829175 0.0009623999332120998 0.0007402770838782909 0.0005570245560796559 0.25564713354816404
21979000.0 0.9822276307698707 -0.18464148691235824 -0.001643194782393509 -0.007787090055027921 0.004003385951367697 -0.0013560113651410717 0.013455136519196088 0.2440228304002308
22978000.0 0.9800522246520214 -0.19336047229106526 -0.00534069465763943 -0.004485542676239035 -0.0007308782441469977 -0.0019013046863952663 0.028276622591796505 0.2645099905640827
23977000.0 0.9794364169741931 -0.20113953607074475 -0.0045136260144455495 -0.0010564827796629623 0.0016943160279129215 0.0009540877088519587 0.03750702877500859 0.2532313676077288
24976000.0 0.9780303664227186 -0.20877787132510692 -0.007647752403491813 -0.0022641235257567574 -0.0036507929531345764 0.00021650339498243047 0.07152911095996096 0.2504205841348462
25975000.0 0.9733166650196589 -0.2142707515621519 -0.0014006591776170316 -0.0015206585779711306 -0.024045802722441837 0.01054079345985912 0.07770193128208623 0.26952099904421906
26974000.0 0.9730316246207317 -0.227184174415692 -0.0008548765980532494 -0.00395665572412573 0.0029534884366697054 -0.00023141099507011643 0.0923604164437887 0.26189307963476227
27973000.0 0.9715679072439273 -0.23296684557819664 -0.003230696205817555 0.00025909070792302284 -0.0004547275750552622 -0.0012787025359090993 0.10040260798345534 0.24960999449565435
28972000.0 0.9689524769917647 -0.24507279904657692 -0.0021411035254013757 -0.0017681550855096954 -3.1895157313810414e-05 -0.0012887171637183147 0.12069808183212166 0.24723726269121823
29971000.0 0.9680872612848976 -0.25249867165572637 0.0012825549005943259 -0.000732762614683281 -0.0023407267129644336 -0.0008490304335156168 0.1512697243907396 0.2687861230862741
30970000.0 0.9653453986789047 -0.256503887889573 0.0037331672956490204 0.0004605393139489638 -0.0006472177839144527 0.0028906284239164784 0.16973684354197544 0.2548879616074619
31969000.0 0.9635966186842901 -0.265989131639251 0.004194666994897025 -0.005220313810866312 0.00042924160756716365 -0.0006630268143108218 0.15334113388017057 0.2507317793307095
32968000.0 0.9624769569122998 -0.27455296289939907 0.008487794597358265 -0.006967465680005597 -0.002826967555027984 -0.0002841705613097525 0.16278919623396232 0.23704041620470656
33967000.0 0.9607045300463707 -0.28367946303069236 0.006110213698524682 -0.010608866524490793 0.0004330672791936934 0.0005440812893683917 0.1954056200252733 0.2369842364536901
34966000.0 0.9557207356462247 -0.29250122736979883 0.014161505946033603 -0.010437472971483801 -0.00018216361269039063 -0.00023497386689924765 0.19302758556685143 0.25216776896191917
35965000.0 0.9532238161227794 -0.3015270211611649 0.01705766591256446 -0.015078527768497045 0.002003879915118201 -0.0007370959670503382 0.20581084087436585 0.2521963936391368
36964000.0 0.95107597762792 -0.30947324308265495 0.01483084788073714 -0.012870354190481109 -0.0004981112152695609 0.0014853675583836753 0.2131712086937108 0.24466903928585323
37963000.0 0.9485294216652489 -0.31940973674637496 0.019314091359960147 -0.020842522188763837 -0.0003193874767315482 -0.00188842867208456 0.23028170555384808 0.24127168253487769
38962000.0 0.9461186955314098 -0.32830127997762004 0.023942658971585075 -0.0247646932258483 -0.004825556579870265 0.000817321574779349 0.23929765180794915 0.23809193200988882
39961000.0 0.9420405664197994 -0.33710142611455024 0.027141556330415182 -0.027058982809834143 -1.9023172539354464e-05 -0.0006900095963945269 0.2510322962981499 0.21964754511552792
40960000.0 0.939850968874439 -0.3435229151465423 0.023975612182395852 -0.023495657921610784 -0.0014340284999872128 0.001307211863710097 0.27392082665937395 0.2249389984845785
41959000.0 0.9364088851344857 -0.3522330388722636 0.030944451635661382 -0.031797120038899965 0.003197199439172117 8.65015222412523e-06 0.2739220381056445 0.20775321468523614
42958000.0 0.9302487353837581 -0.3626494874074951 0.031460218215305064 -0.03923546820334107 -0.0002073983446751213 0.00039773128532970546 0.28409872873788133 0.19809971625300155
43957000.0 0.9313368006134611 -0.36455384765913823 0.03391496973269014 -0.04645813188539453 -0.0005375200241441594 -0.0008592374645312331 0.2947129223395058 0.21220817719896762
44956000.0 0.9279860537912736 -0.3733088625975808 0.03420492121340364 -0.051512214726168105 0.0033226758075438584 5.1437920680470056e-05 0.3102983891026291 0.19442487594007454
45955000.0 0.9230159901763358 -0.38511720987875653 0.033955831926639535 -0.05424233368670459 -0.0005649774541463558 0.0001452614922004538 0.31839572563513335 0.18825623919880288
46954000.0 0.9194450551141251 -0.3935914518014631 0.03558187301862689 -0.0654433585444414 -0.0002737134842300007 0.0016549273537985506 0.3287808562231415 0.1720879727528276
47953000.0 0.9169404030950613 -0.40026858419924277 0.03815237539512496 -0.07291280207836937 0.0003366878813249636 0.0002082018793981151 0.3395928861839034 0.171686239979465
48952000.0 0.9108324401146718 -0.4109245438517307 0.03980023843524997 -0.07753550239082256 -0.001263897830058778 -0.000851975237042552 0.34098976704218753 0.16426767939103143
49951000.0 0.9076970725879214 -0.41764687749379587 0.0354727306735023 -0.08228928056718668 0.0007341472016337185 0.004930189144724813 0.3590698202626581 0.15507241803280952
50950000.0 0.9047731393632942 -0.4249997788995765 0.03758098661306105 -0.0926613978599445 0.0017112738724594978 -0.0019553603241953834 0.3463799336232175 0.13921257011913638
51949000.0 0.8999148827470642 -0.43444521861143504 0.03794413817111242 -0.10173315317383773 0.0017470720965244557 -0.004046174807215532 0.3693018145426369 0.13822378432641685
52948000.0 0.8988392335945268 -0.43893526202414374 0.040678585816474024 -0.11111985583171785 -0.0017578363898193552 0.0019039248530146496 0.37727064059538173 0.14078176281660312
53947000.0 0.8916841589230261 -0.4478369686244487 0.04096530863100201 -0.11879784159742446 0.0005376636827060444 0.0012226710635665564 0.3759771297083538 0.1256635299888863
54946000.0 0.8885877950544707 -0.4551591325121731 0.04020761161626905 -0.12929618547998725 0.0009992864040921895 -0.004713788303964923 0.3932668070669641 0.11578767661787338
55945000.0 0.8851899978977156 -0.4655453618572979 0.04335966240437553 -0.13941068398536957 0.003137778552663405 -0.0032692007950025875 0.3903835379805442 0.10682506454967847
56944000.0 0.8814439280294549 -0.4737288874261365 0.04451689009175605 -0.15106990746908702 -0.00167367835206409 -0.0015092008263422178 0.3935226875227102 0.10515152514416236
57943000.0 0.8770356550657566 -0.48374276376229036 0.04756951711769921 -0.1609279213242653 0.0006312517811902178 -0.00267374345199856 0.40340147207001614 0.09578155943658467
58942000.0 0.8716060670236048 -0.48867324207556456 0.04828769247616746 -0.1709013707610828 -0.0009349338723759543 0.0023527977750042823 0.42583498337014736 0.08242364277533648
59941000.0 0.867803497031355 -0.4966846859227201 0.04925774389044194 -0.1812874169871247 -0.00018483222992626074 0.0007227823888014191 0.41884626955947574 0.08560068075705349
60940000.0 0.8615222559145516 -0.5021880078664781 0.051313505637479745 -0.1851487717948794 -0.0011881087765385457 -0.0032174704333703024 0.4079546002755828 0.08050849963047078
61939000.0 0.8581572606764952 -0.5103587078185439 0.05271967429344186 -0.193184559397881 0.0006555593110634077 0.00010335791118260047 0.4138857337933751 0.056802106876148555
62938000.0 0.8512923124516154 -0.5212498698194381 0.05314609921013144 -0.21051756276528774 0.0010164683033310738 0.0004986602469259484 0.4486512564014382 0.05690463757604457
63937000.0 0.8462281349111819 -0.5294720505312273 0.053907611963070534 -0.2319224232463929 7.446774117707256e-05 0.0016423823081085551 0.4337211608712562 0.04213939573107261
64936000.0 0.84387265688927 -0.5334186120474653 0.056999519836620716 -0.2464899358607663 -0.00019291957768283419 0.0021416489854165265 0.44531025248992423 0.033753625823902116
65935000.0 0.8400329740635487 -0.5450384662149538 0.05868352434064044 -0.2593901292859107 -0.0031008331935197388 0.0031921734126557377 0.44569360808970915 0.013720090423417545
66934000.0 0.8347664795405283 -0.5520031814740859 0.05502030423067622 -0.27031113128795464 0.002160949257111139 -0.0009468369044301225 0.4432365799054576 0.001141752478821454
67933000.0 0.8315240494223369 -0.5574432600240845 0.056441777588383826 -0.2836395225334851 0.0026429718161105485 -0.003196981219673539 0.45148898931427084 0.003048825186571414
68932000.0 0.8261170305265569 -0.5543121535371418 0.055165890073805554 -0.29638306802448217 -0.00033383043766976124 -0.0011917272774448924 0.4516241339691841 -0.009279585343346709
69931000.0 0.8175043358045634 -0.5755075605634906 0.05505947840524872 -0.3162989274531799 0.0013428365197844562 -0.002625028689011449 0.4469070679988122 -0.024865132153179023
70930000.0 0.8117832740962412 -0.581339404048605 0.04912003692581973 -0.3273887019811407 -0.0032452685201016574 -0.005545321269587291 0.45054053721660087 -0.027769074293836994
71929000.0 0.8081181736117619 -0.5901937263732903 0.04912492169317658 -0.3483058786391629 0.0006367697341667056 -0.00282263088205636 0.46322230361883615 -0.05149690103597229
72928000.0 0.8027000043999748 -0.5975847533741807 0.044036144039557336 -0.3635845648967065 0.0010427673385923716 0.0023814087379038867 0.4687206815921073 -0.055827767946787586
73927000.0 0.7956044491213754 -0.6039658740717664 0.03458710607013344 -0.3840290371918943 0.0008231113657488559 -0.001086691185178224 0.45989269151903667 -0.06239106498422823
74926000.0 0.7906032304298759 -0.6151322955875789 0.033025701739048785 -0.39790482084467005 -0.0017334071326938136 0.0011047423022253705 0.46571274522588557 -0.0694662574050122
75925000.0 0.7837084073461699 -0.6200272552879671 0.020041973384384883 -0.4162156836859424 -0.002713891529733632 0.00016902072956903082 0.4712337593893275 -0.08549835266717933
76924000.0 0.7779674304763801 -0.6290772804695609 0.008879753538928024 -0.44378226394556136 0.003781845131771921 -0.0026263013950788327 0.4727379125613344 -0.09028137170619495
77923000.0 0.7740126370545776 -0.6325978096522455 -0.0033544978852069612 -0.46819918265194377 -0.0024530585358861477 0.0009884651534151877 0.46682728454861294 -0.10064351604037096
78922000.0 0.7675104095624651 -0.6472934881259482 -0.015828356797287307 -0.4956711623701623 -0.0003382002408630111 7.437089068615e-05 0.4748846678511823 -0.10786999703750962
79921000.0 0.7576920328515099 -0.6475757172480655 -0.03521183790564594 -0.5157892128072731 -0.0014963784566638671 -0.0007087890578530846 0.4659380512642271 -0.12495452072291932
80920000.0 0.7545750189209784 -0.6608802436034874 -0.05225568001198368 -0.5468447224284928 -0.002713443630604861 -0.0009669052856127691 0.4630037482700115 -0.1298404595953042
81919000.0 0.7482998791174147 -0.6644938831944674 -0.06658088362916904 -0.5719878412913678 -0.0001879442979378145 -0.0026136083596709097 0.47050287247802763 -0.1361810048498866
82918000.0 0.73926989544041 -0.6730510362197841 -0.08268366140193753 -0.6017059811919521 -0.004061377837400957 0.00326093745733774 0.477877120628057 -0.15168509941730438
83917000.0 0.7318929351305322 -0.6803747820767717 -0.10213014158081346 -0.6334243349869683 -0.0013597069987655135 -0.0029407979316518978 0.4763674740456492 -0.15974397646661895
84916000.0 0.728163782792633 -0.6880886817795531 -0.11497842385537298 -0.6671183712361205 -0.00489021852383761 -0.0012204511518940457 0.4657225619229162 -0.17401463557113658
85915000.0 0.7209710759842919 -0.6947720776046289 -0.14051966237696686 -0.6972790966488693 0.0013345619958700546 -0.0018097038757153992 0.46824909882303806 -0.17546031675684587
86914000.0 0.7145203682935342 -0.7049547404611677 -0.15443011871063372 -0.7345655977072569 -0.0006608991298347139 0.0009915899142426358 0.4618002416943659 -0.18024527310591315
87913000.0 0.7071333837707615 -0.7093059244091459 -0.1717138680147219 -0.7634774215413465 -0.0054342551918192955 0.0015733290931922138 0.46001439144523476 -0.18221144050874058
88912000.0 0.7002381990998511 -0.7166611457595544 -0.18812830586318854 -0.7985405617406335 -0.0019248267395878473 -0.003238781348017741 0.46241873824316254 -0.2060893337429221
89911000.0 0.6933725000496848 -0.7268285807718694 -0.20207507270168557 -0.8356217264220746 -0.0031971807394730717 -0.0014740051822305178 0.4702279766871576 -0.2114025662703789
90910000.0 0.6850179314459864 -0.7319296254165845 -0.22507141264374217 -0.8670210751363258 0.00040183328882662444 0.0006948216731707341 0.46798211348571855 -0.20392379828612475
91909000.0 0.6751699619018328 -0.7358062259015464 -0.24117956679692754 -0.9003180917718173 0.0006954018806676205 0.0010271399830641082 0.46165974472384175 -0.2324604469463941
92908000.0 0.6688605833810508 -0.7446853548775888 -0.2599067114237665 -0.9343924498575975 -0.0013938113080354904 -0.0014033432807735945 0.4585726278886795 -0.23094130837134946
93907000.0 0.6661348061677739 -0.7504313717301685 -0.2785482165663018 -0.9678455507242529 0.004258328772977925 -0.0016577018344769716 0.4587267173564139 -0.26057970006009434
94906000.0 0.6492405318556749 -0.7588381000159127 -0.2936697416685917 -0.9995220624119823 0.0006921923102318271 2.931229513166813e-05 0.467265972751244 -0.25289859176917856
95905000.0 0.6428445833716167 -0.7635576109860819 -0.315989926172347 -1.03261544733826 -0.0025685121044876982 0.0017950498922593143 0.4600635107127513 -0.2674967293176837
96904000.0 0.6376017520693479 -0.7723449506529435 -0.3320064860644765 -1.0711188796768163 -0.0003666583235393206 -0.0010859544150098265 0.44840676042302835 -0.2809156068642767
97903000.0 0.6269216370520706 -0.7781338390456695 -0.3547629624556495 -1.1056149885352007 0.004565082776274271 0.0020183259469827935 0.448843809425851 -0.2949075405717704
98902000.0 0.622324856941367 -0.7854072774923256 -0.37246747335669933 -1.1458654216125366 -0.00011436028007260902 0.0017983514746142714 0.44925272287291507 -0.2920137093550092
99901000.0 0.6122002931343316 -0.7915422203693486 -0.4077083765332821 -1.1778420576412592 0.0006634015771950911 0.0007994622046557708 0.45671623641666337 -0.32415540410488064
100900000.0 0.6034426936034967 -0.7947736792682281 -0.4343188020862008 -1.2064906368071853 -0.0002713928046371687 0.0007509878270332825 0.4650325369115283 -0.3169705628976106
101899000.0 0.593592643056759 -0.8026282892092025 -0.4621909611659683 -1.244350107894269 0.0010234704946255604 0.0008143590019683642 0.4505660187275102 -0.3300847395640109
102898000.0 0.5830325496984659 -0.8074971131342241 -0.4948726146944271 -1.2793769043040057 -0.0021423806262138322 -0.003049359281131633 0.4527065645510907 -0.34541246749987053
103897000.0 0.5772860769460555 -0.8147367225492129 -0.5287266557712158 -1.3191745565322226 0.001321715827344878 0.0020701432963556037 0.4503752265551361 -0.34210306832212106
104896000.0 0.5687053341410273 -0.8252268822727132 -0.5743878196876329 -1.3493267241552314 -0.0003852005639434993 0.0003540191009742414 0.4487754718636377 -0.33770081022048104
105895000.0 0.5574910326873396 -0.8268240269212087 -0.6196988966510131 -1.3944285315205356 -0.00461909409295164 -0.00046254176418948184 0.4407372319547291 -0.3593165669015045
106894000.0 0.5508612476626565 -0.8339177052494696 -0.6737622837455842 -1.4292870041240613 -0.0015849832299288072 -0.0007192070378857851 0.43485839270444726 -0.3817284303526589
107893000.0 0.5424902655465591 -0.8390168544988974 -0.7287990621023303 -1.4614490201094132 0.003243291614297516 -0.002044739434017795 0.4206433092173293 -0.389904659115141
108892000.0 0.5318824786781154 -0.8439773768705083 -0.7808889983356198 -1.4987010455188827 0.0018186826494489088 0.0016832698837065607 0.423011841934125 -0.38643535998728024
109891000.0 0.5194962755630715 -0.850309683622442 -0.8360279819769098 -1.5381269970505087 -0.0008180264099997685 -0.0013636359786130207 0.440730940734015 -0.3811072814336013
110890000.0 0.5007434703061001 -0.8636528786305318 -0.9189847149746986 -1.5371033862570442 0.0002577440205848367 -0.0012458222354689143 0.41469444181196263 -0.3975998020110986
111889000.0 0.4995170154634706 -0.8584291590454433 -0.9621294495042457 -1.5977965111041699 0.0013083691494438156 -0.0023956132894279217 0.41464488173911274 -0.40689824209568315
