! Created with skrf 1.9.0 (http://scikit-rf.org).
# Hz S RI R 50.0 
!freq ReS11 ImS11 ReS21 ImS21 ReS12 ImS12 ReS22 ImS22
1000000.0 0.9752860834962304 -0.0020284390590907964 0.003347228174410786 -0.044632505135841646 -0.00703387298539678 -0.004298657713543308 0.34877077092635367 0.28703050007871456
1999000.0 0.9978162864486784 -0.012228393903498152 0.0029675599352157887 -0.01995554700739877 -0.004998576713081503 -0.0041050059862489 0.2432444696536354 -0.05150498920416974
2998000.0 0.9962088115277722 -0.01978301379046573 0.015787492475583483 -0.015509306396270434 -0.0014200231238301196 -0.0004017609773394483 0.19778108332307778 -0.13330609586793005
3997000.0 0.9977532561542858 -0.03242061076722753 0.0069971537502099765 -0.005480717071991808 -0.005375867993614813 0.0027941532884270762 0.0731097092657635 -0.21037151031229379
4996000.0 0.998241009969604 -0.03849821735489672 0.011792575024783841 0.00014987748223275582 -0.002029331735137634 0.00045384189324507987 -0.019085411795693234 -0.22357775413667347
5995000.0 0.9957593275025175 -0.04878759833424784 0.010354681907420156 -0.001003348721903643 0.003862400910685767 -0.00017520844510114376 -0.11695007257363847 -0.12312426996746292
6994000.0 0.9954298299935472 -0.05805748524055735 0.004358196872888771 0.004799897086567849 -0.0012677674116535356 -0.0050410421276308815 -0.15503654537376627 -0.04859574720547179
7993000.0 0.9961479995027275 -0.0663200121332481 0.002754210563996069 0.002253065649947301 -0.00243890514259805 -0.0010653027238812372 -0.16295038688532182 0.03386482854133389
8992000.0 0.9966333395906136 -0.07241358572878825 0.0020180299496617825 0.0027121440916124027 -0.0007973298931823424 -0.0003310895381718284 -0.18131602403767214 0.05689079653098814
9991000.0 0.9920225018116455 -0.08096116203071474 -0.0021761594183306392 0.004209352020265215 0.0014474422263982864 -0.00023140534855351153 -0.15227547059373753 0.08815207513079755
10990000.0 0.9955013054693121 -0.08941018968023194 0.00018229521547441984 0.00207571059094931 0.006060165956534479 -0.001425877824135202 -0.1346524451028255 0.10584570127232644
11989000.0 0.990588647590437 -0.09921052885127202 0.00231627909437953 -0.0024965091042975078 -0.0027949078271842505 -0.0028940622757543093 -0.13260422549442982 0.13261592380262033
12988000.0 0.9914052653529765 -0.10942647913276984 0.0010933511173370344 0.003168472005465388 0.0028990898867396484 0.0009263652317741054 -0.11639377695941523 0.17645414244251084
13987000.0 0.9898604468888014 -0.11482813161461088 0.0011630787919625857 -0.0074741258903624885 -0.0029991626056109564 0.0025234108859052066 -0.1062388723865743 0.18016732043861114
14986000.0 0.9879487832140492 -0.12197544524157206 -0.0021170428372165847 -0.0021794915227616634 -4.713430723232976e-06 0.003812672541199894 -0.08563360932676989 0.1974970133818741
15985000.0 0.9909485240023194 -0.1322126318156649 -0.002836557265863929 -0.006220312222386795 -0.0015203074929856161 -0.0050283183127136834 -0.08647683214036517 0.22099627514102382
16984000.0 0.985627422536409 -0.1434036178491851 4.31555420462615e-05 -0.0017804156215525586 -0.0047246724804507565 -0.00020040919917831335 -0.06343494345437306 0.2119720383356741
17983000.0 0.9864914742584642 -0.1453171538510234 -0.00601041839468813 -0.003001235752634998 -0.0024156652542814973 0.0010622860496858227 -0.06369197144810307 0.2310344583807879
18982000.0 0.9839238989349957 -0.16019860772664837 -0.0017161220380100355 -0.0042242083194317355 -0.001343856274096006 0.0005060557351446588 -0.025019674990613514 0.2299916289873483
19981000.0 0.9829919655882863 -0.16271632031814562 -0.0028049779062323432 -0.0050037329212647245 0.0004914552489096224 -0.002617123266825654 -0.01446508802633913 0.2514393314173426
20980000.0 0.9844292428842235 -0.17366980255471692 -0.0010107620593984153 -0.007669625209896549 0.00043234016200213547 -0.004320104417766308 -0.012843405676961937 0.2635688590135841
21979000.0 0.9801474559899815 -0.1817159452727446 -0.0011795922398641374 -0.004498614600313335 0.0015421122201615869 0.0027240524429108007 0.01236720852881041 0.24427310011021458
22978000.0 0.9773712264205635 -0.19246781195089122 -0.00497952366228383 -0.0051388262127022195 0.0021350608356298833 -0.0016230504533930623 0.025021957230924395 0.25781394456075063
23977000.0 0.9809286946582626 -0.19922963834740245 -0.008721944220036266 -0.002904055537791244 -0.0028140549387204936 -0.0005799510605101091 0.030449823653158018 0.26263430295942225
24976000.0 0.9749957374305758 -0.20774724244910597 -0.009796909015139129 0.0013788391113852471 0.0003614164246718475 -0.0020965820302622116 0.04814408598991112 0.25087274631829987
25975000.0 0.9689792818557719 -0.214978957245291 -0.0026399156828481943 -0.002512831437074949 -0.0264341904788985 -0.0083863164451213 0.08033566394215556 0.2664328522673828
26974000.0 0.971751711890313 -0.22376669868022406 -0.009014249000112445 -0.0025372716892110266 0.004044369156998502 -0.0029275457186727647 0.07961762796039279 0.2735917844928836
27973000.0 0.9705123403072079 -0.23098445019833294 -0.0020014137542440063 -0.003217563121078266 -6.873844935708199e-05 0.000383003242531475 0.09694235488557854 0.2478514915816295
28972000.0 0.9683149920306487 -0.24048514246348893 -0.001362263442380324 -0.0011440853035303397 -0.002696926530866531 0.0007095037525089049 0.10485145225093494 0.25287627580670735
29971000.0 0.966232892948932 -0.2510595736484427 0.002256766652596443 -0.003858864030142633 0.0005105561506399284 -0.0016122431963164672 0.1465934148052034 0.26490704927153136
30970000.0 0.9625710051928434 -0.25463147186088125 0.0016403073604809985 -0.0017357456909501054 -0.0028468058541930145 0.002760690928107017 0.16422762274016475 0.2556461378118475
31969000.0 0.9611350997974971 -0.2645356648284978 0.005701584644250758 -0.0025402118407416275 -0.0018974477160315297 -2.5926466292596148e-05 0.14723438922022133 0.25525694448329583
32968000.0 0.9613610337977617 -0.2735749339619747 0.005324558656830396 -0.005053597669103911 0.0002747602924425181 -0.0032917360922385475 0.1568459129120226 0.2488928171157099
33967000.0 0.9564082723221107 -0.28321464955548364 0.011247249319909792 -0.007096512476046858 -0.0011569018271083904 0.0029950461290660065 0.18491735393380737 0.24435959355654321
34966000.0 0.9551559843766089 -0.29003496278474983 0.011395694707780457 -0.011084044827005368 0.001454133056230878 -0.0011788505103178459 0.17720336345558077 0.250597639166911
35965000.0 0.9516744837126712 -0.2988322473148119 0.017776892478021226 -0.012816479697049125 -0.0015480244437612084 0.000779897802967672 0.20136394910786354 0.2474520654868044
36964000.0 0.9502889124633536 -0.30757909910007974 0.013135072124144291 -0.012114414990973668 -0.0030618105096325006 -0.000490581231080001 0.20824002684607965 0.25376158390139364
37963000.0 0.9479524940619717 -0.3162997754056865 0.02100898220778721 -0.021910246148386388 -0.0038994708969275647 6.055234449579549e-05 0.22049098056699176 0.23945248649493378
38962000.0 0.9454093055569908 -0.32444671088831917 0.0248493615338857 -0.023368087872315136 -0.004316947164812425 0.0011919115106072118 0.2343365547505114 0.2291364752383622
39961000.0 0.9403373941100326 -0.3338075220353088 0.025792053035497402 -0.026404887941328004 -0.0012111876241539862 -0.0020938316985842542 0.24547497724361658 0.2249228214993888
40960000.0 0.9368398508154421 -0.3398768085882005 0.021925378071452842 -0.02564412886400813 -0.00020440928486817965 -0.0005728587011730549 0.256877852347002 0.22713011614180942
41959000.0 0.9354072114157785 -0.3497712844650875 0.030632073771588032 -0.029798983476991104 0.0015833031623702217 -0.00011357290832084714 0.26519238266344314 0.2135879002689196
42958000.0 0.929644938404616 -0.3581866012104272 0.02977335301913997 -0.03959683690697616 0.0014094981151791203 0.0013614665284928996 0.2660009623356294 0.19577250735616342
43957000.0 0.9283779332990021 -0.3642925102997227 0.03530334456227253 -0.04115018371000867 0.00025654865999489765 -0.0010785475793542085 0.2806184756753575 0.21056089026844174
44956000.0 0.9248293019388772 -0.37306262746119334 0.03310294004213617 -0.05134538427879119 0.0017500322509898115 0.0010849185238512309 0.29376525926138997 0.19024651888822647
45955000.0 0.922248113219263 -0.38403745482375723 0.03429967732515403 -0.05604360973215692 0.00038964477439911924 7.440216056318164e-05 0.29719876365726744 0.19082679067833136
46954000.0 0.9186683744521484 -0.3905911277940746 0.036238031275124406 -0.06267414334470879 -0.0010308011092847662 -0.0005880831654734689 0.3134410986316335 0.17984737782240423
47953000.0 0.9157022408300347 -0.3979652589496386 0.030793432287057495 -0.07143523335163401 -0.000353842011820069 -0.001345143933926822 0.3278135256761311 0.16941849505819775
48952000.0 0.9103768108408948 -0.4082342093065714 0.036267791276489755 -0.07779677986893141 0.0020804220856275773 -0.0009126953372451303 0.3280731221905324 0.1615757656152555
49951000.0 0.9057719670885871 -0.41651079527122903 0.03521311972964634 -0.08606498681871504 -0.0009653494772090308 -0.003064342620506436 0.34142179893664165 0.14829089008724525
50950000.0 0.9031653117835818 -0.42259732297408775 0.034268898250498316 -0.09425701129012629 0.0019818560132405967 -0.0006065807713331236 0.34132290726300385 0.14900726691853272
51949000.0 0.8982951642708655 -0.43195748368627507 0.037378064446449144 -0.10145257087174822 -0.0019466800660006623 2.1518218598611302e-05 0.35262678308697054 0.1419181010362478
52948000.0 0.8968347176197178 -0.439390169384752 0.04031688646449137 -0.108585427046217 -0.000349240733167586 -0.0008706632504714823 0.37064762258795725 0.1324579013645287
53947000.0 0.8920809371467833 -0.446800632751697 0.03964688732854822 -0.120256039073501 -0.0008084152730707846 -0.00043104738868816823 0.3685548214707648 0.13362245356096678
54946000.0 0.8856475998972457 -0.45599271120517726 0.04020546482109273 -0.1286295751355802 -0.00013117960582543811 -0.0016068499778499807 0.38581275440732127 0.12171813565215325
55945000.0 0.8835922232025115 -0.4658608900230229 0.04445233085972911 -0.1402382867926843 -0.0015797640623262707 -0.0026288835859129248 0.37561887539690036 0.10673567751959905
56944000.0 0.8797291004161836 -0.4709918716686441 0.04395022272040581 -0.14786633079601563 0.0014723476000628125 0.0015146541554722241 0.3910228598382905 0.1039842640601675
57943000.0 0.8750349228913784 -0.4818532421915196 0.04411149428956191 -0.15889169046061516 0.0004513001060241914 0.0007522859075647726 0.39398012226982065 0.09410159301359985
58942000.0 0.8686064779961712 -0.4875024155869249 0.04823734254171421 -0.16739256515602277 0.0001454148798446506 0.0010352116066876212 0.4214801992840878 0.09099525502297126
59941000.0 0.8673921765709095 -0.493145074153215 0.04753553443128514 -0.17924948057280973 0.002055825071871686 -0.000746604943198059 0.4128472441929792 0.08751120236439808
60940000.0 0.8587361932613631 -0.5043776276719485 0.049854475199229885 -0.1834161300459133 -0.0009155561175445926 -0.0017819410130603852 0.3994037399928966 0.07639907148582832
61939000.0 0.8565018672743876 -0.5103570694479381 0.04721086646081358 -0.18998060507498976 0.0006474586375464146 0.00013572696199554658 0.4198138621781069 0.06482321934663159
62938000.0 0.8509512500132371 -0.5215375735092432 0.051753703689475926 -0.20741378024003593 0.0023842611848000246 -0.0001299141866194071 0.4363735900760628 0.04821658299732881
63937000.0 0.8453765605122138 -0.5291359418538297 0.05261247936023759 -0.22572298908664262 0.000358241293563269 -0.001840508250302105 0.43272624140941357 0.035261408096273684
64936000.0 0.8378477261271756 -0.534183120590235 0.05088752979020045 -0.24106396585417214 0.0018852909112512474 0.0028182637057687565 0.4329653376542954 0.04372414956968249
65935000.0 0.8371987821562373 -0.5440110591716983 0.050063000650658065 -0.2544726198196816 -0.0032832665768806036 -5.844434637092244e-05 0.4301531704786228 0.01471733163071562
66934000.0 0.8319281583648849 -0.5511316237284982 0.053038635261635964 -0.266639651424583 -0.002060566441651266 0.00031888423673903844 0.4309194286628154 0.014957512600724908
67933000.0 0.8294274795707741 -0.5565611246277204 0.05146490675455249 -0.280437050341044 -0.0029465203421034972 -0.0032885227433865024 0.4343723520153488 0.009703710064399969
68932000.0 0.8227237681742717 -0.5636194942211699 0.04794182376657654 -0.2937906278634063 -0.0005559865845117197 0.002537776849910959 0.4432518428282985 -0.003667938321103822
69931000.0 0.8147886542526704 -0.5752078211621624 0.04994266008409433 -0.30977096151589906 -0.002945963429530031 -0.002270289326577487 0.44120820518173715 -0.03648671997206846
70930000.0 0.809823140883759 -0.5791458412413609 0.048498935389312284 -0.3215523235971299 0.0014544630749282056 0.003266215650591735 0.44213736492654804 -0.03572343876082543
71929000.0 0.8058521965328013 -0.5876688347166791 0.03959347373208875 -0.34020342877723386 -2.3873651564731835e-05 0.0011095520883395136 0.4475877611030493 -0.0441303500294257
72928000.0 0.7976861169151906 -0.6004948747273077 0.036448577691338684 -0.3546211072518364 -0.0026342081895804905 0.002426730575001493 0.4595357016473691 -0.04875467400885931
73927000.0 0.7932826560902617 -0.6037406472512675 0.033409137674145994 -0.3753694339268449 -0.0012183648991012947 -0.0002966337479095925 0.44619150746058645 -0.05707798561003579
74926000.0 0.7883786826911013 -0.6138787261407936 0.02572794841188119 -0.3907685289990815 -0.00043077904760081994 0.004266627106664482 0.46272697186882017 -0.06260155730812245
75925000.0 0.782305278433234 -0.6195449957585809 0.01815375591074662 -0.41275495052918987 -0.0026601854550940282 -0.00352802628269776 0.46254022135344436 -0.07573757086351968
76924000.0 0.775822585333594 -0.6265403730385601 0.004486415384236633 -0.43589839871659325 -0.0010508853218585033 -0.0024098263005458195 0.46158974350779836 -0.08794329134962446
77923000.0 0.7699643094549682 -0.6347913612578024 -0.008249350130981044 -0.4549117936739676 -0.0012823791249299056 -0.0018791376327571138 0.4640570343506998 -0.10332245385991107
78922000.0 0.7633529014983423 -0.6442871808068682 -0.021632833572465676 -0.48564052158223575 -0.00032686244481125324 -0.002471780612403943 0.4507212430334051 -0.11792923006372155
79921000.0 0.7561153063278385 -0.6475600178993134 -0.0411485931082445 -0.5077201551203794 -0.006338140204445245 0.0018366833036195386 0.4562747475556908 -0.12112030914339102
80920000.0 0.7532312619459658 -0.6579559080905709 -0.05462355385413588 -0.5332912135356763 0.0002130634598015257 -0.005558760984998492 0.45578855893979237 -0.13155974081985483
81919000.0 0.7482007997358133 -0.6636076364589918 -0.0729174389443923 -0.563526352312641 -0.0016648008429990073 0.0010973708519683737 0.45885215879219415 -0.13507307542490846
82918000.0 0.736460253655678 -0.6709041049117337 -0.08547597408808692 -0.5934472282677649 0.00010275445926905617 -0.0024796191914701507 0.4740397095535686 -0.14000255756009733
83917000.0 0.7282900208950295 -0.6796514467384863 -0.10980752216493476 -0.6173980922468074 -0.0002533190905982249 -0.001724754961964884 0.4693193688750657 -0.16382348262599591
84916000.0 0.7238402480238014 -0.6859978991264051 -0.1272602687485299 -0.6522726302973719 -0.001183776386151784 0.0015855644170419006 0.4597107088845134 -0.17586699300010283
85915000.0 0.7172520972450536 -0.6922163541968451 -0.1430360674397557 -0.6805770326578541 0.005838254675762341 -0.0026222679520100847 0.46280515285935614 -0.1709774426403319
86914000.0 0.7115930580953569 -0.7017897429882387 -0.1598101131944976 -0.7171114203174859 0.0010640687050490645 -0.001339328377462453 0.45636089010950587 -0.17354255974964614
87913000.0 0.7049645464134244 -0.7104846162761828 -0.18146427058688952 -0.7469374861823231 0.003433045638958532 -0.002271081973185426 0.4634860993379794 -0.19763903038232272
88912000.0 0.6977320659636664 -0.7151696291811291 -0.19379164275918329 -0.7807554381761916 0.0008420903086367484 -0.0034826612016446656 0.46074630771575165 -0.20523287000697987
89911000.0 0.6901000373298534 -0.72303000001752 -0.2115047492165654 -0.8159489191535447 0.0007494319945941254 -0.0025701152755640494 0.4639001534536874 -0.21056327721054596
90910000.0 0.684203135354437 -0.7264612935567579 -0.2266553321548409 -0.8499441365353246 -0.0007989778353509681 -0.004025232934802392 0.46208151826468635 -0.21036915754977578
91909000.0 0.6743974319604925 -0.7332488449190308 -0.24592522788610158 -0.886808760706709 -0.0012267753657675367 -0.0015307374894298262 0.4711658055856574 -0.22402633099441333
92908000.0 0.6669996883296323 -0.742725438908062 -0.26184411711745303 -0.9125981526865927 0.0018432088525105858 0.00014495893358917539 0.44656634340274903 -0.22982250238150753
93907000.0 0.658386723609368 -0.7464762851738305 -0.281461332647405 -0.9443078811136476 0.0007928438278159818 -0.004593460376241761 0.4606828609604827 -0.26649979289722625
94906000.0 0.6493573970607782 -0.7553422212245591 -0.29820489444769055 -0.977793129827287 -0.0025505016576859467 -0.003014242052878508 0.45015872503844306 -0.25101597425814026
95905000.0 0.6429409864235655 -0.7617707703520087 -0.31612635759698154 -1.0100031414968298 0.003377173790099374 0.0008422265758730434 0.451862385697292 -0.27699729632606834
96904000.0 0.6350021942688299 -0.7703004733990311 -0.3390234655410222 -1.048705051734545 0.0005372707981212642 -0.0019061881771501835 0.43990320403704747 -0.28063738251156023
97903000.0 0.6255161716245838 -0.7744441572257642 -0.3566992155168298 -1.0764153729883639 -0.00011374221854536271 -0.00021613580756639784 0.44843927073410145 -0.29233282224797696
98902000.0 0.6214302521441645 -0.783240916659772 -0.3757151094091659 -1.1185908173794643 -0.0007960767195495338 0.0018596038125297694 0.44946849829228447 -0.29878371009122745
99901000.0 0.6108474052892117 -0.7884621316565796 -0.40731947079027636 -1.146017569140687 -0.0006777868688325451 0.0008825599445947987 0.45050910382863746 -0.31506659224443
100900000.0 0.6040017187260782 -0.7916069489493783 -0.43487972783363893 -1.1762395961092875 -0.0014128976842167846 0.0003416326993056249 0.4551111042771976 -0.3195513773974223
101899000.0 0.5916675134036636 -0.8001860951508251 -0.4631942419367709 -1.2102209939782156 9.75417017028319e-06 -0.0015639176096665993 0.44366892586967416 -0.3205242906671031
102898000.0 0.5854797172564116 -0.8044921816968468 -0.4944515520453393 -1.2489169451732791 -0.004022680716627721 0.0002664732951263303 0.44717721408686123 -0.3391366736501871
103897000.0 0.5752705718095414 -0.8128305250136237 -0.5304948803910027 -1.2755326504934854 0.0010918806818948912 -0.0017433147634494316 0.44685284711013185 -0.33970948773116294
104896000.0 0.5673396386051681 -0.8219878977554094 -0.5733111833958426 -1.31000960682327 -0.0013957203620281685 -0.000945147607625898 0.42597690092720525 -0.3419618884005262
105895000.0 0.5568273479286773 -0.8244170563062823 -0.6108377139485027 -1.3501065540701471 -0.000457823322860246 -0.0008318664098851468 0.42581606508687186 -0.3619465555519667
106894000.0 0.5498903321846769 -0.8313473908456235 -0.6635434269567545 -1.3889988472174792 0.0015909462730525127 -0.0020179567154575734 0.42266218192457333 -0.37866310384266233
107893000.0 0.5426287351556537 -0.8371864004111482 -0.7138079530763882 -1.4245715160429457 -0.003148822390891485 0.0009285688397854163 0.4292510706905866 -0.38157156920685925
108892000.0 0.5301000288181414 -0.8405166963743229 -0.7695385461378785 -1.4610373401925771 0.00013225176221120773 -0.0027960642357057947 0.41660693355613115 -0.3853348452579358
109891000.0 0.5193249279261418 -0.8488814494023931 -0.8269401115010051 -1.4953476294626964 -0.00014408252249646127 0.0012195922330243444 0.4360373053467951 -0.3759800510065737
110890000.0 0.5027279235060126 -0.852789070343501 -0.89122528449282 -1.4947187803331743 -0.0035103308492704637 -0.000900165370649251 0.42142704947345583 -0.3962054555418154
111889000.0 0.5006803797558917 -0.8562353948094508 -0.9444555528072122 -1.5593790479455671 0.0009165926512650317 0.0012596332315983649 0.41074071786318844 -0.4113309074823245
