! Created with skrf 1.9.0 (http://scikit-rf.org).
# Hz S RI R 50.0 
!freq ReS11 ImS11 ReS21 ImS21 ReS12 ImS12 ReS22 ImS22
1000000.0 0.9867624803388998 0.016280370636516554 0.01646566287826497 -0.04103598858879029 0.0013089586636471555 -0.0066313432321486 0.3417017495103972 0.30277466001885583
1999000.0 0.9906070833984846 -0.012115378545801973 0.0017310195470428 -0.03524364409985658 -0.010822650385854603 -0.0047451727034493905 0.25553522820904057 -0.06586789230113221
2998000.0 1.0016630482335294 -0.01947737372835206 0.005538416356690548 -0.01819321547802759 -0.004394244185252625 -0.0018073476055185105 0.19928585929074097 -0.1380543800092956
3997000.0 0.9995837071525224 -0.02844095089444263 0.018124559044631162 -0.0034136797151722935 0.00021753154052140652 -0.0019603509630113135 0.10776882533481255 -0.23243607716306575
4996000.0 0.9990867392950076 -0.03608479365646485 0.012918840846283454 -0.0017704707003783557 -5.996764598646268e-05 -0.006803981435191813 -0.02062071310559065 -0.2119859979001135
5995000.0 0.9982968035206171 -0.04828722425661218 0.007621694725425818 -0.0008359710685455916 -0.0017648414185134815 -0.005206929931235806 -0.129562299540921 -0.1396509956844872
6994000.0 0.9981542283909965 -0.059122561323274495 0.005073437451950649 0.003688268299533604 0.005027287006857942 -0.0015819536090787595 -0.14100554606350524 -0.049765420234764476
7993000.0 0.996111676012298 -0.06627265852680654 -0.0008750661256285377 0.006218337038953538 -0.0034341748681827717 0.004016611972700605 -0.1768814515855498 0.034736371011935045
8992000.0 0.9988989451609772 -0.07183160243045597 0.0013675008911809524 0.0038538849293562596 0.004057876482929544 0.0015971738170241078 -0.17627502309615906 0.05139532700167001
9991000.0 0.997248836786552 -0.0830917280893176 1.7368241040181284e-05 0.0031433463172162446 0.001567101293155368 0.0013867754309154648 -0.15739870491298677 0.09881101297281852
10990000.0 0.9940625706756991 -0.09147335868776552 0.0021046822141523283 0.00014276197353234912 -0.0056855410286685525 0.003652919666831798 -0.13839485327857073 0.10301257472271468
11989000.0 0.9927789455405072 -0.09756505843527588 0.0032608847017249363 0.0008801781016960557 -0.0004948072611787312 0.00457965095576997 -0.1368966395556391 0.1386886686949349
12988000.0 0.9905557095192268 -0.10992291531733141 0.0007833053992686655 -0.009322492013208731 0.0038508793718981024 -0.0023566342197485117 -0.1253173382173366 0.1702199465459958
13987000.0 0.9905363848845481 -0.11909637584683397 0.005099694516605938 -0.006492735304769427 0.004177224505267549 0.0002855493837031935 -0.09955062952681476 0.1908803913960386
14986000.0 0.9889873123667757 -0.12341929641081945 -0.0028787155798147687 -0.006197383828708024 -0.0013075982655346792 0.0014809336002909444 -0.08760896548932663 0.20648722553015225
15985000.0 0.990978378519556 -0.13440342840772918 -0.0022522120546319586 -0.0051945668183950135 0.0022646864005980974 0.0004885753440064634 -0.07148042293106649 0.22148053651390195
16984000.0 0.9883484449324657 -0.1420730848281151 -0.0036143639416936447 -0.007945201049028575 -0.0024322610428599927 -0.0021616353942988677 -0.07226080035477113 0.22676054841153018
17983000.0 0.9885966743463894 -0.14811921248527773 -0.005053077977629729 -0.0017178241919630338 0.0017549918265008636 0.0004932815277214039 -0.06017525698378872 0.23037367806443293
18982000.0 0.9839240540980658 -0.16008459028971686 -0.002467982385382603 -0.005955601482104154 0.00427016221795791 0.00030431301628551055 -0.030080950055012802 0.25108978743713933
19981000.0 0.9858031283820294 -0.16399362597736508 -0.0021812987448525858 -0.006662052944378672 -0.0001579392170708958 0.0024007481619093313 -0.007349479105129316 0.23828709842229576
20980000.0 0.9824003270614594 -0.1764885373035248 -0.007683165190741424 -0.002072994949530583 -0.0009234973400377605 -0.006390709548269518 -0.01729287464456235 0.26490387186594205
21979000.0 0.9812624787420682 -0.18277424119654345 -0.008183708494696096 -0.007391523083224386 -0.00011798377188112556 -0.002870356109967664 0.013686783361945965 0.2534645996189866
22978000.0 0.9780119386157237 -0.1929063468787737 -0.006100835793572388 -0.004269937917565778 -0.00576222290139409 0.0009506266118458303 0.03379185792029864 0.25036022362496874
23977000.0 0.9797020315717299 -0.19862258178320288 -0.006751628302699206 0.001104232470085463 -0.002456978636595392 0.002091270824119594 0.025537348132954052 0.2535001153095326
24976000.0 0.9766461421844009 -0.20723198993960082 -0.006100316167553289 0.002792268577463128 0.0001318848731522974 0.0005370037526150097 0.05045715729326469 0.25640369410196245
25975000.0 0.9763718036613058 -0.2171338109189091 -0.0059526061701492316 0.0013068207559192274 0.0018158925977219652 0.024986045466778822 0.0822540662535974 0.26404150283004524
26974000.0 0.9727977934949693 -0.22515001291654188 -0.0032322210988679134 -0.0010688971397071368 -0.0010600281486172027 -0.00041433734313381143 0.09209854087683471 0.2704483670751369
27973000.0 0.9712660527154772 -0.23150862822688922 -0.0031821885481501284 -0.0022842875939824607 -0.0017280677605724909 0.00039389491600422656 0.10788019773341986 0.2517895273656119
28972000.0 0.968842709291378 -0.24062915459050804 -0.004829466428800461 0.0005376172979409436 0.002347953824402791 0.000403329836215111 0.1182762428670382 0.25100032753615564
29971000.0 0.9664815261555096 -0.24931965424554306 0.0015985182970403055 -0.002266473554848448 -0.002385436778744427 -0.0027229478618242785 0.1489863048953682 0.264376183924771
30970000.0 0.9647122588689659 -0.25631753612255465 0.002757709055501201 -0.001565523522693503 0.00046572832141185416 -0.0022873235205040183 0.16688933868493794 0.2478027234259222
31969000.0 0.962456144155199 -0.2645926894283112 0.0038351381192304403 -0.003955458051278714 -0.0007222028319888513 0.001563669066745353 0.15054556441160286 0.25291064700599686
32968000.0 0.9617778653868 -0.273385146116263 0.0071646118973599385 -0.007122249380779109 -0.0010127841108858362 -0.002308027160853439 0.16212934435949847 0.24179519658909512
33967000.0 0.9584353324362735 -0.2826347208585133 0.008950956802569706 -0.01068838790036323 0.00040789903385944637 0.001667110297431316 0.1944394891824651 0.25022132481157966
34966000.0 0.9547657202914388 -0.2918774119546935 0.013990683585680763 -0.012193544468093061 0.0013391490235131062 -0.001054362331280805 0.1932498508130411 0.2550674065531254
35965000.0 0.9520964892339439 -0.29771678716760125 0.014860657162213914 -0.013948950271871369 -0.0017818394238432638 -0.0010105494869658317 0.21182808506072417 0.26007980498206046
36964000.0 0.9495359056617182 -0.309431742011353 0.016737782699326742 -0.014246839383881552 0.0007066462408132442 -0.0005903050101545052 0.2159056383656341 0.25039027895652827
37963000.0 0.9468270470038523 -0.3168604838141937 0.023481664858208573 -0.019686508699786574 -0.0002584592430657485 0.0027637966197131586 0.23046983772636964 0.2301511084361334
38962000.0 0.9443729196324576 -0.325325610891408 0.026812972044962826 -0.02391715245939704 0.0005282982857742643 -0.0002927441413111006 0.24303857985497135 0.22924484535116313
39961000.0 0.9420663890528601 -0.33647918565329604 0.02712451125394778 -0.030122178904661928 -0.00045637439643062027 -0.0027007907775424937 0.24648150433164603 0.22643690182125517
40960000.0 0.9385258624104621 -0.3396758287348371 0.026705099850121337 -0.024000899212218058 -0.0015270396328169343 -0.00273576744141499 0.273265215822112 0.22465063165211566
41959000.0 0.9347422798165552 -0.35135107304852337 0.028357583968766108 -0.03258172891214306 -0.0019444160766876645 0.0009175176872510688 0.2706624233254752 0.21564188862227407
42958000.0 0.931146399451805 -0.3599197926954554 0.03224359828131371 -0.039276243590283214 -0.002088837699223349 -0.0033297459786601298 0.28458632656536276 0.20465216689063595
43957000.0 0.9284140852427831 -0.36739233191345483 0.030909014195344836 -0.04737928327224855 -0.0036567470864682654 0.001296603975509042 0.2872887265782285 0.20473143978895833
44956000.0 0.9254201530877438 -0.37450905199081225 0.03438332585668591 -0.054140153925094775 0.000984848698146965 0.0028013735457375604 0.3104575124756334 0.18549161798162717
45955000.0 0.9222896404040574 -0.3844841711687941 0.03364131340816666 -0.059567030875422235 5.689968011160705e-05 -0.0005881897809675349 0.3127424868595998 0.19792044114965243
46954000.0 0.9191413053936796 -0.39205437532082554 0.03752657850457064 -0.061767048924327744 0.001115034744342494 -0.0014293204306274605 0.33047416221344744 0.17984154533733301
47953000.0 0.9169079822370865 -0.400038717089877 0.03575834565901443 -0.07090334326997877 -0.0007739981715329545 0.00035707568906555813 0.3455279113519597 0.17944661891702587
48952000.0 0.9100305627116665 -0.4105606789996914 0.03998474940181552 -0.07971486118487577 -0.0019179571169962272 0.002179407343789481 0.34450588869307247 0.1675976970390594
49951000.0 0.9068390340372774 -0.4171239283130825 0.035863406771130105 -0.08909178191645098 -0.0029398868436822357 -0.000712099294163462 0.3542511282697966 0.14879008029292856
50950000.0 0.9036009347553577 -0.42541206321547076 0.037651171085988366 -0.09317626727033894 -0.000787386730722904 0.00047584595291175604 0.3556431964592494 0.1407310732079014
51949000.0 0.8987509665194917 -0.43223657920782177 0.0410206401937947 -0.10331950611830873 -0.00022842456857246514 -0.003333221475380309 0.3652529273466178 0.1391587717455366
52948000.0 0.8989551240528959 -0.43937347932373266 0.04365965526384453 -0.11265487992271908 0.0002642481906376506 0.0006699544508529874 0.37668920225800595 0.1451885368588964
53947000.0 0.8914206693245398 -0.45059499731021135 0.04461448932311837 -0.12254844416718377 0.0004991346100489144 0.001014745075269803 0.3781340277163903 0.12380786973363268
54946000.0 0.8870061525484539 -0.4572114382845084 0.04297555230655841 -0.13042572819500095 0.0026521968932283896 0.00018051286588431517 0.39150302380561974 0.12102687291282183
55945000.0 0.8840643444981201 -0.4635447495950193 0.045110407285184735 -0.14233269492346004 0.0009095704643805563 -0.000840614185091198 0.384011919192036 0.09706837081799206
56944000.0 0.8804720062035177 -0.4735067861783532 0.04857002326637127 -0.14953843159306623 0.002548683862447354 0.0040954688792127865 0.4010680277556909 0.09735514385675968
57943000.0 0.8743388655682791 -0.4822540977801793 0.048408017261498126 -0.16429812954763207 0.0015869634924786569 -0.0010925519253746907 0.4041491118851912 0.0892301492222289
58942000.0 0.8699153671753495 -0.48758678451858894 0.05050007215613987 -0.17445226757057264 0.0019143979479671223 0.004493762053805172 0.422594278208957 0.08812672691448732
59941000.0 0.8673664658885434 -0.4978895796027653 0.05102227600053963 -0.18245612340125708 0.0006661146549866847 0.0006602443149107533 0.4237287806004767 0.0889205645117208
60940000.0 0.8590463051554685 -0.5046028289444457 0.054422950572197336 -0.18896272280242515 0.004646342148720068 -0.0003904481575015901 0.41875350693192565 0.07963103275497406
61939000.0 0.8558550522848416 -0.5097523626021867 0.05329584378656563 -0.19863397543312677 0.0017071074504846366 -0.00013502179807662286 0.428394922518089 0.06258069094066092
62938000.0 0.8515490849474445 -0.5213692720195254 0.05795258062264726 -0.21463641967845432 0.001368649735192451 0.000399276829012947 0.4462017296405874 0.054621119972023104
63937000.0 0.845890930411764 -0.5281925200995563 0.05787844850605448 -0.23673628067977243 -0.0012926284557124238 -0.000980677417596385 0.43858384731034794 0.047629137674467845
64936000.0 0.8416035619858335 -0.5332989695834386 0.057311565076178655 -0.24809331273738305 -0.0031406656978508318 0.00021483597959175792 0.4373330025213061 0.03712144751904591
65935000.0 0.8363895014087137 -0.5453816862806113 0.05796765348251072 -0.264987318773902 -0.001443323394987609 1.4130425814271494e-05 0.44731892238132276 0.014492650401074005
66934000.0 0.8332657007210211 -0.5482095926804871 0.058891667913601176 -0.27808794257501374 -0.004269908404938423 -0.0014375756962108858 0.4455084813321289 -0.0006373901004816011
67933000.0 0.829539084975849 -0.5597129485811732 0.05597215280767001 -0.2922192508255314 0.0022526654974329378 0.002402664567927703 0.4503968075249797 0.006173934174933394
68932000.0 0.826170229942509 -0.5537861213877988 0.057000382934216345 -0.3033706469889806 -0.0005792739883856257 0.004910983941309604 0.4584810128143924 -0.012030919520093525
69931000.0 0.8146396027835011 -0.5745735746331704 0.05529174532579228 -0.32073894904858025 -0.003598180664375629 5.076506784552227e-05 0.4564955278019592 -0.03037488230118348
70930000.0 0.8092964948818553 -0.5819147249494062 0.051199289160019854 -0.3389684699769415 -0.0009696118863161069 -0.0020060613709491845 0.45454653976220494 -0.03450943664052237
71929000.0 0.8071728261187103 -0.5898580239494365 0.050591454114893755 -0.3554754305684017 -0.0045042888083770246 0.0006546631481384033 0.45721121476619525 -0.04952092840315181
72928000.0 0.801199107265593 -0.5968926632124212 0.04256518082550526 -0.37116479270548014 -0.0037246122159759064 -0.003316765144655715 0.4744114019990224 -0.05341150544856423
73927000.0 0.7951187665742614 -0.6035416188850818 0.03960128011436503 -0.39053851974768583 -0.004896854572221082 -0.002457590396977796 0.46143253710631676 -0.06343814721945819
74926000.0 0.7890021321829391 -0.6158399320787633 0.030139949527870698 -0.4072497430076461 0.0011048890257966764 -0.002113284020776685 0.468514967215516 -0.060451754722621355
75925000.0 0.7859646006498381 -0.6193078251131182 0.02133579832099444 -0.4289140516609819 0.0028724741939088563 -0.004726277635584654 0.4744001195972688 -0.0845758717548749
76924000.0 0.7766953308544013 -0.6277287388306927 0.005587269395597202 -0.4526763294532983 0.0026885978141210415 -0.0018061565399775175 0.47050970054285246 -0.08158642643893232
77923000.0 0.7722690035528053 -0.6333241478733913 -0.0032272243134056533 -0.47990090039114425 0.00011008371390742325 0.00012224525761496267 0.46842897086844004 -0.10255935813534607
78922000.0 0.7656475106063154 -0.6440553984917385 -0.0157433363399284 -0.5047624877059882 0.0030779865754108383 -0.0014545363105095243 0.4665940909966073 -0.10998717450252904
79921000.0 0.7575517016930104 -0.6484863830297628 -0.04018136528147062 -0.5308994693643581 0.002394338280704984 -0.0025507727957720383 0.46064117193938425 -0.11271460375350922
80920000.0 0.7527547499316198 -0.6586032915165126 -0.04852955068033184 -0.5586148980756019 0.004624613157246092 -0.0026383818374765885 0.47102694745515566 -0.12254567462002892
81919000.0 0.747353126552375 -0.663928565071115 -0.07149479332650911 -0.586503909198566 0.005618764358925386 -0.0010121576011026142 0.4735302991014282 -0.13988157197398057
82918000.0 0.7372556254048971 -0.6708387690062597 -0.08185230916791383 -0.6178963716586142 0.0009179795197125446 -0.0022678923919164083 0.475279265970284 -0.15437440270572078
83917000.0 0.7329838470760459 -0.6780819462503036 -0.1032162983328282 -0.6497092171637006 0.001763287297804565 -0.0003532652361754208 0.4767177195694448 -0.15275487151154346
84916000.0 0.7256627282028303 -0.6868372893795336 -0.12029230561336825 -0.6791424942670131 0.004338833465868438 -0.003401917624276061 0.46812625093140586 -0.17170229408457663
85915000.0 0.7186143729410778 -0.6927851976973105 -0.1359748316650479 -0.716827357819623 -0.003036666790382018 0.0008841513098395398 0.4721046764630908 -0.17745867259641132
86914000.0 0.7119059787884091 -0.705221995985886 -0.15752578945762083 -0.7529372214957587 0.00022756955518864335 0.00017545329592014793 0.45854257156312767 -0.18143928286970823
87913000.0 0.7014227727783453 -0.7093115005453794 -0.17030730875542252 -0.7815478979061266 -0.001852277578708453 -0.0024355615807065837 0.4594792645722248 -0.1925827004722061
88912000.0 0.7002420032220863 -0.7150472242841863 -0.19061549263633532 -0.8168911938538738 -0.004454424145054762 -0.0009392099384957291 0.4643356099635346 -0.21421247302571406
89911000.0 0.689343213031211 -0.7253076362880831 -0.21038956136528755 -0.8535759871771943 -0.0021954100833201833 -0.0002327293304061738 0.471575719672457 -0.21300488267033751
90910000.0 0.6836487741989745 -0.7286868911639892 -0.22143019570599887 -0.8914976705738512 -0.0018311666408710788 -0.0014561272902328729 0.46453846083696165 -0.2142305378983741
91909000.0 0.6740665679774634 -0.7348095284310646 -0.24643187666350755 -0.9192463707761385 -0.00119595782669814 -0.0012221129301580368 0.46998823823955005 -0.2288576869267973
92908000.0 0.667241040395157 -0.7422779412203954 -0.26224508156809095 -0.9563564909035466 0.001363675584644747 -0.002295896425351938 0.4631254600939416 -0.24030148379228716
93907000.0 0.6631787961620939 -0.7463978336001494 -0.28224809875034595 -0.9910601229112262 -0.0005522697720285051 -0.0006366786246864135 0.4628802873290191 -0.2596135771472762
94906000.0 0.6479465396397036 -0.7559331715925249 -0.29961244649029645 -1.0202007654516336 -0.0002574857586205413 -0.0023717645621527455 0.45321968968113124 -0.2587016557800493
95905000.0 0.6405221725195236 -0.763108767099992 -0.3216504386029562 -1.054852858608975 0.0033946557796308337 0.0029224051986367285 0.46441900848566076 -0.27111705805278236
96904000.0 0.635144858778234 -0.7703147505750991 -0.34126691283009547 -1.095482161395801 0.00028230009966897 0.005072297011399459 0.4586045491413335 -0.2817409717876941
97903000.0 0.6242755631278716 -0.7755203205766944 -0.36743797556596275 -1.1238674323072928 0.002977392400891976 0.0030206885035552267 0.45142916947007783 -0.2924825237797222
98902000.0 0.6207645545041157 -0.7832369603946859 -0.38795236915327475 -1.1710065471078124 -0.0015319857164458129 -0.00401123312549969 0.4482355019639208 -0.2989810956384232
99901000.0 0.6086732770996872 -0.7893292000595995 -0.41559546906761946 -1.2009441224051456 -0.005270018203825717 -0.0009605678706898137 0.46255484231675764 -0.3136809103632535
100900000.0 0.602708776755671 -0.7927924028966743 -0.4469831681524237 -1.2310002386224068 -0.001509120442606558 0.00034373163328821907 0.4589173519344384 -0.3275429710289672
101899000.0 0.5918155989871035 -0.8015062253186409 -0.4759821407464148 -1.271126631320208 -0.002083265251798733 0.003683372684435823 0.45487299238483875 -0.32480552769905624
102898000.0 0.5825551168340414 -0.8082779395297612 -0.5123395037074527 -1.3069369966152926 0.000814413249405983 -0.0006502577613200694 0.4424967886141515 -0.3455084899842013
103897000.0 0.5751255220159032 -0.8145661576237592 -0.5500256646207502 -1.342760025597464 -0.001056208505551253 0.0012814564118307688 0.4544710916674592 -0.33630823812774474
104896000.0 0.5672569216415696 -0.8246599596753381 -0.5924183688278666 -1.3761367121951689 -0.0009064863115883803 0.00251165708241768 0.43176215070125323 -0.33698098175094143
105895000.0 0.5557809988148471 -0.8261132884637379 -0.6391186908394235 -1.4188193817451542 0.0014984676679102953 -0.0007596540501119449 0.4357891752051986 -0.3706928804697667
106894000.0 0.5465409184929897 -0.8324296629564801 -0.6932081297230291 -1.4581863888618285 0.0004475515488455266 0.000463652232591379 0.43508524539593857 -0.3872901174039378
107893000.0 0.5408854366407791 -0.8395063166355055 -0.7426649059456902 -1.5011964892050873 0.00026598086770155684 0.001666819306498676 0.4304216237988827 -0.38714845430704364
108892000.0 0.5303695977425912 -0.8423767172330691 -0.8036418910315155 -1.5401014829316573 0.0012089184721290303 0.0020846306971368357 0.42234360523778247 -0.37525314783057073
109891000.0 0.5200977682870048 -0.8501798510261679 -0.8647835022283802 -1.5750135186955119 -0.0025134027984730183 -0.0006244643642490753 0.44523241931487934 -0.3778553782084085
110890000.0 0.5161431505597344 -0.8592235688552028 -0.9258440949605895 -1.600455583584439 0.003934212889536754 0.0027590451826316415 0.42513645867887945 -0.38622185141571347
111889000.0 0.4990184965007716 -0.8562949351012824 -0.9846174994588215 -1.6435379027450074 0.00027262857240579905 -0.0015349432804012584 0.41808884877237323 -0.4059158516062062
