! Created with skrf 1.9.0 (http://scikit-rf.org).
# Hz S RI R 50.0 
!freq ReS11 ImS11 ReS21 ImS21 ReS12 ImS12 ReS22 ImS22
1000000.0 0.989845767866304 0.014771298433686663 -0.0055843761123990695 -0.03650900195604047 -0.005308561326515135 0.009205245755629117 0.37748906304807317 0.30603825401261175
1999000.0 0.9953226413299612 -0.01654664945660032 0.014925781574610636 -0.014155666740814915 -0.006347603203015517 -0.006515113747316093 0.29165023829146947 -0.04225056221269805
2998000.0 0.9970771289603639 -0.024601610419802654 0.010106985270111321 -0.01932711835452334 0.004127102307460482 -0.0036384321410127146 0.20796564453992994 -0.12706582842012054
3997000.0 0.9985671015110794 -0.03237383753529387 0.011190029254224913 -0.012533914698113702 -0.011194508425757631 -0.0027574764564255866 0.06801691545297069 -0.23482847635758197
4996000.0 0.9968217313804622 -0.040314278280747955 0.00920890922372149 7.432777123989047e-05 -0.0013800530885941604 0.00045314262814892883 -0.05301754750022768 -0.2045407731320851
5995000.0 0.9958607198055891 -0.04905978373223574 0.007731596429338734 0.0010710533228259604 0.00033923953529519865 0.0018329409066406637 -0.10759537031748496 -0.1036756568884098
6994000.0 0.9940723798011429 -0.05513462640285388 0.00520821587000603 0.009054452347078608 0.002867805358122263 0.0021615489907298516 -0.1330394961609055 -0.010673485812259995
7993000.0 0.996253844927651 -0.06541636997175787 0.005525128042467139 0.004067103540511753 0.0023954280764266695 0.00156982229021849 -0.14498064061601512 0.04061974608463064
8992000.0 0.9930209404653062 -0.07263628184343371 0.002031163112826961 0.008636022106200927 -0.005350551127154067 0.003032798041052246 -0.15403041759099592 0.06175231317572982
9991000.0 0.9928606484062008 -0.08214896685308055 -0.0009967766659953105 0.0009139900644992115 0.0004184852545332023 0.0004806776458784836 -0.13852564803191075 0.09839791980697139
10990000.0 0.9939818137030698 -0.0902187601857053 0.006090081108720397 -0.0013135969879711734 0.00029329184426140736 0.0029003899754387755 -0.12038156295852162 0.1211090198113398
11989000.0 0.9919995106787666 -0.0978200374467717 0.004008738710964867 0.0007732801423854977 -0.0015134038027900783 0.00021229470356447808 -0.11048499864187869 0.1338122650772494
12988000.0 0.9909679278383247 -0.10994035255909021 -0.0020483516899985474 -0.001707399917471034 -0.0014475689511624296 0.0021578818006856865 -0.11137528232643637 0.16600643701888973
13987000.0 0.9888909811430935 -0.11865296235176757 -0.002145772091878952 -0.0035349744454823756 0.002098551890631472 -0.0023600466858363367 -0.08173794983223992 0.18360992175106508
14986000.0 0.9868314126151625 -0.12398888333218812 0.0021330904911851948 -0.0031289268175071316 0.000942234088953951 0.0022481342158147764 -0.07736681005411569 0.20945137138536568
15985000.0 0.9886793723506633 -0.13309763338729405 0.00020048034783462192 -0.007574001424495319 -0.0004902356384297229 -0.0012167094787571115 -0.07070045749684997 0.2124020528337147
16984000.0 0.9879359621803924 -0.1423880895570352 -0.002082280939028983 -0.004612053634624881 0.0014448985259846992 -0.002087677124199823 -0.05408821828277504 0.22067315973274793
17983000.0 0.9869549751995835 -0.14528104460592725 -0.006666464602394663 -0.004251524180740239 0.002868007025124263 -0.002425931426882853 -0.06258129159779798 0.22589940619895704
18982000.0 0.9829011465458846 -0.16053119989517836 -0.004235090751420272 -0.006151740782805667 -0.002616096916146034 -0.0008743427283549685 -0.02070024331248575 0.23683426865840992
19981000.0 0.9831878136904451 -0.16205988942240654 -0.006739594313092762 -0.010232209247324242 -0.0010275978838185746 -0.0004140671304662892 -0.010105677222475152 0.24269716319501047
20980000.0 0.9814108118398684 -0.17361677397305345 -0.004328539438800527 -0.0021794478415296885 -2.3220209720951595e-05 -0.00010580945513877777 0.004392708339873628 0.2655091578954692
21979000.0 0.9782434043032784 -0.18109050768643956 -0.005276765215538119 -0.002759978847199185 -0.001471971648859224 -0.005885306394186683 0.018198609989059956 0.24634542021565184
22978000.0 0.9764284747940422 -0.19310239872249257 -0.00452758154709144 -0.001423895465593274 0.00011089474200634128 -4.867587225758781e-05 0.04168240809480834 0.2502641235024666
23977000.0 0.9776100939638089 -0.19664092236630853 -0.008522913558971052 -0.002222060510788888 0.0028684017545635926 0.005179885382179465 0.03773694533794655 0.2689600172085079
24976000.0 0.9741227534912937 -0.20832095757158015 -0.009179155860053786 -0.005105442320283347 0.0006771323245605233 -0.0018112486288569722 0.06678932919168618 0.24390631159839748
25975000.0 0.974036549341967 -0.21520604219211395 -0.005513042370316824 0.00023848608252989323 -0.013041099181888019 0.022756599886146426 0.07685673171858994 0.26275128488054383
26974000.0 0.970013087240846 -0.2270215334422767 -0.0037192677882639286 0.0022118849179110435 -0.0011335491911135544 0.00218029707925911 0.09294850299820259 0.26281042404365
27973000.0 0.9720946824921465 -0.23169292335220962 -0.005323657422941613 0.0005189837023333799 -0.000792274369500923 -0.0035285908318439126 0.09909556564647175 0.2640806348867819
28972000.0 0.9652005321661894 -0.24261070115537942 -0.0007912705955261922 -0.0019775926476745974 -7.026344658836746e-05 0.00011846991034998563 0.11851861204781257 0.25453614811704073
29971000.0 0.9655154845033321 -0.24784285076292992 0.00017996262025524892 -0.00029903122027117007 0.0002596889016842021 0.0014942878129751485 0.1554092308978581 0.26252177955502326
30970000.0 0.9629596860703021 -0.2557886149702235 -0.0015222199151064956 -0.0009247293330749131 -0.0030725841926375974 0.002766152099153907 0.16902448596239952 0.25087040318488474
31969000.0 0.9618084111599704 -0.26402412811508963 0.006780695664751162 -0.004410231686207064 0.002292675083565533 0.001999997062422287 0.15637374934162587 0.2471166755337291
32968000.0 0.9602369126472796 -0.27291025912490113 0.005508611485276632 -0.007153827944393013 -0.00015140237405172826 -0.0005522462551864889 0.16775088647701236 0.2512069267818396
33967000.0 0.9571077593469784 -0.2839467054973636 0.01260583282858628 -0.0037873531757332134 0.0026700492833646766 0.0014126977551138734 0.19017651992136386 0.24567381009704534
34966000.0 0.9547561365486973 -0.29034801823433404 0.015851441640760317 -0.015176105453296307 0.0005963983384855533 -0.0011033276344566338 0.19464411416462424 0.25383319842382457
35965000.0 0.9510259933166305 -0.2994133989355126 0.01599907138415842 -0.014104447343465934 -0.0021272863686101306 0.0026089672664917673 0.2142151606473057 0.24857769951636652
36964000.0 0.9501339239171183 -0.30780409365676026 0.014079361120220756 -0.014110172168560387 -0.0013198734632611315 -5.195246201554218e-05 0.21780751457937153 0.2554297563964638
37963000.0 0.9464317403901528 -0.31633199759756603 0.020053519405044736 -0.021183028600072613 0.00044602334711119264 2.2190521228286192e-05 0.22612158911355829 0.2305368207657057
38962000.0 0.9427354326440075 -0.3259103094142867 0.02442283935482401 -0.020983663386035804 0.0001395213781415692 0.0011360916411564156 0.24500031059430788 0.22956420331073538
39961000.0 0.9409336982896596 -0.3318390710388754 0.027621453984023825 -0.02604931479902023 -0.0021656939467239304 -0.001847945197380952 0.2472143538915623 0.22760375079285802
40960000.0 0.9369325934661548 -0.34204489248896147 0.02443923758127538 -0.022892258626356143 0.0007022457874717059 -0.0016656973084529024 0.2667282730555948 0.22896774229087388
41959000.0 0.9342585990229292 -0.3515084702844496 0.0283585410692968 -0.032878579419905095 -0.000571922303356023 -0.0003809422695369225 0.270014943768431 0.21550034278796645
42958000.0 0.9292595687370758 -0.35976777015122385 0.0330182156434493 -0.04010294622259916 0.001993703925779515 -0.00017599828129942068 0.2787210083856041 0.20452878273365827
43957000.0 0.9281047783089984 -0.3640265566356454 0.033580535499456166 -0.04310849157729558 0.0007631914718307988 0.0021852912200136486 0.2882842912440925 0.19947814910634012
44956000.0 0.9249676162999793 -0.37215466152707866 0.03824968888644141 -0.04958549395731014 -0.0005439616311612455 -0.001612067359167537 0.3056523233297699 0.19748831678890222
45955000.0 0.9202460711840861 -0.38369259878222045 0.03858738193822707 -0.05669198176350326 -0.002381535564096415 0.001014900866806197 0.30850214367934115 0.19092629483193546
46954000.0 0.9168615695930054 -0.3912319407160548 0.03984429639373253 -0.06458358230532271 0.00011694408879320789 -0.0042220215222201415 0.3376613418191399 0.17165536024807942
47953000.0 0.9156500003791073 -0.39822961464805806 0.037747855096931536 -0.07048591868225215 0.0019548639198556633 0.0007919795463031555 0.34061421836395284 0.17802971446731433
48952000.0 0.9075030440857416 -0.41244676134031244 0.03894966546710367 -0.07782620002730901 0.00025418057062385585 0.00040796147857528295 0.3334586364812936 0.1637725052047397
49951000.0 0.9055000508040807 -0.4174582289281255 0.04097676953409418 -0.08390381321817103 0.0003754099006636807 -0.002944268262830119 0.3498972016218418 0.15780398082179112
50950000.0 0.9031788985291396 -0.42542039530761816 0.041930222424153916 -0.09371254884315643 0.0003732519691077891 0.0006488531699037602 0.3589344511030835 0.14587526108058263
51949000.0 0.8982851773323809 -0.4309189076124799 0.04274788884809746 -0.09821032657104194 -0.0013708531048289001 -0.002461569852671454 0.363904445425496 0.1475706227016822
52948000.0 0.8947550263210273 -0.43977639872355334 0.04613671063369857 -0.10839357710612915 0.002835753531242015 -0.0013531729169062037 0.3759546457974745 0.1384909673888355
53947000.0 0.8914953925984789 -0.44701978243102836 0.04616074616684528 -0.11878256248911317 -0.003984651903829611 -0.003940257660839841 0.3767634499965918 0.12699692205587385
54946000.0 0.8841733056390202 -0.4593314015831792 0.048226498183191614 -0.12735027843266233 0.0010199245075621947 -0.0022701361121736765 0.39363988131115524 0.12325823124375768
55945000.0 0.8827330335527137 -0.46522712891212986 0.051762091153178175 -0.13750601659149345 -0.001555414348147309 0.001353713296853319 0.39307814533273777 0.10064656639337022
56944000.0 0.8797976706126956 -0.472609449836199 0.050606364329027397 -0.14950105892202817 -0.002767139272794031 0.0020147230900947463 0.4079158280237213 0.10410655423157493
57943000.0 0.8743265193383071 -0.48413099643770063 0.04982461617464929 -0.1621416823400105 -0.003699737846646409 -0.00020418158345832964 0.4075066477224862 0.09493670849566851
58942000.0 0.8671237955233697 -0.4886012684819239 0.05298596029508559 -0.16953726684212414 0.0019328796460566817 0.0012634809101683322 0.4142862837856974 0.09042819099482541
59941000.0 0.8667735184628987 -0.49539961427159673 0.05644367397864222 -0.18050089697625535 -0.0022272306942221036 0.0016791945134542708 0.4254842216052565 0.09163957804032592
60940000.0 0.857872624849515 -0.5025980677268896 0.05590558600260347 -0.18309921459142173 0.00027873307211762267 -0.0009577400213423643 0.40612576506610015 0.07936723144702021
61939000.0 0.8550567181652776 -0.5118514201606019 0.05576662352509828 -0.1963744756004964 -0.0007971683069682513 -0.0016051716105330834 0.41751684432845687 0.06480379672092626
62938000.0 0.8484141600470808 -0.5210258904983575 0.05922810782869496 -0.2087307973711414 -0.0024456617471231637 -0.0020697872255762122 0.4481728161590344 0.04213725401684734
63937000.0 0.843234137422557 -0.5300309816880862 0.05921434722137474 -0.23092522283610872 0.0007929464407779494 -0.000564191734199981 0.4319757010039339 0.035573481468643704
64936000.0 0.8379250836431676 -0.5347296778285179 0.06125105606271531 -0.24520031732483977 -0.0007617333393353397 0.004297323177684107 0.4409936051516867 0.03968661074629881
65935000.0 0.8360753517083204 -0.5444087978153993 0.059866760420141746 -0.2608398750636822 0.0012253636887983256 -0.00013600868436817104 0.4380263255526166 0.01371805661029044
66934000.0 0.8324337912393757 -0.5486207029021412 0.06015710232467384 -0.2738161135391939 0.0001740428526168486 -0.0009320591015970982 0.44381271407324346 0.014911570439866177
67933000.0 0.8269328065619457 -0.5591097812501439 0.057642339093342515 -0.289368395029257 -0.0005551922291043279 0.0032777390070635837 0.4491859046927758 0.003413093255763907
68932000.0 0.8211702777248411 -0.5524524528303839 0.05966257825622642 -0.2992277051806193 9.647448500043517e-05 2.318252367066209e-05 0.4557892983189383 -0.021521178701220372
69931000.0 0.8120507443071072 -0.5756938017481803 0.057730847238136256 -0.32023794470608413 0.00015552254601434342 0.0011721471765653902 0.45206874911918493 -0.01683759787099824
70930000.0 0.805954084874952 -0.581876628417381 0.05315428761542885 -0.33558209778101433 -0.0011096213003206421 -0.003932851543253918 0.44950033128408934 -0.03475626523569394
71929000.0 0.8058454355706066 -0.588652096782148 0.052921039953076836 -0.3548266323928981 0.001988464893453819 0.001038107765890272 0.4444212649057573 -0.035872175105598085
72928000.0 0.7964992556206905 -0.6004535314374343 0.04518378711301936 -0.3693280969437951 0.002069012612665298 0.004491257362602584 0.46154481588439383 -0.04270609299902034
73927000.0 0.7922377073539659 -0.605632210133784 0.0369309005303755 -0.3896384435079084 0.0007223863046645756 -0.004905945688513995 0.4585111509013994 -0.057710324072597
74926000.0 0.7860012332286487 -0.6142923153735876 0.03565132377649276 -0.4079957058998369 -0.0013009328516069762 -0.0012528713870584409 0.4687487993972652 -0.05974732483201591
75925000.0 0.7799686197637969 -0.6180179265844622 0.02492159412582809 -0.426608919542656 -0.00013764020362028225 -0.003048061162435617 0.47981167205004 -0.08436692905721327
76924000.0 0.7734781001311003 -0.6276323465434072 0.014859828095993271 -0.45328709093514624 -0.0012541498856780675 0.0006261305621271734 0.4683117733924422 -0.08282163866421562
77923000.0 0.7689171438478566 -0.6330911188658823 -9.421037737672452e-05 -0.4705179748496807 0.0026994356701534345 -3.2028469022268606e-06 0.46141170357381356 -0.08526331162998058
78922000.0 0.7641472535248887 -0.6419154139848721 -0.010539412298387996 -0.5020639569928264 0.0021799959199355614 -0.00048339621996898745 0.46181120729789293 -0.09708061549074852
79921000.0 0.7553464104522434 -0.6488804243263246 -0.025709330676790734 -0.5288483917449229 -0.002098309986703624 0.0002798621726847612 0.47529380345687566 -0.10630395896436227
80920000.0 0.7504594660948057 -0.6579529484466948 -0.04088908877491051 -0.557105669477342 0.00019902292880359464 -0.0014410526484436436 0.46632087518060633 -0.13587817613875067
81919000.0 0.7464963029973363 -0.6639323592153865 -0.057814361322444545 -0.5851985460222179 0.0005950341418351469 -0.001996814501359481 0.4720519293549406 -0.12825497458296933
82918000.0 0.7335174041992144 -0.6721430359334585 -0.0672578694137614 -0.6160576062406189 -2.905578569568649e-05 -0.0007296672064441544 0.47511179810214266 -0.13427464771932504
83917000.0 0.7267883161307858 -0.6801430368126818 -0.08775012550424749 -0.642618724724069 -0.0010147264204679919 0.002009163871617548 0.4722868330840287 -0.14350683523602226
84916000.0 0.7225982989607181 -0.6874124253809183 -0.10466753903564334 -0.6784696477825829 0.004464929527562491 1.7342778946578664e-05 0.47137562433189356 -0.17045323944037438
85915000.0 0.716653480886994 -0.6913688847544088 -0.12255890401741366 -0.704216556641528 -2.6740729271916095e-05 0.0004013204179245881 0.45797897151757344 -0.17386531013317652
86914000.0 0.7074567926574077 -0.7027365149918522 -0.13679880982282436 -0.7461047238397963 -0.000838777712355403 0.0013753112822382564 0.46371855300044207 -0.16995896814577413
87913000.0 0.701334752656277 -0.7087936371868464 -0.1575334058816875 -0.7747021571593277 -0.0029773558366668253 0.00038436265123837325 0.4661032596116833 -0.19294754936863992
88912000.0 0.6955595930000504 -0.7159192819156389 -0.1749303245038696 -0.8129693399993451 -0.0010923234002774142 0.0009713412635147276 0.4706660282869224 -0.2087577296906967
89911000.0 0.6884599463419887 -0.7225301134788681 -0.18434642875685456 -0.8498099635527898 -0.0011336913761536927 -0.000549129556010006 0.4765246229797276 -0.20690944002395936
90910000.0 0.6815517648375368 -0.7278768073794073 -0.20520070206714322 -0.8813644816766509 0.0017113597639133353 -0.000899489161279052 0.46783680049874105 -0.21542920610748492
91909000.0 0.6713023364866348 -0.7333433806673274 -0.2253091700134811 -0.917220833618511 -0.0024003904533364973 -0.0045536377912973065 0.47528558308265284 -0.22548674305107763
92908000.0 0.6636923105966654 -0.7431424143647429 -0.24159995402226053 -0.9487132904210005 0.0004925373663066013 -0.0007480618797771724 0.4659978509471008 -0.23383795946057098
93907000.0 0.6588465117652736 -0.7461926095638653 -0.26423417377948716 -0.9837344019129715 0.0002748421756452474 0.006043979143438169 0.4692931069664202 -0.26169537860230563
94906000.0 0.6447328982824457 -0.7548673938357103 -0.27723044043772804 -1.018240796558311 -0.0011386426977758569 0.0020918957440089407 0.46468458423794623 -0.24610706444880254
95905000.0 0.6404786163030916 -0.7614016221571093 -0.3090411596989242 -1.0513772738351082 0.003100016362091182 0.002113933631708185 0.45886412219106465 -0.2692813559380293
96904000.0 0.632711873253276 -0.7687672236979997 -0.319835003113477 -1.0945471133228584 -0.003392173025701857 0.0005974488223184549 0.45838440529632934 -0.2650199394425454
97903000.0 0.6224222584571364 -0.7769016206155821 -0.3461103262408224 -1.1289532968615095 0.0033224845512749503 0.0059232578800808 0.45862047260983607 -0.28147391786652387
98902000.0 0.6184417852239841 -0.7804044980610834 -0.36242645935206813 -1.1686911791412322 -0.003175469739687336 0.0007506399746416673 0.45528713693333356 -0.29507698520733194
99901000.0 0.6090488021414479 -0.7898601830565126 -0.39767596953202794 -1.2015347876182203 0.0042851950102077195 -0.0017329420998668296 0.4581825110996927 -0.3063195905951495
100900000.0 0.5982388933791128 -0.7920315805784102 -0.43157507005805096 -1.2260586443336994 -3.927664964654699e-05 -0.0011944982310499845 0.4684466508547343 -0.3199012309072641
101899000.0 0.5880681078899288 -0.7999344109286455 -0.4588315097114695 -1.2677084658614903 -0.002559406727395597 -0.0038816220309765043 0.44696484364821676 -0.3207527113252905
102898000.0 0.5804270156847458 -0.8063268663639453 -0.49666399631325364 -1.3096142832892244 -0.002954225255004386 0.0004261621447410273 0.45694756793667474 -0.32447530159128907
103897000.0 0.5729432663737799 -0.8129980344422388 -0.5321220364568572 -1.3418365784852517 0.000289347982677006 -0.0001999044768026646 0.46115668602710014 -0.33531690566164807
104896000.0 0.5643813790663291 -0.8244689808859933 -0.5812313202586167 -1.3816239123290481 -0.0010595677300902439 -0.0007431307733342821 0.4574281270324766 -0.33975695382664434
105895000.0 0.5562668568922161 -0.8264669294238305 -0.622341889601121 -1.4258071954383267 0.001901292073537941 0.001149530456365031 0.4422596499578004 -0.35883156749539724
106894000.0 0.5448046863358691 -0.8317809612557114 -0.6752562059929602 -1.4700751032746566 0.0003362997390398151 0.0013539950515015747 0.4399460925721909 -0.3580850012643105
107893000.0 0.5375588183020861 -0.8391844852686834 -0.7262378820364538 -1.5090625676108351 0.0008380658707474446 0.002532627440088322 0.443701656308635 -0.37342462712436886
108892000.0 0.5277152646988361 -0.8409968110432033 -0.7892330053743061 -1.5492540827326682 0.0001012910934377288 -0.0008521751267766205 0.4454936799703191 -0.365570213725767
109891000.0 0.517711803893024 -0.8489878066013853 -0.839936081774078 -1.5881097327196914 0.003350584933775201 -0.000565440760128443 0.4490028133341604 -0.368960535380153
110890000.0 0.4982686555777388 -0.857192628398514 -0.9152357377072423 -1.5880053122466182 -0.0014958105318784 -0.001719113681442172 0.4284091919252605 -0.38416854892995256
111889000.0 0.4992660440873053 -0.8567403845287166 -0.9641311953729108 -1.6596972914989052 0.0019632352070496012 -0.0002584623719265729 0.4252623649881219 -0.3993982125319408
