! Created with skrf 1.9.0 (http://scikit-rf.org).
# Hz S RI R 50.0 
!freq ReS11 ImS11 ReS21 ImS21 ReS12 ImS12 ReS22 ImS22
1000000.0 0.9929073919053522 0.009348186341730416 -0.008728630848824352 -0.04093494368220081 -0.017517025832973078 0.015743696864680603 0.369441742831858 0.33060860800553776
1999000.0 0.992799113144536 -0.01330464495515912 0.006936567386600992 -0.025604492912720288 -0.006828911793931808 0.003534172523873029 0.2569348891475283 -0.06626657921748597
2998000.0 0.9980127059619255 -0.02365231632198619 0.010649840293601427 -0.01895105060335135 -0.0009007541752943459 -0.007154600188999649 0.18686821849327787 -0.1366011597833216
3997000.0 1.0003248265909785 -0.029061729331521905 0.013122589177620464 -0.011207721185655817 0.002091376671656963 -0.0011068771710759256 0.09362483663544531 -0.23222082402796304
4996000.0 0.9978835491690722 -0.036277519578051996 0.018076579335838203 -0.00012402236393579505 -0.0036955651517523226 0.00036772924237111126 -0.019635605261874203 -0.23365011306543348
5995000.0 0.9981888796928632 -0.04771536832422804 0.006733481159113328 0.002394615722504518 0.0003363091722791171 -0.00033610632608586103 -0.11121300526537632 -0.1301839163254946
6994000.0 0.9961881683337331 -0.05677014115220949 0.002331169430565387 0.0020656258430793916 -0.0013472784425822466 -0.004450228882636617 -0.15389425448339317 -0.04068890867596009
7993000.0 0.9986139230104525 -0.06541978948631645 0.005185016895073586 0.0068181228415379455 0.002976325125117333 -0.0035294738632543087 -0.17312484741406992 0.033900881820610594
8992000.0 0.9987858799113085 -0.07077983819389089 0.004453831019642901 0.004529066973954644 0.005582255751434207 0.001473229844789918 -0.1780972417601465 0.057066534659710386
9991000.0 0.9949995365004377 -0.08341829658578671 0.0006267622599130045 0.004352031141484254 -0.00072084925643714 -0.004767725078445172 -0.16058214926239947 0.07633774579792399
10990000.0 0.9940365759889896 -0.09328868187559265 0.001749739906952718 0.00020314315583128424 -0.001307209028999539 -0.0016132115430104268 -0.15639091724692272 0.13154821176916912
11989000.0 0.9934244663017641 -0.09526434116738175 0.002272480767401157 -0.0010257154844262844 -0.0033419971506302775 0.009039444996844613 -0.1317883688090162 0.12466562123800898
12988000.0 0.9929079598928513 -0.10975186216832968 -0.00037106926774843976 -0.005064287870007849 0.0025330253811800332 0.0026798533753169674 -0.12376906080750702 0.16945753060819588
13987000.0 0.9912745507712589 -0.11617036676897786 0.0008564826336332061 -0.006260772974586264 0.005115055045270176 -0.0008193126268385673 -0.10871417497935797 0.1870961551944816
14986000.0 0.9920160393650723 -0.12423967301323369 -0.004098046267088912 -0.0022338029960805917 0.0005127763150032931 0.0007089094426713778 -0.09833632899845565 0.20251198946382776
15985000.0 0.993448661035919 -0.13007736677047163 -0.002399362692543191 -0.00569990737540812 0.0009114696517122327 -0.00010293264153115446 -0.08349479740385313 0.21266096282592514
16984000.0 0.988952452625446 -0.14427957156200238 0.0007689011827609088 -0.006744440811142009 -0.0005216974991309901 -0.0025339374075537993 -0.0693656249707393 0.2230158383044997
17983000.0 0.9901515392752179 -0.14692423756792636 -0.0016188213888976468 -0.0021897028339360335 -0.003200524357019809 -0.00240543016515195 -0.054173005974256214 0.22594944101624417
18982000.0 0.9859159754037138 -0.15833313075204383 -0.002599683752563541 -0.00800323064413098 0.0005904264168346382 0.0009771904103683224 -0.023781489230703272 0.23386954095565748
19981000.0 0.9849508424720619 -0.16198785113265518 -0.0008164642714758943 -0.004896666860406509 0.0009754798392277209 -0.002996066192433715 -0.01672705794488615 0.24232171526082516
20980000.0 0.9843736047490248 -0.17475297077706817 -0.0036070842843310877 -0.004247119834397386 0.0014119479501409266 -0.00013447560604747273 -0.003861323884142524 0.26908750791673586
21979000.0 0.9833889507488818 -0.18101809376416833 -0.008181728164923513 -0.004307141284436501 0.0012997669069978253 -6.641086292878657e-05 0.018590676087635715 0.25584811490002146
22978000.0 0.9791225812514857 -0.18996702962205778 -0.0039477765220519555 -0.004332060597964364 0.0012162536299929112 -0.0016030332365640665 0.018575183464908097 0.2579144766442066
23977000.0 0.9804406750303516 -0.19805936793302226 -0.00213300530444773 -0.00041312960959346146 -0.004976802831207158 -0.0009127811633756571 0.030987724446590318 0.2543573403265221
24976000.0 0.975968082871388 -0.20967897983905617 -0.005669134313377767 -0.0038221839346220376 0.0008334850723109605 -0.002239013931183947 0.062132275992268136 0.26068771564417953
25975000.0 0.9679591857868002 -0.21896051874928266 -0.004114345134954633 -0.0031740844630499584 -0.002840399086663061 -0.026994266514800577 0.07228523579776157 0.26851743139323747
26974000.0 0.9726893749427501 -0.22526353567872937 -0.0033710138157368777 -0.003162846534154178 0.0017563209544162312 0.0007210273513775043 0.08371548827402098 0.2701913341035983
27973000.0 0.9738575764157582 -0.229067143655797 -0.0002324639253169178 -0.0015608402331085173 0.001593216042142359 0.0025484515433612303 0.08585164301881104 0.263859255839587
28972000.0 0.9664521762859972 -0.24383616596407465 0.0002735844793729939 -0.0014837341382101471 0.002285081235540726 -0.0011504762847532619 0.11273436163438469 0.25568791725830103
29971000.0 0.9676627203847907 -0.247628927717475 -0.0022917966450312333 -0.0007689368262735132 0.0015799014254626674 -0.002017263106245943 0.1516807232929026 0.27068789197402593
30970000.0 0.9653556613993934 -0.25537722437433513 0.0021719391872093655 -0.004017193605698426 0.00012116682209073663 -0.0018455834331508403 0.1681503202235998 0.2492254793990792
31969000.0 0.9640202897137334 -0.263952831106714 0.0034325729681542096 -0.003261353031242861 -0.0020449466630058162 0.0025796820145051556 0.15583246816525573 0.2518870349214595
32968000.0 0.962752441415293 -0.27257344015676366 0.01075722214647779 -0.005607158970363489 0.0009772241890943826 0.0019578087153623628 0.16251394771403133 0.25025282280805766
33967000.0 0.9587537841884269 -0.2830256652043611 0.01240918857358222 -0.011394454847656225 0.000800708081955023 -0.001943276130949204 0.18911397430642618 0.24973757249366457
34966000.0 0.9550058199466304 -0.29194428613189904 0.016848849707375817 -0.012964572399360568 -0.0009438394132214703 -0.0007941256165435985 0.19341127596576585 0.26394478380770164
35965000.0 0.9515802348491664 -0.29686821341700675 0.013123850830936739 -0.014786374069978113 -9.967512826201473e-05 -0.004639334977758122 0.22063768123186364 0.24778132376276166
36964000.0 0.9493460358322252 -0.30864533343570777 0.016539019135883997 -0.01638753864016384 -0.0016568689432648717 -0.0028427566743997536 0.2152255181301807 0.2567644710987002
37963000.0 0.9461977690445033 -0.3166457322137864 0.024680358866813575 -0.01793211342969079 1.5790795557655895e-05 0.0020530262537570986 0.22601909542737483 0.23472466711488
38962000.0 0.9462300900419115 -0.32376407860860085 0.026878830603638038 -0.023716090652359446 -0.0009185788390039147 -0.0010865779257260935 0.23622515608449668 0.22812378624302898
39961000.0 0.9416499389009104 -0.33377179848649835 0.030325636818448288 -0.027824693862207605 0.0016710578654549509 0.0017542783542246491 0.24669803967826928 0.22687829670530205
40960000.0 0.9391459176859367 -0.3404686663319249 0.021046119099625563 -0.02208345774883037 0.0009164027039928207 -0.00207525541216368 0.2793358676045691 0.22709660956210384
41959000.0 0.9368037557862339 -0.3493420691096427 0.033386352152463716 -0.03334106267580087 0.001886849763501187 -0.001111966122539493 0.272801715228086 0.21255724275031018
42958000.0 0.9320281844303231 -0.3591329818848663 0.035302040933865596 -0.04326794312194281 0.0011738598982599135 0.0012900622294126846 0.28207104596660265 0.19763240845394447
43957000.0 0.9297744079251599 -0.3670551343455345 0.0331444572882999 -0.04488129091274073 0.002704992016622662 -0.0011408690111523166 0.28977005356658847 0.20080501885166233
44956000.0 0.9255553008014326 -0.37372730005094595 0.03353732044142433 -0.05352534389968198 0.00036453481703332957 0.0017168905265538851 0.2988224244765753 0.18759163923251335
45955000.0 0.9230809582108489 -0.381514901708362 0.03726585682324912 -0.05922344785462171 0.0011669817267999942 -0.00012553875274154947 0.30760261107451004 0.18500084243630813
46954000.0 0.9184504865970362 -0.3901234720632271 0.036089049031277985 -0.06417438150280853 0.0034623022188274366 0.0010749007628277187 0.3224321098769982 0.16933045542154354
47953000.0 0.9174798569925456 -0.3981397604647619 0.0394785017740982 -0.07461079610574146 -0.0023348564831849232 -0.0009612891006421184 0.33810168199642354 0.17647989318670082
48952000.0 0.9119764545240987 -0.40859979525650086 0.04108073121375777 -0.08361962280088918 0.0013209401570198477 -0.0012300183118849816 0.33421631344719666 0.16416648948785256
49951000.0 0.9085784612337741 -0.41354964488446533 0.04189125360756523 -0.09185696298221847 0.001194975774729593 0.004023444476404441 0.34836774877495735 0.15475622525594318
50950000.0 0.904463102636967 -0.42168911820594934 0.037040835810573755 -0.09693891327436119 0.0006297663993133374 0.001893136452516013 0.3542961059614674 0.13989759603917679
51949000.0 0.9009436540466165 -0.4311644591546601 0.04131032852757902 -0.10458107380546201 -0.004145206437081586 -0.002779312428223461 0.36605176232890135 0.1448383163286066
52948000.0 0.9002467557610419 -0.43933616269858694 0.04312832539398015 -0.11368751512422536 -0.00043941079500417897 -0.0036466529377272515 0.3756842368002346 0.13499878512351607
53947000.0 0.8931495300971202 -0.4467454502681514 0.045124003121469546 -0.1238997581681805 0.0009139049568977148 -0.0011642301695377018 0.37069189917571904 0.12476594477460025
54946000.0 0.8872232091749611 -0.45814730174724716 0.0462157460960827 -0.13457670546503364 0.002125632838198501 -0.0015214634309020328 0.38349722735708003 0.11306853850953436
55945000.0 0.8859023545853747 -0.4635221018765869 0.0493804945063632 -0.14596518486336743 -0.001692332670160659 0.001505491240893448 0.39122276306676645 0.09851438313269134
56944000.0 0.8809015428651962 -0.47119922572274764 0.04862435939618417 -0.15449850340958232 -0.0024424236096429745 -0.00042174329116487826 0.40305496441332994 0.10033507226672696
57943000.0 0.8748854957358739 -0.48249640432131097 0.050865383340442806 -0.16653025852330802 0.0005896816295631848 0.0016634572387292396 0.40698083401097174 0.08529505935764324
58942000.0 0.8707143762221974 -0.48778590644870995 0.0542632513541788 -0.17685303460705223 0.000130864657759981 -0.0010589124758839386 0.42840513554967063 0.08400203609263478
59941000.0 0.8685126417031415 -0.4937716648389522 0.05501227696974113 -0.1881756294206412 -0.0003015516675369379 0.0012385573872734732 0.42869456403571016 0.09352875625299643
60940000.0 0.8600606412968763 -0.5032733661987346 0.05160352313240767 -0.19234435637242667 -0.0003657390372250568 -0.00047931109663212315 0.41963405594883235 0.07201882354615534
61939000.0 0.8580910293424304 -0.5095981432845378 0.05241037116580002 -0.20098318363970924 0.0014510649038829984 -0.003103422035949836 0.42301385438373557 0.06414355351409658
62938000.0 0.8527846223445789 -0.5197797282672864 0.05885794192170567 -0.21770888516372294 -0.0007390670465928381 -7.004083548744698e-05 0.4472574383813572 0.046676581738452676
63937000.0 0.8485804827352279 -0.5270463018396464 0.056674955892736016 -0.23799867989542806 -0.005837533068366597 -0.0018720839595826003 0.4400594576050474 0.034410446570649095
64936000.0 0.843917713330556 -0.5317735996107043 0.057728716634188576 -0.25126829711965176 -0.0009373839673027773 0.001820399434675727 0.4305325561976655 0.039276170322397524
65935000.0 0.8398803746832665 -0.5436258079303224 0.056198897457965066 -0.26560814587192005 -0.001977170143225971 0.0007998538819714469 0.44556938359763115 0.008601114116032642
66934000.0 0.8362237078342007 -0.5467926008250487 0.055487638415657146 -0.2807804102511664 0.0008814550047667575 0.003731416259756024 0.4468163504896298 0.017983926782847513
67933000.0 0.8309570472409971 -0.5581853203493651 0.055198830411890616 -0.296580431968546 -0.0008936275964796105 -4.3988774225324036e-05 0.45384170566320864 0.0036899295317762023
68932000.0 0.8214605411852192 -0.5638400607057705 0.05094020782225224 -0.30696924516776225 -0.0005242563446798554 0.0005867641810548055 0.44854086757344735 -0.01545376549806526
69931000.0 0.8170865469070646 -0.5727876198587826 0.051718573859870484 -0.32887867261668263 0.001390379656886672 -0.001553581937271318 0.45506553392899246 -0.02252630911026032
70930000.0 0.814113186212371 -0.5767993169865421 0.05164371100279489 -0.34047769251376775 -0.0021110017663734286 -0.00635232690022863 0.45361123996222125 -0.02994281039742446
71929000.0 0.8100994495248932 -0.586220853010591 0.04688118948215047 -0.36092932877473216 -0.0028850721227184272 -0.0005334343064539325 0.4453663726605118 -0.04299549083227361
72928000.0 0.8023768657215249 -0.5969165382931704 0.04096921565938173 -0.37481730847389516 -0.0024057208993037756 -0.002861508481544836 0.4624404429379444 -0.05914920514426063
73927000.0 0.7960702719382161 -0.603519652038121 0.03359091539243404 -0.39386778576465825 0.0018476454646817009 -0.002435021010225813 0.4552916329909247 -0.060992143906794596
74926000.0 0.7906446249988659 -0.6100452808942977 0.02668000185372467 -0.4135667757338976 -0.0009985640996011157 -0.004193919393298805 0.458848527993909 -0.06555707134110628
75925000.0 0.7845857556236342 -0.6181024810154793 0.019724753004407885 -0.435788656380557 -0.0010942312128907632 -0.0025489411164708394 0.46891930992837666 -0.08216900608072958
76924000.0 0.7791274756371033 -0.6248431664860831 0.0047121921147198 -0.46094705972108546 -0.002318733183831958 0.0059582985314514504 0.47543810417053356 -0.09134688532582178
77923000.0 0.7725427721066855 -0.6325582870642972 -0.0020363381907172336 -0.48323717485269385 8.47832548459567e-05 0.0031105193338956637 0.46164456796079345 -0.09593847079400603
78922000.0 0.7677389068361159 -0.6426075263254282 -0.021294790778596296 -0.5116943242234916 0.0016889463238997802 0.0027787525499017394 0.4531803126235622 -0.11370987966931664
79921000.0 0.757921261082655 -0.644295502709648 -0.04214611136742039 -0.5372936132185222 -0.0031587118125990946 0.002182627032602443 0.4678329215643235 -0.127978987047052
80920000.0 0.7547511916709497 -0.6575832599574608 -0.053386047220148246 -0.5645212568565051 -0.0036832649685356535 -0.0016548323025485255 0.47143516718821354 -0.14024298395364065
81919000.0 0.7498457508999972 -0.6610987451366243 -0.07560043542426989 -0.5910879363543641 0.002054124782314526 0.0014989176691470752 0.47217140691708315 -0.13382766810694355
82918000.0 0.7400357127037304 -0.6693116132804524 -0.08539584217501793 -0.6219938165731388 0.0007590405512441465 0.0036631402559507576 0.4852844563000983 -0.1558293458194508
83917000.0 0.7327045086272023 -0.6762963449423411 -0.10902516327083693 -0.6513362282675265 0.0014604785426602645 0.0013113492561972002 0.46729297634047473 -0.16556116680206295
84916000.0 0.7266989308443006 -0.6855028531368417 -0.12381402094718166 -0.6877081523916165 0.0006352103460364178 -0.0020922727697194007 0.46817144600297955 -0.17776105356201966
85915000.0 0.7219809682077136 -0.6902510614912898 -0.14055401842796686 -0.7223036628321573 0.0008093847157456217 -0.003805940155405282 0.4685891831001809 -0.19105852356674685
86914000.0 0.7147150139191996 -0.7017274787611487 -0.15915001652193767 -0.7566826219341017 -0.0022354867242704046 -0.0015503476159915797 0.4651640130155645 -0.17907671010004564
87913000.0 0.7067385936514909 -0.7053433607488716 -0.17830182211078546 -0.7825412121620011 -0.003143430523125419 -0.0026103824302165872 0.4603489091428551 -0.1953548581734874
88912000.0 0.7014216343512617 -0.7135977407902893 -0.19078032702724632 -0.8204524086218389 -1.599613820731308e-05 -0.0017073791704441202 0.45652192323932966 -0.21443603906961065
89911000.0 0.6930854255217023 -0.7220064052031677 -0.2125859376660993 -0.8559343661003602 0.0006269763909347622 0.0011953845762826374 0.45861050679447424 -0.2199731866267239
90910000.0 0.6855974305490876 -0.7270310592192668 -0.2308863061359392 -0.8914245915975738 0.0008287081783745813 -7.17256365958708e-05 0.471281582136885 -0.2263082158264578
91909000.0 0.6761069409569779 -0.7318979015482948 -0.24784005809002538 -0.9252648517364813 -0.002911530677102266 0.0009539174918159449 0.46021046708805136 -0.21906481828125116
92908000.0 0.6700660456061691 -0.740270142784856 -0.2697568301936669 -0.9631455589976341 -0.001530562476490341 0.00010146199118760947 0.4552401647335509 -0.242164182393618
93907000.0 0.6641602816003357 -0.7459519206775748 -0.2905285537964533 -0.9924727644897573 0.003158714194256109 0.005335661136916865 0.46017518167267746 -0.26324938096321954
94906000.0 0.6523611091543325 -0.754214790668367 -0.3043642138523274 -1.0255560316389616 -0.00018285898082391562 0.0031528893376928852 0.45543813403470845 -0.2544747238371288
95905000.0 0.6447382557420744 -0.7611740065823763 -0.3311122857275914 -1.0573119621021272 0.00039028575412705706 0.0014011763978709014 0.4594577262385088 -0.2840467368757112
96904000.0 0.6376857847586741 -0.7683303274443317 -0.35263896677795536 -1.1037939655926627 -0.0007608609560761024 -0.0031849292444446797 0.45441725024508783 -0.286390062554016
97903000.0 0.6274219492341855 -0.7746018395099352 -0.37860116843806524 -1.1331654937127815 -0.0023993137646523125 -0.00017267297391134324 0.4451752200244406 -0.29477678582478456
98902000.0 0.6232657223692473 -0.7825278205562665 -0.3988672342528325 -1.1748251012659274 0.0014195806875200022 0.0006722277310973107 0.4456412245725336 -0.30682022835936473
99901000.0 0.6118505006895073 -0.7882911912637355 -0.429020948521811 -1.2009289426462522 -0.0021621133455673094 -0.0010862042449561388 0.45669771679588494 -0.31588472764985914
100900000.0 0.6047906118137204 -0.7911294128813476 -0.46183717653932477 -1.2354230838426101 0.0018298829982160171 5.981211912456987e-07 0.4534020031867195 -0.3157937395140537
101899000.0 0.5981344424432462 -0.7993739979909947 -0.48667962328280606 -1.281197660482295 0.0022909395651716097 0.0013062680693224176 0.45146513778842373 -0.3371892743069974
102898000.0 0.5883557817453642 -0.8049831175942769 -0.5239786978650102 -1.3155033426486185 0.0032593454479864226 -0.0020553855899782376 0.451410466854222 -0.35731567882119775
103897000.0 0.5796918052911729 -0.8101047782350508 -0.5635025098559827 -1.3517283638775242 0.0005478848771057101 -0.00037425031033235087 0.46053405943394565 -0.3504631958056238
104896000.0 0.5721437706690894 -0.8225471258952624 -0.6119397282630129 -1.3847573294470734 0.0017705276541624196 -0.00020581203931529268 0.43322729241246816 -0.35231771402238893
105895000.0 0.5606686691494133 -0.8244689820140148 -0.6660688496684224 -1.4315930391341616 0.00027313428566386015 0.004053578547697194 0.43585293804051606 -0.37179653272515883
106894000.0 0.5509566644780792 -0.8307639386710217 -0.7240704948518651 -1.4619780379297682 0.00039646419986053385 -0.0005524804144772435 0.42084133156063264 -0.3788586056384013
107893000.0 0.5428387856316527 -0.8377434630625015 -0.7719198566867622 -1.4990745311146771 0.0006449771784011215 0.00012615943286071782 0.4208266495062132 -0.394546786573373
108892000.0 0.5357759680212443 -0.8398748208702881 -0.828636246223133 -1.5409672597823856 -5.0178202933225806e-05 0.002660250807181795 0.4189390713909834 -0.385731742120169
109891000.0 0.5227965473771119 -0.8491850468128671 -0.8884794282362132 -1.5761517588421021 -8.050667906270675e-05 0.002252614896677924 0.4167075538168256 -0.39189278146962264
110890000.0 0.51881113776757 -0.8613221134124674 -0.9591679658892498 -1.5970190698961233 0.0011719910784471906 0.007048320776393495 0.41934633302654434 -0.39994067388450333
111889000.0 0.5046610590728569 -0.855517029181455 -1.0135547345959974 -1.6440749526642748 0.0005272101150854132 0.0018462412105539258 0.4061541580794367 -0.4048589793036384
