! Created with skrf 1.9.0 (http://scikit-rf.org).
# Hz S RI R 50.0 
!freq ReS11 ImS11 ReS21 ImS21 ReS12 ImS12 ReS22 ImS22
1000000.0 0.9879064431709677 0.006091755070226644 0.00339688455839134 -0.0584252496965735 -0.006403799634698049 -0.0047910538919366304 0.29677177334564997 0.3441143343850676
1999000.0 0.9940152422177795 -0.018716993001524674 0.002394199351676351 -0.01878777041440608 -0.011274591755937317 0.006407326511037992 0.26079809063797704 -0.027353330022970194
2998000.0 0.9946279779311802 -0.022938463331748822 0.009610117160137068 -0.009633155232572507 0.0013612919143451466 0.0007885015375150046 0.19386928063151906 -0.12723802848762358
3997000.0 0.9950928727932529 -0.036709499323215856 0.00622334912230674 -0.0032463787208494225 -0.0028320309965287798 -0.005181592347454613 0.08237825837226194 -0.21702524891542654
4996000.0 0.9937524129732548 -0.0420748487635281 0.005348464331150109 -0.0010607987139014726 -0.002147699186586358 -0.007185680517524857 -0.04644199835267681 -0.18431437953317686
5995000.0 0.9928910651517242 -0.05282621679729185 0.011152687120921465 0.00012757484857314983 0.0011555841735567736 0.004972227548355476 -0.11226319880740246 -0.09263696379836521
6994000.0 0.9879825505836244 -0.06480903014577581 0.004566510175340049 0.0031870130020782454 0.0024081177576309554 0.0034134895213377265 -0.14735649945097204 -0.02350624101054179
7993000.0 0.9915788367378933 -0.06856360619283634 0.004223750465764148 0.006033569316769067 0.0014681095917674603 -0.0050632589480847584 -0.15819443943841063 0.030978931634371053
8992000.0 0.9901674027306313 -0.07574627930291958 -0.00017102738929306285 0.0006944563351367739 0.004923318556213471 0.003383937046185125 -0.14575211542666433 0.06364130049466557
9991000.0 0.9867208896113459 -0.08365554360162925 0.0032302009594246937 0.006581324109313549 -0.00413168272818003 -0.0011670502001451422 -0.14354760475760198 0.08577734187910747
10990000.0 0.9869612913221437 -0.09342326699878588 0.0007418166958263959 0.0033599683081060763 0.000371341723280533 -0.0015862938784749327 -0.1426444738226552 0.1013582774363191
11989000.0 0.9846350052376888 -0.0992227482010893 0.00044429367389195944 -0.004106739285822827 -0.001818267031078854 0.00031592788290318657 -0.12285985275693992 0.1280680255198113
12988000.0 0.9856929939475795 -0.11199388042057007 -0.0015917340111443565 -0.008707727504243933 0.003000113465906734 0.00022250770419489686 -0.11189583454386737 0.15605667197441916
13987000.0 0.98333673698065 -0.11974381384542561 0.00019272387549701514 0.0006218764054620588 0.001230234211671635 0.0012318751173851475 -0.09513955480194096 0.18132643022033074
14986000.0 0.9819706125618533 -0.12866052462934632 -0.0012578233478043105 -0.004407135694690868 -0.00396249143452053 -0.0012738215748492544 -0.09164869006566528 0.19819997691020963
15985000.0 0.9829172580662034 -0.1351375320390915 0.004924769709662316 -0.0018830227081191948 0.003938874654946841 -0.007670051296772232 -0.07262311979791641 0.22717257432495563
16984000.0 0.9795319044217636 -0.1480593658802879 0.0013263829726405385 -0.0033142098751873343 -0.002022825686275376 0.006013170277328304 -0.06170199705307693 0.21759298303638397
17983000.0 0.980089482822218 -0.15191477935433859 -0.006428336877395746 -0.0011447972987450252 -0.0009322496257520179 -0.0018550230362597178 -0.05427166964403683 0.22331980915301383
18982000.0 0.9771971741721033 -0.1618930311750818 0.0006997768960740587 -0.00774503372926193 -0.00032456185532935006 0.0026634467225685535 -0.03138682963069131 0.23383902065894382
19981000.0 0.9774976448107098 -0.16679023412512947 -0.001117146539918656 -0.00056121436344482 -0.0017961033341320225 -0.0003841716564035297 -0.013880486275047937 0.23602144720385965
20980000.0 0.974721161265327 -0.18132082569736005 -0.005174166741183485 -0.0052262225419925125 0.0010026435789864765 0.0025928257939779116 0.00108788504436915 0.25703614831340327
21979000.0 0.9744325432994144 -0.18565345558064605 -0.004022275000793918 -0.005558831092494922 -0.00026233198398950536 0.0011204449285873582 0.009426045565760417 0.2439191145862747
22978000.0 0.9717586264893469 -0.19595745129373882 -0.0072399444759426 -0.0037162036902823594 0.0026759603516869532 -0.0005822828660053782 0.021250559177566623 0.24886873680356222
23977000.0 0.9736918813976558 -0.20101879611193876 -0.004859440577690377 0.0004135731150077538 0.0018870322392615388 -0.0003516752940548743 0.022273245009347423 0.25973656104284504
24976000.0 0.9680792238086411 -0.21304858577812483 -0.005366485647468597 -0.0024429523089928608 0.002246596417487847 0.0010620684189969925 0.06968173362140365 0.23833213069665146
25975000.0 0.9663706574447484 -0.22902945785598178 -0.007636750230312713 -0.0026654628119369304 0.026253883088566934 -0.0059459968642742375 0.07713649031976551 0.2603171388041109
26974000.0 0.9659403299082077 -0.22868538206414277 -0.0050233356151563905 -0.0028975897418201525 0.002007553921699441 0.004294707716477245 0.09067353494053651 0.2556578719820442
27973000.0 0.9637527285475874 -0.23675419851204382 -0.001731195781616339 -0.0035706976399877094 0.0009065462789214647 -0.001859018486222675 0.09735247565029911 0.24709570035667947
28972000.0 0.9599372390934582 -0.24707537100170213 0.0022612041096770744 -0.0020663856612161023 -0.004139266701645734 0.003746433697150778 0.10789948445461574 0.2530287944472489
29971000.0 0.9604277278327132 -0.2574904842010509 0.0007937325702705148 -0.0021529699524983534 0.002368056343497541 0.0009351268028118196 0.13501379482972106 0.2621712405693615
30970000.0 0.9570983938350586 -0.26019026688819685 0.0009333336328978547 -0.0029871245963787136 -0.0029451758702557034 0.0016835746980349766 0.16419041576910895 0.25055049717685085
31969000.0 0.9556692043210566 -0.27114755429536597 0.007508896106620528 -0.005679354522212808 0.0024219914147999306 0.0019222037786445617 0.14456722321899074 0.25190685139700053
32968000.0 0.9528321289454196 -0.2817653788160273 0.009246711915219584 -0.009244543418786898 -0.0001254630241274504 0.00015808369897872077 0.15915637844210978 0.24611046880860624
33967000.0 0.9509199049046637 -0.29115580478689634 0.013387384185036356 -0.008660425713106627 -0.0018200886749075522 0.001814657622245384 0.18009661839256003 0.23495648359550458
34966000.0 0.948760754161765 -0.2973477235500534 0.015275377861935545 -0.014480028624111534 0.0005350357433580932 7.05409492427104e-05 0.19033799678884908 0.24834321614332067
35965000.0 0.9451770440398148 -0.30726556605021327 0.01697158760528139 -0.016455705462126477 -8.116606727819639e-05 0.0013316977454110378 0.20576747361687292 0.24756290952266966
36964000.0 0.9440211696057313 -0.3149509995812478 0.018903829237012573 -0.01689775700730333 0.0014086729145284442 0.001786869072504737 0.2091936545785261 0.2478838564107802
37963000.0 0.941115237273803 -0.3239983217488534 0.024660422788682593 -0.021890908881392394 -0.0023670601130715506 -0.0016348392750376712 0.22356850454439295 0.22992661863469344
38962000.0 0.9391877263213031 -0.3323544874007587 0.026327921517140376 -0.02481079137869844 -0.0030994669622353083 -0.0019542794273112096 0.23041853635867265 0.23328690348651604
39961000.0 0.9349271358526147 -0.3430320716601096 0.02991187578210952 -0.029547357547598904 -0.0017155231061688682 0.0020096124359439854 0.23983963298247354 0.22613754687763019
40960000.0 0.9310813999502763 -0.3496114954154589 0.022146648796875994 -0.023811917855305793 -0.0007711854955635168 -0.0005544932967903696 0.2559453497926258 0.22514144249677895
41959000.0 0.9286634474997771 -0.3591528171612034 0.02917060431210275 -0.03271663236836476 -0.001105544447085067 0.0021680988092841556 0.2625864496066015 0.21801434045493365
42958000.0 0.922035074548259 -0.3695627620429127 0.034671108260325344 -0.04370122435688502 -0.0030655760178585167 0.00022133494173021796 0.2689147718599427 0.20758836317461282
43957000.0 0.921564790675284 -0.37357515538994296 0.03312351711499612 -0.04553787497054027 -0.0006760302080766297 0.0025663650831999466 0.27064415886205884 0.21207958004213576
44956000.0 0.9172566903899977 -0.3811015996552464 0.03537886893771535 -0.05599902607803067 -0.00029458033062602343 0.0027480248269090043 0.29086006823102245 0.1977419281428321
45955000.0 0.9126576308016531 -0.39368038150829104 0.04100305610217479 -0.06306499222835049 -0.004229524215898324 -0.00160940655072908 0.2945631625867312 0.19074310594855837
46954000.0 0.909811408431816 -0.4017362981114792 0.041634912763908224 -0.06929735525394712 0.001121775809112712 -0.0003982470331471669 0.31711205000644344 0.18639134005020438
47953000.0 0.9054866999719612 -0.4109282200188832 0.03759561674007794 -0.07625551828886333 0.0007371008678170319 -0.001104451378745293 0.32892246706698014 0.17396382006489558
48952000.0 0.9013988227990116 -0.4207591371729864 0.04288386719375745 -0.08485052895997862 0.0002939940340629815 0.0034154173795687658 0.33765803280216244 0.16353741441081238
49951000.0 0.8976813505183436 -0.4278717727971344 0.04243696322906918 -0.08943268531909701 0.00044602774176461625 0.001613137146611024 0.3392255143911343 0.15395402698880703
50950000.0 0.8931306942684942 -0.4360952925777547 0.04358592141347839 -0.09679558353451921 0.0009779821906654366 0.000663054999379564 0.34496304379276177 0.14473823393365398
51949000.0 0.890012653975889 -0.4447060915793647 0.04515268421081152 -0.10831188016468338 -0.002482905917092994 -0.0010179966143880818 0.35238003228453196 0.14416287523198273
52948000.0 0.8862987879771013 -0.45293538272067163 0.04689039825942913 -0.11616793309184821 -0.0032582705822430994 0.0022386607428749035 0.3767902993397027 0.14105163780863103
53947000.0 0.8826884696228258 -0.4586507742661226 0.051861152485356575 -0.12832993867266748 0.0012466809674670585 0.0005608791339641716 0.3590215652832209 0.12986339403229055
54946000.0 0.8757352868005829 -0.4707871867375969 0.04912831926068033 -0.13579442795557065 -0.0013597868350322662 0.0014325594248661843 0.37809297671752323 0.11784824756407053
55945000.0 0.8732314645352449 -0.4783426589816459 0.05342265676267493 -0.1478631146886113 -0.0013341596356989138 -0.005304048899187464 0.37850457430301027 0.1067366788011833
56944000.0 0.8665220855105692 -0.4863459902604461 0.055561684161036844 -0.15848929787638402 -6.221901944510068e-05 -0.0020630647224688056 0.39194854751058483 0.09944270896929958
57943000.0 0.8643761311808629 -0.49551011034065057 0.05870272603957711 -0.16863692626388907 -0.0008762130308457313 -0.004994349668482988 0.39825700600881697 0.09392347799875779
58942000.0 0.8565806875314274 -0.5002929093493002 0.058065367406183885 -0.18136677560673806 -0.0031384981401880226 -0.0017924748288989515 0.4198710891046774 0.08850229583610837
59941000.0 0.8543538640100975 -0.5112819483797719 0.05788375778874707 -0.1930926738740071 -0.0005294874101827614 -0.0032371314034247904 0.4157864362831015 0.08366490160538265
60940000.0 0.845959043291431 -0.5164089153475632 0.05542155068237407 -0.19858889796411341 -8.709655036426118e-05 0.00027384304882579314 0.3981187255329329 0.07815641863592018
61939000.0 0.8433089265182819 -0.5241040088947831 0.05989638154292884 -0.2054699032013056 -0.0010148297654957975 -0.0006800757549749475 0.4124606472681177 0.07717348287802864
62938000.0 0.8377458560675128 -0.5341980082017435 0.06150203483494041 -0.22433772657547318 0.001204278248999915 0.0034143592486271415 0.4338221981210102 0.05340270823296357
63937000.0 0.8327649445707779 -0.5414216733887084 0.06245927131826287 -0.24756036778295437 0.0006411277442874776 -0.0013698741204117447 0.4338457465908077 0.0403921630130732
64936000.0 0.8245699478504998 -0.5482130663964734 0.06365224253909117 -0.25955452237392185 0.0009388381518017713 0.00011475548987248564 0.4263560314517574 0.04076361998827027
65935000.0 0.8221829318932133 -0.5583252485885621 0.06109130140765037 -0.27473347887812943 0.0015782298555553388 0.0026200802413731098 0.43546976197024073 0.016061184026152968
66934000.0 0.8176889187246043 -0.5654990859585781 0.062272625643835136 -0.29080541631954304 -0.0018218682107204514 0.0015504391348473698 0.42326784457499433 0.012650623689304037
67933000.0 0.8130693833542957 -0.5731024101012534 0.0620084948372264 -0.30868461563385635 -0.0014703485956233655 0.00021592515659227103 0.43320471751790157 -0.0020640643994473407
68932000.0 0.8049940902237804 -0.5776414356629795 0.056198091338013734 -0.3188903268812873 -0.0004944110593579191 0.0033580359743769243 0.4473206553491803 -0.012794623360608277
69931000.0 0.7997523408100682 -0.5875141190693348 0.059384104148218826 -0.34004217764929323 0.0011451338740665008 0.0009044045880696576 0.43649515291451746 -0.011742433513630201
70930000.0 0.7936124839303683 -0.592934458253078 0.058224300601132886 -0.3572937130151032 -0.00030529583498501654 0.0037336392167375046 0.4413830588529825 -0.03561489051709297
71929000.0 0.7889239726128038 -0.6028154324806491 0.05093459926303543 -0.3752762115653935 -0.0005766531619010731 -0.0028976057714793597 0.4444072521811309 -0.03537173542274489
72928000.0 0.7813198410193917 -0.6138053287724314 0.04192072064689293 -0.39384000341594716 0.003394975537684595 -0.0016472687878798646 0.46132313918739964 -0.040233026230860724
73927000.0 0.7749161114666728 -0.6181051382365069 0.0348268167494071 -0.41432398080342603 0.0012211978446309095 0.0015001429277468267 0.44301669325936216 -0.050628796016004944
74926000.0 0.7709156253206154 -0.6285546233244368 0.029715942223823212 -0.43597202951031255 -0.0015787821523639862 0.0015359376181918781 0.4561380037852818 -0.06095273270148141
75925000.0 0.7605261654621785 -0.6322028031442087 0.017766453629948904 -0.45727687389635713 -0.0006766828911086562 0.003874816451622558 0.4626808030137011 -0.08197071035190998
76924000.0 0.7584695857883682 -0.6416617675559462 0.004412252528253205 -0.4847863522790085 0.00169548891915245 0.002055835533555945 0.4607245193828984 -0.07879354969410432
77923000.0 0.7490812098318578 -0.6492987120384888 -0.007244391450872137 -0.5100111125130083 -0.0016253021543518468 0.0016107254023138907 0.46567689296396586 -0.09494217187018153
78922000.0 0.7456333873153889 -0.6559528071016841 -0.023573000652458077 -0.5328791388253525 -0.0006495635270628869 0.0010945784831037117 0.4578979288022094 -0.1044163926720645
79921000.0 0.7359581623270367 -0.6619327182019416 -0.0388161669528847 -0.5620208399699479 -0.000810135979439753 1.4281450379849616e-05 0.4569857666303019 -0.11912680119232308
80920000.0 0.7297008025687439 -0.6723742183014837 -0.05442042841980837 -0.5918855780770507 0.00019245099825455496 -0.0016191500559617894 0.4620277502163878 -0.1276040862942216
81919000.0 0.7245608855039076 -0.676999891517564 -0.07123527973064117 -0.6218075464729398 -0.0004258702922585381 -0.0019392992025491133 0.46559562438366503 -0.133841091936614
82918000.0 0.7163811538528952 -0.6844516968094932 -0.08581282478126827 -0.6557902467169356 0.00019716981756880646 -3.8123259591535145e-05 0.46554675674915685 -0.1384810943065564
83917000.0 0.7071944415454438 -0.6943761153094395 -0.10494051082008041 -0.6854026318316998 0.00363987233423123 -5.265344484548954e-05 0.47423637169142274 -0.14812567499577756
84916000.0 0.7033186162240256 -0.6978527846077005 -0.12046996161038093 -0.7206432851276653 -0.0037585256790905273 0.002650691432742991 0.4668196298083613 -0.1706935871513179
85915000.0 0.6953608209848422 -0.7053645486762757 -0.14153938829725646 -0.7559885265488084 -0.0009317297678530911 0.003281800454793134 0.4641605329512677 -0.1802442577931268
86914000.0 0.6871270589942212 -0.716451334274668 -0.16017744069779868 -0.7931852755343504 0.003600828627030321 0.0016657411377698935 0.4557883098163645 -0.17103659779924804
87913000.0 0.6789423776128901 -0.7206562561078309 -0.18223244569938535 -0.8221827150496541 -0.0013919264695879065 -0.0019944163159331973 0.46236541876662507 -0.18003862689368472
88912000.0 0.6759978815234391 -0.7270424925379688 -0.19350244773475853 -0.8617760647144113 0.005372193352488563 0.0007923661467615204 0.4537142162492827 -0.2013099385879871
89911000.0 0.6641506841505121 -0.7371491788365546 -0.21221372323598803 -0.8968338985293316 0.002230671591301052 0.004650911670012927 0.4611254073706068 -0.2072995421830255
90910000.0 0.6586155734610067 -0.7418020185734392 -0.23342097647587653 -0.9348620354929643 -9.69155233749987e-05 0.0035748332682732143 0.46451078156835834 -0.20484487114827377
91909000.0 0.6486645309341661 -0.7466615113831422 -0.25338622483687495 -0.9681871948961712 -0.001244878546217756 0.0021671782414159585 0.46779466362467564 -0.2185453781649855
92908000.0 0.6412170332595482 -0.7549725207865671 -0.2733776658432309 -1.0023263758268097 -0.000739240816777712 0.0035878080691873443 0.4593161818232546 -0.22673518024406114
93907000.0 0.6359115049238243 -0.7601017374342178 -0.29494225558224074 -1.0354183204758647 0.0023904755768919166 0.0026681437754332614 0.46176753603611215 -0.2560746195313738
94906000.0 0.62315884357718 -0.768267975842773 -0.3134282129108927 -1.073786017962836 -0.0002537255812082045 0.0019338201666371795 0.4524099886340505 -0.2508063923530225
95905000.0 0.6167836879014686 -0.7737528472888896 -0.3397594471469855 -1.1109751011045992 -0.001385788450296601 -0.0015694958181608975 0.4702042109508381 -0.2723605275826505
96904000.0 0.6070076574945084 -0.7836654608141346 -0.3578421563466846 -1.153353517344164 -0.0011107052978392166 -0.00364985294468858 0.4492907937964858 -0.2721768883405123
97903000.0 0.5973050657154737 -0.7886867235497462 -0.38919409879664896 -1.1836333438873137 0.0008507667508182051 0.0037927446431050738 0.44526791451574227 -0.28887634283167196
98902000.0 0.5938363780624206 -0.7958620981770056 -0.4164631235376715 -1.2242485531938547 0.0033687263492028973 0.0018549123820510013 0.44759979454286003 -0.2982275135700753
99901000.0 0.5825243578851773 -0.7993463744556936 -0.4450762143087273 -1.2594759382130378 -0.0017798531610199579 -0.0017052728633586071 0.4578461987225329 -0.3018476739090876
100900000.0 0.5779596904530211 -0.8055031551902501 -0.47948067511682846 -1.2943944942167016 -0.0016516464557410795 -0.001169983064068421 0.4628468856776937 -0.31789820101796734
101899000.0 0.5660833306556687 -0.8138792275705191 -0.5132259290307086 -1.3365243145530745 -0.003391213245826481 0.0010527794769233613 0.4453104785618075 -0.32295414612767237
102898000.0 0.5566408536198568 -0.8169541479803852 -0.5502883485683867 -1.377777424947106 0.002160003857202182 -0.001401255622137409 0.45369529049105906 -0.33643943234441703
103897000.0 0.5463739268054151 -0.8262118206442165 -0.593839059565824 -1.418000105831441 0.002209588147514044 -0.005559504726373156 0.4627685479014985 -0.32454529005693256
104896000.0 0.5415079078717535 -0.83630752086679 -0.6444941629356323 -1.4541259018623176 0.002426359198990495 -0.0028393287915763126 0.4370547478692316 -0.33027900449462794
105895000.0 0.5277031754247408 -0.8375603300829411 -0.7008979371453304 -1.4970031211822572 0.0007181296282245372 -0.0020582434994030926 0.43523622787991656 -0.3637392952003692
106894000.0 0.5185410793392999 -0.8437539381920738 -0.7573011955981048 -1.536537030379249 0.004626099864611721 -0.0018464264306057312 0.43058123155229755 -0.3677218733294319
107893000.0 0.511054533256446 -0.8509344633378272 -0.8096790043639823 -1.578262665305161 0.0013635143715228708 -0.001332238028113066 0.4503019628981308 -0.36987756202572014
108892000.0 0.5009220359491753 -0.8523584014799954 -0.8748183328503947 -1.6206627557295368 0.0001814620269599842 -0.0029016835044092205 0.434017260765142 -0.37191035375601295
109891000.0 0.48942584608375833 -0.8610038069963438 -0.93574212346839 -1.6586307651996777 -0.0007683575050726096 1.9669479189716137e-05 0.44414028498223024 -0.376035322973658
110890000.0 0.4865687875732562 -0.8687930883268418 -1.0054145715260197 -1.6821008460146347 -0.0014653307605520887 0.0016691080705514057 0.4305815116713951 -0.380678985671361
111889000.0 0.469900471778453 -0.8665178485267268 -1.07437072707618 -1.7317104428286505 -0.000273748546915764 -0.000669619599885269 0.4312824476781631 -0.3990477935444982
