! Created with skrf 1.9.0 (http://scikit-rf.org).
# Hz S RI R 50.0 
!freq ReS11 ImS11 ReS21 ImS21 ReS12 ImS12 ReS22 ImS22
1000000.0 0.9877382875386506 0.005488199185722137 -0.0002503914626988824 -0.04267541459783306 -0.013768168256256786 -0.010081467722876615 0.31663194548758267 0.28327199058987185
1999000.0 0.99981012503591 -0.006511636270394875 0.007303205779261997 -0.019195737934587308 -0.005110160615098069 0.0026163929903400465 0.27222458417696294 -0.027620495989203967
2998000.0 0.9964208766244073 -0.018619704167842525 0.013573061461157363 -0.00949357376026777 -0.0008747382874940219 -0.002824588697779028 0.18002733112544292 -0.14301202794468068
3997000.0 1.0038296328745484 -0.031099348458766368 0.013484208031120722 -0.010330310432095422 0.0034454482155093697 -0.00664010467802604 0.0773092522492657 -0.2259413423096787
4996000.0 0.9947443876089034 -0.03777630917754896 0.01426016740145203 0.00022132956301597443 -0.001740761306295318 -0.0028828028102707644 -0.043089981321809114 -0.19986962487565774
5995000.0 0.9929145348003096 -0.051451571557386194 0.007917964198965078 0.0024833073036592376 -0.003170918420180647 -0.0025188604628004047 -0.13511080220168964 -0.09614495056250166
6994000.0 0.9940151440064496 -0.060241874794259326 0.0005445194483090903 0.0023678854796026693 0.0010238749903173482 -0.00015764760132222098 -0.14114567889576368 -0.017676157587382085
7993000.0 0.9973679854048192 -0.06773980845538519 0.008559402894332449 0.008009452663034676 0.005545247830764291 0.0007414643069149845 -0.15532588647480822 0.033159998404327394
8992000.0 0.994280524173324 -0.07461733935426823 0.0012970920434519839 0.005502223009185792 0.00016049673897243797 -0.0036416708708624694 -0.15504824389329935 0.07461333698484451
9991000.0 0.9940484975447087 -0.0833616780968165 0.0026225256400352896 0.007285670221040579 0.0013864109135040064 0.004928738679278602 -0.13378216771144907 0.09993805842833707
10990000.0 0.992595541354364 -0.09456676276809428 0.004122791623690528 0.004654405029316554 0.0018797913307231889 -8.764126098444233e-05 -0.14662462719569586 0.11065578226971787
11989000.0 0.9917987855338597 -0.10201096839831067 -0.0010486995183904045 -0.001764738537270531 -0.0019394288663246173 0.00373770531688452 -0.12397790916272156 0.14174687173846187
12988000.0 0.9906261232857961 -0.11212125362193637 0.0006734249185002375 -0.0007361362349918312 0.0013619332138772955 0.0021037410278211197 -0.1151686507496239 0.1664005225187444
13987000.0 0.987983551549475 -0.11795153140034179 -0.0015815454911453036 -0.0033369197744683586 -0.0013820713763050703 -0.006806330726360438 -0.09434658832077956 0.19926769466433672
14986000.0 0.9873964232258968 -0.12797460653077164 -0.0022076796916324077 -0.004763512343602548 -0.0017882328607633014 0.001382137328700118 -0.08141817919579351 0.21059056214059468
15985000.0 0.98880842636879 -0.1345426252979972 -0.006529410817278108 -0.002149563856835061 0.0006929117244768438 -0.00042692070121104036 -0.058122305497770366 0.21942513652638765
16984000.0 0.9848918485599358 -0.1471937540529233 -0.0004951009031352871 -0.002664939035569786 0.0015430091378139956 0.0014131050570720175 -0.06046154563808576 0.2136172833084057
17983000.0 0.984882762107411 -0.15222327683267411 -0.002102854439234004 -0.006314484360507503 -0.002048505285699269 0.002207049982796528 -0.05338693506047251 0.22447412034443723
18982000.0 0.9826040521726935 -0.16550671174850462 -0.004957344621509757 -0.007870771057506899 0.004071351249548618 0.0012794541629143686 -0.027313843063221294 0.23547207804348635
19981000.0 0.9820478597112343 -0.16766437447944574 -0.005769450953586357 -0.0061534943114836356 0.002325386442010514 0.0013196397345539737 -0.01777295235352288 0.23398288962556515
20980000.0 0.97924993418733 -0.17763530784759554 -0.0035332621023404075 -0.005443649640633115 -0.0008463649223424559 0.00385981805493073 -0.002074129630240839 0.25370051228182683
21979000.0 0.9770944898840181 -0.18739942762530096 -0.005803139595118798 -0.0016097238421432566 -0.0020830966959941434 -0.001428288240145624 0.01283704786352907 0.24541413815953936
22978000.0 0.9764580261922701 -0.19726305591695575 -0.006255514890249492 -0.0004201009306201104 -0.0019409460088748846 0.001434717399048557 0.031195626607435717 0.2504924979483606
23977000.0 0.9782282717435518 -0.2029517160869151 -0.00885285271128192 -0.0022220267899483903 0.0026471100704763906 -0.0004195050831723955 0.052147360338497074 0.25601133539321447
24976000.0 0.9732149775265039 -0.21163527521442763 -0.008316817448086045 -0.0034743161431296864 -0.004123939581092092 0.00026319686306256656 0.057459382493194766 0.24536813277942338
25975000.0 0.9654516526886441 -0.22568864608962055 -0.003581349498653769 0.00095142519900011 0.005048382641177665 -0.023566726627138015 0.08574798398994317 0.262838927260443
26974000.0 0.9680265105042342 -0.23034684392670904 -0.0016373747131516693 -0.003774611020122668 -0.0035491856243369205 -0.0012971044690772387 0.09400571008558214 0.26331208767032604
27973000.0 0.9681892479121841 -0.23624620153610829 -0.004092158312753846 -0.0021401243234587105 0.0010509013708788944 -0.0018645495568208588 0.10075361545601405 0.2468513133235099
28972000.0 0.9659348969977082 -0.24467532419724447 -0.004054524398213473 -0.001172971617214872 -0.0026292387701434285 -0.0038684720032688196 0.11038493283653919 0.246916859292096
29971000.0 0.9628436208812282 -0.25688866879900685 -0.0028224600484013174 -0.00038134112154268325 0.0014979477661229393 -0.0005403735204359073 0.15478188331074105 0.26426836426780287
30970000.0 0.9621484422094024 -0.2613746027429221 0.0027448146630079536 8.125569859046532e-05 0.0016506963313061005 -0.003502251014106867 0.16637919339958168 0.24282590000390114
31969000.0 0.9604854521898759 -0.2701061391686785 0.006578035608853849 -0.0013343338559561372 0.0005039451478031815 -0.0018885159793355284 0.14837502749903572 0.2492971503480543
32968000.0 0.9571029258633894 -0.2791036014614276 0.009430103432519609 -0.009421609924321953 0.003889799705674705 -0.0010595977653491803 0.15810725429620895 0.24630376528164144
33967000.0 0.95611425854002 -0.28763003518142544 0.011317626232308493 -0.00905160106192063 -0.0010241261259832481 0.001819573546769282 0.18554098245510975 0.2495467594652206
34966000.0 0.9521533505567759 -0.29983277540073167 0.015091989792386042 -0.012042514784982224 0.0039183128408509784 -0.0037333025114129627 0.18956768250031455 0.251393719363591
35965000.0 0.9501061529996525 -0.30567259936441965 0.016265095396372477 -0.015345543451989662 0.0017527431103970296 0.004184037302935497 0.2166436404346048 0.2501684128047377
36964000.0 0.9480751888190696 -0.3143435975579679 0.016362241464285988 -0.015453077927532767 -0.0009815989472022639 -0.0016819490985613707 0.21201734129579133 0.24471804429968771
37963000.0 0.9421583633745908 -0.3247640168173076 0.02549502615513252 -0.018383338260476764 0.0012800468216120464 0.002024462398312426 0.22146671453056868 0.23698763178705254
38962000.0 0.9416401629061075 -0.33134134634566687 0.024896015895628773 -0.023768298989717367 -5.3394802210697024e-05 0.0014700812740253244 0.23647060647356252 0.22941044900794194
39961000.0 0.938647573708213 -0.34291797011484415 0.02548765758197193 -0.026855658640296813 -0.002461026172217304 -0.0007865481637620438 0.25718682901687706 0.222448206727417
40960000.0 0.9339538159169261 -0.3475986515281849 0.022408423642943685 -0.02590885270883993 2.7405944841561533e-05 -0.0010028676728719005 0.2680255050874775 0.22519287256838869
41959000.0 0.9320261235764971 -0.3574125037977383 0.02855201302930033 -0.033633490942432134 0.000472139281504179 -0.0004712101109449134 0.27108408816270096 0.21529078396205673
42958000.0 0.9278589585789412 -0.36635611086182607 0.030011524156050684 -0.04131799155768327 -0.0002201944189225177 -0.0035355280816392024 0.27832443314698047 0.20259847996323171
43957000.0 0.9264194489315007 -0.3708335622006921 0.03364077001180459 -0.048478279776131374 -0.0018314544387060662 -0.002834747699345366 0.2868215264437762 0.20648219046073252
44956000.0 0.9207805261855698 -0.3807654132696732 0.0324876065976972 -0.0534070229566605 -0.0009991845267433503 -0.001845782473970502 0.30072000822913353 0.18971800838789624
45955000.0 0.9169751778580133 -0.3915425229030238 0.031593381020923565 -0.05653134004635611 -0.0007218405238796171 -0.0011196653445446098 0.30347900918276455 0.19278747075846894
46954000.0 0.9143928505546574 -0.4002673402921204 0.03498266344399949 -0.06381492785308045 -0.0009217908412299379 0.00028526099867420265 0.3236508728068093 0.1856229141361339
47953000.0 0.9111550816486377 -0.40722382787339995 0.03442435832699153 -0.07173580657931497 0.0004897842906700091 0.001904060937383275 0.33823552073816887 0.18489322793163562
48952000.0 0.9042357328069444 -0.41848363423805285 0.0367171585408183 -0.0784527745344192 -0.00121400773587565 -0.0030769947545834517 0.3382071083371084 0.16873526993563454
49951000.0 0.9007599746084065 -0.42406447300435673 0.03505664914816256 -0.0880214658757887 0.0005392470197271813 -0.0005394315318076549 0.3501635215164567 0.14927063226634366
50950000.0 0.897699535281262 -0.4326029736060609 0.036258198445524484 -0.09622496076515161 -0.0011744599288450615 0.0022737747775092533 0.35320700926014476 0.14785924312502072
51949000.0 0.8952114626301677 -0.4414439069469141 0.040212281314181995 -0.10120193761716764 0.00022148136556099485 3.518473451721605e-05 0.3549721733534418 0.14592859935507532
52948000.0 0.8930534664328011 -0.4489655086722786 0.04002278681746983 -0.11178990007206985 0.0028132983080584135 0.001522702212146442 0.37787167974664587 0.13633635399792787
53947000.0 0.8846786847820803 -0.4589364972436256 0.041990417136737054 -0.11953135447476874 -0.00013173314236201498 0.003040706336435572 0.37499521017508763 0.12367210710076004
54946000.0 0.8808403436926607 -0.46585249939910744 0.042715347175800174 -0.1304539737428142 0.005680685527876147 0.002224826205769454 0.38089623470617595 0.12349486854382954
55945000.0 0.8771713223453568 -0.4742991721897668 0.044364224911913726 -0.14191365133339054 -8.372654922538432e-05 0.0023398784432643715 0.3902770767140136 0.10095358871171389
56944000.0 0.8733041170879239 -0.4827718327815758 0.044052921869278554 -0.15167451081648242 -0.0019376526849485447 0.0028544027442026633 0.3932289177218132 0.10927602045435886
57943000.0 0.8670546155439112 -0.4952222379437342 0.04515540442195888 -0.1599387375450342 -0.001566571838785065 0.002399862423958003 0.4031304087018475 0.09309104484735023
58942000.0 0.8617987714059524 -0.4987919321081596 0.04548566600253343 -0.17007123016417555 0.003315475066660258 -0.0032724982527961963 0.42059399306932116 0.08892349074099479
59941000.0 0.8610973821692389 -0.5062543377308324 0.04812721680258652 -0.1796980972466788 -0.001564925328767158 -0.0012280168638430838 0.4122061455204576 0.08501846793730969
60940000.0 0.8522108433398258 -0.5147895802510214 0.048727118353462856 -0.18815414964737723 0.0004958750678492982 -0.00011970441593547807 0.4176737543440486 0.07680539474403728
61939000.0 0.848568089215054 -0.520862607387891 0.05034850476070479 -0.19404662245051132 -9.49740164642892e-05 -0.0005439261803385096 0.41484708184778907 0.07222348227227626
62938000.0 0.842801032300643 -0.5316123703206788 0.053966358448119305 -0.20929416141846646 0.002044716622389199 0.0006964979444516004 0.4368409539890303 0.04833100153311451
63937000.0 0.8390343076278388 -0.5392759539618589 0.0535051706391298 -0.22816622609949883 0.002346974328020995 -0.005863813140210933 0.4366430060003542 0.04551218670009882
64936000.0 0.8312888337746818 -0.5453164627063167 0.05218042527426158 -0.2415527870441722 -0.0024820179095318418 -0.0004154796471106441 0.4292622004036461 0.04629677090100325
65935000.0 0.8286307595393343 -0.5556377838639719 0.05151107969957633 -0.2549656163403095 -0.002091755126902095 0.0013297019186565087 0.4411959388254835 0.020453720938346357
66934000.0 0.8230929126917153 -0.5615674661647237 0.051432390487925986 -0.2707874780147478 0.0008307057354096499 0.0002229408170737532 0.44318873966022376 0.00731849053236923
67933000.0 0.8208103951455713 -0.5684778103945404 0.05412940058311461 -0.28083756508366664 0.00023106580372091485 -0.0026754850242634823 0.4477884883872298 0.0071664507037813826
68932000.0 0.815803268425563 -0.5664263355028336 0.0532558127942771 -0.2967634070734816 1.214639539422503e-06 0.0006767947811245883 0.4667809255124851 -0.0035106983732341316
69931000.0 0.8072083324335205 -0.5849584755278745 0.05276972271910135 -0.3130526811678813 -0.002908305735937809 0.0016933213468244112 0.4425347776730425 -0.021722711499047812
70930000.0 0.8019650732942218 -0.5904465838754538 0.05150154347204304 -0.3257751386465936 0.0008947506423446853 0.0001044197439484658 0.4457939444443301 -0.02764526828890408
71929000.0 0.7966426323767809 -0.59961669187723 0.042167463797297695 -0.34473882552196466 -0.00373591270524658 -0.0009188686646644244 0.45784411334415315 -0.04094011879008465
72928000.0 0.7891823309128995 -0.6119557683720964 0.03758727483450233 -0.3589628884378892 0.001829006606655127 -0.0005785829101934293 0.4646769703761597 -0.04739672937918424
73927000.0 0.7830821953268694 -0.6160368620488962 0.02811489019736881 -0.37935617669105487 0.0014484826429945867 0.001820852390240191 0.4570419790363118 -0.05196571367797804
74926000.0 0.7779068719291983 -0.626250343207355 0.025430253954350408 -0.39833380632673354 0.003152916201329606 -0.0011188237546161097 0.4642409976810938 -0.06155248029375163
75925000.0 0.7727988995213018 -0.6288223530685475 0.016823943464589923 -0.41945391709657487 -0.001104285904518009 0.0032000911067567813 0.46166510710803954 -0.077079140887288
76924000.0 0.7650494381500343 -0.6375732387375719 0.0006811239093304118 -0.4410138825904125 -6.405668307845876e-05 0.0014333904498440738 0.47193775088729095 -0.08208096391030781
77923000.0 0.7575552581415903 -0.64585009749866 -0.01203871688463137 -0.4632422628067647 -0.0018912115584560187 0.0033033066161139743 0.4632241578350415 -0.08662016643955724
78922000.0 0.7524656932248729 -0.6539083773623116 -0.028520425243337203 -0.4895216809192717 0.0027744911129124143 -0.00013716606457149982 0.4642569598776688 -0.1090935170857766
79921000.0 0.744233648116532 -0.6593591191757023 -0.04655246120963673 -0.5164621052779819 8.162875743398043e-05 0.004278381059632344 0.4556304705497031 -0.10856442468256386
80920000.0 0.7385113962262534 -0.6703578286064464 -0.061990645741462444 -0.5440507426670388 -0.0017124555037249729 0.0017953739542953297 0.4682373088109396 -0.12460938045544077
81919000.0 0.7347221280108379 -0.676060532312918 -0.0757457301773171 -0.5687889480685302 -0.0015253364240446707 0.00025763032135720393 0.4686339480605796 -0.14131056489220462
82918000.0 0.7242025184078322 -0.6818064812230473 -0.09492958890950996 -0.6002211673487294 0.0020455930880957087 -0.0020871382290675094 0.4716343542435923 -0.1522576514144024
83917000.0 0.7153826211286892 -0.6921464989494973 -0.11051194164415389 -0.6289185977461942 -0.00025071950280550453 -0.003726449282278502 0.47680405994458536 -0.1557563144863164
84916000.0 0.711583755571484 -0.697210503853594 -0.1291621563543741 -0.6625506507965171 -0.0036465162034557495 0.00019268737025468383 0.4726965885390496 -0.16488314335778667
85915000.0 0.7036190015925242 -0.7039852046108209 -0.14424309387289813 -0.6932890099943704 0.0002685515774576939 -0.0010757387767116068 0.46672481042723063 -0.18182494151426434
86914000.0 0.6964754319368327 -0.7150609590282512 -0.16442430545891218 -0.731040782377669 0.0035167425983865194 0.0024993213035529533 0.4627361009809484 -0.17181287605691697
87913000.0 0.6880513060290959 -0.7207059361685981 -0.18180758342671277 -0.7597822974224517 -7.395936087568589e-05 0.0010464240746055828 0.46837128882801704 -0.17735886238804707
88912000.0 0.6844921539035509 -0.7270716598564941 -0.19580281558398102 -0.7917956253348369 -7.525419861406882e-05 -0.005561599397311169 0.46295597120736626 -0.20702408028160463
89911000.0 0.6729207883530742 -0.7370438969473102 -0.21062140749045544 -0.8260939293565469 0.002384574299846778 0.0017310518526925322 0.4737162173853326 -0.20690555846117892
90910000.0 0.666776159462028 -0.7418229020582123 -0.23106431151527124 -0.8559251474667476 -0.0017680946289974388 -0.0015631394790966064 0.468103870534654 -0.21321077681833037
91909000.0 0.657236106813954 -0.7469717644041419 -0.24463582364156491 -0.8917153656521869 0.002337904561117905 -0.0013743859024320992 0.4706643136865898 -0.22331780831346923
92908000.0 0.6496786341183746 -0.7555988720505632 -0.264945793221725 -0.9217208175191178 -0.002747693154127112 -0.0001922899334962808 0.45310330400158 -0.22884567904125197
93907000.0 0.6443744978937558 -0.7596288167316785 -0.28424410314912596 -0.9581011626936632 -0.0032723997847345257 -0.001649689119976679 0.4665713252784306 -0.24561997951292333
94906000.0 0.6326114882212759 -0.7689281797752391 -0.29804489279376145 -0.9878100952392395 0.000826771599434014 0.003023080794581799 0.4578945109476382 -0.24873216213634952
95905000.0 0.6263302861236686 -0.7735941451027427 -0.3177218833564068 -1.0234384926303377 -0.004926280689075258 0.00145328228112924 0.46029946949886763 -0.2719305859940382
96904000.0 0.6162572525606467 -0.7852536884780634 -0.34006178866459674 -1.0569526367771807 -0.000340119331567229 -0.0007478641861456272 0.4520596347992136 -0.2765355314208313
97903000.0 0.6056402327043824 -0.7885188686510817 -0.3619021396619299 -1.0881821700726937 0.0022231656725423474 -0.001429076739377327 0.45141825677419056 -0.2894621987046857
98902000.0 0.6009724877710506 -0.7953538234221763 -0.3780268363349322 -1.1257253814672574 0.00020992816243480057 -0.0009188478361060378 0.4539485264498644 -0.29712598500803794
99901000.0 0.5923983317028293 -0.8013319741253963 -0.4107310783842174 -1.1570577103318302 0.00045222974243647125 -0.004738105033130803 0.4567486405507562 -0.31166294935400335
100900000.0 0.5824981045552877 -0.8044247937312083 -0.4410489506629124 -1.1847849238339185 -0.000976814824036876 -0.0021028787980389664 0.4586608474493125 -0.3122890937850352
101899000.0 0.5733354918397623 -0.8129543042440073 -0.46699022391245437 -1.220937689685758 -0.0003758708501833382 0.00068892722007441 0.45233354777433316 -0.3218523948689601
102898000.0 0.5629913378427406 -0.8201166773691662 -0.503618509366093 -1.2599462548568787 -0.0007081797360765305 0.0017430630682334978 0.45393513554327425 -0.334633922346957
103897000.0 0.555786574740324 -0.8248336958844602 -0.5362799280810061 -1.2969653129877572 -0.0013905644592765805 -0.001774283308831155 0.46338978616301524 -0.3314484186970803
104896000.0 0.5470292590485234 -0.8341740808786998 -0.585059831690987 -1.329821070988768 5.782537498645632e-05 -0.001385499886810416 0.4400526961148887 -0.3385354281342168
105895000.0 0.537113396717233 -0.8382587219688659 -0.6304239852634635 -1.3669968802160932 0.0027786401140397106 -0.0010760146237153952 0.43495890257447817 -0.36235726384219985
106894000.0 0.5245314685251656 -0.844992101106178 -0.693987620000384 -1.3953229306086108 0.0022687200041666355 0.0018211618625465836 0.435289011420302 -0.3692424303702598
107893000.0 0.5177030493607269 -0.8516385504142029 -0.744721949686127 -1.438374531914304 -8.988772852143902e-05 -0.005038304382190229 0.44478982175102083 -0.3777424447949887
108892000.0 0.5082240647433249 -0.8531189141290754 -0.7995696917025605 -1.474704438907903 -7.986116463585398e-05 -9.888075355392264e-06 0.4241831882997354 -0.3820055734041995
109891000.0 0.49663761153637553 -0.8622226261201014 -0.8554870401219665 -1.5061666704197638 -0.001989149432423067 -0.0010309468222619391 0.4365098647564976 -0.38229152575000164
110890000.0 0.4916325046997688 -0.8676923054860126 -0.920599614236077 -1.5246966954343364 -0.0012146486600743208 -0.0011054017770944903 0.4255274318389268 -0.4014030076277052
111889000.0 0.4767696638327791 -0.8684109363537397 -0.9770908846452164 -1.5697577301109966 0.000576817078118738 -0.0027315360861668225 0.4126532502439799 -0.4058068476912129
