! Created with skrf 1.9.0 (http://scikit-rf.org).
# Hz S RI R 50.0 
!freq ReS11 ImS11 ReS21 ImS21 ReS12 ImS12 ReS22 ImS22
1000000.0 1.0039282223269783 0.01626607368368284 -0.010250478516293836 -0.058552672605501094 0.0009164254557281153 0.00021152621707844194 0.2978479400239605 0.3428042919122851
1999000.0 0.9963336465403386 -0.015283194712874142 -0.003572838096982254 -0.028156149641780783 -0.01020065329571171 -0.0007749727421463425 0.24336379024595894 -0.05473449926116889
2998000.0 0.998693826712197 -0.02599283407707486 0.01434792736848733 -0.019447473074891048 -0.0011367795510520216 0.004260793715226069 0.17649619880633038 -0.122734380089347
3997000.0 0.9969779148530032 -0.03599654547269546 0.01572445473989337 -0.0029264525623944287 -0.004075684917074598 0.0034339574351658214 0.0872411093987592 -0.22138697313688926
4996000.0 0.9910200682169757 -0.04160593818267621 0.01578138347681273 -0.0010360609479090073 -0.0006705237120142075 -0.0013729772755773082 -0.03674295091924433 -0.18531525171983554
5995000.0 0.993036043723496 -0.050200408262054186 0.007930963966604563 0.0030633301763473065 0.0021576465746288094 -0.0012408718821427793 -0.12835529175266444 -0.09603519509288455
6994000.0 0.992296744790987 -0.06020948997841565 0.004814781017855378 0.005018959448800073 -0.0014549717839227648 -0.007963084166501608 -0.1354021990954127 -0.00970488246275113
7993000.0 0.9885015004153256 -0.07194843502127142 0.00689497575335035 0.0047446467118544 0.0013818759041093406 -0.0002839449083378539 -0.15116116799415005 0.04698688303488913
8992000.0 0.9900216760841143 -0.07489464540006291 0.0038712164022388484 0.003853792212488487 0.0015076196836991183 -0.0017768455770614876 -0.154626750642555 0.06855711697566576
9991000.0 0.9885619580191664 -0.08457749635406597 0.003848356894899569 0.0010723836236995346 -0.002167529442807502 -0.004603701038106471 -0.1536846320491643 0.09697852349088937
10990000.0 0.9861667783599003 -0.09190030437520406 0.0038439075447590275 -0.000741096451590901 -0.005473302808002883 0.0006565461881762455 -0.13219471637338392 0.12034342210923113
11989000.0 0.9859706473509063 -0.10097858992100583 0.003971327281114856 -0.00014961165152781533 0.005618415187802869 -0.0006817301547497029 -0.11812511795111644 0.1458265702608233
12988000.0 0.9881991612190404 -0.10911886205411431 0.0020510465766838547 -0.002444926347290127 0.00014376133279417146 -0.000812205402655168 -0.10684626436429465 0.16113939575223457
13987000.0 0.9827197066475452 -0.11893073354925031 0.003801433279055377 -0.002800334419777446 -0.0029430783195487737 0.0009456697560469868 -0.09614512339613361 0.18848146409602784
14986000.0 0.9828290366119415 -0.12585790921687354 -0.0012749349118780576 -0.0010278819847017893 -0.0004060121274874093 0.0027200253531349935 -0.08757440942312797 0.20097957818482545
15985000.0 0.9849683879198342 -0.1328400831662012 0.0005766136343946598 0.0020448831245541105 0.0026323479975412165 0.00515048851798941 -0.058944448776969485 0.21655514683329333
16984000.0 0.9794034998037153 -0.14539266412454843 -0.0016055222031839168 -0.004869613662045836 0.0010511108232374748 -0.0004825913306287606 -0.06031681274619655 0.22238647390275396
17983000.0 0.9819515305849067 -0.15149579709998215 -0.007913166136076824 -0.006165315686746865 -0.0012643150285489152 -0.0002833604570337142 -0.05291647597920117 0.22037012578512682
18982000.0 0.9788888587379921 -0.15982537469260377 -0.001284471687073885 -0.007106126546973784 0.0006978832192729684 0.00034092205533992347 -0.023382317468212323 0.23973512055978727
19981000.0 0.9785031728118985 -0.16708123831552088 -0.0056313910800937905 -0.005433978494679575 -0.001138950992732545 0.003371612696641408 -0.013789127566960107 0.24818799694686225
20980000.0 0.9757553982620055 -0.1792695846499204 -0.0034570923693519554 -0.002043119775115615 0.003954579724277954 0.0002998489719086855 0.002420763952996366 0.2635451766233
21979000.0 0.975582451224165 -0.18449454843829347 -0.004178005018397537 -0.002552977543564572 -0.0026334449029804946 0.0015216498770302107 0.015384648408468257 0.2490576802580234
22978000.0 0.9726303393297973 -0.19624557752266278 -0.0035272059364694084 -0.004333068165195993 -0.0013489310149828284 0.0019860187274588817 0.036689917748779305 0.259192701168065
23977000.0 0.9723602713985733 -0.2015297509145809 -0.003865746253635164 -0.007263448356242763 0.0013582431411453284 -0.0003476700013758325 0.03915593623510873 0.24486351135774007
24976000.0 0.9685964890308678 -0.2127323189763978 -0.007546829670649966 -0.001057974628760691 -0.000878829926371375 0.003027443864250844 0.06213018448403153 0.2564577188944412
25975000.0 0.9701118443674979 -0.22621465228382448 -0.0005105430351017352 5.981563224206806e-05 0.02626267544783356 0.005880622489172398 0.07980299159816033 0.26280445841009614
26974000.0 0.9658844452929365 -0.23088906033235165 -0.004623452342129413 0.0006033740147694863 -0.0021760842348090338 0.0025376661605923624 0.09176978953877186 0.2593212503498692
27973000.0 0.9642629402060167 -0.23864067805436678 -0.005826651208209892 -0.002427984533304572 -0.002129043801221941 0.0008199585347366228 0.10337214044842766 0.25328851076215547
28972000.0 0.9608683252648326 -0.24641709481234428 6.835320630861958e-05 -0.0006779632661092275 0.0017140246140664296 -0.0007307684367044236 0.1234838271080867 0.26217374327483706
29971000.0 0.9599052567837422 -0.2554866269199585 0.0015352138696664184 -0.004317469044079397 0.0011875477833778595 0.0012993506459360123 0.15709042621191704 0.27233782420471503
30970000.0 0.9589902271768213 -0.26083791772545034 -0.0032592032867041812 -0.002840268896854075 0.0038113785986390145 -0.0004847884015078152 0.16785975773810374 0.24892003113471026
31969000.0 0.9571280378588239 -0.2691433131149974 0.006422728698739713 -0.006360441655961108 -0.0019837723616540465 0.0022541063085927265 0.15704909031173392 0.24077352979565017
32968000.0 0.9540344515416471 -0.28044352807763034 0.009590451195950691 -0.008691009571418499 -0.003816893782871409 0.0015829312446147437 0.16966771198630642 0.24713936925211202
33967000.0 0.9524861032050981 -0.28990197749268193 0.00732700056588941 -0.010380016565976967 0.0010673093568778248 0.001271221418959358 0.1827988455292245 0.24180331326345117
34966000.0 0.9490882473524872 -0.2976360518525674 0.013759088733813126 -0.009255340549945024 0.0015223412502014199 0.0011367295280915232 0.19417490987708677 0.2478273828821691
35965000.0 0.945442560957079 -0.30589747768806463 0.014825415552658898 -0.01323521140522431 0.0017013157854037873 -0.0006959317178609507 0.21586111305019667 0.25382723773805327
36964000.0 0.9424742330454152 -0.3160174011371155 0.017321571880236492 -0.01415223196700084 0.0025648545903268908 -0.0027851847719997107 0.21631970261111952 0.25030962297769693
37963000.0 0.9388071156005298 -0.3250743897491983 0.022536530024208985 -0.020199383260830685 -0.001724436764228956 0.0012275116820118534 0.22187629429775507 0.2379540232265384
38962000.0 0.9374985802026264 -0.33362742195907635 0.024325971527862606 -0.02194540269294729 0.0015269558864887494 0.002501910505277389 0.24257319624176485 0.23047972124691193
39961000.0 0.9350539919474675 -0.33996619046032406 0.02524768896156073 -0.02718547730444114 -0.000855449386382605 -0.00031147405828194525 0.24814034767217152 0.22303181642567016
40960000.0 0.9313270696948149 -0.3495463158433647 0.02355878003541389 -0.02349998586729328 0.00019871792257235315 0.0018131470756873331 0.2708213036431193 0.22354870364876053
41959000.0 0.9273446761997293 -0.36030318199818784 0.03202069272765059 -0.03146494423086405 -0.0010629170038517456 0.000177887131383438 0.26475570500548345 0.21989566339755187
42958000.0 0.9239758283025137 -0.3676026345303905 0.03425697623731906 -0.03807568083758658 -0.004060100771697845 -0.0014811404310728143 0.2744045486259744 0.2044559667981721
43957000.0 0.9227447289108364 -0.37194354092559134 0.030655108671324104 -0.04449641414304426 0.0014760519084769054 5.062648917805046e-05 0.2850989685617462 0.20339543693266188
44956000.0 0.918609728641998 -0.38018472916895923 0.032050500443984865 -0.05161413430970364 0.00027303088976502306 -0.001969712899752175 0.3076337387183318 0.19206251062136306
45955000.0 0.9147824356190408 -0.39136806524791373 0.034868965123360136 -0.05464008437938117 0.0003087427927395727 -0.0009943310399421158 0.30720949182560386 0.1889888674294183
46954000.0 0.9099209867131774 -0.4016348850933115 0.03576774187567452 -0.06421222349377975 -0.005128755642983759 -0.0010749495622112922 0.32575011097934725 0.1794392359350177
47953000.0 0.9069363011688674 -0.41033669540407136 0.03775944416949768 -0.07219441233932572 -0.0025925595099827005 0.0027068222156060155 0.33342911463057323 0.16516413184669376
48952000.0 0.9011360384236461 -0.42036219212381243 0.03627063971410055 -0.07734905086547546 -0.0019117089906460665 0.0006652232276341507 0.3369334533779277 0.16084929580145463
49951000.0 0.8977481645369086 -0.4275803952294954 0.03705219682893584 -0.08827843975337239 -0.0010237682206764838 -0.001365610620503849 0.3476384666797668 0.1478659956330078
50950000.0 0.8942075963589114 -0.4359010893654868 0.03943489932810297 -0.09497606090022045 -0.003702151654448371 -0.00017469933851460516 0.3421355587351762 0.14550081392888764
51949000.0 0.8910728800907348 -0.4427980526422885 0.03863974227177515 -0.10256380671884596 0.000356644189730775 -0.0015920576915411323 0.3542365231272381 0.14631500295843125
52948000.0 0.8858150350861329 -0.4519163949187428 0.041587416060310724 -0.11141443291978202 -0.0007684848193264519 0.00038113982308568935 0.37203904796832254 0.1448499826331511
53947000.0 0.8821578593762518 -0.45789363374664765 0.04222481365950419 -0.12357159016469015 0.00015940730581321614 -0.001746541329827958 0.3580640869690431 0.13070439776467183
54946000.0 0.876190511323866 -0.46969198646668686 0.04198869945228543 -0.12886450616657655 -0.0024097530025210946 -0.0003808954983201688 0.386306238904239 0.12139788581215517
55945000.0 0.873261351613222 -0.47634520466112446 0.04431396785051856 -0.1404127909009119 0.0022238544287047878 0.001440087409718626 0.38821965716391593 0.10089068438057892
56944000.0 0.869017389385432 -0.4845165716172444 0.047982720558437664 -0.15074655075662888 0.0005226786101206677 -0.0030575664032905852 0.39820033642084823 0.10157884449437944
57943000.0 0.8639413239968633 -0.4961845402575004 0.04771091757627148 -0.16293494267955608 0.0004044888708612268 0.004035484416452802 0.39957581486125116 0.08963617355765013
58942000.0 0.8590418877206548 -0.5000724016883294 0.048542639961475544 -0.17351395461210187 0.0034350293377161064 0.001106705297571873 0.4147751521018402 0.09410633509570623
59941000.0 0.8548653874332317 -0.5100969299041416 0.051652976679337284 -0.1827064376083225 0.0013846405910302674 0.0020994766496847143 0.41465764508846514 0.09088667530226012
60940000.0 0.8476087680632697 -0.5159126088120608 0.05215390893325045 -0.1842728462165335 -0.0006082055272623152 0.00033223341137153745 0.40933633944111875 0.0727509366179243
61939000.0 0.8438076670226518 -0.5226584118176897 0.052332172585919746 -0.19385159883858968 -0.0007885039724043923 -0.00028971978998075596 0.4099913945766263 0.06524336381091272
62938000.0 0.8385830020312692 -0.5334805985312158 0.05572678227628631 -0.21138285435789578 -0.00082617333415297 -0.002225516703718614 0.44349304775024406 0.04887287314338846
63937000.0 0.8313414989648668 -0.5420624140593484 0.05469404574616221 -0.2319253521441904 0.004078301891075628 0.0011706696080269435 0.4331391599370774 0.041155803020386995
64936000.0 0.8281045592527909 -0.5455573896023598 0.05659698775484425 -0.243852131693221 0.00048796478729012195 -0.00032076410072498144 0.4222752386691823 0.03181491799602116
65935000.0 0.8233593677132722 -0.5587858229704834 0.05457264094090932 -0.26021369400509 0.0023964107681187304 0.0021766045481080385 0.4305711147328211 0.011223667171461773
66934000.0 0.8178167006217769 -0.5613740567724081 0.05672609663246411 -0.27249326141696484 0.0006790959374091794 -0.0008923890525770405 0.43378927564822456 0.00504790326755593
67933000.0 0.8146105789345689 -0.5706289644917147 0.055548441689841764 -0.2853048239330528 9.480274162695099e-05 -0.0037808316940537057 0.43867946890116705 0.009571600323353562
68932000.0 0.8019531473836267 -0.5641134126498814 0.054204747229420404 -0.2948285836479982 -0.0011586905159536734 0.002528019267722264 0.4395268884818253 0.003545461348698429
69931000.0 0.7999585205373332 -0.5883861476927554 0.05265945160899138 -0.31535587549148386 -0.0019454970331232162 0.0005760602025463688 0.4432392455771175 -0.022303007089353462
70930000.0 0.7926979549951279 -0.5952856466391092 0.05122256706299675 -0.3281465789943982 0.004864125829332079 0.0014558359176859573 0.4394289141996412 -0.03730657390171827
71929000.0 0.7892994673956786 -0.6051203681994997 0.040115078412425356 -0.3475591852493687 -0.0031586531190272806 0.003111590188337666 0.4454901678322757 -0.04629051713969966
72928000.0 0.783016835812037 -0.610646023678944 0.04031654794319191 -0.360666233749646 -0.00302727336425506 -0.002154761169728991 0.45583595452667447 -0.0482230560392596
73927000.0 0.7764525448978384 -0.617284099070817 0.03499051079511224 -0.3826798960234874 -0.001476421152855639 -0.0037315018028135035 0.4529445516365948 -0.060016210411972096
74926000.0 0.7732663695073959 -0.6272343707848378 0.029555269090169714 -0.39929195313289717 0.000890005351782287 0.0002766476044662011 0.4630389757397252 -0.06286752259439013
75925000.0 0.763506943715886 -0.6339566118573312 0.01874963806693681 -0.4189669173137288 -0.0003947962157066819 -0.001283013659749842 0.46639065027774734 -0.06924308456084241
76924000.0 0.7566011702439978 -0.6397293060806368 0.007464579893558969 -0.4423655485254844 -0.0033714077126695574 0.0002396339071755499 0.4699529914090785 -0.0822401487514377
77923000.0 0.7520619850818653 -0.6461657430139145 -0.008576570532987665 -0.46548375234049 2.0612436065699323e-06 0.0019052988975748121 0.456319218087394 -0.09560338507662478
78922000.0 0.7449959056899863 -0.6582339583849781 -0.021814219281973097 -0.49385931654870907 -0.000257021084988638 -0.002394575353300093 0.45306247332038513 -0.09950874188138109
79921000.0 0.7364962997892717 -0.6593948103880645 -0.040618429157042495 -0.5182956282499634 0.0006343960022089265 0.002682297773848074 0.45409748002399997 -0.1263293486916359
80920000.0 0.7318738769443767 -0.6716852787119928 -0.05685853345573356 -0.5482680995984203 0.002235295801332555 0.0019154188122301216 0.4653169244863917 -0.13537951153156677
81919000.0 0.7264410479082576 -0.676762288206836 -0.0699571957294596 -0.5702744398880859 -0.00016295067386160153 0.0020893918128601654 0.46301843822587657 -0.13192879031079663
82918000.0 0.7182338472509118 -0.6831061756565767 -0.08775696281769842 -0.605204794536538 -0.0009378002337249641 -0.0005512814291252724 0.47453547592635315 -0.14110131272369325
83917000.0 0.7096136274152228 -0.6928441532578661 -0.10569505095862165 -0.6343888000389465 0.0022788204281518325 -0.0029384317737081965 0.478320498568762 -0.15301247923267872
84916000.0 0.7044125074152904 -0.6983435748497321 -0.12147283573150414 -0.6679086614682783 0.0004998568965724384 0.0014917257831199978 0.46666232080944126 -0.16737198123266067
85915000.0 0.6983033245230558 -0.7057836846060187 -0.14181413528911965 -0.7018458555111651 0.001103301928038806 -0.0012932735772395 0.46728059059201976 -0.17608168343122232
86914000.0 0.6914189991125739 -0.7162884508179416 -0.16027291097209975 -0.7367677439468489 0.00155255817551573 -0.005796409496504131 0.46330413679700766 -0.1841980236261498
87913000.0 0.6814769921741632 -0.7209615576403886 -0.17842137237591515 -0.7628586549633524 0.0015723234528773175 -0.0009026479404684588 0.47419171599245896 -0.18938962598074668
88912000.0 0.6763078468460131 -0.7270873757063244 -0.1936860101506097 -0.7974729261686179 -0.001357383593641709 -0.0021951495157761626 0.46661361668254847 -0.2004121672015741
89911000.0 0.6664141311677994 -0.7390663195721121 -0.20960228563803074 -0.8313178666312383 -0.0041459505555206866 0.0028157295706934837 0.46260698560890773 -0.20650955045914912
90910000.0 0.6614280648866445 -0.742060301326859 -0.2228616205603944 -0.8706275842409283 -0.0007028954553380039 0.00027858235931799456 0.4639476538024973 -0.21450200587443952
91909000.0 0.6500098568812218 -0.7457353239851613 -0.23850153366973326 -0.9000411892475728 0.0007991516398151038 0.0020628430705172006 0.46924385095804455 -0.22518113615279692
92908000.0 0.6439279622248376 -0.7564848465269931 -0.2601643236174326 -0.9339523499015803 0.001357488714154648 0.0011675429388860864 0.4534134936020356 -0.23151016105691083
93907000.0 0.6347800350845348 -0.7601725964687734 -0.2758961133794223 -0.9654157040876894 0.003387559051248134 -0.00044573305642597806 0.461040706067716 -0.25984347402538666
94906000.0 0.6242840319970617 -0.768051081813893 -0.29321219973612633 -0.999118760846228 0.0007289216410912635 -0.003060929960661926 0.45175105159358003 -0.2537856263110554
95905000.0 0.6190350398135556 -0.7737163018658904 -0.3148935434968341 -1.0317285108835597 -0.0032284091536045317 0.0008623249020076324 0.4582786271817975 -0.2667299694604396
96904000.0 0.6107991143934313 -0.7829897333664089 -0.33127271025394917 -1.0700602207151722 0.0007936628283538328 -0.002777621434294709 0.4461575581972647 -0.27138089042608426
97903000.0 0.6011440285072882 -0.7882473436650635 -0.3566972580822817 -1.10377789999283 0.0016725852525869718 -0.0006782169557041285 0.45273778309287777 -0.2841491710090782
98902000.0 0.5959711299073387 -0.7959878143677641 -0.3739256454490327 -1.139771974553035 0.0029502868561576425 -0.0010062998357266368 0.444808189767658 -0.2957393490298832
99901000.0 0.5853863145991077 -0.8004160439222059 -0.4047359944962665 -1.169202930345335 -0.0011294000380326313 0.0023627148777076107 0.4563171988894796 -0.3196146962119532
100900000.0 0.5776646874243753 -0.8035128634495523 -0.42864122656736775 -1.2016271754283117 -0.0007883799936009304 -0.003575947473857774 0.45021472163776916 -0.30941215030703956
101899000.0 0.5695049978426394 -0.8107542949853891 -0.4578399761104326 -1.2394888111117417 0.0006381683722757034 0.0002840795086573112 0.45247029378656367 -0.3142487427511855
102898000.0 0.5557942138899014 -0.8191503524716978 -0.49613358003737495 -1.274497456248657 0.0006585041703319115 -0.003415459875050574 0.44466561762461154 -0.3344300043350219
103897000.0 0.5493705772586017 -0.8256184438150294 -0.5316177359365108 -1.3130054327007707 0.0015947163299228043 0.0002854442333338542 0.4558077850451421 -0.3338780886435071
104896000.0 0.5404166811877766 -0.8351759461568498 -0.5739230578393595 -1.3415212330892563 -0.0017134501575770372 0.0005505548969069541 0.4360173916297322 -0.3329081901161411
105895000.0 0.5286659459135137 -0.8377108424942163 -0.6220795149827438 -1.3862087988015492 -0.0008656812641764193 -0.0007012974910114227 0.4303022239665905 -0.35675874891921877
106894000.0 0.5219588329779511 -0.8433754133375572 -0.6771245501411636 -1.4212686022114631 0.0010138493981875867 -0.0033598409016342826 0.4338370907263707 -0.3669128485840728
107893000.0 0.5122606093600914 -0.8513224858013723 -0.7288986407571659 -1.4622369283475765 -0.0008439946202435461 -0.0006922558687551534 0.43176064337960857 -0.3662399638466923
108892000.0 0.5039394133534849 -0.8519790301579877 -0.7831693653936571 -1.4944586381060858 0.00299553115400494 -0.0024678998812727054 0.42619163138385274 -0.3799806728195136
109891000.0 0.49116904635415 -0.8628556662829275 -0.8397504994219597 -1.5338409506596729 0.0045448458700554474 0.001212341930071275 0.44421504046246296 -0.375046292327937
110890000.0 0.4828973801520431 -0.8769960244808942 -0.9179865593581745 -1.5514108292253668 4.298509332852169e-05 -0.0013617550723061538 0.41822769576000574 -0.37703984038331556
111889000.0 0.4711915498938482 -0.8673213672259166 -0.9702366122937016 -1.592054849892064 -0.0002313167185471332 0.0005265651925854826 0.42161049708447657 -0.40052593214195326
