! Created with skrf 1.9.0 (http://scikit-rf.org).
# Hz S RI R 50.0 
!freq ReS11 ImS11 ReS21 ImS21 ReS12 ImS12 ReS22 ImS22
1000000.0 0.975001990869407 -0.00543917247281351 0.01397198036682369 -0.04927528538719074 -0.00498339727862816 -0.009556597824951172 0.36141945343924103 0.29225696118429806
1999000.0 0.9963360671687421 -0.017382523746963988 0.010152219478062238 -0.03068490253804391 -0.012719618584956863 -0.004825286912518255 0.2735768405320216 -0.05230925113664745
2998000.0 1.002098195170187 -0.017577855446387455 0.0059944493403107915 -0.013379252227196688 0.003147171697799225 0.0011672062512561962 0.1867820727466842 -0.16437545869275128
3997000.0 1.0016712731884778 -0.02801653560781196 0.010510481765087757 -0.0071576851112742975 0.004948594235243186 0.0006416900493243679 0.08805645597208149 -0.23547324614046256
4996000.0 0.9978943433488745 -0.036463975298485544 0.007741352058897567 -0.0043537131328444684 -0.0029830029226310777 0.00035915738430171554 -0.044300048262154085 -0.20442575815833683
5995000.0 0.9987977839617005 -0.04789075886385781 0.010571066204273305 0.001602693544153331 -0.0007568619948721425 0.003823788511938672 -0.12007493681794427 -0.12578179352420876
6994000.0 0.9975083369712154 -0.06115544825418169 0.006540493204771758 0.005239440604151789 0.005599566328790024 -0.002702302112843975 -0.15921601882006545 -0.031235028330042693
7993000.0 1.0013667276060547 -0.06655585942185388 0.008699615085281949 0.005361068278014633 0.0038430380050162288 0.0007343431184105193 -0.17626092481914224 0.03965157970864079
8992000.0 1.00095059470003 -0.07190847849243188 0.003010318472264123 0.0032299709538083153 0.0021089115011128676 -0.001515350224032013 -0.170806182494701 0.05439587353786036
9991000.0 0.9965847548738285 -0.08155852828068418 0.00036835208304088657 0.003138090584614224 0.00047249626105780513 0.004009274921127559 -0.15490508125921265 0.07913694277691503
10990000.0 0.9983428005237698 -0.09457339634038929 -0.0011985608665325942 0.002904203400748067 1.3762750438647416e-05 -0.0034358092893545843 -0.1502024287749375 0.1280013039000378
11989000.0 0.9933151369269756 -0.10100575833458082 0.0020652849985473526 0.002904577879963844 -0.0025762272683940127 -0.0014575980867794537 -0.13201166907973053 0.14305331111436645
12988000.0 0.9959591301679328 -0.10938905925701449 -0.0008255109789341775 -0.00860719448935849 0.0035186099796340998 0.00046116576940978716 -0.11135856021260823 0.1583971777664454
13987000.0 0.9918564238070017 -0.11917564275801375 0.0020337991632577803 0.001155545296746066 0.0019056675203511595 -0.005574273658484903 -0.09196567181107969 0.18384664651436206
14986000.0 0.9911298280834959 -0.12485504409185759 -0.0024015359958063933 -0.00864684335274707 0.003038369365181699 -0.0027822081488496435 -0.08502858772549869 0.21456682129268534
15985000.0 0.9933056378071984 -0.13308559487951627 -0.003477686174285771 -0.006659806962043388 0.00013805729817220272 -0.00029160327927235576 -0.06680383043685838 0.22924402883908115
16984000.0 0.9905696401002035 -0.14359008648494295 -0.001500060155169068 -0.0005078584503571365 -0.0006220048437533735 0.0031609812510901324 -0.06921530695918364 0.22184783414979733
17983000.0 0.9893419245627808 -0.14897788944139595 -0.0008399833949538665 -0.0011960995883728816 0.00047050269692949955 -0.002852570899173423 -0.057089442519640925 0.22171360595255904
18982000.0 0.9848026889700786 -0.16413390365887998 -0.002298138118560514 -0.0003189705192069319 0.00046182387100808476 -0.000576743653157196 -0.019939015440389667 0.22842218045530932
19981000.0 0.9862822438903427 -0.16575772158976643 -0.0045842693543549605 -0.0010887528254484359 0.001695471024532232 -0.0014616810580532348 -0.011346314005279691 0.22994592526794033
20980000.0 0.9858083933501738 -0.1765736029941874 -0.0061780908213129974 -0.004347735177642273 0.003336212918062992 0.00015638153853195038 -0.004336489168168407 0.2561253143078354
21979000.0 0.9833570558500226 -0.1847603481269057 -0.0047812973215072075 -0.010048456537690154 0.002370809865091601 0.002431625652435906 0.013956902907299876 0.2412504914632014
22978000.0 0.9811408987981977 -0.1944053496060872 -0.004424824769568899 -0.0026667143048346104 0.0028103525363339385 -0.0015005192726257794 0.01595642399402588 0.2658981624091691
23977000.0 0.9810247370994738 -0.20167718668185597 -0.008274769271747098 -0.0027741268434139767 0.0018090096516064586 0.003082062938503151 0.030637709625430033 0.2491693814345331
24976000.0 0.978100004086003 -0.212095140623167 -0.006341781371298821 -0.0009386224458621484 0.00042217342577183253 0.00023411258389090275 0.05760679889539671 0.255260100550449
25975000.0 0.9788578981355288 -0.2227111345840049 -0.006037127147528531 -0.0019101676967151378 0.019089354444060833 0.01905575097126888 0.07823724909303355 0.25040808757235583
26974000.0 0.9723207965276708 -0.22672139539486724 -0.004573601868575744 -0.004103803586133291 -0.004024917444765529 0.0018710652769270567 0.0848117534003556 0.26143060513091665
27973000.0 0.9717252576974075 -0.23918686212437962 -0.001509551217071555 0.00026929966984529964 0.0015797426205925453 -0.00098086841909779 0.10019114609032398 0.2557237390820558
28972000.0 0.9704067847374791 -0.2425971304539025 -0.004473616202617806 -0.002593547203672115 0.0018926793108981687 0.0010553312989758396 0.11998182297311412 0.25496232154192566
29971000.0 0.9669061478099837 -0.2526658989243661 0.002897268824062665 -0.0014728312999507246 -0.0012491613203585534 -0.0020543436214324217 0.15058327986784095 0.26496193808591356
30970000.0 0.9664034283837133 -0.25883977276339337 0.0024239035670014838 -0.003829868706349799 0.002735225079368107 -0.002924407598881478 0.16355098260849998 0.2530459587541246
31969000.0 0.9651376735388747 -0.26853908692026307 0.006129230223385701 -0.0035164053180535477 0.001486249968926078 -0.001334719183524097 0.15298254920674853 0.25301910025965385
32968000.0 0.9620125522868936 -0.2757194732267864 0.011536284713178167 -0.005688956623546336 0.0016094827740920166 0.0021118480301387846 0.16874520674164228 0.24893418565902192
33967000.0 0.9585745193696237 -0.28332998267796305 0.012604624980970704 -0.010404078691507924 -5.087720937821754e-05 0.001202808298830302 0.1905922612671613 0.2487867135862969
34966000.0 0.9578601560225093 -0.29291965353238786 0.013479129681610892 -0.013527736663105038 -0.0021820287958672236 -5.1151915036224945e-05 0.19236113354252118 0.24909521779078042
35965000.0 0.9522984953812322 -0.3017264792401247 0.01656633943165212 -0.014859863415768268 -0.0018255199425394858 -0.0001212942351701963 0.21276274355597513 0.2489736863757581
36964000.0 0.9524835226978956 -0.30975403816093716 0.018837134086794095 -0.014148242873096996 0.0005732111430634519 0.0018448769824670943 0.22214456236394794 0.24760864825795167
37963000.0 0.9483447919529493 -0.319269637248388 0.024379369233589448 -0.01992962115200167 1.1695100236218466e-05 -0.002181465490826494 0.22880251380276 0.23803666155140432
38962000.0 0.9451108091451297 -0.32687596280858316 0.025073140630373005 -0.024066942074545704 -3.941843343915406e-05 -0.0027855499353178366 0.24586704665901624 0.23380832555145065
39961000.0 0.9414858096947355 -0.337059295650555 0.028374355120262002 -0.028144135538141185 -0.001861472981998412 0.002572278980318803 0.255066424601484 0.23036467574047784
40960000.0 0.9395462309781603 -0.34193158337265867 0.024776893787851244 -0.0247783632380256 -0.003910432658436049 0.0025414069043812678 0.27815051574400196 0.22717551435695202
41959000.0 0.9346252756908309 -0.35487651203318377 0.03140492338126295 -0.035677508120200936 -2.0556609863276776e-05 -0.0016439443128169456 0.26928377564714007 0.2151177487754572
42958000.0 0.931170919513864 -0.3620913508380242 0.03412892938846155 -0.04209088353464923 0.0019693686104905947 0.0024377373100714413 0.279374942457661 0.20065656434759027
43957000.0 0.9305921672549451 -0.3673537087559402 0.030994571250852844 -0.047371120536628716 -0.003095272076890321 0.0006797550665990504 0.2892343337088448 0.20221848417986074
44956000.0 0.9257127815156081 -0.376764496426662 0.033707251288391034 -0.053122844027322765 0.0013625487614707023 0.0004369914462305354 0.3131711993102783 0.19009765714380059
45955000.0 0.9213413478334536 -0.385491082883165 0.03555835195202771 -0.05578796240933815 -0.0018426791167265267 0.001193621855019397 0.31106279473508514 0.17998167646624003
46954000.0 0.9185284084581137 -0.39486815415832743 0.038179153151307745 -0.06665762752715543 0.002655312521664886 0.004313744336836581 0.32764144414744856 0.17114903658792335
47953000.0 0.9156611321108342 -0.40234359642786083 0.037646126235015745 -0.07511036196103213 0.005211230809102573 -0.0032296434314425713 0.34217798136688066 0.16666477217662606
48952000.0 0.9111849010618438 -0.4115994277533898 0.038982536091982815 -0.07965969795804688 -0.0005771173739904286 0.0011721849385580723 0.34137387012769255 0.1652860574248212
49951000.0 0.9071024664888675 -0.4201354442674566 0.03901659393303527 -0.08804514661129616 -0.0037517071986080735 0.0008060398055780893 0.3591363352448227 0.14677909103110826
50950000.0 0.9040887709150944 -0.42813845311444954 0.040856682928077044 -0.09792691877831436 0.0017031140697465346 0.003711465815878061 0.35444985353907765 0.1374138676558025
51949000.0 0.8978476128803039 -0.4351173944053946 0.04102431223968525 -0.10571062047694552 0.000707714512925584 -0.0013581708455310411 0.3703863694881261 0.13024700066567896
52948000.0 0.8984003989158006 -0.44198516843660096 0.04147745911379837 -0.11377897776664715 0.0017120625406166568 0.0017965974280058509 0.38363713708640573 0.14120682684681496
53947000.0 0.8907379428870266 -0.45385783236756877 0.046711873423925646 -0.12331325348569451 -0.001969318683189268 0.0006719692320915354 0.3786631713910243 0.12861524916234382
54946000.0 0.8867529757550766 -0.45802518487362276 0.0475993131980518 -0.13273793775693432 0.003221602414824224 -0.0019820667269289218 0.3946994420477631 0.11574019755100005
55945000.0 0.8839808909598298 -0.4673130123919786 0.04750900896326384 -0.14458053970233514 0.0021009915021461367 0.00021585472859939753 0.3953505884536435 0.09409424532200565
56944000.0 0.8802135981016838 -0.47634867239227985 0.04910780726861293 -0.152261840002933 0.0025991159647663254 0.003439469611640262 0.40274640082168955 0.10310161460508253
57943000.0 0.874667607628102 -0.48578517320533005 0.048446126615909635 -0.16555576434641364 -0.0007657458390600365 0.0005292697563513719 0.403807638817219 0.09582956801359604
58942000.0 0.8687375523999469 -0.49094517734177745 0.0520095546158855 -0.17730708589469069 -0.0002659790586020331 0.0009249109866198888 0.4317953203253611 0.08917114588317673
59941000.0 0.8689076639357021 -0.4970317441993025 0.054514172961263554 -0.18623022546342857 -0.0007570402670417668 0.00022173711552721722 0.430512313604251 0.08336603641054927
60940000.0 0.8596825154959558 -0.5074406219958603 0.05047470286611515 -0.18976471648158774 0.0005024164260730375 0.0010516239377843185 0.40108725058930317 0.06656448681326656
61939000.0 0.8572763885937973 -0.5128476647032495 0.056607182386189614 -0.19735210066208234 -0.002669182905359507 -2.7820329124269482e-05 0.4187707532377878 0.06468143084700484
62938000.0 0.8505135747423919 -0.5246695507373358 0.0560947052217052 -0.21731930413265177 -0.0006398090406011991 0.002794244363041639 0.43879846040851217 0.054837290454300976
63937000.0 0.8473233142073812 -0.5316666482868938 0.056554545463741335 -0.23857196719564436 -0.0005097824206256482 0.002047825129770864 0.43808375639079244 0.029356858260706182
64936000.0 0.8392346547644374 -0.539113939280386 0.05444962453925204 -0.25332305610136335 0.0014830896557726208 -0.0001969887202969982 0.4370334514230608 0.037477683928667495
65935000.0 0.8355075522665371 -0.5482377413764759 0.05564883768149245 -0.26905586660340436 0.0007584109297314518 0.003722841591056471 0.4508502193456738 0.01353753017347702
66934000.0 0.8321450645638461 -0.5534910939446384 0.05713962448837696 -0.2800714930094944 -0.0025981414362842804 0.004297558999288161 0.44140030270338565 0.0033374317011011564
67933000.0 0.8289081353170592 -0.5614253365419088 0.0561238348659191 -0.2951333429042422 0.000988827858708124 0.001772647205831636 0.4407962811310578 0.003598150362264066
68932000.0 0.8197179739064699 -0.5542268049992457 0.054129091870435735 -0.308269951290313 0.0016384670198920503 8.760786092227576e-06 0.4519861856033507 -0.014939852166050153
69931000.0 0.8147201051919835 -0.5792961672857531 0.04959214077444041 -0.32279598069836324 -0.00031102459308670504 0.0026849647876939185 0.44592670933723194 -0.021686277967365428
70930000.0 0.8087474861221013 -0.5857208554492334 0.04799512343068392 -0.3392056128430563 -0.0036726488268599014 -0.0004681040206199755 0.4420047120024464 -0.03919628658526682
71929000.0 0.8065447879209539 -0.5957515838262987 0.044608190211016585 -0.36265968342145194 0.001021220233263596 0.003056494556853168 0.45251759638360867 -0.04749685534897479
72928000.0 0.7996791231310658 -0.6016562980883101 0.038975462012411005 -0.375475555756602 -0.0014230801664246292 -0.0015103003177940639 0.4733759607590165 -0.056455242638023144
73927000.0 0.7955818185195723 -0.6087678313660227 0.03318334684277013 -0.3979499316804389 -0.006752552278235101 5.249667116053913e-05 0.4605178964099118 -0.060492923839732975
74926000.0 0.7886360085169636 -0.6173694193984925 0.026800146566110034 -0.415908855578205 -0.0032815225702353 -0.003231941111288433 0.45774164419407193 -0.07114903616070754
75925000.0 0.7808707359053566 -0.6225671052429825 0.01645214545177412 -0.43238022826446826 0.00031558601385739984 0.003272544038653506 0.4786626992167044 -0.07367695625891969
76924000.0 0.7762900667660483 -0.6317058420502095 0.00521336412248116 -0.4618135176015601 -0.0018543076116255732 -0.0023843112715347093 0.4717033497187064 -0.08654557985912241
77923000.0 0.771183018156591 -0.6379554455014012 -0.010097432801722272 -0.4840700209143557 0.001922932552299601 -0.0003803374624074547 0.46540036622781605 -0.09519308540547851
78922000.0 0.766216358572481 -0.6463693917915104 -0.023147256813050025 -0.511398346131067 0.0013068841419943624 -0.001916554064330996 0.47014529215061496 -0.111147051808012
79921000.0 0.755928972340183 -0.6520270656542678 -0.04245072030983862 -0.5355962189207238 0.0032959841708794096 0.0020614310752999645 0.45713421776496355 -0.12573261886405948
80920000.0 0.7505904532451244 -0.6634179168241378 -0.0565185559637882 -0.5678075203168835 0.001240058981564311 -0.0025786669743768165 0.4711072726599888 -0.1336301093760942
81919000.0 0.7478623453827025 -0.668070128324627 -0.0759618003638433 -0.5932629169015063 0.0009467070455284554 8.861633036310561e-05 0.4713636484918915 -0.13812820659956654
82918000.0 0.7368757624261554 -0.6763904593900422 -0.08767549504433551 -0.6284460406699455 0.00501050771342952 0.0034536099692152964 0.47994857872238805 -0.1464829561701965
83917000.0 0.7301249945555144 -0.6824955678092789 -0.10999329819442238 -0.6560982068237292 -0.003410950241978899 -0.00012661144081437136 0.4718785696025544 -0.15348315208793176
84916000.0 0.7256967989032325 -0.6894917767476284 -0.12343273059866679 -0.6922605558963741 -0.001149903667819837 -0.0015914550023278966 0.4645000366772353 -0.17231121048511935
85915000.0 0.7194548930786662 -0.6956724344209457 -0.14368465211681344 -0.7167889703016295 -0.00019697000835869842 -0.0024460595979172656 0.46648997456646296 -0.18262125069383545
86914000.0 0.7108279082873169 -0.706287720619492 -0.16367711983425534 -0.7548578590455045 -0.0010758639902654174 0.00292341492552309 0.46175763454301527 -0.17846974906196056
87913000.0 0.7019667747102929 -0.7121226607859273 -0.182220154419276 -0.7864779169922161 0.004648599128328467 -0.0037719702833139894 0.46130585799148544 -0.18901360444089593
88912000.0 0.6984740561168522 -0.7197636343631653 -0.19928751028794137 -0.8250176614044293 0.004412204704016717 -0.0035951259048262493 0.4679336509534265 -0.21401263550406746
89911000.0 0.6875567066544617 -0.7296401474497345 -0.21485211168899251 -0.8594382725343226 0.000523659522617977 0.0009202171150318345 0.4772931293540637 -0.21399593238284925
90910000.0 0.6813950462414187 -0.7340865778487268 -0.22918433679801362 -0.8947685354327424 0.0032897937039013904 -0.004335542180877816 0.46360700549481143 -0.2170955851834254
91909000.0 0.6738505002506681 -0.7393272983164657 -0.2552490465082377 -0.9234757411700838 0.0010976636099132037 0.001876111278968365 0.4672686116375922 -0.22652946010238273
92908000.0 0.665360653106492 -0.7477067282529309 -0.2746681930392696 -0.9614591913037923 0.0021864057026325188 0.0024262142285247606 0.45831022012263256 -0.2346203003751894
93907000.0 0.6586562539340258 -0.7509490555015008 -0.29508912033858975 -0.9902460820214323 0.0010124091336486088 0.002219835015627259 0.4584698418153675 -0.25751037782930597
94906000.0 0.6477115203160613 -0.7602733605190022 -0.3143119921078216 -1.0298495634927525 0.0011399161417820001 0.0032304166136436397 0.45542038047637573 -0.2642492002840372
95905000.0 0.6403823100595948 -0.7670102195849394 -0.3362516728063076 -1.0615792160733744 -0.0016583650415457514 0.004356415083698862 0.4637487988771399 -0.2778563345777994
96904000.0 0.6320896519143882 -0.7748984713365666 -0.35805746874046335 -1.1030117856374755 -0.003269739237388282 0.0009179675221289133 0.4496578509240659 -0.2822657955763513
97903000.0 0.6229995583643209 -0.7799521139883276 -0.3788304636363693 -1.1343282489372526 -0.0012324494945050544 0.00031404147971762623 0.44048557814837397 -0.2946867354264402
98902000.0 0.6184736143778753 -0.7863268533277794 -0.4007985839281273 -1.175286899308083 -0.0006321983169856145 0.001825841260166271 0.44637197861028904 -0.30086261914624035
99901000.0 0.6073504939499093 -0.7923155352281067 -0.4364025163147716 -1.2042992691761196 0.0005966033741307391 -0.0026388215114592 0.4536055892779044 -0.3215251099429796
100900000.0 0.5986313312984984 -0.7966760372182582 -0.4659135428793145 -1.2356388092750428 0.0002706340819500805 0.0005437530779839661 0.4553736797050169 -0.327694823359956
101899000.0 0.5947794666675078 -0.8046840777968176 -0.4931916717560221 -1.2799897491931334 0.0011041874465456392 0.003345169228632689 0.45093659746011594 -0.3316681688813284
102898000.0 0.5803891416267922 -0.8102111173285117 -0.5330828656768142 -1.312036042624895 -0.0017557503465108688 0.0021423410114234766 0.4443241964731964 -0.35403704235354866
103897000.0 0.5730197938275811 -0.8193883121004331 -0.5716947028217921 -1.354884147522032 0.0008373722612250534 -0.0019351495197714934 0.45328603542405216 -0.33804834321076765
104896000.0 0.5652339471845224 -0.8279758576451397 -0.6183850858521086 -1.384934985149729 0.0012763769387802836 -0.0008843172865583211 0.4364942145928342 -0.3434483534215659
105895000.0 0.5542381642207946 -0.8298676574407292 -0.6686401308364135 -1.427886728683709 -0.00203374728230318 -0.0005464731447934383 0.44990498753758607 -0.37167315553158337
106894000.0 0.5451931229033166 -0.8363726648647294 -0.7287243851858476 -1.4623667598860102 -0.000637764336225258 7.262756647551959e-05 0.4296161496824086 -0.3802243259354434
107893000.0 0.5378490684439533 -0.842211622010746 -0.7818713499244427 -1.5002496784843282 -0.005271145514165792 -0.0014098480358601972 0.42470387985368885 -0.39006650814088545
108892000.0 0.5274556446339 -0.8467847937161112 -0.8363130748220083 -1.540345611438471 -0.002870894092968204 -0.000349570440213462 0.42245750122297837 -0.3764256561267274
109891000.0 0.5160835697951671 -0.8517984338841419 -0.8914834251954993 -1.5727741854130557 -0.001922666885334881 -0.0011906843660839204 0.4270055325478849 -0.3871045364827145
110890000.0 0.4973655240396216 -0.8685596200156859 -0.9830386002978659 -1.578227100522739 0.00019423143284358232 -0.0010524297446940672 0.4203885797097125 -0.39906556140520416
111889000.0 0.4970035820389441 -0.8613166504169408 -1.0204245506553513 -1.6435471010652005 0.0022529940068351916 0.002524944912778239 0.41404161428613023 -0.41782270328972715
