! Created with skrf 1.9.0 (http://scikit-rf.org).
# Hz S RI R 50.0 
!freq ReS11 ImS11 ReS21 ImS21 ReS12 ImS12 ReS22 ImS22
1000000.0 0.9894267488779741 0.00944765566025367 -0.015344892949289188 -0.01713657730192511 -0.017735756201625697 -0.0005725433905789125 0.37193941912512485 0.31983324198848484
1999000.0 0.9943830515410311 -0.016860756933097718 0.0018748246432512875 -0.01498444896978056 0.00012963951055820243 -0.00017924280812414684 0.2809659484482947 -0.03680825450615921
2998000.0 0.997598132306303 -0.02439931646534519 0.003518283643896921 -0.013957907606109429 -0.008372600776056081 -0.00034339941941432595 0.1835243383129024 -0.14226069198064284
3997000.0 0.9975140454723866 -0.0320847858112439 0.012334159627909408 -0.008158689806877676 -0.0037698379667834886 -0.0013072727766987773 0.09215583585909456 -0.2112684211006501
4996000.0 0.9949270895927771 -0.03930656936297123 0.01365353730619159 -0.0059648810135102 0.0022284673823704964 -0.004338226024553215 -0.056117741374207365 -0.18889045885736946
5995000.0 0.992231881907703 -0.04613131078668934 0.007363252025343777 0.0013262032171845882 0.0036236611291080084 -0.00012033063744397019 -0.10928236739350312 -0.11039780815700737
6994000.0 0.9889995534027506 -0.06122790598346456 0.0067326114595114075 0.005779738560407007 0.005458183695172713 0.001763766392340765 -0.14188950824696753 -0.012566389844491254
7993000.0 0.9891424675368187 -0.06773950316162286 0.004659459427957069 0.004373356496927957 0.008593588889005698 -0.0009310687979187161 -0.15278376085190182 0.029216387384289708
8992000.0 0.9921729069739824 -0.07156131513462609 0.0011221888163610804 0.007054084872868636 -0.0013839521266625575 0.0036148159118973384 -0.1548665243387638 0.06190698452776621
9991000.0 0.9895513892959886 -0.08359996900997489 0.002609991215105474 0.0010762907464399432 0.001395389130977126 0.0023688239338015187 -0.14382412642926878 0.08673422027007396
10990000.0 0.9875196598544347 -0.09272759855610127 -0.0009598579015552759 0.003914234290297772 0.003116811262253347 -0.003068611864262194 -0.13252087279484262 0.10921669860279216
11989000.0 0.9865552244148307 -0.09683520064936678 -0.0014741456037385158 -0.0017708579295579888 0.00010624950490742523 -0.0038457340181103808 -0.1263511704626392 0.13182697719253483
12988000.0 0.9854405918283023 -0.11026818225165856 -0.0015267268404517505 -0.005705199151295617 0.0009240862106957885 0.0029068101093987714 -0.10645758437635294 0.1659262097100747
13987000.0 0.9831194331839421 -0.11952602481921829 0.0009252019266619822 0.00012982799832453757 -0.0028571093433855895 0.0013043021712543324 -0.08925850479759743 0.17837142881823106
14986000.0 0.9836212979758592 -0.12447899408850509 -0.000522869620226133 -0.0003777060894261297 -0.0010377971251320649 -0.003970737063464115 -0.08549165974309099 0.1845138982966366
15985000.0 0.9863198167077247 -0.13378309389321366 -0.0016859032142142645 -0.0036867255805527496 -0.0007588250696124163 0.0019597432545230796 -0.0658589468054178 0.20411649406643045
16984000.0 0.9826222168095432 -0.14454293838267954 0.00277770142577457 -0.0038308521161942444 -0.00227747110043726 -0.003342348518732464 -0.050812689635115066 0.21678852932912634
17983000.0 0.981651983992381 -0.15036497578832142 0.0009730857535693961 -0.0022630789336930517 0.004406207007148317 -0.002209098073661979 -0.04262530196494387 0.22006683317348696
18982000.0 0.9787056257338556 -0.16241715509730534 -0.005335086510696043 -0.0015189190702236653 -0.0025524554071192336 0.001726477967182838 -0.016538139686240138 0.22776306228650953
19981000.0 0.9795887557505322 -0.1635455090154546 -0.0014457687499155757 -0.001413976437663497 0.003312423025588613 0.005705561791633702 -0.019058107493612617 0.2293813026704049
20980000.0 0.9782214532206529 -0.17541954141108126 -0.006474149804383697 -0.006192379696441307 0.004528649122974304 -0.0006580632566198006 -0.00038364956431180113 0.24863119977352785
21979000.0 0.9746984900759462 -0.18350126011739173 -0.006608179607385962 -0.0023667364959006963 -0.002497256157988168 -0.002833482345364124 0.017530882081161214 0.2330486075871221
22978000.0 0.9746320630617232 -0.19259634265751033 -0.008080721138629756 -0.0022415168565509905 -0.0012931545448203934 -0.0004339294313991171 0.030755510658558003 0.25935234921074324
23977000.0 0.9740261862029589 -0.20155888619438 -0.005180824937404593 -0.00027023860248989414 0.0006945291739587696 -8.82724223364753e-05 0.030484735398417964 0.2563950631032674
24976000.0 0.9691202787637644 -0.21099995951147368 -0.004889685400483732 -0.003154642700227119 -0.00017641057234515673 -0.0019844941885691814 0.06396975247196632 0.2543881060737026
25975000.0 0.9657012686779368 -0.21606922256958103 -0.004998271217246622 -0.0028626566318446186 -0.026255669295963794 -0.0056015508291350925 0.08085352796368185 0.2624906649354718
26974000.0 0.9659546890965037 -0.2283766203215135 -0.004378768660548683 -0.00144617774713093 -0.00016392043960311968 0.0006292851682602412 0.10250893800433185 0.26573695796825864
27973000.0 0.9656002617821042 -0.23435506409576867 -0.007101317414643214 0.0024583099652983197 0.004353244048407146 -0.0014433837242423654 0.0904223730957257 0.266708221044829
28972000.0 0.9617768075578342 -0.24571970258174353 -0.0025289711521199075 -0.0005557844123455685 -0.0014944393272641806 1.4399651260491735e-05 0.12103555858465567 0.2547851470457028
29971000.0 0.9612701411640128 -0.2521875034562953 0.0018958744991335417 -0.0012450593141032046 0.0018196908358824517 0.0011535589926420858 0.152406480347769 0.2703241481777111
30970000.0 0.9597842494645233 -0.25867448836292606 -0.000800086413760093 -0.0024179188603136613 -0.002835044025819526 0.0004252306467953779 0.1643887519357739 0.25191948503837214
31969000.0 0.9582189944101751 -0.26652390730392805 0.005839379524804591 -0.00605683215961883 0.002132280278862457 0.002532702497901055 0.14538740838478534 0.24727331437936373
32968000.0 0.9548720953002465 -0.2801345718773695 0.00876588451846619 -0.0056418201978009515 0.00045008210306451214 0.00040985697928182935 0.1616802230690374 0.24765219553508164
33967000.0 0.9516976895799962 -0.2885439020324244 0.010289407276743384 -0.012405987500513626 -0.0012248066260056925 0.0017636700467469962 0.19314193427143525 0.24764569884391
34966000.0 0.9485766505742558 -0.29718653462653133 0.014665203040918501 -0.012698618899259663 0.0006902012389306527 0.0042874037098149026 0.19665165809051877 0.24241184345499645
35965000.0 0.9463300899538521 -0.30477240778806425 0.017927740345579125 -0.014568952013150926 0.001566322390718206 0.0024999172204964713 0.20811829292747125 0.24451360114716578
36964000.0 0.9453122292101794 -0.31244289868659414 0.015602527947928142 -0.012972494844251097 -0.0020656262251908214 0.00020725352254646561 0.2149635752694987 0.25630925326908227
37963000.0 0.9407748826651571 -0.3217782614477865 0.02390363409730011 -0.014822713691911871 -1.2607970812504706e-05 -0.0018225585296660382 0.23193490166279856 0.2306777459588765
38962000.0 0.9395476363868378 -0.33131533161613025 0.026576836473254914 -0.021196899013862087 -0.0004030695678267997 -0.0009479734136930829 0.23973751541381358 0.22739352759744832
39961000.0 0.9357258821184198 -0.34032119552814377 0.026452981447359476 -0.028498233288497998 -0.0012873361280947764 -0.0007771931994832107 0.24236234262877818 0.22725898258262694
40960000.0 0.9319869116689165 -0.3473599285105223 0.025507260243432958 -0.02503904863695473 0.0004814212380957357 -0.002007861730376464 0.2649248800573407 0.22956974524445428
41959000.0 0.9285149450045456 -0.3577000277721625 0.02888125270974507 -0.031439552421684426 -0.002405816103681336 -0.00019303960438727376 0.2698756398415386 0.21889516888255006
42958000.0 0.9251897620401819 -0.3659336953821437 0.03349206404033355 -0.03930466688344015 0.00014905937378912985 -0.005232528413957691 0.27124101237743126 0.21008512929397496
43957000.0 0.9238604198499507 -0.3706515178111006 0.032169904447766524 -0.04929930144608107 -0.0012123512841986372 0.00012697618133695503 0.28524449843768673 0.20888032946171003
44956000.0 0.9187077901343426 -0.3791645468598992 0.0358648858947468 -0.05353936856376616 0.001064759213306849 -0.0017911794712362522 0.3076502787637563 0.20059700647213816
45955000.0 0.9149474252494834 -0.39050668297398045 0.037056006931956736 -0.057510154230003364 0.0011659252566811136 -0.0008619228442134942 0.30762701107590273 0.1876888560157646
46954000.0 0.9122025499896877 -0.3987659021698211 0.03845313660455745 -0.06180767865533573 -0.0009994680248139537 0.002649590416639993 0.32380449017417745 0.1734787254969352
47953000.0 0.9088258713342945 -0.4058819782873593 0.03910672412617137 -0.07571659708154828 -0.0016282765351603038 0.001608514816483316 0.3372245338142168 0.1710464670309918
48952000.0 0.9026191436623724 -0.4159443239896483 0.038872751595230105 -0.08145605725067678 -0.0006445016491626997 0.0018672334333198835 0.33961911484738455 0.15285871087471273
49951000.0 0.8991832710184153 -0.42502593376242703 0.03810054578610181 -0.08495449360699622 0.0017396148141747315 -0.0001625812379360378 0.3494010969298728 0.1500955551413886
50950000.0 0.8958156823045066 -0.4332478022359852 0.04437011376488892 -0.09282692300028487 -0.00031815941991226765 -0.0019545497071525426 0.3508043479465451 0.14292322462706802
51949000.0 0.8917558790610708 -0.4400331475071129 0.042811642663663586 -0.10264499914559297 -0.0010607763112781912 0.003702419146914627 0.36161097622620547 0.14403148670249388
52948000.0 0.8883072067165843 -0.4494351167069388 0.044017995694865385 -0.11367635388438008 -0.001565639020918993 -0.00012440838526814107 0.3686893584615461 0.13801555762381845
53947000.0 0.8841974149477386 -0.4541642017428679 0.04656648114905385 -0.11993871180584195 -0.0005660656120438345 0.0001238163726751801 0.3693178824095521 0.1222719394526979
54946000.0 0.8784486265339017 -0.46641686987361625 0.04620959893987679 -0.1299232825904031 0.00015912490196727622 0.0043695431321151765 0.3848258324295311 0.11738189687919691
55945000.0 0.8746173805563859 -0.47423369441835944 0.0506348559833848 -0.14032107039180497 -0.0012189646423365356 0.002357770669113805 0.39066148970594716 0.09760036833547366
56944000.0 0.8707171190988783 -0.4829252322752974 0.0540427009327856 -0.151907265671032 -0.000919250857877992 0.003330944104086944 0.39710039928309654 0.102082555456137
57943000.0 0.86753704100186 -0.49231862869358994 0.05170979482781576 -0.16396816254341937 -0.0009670728076839914 -0.002682247583657818 0.4093274524478507 0.09505377691518925
58942000.0 0.8581961169094023 -0.49725750955277004 0.05708211526854043 -0.17291984814855427 0.0006242625347320724 0.0017394876764320257 0.412589382372637 0.09871583924809607
59941000.0 0.857042888977268 -0.5059649850804877 0.056517213205580535 -0.18093275376480333 -0.0001815071442353145 0.0002876160385784158 0.4185662924053661 0.09244126185889938
60940000.0 0.8495430049323996 -0.5125687247330146 0.05409075426802021 -0.18742951733642876 -0.000382118158068958 -0.0014944403267905973 0.4087066543787525 0.07475664306011189
61939000.0 0.8463878271925095 -0.5203995938750746 0.05414448485925907 -0.19395546598403837 -0.0012304224906715948 0.00014130538294597722 0.41431916985716183 0.06364304662948096
62938000.0 0.8400481311918997 -0.5304841236785481 0.05934424814419177 -0.21299262376204622 -0.003373154075510056 -0.0006399451304564326 0.43859267002378627 0.05747434702279054
63937000.0 0.8355452910586132 -0.5386260821439836 0.06078970982389923 -0.23391291835727274 0.0036711813750769135 0.0037057324794685853 0.4333065419622975 0.05099766367869918
64936000.0 0.8286379780040157 -0.5432344058667642 0.06249748691305748 -0.247712579845175 -0.0014883598936817316 -0.000878456117865716 0.437299361209412 0.03245487707179186
65935000.0 0.8261649475634896 -0.555482296566161 0.059982389847071695 -0.2647085561756437 -0.0018531629973992734 -0.0009557846806217083 0.44097553812510004 0.01837445030928663
66934000.0 0.8210965556806571 -0.5621597639651575 0.06018167941553462 -0.27676828748347565 -0.0003498049781511921 0.0037862022468366486 0.4372329624984078 0.014811209812363113
67933000.0 0.8158636597783564 -0.568252301621442 0.058478005704130476 -0.2910445791304619 0.0010410936312156367 -0.00032858560402312183 0.4485892829635824 0.017783119500823334
68932000.0 0.7996067104869666 -0.5679291205645404 0.054157472174071145 -0.29923401897599267 0.0021492534373526322 0.0024940926003314103 0.44373242405016355 -0.012640089756637524
69931000.0 0.8011967682004191 -0.5845407812960564 0.05424044993497522 -0.3240472809648947 4.4156574413720245e-05 0.0012606384065671035 0.44745341083086143 -0.011003532350493376
70930000.0 0.7957441614466441 -0.591725286649622 0.051332613992040164 -0.33618012125690033 -0.00269910679301307 -0.001844897436826964 0.4489988741493872 -0.02865223523257336
71929000.0 0.7933024679107871 -0.5995941898748307 0.048448864073453696 -0.35465178035948447 -0.002796899680565265 0.002322781045159857 0.4464464393980454 -0.03273083472518491
72928000.0 0.785180534001533 -0.6089226461391196 0.041771224199918536 -0.3709808557610489 -0.0007015868754418897 0.0006379904587379707 0.4675051585931202 -0.04268371340536811
73927000.0 0.7804029435683896 -0.6153790018702239 0.035726523611365205 -0.39253294526802135 0.0018607103977140633 0.003102543700165845 0.4557259832901944 -0.04886154032647185
74926000.0 0.7767409961145035 -0.6233695331503206 0.029184173733394027 -0.41385026177464124 -0.0020647487668430794 0.004369603496327783 0.4672713870495733 -0.059536814419801645
75925000.0 0.7677646340363227 -0.6276918084976669 0.016115825993001154 -0.4329824526302692 -0.0009213237353073427 -0.0008454737045226927 0.46594883980234353 -0.07601238168121048
76924000.0 0.7609975492242369 -0.6367779267654503 0.012201301894917652 -0.45925642390516336 -0.004239658070962298 -0.003231327243088239 0.4636949852202918 -0.08024769711059228
77923000.0 0.7573597815627602 -0.644156310644558 -0.004524490000958376 -0.482172127421724 0.0017383839145647428 -0.0006814037208084215 0.453468592895277 -0.09249048787079411
78922000.0 0.7494548621830877 -0.6535319023461128 -0.021669399667794416 -0.5093534421119459 -0.0011889922448829408 0.001388036365592856 0.45335305760809436 -0.102327296257606
79921000.0 0.7423074252281 -0.6579774501183371 -0.037911307379025865 -0.5367715712169404 -0.0019344887547104238 -0.002260914571119155 0.4551640000885736 -0.10507174901641711
80920000.0 0.7353480438037803 -0.6691001913569848 -0.05013121240218978 -0.5620569350982928 0.0010809829749268015 0.0014743830525743309 0.4642622136191448 -0.1298641204315167
81919000.0 0.7319097577758346 -0.6729749491166216 -0.06552020839079262 -0.5914459869349247 0.0022261814849001164 -0.001419167167210372 0.4711956369221289 -0.12881971159162448
82918000.0 0.7222050695629892 -0.6809338466418877 -0.08419133661830301 -0.6264816307629646 -0.000168730075760265 0.0010033547716331922 0.4727344594912909 -0.15219133818807498
83917000.0 0.7129793780695991 -0.6895541934507308 -0.10292662696735373 -0.6542880102394689 0.000993277654271988 -0.00047769789454626775 0.47407225101922545 -0.14411072587966692
84916000.0 0.7079286396345197 -0.6952842005318531 -0.11501080520677702 -0.6870166994496486 -0.0019199288530755262 -0.0003783953761201297 0.46477936315197055 -0.16592104516922696
85915000.0 0.69994397136346 -0.7023299980329389 -0.13116973113095218 -0.7174169003417982 0.0008722265125728852 -0.0038550635890927843 0.4627933353742034 -0.1722453406923394
86914000.0 0.6928691552215039 -0.7124179360899329 -0.14839827755912768 -0.7576163345780529 0.0012548279956825217 -0.00246481677174012 0.4617572761221863 -0.16922679912537195
87913000.0 0.6868077421333066 -0.7179255150067793 -0.16973679442052933 -0.7880867755976134 0.002692800396527269 0.0017907529073165238 0.46222251029568207 -0.17668152380189076
88912000.0 0.6800841686642893 -0.7241712310725982 -0.18204183222829143 -0.8237105912612551 -0.003594381077540319 0.002358895819959011 0.46897267550954125 -0.1976509903780462
89911000.0 0.6711674708617491 -0.7335734700608 -0.20194500276952546 -0.8565627265451238 0.003556193400055306 -0.0011368386280836357 0.4653018966535983 -0.20538748118267613
90910000.0 0.6667470601758513 -0.736794968563073 -0.21285275867261663 -0.8925343710594326 -0.0018980507687560743 -0.0006742131443938741 0.46578056727848133 -0.19825966278024415
91909000.0 0.6563794263851566 -0.7434192971427986 -0.2406792809371004 -0.9237540204121444 -0.0017870874168272827 -5.1845629310388843e-05 0.4633123579390273 -0.2204992527107034
92908000.0 0.6487316215505459 -0.7528988557179506 -0.2587696701064904 -0.9601945812583917 -0.0012398944659100307 0.0025868547192081895 0.4633566077837079 -0.23884678005821014
93907000.0 0.6422583580261779 -0.756240872803446 -0.27610093770985344 -0.9892975400094451 -0.0003728005523046073 0.002601639199794918 0.4707098345780876 -0.2505546379384531
94906000.0 0.6303083135516137 -0.7645485780306708 -0.2905258171352901 -1.0253249860326588 -0.0007743592159126651 0.0014157935579285994 0.46141227677532015 -0.2520882742592669
95905000.0 0.6240031142179394 -0.7706026098913196 -0.3159508531063808 -1.0621122848655644 0.00010103405032177508 -0.0038581885321989614 0.46836713300302546 -0.27606166546358124
96904000.0 0.6141880776646974 -0.7804069097282158 -0.3340923714769421 -1.106325271378139 0.0008133656563207445 -0.0055670958439997175 0.45707130533359047 -0.2750271122301357
97903000.0 0.6059751704307993 -0.7870675310888918 -0.36285844071646356 -1.1354255171629783 0.000784733168256641 0.001462338993120916 0.4423831004404726 -0.2899003436867137
98902000.0 0.6011221389477999 -0.790991472619536 -0.3793558280349066 -1.170119753600011 -0.004693675679918823 -0.0001839745099805224 0.4458300733815191 -0.2912691763397378
99901000.0 0.5889704573825005 -0.7976900649222405 -0.41358240636052346 -1.2038386644667294 -0.00052731161793472 0.0010687785417602038 0.46655471270630133 -0.30313227236561363
100900000.0 0.5839065505040644 -0.8017984693016349 -0.4430854944814584 -1.2384170010384716 0.002146316577372041 -0.001003264922838414 0.4575444218065876 -0.3071173920550177
101899000.0 0.5742571360264354 -0.8086284399380942 -0.4714588340301272 -1.2762436138586366 -0.0031435121490032743 0.002135244259275462 0.4550744181490844 -0.3299724866534667
102898000.0 0.5623835747289274 -0.8145169390719341 -0.5097118189587256 -1.3137149341991161 0.0008746947149676085 -0.0015570451532658694 0.4482237980381129 -0.34079520418616366
103897000.0 0.554972775882998 -0.8240867089904556 -0.5513946498809527 -1.353296722067508 -0.002753122474494098 0.0006396041482319326 0.4583712143597562 -0.3299746415580483
104896000.0 0.5470863881792343 -0.8318254725115121 -0.5971363119773716 -1.3857806901162475 0.002641884445423834 0.0010813759503630555 0.4332326192696535 -0.3449553509394448
105895000.0 0.5358908081606695 -0.8344777858121236 -0.6458336226661296 -1.4296501012355936 0.0006701974565722902 -0.0027229981206053073 0.43770117315676377 -0.35501753673190956
106894000.0 0.5288828949584942 -0.8410183026720183 -0.697924342087089 -1.4696190031509202 0.002037230908808985 0.0033085075094056106 0.42743777669790084 -0.3635938805268255
107893000.0 0.5181593504928981 -0.846127235754634 -0.7555878957179146 -1.505947938523963 -4.3104741613805244e-05 0.0003263647961578048 0.43766588931964995 -0.37384167157506654
108892000.0 0.5083437764499682 -0.8508019002950008 -0.81593648277193 -1.5463049166583454 0.0016591538885486594 0.0017138837944895397 0.42257772556259754 -0.37809058242085586
109891000.0 0.49770813841659384 -0.8577691172564379 -0.8673577522807219 -1.5848578712801138 0.0036740006252058964 -7.179819790694724e-05 0.43248062646811497 -0.37327194816480225
110890000.0 0.49172439275241636 -0.8695544766880724 -0.9451484098125101 -1.6101521875676483 0.0017178091879789122 0.0008954348355470819 0.43591511904800095 -0.3878994682973505
111889000.0 0.47706406960389347 -0.8644910887493124 -0.9996988945082206 -1.6582000570254005 0.003164037899174028 0.0020383662705192127 0.42807449899361133 -0.3982026135416098
