! Created with skrf 1.9.0 (http://scikit-rf.org).
# Hz S RI R 50.0 
!freq ReS11 ImS11 ReS21 ImS21 ReS12 ImS12 ReS22 ImS22
1000000.0 0.9780801492458892 0.0037610748430847063 0.007779466219393341 -0.04484268355102555 -0.014590030429930399 0.0021737898185668738 0.3528154961611656 0.2813178427482881
1999000.0 0.9963292794279501 -0.006943990158021766 0.0001636506251648565 -0.015425147039006278 -0.005747034009027377 0.01076896866749935 0.23614208161902592 -0.033127204287160934
2998000.0 1.004152814954855 -0.015469997694913227 0.007505998604093429 -0.010556638175354287 -0.00362463596322948 -0.010493357749341415 0.20197552439227678 -0.14517673401914236
3997000.0 1.0025000799279002 -0.027664909629409064 0.008970098832887095 -0.0032621229931346194 0.0011850497853542416 -0.00466394901219255 0.09709945396637612 -0.23364234765196484
4996000.0 0.9994952244306494 -0.0371370635334259 0.009690183951038269 -0.0015443730117884035 -0.0005393477452439227 -0.0074609782283802635 -0.05427584927306337 -0.20466397251714263
5995000.0 1.0007316824988974 -0.04277830908925585 0.008375156587536575 -0.0024018310884495386 0.001364387397273091 0.0021653155657922842 -0.1077497335012106 -0.11610957489551882
6994000.0 0.9982063210501672 -0.05595109438117017 0.004894020148124434 0.0032275266931122474 -0.002374519699281196 -0.0017847455819319286 -0.13973254198112775 -0.01829293163334863
7993000.0 0.9992778321344026 -0.06393653146252698 0.002498426715289892 0.00552924274211449 -0.0001901088839906747 -0.004367334280185548 -0.14682179866532802 0.04381484684633603
8992000.0 0.9993021092890335 -0.07172100886894064 0.005648514082597105 0.0015876033769182374 0.004665949284465039 -0.0005849132334596199 -0.15663965918852674 0.059757757010635744
9991000.0 0.9969375430067632 -0.08423272067153051 -0.0020919717084498333 0.0024541365176260032 0.0006083952491469081 -0.0002450597110185017 -0.14385088258383322 0.09307844351160065
10990000.0 0.9966110739906217 -0.09300955101095587 0.00040867115293034833 0.005037875700264108 0.006015154650255117 0.0006145966940874653 -0.13303752941900787 0.1091635140057639
11989000.0 0.9949083415119078 -0.09798431825565304 0.004897156383270301 -0.003997144103518781 -0.0020995359788701443 0.0010608782576383515 -0.12853933900140646 0.13738845623298016
12988000.0 0.9941462036554767 -0.10525087723341603 0.007606359984395996 0.0002101999702077548 0.00030436169367784125 0.0019440948387479857 -0.12021678272491321 0.1598601274998585
13987000.0 0.9930309109580359 -0.11786754645725629 -0.0030443763628958055 -0.0015321098162799252 0.0006230107121459053 0.004665678619270776 -0.07896957402513291 0.185582071945808
14986000.0 0.9922224185642694 -0.12426803894594883 -0.0011193697277743935 -0.005612199466469655 -0.0006961942667267351 0.0007273362981914374 -0.09264492046806597 0.19659906199681046
15985000.0 0.9935527371203651 -0.13213713985716016 0.00384321496957363 -0.006739653945318346 0.0025195507332750056 0.0013430480695244603 -0.05342559108548366 0.21410753701114002
16984000.0 0.9884979538554436 -0.14397211934121643 -0.0001252914962726368 -0.005568072942217152 -0.0011945786031546933 -0.002058314752870654 -0.053711005005753466 0.21845323830539096
17983000.0 0.9918258631508435 -0.14980291010218758 -0.0033465798162204976 -0.005476495620500904 0.002033610990316424 -0.0012112518155050402 -0.04881332968577346 0.2225207590985569
18982000.0 0.9864273927911497 -0.16224836832540107 -0.005875967043703832 -0.006279869542737847 0.0007419126950762922 -0.004158423508249927 -0.018503322083247856 0.235002525356928
19981000.0 0.9881471270161635 -0.16673310045309536 -0.005172107933498803 -0.0020540207573047408 -0.0011927686815576984 -0.00011081879639483622 -0.021772144434462546 0.22850947640998373
20980000.0 0.9826243935754772 -0.17570740530616719 -0.005142522008556855 -0.006090973540043363 -0.002390246272907321 0.00043458089513192106 -0.0054328401860826315 0.25553820679199224
21979000.0 0.9801707160813218 -0.18738750493196984 -0.006502275295384786 -0.003426958321241839 -0.0020605066113842043 -0.0026836221467341458 0.014281581450041365 0.23868496835009495
22978000.0 0.9813272820140082 -0.1928914086241252 -0.005092666656950104 -0.00404713588332399 0.00020011351072193325 -0.0021218241459947957 0.04601015394874846 0.24796593405994796
23977000.0 0.9821506504278743 -0.19941070214034015 -0.007489343378202815 -0.005827863812235975 -0.003244246496410948 0.00027364947243012984 0.03673597940562779 0.24289104881767318
24976000.0 0.9766156510775232 -0.2091820810380886 -0.009428164559374562 -0.004950750089830175 -0.0005673831623044177 0.0012335730700827733 0.06390376788706255 0.25146733311650327
25975000.0 0.9786869662060429 -0.21828983530941584 -0.010816513029724648 0.0005383292964356487 0.0070024274818610115 0.02645510772931529 0.07428361709711823 0.2527417123924318
26974000.0 0.973592532230926 -0.22821755123603682 -0.0018374734573170343 -0.003390553963979247 0.002994707868079863 -0.0009294485139315479 0.09291907471213409 0.26373499768375613
27973000.0 0.9719102357782833 -0.2352413299537345 -0.0027005659144479044 -0.0035769526782195703 0.0013054416732381907 3.9956158445865174e-05 0.10945891839634028 0.25359252405680915
28972000.0 0.9707350525018524 -0.24236095197293228 -0.0019167435273783559 -0.004881998934868091 0.002094208615922653 -0.002744070753205049 0.10798175648560257 0.2536524847981664
29971000.0 0.9677396990739785 -0.25349887688943645 0.0010095441445439294 -0.0008658406262621696 6.493294038065841e-05 0.0007202379939475019 0.1582524197718698 0.2552049890682937
30970000.0 0.9642637850385631 -0.25895729448714855 0.0030376016710900846 -0.000573981522988088 -0.0033550958591379524 -0.003410842242173531 0.16739086340943327 0.25755176250424777
31969000.0 0.962295229970022 -0.2672770708514716 0.004948439518930283 -0.0051458353548368635 0.002554388911433393 -0.00034047961579237817 0.15740714844685927 0.2517686161276429
32968000.0 0.9624170791414576 -0.2757681252970064 0.009498335335699484 -0.008282308670576251 0.0015337818124726782 -0.0006013278172752576 0.16754876821692608 0.24651267314479144
33967000.0 0.9602241141764369 -0.2834302671400446 0.01216470439859348 -0.007825255311824687 0.0017715647971503156 0.0026291099239662387 0.18517094146801774 0.2395708264539903
34966000.0 0.9556593743658806 -0.2959125713561589 0.009962909153503847 -0.013360987018971662 -0.001586053666480174 0.001185450691486068 0.20845412498411478 0.24244468161233615
35965000.0 0.9537149378185357 -0.30198017949989164 0.017224441780936354 -0.01686030447160235 0.003780813968330859 0.0013154695196294984 0.21799545509955207 0.24485746311872789
36964000.0 0.9522021055664017 -0.3108244354694641 0.016595209338994 -0.013221970237637297 -0.0012864623131107044 0.0005511147435243012 0.21471223794206623 0.25454074596989285
37963000.0 0.9471528521507913 -0.3188890042124712 0.023534693284038524 -0.018942940864243647 -2.24816569528131e-05 -0.0012174149927972244 0.23045653344957223 0.23321920246927824
38962000.0 0.9458888708762409 -0.3266239867331704 0.025420322026025195 -0.0236143436669999 -0.002708892115434769 8.995993717395777e-05 0.2366382657296508 0.2259539674899805
39961000.0 0.9419869735310948 -0.3370262077505671 0.02845733803493518 -0.025799331732729663 -0.00026523186949839223 -0.0021656770881577398 0.25780993176052375 0.22891152280004184
40960000.0 0.9387972863384966 -0.34406602941946307 0.024632384492422887 -0.024033191718484764 -0.0028587313453949043 -0.0002861379599872064 0.2795635398613626 0.2230349898921339
41959000.0 0.9343933324168852 -0.35407129136922183 0.031072181220379448 -0.027210874624272904 -0.0004856384368592596 -0.002250172955207198 0.2722771772558155 0.2073459103951781
42958000.0 0.9311303981082995 -0.36161351402938435 0.03189682704759226 -0.03877862555256423 -0.0038274098752092904 -0.0025144740092612624 0.2862962354357167 0.20040521496542124
43957000.0 0.928534442392303 -0.3681203340814182 0.03406475902585531 -0.04371263452104448 -0.003145362848500196 -0.0005343812884783056 0.28846763888993954 0.20403982518435823
44956000.0 0.9259972399190243 -0.3766405068435273 0.03375053497691641 -0.05211999609153806 -0.0003242411623847768 -0.00475520433692553 0.3134712400747888 0.18994070001706875
45955000.0 0.9217236079618494 -0.38617964021138024 0.03617624753182027 -0.05556596003891652 -0.002554083275256199 0.003982643539002275 0.3089133462487156 0.18937579767071913
46954000.0 0.9188400760303749 -0.39395395050246035 0.03306862623225821 -0.06192718845031805 -0.0017665786007253373 -0.0002111887516140694 0.33057630989090386 0.1745585287888079
47953000.0 0.9143082953750111 -0.40132302905320716 0.03600138442039214 -0.0701119184469741 -0.0012381912837177676 -0.0022400681334783876 0.34965155894965483 0.1683623772880274
48952000.0 0.9109209080623366 -0.41047846491002205 0.03784946181348597 -0.07749342897903969 -0.0032020131043511125 -0.0019218017062027372 0.33357407113613863 0.1590443034492664
49951000.0 0.9067830521394079 -0.41851156912651766 0.03697685997697009 -0.08678496545032179 0.0034405125130954626 -0.003946448264570758 0.35569189461934236 0.1494551414374984
50950000.0 0.9042912679802956 -0.4238616277803278 0.03604351719922564 -0.09371912111842026 0.0005457912193471552 0.0031219893454668525 0.36680048478415567 0.1387512456308353
51949000.0 0.8999995027905259 -0.43450252871738987 0.03767093541391448 -0.10303930908469197 -0.00035890837995828794 -0.0030579495957735662 0.3705695466148321 0.13825725660043234
52948000.0 0.8979073562342567 -0.4426380795440083 0.03899288956475563 -0.11151516673081188 -0.0002175342451959571 0.00024620003842612455 0.38188905205268747 0.1366239225586053
53947000.0 0.8918684194897879 -0.45016596026108824 0.0421897507034461 -0.11889249264722761 0.0018529347584224367 0.0019074825591679694 0.3818321200500598 0.12124223197828697
54946000.0 0.8870227251507473 -0.45865424469870725 0.044184922297443696 -0.12533653571827674 -0.0015371071206014635 0.0011988433191190073 0.39150546607326625 0.11058120380857922
55945000.0 0.8841352620721574 -0.46840789802969546 0.04766820777856841 -0.14022826267792535 -0.0007124786401330751 -0.000679116170727162 0.38714408594276234 0.10911690816016122
56944000.0 0.880793211170803 -0.474595482816077 0.04613367909595866 -0.14768976744744744 -0.0033083259257527036 -0.00029971191324589387 0.41103621045375427 0.10536162224978801
57943000.0 0.8765535507281903 -0.4844614433902886 0.04689216552032556 -0.160772680177866 6.338736723354606e-05 0.001117124753787239 0.4135959107670417 0.08845852099188238
58942000.0 0.8695086670717825 -0.49017147251247895 0.048546822515480655 -0.17142919735450676 0.0032232229386411682 -0.0013103546445208608 0.4312316514792102 0.08800119432782114
59941000.0 0.8687901176386459 -0.4980030154631874 0.05055459412791341 -0.18268093715977027 0.0014376958085334734 -0.0026713424034790602 0.4156998684399044 0.09069775059027732
60940000.0 0.8593213999325567 -0.5073322266552271 0.05083783323583843 -0.18377530362767758 -0.0010813761725571738 -0.0005790919222382554 0.41519875607213913 0.07268726352386856
61939000.0 0.8571809255479534 -0.5120455850271086 0.0516169576845043 -0.18926758826697218 0.001670636052686133 0.0006431203908828393 0.41229153653841144 0.05787850256188218
62938000.0 0.8512511441556858 -0.5235974554241415 0.05421432056856867 -0.21025877464852322 -0.0003124688889819123 0.0008752723915207251 0.4548259245776444 0.05005527332790113
63937000.0 0.8476199668235753 -0.5303305037493138 0.055854328697474684 -0.2281545321696776 -0.0007588531448959255 -0.00033363636383878094 0.44012222625055125 0.03617633108191862
64936000.0 0.8393125958198726 -0.5379177949781058 0.055732857177908414 -0.24381499161667 -0.0027112190738035596 -0.0015171117825472742 0.4468949000062253 0.03389590958959968
65935000.0 0.8377457611967365 -0.5488549810258629 0.052839660707482146 -0.2567244208252853 -0.00412925329493792 -0.0005044382126736012 0.46171264356177993 0.023423100824393042
66934000.0 0.8335675930577051 -0.5513554962100079 0.05278266830996905 -0.27248826482689087 0.0027033906153522214 0.0021456368880650653 0.4408753477303364 0.013698056668557073
67933000.0 0.8310693546813221 -0.559189503618917 0.05490213949254871 -0.28161300283364177 -0.0007010638331682959 0.0005286274239153469 0.44353932994586037 0.002908470755772738
68932000.0 0.8230098858325946 -0.5682276446837302 0.05227861275800898 -0.2947954339162297 -0.0014332967440213687 0.0006561367551675055 0.45931942895009437 -0.00888985383733639
69931000.0 0.8146133012735187 -0.5764995627511432 0.05283440113973263 -0.3101348843471915 0.0031865188725832237 0.0013968110948410105 0.45498116674928796 -0.014545845766632414
70930000.0 0.8109067822640522 -0.5819204299241959 0.05352716075638968 -0.32358362889616277 0.0011884267224363245 -0.0035806597667005806 0.44973616423646495 -0.028553975605357915
71929000.0 0.806893976004889 -0.5921373946112689 0.05010736426583785 -0.3429638373437943 -0.0010218315500759142 0.0005567768486480505 0.45409185555586623 -0.03488787852020068
72928000.0 0.8017227262680319 -0.6012966396133894 0.04607963795115463 -0.35666052935424536 0.0019310952398979273 -0.0027194682898396827 0.47279645243715007 -0.05457274666063367
73927000.0 0.7958148151681087 -0.6067120771098504 0.03757517912235915 -0.37846796088199147 -0.0024182869359091652 -0.0009739766490194014 0.4663106541837772 -0.06473134450471206
74926000.0 0.7893046458885863 -0.6153526298543731 0.03143881209462012 -0.3941782195031116 -0.0007126988607615802 -0.002442571474624672 0.4640642311314694 -0.061062304270295714
75925000.0 0.7848769132333208 -0.6225329260547864 0.024054363549455577 -0.4164705741785937 -0.00020507337806969085 -0.001506435462895137 0.47284565649583943 -0.07465585716485061
76924000.0 0.7776919362101137 -0.6293839919125401 0.011705294621276015 -0.4354495085284161 -0.00025965784608803465 0.003982224124876442 0.46755044170585763 -0.07338595113955679
77923000.0 0.770321069532112 -0.6369905307026966 0.0015495836280667267 -0.46025052726872534 0.0025502364075674325 -0.001208702572024051 0.4684953708888126 -0.09372675285506245
78922000.0 0.7656024834519947 -0.6460349036206469 -0.016589452763506242 -0.48460928185461677 -0.0006316892060961521 0.00028597782586699456 0.4687868697161137 -0.1050666977484655
79921000.0 0.7562052755008081 -0.6500977804074916 -0.03355761396009279 -0.5077722390173723 -0.001598088304785944 -0.005947401066743891 0.4540972245511544 -0.11424911168117856
80920000.0 0.754204247931095 -0.6611865275780288 -0.05004226316136172 -0.5378426711569555 -0.000887797911208059 0.0009819090773302828 0.46871799321679236 -0.1261681663488178
81919000.0 0.7458252859651258 -0.6663059645200831 -0.06645683696364109 -0.5628035964435445 -0.00034112842593801555 -0.0007569352627715609 0.4745133295549332 -0.13296416804421898
82918000.0 0.7366450808257282 -0.6759075453198139 -0.07922396304864145 -0.5942502319804911 0.0032491180215768294 -0.0023978739576476222 0.46936586651768136 -0.13886610154427956
83917000.0 0.7308477247459962 -0.6815565097323921 -0.10197506840879224 -0.6230797467732537 0.00024181960985048752 -5.76880228799532e-05 0.4696904876319563 -0.14679376622001064
84916000.0 0.7240309049046133 -0.6897609647588117 -0.11669635912062255 -0.6585620190095923 -0.0007904644737038092 -0.005947686765105587 0.47665042000421576 -0.16775651334837863
85915000.0 0.7192286938954865 -0.6964159792612404 -0.1411194377226209 -0.6862325951875584 -0.0005372965114346855 -0.004510790266527598 0.46827238917538827 -0.1744070064704215
86914000.0 0.710167790841052 -0.7057972382476003 -0.15527415294804028 -0.7221019642400016 0.004573398708740142 0.0022194979677607274 0.46549857105085346 -0.17233227506655144
87913000.0 0.7058768824005732 -0.7095466759547587 -0.17034820426398062 -0.7542836635219122 -0.002611229709561793 0.0024282603644794425 0.46437037611061366 -0.1988911104873398
88912000.0 0.6991841934720988 -0.7181141268801016 -0.1880057682814951 -0.7861819960657231 0.002877049996586461 -0.0008107944176188211 0.46448140230091356 -0.20489258565545246
89911000.0 0.688295355945398 -0.7279486235140484 -0.20260101586557847 -0.821217364694169 0.0025027561113916477 0.003087223651258807 0.47013671260972595 -0.21348910955250144
90910000.0 0.6849179027066505 -0.7297889446250355 -0.22078923848986828 -0.8554778964789587 -0.004745387291042961 0.0005987078266708578 0.4609319225779613 -0.21290766572527237
91909000.0 0.6745762266623265 -0.736957226972514 -0.23945841686992902 -0.8911741790464686 0.0015351443481316476 -0.00021239436038524844 0.4766632529935927 -0.22403394656963535
92908000.0 0.6671492981327173 -0.7459376714505191 -0.25741051726562586 -0.9216842603435532 0.0045889102011771096 -0.0018133739499983609 0.46176577787364526 -0.2415826197178665
93907000.0 0.6585823729263313 -0.7515037397330254 -0.2766897017745214 -0.9567466689891982 -0.0031057967417156005 -0.0011390561698958305 0.4574834781541787 -0.24439537318851812
94906000.0 0.6475047931315205 -0.7603964697029482 -0.2941641393836201 -0.9839098724663221 -0.0025016446089388164 -0.001030253302608809 0.45883374304415514 -0.2588901042799632
95905000.0 0.6401960756688827 -0.7666843396197436 -0.3127825293681739 -1.0183692682455847 -0.0028134462132252845 0.0015245501717845525 0.4606314341893907 -0.27179023184181034
96904000.0 0.6334853266522218 -0.7750307627806318 -0.3318766765156637 -1.0580450732884292 0.0025637087863461835 -0.0018411570896616557 0.4523034084928945 -0.2767322757968607
97903000.0 0.6255216528212147 -0.7786483331208099 -0.34644068065651573 -1.0889453126338577 -0.0027244400585773394 -0.0012034484189374737 0.4431850306658775 -0.2980083135311585
98902000.0 0.6211336558780617 -0.787117662544523 -0.37082429136050366 -1.1262214189163604 0.0033538988032246783 0.0011486343531133276 0.44099988385673017 -0.2981433870931074
99901000.0 0.6082569149806984 -0.7907417338064074 -0.39983145992203595 -1.155573777292308 -0.0034971003207451517 0.00024900886870381716 0.4611456872819502 -0.3181243400170094
100900000.0 0.5997273716833086 -0.7967923104949185 -0.4289177952376535 -1.1854280415012417 0.0026038751045646107 0.0008274971485858045 0.45951104569854906 -0.3089036529697018
101899000.0 0.591224804655402 -0.8037358858438397 -0.45230128821530885 -1.2233280511697473 0.000290239589737252 0.00010840600993654198 0.44006317397596134 -0.32512307249286804
102898000.0 0.579698969900564 -0.813321536430227 -0.4894700529254094 -1.2602493452508505 -9.789008644835188e-05 -0.0022000641579745205 0.44768008867858405 -0.33851368316470626
103897000.0 0.5732178630849327 -0.8195725146229242 -0.5241662858183638 -1.294774419506109 -8.750472154143934e-05 -0.0006900535293359169 0.45477024382205333 -0.3420075894056011
104896000.0 0.5665898704444998 -0.829314121114361 -0.5652858824017394 -1.3281439566862796 0.00046081907866255266 0.00012576866831848902 0.43954270457294864 -0.3382426895022236
105895000.0 0.5560136414407466 -0.8308465883072524 -0.607059355875615 -1.3709333110494046 0.001987499870170823 -0.0014084126093126836 0.4297878354620378 -0.362753300299055
106894000.0 0.5453003730716376 -0.8355133404781354 -0.6603128028043284 -1.401288738331145 0.0012010278884565877 0.002930140684822063 0.43545216344202126 -0.3746875265533445
107893000.0 0.5388975503453954 -0.842408156237659 -0.7124250948551856 -1.4369973645910348 2.3617461433694823e-05 6.906353845263025e-05 0.43680807179676906 -0.385858293863419
108892000.0 0.5317803366243068 -0.8456420110648115 -0.7712135131469865 -1.4758119933024947 0.0009883303819840214 0.0014620789236382957 0.42376618060714755 -0.37997736547145855
109891000.0 0.5157156993960923 -0.8551525502162753 -0.8235293244375753 -1.5057475946360968 0.0015694946651116123 -0.0011943239379189334 0.4325028726547827 -0.3776677460458608
110890000.0 0.5027791791849708 -0.8546646056951738 -0.879721015171443 -1.5057368694316169 -0.0007564474335401104 0.0009882884191442193 0.41270421668976737 -0.4050493386384992
111889000.0 0.49843975567418264 -0.8612184298007453 -0.9437551129598079 -1.5733147963653746 0.0004571883247372646 0.00036426756263759395 0.41882940885366515 -0.42316219579174297
