! Created with skrf 1.9.0 (http://scikit-rf.org).
# Hz S RI R 50.0 
!freq ReS11 ImS11 ReS21 ImS21 ReS12 ImS12 ReS22 ImS22
1000000.0 0.9983421325092787 0.016693341849848213 -0.004818481884740102 -0.057307366182511234 -1.9603095771603065e-06 0.0006294055758533108 0.3219809728737347 0.2722633422851547
1999000.0 0.9948848146750165 -0.014301392273064316 0.0015301491285236418 -0.01627445454242256 -0.005656744003683807 0.001284486860029051 0.271377941251083 -0.04934718185280412
2998000.0 0.9998111301338372 -0.018729204120554677 0.011509489367870322 -0.011421862703643397 -0.0023804549081461236 0.0006702926703851313 0.19387385887366637 -0.14007780297189737
3997000.0 0.9976527039651741 -0.027562825174257746 0.014012163310335668 -0.009380985315311124 -0.008230525383870086 -0.0008941592642427696 0.09514455919647999 -0.23040979122111435
4996000.0 0.9967209796553567 -0.03614626956555934 0.01635538209634611 -0.008090099926584415 0.0012779970245045597 0.0049568748475887 -0.04113932424876357 -0.2063857172066786
5995000.0 0.9975995775137221 -0.04902749703424835 0.004346473067631375 0.004861481119582293 0.008431345417570566 -0.0032636191607036233 -0.10947114700888795 -0.1148200926212762
6994000.0 0.997853595999703 -0.05750782499331061 -0.0033895645334551384 0.004273357848079545 0.0032429703709470027 -0.0012659368883004636 -0.14467360838368998 -0.02279138290522775
7993000.0 0.9990496084109526 -0.06698655728078731 0.0042260905926028635 0.005927816948414787 0.006537969944703916 5.621780189478291e-05 -0.1670645699991099 0.024044521585020302
8992000.0 0.9989492007872733 -0.07108199519194663 0.0018553922152476725 0.007420960344328646 -0.0006794807946183388 0.003429047440352179 -0.16772169481102533 0.048962158052186386
9991000.0 0.997115942571788 -0.08157830502299333 0.005931769952965027 0.0041981401746965605 -0.00417365901525451 -0.0031430940106342265 -0.15509117190032742 0.08059965529593217
10990000.0 0.9950102313084989 -0.09111246490139371 0.004024363524174606 0.000951222112977797 -0.0015638530132774185 0.0003518038272434486 -0.13456307206835139 0.11967008431319698
11989000.0 0.9951981666591758 -0.10070549840110668 0.005162543151261329 -0.00456568133033447 0.0002094886464631202 -0.0022009126531480185 -0.1281061603656625 0.13273252181875836
12988000.0 0.9942729663896869 -0.11055779905394587 0.001374935574007029 -0.005338003019794009 0.0005539459256775609 -0.002558331056762246 -0.11926083405633495 0.16973996389238258
13987000.0 0.9910227286796225 -0.1189545671270993 0.0018315470090130564 -0.002213042340009637 -0.0009061557245777927 -0.0019460264006479705 -0.09191459780285895 0.17847987826469033
14986000.0 0.9920304623179642 -0.12364644036205047 0.003007748968154815 -0.0053071833517944 0.0004491220499632228 -0.000425530339652571 -0.09208477937366125 0.2085749226424743
15985000.0 0.9936964785131409 -0.1296219477348755 -0.0016019049582138968 -0.005599764978001285 -0.004677557969921115 0.002053113347705737 -0.06086978821061116 0.2125450048347534
16984000.0 0.989127364490279 -0.14302890820220462 -0.00044189408274829055 -0.004825862421587777 -0.005145562798762666 -0.0018246345257310365 -0.06496046992002388 0.21436284996409635
17983000.0 0.9911026789724912 -0.14738271142352902 -0.0015360888804505824 -0.003301210338429843 0.004972365221650769 -0.005933246759500054 -0.05287433157942386 0.22879206629162024
18982000.0 0.9858241041024599 -0.1608139420435382 -0.005040781744517883 -0.004669843752968106 -4.649654385357304e-05 -0.004019191584934796 -0.020617417460222456 0.2362534971300127
19981000.0 0.9858531214939146 -0.1649909191583124 -0.004743973291247808 -0.0064567776566355015 0.0066693400933712545 -0.0008178796001708925 -0.01795863001426326 0.24470669308838042
20980000.0 0.9854492360925036 -0.1759529266983111 -0.005029697658412949 -0.002495678207513001 0.001890122060049847 0.005578091097419701 -0.000977294125362136 0.2596821238470221
21979000.0 0.9847842660621711 -0.18118198145894956 -0.0033833630119661554 -0.003175588272030759 0.0013292791623314413 -0.0018392923478314756 0.020431148954706452 0.2390837943090886
22978000.0 0.9813655592334373 -0.19122033835197244 -0.005967259929239605 -0.0038983516819921897 0.00484733386397445 0.00100701784169275 0.028585156676316517 0.25862679061773636
23977000.0 0.9835582994079486 -0.19830270153163299 -0.00941952922887391 -0.0018110675574616424 0.0011792435997543074 -0.0033283244229699877 0.037322917250644426 0.25810767591490097
24976000.0 0.9783129051861095 -0.20795466974154334 -0.0024387091434046907 0.000378290730230546 0.0009397893577016583 -0.0011302508807391853 0.06200459286353767 0.2560950993670845
25975000.0 0.9787157202061945 -0.21588460908149557 -0.006170349314840747 -0.0018876777826060058 -0.007456613451766445 0.02806875509097323 0.074867198858737 0.2673456147728748
26974000.0 0.9744699714576667 -0.22505154027532034 -0.005906787015365211 0.00021203096475266118 0.000934293508296426 0.0023186641975092375 0.08944545283986431 0.2622131461868981
27973000.0 0.970977409060911 -0.23416926684208644 0.0003978646017412228 -0.001223223086872259 -0.00401191323246303 0.0012686853782116507 0.11244978180238864 0.2541518496206455
28972000.0 0.9686614683508407 -0.2440636776609609 -0.0033176058036660087 -0.004611584608557195 0.006875045652073366 -0.002935744589368614 0.11749308684617948 0.2550467282388781
29971000.0 0.9677083594261949 -0.25250735390610385 0.002243898915689784 -0.0018097089651836875 -0.002855534352889696 0.0012319552072891393 0.15652618282838396 0.26205331463115533
30970000.0 0.9646458721277686 -0.2561522309484275 0.002016575864024303 -0.00042012415715313915 -0.0016404175333353417 0.0008942753186547156 0.17121895966889647 0.2514657914208229
31969000.0 0.9628191324145389 -0.2648809055340052 0.0044814542680499175 -0.004328525014537537 -0.0003419667579028946 -0.002210184820359009 0.14495680528439472 0.2513143649450665
32968000.0 0.9622024244328927 -0.2734702496789429 0.008765383802751327 -0.007602345529700991 0.0016592782227615658 -0.0012808435478110585 0.16449511833170305 0.2477789066850506
33967000.0 0.9591167587051661 -0.28187967632998323 0.010982574117955246 -0.01016593871630257 -0.00044646231951278863 -0.0005479528573775856 0.18947823337354916 0.24243392153458815
34966000.0 0.9571296380414951 -0.2914367659845896 0.011538047444071615 -0.014302853162161474 0.0028646000136359853 -0.002439208011215262 0.2015273465328643 0.2505348119751481
35965000.0 0.95293233659571 -0.3010917514915354 0.01489504806643344 -0.017620986148017867 0.0020783132400880658 0.0032113278214898344 0.21497743603796127 0.2507993485050236
36964000.0 0.9515683801299311 -0.31081139433569527 0.019195945572905503 -0.016395490259887006 0.000569922307735674 0.0037400977293436124 0.23186864637425195 0.25249911164709493
37963000.0 0.9458158218731403 -0.31931148620811667 0.022710716204434236 -0.02072640816764082 0.0009729790811327722 0.001440642036620488 0.22431374605662655 0.2322239095249308
38962000.0 0.9447480628745945 -0.3282447634307384 0.023008193093680414 -0.025658437626128305 0.0015965030642639778 0.0010639405485250242 0.24513943534076635 0.22856916848475048
39961000.0 0.9441587431696195 -0.33287183118636604 0.026421587689371924 -0.029876922625712808 -0.0010768331981845275 -0.0007268048625922106 0.25084999919154033 0.2245872189676078
40960000.0 0.939479934178744 -0.34218205040519417 0.022583524647181386 -0.023237874477028894 -0.0019051788638863648 -0.0003599622947888575 0.27671280136844284 0.22956419796394367
41959000.0 0.9364558927610477 -0.3522603753505483 0.028672406874857045 -0.030146728202122542 0.0008093817983219036 -0.0005009395458757488 0.2759050993309101 0.21291711371376568
42958000.0 0.9312302266188267 -0.3600227927249171 0.027652459264590642 -0.04116314183320019 0.0011586066201364157 0.0006163368994187119 0.2897952204081295 0.20384665218885406
43957000.0 0.9287745962966893 -0.36611793174866686 0.032377106715508176 -0.04560950320900893 -2.9945833926591473e-05 -0.001932651351118313 0.2948971907225703 0.20243541836826878
44956000.0 0.9258744050932982 -0.3760207580189307 0.034372295726567526 -0.04995298728209743 -0.0008211338731569457 -0.001963347997676233 0.3099640489656022 0.1976296640255449
45955000.0 0.9220745720123491 -0.3853292425189699 0.03426383444096977 -0.05482228331483298 0.0016832377652516973 -0.00018209278041556745 0.3147038664695279 0.20144850393619101
46954000.0 0.9201477035136716 -0.3912694754392632 0.03621312076648194 -0.06217203502316933 -0.00027150025922359705 -0.00035746126951953776 0.3335287685401192 0.18189466325626916
47953000.0 0.9168660049921545 -0.39989331106899784 0.03627966132942161 -0.07344451779011468 -0.00220780981770633 0.0004146222899694901 0.3465346899241343 0.1722828988703874
48952000.0 0.9110597605105696 -0.4087221434708715 0.03474024501781079 -0.07911196130416988 0.00045826091162218735 -0.00031511511373496793 0.3485420209159402 0.16216558081427845
49951000.0 0.9073102506313655 -0.41721295034100836 0.03518743329461327 -0.08636873099899721 -0.0026714831789430523 0.0004238840796825534 0.35987114095277045 0.15031044552642123
50950000.0 0.903653813362579 -0.42457898167510494 0.034997665627923 -0.09850312809487878 -0.001353756502798467 -0.0005778109928747152 0.35612192877988513 0.15176402718066767
51949000.0 0.9005854334042703 -0.4329971140516326 0.03898071211554543 -0.10299415111900757 0.0027121813342398976 9.36912918527128e-06 0.3640220360899964 0.1396653797936102
52948000.0 0.8978604364233188 -0.4400035134447537 0.03880952553016155 -0.11125005431914961 0.000365808321007018 0.0007834263885484243 0.37417848066408876 0.13749627275280657
53947000.0 0.8908199778893716 -0.4507677943001025 0.03927467594218639 -0.12065730542377551 0.0019962259545882 -0.0016712398375542722 0.3770029103919764 0.12535496720903969
54946000.0 0.8862331121510187 -0.4565238791641899 0.038348298315496875 -0.131693489269575 0.005870589172307227 0.00038307910559720127 0.3953641045955737 0.12296223957923125
55945000.0 0.8850799453375183 -0.463449225069301 0.040777044469153464 -0.14220103830707664 0.0025784278395852324 0.0014554649598502297 0.38938626333203713 0.10153168237611071
56944000.0 0.8806245953145204 -0.47355644061625546 0.0420893029846285 -0.15102989188077354 0.000974864863449749 0.0010557116984343323 0.3969492268689619 0.10226771642675607
57943000.0 0.8770125359584201 -0.483032038423727 0.0435234136893184 -0.1626917882287808 -0.0024198011394628792 -0.0025671633222594447 0.4146128386026949 0.09980074383518225
58942000.0 0.8711947892742881 -0.4874833964498984 0.044306912275415056 -0.17197862775609263 0.0030364628059909695 0.0030523280209101785 0.4247807986652749 0.08281224393078107
59941000.0 0.8670091213876305 -0.4969325817408725 0.04853422011794086 -0.18054387587149906 0.003618500301272946 0.0004261973939486226 0.4242873720020783 0.08361422331499618
60940000.0 0.8598701319439557 -0.5038270052385878 0.04492228607409126 -0.18721036665870697 0.0016521362310257704 -0.00013732270732825765 0.40973703576382836 0.06903011121178401
61939000.0 0.8583039156811493 -0.510916745729093 0.04820353494348273 -0.19402647139550946 -0.00031362529360384826 0.001768287047791704 0.41886728069395396 0.06750587647229242
62938000.0 0.8526221770800596 -0.5219575731965767 0.04861572825126533 -0.20913093534054 0.0021505288895397223 0.0007938470159520966 0.44139521372229534 0.045817061752247125
63937000.0 0.8456683826251334 -0.5292532186819376 0.04805335138994703 -0.23180640039531755 0.0013085773954143673 0.0030811685934415455 0.44819377323389575 0.03549001708259946
64936000.0 0.8428185189880005 -0.5333187807642568 0.05166676890162325 -0.2476693150513932 0.0008373767675174548 -0.0014904893749138298 0.44649410743328527 0.03393717836564342
65935000.0 0.8388216623959375 -0.544942361876296 0.05246175693587228 -0.2620785361303009 -0.0026046082122926978 0.0026479586608286463 0.45131726570673564 0.02019219064257828
66934000.0 0.8341251813374733 -0.5520688595888446 0.050713260838320014 -0.2706646312545186 0.002072943363409841 -0.003589773646763135 0.4387503024489481 0.016008086312208694
67933000.0 0.8295766879829565 -0.5595494982405296 0.05268439321399159 -0.2828945231354498 -0.002632025740077967 -0.0045756966109726975 0.4457674331771238 0.01703995803775525
68932000.0 0.8213893210173908 -0.565694443807423 0.04741192214871555 -0.2980584288294061 -0.000815633315759746 0.0032673885089990083 0.4587589451447585 -0.004315955995893473
69931000.0 0.8157519158115869 -0.5756702540428206 0.04915991717297942 -0.3130665774788261 0.002891401787508113 0.001635513290467213 0.4635860857040777 -0.013811101442735008
70930000.0 0.8103267746397895 -0.5816399657450267 0.04920869827477941 -0.3286286230492738 -0.004388659513364831 -0.0015733670325618115 0.4523282720869675 -0.03054395051508998
71929000.0 0.8080260830641126 -0.5919085920622099 0.0464755182003081 -0.3445870173696375 0.0012222238498600354 0.0014443978168542464 0.4583294546511139 -0.034822363957268766
72928000.0 0.8011134197201825 -0.6012784591087851 0.039897405751363565 -0.35978572657008095 -0.0011801399491069523 -0.0011492561692337529 0.47257181746202465 -0.04902710423274938
73927000.0 0.796357598833586 -0.6057229305623201 0.033079520826647724 -0.3800428829683821 -0.0019607093047669982 -0.00026496418086434603 0.4642408072954196 -0.05491055303616146
74926000.0 0.7905283981689893 -0.6159206794615455 0.0289085231311503 -0.396933756278813 -0.0005627080541320019 0.000595568519715386 0.46445147326640573 -0.06699761546171018
75925000.0 0.7821310432029572 -0.6190522330524734 0.016917188350883145 -0.41407240804652884 -0.0002795224882234318 -0.00013728513095882396 0.4713626943408048 -0.06816831918139843
76924000.0 0.7775140658750912 -0.6293154999866 0.006535363193630968 -0.4405969440057628 0.0009579098119326604 -0.0009698927011191162 0.4750893275539288 -0.0848328819583288
77923000.0 0.7733114611933235 -0.6335223903202213 -0.008651277919327138 -0.4611844955234863 -6.368432787207515e-06 0.0012072969843013462 0.4636321526669442 -0.0853695558054239
78922000.0 0.7668714106313157 -0.6469877539832853 -0.01984552511221341 -0.4899486210562395 -0.001916610113584077 0.003576120335881782 0.46478136248384266 -0.10160154063626645
79921000.0 0.7588209560020235 -0.6475508070044971 -0.039951644445224484 -0.5112418174420812 5.557770866227331e-05 0.002807947315800076 0.46491203802004566 -0.10895234553256587
80920000.0 0.7544742054870206 -0.6601755162437705 -0.05670500111726195 -0.5366693275495641 0.004028413482907966 -0.0014800577387809285 0.47462118552960925 -0.12721479976979178
81919000.0 0.7470373091426096 -0.6643005077598308 -0.07363758582105855 -0.5707509337867492 -0.0006345419094373698 0.005423662898622348 0.4755802402229418 -0.12905598795286066
82918000.0 0.739335681900991 -0.6720970078441033 -0.08663918760465024 -0.595583326419743 -6.666552193946494e-05 -0.0035000277079345445 0.48375496829300096 -0.15139371165552956
83917000.0 0.7319431582371706 -0.6803481242531622 -0.11172186690794708 -0.6265225142671276 0.0033326055785448823 -0.0005903786453349496 0.4774510289164083 -0.14128241656930657
84916000.0 0.7273889444537537 -0.6866118532354755 -0.1235954519683388 -0.6637617350478574 -0.0007291027052640101 -0.00047744275179512573 0.4651236697602551 -0.16079607997010728
85915000.0 0.7207347194999204 -0.6944615399864639 -0.15238010739596447 -0.6912773690683027 -0.0008222204400275315 -0.0036461381641677997 0.4659411532581393 -0.1772336177097199
86914000.0 0.7117143586119996 -0.704261545202143 -0.1645018130000103 -0.7311248178332546 -0.0021386187617931937 0.000604621732826522 0.4639389080642907 -0.1649983387859211
87913000.0 0.7050211376140624 -0.7095688087439959 -0.1791729966203795 -0.7586393693047268 -0.0021578740616261596 0.0007777090666856228 0.4719216069610198 -0.1885002041917429
88912000.0 0.6996358158368421 -0.7158865346284398 -0.19847345460918 -0.7949832791508873 -0.0015598846413565047 0.0024151184511862125 0.466214386591603 -0.2125339309851849
89911000.0 0.6899102659956261 -0.724424624999623 -0.2148809661520719 -0.8284832735128405 -0.0036344303907411024 -0.0011582712480992857 0.467998909201302 -0.21901015742287266
90910000.0 0.684624179014226 -0.730139737145635 -0.23056238268147705 -0.8611336779996704 0.0023694013292229477 -0.0014209246394782972 0.4592786065538317 -0.2001167106739732
91909000.0 0.6756943844472094 -0.7349605865020973 -0.25434934879005366 -0.8955632969020535 0.0026936350498841964 -0.0005128258195716775 0.4643095935918806 -0.2184628449383159
92908000.0 0.6667615961709195 -0.7443262940307884 -0.2649210906010493 -0.9292967412251861 -0.0008787992879427422 -0.0012124458112016097 0.4581034514553273 -0.22629260581317395
93907000.0 0.6628210043203666 -0.749578630669752 -0.2841912772705928 -0.9614531928738439 -0.0001430467108682389 -0.003127656028471446 0.464682014312588 -0.2475644995943396
94906000.0 0.6471877045533548 -0.7565846271257165 -0.3013057054258117 -0.9926541370703362 0.001023050604361876 7.758389554385646e-05 0.45252388303204755 -0.24399895269160016
95905000.0 0.6419706925879505 -0.7636191812566963 -0.32602377838153823 -1.0280738769221915 0.0018348727232164429 0.0019465298646813192 0.468159795196709 -0.2746518162881422
96904000.0 0.6356052302337467 -0.7720817899416524 -0.33847822979670117 -1.0704627226343248 0.0010802163515916772 0.0006898207342882395 0.46449833220066095 -0.26879666789565015
97903000.0 0.624898559046956 -0.7786372358923236 -0.3629549892642884 -1.0998381644279127 4.4214881875701865e-05 0.0025636182931350598 0.4603788320281819 -0.2854507468992979
98902000.0 0.621684963059789 -0.7828229832327029 -0.37806667474796435 -1.1365477667155117 0.005321219771112471 -0.0013942167968152405 0.4512889771749976 -0.29105214998749707
99901000.0 0.6107658269106228 -0.7910805596139898 -0.40875906157703995 -1.1682463497497684 0.003053602113063455 0.00023446711073583665 0.4631718853370628 -0.3145890920141873
100900000.0 0.6024148104521536 -0.7944467722062291 -0.43444504355191266 -1.1968266558939005 0.0016885318029424797 -0.003017586281674779 0.463861213551428 -0.30945603838929453
101899000.0 0.5952921140316016 -0.8020526822203056 -0.45867065628354625 -1.238106428327315 0.003404787046176242 0.003889605865790319 0.4515148669607202 -0.3133013374348139
102898000.0 0.5829320774508181 -0.8089344406290744 -0.49580582213318725 -1.2707351984610462 -0.0003545215538235989 -0.00036826376493961644 0.45749454292199687 -0.3290172486809669
103897000.0 0.5749242554968309 -0.8167314467010651 -0.53598114366492 -1.3080543465791645 -0.002981804954364918 5.25093419672195e-05 0.4645951870194232 -0.3309096000305631
104896000.0 0.5685156140186529 -0.825921599679409 -0.5819223399660627 -1.339933085607047 -0.0038295642738475663 0.0012948210045293374 0.4468977783129989 -0.3405331244562058
105895000.0 0.5582920285227247 -0.8276863300417503 -0.6219748681591383 -1.3811180552445264 -0.0013317328632723715 -0.0009825173796983806 0.43814931258912587 -0.3469213990786335
106894000.0 0.5502214467744857 -0.8341468751067714 -0.6784013128870343 -1.415326632724103 0.0010341666571447726 -0.0002194837159130632 0.42413102665104346 -0.3848947675987969
107893000.0 0.5418647025311422 -0.8395294751322534 -0.7231799449299052 -1.4499434653117271 0.004656282652826554 0.0006905214346930176 0.43396499400064503 -0.37573735691839333
108892000.0 0.5289017351736826 -0.8455534521100767 -0.7826859587364771 -1.481041352364194 -1.8101035263854474e-05 0.001966140231502162 0.43117607053627466 -0.36941124602114855
109891000.0 0.519027259929489 -0.8504170257644696 -0.8401588878451246 -1.51745970652398 0.0004557965423740672 0.00026830757831981783 0.4351951680625175 -0.37610498616747573
110890000.0 0.5027703589708796 -0.8565739624464971 -0.9044470461670576 -1.5161810779322118 -0.002772287661010383 -0.003100009183391168 0.42464411005444436 -0.3901393927150512
111889000.0 0.50010560009777 -0.8590057257183152 -0.9633485929444594 -1.5844319426759643 0.0012638416259158568 0.0010642700319215812 0.414935099202043 -0.4010423826519969
112888000.0 0.48531123263416265 -0.867656275298064 -1.0442408182178218 -1.62842545250551 0.0021680509310508175 -0.0009529867695145009 0.4095752882651267 -0.420147617986272
