! Created with skrf 1.9.0 (http://scikit-rf.org).
# Hz S RI R 50.0 
!freq ReS11 ImS11 ReS21 ImS21 ReS12 ImS12 ReS22 ImS22
1000000.0 0.995854814437801 0.002973333864523388 -0.027427650269474933 -0.04950223025102376 -0.015396261415160437 0.005198798528741226 0.3476705192613825 0.33768264392254543
1999000.0 0.9929134911282622 -0.009154737324815995 0.006339653927095724 -0.025663559817623895 -0.014883219615604815 0.0022639178418343885 0.24548163231360415 -0.06644434891590453
2998000.0 0.9988041665140011 -0.022021136257736402 0.007515211554194992 -0.013664888599933558 -0.0010015015651498376 -0.003255966284223844 0.20004055502175397 -0.1355755874469612
3997000.0 0.9990842250203035 -0.03157609612459433 0.014159025804440653 -0.00904318929435759 -0.001776824717307147 -0.0007941952686936495 0.10649147785259327 -0.2334845514991744
4996000.0 0.9983994560630683 -0.0369150368133291 0.009693531042991229 6.950153143827143e-05 0.0024460854889896758 -0.0039001442708000104 -0.03098889235460708 -0.21353293892635059
5995000.0 0.9972182990555244 -0.05057093855463481 0.010200364301050039 0.001074777622749902 -0.002399045608508971 0.0026970495177496873 -0.11452842557184463 -0.1321361157633841
6994000.0 0.9939430749934065 -0.05778276232278531 0.004493369620518202 0.00041022641814991733 0.0022695560300106084 -0.0016004005454705662 -0.1611889028741201 -0.035690801847079213
7993000.0 0.9956165574879132 -0.06592308291423081 0.0007957098461507312 0.006885288861922554 0.0030817284700036776 0.0008350433548563756 -0.18235411515402905 0.024804364073305992
8992000.0 0.9939750705103186 -0.07704707484393714 -0.000853625924132637 0.00030987768947393044 0.0021099929646079553 0.002513142179802992 -0.1703581534921176 0.07129277551334423
9991000.0 0.9931218818446571 -0.08446863995452339 0.0010310888665537785 0.001849143458758364 -0.001430523223491919 -0.00588096546933837 -0.16475352161544052 0.09196987569237315
10990000.0 0.9918777049283167 -0.09425776460395803 0.0012840415280159195 -0.0020110452917650916 -0.002780461466691519 0.0011360003639276036 -0.14179471998566448 0.11273313547571984
11989000.0 0.9901798871303374 -0.10375937137219092 0.006186537323815548 -0.000781455646683268 -0.0020953377578833317 -0.0024074331133571397 -0.13466117655680934 0.1347814537476719
12988000.0 0.9912674462459901 -0.10745582868301301 0.0029136665705768875 -0.0005188864869185961 -0.0044302576252570605 -0.0033725995065456075 -0.12202394524534574 0.16690529412742086
13987000.0 0.9855801149609945 -0.12132521330075163 0.0005604436148954255 -0.0026553571411529467 0.004402161489618531 -0.0007511865271346067 -0.11042709331817335 0.1906227986765996
14986000.0 0.987711460646895 -0.12663770697457052 -0.0007595156068336624 -0.001770109496256402 -0.00403997105132598 -0.00020597756014688174 -0.09800608691168793 0.1960959773018016
15985000.0 0.9885579020324431 -0.13657873766152182 -0.0017843156487110574 -0.004720949462329037 0.0003240703198572844 -0.00385084492489682 -0.07318123334556104 0.21586948791115093
16984000.0 0.9858212698063739 -0.14614837319090712 -0.003180804375686982 -0.005369353521766894 -0.0008803404931131492 -0.001266324227808304 -0.0730778471963231 0.21606181361126922
17983000.0 0.9839260378884841 -0.15149111648895233 0.000701968565916853 -0.0027977630638253903 -0.005403262362621932 -0.003994370334141947 -0.05007603931585052 0.22717446885124964
18982000.0 0.9836128946489101 -0.16375530150011017 -0.003865814226840362 -0.003913780176090457 0.00011881136264741248 -0.001793211813820697 -0.022697699278956752 0.2323246310061248
19981000.0 0.9820917647485186 -0.16665875409992817 -0.003587922214505737 -0.009078915215484514 -0.0035551744835151306 -7.588057413012579e-05 -0.017809321008263403 0.2450169883350635
20980000.0 0.9805879206896503 -0.17938678954022283 -0.003010201172899261 -0.006372256363736154 0.0036998474257176964 -0.0033862963643057193 -0.0013198851213154907 0.2522423443370564
21979000.0 0.9791664538072614 -0.18622816185666505 -0.003624964099780756 -0.0039706629476072 0.0023957973413569885 0.002234730352692867 0.002698828360870647 0.24681604886939798
22978000.0 0.9766230229666913 -0.19673147707573782 -0.008875866733657634 -0.003750562047526981 -0.002484185863310844 0.0004070751261960836 0.024369604739950906 0.24505573759824226
23977000.0 0.976779954521069 -0.20445714533568757 -0.005568661289603165 -0.003325150152846517 0.0023537213246165372 -0.003535705675950046 0.03711304606524986 0.2530497734500441
24976000.0 0.9726020047033122 -0.2133067136123437 -0.00872789943859515 -0.002439805100037796 -0.00016964461404420103 -0.0011941177380266127 0.06224029600135901 0.24990054618482374
25975000.0 0.9708305443815688 -0.21989136015948174 -0.006153658729630774 0.0005088544732042378 -0.017244583068993374 0.01500344186633811 0.06666530290838811 0.26494426190122117
26974000.0 0.9678045263395528 -0.23215350715781516 -0.004211292859784045 -0.0001157842635231917 0.0009964535386241024 0.0009607390947871876 0.08737653119160396 0.26374803999757546
27973000.0 0.9692522780659383 -0.23653282304997167 -0.0012546610956622433 -0.001896892500916069 -0.0007097503275779569 -0.003493824978961022 0.10549682649583028 0.25328741532951987
28972000.0 0.9651037504864927 -0.24508334438901722 0.0015360859997341767 -0.0021897481564601565 0.003156042874919633 0.0022959458543635163 0.11021092972545797 0.2569577114430508
29971000.0 0.9634203917835286 -0.2565371786479932 -0.00038062514466992263 -0.0013965082846764641 0.0006543956911742375 -0.001565233681829519 0.14867256311827415 0.2585013258783072
30970000.0 0.961488649255038 -0.26083968381694256 0.0023987776920909583 -0.003690463163943894 -0.0005673022980081065 0.003454142230311126 0.1689800061886968 0.2512117842647275
31969000.0 0.9586805720772839 -0.27137912337092507 0.001402387950294985 -0.0038522883234861104 -0.0029317946952494172 0.000828996496029011 0.15035520630031063 0.23979565104978662
32968000.0 0.9564817527978798 -0.2834728947707267 0.008223241549861938 -0.005950144309125974 0.004871719857582801 -0.0037518258230138314 0.15597060115827785 0.23613968744013664
33967000.0 0.9551542295613062 -0.2915250454972051 0.01201807051835283 -0.01024815647499093 0.002216455419699936 -0.0015431940878200586 0.18327921324994378 0.24202994038647704
34966000.0 0.9517232128429587 -0.3001471884207421 0.010739735349689994 -0.012148262201180015 -0.0014425235101027194 -0.002285845916176532 0.18579189914073146 0.2491431149955388
35965000.0 0.9495765218870623 -0.306647475707643 0.015525032518964013 -0.012628401426352815 -0.0010398675333541513 0.0018524194973439337 0.2121300330467059 0.24671015076320527
36964000.0 0.9454087397983184 -0.3167636873537679 0.016009821994314916 -0.014814714537929864 -0.0014342681591938322 -0.0005223328796579212 0.20959580462591756 0.25505897197356964
37963000.0 0.9427910052286902 -0.32406243696836545 0.022757588091151002 -0.019834535030685798 -0.0009741372020905717 -0.0023128946352143137 0.2243000660218725 0.22782113560111944
38962000.0 0.9392291847691253 -0.3354999015542692 0.02263684597202375 -0.023803663750122002 -0.00023278431976663923 -0.0027803441892813893 0.2385934633828197 0.23905386699861408
39961000.0 0.9373111767780953 -0.3411589077949782 0.02435899413911585 -0.027964732020538292 -0.0016518741902383793 0.0013369093246081794 0.2476757313187951 0.2254588268591408
40960000.0 0.9332990149588065 -0.34950629240247066 0.023052974382466482 -0.025922556510524653 0.002088742982957406 -0.0005550729087265884 0.2705704913935599 0.21432242686906924
41959000.0 0.9307637635233955 -0.36035765100905615 0.027446107179561384 -0.03160845448559656 0.0007028924595762854 -0.0033991616316743165 0.2722280011482764 0.20165799352570685
42958000.0 0.9240893054126561 -0.37135259012285743 0.029766111137126253 -0.0407236366551693 0.0024303478794664777 0.0020680972478519465 0.28571754283895906 0.19162111884671684
43957000.0 0.9240372542455922 -0.3762722767986858 0.034138204242494495 -0.046766592933821155 0.00017497524289047776 0.0013297441614910058 0.2842409563176007 0.2107404926839068
44956000.0 0.9211773472956354 -0.3845519569451913 0.033486625211090804 -0.0520966979358763 0.0031968889008873506 -0.0006083972836455387 0.30077738442423846 0.19385861969206805
45955000.0 0.9164405569131776 -0.39380655612834164 0.03328103623943662 -0.05791431172481726 0.0023527967469151997 0.0010550641500161274 0.2988887410655503 0.18573182708747143
46954000.0 0.9105889554192147 -0.4024197238077969 0.03416852331242914 -0.0655317467853405 0.0023603019766495264 0.0014631397190372282 0.32917924617008465 0.17055777514055115
47953000.0 0.9100949426258199 -0.4085549038488044 0.033254553735811807 -0.07328241953621621 0.001712590204904468 0.003999869158530723 0.3372994690279762 0.16198140615343898
48952000.0 0.9038269740337344 -0.41993300971229125 0.03648365701827004 -0.08003583755558027 0.0012848315671934356 0.0004937685792628569 0.3308833682283416 0.1637034322177385
49951000.0 0.9020059181870745 -0.42317528820985345 0.035676340915421864 -0.08697123379972596 -0.0017248997170037162 -0.0008197593405759402 0.355912621769298 0.14764159074361335
50950000.0 0.8971405092414549 -0.43404044565337796 0.03953657602953708 -0.09488177363498553 -0.0006159057467407256 0.0010545608304065484 0.3562496793176396 0.14083397900747863
51949000.0 0.8922417807166977 -0.44286433481653975 0.039488816727436094 -0.10342987414043857 -0.0008349712178728602 0.0007521031688205502 0.35664486807931767 0.13251959203335212
52948000.0 0.889218905103803 -0.45223431142162773 0.03885726904961989 -0.11229542982670956 -0.0011399741734834541 -0.0018344027377298355 0.37663182160522674 0.14298932271791723
53947000.0 0.8855998453317062 -0.456583327415115 0.04131573058200704 -0.12288538760115057 -0.003241161706039457 0.0033785569521177818 0.3726948753348886 0.12289477794077265
54946000.0 0.8788297963437182 -0.46973740214662374 0.04333722622746912 -0.1308015710458753 -0.00519587364447805 -0.001799791382471421 0.3796359576065516 0.1170274107556285
55945000.0 0.8758133494081564 -0.4755802914277112 0.04345174484561516 -0.1414009984599881 -0.001593960838046581 -0.0001935469755968317 0.3899476789797838 0.09567053910540844
56944000.0 0.8718716155791052 -0.4827598149934201 0.04491037279634752 -0.1512988581608701 -0.00012645744570943294 0.001204851478823131 0.3938002774136762 0.08500969856758513
57943000.0 0.8670109001087168 -0.4946348488386889 0.04588377860857229 -0.15969692794167809 -0.0020583287008678315 0.0010837437539306717 0.40469936763186287 0.09352021167496523
58942000.0 0.8604939300243938 -0.49921185468313306 0.046202498251972854 -0.17149213265420207 0.002786261971062722 0.0007031483492056811 0.4143394169088494 0.08415628654850864
59941000.0 0.8590153496486994 -0.5092061360951209 0.047776820004590936 -0.18169081110570487 -0.000571901930985612 -0.004485537319032797 0.4234826979106772 0.07777200563142328
60940000.0 0.850491032597964 -0.5163798305496149 0.049143417448098706 -0.18361910102318307 -1.537146672346216e-05 0.000866943221915028 0.41142615438153357 0.0751900445193544
61939000.0 0.8476384788580641 -0.5225594437336172 0.049984024927173416 -0.19601338600034363 -0.002656338693220321 0.0002134812508314451 0.4197884433297682 0.0586721175692505
62938000.0 0.8411034221556993 -0.5335903454964038 0.05040008468561399 -0.21023432233068637 5.118860789953086e-05 0.0033549187227547416 0.4455617969267941 0.04245325025691579
63937000.0 0.8376413115782158 -0.5400434811638098 0.05515439621341608 -0.23128697914405713 0.0015318590707201806 0.0032193789909627456 0.4358743528917166 0.03746853274131979
64936000.0 0.8296688631096774 -0.5470325338133881 0.0513028607041664 -0.2436527605286033 0.003617616981345657 -0.0005689804104013922 0.4261171455395045 0.03512960666197017
65935000.0 0.8281536259757483 -0.5568197688733945 0.053817426852004684 -0.25991579462623876 0.002579807207016207 -0.0011911546642763217 0.44279915306833034 0.011922920312547321
66934000.0 0.8217124036007155 -0.5637973461277862 0.0510165996818949 -0.2698355127340678 0.0011493867650366574 -0.004111971863226032 0.4271522241115956 -0.0012109550269040707
67933000.0 0.8184165013120804 -0.5701837231455256 0.055012038364459795 -0.28384408125806887 0.0031401402728454303 -0.0028327401398918015 0.43967625684932504 -0.0030188713547213693
68932000.0 0.8068107792031791 -0.5639789763985523 0.04994480220474142 -0.2929144305645921 0.003238795826763749 -0.0011527289436540254 0.44310024488902605 -0.018167964863604353
69931000.0 0.8055151354609573 -0.5865133314736464 0.05196598054404504 -0.3138996674287119 0.003232001483596427 -0.0020406985191425246 0.44900737468879326 -0.03186586758143628
70930000.0 0.7981343127326281 -0.5944036349895713 0.048298319662834856 -0.3244957304091175 0.0012564420999883414 0.00011795971618246269 0.4396218716934058 -0.0447004334551315
71929000.0 0.794476133107098 -0.6028658194392784 0.04164521428629229 -0.3426757896307949 0.00252463920192161 2.2304493036506348e-05 0.4509392165835356 -0.04739820099188524
72928000.0 0.7870411296134644 -0.6122594688747263 0.038973081270859126 -0.359678823043389 -6.680880004424693e-06 0.0017580658858789584 0.4689561604037126 -0.05524493937880149
73927000.0 0.7828389795731989 -0.6183231977847773 0.033693810721000715 -0.3817080240535761 0.0019486331857025915 0.001863671861615818 0.46230879362714317 -0.059392317927283715
74926000.0 0.7744520570757962 -0.6264620489671083 0.022949075274505296 -0.3974812259381003 0.00017740246153177185 0.00033191159144336645 0.4576293370162767 -0.06902468145962715
75925000.0 0.7697753633949179 -0.6332217705632224 0.015175369135939686 -0.4151206659934289 4.358825081205536e-05 3.203516918150525e-06 0.46578323423499673 -0.08552929792525002
76924000.0 0.7636980711640843 -0.6400628226926302 0.00282276570515497 -0.4430213139487351 -0.00116197044167591 -0.00030134515379459805 0.4626410257979813 -0.08816136551002139
77923000.0 0.7553350672177438 -0.6472560449591541 -0.01569327296980306 -0.4611394653580468 0.0018008751089181262 -0.0011693999683936745 0.45890953846433974 -0.1016784496314077
78922000.0 0.7520544883823591 -0.6566695149136649 -0.026453297330313052 -0.4882891513248211 -0.00034002867627495306 -7.067038579485186e-05 0.45859936092793213 -0.11039490101219453
79921000.0 0.7426862776990013 -0.6605804306801722 -0.04409202258095702 -0.511860067673344 -0.0005110733998836308 0.005735123049087172 0.4576379265105549 -0.12923401126684853
80920000.0 0.7368162273520297 -0.671974713416154 -0.057486500683646954 -0.5430327410471205 -1.8694421735363362e-05 -0.0006843543433534563 0.46625883666710155 -0.14048495817645795
81919000.0 0.7317021201499361 -0.6763911159182153 -0.07901860675930038 -0.5718699558385796 0.0009921943816030016 0.004650552252078825 0.4576119740892535 -0.13679966811047597
82918000.0 0.7230680147603269 -0.684044864897442 -0.0945721407635677 -0.5996497167183488 -4.1212344951593634e-05 0.0022449397167317413 0.46932661914058654 -0.15454307034631734
83917000.0 0.712983737798707 -0.6941493248952882 -0.11702664795999673 -0.6272226453240086 -0.0011525157407380954 -0.0025292665638384022 0.4662060059698727 -0.15766564472204786
84916000.0 0.70829307863314 -0.7011292115854172 -0.13687946230894146 -0.6608415826868155 -0.0022950436987561893 -0.000542798146625898 0.4603654238483503 -0.17261652407845787
85915000.0 0.7021793644456993 -0.7046335369989382 -0.15120620743135396 -0.6934676005093723 0.0019047804884848923 0.00040139948500621497 0.45884081469177557 -0.1828202707278044
86914000.0 0.6941763551194419 -0.7171291492486458 -0.1647931010657926 -0.7306685743708425 -0.0013733401885728963 0.000549157908892845 0.4611270283621657 -0.1797399698060462
87913000.0 0.6864135194922014 -0.7220228493242643 -0.1870276762498162 -0.7570881213112474 -0.0030895210708209555 0.003606186407405105 0.45984095957342225 -0.19258941709916
88912000.0 0.680532666878472 -0.7283861542453114 -0.20063645051395146 -0.7902738781929735 0.00491430253684212 0.0035029335635845434 0.45811155824484356 -0.2131041663869605
89911000.0 0.6736844152119954 -0.7371761241016096 -0.21428766412247194 -0.828256057777385 0.0017298843959558147 -0.0008682697018372726 0.4665704459114114 -0.21628694849904082
90910000.0 0.6651749377645031 -0.7429793838243355 -0.2355654390805356 -0.8598067321484488 0.000826965863212244 0.003637395972351873 0.45090520838542925 -0.2221865542374079
91909000.0 0.656233112439796 -0.7490636743652558 -0.25424358691880233 -0.8926424890574398 0.0029499370687957605 -0.0005346141818112175 0.4553775335084473 -0.2353986096852802
92908000.0 0.6469623441839153 -0.7559045826849136 -0.27048117154252055 -0.9228126008518661 -0.004537485803479124 0.0005188268372534336 0.4567420591580267 -0.2291521067022637
93907000.0 0.6418852942783531 -0.7617220033839065 -0.28647039090119913 -0.9591782457196963 -0.003833206636612892 -0.002064071923898701 0.44924070712295583 -0.25843287595943876
94906000.0 0.6293297337605539 -0.7686724598903425 -0.3007113447027011 -0.9877387985540981 -4.08527203445246e-05 -0.0016058375634320715 0.454223998471393 -0.2634092660455588
95905000.0 0.6229076869618667 -0.775351870899798 -0.32435392248175565 -1.0208545880191258 0.0007193472204816983 -0.0004884078501112109 0.46078623786695067 -0.27499122539714227
96904000.0 0.613656759802584 -0.7857225236466076 -0.3449936638229306 -1.0597659047030297 0.003690881427802846 -0.0034946965682874412 0.4469267798408164 -0.28584640742559353
97903000.0 0.6041224918049128 -0.791370856652823 -0.36884397003377845 -1.0882690900846725 0.0023452352929562662 -0.0006631059345544528 0.43910625602810394 -0.28929829742841773
98902000.0 0.5980380652083243 -0.7979898242232694 -0.3834394289883902 -1.128142351009418 0.003117071388077815 -0.001325541004769993 0.43905015110983564 -0.3115157808449365
99901000.0 0.586940111762399 -0.801490025009259 -0.413320694933897 -1.1547380659354574 -0.004180198907146755 -0.0009308076678804689 0.44913636866742673 -0.3251152270337969
100900000.0 0.5799610024095623 -0.8064156158483636 -0.4396220152971727 -1.1877300960635175 -0.0006618295986216143 -0.002374919864472137 0.44705408913928507 -0.31866598060640894
101899000.0 0.569795286400148 -0.8162457711579113 -0.46766804959041236 -1.2178254279116936 -0.0007148139785032467 -0.001570214162355365 0.4363529533645819 -0.3327267926137103
102898000.0 0.5604890517008804 -0.8207411780210908 -0.5050242846403498 -1.2575548910455172 -0.0010145556165891214 -0.0038350359140622747 0.4416844949675353 -0.3439666895402421
103897000.0 0.5515708048497432 -0.8288214910434011 -0.5415138955181785 -1.2903496173428064 -0.002673810656701776 -0.002979190266315332 0.4525201081214944 -0.33849447569895585
104896000.0 0.5445954364246794 -0.8365354187273919 -0.5895929659690654 -1.3178378110559736 -0.0015342244877327264 -0.00021181265363878375 0.42652681552569527 -0.35178038318460786
105895000.0 0.5333392926333143 -0.8402992648779338 -0.6282752442849209 -1.3626551782218137 0.0004433815289248006 -0.0006144031704258256 0.42648787750439865 -0.3675477087424068
106894000.0 0.5241033440148789 -0.846130609957128 -0.6873366958890257 -1.394988606716326 -0.0005339542899467413 0.000527606741368485 0.41314776871385533 -0.37444076062277554
107893000.0 0.5148938857963428 -0.8526677486791339 -0.7346925208639384 -1.4378146734494648 0.0008665054485787885 -0.0012791535567211125 0.4225739656977054 -0.38448408701468323
108892000.0 0.5071169461106033 -0.8566023093597492 -0.7959421297843173 -1.4748445050683836 -0.00020887747671634346 0.0010594202623661223 0.4164214502647857 -0.38813961772070193
109891000.0 0.49397276676104585 -0.8638196190203354 -0.8492634705504336 -1.506679877773853 0.001693384842979907 -0.0013162383838674191 0.4386879738491348 -0.38079362028550423
110890000.0 0.49024227511917284 -0.8717266222451723 -0.9182059971547348 -1.5226774140602068 0.0014210964264373147 0.003949329163144937 0.4198892693990616 -0.4018016369062255
111889000.0 0.47425579206740853 -0.8700904490054554 -0.9768414318387878 -1.5687980044744918 -0.0004420905497731079 0.0006140919716209546 0.42067661432900355 -0.4044753771661345
