! Created with skrf 1.9.0 (http://scikit-rf.org).
# Hz S RI R 50.0 
!freq ReS11 ImS11 ReS21 ImS21 ReS12 ImS12 ReS22 ImS22
1000000.0 0.9742601400346611 -0.014999198336329091 -0.008830516078174684 -0.05049193260226032 -0.0039009988369777104 -0.0007771278622611295 0.3635359445202761 0.31705971981119074
1999000.0 0.9971612274983128 -0.014541713512100915 0.01787356395140307 -0.027130337111158507 0.001613788172094353 -0.004578977677168602 0.274126509343811 -0.05694814887612673
2998000.0 0.9991384512754591 -0.018855723658536737 0.010072482308782278 -0.017379499039652094 -0.005450387976093587 -0.0025579586742272543 0.19022272998986756 -0.1577789087812498
3997000.0 0.9976909480717486 -0.02792789698679921 0.010498265192086659 -0.009149077328027217 0.0003973303213403169 8.13172750618863e-05 0.07877585477354056 -0.2500109993490447
4996000.0 0.9970025001869279 -0.035093861075331426 0.01057464644651591 -0.0029209347808686953 -0.005318371125220962 0.002158348284433242 -0.05205374415720206 -0.20197376953333954
5995000.0 1.0006304908869115 -0.04645897428289459 0.01201415029498596 -0.0003969275116299975 -0.0022422337668536645 0.00039440091235977984 -0.11252120913971819 -0.0936342523856831
6994000.0 0.9995892547563129 -0.05912270570735847 0.008100798931461333 0.0020622189983207258 -0.0034919281515379003 -0.002168014378503312 -0.1560203247262002 -0.01664850248944464
7993000.0 1.0001992630110028 -0.06663841594370813 -0.0003216217845139344 0.004039262406882112 0.00224458650866782 0.00398480430711552 -0.14601608203520633 0.03432856497871554
8992000.0 0.9968060669578297 -0.07055090702686066 0.006817583036320334 0.007199860201266217 0.00859515276973949 -0.001144026402597246 -0.15479460367091782 0.0633883762934773
9991000.0 0.996276086815304 -0.08101173728803096 0.001053637743683882 0.0047298455544641975 0.002418995051342504 -0.002754743651445716 -0.13817359050961414 0.08834588530339979
10990000.0 0.995743863067806 -0.09042926205323246 0.005338958332897879 0.004395234764159963 -0.006896974369920694 0.00039669797999616825 -0.1391110786765065 0.10908631674714672
11989000.0 0.995036496439834 -0.09662893775024205 0.002552133957669389 -0.004387180615179956 -0.003053842550932682 -0.0013094786137669329 -0.12499421663055595 0.14949819646040433
12988000.0 0.9935451341931447 -0.10940278637277015 -0.0014657238342553338 -0.0005092207932045224 -0.0012862267849344721 0.0012626880896393737 -0.11910164834929936 0.1611571785105455
13987000.0 0.9905012455818332 -0.11539453168082633 0.003420423582335022 -0.0036892438632606626 -0.0012796697416674891 -0.004939279507019285 -0.08888184252383877 0.18631747851333627
14986000.0 0.9909909097266135 -0.12642794704185836 -0.0030712365943134797 -0.005196377090680558 -0.0002863785040219859 0.0029074566538084675 -0.09535760037203042 0.19993770347930412
15985000.0 0.9937508277462741 -0.13214244117086332 0.003073076699401729 -0.004724369112145469 0.00126545770542292 0.002204333373876501 -0.061144589532486394 0.1996742482041782
16984000.0 0.9896868164102587 -0.14277978263300084 -0.006486237247835141 -0.006641523211688417 -0.0014528160065064627 0.0012109050587220346 -0.05296996546874616 0.22243603807622955
17983000.0 0.9876193484080923 -0.14660501599527667 0.0018179724167287957 -0.003955470671679068 0.001450920030411575 0.0014467729315101503 -0.05152793466607756 0.22244038465667254
18982000.0 0.9863482541880122 -0.16217863969789814 -0.0024228416465028203 -0.003409818658414477 0.0023174780994547964 0.0020665087343264207 -0.021159083215409234 0.23222049846652942
19981000.0 0.9852940976607211 -0.16575755163474531 -0.00474375806679216 -0.005557037415300018 0.0016017511971753772 0.0009551397649225195 -0.0066748710873746455 0.2504259009796851
20980000.0 0.9849061683702653 -0.1749474778189229 0.0001619894982712488 -0.0014150760353842577 -0.0028617506244502547 -2.6875222467323222e-05 0.0043319314689601925 0.2529402121485873
21979000.0 0.9833693961415984 -0.18328385778924552 -0.003446412169785557 -0.003763071843288939 0.0039594258418595854 0.0015740763610493974 0.015041227654199504 0.23849674280850156
22978000.0 0.9813064599405756 -0.19193063214582343 -0.0020165139183105064 -0.004549401282351339 -1.9153881595777826e-06 -0.00064100426134294 0.028703988998438505 0.25737882311446586
23977000.0 0.9816653202898685 -0.1981273531398172 -0.006746790156968593 -0.0021894476335897386 0.00462384489610698 -0.0026703156140886098 0.03649317013018931 0.25803121071957374
24976000.0 0.977812058776133 -0.2102688568285382 -0.008106580685602417 -0.00037967790010330453 0.0037142354800240446 -0.003534938713122273 0.06624213609281085 0.25696479617634693
25975000.0 0.9735993007443859 -0.2245490133824748 -0.005375785741624307 -0.0030878546431217894 0.025639307499576255 -0.011885460621371509 0.07308637844085057 0.27028404529429917
26974000.0 0.9731731087171949 -0.2264207196033763 -0.006366705316284006 -0.0011792729253234675 0.002008293369131257 -0.0023856089026501022 0.08296258853064324 0.26386096735384185
27973000.0 0.9730839224742918 -0.23160731226808506 -0.0067208731798380945 -0.0017061383534265268 0.0014592484510585087 0.0032765659966164794 0.0987839201255755 0.2520422063735039
28972000.0 0.9678877317126315 -0.24432686507459028 0.0012630901165892727 -0.0017482728917061253 0.0029757269080033645 0.000898407776874587 0.11506262640324161 0.2546193840739311
29971000.0 0.9688087761969746 -0.2512178218473372 0.00026825058166923387 -0.003580943807752799 -0.0031174566202293876 0.0011770869845036784 0.14894801556760834 0.2636610154639314
30970000.0 0.9656762374799064 -0.2574404810177518 0.004771818504069138 -0.001021658879432552 -0.0017130030851669393 -0.002366211442286709 0.16283622899868314 0.2544721239890304
31969000.0 0.9644101171283451 -0.26592294038967706 0.007199904445652266 -0.005718991425240708 -0.0009426171374893127 0.00010635201002545391 0.15192203940277182 0.2555969691383343
32968000.0 0.9610936465458588 -0.27552221644213 0.005934643070637388 -0.007963045850259537 -0.00397016583114419 -0.002553388588917707 0.16093250588646132 0.23935166499129285
33967000.0 0.9587944238434558 -0.2847742215856195 0.01106606680760034 -0.009803310227659127 -0.0014309145029904702 0.0018954147372096525 0.19133583545015695 0.2439696961030006
34966000.0 0.9562725712629657 -0.2918835070025645 0.011869537862773278 -0.012904419226535985 0.0015479200873540335 4.588621100974325e-05 0.1935921340987168 0.2531254901923243
35965000.0 0.9534039594399625 -0.3004850094600433 0.019152669748059917 -0.016050513395581792 0.001101965215270552 0.0006265129327074794 0.2121291635061539 0.2487147320931742
36964000.0 0.95101291378057 -0.309123056059541 0.017752427683751647 -0.015176699833401468 -0.002257304864975258 -0.0013235082330907623 0.21487387926035317 0.2482397427097586
37963000.0 0.9466867562193318 -0.3176264240832608 0.02217442803815868 -0.022188042938270203 9.877194112037586e-05 -0.0023600209438624487 0.22791414935220639 0.2365050239953903
38962000.0 0.9445962640977947 -0.3274703771373666 0.023952909482604062 -0.02500758790883632 -0.00029444872223044217 -0.0012230858280516785 0.2364565461492823 0.23128187880625736
39961000.0 0.9434105051079965 -0.3321729093000735 0.025533164645313675 -0.028165264074837 0.00014467284700698155 0.000518079129553483 0.25596564323403365 0.23476178466008343
40960000.0 0.9384030106823367 -0.34099992444621774 0.025894429948396344 -0.02350097965825243 0.0004118789121983708 -0.00428672205503066 0.27117018271887694 0.2269490041842239
41959000.0 0.9371857294792271 -0.3514597641060625 0.030264957825794723 -0.033345115753478295 0.00044347356297998837 -0.0014352194002614494 0.2714092826000917 0.2188587327627197
42958000.0 0.9303181147434018 -0.3609377997886652 0.03162552567805217 -0.04225517097393954 -1.838935243818564e-05 0.0018464479113326198 0.2840219279967974 0.20662436648900354
43957000.0 0.9317292661350633 -0.36421190495289435 0.03416805177204663 -0.0472632411521125 -0.0009558830627547394 -0.0029884488334315884 0.2776958027307636 0.21600227316793877
44956000.0 0.9280745826670652 -0.3709197165915462 0.033145277921012586 -0.053560764687211444 0.0014867240043570215 0.001963587317683791 0.3045939018234289 0.20539043903010518
45955000.0 0.9235003515139241 -0.3828955357139317 0.03525586394414016 -0.05915613904441598 0.0006396972423994234 -0.0016440256461717905 0.30396609180684997 0.20105427520366154
46954000.0 0.9198038250234358 -0.39225402436336665 0.03601575148185535 -0.06772012606203 -0.0023934136838310847 -4.2185040661411424e-06 0.31928128435133946 0.190544137881382
47953000.0 0.9179248842274685 -0.3992324867617717 0.039840314582805146 -0.0742833662026239 0.002708185652273953 0.002119263769264578 0.33504792624149593 0.1817609862354216
48952000.0 0.9118950119650465 -0.40844705983305557 0.0359386675879884 -0.0803800863466199 -0.001385094477039337 -0.004234733747341753 0.33124427629608616 0.1701861486287358
49951000.0 0.9078382227845015 -0.41687216682392914 0.03952461324720985 -0.08832829411071225 -0.0007379451848488008 -0.0021035224232373822 0.3573202737608045 0.1574712196164866
50950000.0 0.9034796722345382 -0.4246486083045268 0.03830981699217473 -0.09759874444272366 -0.0021670119141067546 0.0003146958353130516 0.3480344436552395 0.15193754766544024
51949000.0 0.9016525018285466 -0.43173263590713484 0.03664743756722988 -0.10619193928150097 -0.00038172033042792314 -0.0010505448584244262 0.3607319222918366 0.1442313015182085
52948000.0 0.899016882687824 -0.4398321598999639 0.040224017828188505 -0.11300492170696626 0.0014882173116916116 0.0017609134317681245 0.375666006022427 0.14437096884123843
53947000.0 0.8923891656421343 -0.4501049566151604 0.04220497406011827 -0.12300902598116426 0.0017954974515145526 -0.0005897539912715698 0.37893142543959724 0.12720280668017886
54946000.0 0.8876672093650623 -0.45651372137542884 0.04487368732354875 -0.13440041450932502 -0.002802310283618691 -0.00036863568089094565 0.3862846066580715 0.12371362643225273
55945000.0 0.8860113399739824 -0.46586857416175653 0.04403106457583996 -0.14614558557961374 0.0028420083566501465 -0.001666641863277991 0.3857767497073916 0.11177391839338244
56944000.0 0.881185478581871 -0.4714177057190776 0.04702731434493706 -0.15342060462292045 -0.0006514147836061028 -0.0032571579643763692 0.3957459985325344 0.11560726602673949
57943000.0 0.876733472998126 -0.4828756259427931 0.04520312412119398 -0.16674289046830132 0.0012708332463017317 -0.0022490152174216614 0.4014464845708007 0.10600685966288176
58942000.0 0.8712412392189067 -0.4882079779861281 0.04473731079165368 -0.17940242542825607 8.782605446253074e-05 0.0020516071362016524 0.4197019869206995 0.09559498214538763
59941000.0 0.8698196749363498 -0.4942675560843767 0.04893990983007223 -0.18522239026150267 -9.54988222608748e-05 -0.004070168797599282 0.4253434360655959 0.10636568836966348
60940000.0 0.8607187366107364 -0.5031810701648243 0.04776262111953267 -0.18983252208499993 -0.0019839280510669283 -0.001731429708763766 0.41025991229874864 0.08248612989820198
61939000.0 0.8583648627251793 -0.5096067035702966 0.04941561767349491 -0.19711663910869368 0.0020110867194638163 0.001236549286602142 0.42946066905636643 0.09103336396018845
62938000.0 0.8517190786491051 -0.5216816054013401 0.052899919070249345 -0.21734910440892335 -0.00022293155290874876 -0.0008618131392649417 0.44638930604639404 0.06438029158297373
63937000.0 0.8489582289886065 -0.5284998821669963 0.055141866352924916 -0.23481235592054386 -0.0008372562296999111 0.0030130733318963036 0.4407531799250822 0.0434792785567808
64936000.0 0.8438935296330378 -0.5333072867198548 0.05407554834024646 -0.2505042535174037 0.002738697328848686 0.002323788140140377 0.4344146184855301 0.04010591813537433
65935000.0 0.8403211705353663 -0.5447668473760787 0.05141208198533208 -0.2639314599976545 0.0008545119586214578 0.002674883745319209 0.4480848228153541 0.022002247421896805
66934000.0 0.8347116574525697 -0.5506400895701147 0.05223410920962048 -0.2754257174994329 -0.0028090244209173993 0.0029022397796856256 0.43865508511006457 0.007766448203138628
67933000.0 0.8308718080683619 -0.5564904125986458 0.0561695245463549 -0.28981008006430076 0.0017679723009125918 -0.0017957367773996935 0.44067303889656667 0.01595986994698357
68932000.0 0.8216268977614458 -0.5519898383665252 0.05049886067573829 -0.3013233216209664 0.003933532574058713 -0.0005926756568672597 0.4486832788138275 -0.006592560967719878
69931000.0 0.8167030624753683 -0.574603692734701 0.049536668353428064 -0.319650815448252 -0.0002468707933319446 -0.00226329863117103 0.45703544807229274 -0.017311642804730742
70930000.0 0.8134347171520383 -0.5806182939089876 0.04886434577599826 -0.3345466131098082 -0.00040113632131564105 -5.970650637949566e-05 0.4474941743061607 -0.026112200195453423
71929000.0 0.810476662916538 -0.5884158632741578 0.042396119500457165 -0.3522582397134139 -0.00026563646992215965 -9.431454429860524e-05 0.45072418290007693 -0.03455617899736604
72928000.0 0.8029700241075188 -0.600377372459831 0.03733997193918297 -0.36939324392142175 -0.00250597397980171 -0.0009597241540577063 0.47055160152138 -0.041070295490347346
73927000.0 0.7972861358556325 -0.6055751604750594 0.032501851359289 -0.3899387785917697 -0.00012091179638817418 -0.003009006224859494 0.46603382020190326 -0.052728035928053696
74926000.0 0.7915925831884194 -0.6141661780382287 0.027068683295608426 -0.4082808806953317 -0.0006917585797446311 0.0017309520803507794 0.4640970632551518 -0.04544099841765797
75925000.0 0.7859152404284219 -0.619705850952156 0.01523928459254263 -0.42745950249013936 -0.0003497941310691502 -0.0002587288157174963 0.4768495212147619 -0.07342822842921083
76924000.0 0.7774685964424584 -0.6269443834709693 0.00016843719928470087 -0.4516920441144828 7.508649530479152e-05 0.00025999174037667723 0.46840563573882305 -0.07004242770970315
77923000.0 0.7750526255671771 -0.6337833934298256 -0.01008738452486487 -0.47430346543188734 0.0066384696030649505 -0.0034506261599574475 0.4644465024102248 -0.07899689447003044
78922000.0 0.7683998544272753 -0.6423465027982499 -0.02653903870182463 -0.5027569844890005 -0.0019586000033733008 0.0012541530206821281 0.46872044384074163 -0.09868344124389972
79921000.0 0.7598784090833588 -0.6484027964297685 -0.04285746221852319 -0.523130434868779 -0.0024739615257771607 -0.0002598824528410919 0.46544047535240557 -0.109622911700642
80920000.0 0.7568467299865477 -0.658128119726448 -0.05930420849887093 -0.5551183708479953 -0.0009892451785762585 -0.0006785150726318662 0.46978389247525765 -0.1201935259604092
81919000.0 0.7515742843270884 -0.6628804791772229 -0.07768495389012847 -0.5811857917500123 -0.0017537445549415157 -0.0013055548283442504 0.46598932225720296 -0.12791957008320753
82918000.0 0.7387895233047644 -0.6732043450952458 -0.08963776524705233 -0.6150992156672892 -0.0032507094460654832 -0.0028998320878562333 0.4811979302375685 -0.1346224919806499
83917000.0 0.732924267538185 -0.6795730181059391 -0.11008376165010603 -0.6362382931944309 0.00010323392273951543 -0.0010140381596874457 0.4735063724728726 -0.13956378759757576
84916000.0 0.7294379244556618 -0.6875882209693648 -0.12679629987700056 -0.6779147310086289 5.6496051073812906e-05 -0.0013420150803880987 0.4631565288033961 -0.1504726553224505
85915000.0 0.7222516834360048 -0.690496911578073 -0.14792120754621954 -0.7054327970424031 -0.004462252913551156 0.0011831047831888032 0.4662727814273829 -0.1640869139875938
86914000.0 0.7153020472190955 -0.7027869318770595 -0.16886523041442508 -0.7429083430047633 0.00151569938705312 -0.0035888956780724063 0.46411933713602116 -0.1663207964790344
87913000.0 0.7082422577085048 -0.7076332066833493 -0.1830669097687056 -0.7745127812061829 0.0006246037563165506 2.8355522787372876e-05 0.4654551324407451 -0.1696601174541868
88912000.0 0.7003924531168981 -0.7153115911299729 -0.20367261652155366 -0.8098424670293994 -0.0005622327271853504 0.003946447202667954 0.47330682495876897 -0.1860865001268207
89911000.0 0.6955683439309492 -0.7230333040165968 -0.21419116106352848 -0.8498932314516087 0.0020049283722509766 -0.002055523993205394 0.4695929749376102 -0.20625651780791066
90910000.0 0.6857100009469586 -0.7282740748690165 -0.23685227934414513 -0.8778580561636846 -0.002027609508570791 -0.00047252287321812933 0.472224662671518 -0.1953298961802085
91909000.0 0.6773981565054099 -0.7342520628442742 -0.2518888380681612 -0.9133224567635856 0.001893275480150395 -0.00048665967404880783 0.4784504388569719 -0.2105082063425817
92908000.0 0.6692301192310852 -0.7426045960603446 -0.2718119360179752 -0.9498412566840629 0.000988089016703931 -0.0022294652785047045 0.46467518808578684 -0.21922236340856885
93907000.0 0.6648365442142538 -0.7480415347273498 -0.2887278512401795 -0.978395181234673 -0.004333259135637761 -0.0006247945902421702 0.47807112732928536 -0.23812540018676343
94906000.0 0.6495822514639836 -0.7568038304395543 -0.31047419862916886 -1.010574880480697 0.002915540751939672 0.0018394531341078119 0.45876185023966254 -0.24534805984698838
95905000.0 0.645025819139098 -0.7621487790136096 -0.3315834794101621 -1.0466252331117623 -0.0021242589340154457 -0.0024266447304159633 0.4673440829774462 -0.24898777690274254
96904000.0 0.6384496327002938 -0.7701996752776905 -0.34788702425844736 -1.0824872397463179 0.0009910667208915672 0.0006240551920184917 0.45896235097785165 -0.2645963183982031
97903000.0 0.6275133492230098 -0.7776498290181262 -0.37438845765617346 -1.1191422106496705 -0.004273810478037059 -0.0030832847219030303 0.46319790394134935 -0.2772749952183581
98902000.0 0.6230834984449719 -0.7824378458852654 -0.38885145643095487 -1.1574443871372504 0.0012096373701015709 0.0034113266714511166 0.4613573208159766 -0.2826264861960111
99901000.0 0.6123125399594836 -0.7884835885428217 -0.4209647314810185 -1.183693335578567 -0.0018865615169022171 0.0013572340579073327 0.4675481839345246 -0.30403799962591516
100900000.0 0.6030528147399049 -0.7920330407528956 -0.4530475930447635 -1.2123565513335366 -0.0011269697441305595 0.0032807107774917165 0.4689282434040873 -0.2973416176655348
101899000.0 0.5956580816577771 -0.8017136546453333 -0.48111177509529124 -1.2559394419671108 -0.0006948495722622677 -0.0027546978913281844 0.4539567309318715 -0.3098104409387269
102898000.0 0.5862553833317342 -0.8074907592162038 -0.5146722176754225 -1.2932974161765973 0.001215032468885619 0.000973648842161648 0.46126912914165863 -0.32854576074862973
103897000.0 0.5784415122643597 -0.8153348673688136 -0.5559025852075342 -1.3328142552192261 -0.0014248203121927532 -0.0006658853355075072 0.46772131357968255 -0.322234357167724
104896000.0 0.571007579457648 -0.8239060160788472 -0.5937095785883474 -1.3639932200551612 -0.0001426607871408062 -0.0006605367189531294 0.44595367567145705 -0.3295837484830175
105895000.0 0.5590849365696237 -0.8249095454211571 -0.6452419908532551 -1.40192639805545 -8.039856347506229e-05 -0.0002997616867365581 0.4424734090353206 -0.358099066944696
106894000.0 0.5522598823141662 -0.8324322729515857 -0.6987110607478805 -1.4399261455410035 -0.0017491751117512564 0.0003554804991149018 0.4410763374531004 -0.3641549240405226
107893000.0 0.544278911451023 -0.8387564781780761 -0.7484073800205198 -1.4782619665917884 0.0001258804638900763 7.930403815606873e-05 0.4406104342392347 -0.3778586888196605
108892000.0 0.5316802282470651 -0.8421823961566454 -0.8083656698678374 -1.5078581097597088 0.0005083593500036924 -0.003463762084246524 0.43117037809472897 -0.37483071330088263
109891000.0 0.5222636356531399 -0.8496599774335404 -0.8652291099728021 -1.5440428239384014 0.0034388237257300933 -0.0009180844323676331 0.44294741785842534 -0.36377664402013715
110890000.0 0.5091173486534052 -0.8690083997465887 -0.9463784006582068 -1.5602807843999151 0.0022244745586569832 -0.002875409446737598 0.436663586045222 -0.38449307737607846
111889000.0 0.498849558084362 -0.8569861657512546 -0.9892216688848746 -1.6153555443643433 -0.00315441497032191 -0.0011091930232101281 0.4319845927268753 -0.3899326594985289
