! Created with skrf 1.9.0 (http://scikit-rf.org).
# Hz S RI R 50.0 
!freq ReS11 ImS11 ReS21 ImS21 ReS12 ImS12 ReS22 ImS22
1000000.0 0.9808718231223387 0.0017986558897636821 -0.010878374213395433 -0.04350424968314399 -0.006505049967262692 0.011144341772375596 0.3547475791364569 0.3344284585644937
1999000.0 0.9931718617109532 -0.009048903595979272 -0.001180916407048252 -0.014182302168828735 0.001442324700026408 -0.00018627629372180502 0.25152127641572297 -0.021133066214950532
2998000.0 0.9980665709779148 -0.02164297210059144 0.00917729651578257 -0.011816934916119539 0.0007726038463190685 -0.0009730041637490464 0.1907633295282266 -0.14672553462947488
3997000.0 0.999951270396403 -0.029779606291379424 0.011702055921988844 -0.006879824393997701 0.0018272854684974497 -0.003082414638301936 0.06526121611419052 -0.24884166090479484
4996000.0 0.9972831264636313 -0.03782319068950844 0.012922259697153748 -0.00275230499752769 0.0033761644487720725 -0.0023419975086552865 -0.05101141457576072 -0.1912313717593948
5995000.0 0.996654296997632 -0.0497577373412024 0.006205793625099554 0.0050428529717981814 0.006196550580188164 0.0011915176474436824 -0.13342553545956612 -0.09402368627392817
6994000.0 0.9956821525437477 -0.057775375881158615 0.00571267497481539 0.0037552734953153525 0.0006063355068661482 0.002360751526809709 -0.1372609039854069 -0.011479723280589335
7993000.0 0.9968390603722478 -0.067060420726268 0.006975843375992984 0.006681618912884423 -0.0003064698943389843 0.0013092426122533027 -0.16420399980199557 0.0495371851843263
8992000.0 0.9939062548170137 -0.07358712371181184 0.0010682449752353294 0.0035250760771768416 -0.002050884284989225 -0.00636451626021053 -0.15998780747595123 0.07617301561765795
9991000.0 0.9954496522242198 -0.07943781871432405 0.002084389930211074 -0.00037746204519086983 -0.002270359662874843 -0.001701036222010228 -0.14048958707280743 0.10237683039199864
10990000.0 0.9933884173562716 -0.09124666439603159 -0.0014301901587046213 0.002806611782727431 0.005644348380016661 -0.0003541473339265635 -0.14567487740128499 0.11937809245887869
11989000.0 0.9912892089071386 -0.09769629015095384 6.609221797966611e-05 -0.005146495444333619 0.0013946763692542616 0.004963301349912551 -0.11810863555314005 0.14816239212355994
12988000.0 0.9898769866194541 -0.1095904093394541 0.0011297166978527673 -0.000664755359428293 -0.0012578677754722534 0.0013775541907411427 -0.11254260742963729 0.17338632591395017
13987000.0 0.9888279741324456 -0.11429140355741331 -0.0015318942330233083 -0.0068604542115322025 -0.006491526196752863 -0.0013412011044848253 -0.0947822708961436 0.2010622219588256
14986000.0 0.9882702338634807 -0.12333945018290474 -0.0008335571376582153 -0.005584460860663279 -0.0014568383569459257 0.0007099216552832402 -0.09073064606785336 0.20882272175486535
15985000.0 0.9906961546692094 -0.13042590471851057 -0.001781639260273753 -0.001950638645252163 -0.0007716490551699166 0.0001643248259404981 -0.06457125044359781 0.22649129809058927
16984000.0 0.9867027522276203 -0.14072476901895975 -0.00404229961830027 -0.0034796095855842055 0.0023307581639777676 -0.0031324804490293293 -0.06853742077730408 0.22338450577523225
17983000.0 0.9878821795457371 -0.14659198552773645 0.0022298289892032056 -0.004973367934328709 -0.0012107907372575488 -0.004220523341076474 -0.04840190868357539 0.2342441729890988
18982000.0 0.9860479013148584 -0.15937813293097391 -0.001991737293144249 -0.006125922664341954 -0.003716807730544044 -5.294104105715267e-06 -0.01647228111187046 0.23975598964443312
19981000.0 0.9845958617836686 -0.1643992469340258 -0.00285889717347467 -0.00405947462057574 -2.7933912375027236e-05 0.005334022073802755 -0.008580808878404457 0.25529207578286717
20980000.0 0.9823150947730694 -0.1729534962207344 -0.003491673936482833 -0.00761132882714881 0.0011977496309334202 0.0027922022908447833 0.00010510269335063356 0.2602669889521878
21979000.0 0.9817651207883128 -0.18178965144779172 -0.005495893494384021 -0.007387040662294163 -0.0021348024860811474 -0.0006644023606751797 0.031043340260330787 0.2531239753639337
22978000.0 0.9782722386855809 -0.1897536437729243 -0.004619843284371641 -0.004529973590678675 0.0005224922991342119 -0.002366410029442372 0.038709090824513404 0.2648002555866961
23977000.0 0.9777742315592635 -0.19870099805660693 -0.011512273582746705 -0.006251827895583205 0.001949483171421801 -0.0007156937604647656 0.04169987324344199 0.2595807408581786
24976000.0 0.975670048867544 -0.20996238896479608 -0.004348025977373896 0.0009260642440898847 -0.0005744741964946852 -0.0003215085948194634 0.07012959496420919 0.251389888843199
25975000.0 0.9725128839100564 -0.21166991017370732 -0.009043374670268533 -0.0002194620615984967 -0.02201660246528595 0.00926069371419143 0.08917619164839324 0.2639051401565514
26974000.0 0.9717620718258387 -0.2244346370544293 -0.007082456547881453 0.00010420424106117026 0.0007049727688984225 0.0023426367869178294 0.09622007597825925 0.27215171426749823
27973000.0 0.9704103062866632 -0.2317811095098655 0.002003612315580939 0.0007604619933155022 0.0018308370748623794 0.0010903401535802334 0.099431378332651 0.25903405190026507
28972000.0 0.9659955086308384 -0.24000827585949597 -1.2891402190663637e-05 -0.003332509642286065 0.0009172869561602024 0.0022013941907469345 0.11951096748124368 0.256453470128008
29971000.0 0.9658733207218257 -0.248967076381182 0.0005889103769770109 -0.0011668505066771812 0.0008790302129281404 -0.0008668101045699156 0.15737942375784003 0.2668159211566098
30970000.0 0.9647424503736565 -0.25564250392106747 -0.0005841804632938973 -0.0006151868263119161 0.0007570973147799603 -0.0015456666007435023 0.16707726235762152 0.2492139982727345
31969000.0 0.9611814554646151 -0.26322691574936685 0.004065900687440931 -0.005899514657865286 -0.0020899251863848484 -0.0014045106195092495 0.1577354182402315 0.25164925138092353
32968000.0 0.9609785881756718 -0.2724612408506804 0.007468350318227738 -0.01010725586730284 5.5829592677614496e-05 0.0018581872493272716 0.16907546990084493 0.2519373039127165
33967000.0 0.958830539092005 -0.2802182662863631 0.008988366028457578 -0.009615854874709256 -0.0013831364541194288 -0.000409435150434026 0.18734041284847155 0.24805910183414803
34966000.0 0.9538674407866611 -0.2916800951249597 0.016038354725663465 -0.013542114211369964 -0.0003611711451147913 -0.0032468818888123216 0.19480300540200113 0.25681403783155604
35965000.0 0.951319482027634 -0.298380917276347 0.01737045687672366 -0.015033762796249107 -0.00044181062973587407 -0.001118410190714208 0.21546936914561704 0.25945180242386023
36964000.0 0.9497201399982941 -0.30565906501627027 0.015175706304537604 -0.014052721695757647 0.0007010457376981975 -0.0013992584323419995 0.2238396738471412 0.25391339774223304
37963000.0 0.9465005289669722 -0.315644411870766 0.024075777882067457 -0.020559116816229038 -0.0019288525591534401 -0.0004479677195649534 0.22954298914993201 0.23459220567852246
38962000.0 0.9448423274566587 -0.3237641621107627 0.02726997282547674 -0.02355200868413903 0.0024991169032714793 0.001594948973723853 0.24235986854167227 0.23484388803301506
39961000.0 0.9416866083297426 -0.3330861518187538 0.026601082634929378 -0.026514408155183453 -0.0004686717601463691 0.0015943343824562977 0.2591696676737507 0.2235845378886421
40960000.0 0.9379959643055678 -0.34043278844210656 0.020835351504047465 -0.022489345344913602 0.003493674170904013 0.0008355593384423128 0.2738150648842688 0.23668315275157134
41959000.0 0.9344050261544261 -0.3486934335004694 0.028743588076427386 -0.029310301781842192 -0.0010757087880019535 -0.003522197480255099 0.26730073360448525 0.21851500299865914
42958000.0 0.931543390172384 -0.3575086418565873 0.03504905710291111 -0.03964320867080358 -0.0012190937887188275 0.00016944688550744882 0.2738261724528098 0.20012916750150153
43957000.0 0.9281810932341534 -0.3645940960899555 0.031526752422137504 -0.04775914658076762 -0.0001763812452217834 -0.0015052239082840842 0.2946224116719583 0.19895713524676403
44956000.0 0.9249718262889097 -0.3729430791042503 0.03519653140433975 -0.051970718324007466 -0.0007183744752557226 0.003798144566006548 0.30458459690214446 0.1908690604654358
45955000.0 0.9206711753693313 -0.3827932598963232 0.03540230952374186 -0.05737886647325108 -0.0023023786892068946 0.00011391987851969321 0.3057715253081715 0.19331227708480966
46954000.0 0.9183170258205867 -0.389964685347317 0.03851057911524398 -0.06534264211262455 0.001987702823506738 0.0004237317760663468 0.3289741325936754 0.18630519014036845
47953000.0 0.9156982891477534 -0.39801546237787955 0.03673490678076334 -0.07113361915992064 0.0012122833761009093 0.0012641942528857587 0.3413982222916462 0.17469016916273147
48952000.0 0.9104727648306595 -0.40818316195749005 0.039056037825277876 -0.07617583494908647 -0.001439319080283751 -0.0003948816359874646 0.33476370162322666 0.17066696602305692
49951000.0 0.9075504688007169 -0.41700153314418303 0.04163862579662437 -0.08719435517015243 0.00297006443761371 0.002051670771766844 0.3593964288659558 0.16128820638347366
50950000.0 0.9031461226053221 -0.4243898465514606 0.042227584762475893 -0.09270691091141973 -0.0014814780394909353 -0.0014563833570547607 0.3525067096525318 0.15428099274682436
51949000.0 0.8991009661129478 -0.4309638371740299 0.04129424518206053 -0.10131166520817764 0.0018156533952517874 0.0001016747276476164 0.3640652475741087 0.15170033790602758
52948000.0 0.8963694013697923 -0.4386844457932835 0.043083462035186336 -0.11150234978287525 -0.0014461985912715884 -0.001393202567182559 0.3714786346962196 0.14613838457514378
53947000.0 0.891000200499287 -0.44641791053029045 0.0465630424142242 -0.11876232466944707 -0.001544343353668339 0.000880229893301419 0.37853956208750217 0.1353534402207869
54946000.0 0.887265094543229 -0.4535092539234397 0.04658415027404653 -0.13145038763063824 -2.2038493204412476e-05 -6.133820135550981e-05 0.38648386570731647 0.12661867476770156
55945000.0 0.8831427059075587 -0.46516853231089844 0.04753455820857768 -0.1412716897441074 -0.001982591414017714 -0.00015642947124848926 0.3907116549374083 0.10985748260506238
56944000.0 0.879643448144902 -0.4724437379463791 0.05119184585149358 -0.1503110006463829 0.00022738250733718692 4.840718486354443e-06 0.400912243539056 0.09815419675103358
57943000.0 0.8756395501069549 -0.48100034950765824 0.050180099067339154 -0.16196818835451 0.0008775780376553706 -0.0033777265920558086 0.4100741700470814 0.0880346597039904
58942000.0 0.868608413785291 -0.4881581459070417 0.05239010435993712 -0.17318120713589247 0.0011417453502565408 0.0019696464661881755 0.42630419278086756 0.08768525125363394
59941000.0 0.8662195496870965 -0.49433752171657325 0.05740865243693871 -0.18126131187946523 0.00034574171156102586 -0.001201707522237775 0.4230051276165591 0.08344608737058054
60940000.0 0.8589930075237027 -0.5017096935583207 0.0572334166761419 -0.18556252328348824 0.003151505929921695 0.0008596486024704468 0.41270357582627587 0.07165516975358723
61939000.0 0.8556174903542333 -0.5100132635970596 0.055323313300940855 -0.1942736806806726 0.0005517094988671333 -0.0003949661825900753 0.42114429428794925 0.06647009121812017
62938000.0 0.8511573305395437 -0.5193704039688802 0.05613681906233993 -0.21246830698624702 -0.00038070984040767153 -0.002922670684286166 0.44431396441235127 0.045340351337741634
63937000.0 0.8465171359141539 -0.5274082422987888 0.059298962221663656 -0.23414532177740327 0.0008982138271478103 -0.0009790517233575985 0.44310376974675336 0.039594268141060415
64936000.0 0.8390829014707873 -0.5336279324504717 0.059229890017731296 -0.24686894749015614 0.00017925312201419867 0.00043717371331904533 0.44469626471867396 0.03563739791650119
65935000.0 0.8364456835760384 -0.5455257576659546 0.05757232264298352 -0.2605774379345461 -0.00041731908136307836 -0.0004866333876947578 0.4467887524788737 0.026959453964274842
66934000.0 0.8318085512810675 -0.5499845778944094 0.05837735765300267 -0.2746824560024601 -0.0029188461841460497 -0.0017733018771196425 0.43508785892600876 0.013167078947948604
67933000.0 0.8298666697158806 -0.5565516897752386 0.06304864682788194 -0.2908736241046669 0.005755402724116513 0.000496012105384762 0.45073748254292056 0.00734701172656881
68932000.0 0.8133473773109622 -0.5502660964745868 0.054274403695737036 -0.2973131967670325 0.003354793499678394 0.0026335098226161206 0.466653973123896 -0.01314882410872269
69931000.0 0.8146556302417758 -0.5723075946860876 0.05704431227585091 -0.3224590627208595 -0.0014508487232294809 0.00028317170195375345 0.45031324324392963 -0.0099412290574889
70930000.0 0.80844664532604 -0.5781201449024866 0.05443339024832077 -0.33292825594425596 -0.0022640210260809735 -0.0016866224326633555 0.44338820802823 -0.02872387919075426
71929000.0 0.8083905451039533 -0.5870581436889649 0.051276409592925544 -0.35578865737618526 9.818410582590606e-05 -0.00024099797598124613 0.45416961103480935 -0.030406632066869388
72928000.0 0.7989337368654508 -0.597053715844066 0.0451389304702022 -0.37139070812421554 -0.000750418714357847 0.0031210258498265463 0.47016529723889133 -0.04490975673397659
73927000.0 0.7948292057895264 -0.6037482648430477 0.03970603037352178 -0.3918675813689836 -0.0034661123821831167 -0.0011265144266510208 0.46912141403243246 -0.05570426522494565
74926000.0 0.7898793310524955 -0.6122115445383746 0.03208457541868003 -0.41049089220890084 0.000881038477902508 -0.002126283745099941 0.46421482920218804 -0.06279540496878262
75925000.0 0.7839872341063505 -0.6179127944494063 0.025124689810967077 -0.4298164966549914 0.0014308954688424243 -0.0012224017080101855 0.46780877884967703 -0.07186738651275668
76924000.0 0.7776066486128094 -0.6252466886814794 0.013073098560001164 -0.45237451525323624 -0.0006520086012434601 -0.0006539776823917973 0.46478655384570805 -0.09002529246956495
77923000.0 0.770428267746897 -0.6320785826631967 -0.0010732087827504708 -0.4756078767359921 -0.00030290738977921595 0.0011275174671645412 0.47485191143147937 -0.09155794988350559
78922000.0 0.7669631327332154 -0.6409709764357917 -0.01679004876485651 -0.5033246456633766 -0.002172981328366769 -0.005199709680181134 0.45332156605848334 -0.10518351717015424
79921000.0 0.756283079906096 -0.6463317471529227 -0.029563182179515816 -0.5274827481036519 -0.0011488246708921872 0.0040690916120277336 0.47221998115143643 -0.11110242720272585
80920000.0 0.7528730923697965 -0.6561232366648356 -0.04290814835398864 -0.5579938020722471 -0.0008197475896806391 0.0016313378833098255 0.46843859875725363 -0.12131097788881555
81919000.0 0.7480939806156395 -0.6615931800371336 -0.06272422878590722 -0.5852791991760968 0.000476638736164478 0.003963212302396698 0.47371253497860705 -0.1408243991506513
82918000.0 0.7367403576163802 -0.6690266346000645 -0.07196558341057041 -0.6189711729421462 -0.003945442863055755 0.00032678396191123494 0.48866086407857406 -0.1431231655707117
83917000.0 0.7301785277452773 -0.6785416292415222 -0.09661103453355535 -0.6475768815564342 -0.0024917116096032873 -0.0025614855458245696 0.4832915964894667 -0.14403006691542758
84916000.0 0.7246577931577776 -0.6864459448315647 -0.10440123615059312 -0.6820156861035002 0.0006081926830390726 -0.0016705259294287336 0.4673663774709625 -0.1605421053171716
85915000.0 0.7194631354352077 -0.6902362584613618 -0.12916484635152867 -0.7121834252157137 0.0017017322870944034 -0.002029259863659766 0.4723027300757764 -0.17750874021570962
86914000.0 0.713427566691615 -0.7011612247225892 -0.1477845402769398 -0.7493483840238353 0.0015292150312030362 -0.0021963133358523087 0.4653784118168532 -0.18011900523771346
87913000.0 0.7062856619590434 -0.7059088595393005 -0.16310342422774046 -0.7754770659440456 0.001276661109931616 -0.0011029477802634968 0.4647751739868924 -0.1853258806817169
88912000.0 0.698883699172003 -0.7139589512910789 -0.1804687184030802 -0.8107442408965664 0.003147517316957888 -0.0006917932465023163 0.47123425243585654 -0.21105419421612878
89911000.0 0.6921493783059751 -0.721140535923236 -0.1955958758134258 -0.8529203098231269 0.002014790542811081 -9.150061816200043e-05 0.481695933140139 -0.2069905401153655
90910000.0 0.684564188649836 -0.726732154255054 -0.21490179061552023 -0.886231471092763 0.0010366559913276869 0.0006585643957460887 0.47029883752407703 -0.2109165533747927
91909000.0 0.6766201183828733 -0.7307301541742659 -0.23339819754302402 -0.9235122034714364 0.001662524982828271 0.00019797561336663976 0.475954998184184 -0.2249794517916989
92908000.0 0.6688599494639633 -0.7410750881840952 -0.2530580588824975 -0.9493130887302789 -0.0012644185488389994 0.0006250540957292246 0.4606630183851242 -0.23284648856554985
93907000.0 0.661536677815521 -0.7442111437877047 -0.2743464942539801 -0.9853479640038593 0.0005314572129887765 -0.0003191296617163661 0.46772584464606387 -0.2490167519487918
94906000.0 0.6498183461863833 -0.7538380500562396 -0.2874602490507873 -1.018324419163981 -0.0010048938540039734 0.007693470249388181 0.46366946749708904 -0.24846691105450208
95905000.0 0.645196307194485 -0.759637468633953 -0.31160779151868917 -1.0541828320864675 0.0022250092797664856 0.001183099321381357 0.47224063542764816 -0.2675201104606737
96904000.0 0.636608620370712 -0.7687606736785504 -0.3316855189781589 -1.0993662504594133 -0.0012651665992083655 -0.0005362952705809912 0.45300402923322486 -0.26791690810298546
97903000.0 0.6277509921300803 -0.7733410220082082 -0.3562045436366934 -1.1295241069568083 -0.0015507764355821851 -0.002198887225676436 0.44965723372096217 -0.29871322459913296
98902000.0 0.62273611598125 -0.7820085739156492 -0.3766717831212595 -1.1742821048884509 -0.0006384234030315326 -0.00220906074242372 0.45737684945964197 -0.29547761166351
99901000.0 0.612286961001636 -0.7873727385453354 -0.4046636371708916 -1.2054841466761912 6.53063141389991e-05 0.0010562960067299215 0.476774019897913 -0.30626030648516056
100900000.0 0.6028672921277898 -0.7898930673043701 -0.4415388364600946 -1.2308088400228794 -0.002321053510668172 -0.0011191121189317692 0.4580366480905974 -0.32554341164264133
101899000.0 0.5951781109904154 -0.7975736854234101 -0.4621129026560432 -1.2727473209242306 -3.8675340319716315e-05 0.002968504373039082 0.464952068469773 -0.31643255007612514
102898000.0 0.5859949257863231 -0.80517969109366 -0.5025767241159736 -1.312816460506516 0.0014487774557165858 -0.0015265638753446827 0.4612520876709537 -0.33267615172144044
103897000.0 0.5774435350205672 -0.8126094574141696 -0.5410780299277593 -1.3508010020556303 0.0007111780696311305 -0.0007652104724203263 0.46322139485100255 -0.31974831605075205
104896000.0 0.5699859288993226 -0.8195659093823855 -0.5766976131956013 -1.384456082745313 0.0032565391940611926 -0.0012305481071633398 0.4520364133737355 -0.32613081465143606
105895000.0 0.5615917276802942 -0.824117338801983 -0.6253597184633769 -1.4302226244048184 0.00034320604190912096 0.0006494295781422915 0.45026028090710113 -0.3576192373369453
106894000.0 0.5521522621477285 -0.8281774137412503 -0.6847614813513585 -1.4660810425138486 3.7589846810595178e-06 -0.0026473096153897765 0.43747987146155953 -0.3641614333945557
107893000.0 0.5417184519276418 -0.8346773997246597 -0.7322985007287401 -1.5072635039469509 -0.0022191254465954656 -0.0014374127520209623 0.4400626676619442 -0.36908660561344303
108892000.0 0.5351991534540409 -0.8388247661312093 -0.7896421146569889 -1.5496330201876956 0.0002711569815165896 -0.0012639914208742921 0.43713176132968273 -0.37841416972255315
109891000.0 0.5221441312815447 -0.8468699230066216 -0.8463630939181732 -1.5832512639383105 -0.0004836906995986751 -0.0001165587481958961 0.45423872501588863 -0.3709144644630888
110890000.0 0.5154255275997752 -0.8488469775898914 -0.9045315888077898 -1.593574189722228 -0.0030160097395750575 0.0005855713148066549 0.44500277200136157 -0.38373027360778333
111889000.0 0.5018062575192369 -0.8537338014647993 -0.9803767931531199 -1.6545385849978853 -0.0006470510915579394 -0.0010997918752644427 0.4346623714813977 -0.40223186422655205
