! Created with skrf 1.9.0 (http://scikit-rf.org).
# Hz S RI R 50.0 
!freq ReS11 ImS11 ReS21 ImS21 ReS12 ImS12 ReS22 ImS22
1000000.0 0.9870355101661595 0.012475232656717863 0.009057773928422271 -0.03292245268062502 -0.0013919431373064885 0.0057324503284813 0.31646906045273177 0.31796485933065805
1999000.0 0.9981081843533374 -0.013327923468203086 0.010569858081745659 -0.02754398453350125 -0.005391209717556641 -0.005503691410410184 0.27581690151453936 -0.04633923278301961
2998000.0 0.9981873366242274 -0.021586220016280716 0.010993494873206224 -0.019385484974402588 -0.002838265244164681 0.004754877201018634 0.19311190392909316 -0.14096109875380752
3997000.0 0.9991386224668448 -0.03289861257356946 0.0112237397013181 -0.004288490078927069 -0.002636607369899922 -0.0055075815887728275 0.09445337351647826 -0.22524233428031828
4996000.0 0.9975458785569434 -0.03969637184008111 0.009349048111988658 -0.0022285178986764455 0.0011902835023366138 -0.0001842996119943939 -0.04204592879982142 -0.2041960241142083
5995000.0 0.9931669520902467 -0.04804313423923866 0.01213409705153026 0.0032477894740337836 -0.004567776347358505 -0.0028110135969276638 -0.13605779531691248 -0.11020170482121022
6994000.0 0.9960671923953184 -0.056762526260447074 0.005514941650458679 0.004921762030354181 5.310384456759916e-05 -0.00010855731399652568 -0.1462024288197423 -0.03058079255379405
7993000.0 0.993318906252239 -0.0704377623590202 0.005625992644353405 0.004111849198363357 0.004390467164860492 -0.0013610447930842945 -0.1710953941279454 0.030786128370469616
8992000.0 0.9938331417888558 -0.0718874521602495 -0.0012076592672705592 0.0041439385999644755 -0.0016942096164637892 -0.000983166292499199 -0.1600745643708197 0.0662634340023387
9991000.0 0.9921227695189513 -0.08396685807898104 0.0024935865234888737 0.0032173394645847787 0.0010248179577980203 -0.0007800092187376345 -0.15098623893170934 0.10920140719906854
10990000.0 0.9923333631035705 -0.09624799314041417 0.00023015423602681113 0.00014649504368378788 0.00018295443636058973 0.0038192539000254985 -0.1559492848145762 0.11026853520303151
11989000.0 0.9890551863503653 -0.10098484778145866 0.004671334083710386 0.003510339919903149 -9.200706174429308e-05 0.001959641852193322 -0.1335238911081853 0.13935185217760643
12988000.0 0.9868072512494881 -0.11117249581811912 0.0009563467321375585 -0.0007388632034861479 0.002429546550429857 -0.0008386104672107209 -0.12418907985182555 0.17027748586808797
13987000.0 0.9858598126770545 -0.1217158143601855 0.002017555149865195 -0.003855271218546424 -0.0016734139743031836 0.0029054794962289484 -0.09276157047910123 0.18700447978072807
14986000.0 0.986360958718725 -0.1258648541153476 -0.0016113873371027194 -0.008106365202408846 0.0006803490482729882 -0.001921311741132615 -0.09800173027892344 0.20575389489617724
15985000.0 0.9871312819268401 -0.135270317211403 -0.0036113786410878522 -0.0024159148238285335 0.0005356319979796956 -0.002589342607962353 -0.07994444800685592 0.228155491318901
16984000.0 0.9845819769056895 -0.14737116757522256 0.0006449084841330393 -0.00694208423415974 0.005706902031963624 0.0003490811224134825 -0.06325519290879274 0.2188376421358113
17983000.0 0.9827200115942012 -0.1504321251870532 -0.0015390451235466267 -0.007127220779061593 -0.002765843116187283 -0.0029523493292019864 -0.05602208781745621 0.22807939749846595
18982000.0 0.9812498786759809 -0.1652545865002624 -0.0010840606108682364 -0.002263688824035668 0.00507156426820287 0.0020320844204874664 -0.024716895625768356 0.23993559784372323
19981000.0 0.9805699614317273 -0.16665129320164496 -0.006344784458355756 -0.0021260394108311457 -0.0008977522459430835 0.0016165001129353962 -0.01421592590523997 0.24291957204258185
20980000.0 0.9808750671936424 -0.17611695225294915 -0.005484739415384527 -0.0077870393255285025 -0.0008946059026688727 0.00034445376892989766 -0.012886421741600398 0.25917253473268825
21979000.0 0.9794972847593488 -0.18566472252440208 -0.003505925459878502 -0.002832287889812001 -0.0016465020620125158 0.001410333976719179 0.014991603013163659 0.24032131788417294
22978000.0 0.9760632428134851 -0.19544080508794368 -0.0051402646503081045 -0.006629527721406171 -0.0024331034000629405 0.0005080295719848978 0.019425329930744875 0.25147194727460503
23977000.0 0.9763597395281695 -0.202937385696882 -0.005981512025987075 -0.003742897878953151 0.003291790517841083 -0.0003381626782002038 0.04927078528381957 0.24592964212448193
24976000.0 0.9713367125772785 -0.21415043918135124 -0.004820299241348297 -0.0011669767649602207 0.00020762889870816053 0.0007699182382313309 0.062374741763201104 0.26987947366597553
25975000.0 0.9712732010006271 -0.22790957050329314 -0.0035158855441306666 -0.004144181034242231 0.02632775118525099 -0.0008245067749357575 0.07934194177074863 0.2583596097347593
26974000.0 0.9669170364679719 -0.2310972440618768 -0.005190141085114857 -0.0014349823974888257 7.971529010027139e-05 0.0032845768662158343 0.08339697196211648 0.269833241114137
27973000.0 0.9683702806101352 -0.23741901574231172 -0.005355660253538444 -0.0014075618515605418 0.0028143751233617163 -0.0001506183820346147 0.08919249290718445 0.262210202261872
28972000.0 0.9645045396296644 -0.2463486689912672 0.0009914032728542117 0.0003423418386860674 -0.0003713837687337559 -0.0010012915937533443 0.12395878871785308 0.2596221434885758
29971000.0 0.9621526970204017 -0.2568095662166171 0.0006712196146933284 -0.0013912241717835912 -0.0009657845355315027 -0.001190109302092963 0.14632916131583323 0.26459497699995155
30970000.0 0.9609083066989809 -0.26139834965411984 0.002344936468499249 0.0012409772711868142 0.002102979505856824 -0.004495013450452199 0.16444917808518308 0.24958326294266558
31969000.0 0.9581738815214178 -0.27056997216095496 0.0068933800262218365 -0.004004944101655581 0.0020689466235360382 -0.0008656112149341791 0.1496597902923942 0.2539976133640562
32968000.0 0.9564598541162006 -0.28358402283982137 0.007597196734645126 -0.007461652027379556 -0.0002631079640860035 0.0015729326705293265 0.1552764168830664 0.24952808234737062
33967000.0 0.9553427909058634 -0.2877858642205967 0.011720926848038157 -0.011942888633531601 -0.0005929682791290657 -0.00132605335364295 0.17955587908995171 0.25336254925350477
34966000.0 0.9508521770972761 -0.3000246415736056 0.0148944848542782 -0.012476165623126251 0.003403226749622372 0.00219606480993953 0.1864686453344342 0.2570980311226459
35965000.0 0.9471866004615304 -0.3075838819121203 0.017029672275628793 -0.014554203395056697 -0.0021585420599085667 0.0012831331878280145 0.20213885759586545 0.2509915074536157
36964000.0 0.9450324202381798 -0.31804385476026487 0.015874832230168286 -0.013373434737344413 0.000597963687679415 -0.0013768974752340257 0.2060062960237749 0.25352604405773543
37963000.0 0.9429515473113972 -0.3239177088104967 0.022808267746788565 -0.018242430080469118 -0.002705898729374824 -0.0017497284207464061 0.2266768265659591 0.2328403118598369
38962000.0 0.940141271535777 -0.33573354814658046 0.02220005885506265 -0.026514034221931493 0.0010305087596852777 -0.0001277037152470931 0.23271617247675136 0.24060398331858704
39961000.0 0.9369567971338726 -0.3408041584922859 0.024515544819169205 -0.029215281293687827 -0.002021302621329004 -0.00017061090090863913 0.23817898373971338 0.23250851298117525
40960000.0 0.9331186962454432 -0.35067554137579116 0.021958957401021457 -0.023605288186762833 0.001627969149988102 -0.0021076606418697994 0.26346381737918884 0.22139804842858354
41959000.0 0.9308374321715497 -0.35965111089676305 0.02558845592495458 -0.03301827399754047 -0.00276731611320485 0.0026522286589954498 0.26590772870842094 0.2157928236020114
42958000.0 0.9258022738902282 -0.3674386177168683 0.030653843063253392 -0.03855217387000935 4.88646503094476e-05 0.0012994329014270553 0.27212036959241376 0.21166190318025613
43957000.0 0.9241067813049731 -0.3755466308877803 0.03285305171858907 -0.04848581041578774 0.0027526121623209217 0.001098480898007307 0.28405788141195 0.21043209427450602
44956000.0 0.9202903394979269 -0.3830367206049446 0.03130938221872395 -0.05370903148765441 -0.0012409407097152385 0.002373757875936684 0.29492452610922243 0.19708702650415777
45955000.0 0.9160840294804418 -0.3923314174264879 0.030864905371541348 -0.059614710933592545 -0.004362082855688676 -0.000801817606722953 0.30023984108666835 0.19076930152740013
46954000.0 0.9138536272995017 -0.40121077777340863 0.03338756193373161 -0.06346131358308962 0.0007478363550739856 0.0018318128548052218 0.31909560245131563 0.1807002578421844
47953000.0 0.9080921994154487 -0.4114597213358958 0.03406653575024567 -0.0738229830461167 0.0007276759966054196 -0.004133290861294945 0.32685119135587576 0.1720046398974304
48952000.0 0.9022615215261216 -0.4210758340410526 0.03409784404683254 -0.07744930328839561 -0.0029141224227780694 0.002361571313736274 0.32566193440445956 0.17402075468157674
49951000.0 0.900598399373057 -0.42516444275090515 0.034225689774997244 -0.08549302292208207 0.0007785137341337138 -0.003463067800381792 0.3440939179839989 0.1592046361398468
50950000.0 0.8964197974420894 -0.43721484709337505 0.032718829533209697 -0.09559450557043937 7.996736820262098e-05 0.001709027527495899 0.3515830599217449 0.1466303458362653
51949000.0 0.8914925009995915 -0.442419577685587 0.03608959995929658 -0.10549254813387503 0.0025160686304430027 -0.00028436564297515464 0.35147774378729707 0.14442944692544923
52948000.0 0.8903645998194177 -0.4496343743803492 0.03897983436961509 -0.11236212789515591 5.269889676641722e-05 0.0009629175078321103 0.36121181422140414 0.15011766546240257
53947000.0 0.882785443923466 -0.46011864108059014 0.03700367519603703 -0.11990182556252507 0.004416975456459651 0.0004944303274497354 0.37252462437576717 0.12862421077578506
54946000.0 0.8787052389517647 -0.4690318849915455 0.037380465655403386 -0.1292539406710496 -0.0030672058132754742 -0.001757924774018825 0.3798603016410077 0.13203743377240645
55945000.0 0.8761262753684419 -0.4778688285900441 0.04163718686873715 -0.14239416496594187 -0.003828064561358229 -0.0041755636334120496 0.38410467811471166 0.10673346972531046
56944000.0 0.8715894430598279 -0.48510571752109777 0.041194348857941765 -0.15163764146800815 -0.0007431395304545366 -0.0017857211949606833 0.3942865523037543 0.10112013551824786
57943000.0 0.8660432912810702 -0.49509873800288706 0.04430546009609837 -0.1621659710606175 -0.002307425013176745 -0.0002869439711778231 0.3966390631386174 0.10202643426352748
58942000.0 0.8600598575271795 -0.5001999731310744 0.044282787490868454 -0.17255197643217124 -0.00220105439513685 -0.0008941216277133417 0.41597185283117616 0.09904349552700749
59941000.0 0.8583807839366759 -0.5068028484808049 0.04696318003998463 -0.18033841471115353 -0.0005978271951437526 -0.0001770127832800604 0.4192295362484083 0.08769217711606035
60940000.0 0.8494565808634127 -0.5172992731029501 0.042733025413545796 -0.1841642604524701 -0.0010324688962595416 0.0009692998776465434 0.4004028663480967 0.07867684094184407
61939000.0 0.846143458118725 -0.5233287408081898 0.0462439624795388 -0.18958720493786232 -0.00105112022669197 -2.358530966155292e-05 0.4065969429421182 0.06622848390053877
62938000.0 0.8413143060505497 -0.5335456243281188 0.04855137428656011 -0.2076877970077355 -0.0005888157555178774 -7.726284096977771e-05 0.4367624037829819 0.06783841497788289
63937000.0 0.8354997558559066 -0.5428640995513705 0.04941323543434237 -0.2271928493380024 0.00212514073484943 0.0016802228250692296 0.4368758649695784 0.04900178498506686
64936000.0 0.8295854428033501 -0.5464035083349753 0.05023803431891133 -0.23992855727699836 -0.00039009181808116 0.0002173713105980989 0.4260110662131704 0.04996095284047078
65935000.0 0.8262388252182301 -0.5561613783669259 0.050340191135385785 -0.25560673550259355 0.0006578447158406543 -0.0006672904886618188 0.4371802767513501 0.018250440521679755
66934000.0 0.8223264466637843 -0.5626890627178692 0.04898584778028616 -0.26894334460859337 -0.0042189407386427165 -0.0017672358188484194 0.4214958428546108 0.009592069020353753
67933000.0 0.8180350048847336 -0.571239699222869 0.04990356276602366 -0.2829000954794776 -0.0026386779355881277 -0.002647344603870145 0.44648626458808527 0.01184619986233054
68932000.0 0.80281505726867 -0.5769882500993431 0.04452403592802208 -0.29202898390714616 0.0022678395393407355 0.0005085429315051006 0.4476999909846627 0.003582667371245187
69931000.0 0.8039374656773347 -0.5874640107328313 0.04444031392042945 -0.3085042011949006 -0.002209555677765139 0.0008637121653397257 0.4487067721393602 -0.00806105399537193
70930000.0 0.8001232592358426 -0.5923464328100683 0.04828629854585248 -0.3219733951314934 0.002574583748693325 0.00021438926292675556 0.4411282423896448 -0.021537714819886797
71929000.0 0.7940840413092867 -0.6036310886873795 0.03658266498186662 -0.3417199344594122 0.004154500102458508 -0.0002225506865800443 0.45088741725508946 -0.03188502169428243
72928000.0 0.7887422207056152 -0.6115354149428917 0.03726791498770433 -0.3542771997330505 0.0037649202186998266 0.0022070738462782015 0.46600119661321693 -0.03436355839461226
73927000.0 0.7813647769430091 -0.6169933133517752 0.027208285135948786 -0.3737236515583805 -0.0002669188974515235 0.004245993755375708 0.4500731329391108 -0.05666790133517837
74926000.0 0.7743533810885256 -0.6267569948088083 0.020460186077673817 -0.39277413641102565 -0.0022551478163205826 0.004589982825571846 0.4553970547887418 -0.05692736747276907
75925000.0 0.767024523706945 -0.6328885889144584 0.010732562598413245 -0.41187507613022806 -0.0004334930202398269 -0.0048630766053500895 0.46493681950586074 -0.07289260974731743
76924000.0 0.7628823464157801 -0.6393925763685043 0.0011602266681113628 -0.43268648193315284 0.0006531950655831539 0.0024922820429882767 0.4613709066718188 -0.07790022530021254
77923000.0 0.7549764322992021 -0.6456616027384379 -0.015512512132300114 -0.4557248344122089 -0.0008897636338617782 -1.459266479172058e-05 0.4489720469958589 -0.08836824928303308
78922000.0 0.7492470247270159 -0.6560129208047006 -0.02832075013435653 -0.4841035682274893 0.0023655710361243846 0.002686857444962313 0.46530661102930604 -0.10286947390952324
79921000.0 0.7408236389459694 -0.6594602994933448 -0.04637704230592387 -0.5072053645789983 -0.0002154394340347876 -0.0012420977590446615 0.447651060020303 -0.11411772168554309
80920000.0 0.7377042684914474 -0.671181296164828 -0.06468612120835186 -0.5331111741194499 -0.005807773972174226 0.0007604666422241141 0.46770141495029666 -0.12396327615261868
81919000.0 0.7315948973701762 -0.6765876694109356 -0.08029852829949677 -0.5602477409958339 -0.001586966362470028 0.003225921482815204 0.46048036235178447 -0.12596787764096565
82918000.0 0.7191879490404021 -0.6854444459094113 -0.09320993724207063 -0.5894687797002731 -0.002684545860981852 0.0009598349560654715 0.4677808545276484 -0.14032535218335646
83917000.0 0.7121487434150101 -0.6923205533460799 -0.11475949683132239 -0.6191499685213767 -0.0008407098091822304 0.0024658110484846113 0.46594616693775376 -0.14756185663651344
84916000.0 0.70664617328838 -0.700738682731936 -0.13380299437597204 -0.6538861610563597 -0.002636135584804821 0.0012212764034917516 0.4631304296735786 -0.16373333052059516
85915000.0 0.6991674084454651 -0.7076001669139517 -0.15023768318157305 -0.6817950899920249 0.002452479290994734 0.0013724281328149628 0.46442323544649866 -0.16976053491434948
86914000.0 0.6941409120662294 -0.7159406708979895 -0.1678564682904833 -0.7189076972672125 -0.004911801359815429 0.0023692541010865227 0.4548257939807226 -0.16458569706631637
87913000.0 0.6860336303382614 -0.722185693515806 -0.18596223423552666 -0.744935588640475 0.00012372587715096654 0.0018161197384237153 0.45717114784164226 -0.19402655220653503
88912000.0 0.6777918049252232 -0.7294121994456964 -0.20187334864549816 -0.7774843651055969 0.0030342060905855614 0.0017149201220037866 0.4628091346864031 -0.19699027521891224
89911000.0 0.6701555397574506 -0.7376305094296196 -0.2112115120825438 -0.8151737677015899 -0.000994809257587 0.0006270879241734782 0.47502120872246406 -0.20033718555687363
90910000.0 0.663578661837781 -0.7419122717562905 -0.23065882436631074 -0.8464748959266019 -0.0013611745021422281 -0.003241960956461052 0.46851191214710214 -0.20451131441870404
91909000.0 0.6540358189387903 -0.7466999583775707 -0.24785531246827622 -0.8789016156665393 -0.00105765685503387 -0.0018533022880792714 0.4613411198686778 -0.22237563899023244
92908000.0 0.6466450033129794 -0.7555214889997219 -0.26446228349746626 -0.9082574147417162 -0.0032994248716185313 -0.0033801034361458583 0.455006930335525 -0.22312184153650827
93907000.0 0.640563671969033 -0.761880532471167 -0.2836673202644877 -0.9383744036465215 0.00015605785965461944 0.0013914864018940393 0.46434068175166754 -0.2466157211744551
94906000.0 0.6276632252473403 -0.7697839055144675 -0.29712582019644224 -0.9734658676001905 -0.002193020798805557 0.0030906628301719096 0.4550571174745941 -0.24634709813739125
95905000.0 0.6219229934832691 -0.7778793407321021 -0.3235512741691198 -1.0057114740498585 0.0002554759294841971 -0.0016739162348750269 0.4626194298577907 -0.2574891486025239
96904000.0 0.6133402300478459 -0.7836169854934587 -0.3413980904134417 -1.0441518899772462 -0.00012896583058518004 -0.001064671005680851 0.4477099161654137 -0.2669657189980733
97903000.0 0.6033075019871085 -0.7888273251321072 -0.35537399298188993 -1.0762471843197117 -0.0012793572911381963 0.0015950536235849679 0.43348719149637766 -0.28007641503986513
98902000.0 0.6001415353930344 -0.7964701245220007 -0.3796987469130939 -1.1117648882446443 -6.807377553371077e-05 0.00046856014562537854 0.44283664240127574 -0.2814794757842295
99901000.0 0.5859587448619623 -0.8023814570070734 -0.4018493644816374 -1.1397914080596958 -0.0010519327420948972 -0.0029729285095859113 0.4571918165390755 -0.3065674486873979
100900000.0 0.5813264072997092 -0.805646830776993 -0.43082516227099166 -1.167410876668182 -0.00031919993345313477 -0.0004065382709210959 0.4538389915020943 -0.2992862137108257
101899000.0 0.5704678109961189 -0.8134569040639439 -0.4591076175850311 -1.2041058905695947 -0.002576145490910821 0.0006074564909224747 0.4452272245797107 -0.30710351438081557
102898000.0 0.5599707435212463 -0.8199958347237275 -0.49497428204618954 -1.2392972947125558 0.001097962436803104 -0.0005154347859675268 0.4583146326371246 -0.3303282517598177
103897000.0 0.5523226639965644 -0.8276198955110603 -0.5299636061131672 -1.276340135708553 -0.0006683373491256069 0.0008056977019036089 0.46458595287145094 -0.33001983261089923
104896000.0 0.5455974813784691 -0.8374466672722934 -0.577161200279123 -1.3055601821794207 -0.0011771610275153838 0.0025809312978109134 0.44457033078705016 -0.3292155660124424
105895000.0 0.5328320564933055 -0.8380323088796249 -0.6219348261611379 -1.3402439865083953 -0.0018180092712809343 -0.003321369932443022 0.43572165583923234 -0.3448326493398176
106894000.0 0.5229899235454918 -0.8447885425749339 -0.6715951051056115 -1.3764888271606794 0.0031673044899031876 -0.001217587523071384 0.4223345549410531 -0.35622543919229377
107893000.0 0.515416248470829 -0.8506026977750873 -0.7226985812903468 -1.415164515337323 0.0017856159003322475 -0.001085446473199234 0.43490387708350364 -0.37523598373788297
108892000.0 0.506628991162787 -0.8560732413405856 -0.7815266290049965 -1.4505839581396476 -0.0006076694130430496 -0.0011892603257238994 0.42719328271903345 -0.36078359440630886
109891000.0 0.49422125788698057 -0.8620081872219142 -0.8327006779826825 -1.4846174662475113 -0.00019916113040944054 0.0008524803930918727 0.42879797871591646 -0.36689314470857104
110890000.0 0.4899842655410874 -0.8686859657276392 -0.8974103726676159 -1.5048915628803858 0.002082731491683629 -0.0013529407091773403 0.4253247186492448 -0.37157576579473095
111889000.0 0.47090739044818997 -0.8698182127176207 -0.9632545288743081 -1.546530068606212 0.0002491624468370826 -0.00259601896401699 0.42156678379921503 -0.3911889980012039
