! Created with skrf 1.9.0 (http://scikit-rf.org).
# Hz S RI R 50.0 
!freq ReS11 ImS11 ReS21 ImS21 ReS12 ImS12 ReS22 ImS22
1000000.0 0.9729499625663581 -0.0014365303219749967 0.0008902639807969653 -0.047436011951238234 -0.01584226521618091 0.004939797795971439 0.3033094395929814 0.298437136375136
1999000.0 0.992112099178799 -0.014735900747735573 0.011686601837727987 -0.03481594806775213 -0.0021039726824681184 -0.00590504009689417 0.2738660703136582 -0.06497943397602363
2998000.0 0.9976957408013283 -0.024067404079768966 0.009313322539486486 -0.008455146881136542 0.004737583122993481 -0.002248054062589984 0.19129411910786107 -0.13542393058373195
3997000.0 0.9959918214674105 -0.03133378758975857 0.012330006808563509 -0.0034045590425747546 -0.005402990350487037 -0.007244197498615287 0.11933271832241597 -0.24701894443702677
4996000.0 0.9958913954352479 -0.0412065746609051 0.01126488164739977 -0.0021851902632209898 -0.005194038591389308 -0.0005326591632400377 -0.03488825255636563 -0.2035901834719033
5995000.0 0.9981384440565354 -0.04641197361283564 0.008115019386770221 0.0060095226776628 -0.0005153039074560675 -0.006275964181255698 -0.12013643191491205 -0.11753483753659465
6994000.0 0.9913332674392327 -0.06118726565956988 0.008518436205556585 0.005796286941375726 0.0007634723453651555 -0.0017592237953232752 -0.15358448488620752 -0.027543196550115483
7993000.0 0.9942536411757502 -0.06763703305529085 0.002450207421802196 0.005417035828859306 -0.004044296420729551 -0.002028759691603256 -0.1664331980903516 0.03442909504572823
8992000.0 0.9942643131564606 -0.07348795392274707 -0.00276798811649006 0.006189535857709348 0.0021953793978646235 -0.0003529527437994534 -0.15914617299960815 0.0675924083105403
9991000.0 0.9927237268051493 -0.08245740945442787 0.0047123074902451064 0.007438230940538204 -0.003506069544168253 0.00024046896735299374 -0.15991060353497835 0.09661033346137964
10990000.0 0.9911008718919838 -0.09459975061779759 0.0019524502063088653 0.006182141996499633 -0.002417833699285518 -0.0014965759403048379 -0.14129775990779023 0.09638571513087647
11989000.0 0.9879490371602153 -0.10336973896747338 0.0034394375922909407 -0.0011828686083990468 -0.004335845292279423 0.001666931910252594 -0.12448480282981893 0.13742421551684808
12988000.0 0.9879408503520515 -0.11042477188867234 0.00583839461993652 -0.0037369708518526484 -0.001513402215326561 -0.005654965495592759 -0.11507579970646938 0.15793803041040036
13987000.0 0.9880219840242509 -0.11827984214473285 -0.0007822811385000168 -0.0018696047120105679 0.006341059766918259 -0.0003245872518361713 -0.09583197191084479 0.19296871115266082
14986000.0 0.9862146877006635 -0.12518577180128304 0.001265953910506067 -0.008009471902283846 -0.0018898539502595999 0.002558287148012941 -0.08044963373277846 0.19683125878991325
15985000.0 0.9879115838394967 -0.13411257590821637 -0.002770260213993262 -0.0010992337533327504 -0.0017639256356800415 0.0029009096753071714 -0.08422448230058835 0.21842260094376192
16984000.0 0.9828808874301495 -0.14856592763322884 -0.0008901802959637037 -0.005453306858644483 -0.001287913826416443 -0.004922508964362112 -0.07163509874959885 0.2233714624078582
17983000.0 0.9862256738735029 -0.1479501360687287 -0.0009259908605760049 -0.001616273614600792 -0.0021655187338043324 0.004288152262926595 -0.04886497081541118 0.21546735604162645
18982000.0 0.9814809013760853 -0.16272956045840925 -0.0008940602812572376 -0.003714883104248938 -0.0057540409526333075 0.0014360555189193672 -0.022462283083198267 0.2371843028535621
19981000.0 0.9812281589975272 -0.1677223118589872 -0.0039895626674856565 -0.0071640503490696325 -0.0013803907073733036 0.0009859366145434658 -0.021474627030712658 0.2326498372544064
20980000.0 0.9811052266098211 -0.17686852037570602 -0.0026687954910015067 -0.002562368918093182 0.0015906918093670235 0.002654095183939842 0.004610925507634004 0.24676015285046643
21979000.0 0.9778900738858436 -0.18610535185625213 -0.006458536790487251 -0.004180305817942349 -0.00010104367023437184 0.0014549784738075433 0.014095552671803964 0.24484865298064518
22978000.0 0.975895835618937 -0.19452871527262203 -0.00858078983453561 -0.0029378500720987047 0.00043105424498095045 -0.007674527689130642 0.021213747470994027 0.2443320346909854
23977000.0 0.977400369560348 -0.2031175804141416 -0.0028053090991208675 -0.00663226771924126 -0.00022082212044612692 -0.0036173728303627584 0.03172796622790185 0.25882915268966733
24976000.0 0.9744710798043058 -0.2106717976237692 -0.008307289055074553 0.002622968228541576 0.0004001620067932191 0.0034664063223539196 0.061262162953160906 0.2476242368934438
25975000.0 0.9730795149509417 -0.21852873754918412 -0.005679073852123754 -0.00283535517869001 -0.015293722417691476 0.024051441629777646 0.07046808676984238 0.25329007384743285
26974000.0 0.9681983229763438 -0.2292785998186384 -0.0026089287020558353 -0.0011114668594651188 -0.0031501367684748953 0.0016650176585257422 0.08307278498942545 0.2600416340730666
27973000.0 0.9695501209310006 -0.23629298429636528 -0.006067574417845117 0.0004336429685438188 0.0008112129144463893 -5.6502955348238224e-05 0.0912191404508731 0.263358021887798
28972000.0 0.9633129391361747 -0.248356612283274 -0.0022745813934339576 -0.006204816523592299 0.0005336285391773708 0.0026362446847133566 0.11580126428334556 0.2512779924772139
29971000.0 0.9626304531289753 -0.2554103060189695 0.001179485488266981 -0.0038525178230175137 -0.0013487992280319548 0.0018408360335620344 0.145839070008483 0.2689774620838348
30970000.0 0.9618025377317755 -0.2603686434533096 0.0036993655877118033 0.002408459326821548 0.004068787173773454 0.0014340213346169673 0.1665971111636653 0.25103002535936086
31969000.0 0.958298968416761 -0.2703231315876826 0.0030553240957766417 -0.0060357520884614406 0.0014695717000264494 -0.0006974267522990293 0.1433814091753446 0.24875583155353848
32968000.0 0.9556253942678526 -0.2810127681341387 0.009859390275624408 -0.006113236614848379 0.0007669604991318559 -0.002565288349270002 0.15807994688782723 0.2447462931934654
33967000.0 0.9548487353134288 -0.29034322517900363 0.010709973950993453 -0.010801025257309683 0.0027276160305612493 0.0002743665980058338 0.18031286642319788 0.24292266346977587
34966000.0 0.9516442901269793 -0.2999257833510115 0.010576100032641119 -0.009804132722457837 -0.0010857132777539018 0.0008742266186967076 0.18723811669935078 0.25712699348742113
35965000.0 0.9475810096820624 -0.30595197585883194 0.018809853629215036 -0.013916992348115522 0.002098788628542467 -0.0015908933963345348 0.19400803414788528 0.2532924027267162
36964000.0 0.9474660036049459 -0.3147426255956961 0.015161456383939717 -0.014242489834572243 0.0005640326739593154 -0.004720866101784959 0.2115656985163492 0.24384871421290955
37963000.0 0.9435597125049696 -0.32324546994124925 0.025016985461619498 -0.020632429993898416 0.001314958962758754 -0.0017831358347474323 0.22489059531550243 0.2379368658838704
38962000.0 0.9399371523144224 -0.3335163766729516 0.024865832098243258 -0.02373120790756289 0.0007806594903227816 -0.0026947126185411637 0.23406474517962453 0.23282507101254674
39961000.0 0.9370759979778301 -0.3397308192361325 0.02682258226620278 -0.03040322453643337 -0.0011596844735150315 0.0005327265944076419 0.25513007572779456 0.22709999669557424
40960000.0 0.9353033663818842 -0.3484948175521622 0.02424421194810898 -0.025022832173740243 -0.001045349007131267 -0.000583504722984891 0.27097349124290565 0.22793516770702787
41959000.0 0.9309438777121445 -0.35871825756054804 0.026211149744820073 -0.031503628990715 0.0003410982103457918 0.00368046237014589 0.26826142658952756 0.21241736759067395
42958000.0 0.9260394536029876 -0.3681336247555776 0.03163717355172061 -0.04301022626432358 0.002806961384907206 0.001403316548658862 0.2730044101498882 0.2085914582136853
43957000.0 0.9260465985214458 -0.37112403005041356 0.03029494365980282 -0.04703904833114051 -0.002593191447466501 0.0006129209854684318 0.27898201905360304 0.2147768411392976
44956000.0 0.9205303735210519 -0.3815025968590419 0.03133622695194557 -0.052443675308431234 0.0013041324049065366 -0.0019656769724887896 0.2973054089899569 0.19646278800147995
45955000.0 0.9170994081867667 -0.39202453620721556 0.03123688536195231 -0.059838460741936286 -0.000386415968466803 -0.0021253090340724247 0.29872477154582533 0.18802604045954502
46954000.0 0.9138521894218534 -0.4001074918029966 0.03571179314032004 -0.0662696006247434 0.0003202994039801764 -8.115109521475199e-05 0.3230204042885934 0.18387404037066693
47953000.0 0.9090240870591993 -0.40962210455881065 0.033251107011074685 -0.07547971845991518 -0.0017588889959621115 0.0006207696957845115 0.3188414239103078 0.1648923296210209
48952000.0 0.9053484501573016 -0.4163374436364953 0.03203361873565463 -0.07968672958767174 3.56836495002465e-05 0.0008163520231201938 0.3300299673319953 0.16497946509745418
49951000.0 0.9014117559743255 -0.42597161066353095 0.035963304327871426 -0.08861592185826939 -0.0012895705627816658 -4.149210116095698e-06 0.34430965654830853 0.15050963102933254
50950000.0 0.8989454859470257 -0.433779209950714 0.038202719616049395 -0.09645680499600592 0.0008232390569624881 0.001989240792264102 0.3513274682505342 0.14121218425713097
51949000.0 0.8924269245483382 -0.4422262033554712 0.03409839218366805 -0.10303454769565773 0.0011094254817798255 0.00016279834632195193 0.3577508105152002 0.14035509816432504
52948000.0 0.8919889790045634 -0.44874168839812134 0.03725376160406454 -0.11473103518925264 -0.0046906026562317195 0.002177113983224565 0.3676685160437419 0.14174459848683024
53947000.0 0.8867457578782688 -0.4561145743504525 0.03749019895137949 -0.11999898417247533 0.0010134763765798414 -0.001215238256043067 0.36868974591987447 0.13471613265878143
54946000.0 0.8802356089886288 -0.46737644983719245 0.04054870198542808 -0.1339370525976548 0.0002977832643022479 -0.0042855366711837045 0.3866202557923376 0.12547511666090397
55945000.0 0.8784410745466623 -0.4747322014581538 0.042706087375938284 -0.14110210727926328 -0.00040987765173551577 -0.0012251635420697023 0.38405968985115413 0.09891833938115485
56944000.0 0.8740783029422028 -0.48237896478461706 0.04289187758079132 -0.1555894568084689 7.908958187093593e-05 -0.0006817169612692063 0.392499363425091 0.1045913341875813
57943000.0 0.8680220462437809 -0.49295343410890197 0.04113847686923985 -0.164178309203375 -0.0032703451151736775 0.0004155519045362031 0.3935801529788749 0.09348966104851093
58942000.0 0.8609625284822396 -0.49725760790104423 0.04493609420301383 -0.1721369844083132 -0.005043591578957542 -0.003761271389353415 0.4165368728079995 0.08921970881129596
59941000.0 0.8601327062274946 -0.5048662738535488 0.048494549867977355 -0.18478488205725127 -0.0003385901576547119 -0.0009436576532087034 0.4093733833026647 0.08075741297082017
60940000.0 0.8510048749454829 -0.5140194917938646 0.04319216492689499 -0.18485894604126657 0.00023480362599741404 -0.00036006992639689656 0.40666202495818865 0.0816653381534392
61939000.0 0.8496631005154441 -0.5200527831773255 0.046275015823148705 -0.19205420374812765 0.0007856686044362291 -0.0010385085036937484 0.4235435570962426 0.06240254146484669
62938000.0 0.8431866167145489 -0.5310221697956428 0.05079443165916692 -0.2120155560251941 0.002034664457272995 0.000819384140004545 0.43073008517268696 0.054514492724136124
63937000.0 0.837363284310383 -0.5398093853749937 0.051014810425848205 -0.2314551431930273 0.00031458102085740573 -0.0016321255051880395 0.434634518811961 0.03990885240576474
64936000.0 0.831051903815567 -0.5462206912142028 0.04987696583225092 -0.24674218940369413 0.0003054545638053952 0.0002601015221763528 0.42788360083571597 0.03475740438351613
65935000.0 0.8270957160733532 -0.5553499826173645 0.04987469678345607 -0.2555236005621561 0.0018157169304957505 0.0013664792956027878 0.44128819164306615 0.027577411522429027
66934000.0 0.8228395412855838 -0.5604633226366647 0.049629512168808156 -0.2730280584253679 -0.002015519880649196 -0.005972266743474194 0.43144690939505553 0.008695283902479402
67933000.0 0.8188854332020401 -0.5675161729805654 0.05183170308014871 -0.2852494023919617 -0.0008029716314787062 -0.003125517439519483 0.44088007900171705 0.005954993047831755
68932000.0 0.8007753096000553 -0.5682319870580462 0.043268057247237285 -0.29284252185550136 -0.0014073989300189352 0.0008227957857606931 0.45042131157000687 -0.008927188163963118
69931000.0 0.806786882899688 -0.5844934246807273 0.049727873441911014 -0.31301882360068267 -0.001838697301723877 0.004674724053581487 0.4471409248514842 -0.01880097923538414
70930000.0 0.8009352281737449 -0.591114916897105 0.04716217304384702 -0.32506776563544754 0.0003796966864494325 -0.00035981303856214177 0.4441043936696956 -0.03640584312335028
71929000.0 0.795708798905268 -0.5991179975344888 0.04304810591180138 -0.3434179193344697 0.0028701388503372827 -0.002599153661768496 0.4459196337394931 -0.036298156337840184
72928000.0 0.7882552323363924 -0.6079282588153804 0.034228678345934446 -0.3617085156612171 -0.0010132279071735828 -0.0028414466634664537 0.4657729332772903 -0.0567628581189222
73927000.0 0.7836369154810799 -0.6162959673373652 0.027332039313740304 -0.3785494616523936 -0.002191148637594708 0.004414055836627676 0.4581954612385053 -0.06183391807894292
74926000.0 0.7766112740097099 -0.626780839230919 0.018957536701761406 -0.39725634022868833 0.0027034791149978276 -0.0004741736242712836 0.45699335842977 -0.0642302093638167
75925000.0 0.7716147334113318 -0.6304963592286315 0.012129618789248748 -0.4144334607943566 -0.004295384736688726 0.003964028858828039 0.4761340645138899 -0.07389463580993497
76924000.0 0.7657499013715534 -0.6369906168401982 -0.003507815096933143 -0.44256930576492276 -0.00011202292642228289 -0.00037123326813984193 0.46662642913212565 -0.08484488163938508
77923000.0 0.756470511494032 -0.6445423724852833 -0.01944837415371747 -0.46197832059500044 0.0003252043699536812 -0.00033886372940760307 0.46242392755335154 -0.0891116263521921
78922000.0 0.7526035480738889 -0.6562041693913515 -0.03568918497144861 -0.48904151074047253 0.0028046413947990416 0.0015302847641794285 0.4627253558925707 -0.11005039912282807
79921000.0 0.7435991777001005 -0.6569710070990457 -0.05204362773937118 -0.5120543551270859 -0.003996680398052128 0.003510486871635597 0.4645105567316177 -0.11577539343868598
80920000.0 0.7386896574689665 -0.6697658970822424 -0.0663855697087391 -0.5422877179020803 0.0006660432294252496 -0.0007307032744868359 0.4631778218072194 -0.13287096918032817
81919000.0 0.7338740408941347 -0.6743160847664202 -0.08821424874187302 -0.5707460926225486 0.0020980090166134334 -0.0018097151664029161 0.4629271240952559 -0.13620982286492994
82918000.0 0.7232820417306016 -0.683099733977413 -0.10175318820844449 -0.5986819654101974 0.002658665369504909 0.003164899900075092 0.46960159165008286 -0.15194270977150826
83917000.0 0.7148550907860347 -0.6919851895028463 -0.1231538064932956 -0.6281827668308101 0.0005364434948362016 -0.005606726682876953 0.47396519222230343 -0.16348776312518
84916000.0 0.7115276595355379 -0.69802288137344 -0.1365839249773489 -0.6642741041631699 0.0013646038911565494 0.0011145096699398372 0.46944174782801096 -0.16578954941787535
85915000.0 0.7042221034610264 -0.7033160460823621 -0.15467359904714886 -0.6919437089834706 -0.004472654951913848 -0.006598138495888104 0.4672838088985365 -0.17635924899555475
86914000.0 0.6951431369566798 -0.7145296633611699 -0.1737923129562215 -0.727782198554847 0.004087058854654386 -0.0036457594260580588 0.4553812926837249 -0.17525668512698642
87913000.0 0.6897345174762489 -0.7192755920756703 -0.19288232651021167 -0.7546791413759943 -0.0029229428020094476 -0.0006341940792235141 0.4516903141247416 -0.18342260545225128
88912000.0 0.6807331074132211 -0.7283933370044922 -0.21030867156067698 -0.7892191796468097 0.0017597778662718094 -0.0036751654284371796 0.46334904222259615 -0.20931116077362633
89911000.0 0.674299613183602 -0.7355450393534341 -0.22420638415886715 -0.8242730685934161 0.001619809793478699 -7.141511968410153e-05 0.4742191470438615 -0.2092358064648412
90910000.0 0.6686306545846077 -0.7407076218959536 -0.23624158240050272 -0.8623145390012316 -0.0056474014382365415 0.0002785593471288236 0.46848460192200403 -0.21739770177713802
91909000.0 0.6576968430685973 -0.7463162614646695 -0.2609759407067784 -0.8903940801814735 -0.0004543289131576574 -0.0022215377162382328 0.4619455512799103 -0.22191570022353027
92908000.0 0.6511019579674092 -0.7544133530837098 -0.27523754778756543 -0.9213854550935171 -0.002476991161036216 -0.0029837675742839724 0.4526154536342031 -0.2368443271782218
93907000.0 0.6442088444286893 -0.7618557183751086 -0.2914971232421876 -0.9520695442931304 0.003012635683428367 0.001230040753129382 0.45678874807474684 -0.25416569354125157
94906000.0 0.6324470677871273 -0.7675538497854497 -0.3074214495663433 -0.9839248894415307 0.00029019478813026496 -0.0010220299594762528 0.4604332803945345 -0.25574393043653637
95905000.0 0.6242661536175439 -0.7753238647323819 -0.33440654197597464 -1.021401314005749 0.0023099429913161734 -0.003127274698610483 0.45846363496144216 -0.27099071283706666
96904000.0 0.617991095789535 -0.7829229157183036 -0.3457674948473107 -1.0559984135556335 0.0032165514397504012 -0.004604015039662622 0.45207073929239233 -0.2711625939849187
97903000.0 0.6080666528307938 -0.7883408395238414 -0.3741663897367258 -1.0856579681982648 0.001725096709797476 0.0005005019507203969 0.4389154493500027 -0.2870112253238281
98902000.0 0.6021564565313511 -0.7956412446716216 -0.389342934556964 -1.122090562348054 0.0023645891079684465 -0.004823398189707852 0.4412828803116238 -0.2925931522402345
99901000.0 0.5943974833369499 -0.801056741961954 -0.41700459687971014 -1.1564395601181197 0.0018593511111649503 -0.0027206060552769605 0.45823416178519905 -0.3097675162472915
100900000.0 0.5851281999616402 -0.8037136185393718 -0.45141226043389276 -1.1810342899420676 -0.00032131533063886055 0.0017362480237202403 0.4628010752133894 -0.3100878223202754
101899000.0 0.5743583696462273 -0.8131267020196346 -0.47894487779613243 -1.2172137199595838 -0.0010070368460976206 0.0006390643645852563 0.44838529336330857 -0.3336194510898603
102898000.0 0.5647900737278995 -0.817399471043647 -0.513183719148112 -1.25328419677953 0.0012874723613445192 -0.00198476930427039 0.45487960531672766 -0.3386624164635014
103897000.0 0.556495097839505 -0.825482902336929 -0.553145678295906 -1.2859789205549064 0.0007058218582509669 -0.0005600606207297136 0.45273965729739507 -0.33414862167939174
104896000.0 0.549806035190041 -0.8357256591912249 -0.594859058826922 -1.317727851916149 0.0013812950227446844 0.0045861517712174294 0.430634528168253 -0.3371827498542981
105895000.0 0.5371514160836174 -0.835776913852234 -0.6372400061447244 -1.356312712707756 0.00032883045594985535 0.001158153561191611 0.42277989950446626 -0.3593091678429503
106894000.0 0.5291714472285799 -0.8432350542565283 -0.695482574943524 -1.390499339133581 0.0008910718804666224 0.0010408750115732809 0.4250862851026059 -0.3715623667241693
107893000.0 0.5193830946717027 -0.8493508542470802 -0.74530783761669 -1.429499100694762 -0.0011400585367596697 0.0027937807281500104 0.4365774210418674 -0.3696035240070527
108892000.0 0.5092697117818843 -0.8546509559923259 -0.8032474733264864 -1.4617612738264123 -0.0004742474959199133 0.0010560199942021421 0.4281126401337762 -0.3674790465899898
109891000.0 0.49673312494683153 -0.8618334048611457 -0.8615786867137027 -1.4930674551073342 -0.0009381476746658002 0.0009699285958771149 0.4301368399406129 -0.38142586144086177
110890000.0 0.47701128928863895 -0.8653204054245979 -0.9315476728486292 -1.4874933808962996 -0.0012632661878927622 -0.001432284975948183 0.42012473667747446 -0.3915977495998703
111889000.0 0.47687589585511414 -0.8678717779749393 -0.9866387226301561 -1.5572347396608948 -0.0012646179666136138 0.0006358364907852087 0.41753306843210247 -0.40487797770522566
