! Created with skrf 1.9.0 (http://scikit-rf.org).
# Hz S RI R 50.0 
!freq ReS11 ImS11 ReS21 ImS21 ReS12 ImS12 ReS22 ImS22
1000000.0 0.9814545789268139 0.004560895728579441 -0.0031597616433938127 -0.06269525821828821 -0.02735768682777614 0.01080488935451557 0.3269298968454081 0.32152317339291553
1999000.0 0.9973855724969609 -0.01525525224011104 0.006885212632012983 -0.016730187995658296 -0.004805432394974258 -0.0025827232961802096 0.2586716131746528 -0.05630716012535863
2998000.0 0.9971451790611588 -0.01773675796896309 0.005239225753970971 -0.02035133906064727 -0.00391912407726312 -0.001506139131128494 0.18411519249511768 -0.128342065455897
3997000.0 0.9975473412227651 -0.029813164066100857 0.009324053993935646 -0.0076791576841586445 -0.003228095537440052 -0.0011754326255722287 0.09196375303518066 -0.21740014340345845
4996000.0 0.9948312543225661 -0.04276362378704147 0.011143825369526572 -0.00016490556082791188 0.005293273988740353 -0.002610079693002647 -0.04679646574565273 -0.17541886808766027
5995000.0 0.996726697788768 -0.0494284221413945 0.012696804967053634 0.003044566399046369 0.0024866075697544078 -0.0012165737405270903 -0.12759003399123703 -0.10563744769311202
6994000.0 0.9944856843739579 -0.05794455994371203 0.005795756747548817 0.0038843170694785414 -0.001059121831582402 -0.00726454248368509 -0.1475321403161624 -0.028061522900444454
7993000.0 0.9939605853883735 -0.06673955447867469 0.005392839101708807 0.006648912078654713 -0.00021741373253016214 -0.0022906751959855206 -0.16022187432414994 0.030470692296964728
8992000.0 0.9936640667285175 -0.07418746148935484 0.003348239991407875 0.008001948761922747 0.004369988310920444 -0.004488965708158025 -0.1539204507248596 0.07114585381556732
9991000.0 0.9899146044763963 -0.08325515772431066 -0.000518818654317732 0.0030937186362104646 0.0026727970342905207 0.003907314214353357 -0.1472868328672893 0.08915931795142441
10990000.0 0.9931689650037983 -0.09192363255596521 -0.0017481029194774949 5.2031346156897224e-05 -0.003992762353236175 0.0030274187203424502 -0.15175158181134626 0.11287472849913875
11989000.0 0.9873053350823858 -0.10118722994458298 0.004639791562333417 0.0026672576307135445 -0.0013862704210521675 -0.003950757231078093 -0.13155425790287867 0.1333065295198359
12988000.0 0.9879955196242102 -0.10952562992508613 0.0026469714864317618 -0.00238499982526566 -0.000683988137950991 0.0029168732169325313 -0.1373148814698858 0.16110310976486836
13987000.0 0.9883914296729714 -0.11691935145654662 -2.0838641772249617e-05 -0.004283952777899203 -0.0018326903912375299 0.002080793619359121 -0.10068053541880469 0.1849847205045401
14986000.0 0.9868797168633526 -0.12508480540700784 -0.001690010502581706 -0.008445543844351502 -0.0016607284929362554 0.0019175333708829356 -0.09499845682881067 0.2103633709872149
15985000.0 0.9892625194668913 -0.1324849546590812 0.000891130066729287 -0.0015340010842287747 -0.001491679951665174 0.004260628820585076 -0.07500664735719133 0.2124421652408814
16984000.0 0.9833693957531885 -0.1472769553223076 -0.00018576338166822898 -0.004495331077469176 -0.00011382181856445722 -0.0017195778326611678 -0.06383844583470165 0.221264101134933
17983000.0 0.9844391207764465 -0.14862630027319254 -0.002301621640041651 -0.004612965376663039 -0.004809240447909388 0.002650595338917714 -0.06153311248688364 0.22789315039657623
18982000.0 0.9800158624901734 -0.16045066465939475 0.0017906039917552617 -0.005984976780674268 -0.00039106526190990794 0.00046980686606448724 -0.021640922629801652 0.23408073886266453
19981000.0 0.981849607058626 -0.16561911731083986 -0.004359596414881443 -0.005822762634450494 -0.0007386648928918622 -9.380014053301614e-05 -0.029126865313765467 0.23512511890694232
20980000.0 0.9805345932289248 -0.1768212494056834 -0.004560000844023377 -0.0006755992577039173 -0.000792352536555309 -0.0023506559071438692 -0.0013766270861455562 0.24971784430658955
21979000.0 0.9793472671302508 -0.1849509979900334 -0.002324855707493048 -0.006440546790625544 -0.0001801605941795469 0.004328207464546837 0.01045770040713364 0.24670683288055612
22978000.0 0.9769440168960348 -0.19196669555951645 -0.009650980779097635 -0.0017469952613524756 0.0007630478836666913 0.0022032611393014183 0.021430719011835263 0.25267121742075366
23977000.0 0.9774668659135346 -0.20137236775231127 -0.004348458706536902 -0.0051999687948432365 0.0005746801169077284 0.0006514060214896079 0.0340869885452964 0.24677475684640607
24976000.0 0.9727722694820695 -0.21147964877903466 -0.0033763503317548907 -0.001968335539220546 -0.0008427439955060813 0.000864526475874768 0.06805966471709907 0.26062657828948693
25975000.0 0.9739320512958541 -0.22367415646124586 -0.004270651166062338 0.00045149991115324975 0.024264147756973515 0.01276392798662532 0.06934833433716131 0.25548076869827463
26974000.0 0.9686146154419228 -0.22869547583259245 -0.0020260096709930997 0.00046006510349996246 -0.0010078633463437765 -0.0011772875859774982 0.06881616418091543 0.2650647662366036
27973000.0 0.9675236412502722 -0.2351704237841453 0.0005301089804432084 -0.006689247028018435 -0.0007326344078122335 -0.0003661592085945921 0.0986034311382727 0.2665908938762911
28972000.0 0.9643576915688898 -0.24462820694662724 -0.00036025974585908265 2.4013377020355834e-06 -0.0005634316074000472 -0.00021131839906784975 0.10773672444850506 0.26771348106904685
29971000.0 0.9633068219437388 -0.2551186928738347 0.00026920926980137776 -0.0042404909830388755 1.842802701240804e-05 -0.0005987562431989782 0.14126496832160013 0.25793750380682784
30970000.0 0.9616636815531103 -0.2602595565079564 0.0011686650072838447 -0.00024377226400731344 0.00017644043929093383 -0.0030244164907242163 0.16358393652982609 0.25059579543640753
31969000.0 0.9593452571552984 -0.2685395593644155 0.004623183172989368 -0.0078081534459427705 0.00011920315614680557 -0.0025459632733453035 0.13729650898269816 0.24919285517479
32968000.0 0.95772941566885 -0.27782034602167527 0.008159307947491465 -0.005200152549512621 0.0009327035668661209 -0.0009252138116479972 0.16243162623369153 0.24260607244065086
33967000.0 0.9542916995570804 -0.2877247334058355 0.009452167592600869 -0.012037956127806164 0.0015867178058318655 -0.0009208850871292849 0.1808749833241598 0.24643326350248437
34966000.0 0.9518074352752935 -0.29450631910990965 0.014865235832124025 -0.010578816318252998 0.0005879870061896822 0.0005082123516179969 0.1942923151403982 0.2558809383705324
35965000.0 0.9488820191365899 -0.3034543689243383 0.017125757149996552 -0.014444956029332243 0.0025751690445803077 0.0015117633068821798 0.20797660782822258 0.24978076502658428
36964000.0 0.945229336970532 -0.3147102162374913 0.020226418538712487 -0.014746683429057123 -0.0022840320986074227 -0.0010657289513600417 0.21015558333248 0.24699002081498161
37963000.0 0.9450756888193715 -0.32113299915703186 0.023370015442292717 -0.021842824576436996 -0.002731431811289611 0.0016868169483601819 0.21250455684944813 0.2402146455302417
38962000.0 0.93987951284826 -0.33086357613541767 0.022894639960161462 -0.025217475519658545 -0.0036887337002121236 -0.0036345741020674454 0.2335823398620044 0.23092519914593787
39961000.0 0.9369994471409159 -0.3390610506422378 0.02446978379964882 -0.025735833938274548 -0.0010203410874399478 0.0027822710212065723 0.2428405428182463 0.22816156198566728
40960000.0 0.9329431259091243 -0.34724897209194394 0.02443869598062646 -0.024584834957886374 0.002431570646356935 -0.000463991849488022 0.2592069349808251 0.21583115834106603
41959000.0 0.9318680181927432 -0.35666549396672664 0.029745653709541246 -0.0347928164258379 -0.0012108701076871296 -0.0011054338176524903 0.25832959213401946 0.21578881614409756
42958000.0 0.9266280687240829 -0.36534623058911714 0.03555962682069582 -0.04242660710536314 -0.001356176112610198 -0.00020858687539126615 0.28518440862806116 0.20014096467355963
43957000.0 0.9234811705997119 -0.37269268953493806 0.03395847712759964 -0.04503494107095392 -0.0017182280061222629 -0.00026435903895481277 0.2758333613815028 0.20550455987393879
44956000.0 0.9202711138974226 -0.3819838467396192 0.03513250164543022 -0.0520772070947919 0.0006153690926351635 -0.002789257818767992 0.2974872941021544 0.20226771373795246
45955000.0 0.9151752500497163 -0.39174159546496873 0.03713182061142678 -0.05653091302580227 0.00045578073726146035 0.00034016480255076305 0.3001658771365212 0.18942214922195036
46954000.0 0.9141659161165244 -0.3996208445374636 0.03455383921615558 -0.06457426297120293 0.0011514283858901626 0.0016203803803324622 0.32547584787774947 0.1863077746989108
47953000.0 0.9088993008047511 -0.40624386931082973 0.03508753432752644 -0.07360173098354857 0.000718988966565935 0.0014521759550000987 0.3259314427770573 0.17165106592813745
48952000.0 0.9057009556176276 -0.4158652096897694 0.04045390583093689 -0.0812770181127586 0.0007789949722772911 -0.0007740997606560166 0.32643144339014796 0.16133223183922252
49951000.0 0.9010368640066015 -0.422535402286186 0.03955265847367202 -0.08811527096590613 -0.0021859530242780215 -0.0028690971347359036 0.34778390114594676 0.15370823611214313
50950000.0 0.8979261797570074 -0.43209854791122176 0.03849887662299851 -0.09562913402440251 -0.0004402090641839596 0.0028578288586082762 0.33896058541721086 0.1562128709409749
51949000.0 0.8927025300229811 -0.44229336452242696 0.03924285459208883 -0.10613327146010422 -0.0004028066185833962 -0.00021996709593348363 0.35673446598756325 0.1410528580092161
52948000.0 0.8921428580800532 -0.4475319796603971 0.040448213884457115 -0.11309152000533555 0.0016762578572741963 0.001976228648620022 0.3717358085081507 0.139499751719462
53947000.0 0.8851473130314785 -0.45856910975899123 0.04313552497653944 -0.12082314481194546 9.552353829608586e-05 0.0004181945892002863 0.3649277556922067 0.12733501908920863
54946000.0 0.8807488502731631 -0.4659016720967008 0.04602503761360065 -0.12987879577389316 -0.002195695714517918 -0.0009053153345170131 0.38229842114708373 0.12180741093401104
55945000.0 0.8780114443424613 -0.47393535900971245 0.045763933696733296 -0.14317365401501422 -0.0028766126422872886 -0.00035101281956211077 0.3768012170847242 0.10258362934362651
56944000.0 0.873522307793476 -0.48165993808511814 0.0470806414554741 -0.1524419134470277 0.0007472876858710911 0.00012071560305809454 0.390883980609751 0.09950584622968543
57943000.0 0.8679962111253431 -0.4915489126435425 0.0474706907725315 -0.16444518640914574 -0.0008201859587610985 -0.002189107240029857 0.3939599457324977 0.09588903472184646
58942000.0 0.863111527198054 -0.49559090411229595 0.05098212534810694 -0.1746149832849401 -0.0001726634443617509 0.0015872804189822213 0.4059752651760661 0.09459777113792299
59941000.0 0.8586377896280717 -0.5048464405288199 0.05252262572970726 -0.18594142403320754 0.0008852987718838051 0.0007416546372517512 0.41281977731202735 0.09347873934397122
60940000.0 0.852897744776263 -0.5121524969348137 0.04833983715326003 -0.18990239720192134 0.0008935897378736387 0.000643225792196583 0.3972950572550837 0.08096799203493804
61939000.0 0.848546318471642 -0.5206235947632636 0.05269228521997396 -0.19533381087834464 0.0005589684004283711 -0.0008015898495636956 0.4128476346948946 0.06607985004917061
62938000.0 0.8424549867504465 -0.5309903956610751 0.05405250383260487 -0.21468995878518918 0.00011540957941532791 0.0008765569768726828 0.4276956070893593 0.043723826701975846
63937000.0 0.8362421117570127 -0.5388055422071788 0.05802009713188391 -0.235504712469659 -0.0002824702536670624 -0.0006685941376749167 0.43276021440157386 0.04353469789850202
64936000.0 0.8320029361906989 -0.5424197173361749 0.05563881743989997 -0.25024494670208525 0.0018039263712639182 -0.00012367016317443885 0.4277275090622211 0.03812955898404192
65935000.0 0.8269159234199944 -0.5549046528498907 0.052565385169470714 -0.2619159026521207 0.0004321164298168688 0.0017089003938446279 0.4346575945820033 0.01583564038606612
66934000.0 0.8233732292304201 -0.5602745842528197 0.05704786076470538 -0.2747091326413827 -0.0021100444161854253 0.0025850956546179696 0.42844506395164045 0.013036322297132011
67933000.0 0.8195839106977421 -0.56815174767169 0.05704442387138648 -0.28997170871012845 0.003501379440220065 0.0011878631910149518 0.4382622964133808 0.0016200498232665282
68932000.0 0.803756182033852 -0.5637983078259151 0.05035818341397962 -0.29648796454873844 -0.0029912073675188162 -0.0007554489521140083 0.43976756593883254 -0.025335942055597714
69931000.0 0.8033737111338362 -0.5867878526043698 0.05252742862476427 -0.3208630703247575 -0.00010683312559136013 0.0007817654223240311 0.4399580319982738 -0.02404121563265657
70930000.0 0.8016838014040252 -0.5908614960634951 0.048574614708639954 -0.3332431405891458 -0.0034729943074970604 0.00015709804587268276 0.44571480513341033 -0.03273250087445265
71929000.0 0.7951656484675459 -0.5993628109369042 0.04840448483728711 -0.3524519773288935 0.002231870723330351 -0.0021565201057121767 0.44575179237953594 -0.04401030244887098
72928000.0 0.7892770013240045 -0.6095033667913472 0.03534108109735312 -0.36725105879962716 0.0012170183060690094 -0.0005310113652351703 0.46128307611064234 -0.05225595515645455
73927000.0 0.7826527572102837 -0.6148830375804335 0.030434379312510803 -0.39062344063066046 0.0007370129588334807 -0.00555046657345421 0.4475750731262969 -0.06418475997836201
74926000.0 0.7781380222340682 -0.6246151751619974 0.02403508400505066 -0.40637287826638996 0.0009216302528688937 0.0037119283315814196 0.4556392041066901 -0.06005718754871868
75925000.0 0.7718831870723171 -0.6303731982287021 0.016626476476698192 -0.42751649257521024 -0.00041289307955836717 -0.00023638380796663693 0.46434363912726906 -0.07721855115219728
76924000.0 0.7663059559097722 -0.6360303229526169 0.0021560401607292447 -0.45399245874079813 -0.0009514925782582132 -0.002326272598389866 0.460882128797814 -0.09202277281083834
77923000.0 0.7597236788856719 -0.6447707229220481 -0.012129624538494166 -0.4746848558174625 0.0020175996642498475 -0.0004932178123992506 0.457122762905022 -0.09581419476820256
78922000.0 0.7528549272427623 -0.6560394620343314 -0.024045892486447687 -0.5033594105902662 0.0010669144616567918 0.002222454511302222 0.45440700925062477 -0.10654872207540825
79921000.0 0.7426668768538596 -0.6582570829646532 -0.048492451377100905 -0.5267423413336443 -0.002083552306771376 0.0032133514662183583 0.4525098657545021 -0.11879514873866898
80920000.0 0.7385074602918204 -0.6682256197732362 -0.05708050978164354 -0.5565812744137802 0.0038328617398888996 -0.0033789842233126564 0.46006918509691835 -0.12684709245488224
81919000.0 0.7343982457053259 -0.674506377477589 -0.07400098760709234 -0.5876172998382322 -0.0012581908611762637 0.0016810499426705122 0.46568577539215855 -0.13447119811470432
82918000.0 0.7239955411207907 -0.6820692080824449 -0.08860659944045397 -0.6144599841947391 -0.0006091754161288494 -0.0037624231957168568 0.4560242869062099 -0.14697550765240705
83917000.0 0.7152120001083667 -0.6896160629263138 -0.10914730612770006 -0.6470734115129952 0.0024305655350483667 0.00023677751548717728 0.4626417438172841 -0.15180632690274287
84916000.0 0.7115663733636143 -0.6964068983167481 -0.12448483874100179 -0.6809344845083313 0.000560846253282951 -0.0007309339708882575 0.45882975691221406 -0.16783284107670512
85915000.0 0.7041324488124667 -0.702890728502204 -0.1459197449306121 -0.7113499259797424 -0.0008982591321278184 0.002324480697766703 0.46118909876772274 -0.17964555595342654
86914000.0 0.6960583244116255 -0.715143167984062 -0.16562202652568936 -0.7481875528679449 0.0011182211826345216 0.0016567774426299545 0.45892681880287084 -0.17449233930312516
87913000.0 0.6890047575519317 -0.7193224904003792 -0.18050288527702815 -0.7749720730211304 0.001138669444246243 9.358111288583894e-05 0.45090409401432646 -0.1922119797154158
88912000.0 0.6836976085221219 -0.7252390912665501 -0.19722754022984246 -0.8105212979711798 0.0014219429082521961 0.0007832782641483718 0.46310629660105573 -0.21001957277467018
89911000.0 0.6738335132363998 -0.7353903013838914 -0.21256978174408506 -0.8464156593460875 0.002051616078751647 0.004956602550357222 0.453741636344611 -0.2125507383739581
90910000.0 0.6678215834431711 -0.7394501033521164 -0.22884977433739093 -0.8788893416413271 0.0007079144000252981 -0.001139445531267652 0.4588284526880191 -0.21740335606866376
91909000.0 0.6592946640211994 -0.7446213431175429 -0.2481984836034198 -0.91079803506703 -0.00041899729077995903 0.0005729667459670365 0.4615503917613745 -0.23458136921316167
92908000.0 0.6509994385484228 -0.7525569784532187 -0.2653402269155802 -0.9487262840779676 -0.0009622282222914772 0.0019200227356952792 0.45899456276432665 -0.23807050159728857
93907000.0 0.644835095445568 -0.7580155607398208 -0.28515959680728187 -0.9744749075726417 0.0018232041431957351 0.0015594695170903167 0.46326885264817813 -0.2552132477008994
94906000.0 0.6327574232588882 -0.7658215032608917 -0.30063408771128086 -1.0121674510825796 -0.0011307884925181458 0.0017103224122748141 0.4541752300453765 -0.25341272306107543
95905000.0 0.6251514941237121 -0.7728975976019657 -0.3285558457293091 -1.045865560211779 -0.0018274656616461158 -0.0007704583557885031 0.4590033609472673 -0.27196122294016967
96904000.0 0.6155016652952645 -0.7813429319164257 -0.345320131730127 -1.0854700370304506 7.32711748407044e-05 -0.0005635213203308841 0.4403043407162536 -0.27874559613099775
97903000.0 0.607795560385876 -0.7874727278453642 -0.3701663880930666 -1.115306616866471 -0.000804133426864578 -0.0006164296708327968 0.4464261217290251 -0.2976970058481973
98902000.0 0.6038576920318139 -0.7947348966303236 -0.38644288400393434 -1.1548627433525258 2.6120295468260136e-05 -0.0025575432584192294 0.4397604778397269 -0.29499833803629316
99901000.0 0.5933013237128627 -0.799783048875484 -0.41454378808741466 -1.190018091787741 0.0008282750696478021 0.001376467978039783 0.4460229275962067 -0.3167145576737971
100900000.0 0.5847952676243601 -0.8027569487641656 -0.45083759136634605 -1.218135276188565 0.0004363019396751136 -0.0010600703737322036 0.4588796247156077 -0.3176611262223677
101899000.0 0.5759614821014446 -0.8095647526297742 -0.47593687435517484 -1.256510688179781 -0.0009063812157181542 -0.00414666865094057 0.4462365085252105 -0.32019691989341453
102898000.0 0.5636899636362882 -0.8154360027382407 -0.5140452004238729 -1.2900904885108566 -0.002562465241912447 0.0023724279822347795 0.45067351302814496 -0.3362852053538343
103897000.0 0.5565204027243812 -0.8246272098321111 -0.5530890691558951 -1.3258438320862926 -0.0009914163410250575 -0.00047589343805571325 0.44949021630221175 -0.3258924540927434
104896000.0 0.5478436842628289 -0.8339940348559634 -0.6008552557551928 -1.3585903925419764 0.0011765392021322151 -0.00024682105286034705 0.4298554286886179 -0.33437617026325983
105895000.0 0.5385409695131053 -0.8361245793043549 -0.6478027843938221 -1.4038186598687208 0.0009690229812327081 -0.00246521034539588 0.42088595254245276 -0.3733156426637279
106894000.0 0.5284929932021238 -0.8429540166540876 -0.7022084225111894 -1.4373808651166005 -0.0029210396691000265 -0.0015197413235297666 0.4296920916686904 -0.3667208282418464
107893000.0 0.5200059628999538 -0.8504132605583544 -0.7574045237819567 -1.4786437450094687 -0.002033017990686841 0.0010004397664745434 0.41996391808901196 -0.37374389351175447
108892000.0 0.510205046128921 -0.8510239705141011 -0.8145744230762572 -1.514498776851927 -0.0004970268751777317 -0.0005975366102056505 0.423163508893053 -0.3831948500362695
109891000.0 0.4985806769685744 -0.860454158499195 -0.8766273101953763 -1.551890375226169 -0.0008067282000723864 -0.0002837866942229105 0.4368049873424939 -0.3833226303321051
110890000.0 0.48593067415184665 -0.8602358992871267 -0.9320319093582055 -1.5573164996679698 0.0015978511522419371 -0.0007236484871151973 0.4290064752334799 -0.3785749749253715
111889000.0 0.47761285454706665 -0.8656780378156781 -0.9990292113099694 -1.6176019483944066 -0.001264113124134835 -0.002968347333010419 0.4244472629763398 -0.40193079806963516
