! Created with skrf 1.9.0 (http://scikit-rf.org).
# Hz S RI R 50.0 
!freq ReS11 ImS11 ReS21 ImS21 ReS12 ImS12 ReS22 ImS22
1000000.0 0.9863705421076985 0.013166602869575285 -0.0036062182942172617 -0.03142524881079786 -0.0025576356177761973 0.018208284075957915 0.35977771335676084 0.3352234212533194
1999000.0 0.9953874409174355 -0.00877581590730377 0.0010715855091181891 -0.030346127287122618 -0.006519365352539 -0.006730476242749397 0.2741063542191327 -0.05783369505448655
2998000.0 0.9981747432985933 -0.02406699467314689 0.010061940070169337 -0.013630948139961529 0.000331515104828004 -0.0034394825104878605 0.20604820233600382 -0.12007349820881048
3997000.0 0.9958218571238348 -0.031340638276795854 0.012417332234470401 -0.004764943720851521 -0.008238413500173864 -0.005326731054835885 0.08968475460110842 -0.2355313675040948
4996000.0 0.99366543384799 -0.03893107998676219 0.013187338984875573 0.0002756857923467105 -0.00035642537339515844 -0.0077456451234951445 -0.04434867839645005 -0.19829920755395936
5995000.0 0.9927379862616436 -0.05019480831258035 0.009538703588356016 0.0010172394711178204 0.000917026509378662 -0.0016828463266242663 -0.11285659852929557 -0.09331314038037407
6994000.0 0.9915353410134753 -0.057821726946288926 0.005195306964595963 0.006695919802254257 -0.0012165466319503332 -0.003970917310243352 -0.14287148932618196 -0.03184557765025903
7993000.0 0.9923740300077577 -0.06947056942448494 0.0030723300544682874 0.001898230866599447 0.0018564268617494836 -0.0037770120540812366 -0.1599296704210212 0.03522129177902973
8992000.0 0.9910887396926926 -0.07330339383439279 0.0007390677164505221 0.0033542252342568784 0.0016697899596225278 -0.004137741367816964 -0.14655216506763435 0.058272624123157986
9991000.0 0.9881016169902239 -0.0834833248012132 -0.0001338013564278481 0.007516721344357772 -0.00740165698453181 0.00017512403449119178 -0.15549009015162485 0.08094423102753882
10990000.0 0.9876536232539184 -0.09369965349672901 -0.0010498905886390515 0.0012747927575834225 -0.0019940195209603826 0.002981740247008268 -0.14469138374333848 0.12116819943961353
11989000.0 0.9863852667339188 -0.101071647791336 0.0006227924048787261 -0.004316439320997154 0.0023472656430003395 -0.0022817410505336054 -0.12680355609080549 0.14169871119641825
12988000.0 0.9864099705046574 -0.11132574075208693 0.0005755226366875216 -0.004468077274976368 -0.0034103129825871262 0.0037710540613066926 -0.11876683711374632 0.16086054933387756
13987000.0 0.9824988238107226 -0.1173037446825406 -0.00033041080202758655 -0.0037173666935981023 -3.569231239450489e-05 0.00381067699784841 -0.09407039680322506 0.1816737697282791
14986000.0 0.9836682629501603 -0.12609836535266558 -0.005206425373352859 -0.004467120392188635 -0.00019323418953031383 -0.002860855782789577 -0.08234326245013682 0.2065728633051251
15985000.0 0.9846458980497838 -0.13304534710291416 0.004584001400729699 0.0002850639541035598 0.006324595083060687 0.0029601218784578056 -0.07212489218538519 0.21808774425191016
16984000.0 0.9816244928166243 -0.14292519030774514 -0.002930881063836571 -0.005979710063710799 -0.0002929492876705655 -0.003757535460215686 -0.05545554077768084 0.21880056284723076
17983000.0 0.9830379662242174 -0.15030708578025997 0.0020125560500629408 -0.00021519093773682242 0.003101154067467078 -0.0010734714417404852 -0.043917779515678566 0.2279321504424118
18982000.0 0.9787292661997739 -0.1635329208112306 -0.004795813572798836 -0.009294417413278707 -0.0028277214090483907 0.0007715335586825648 -0.02198837184751438 0.24278010982849366
19981000.0 0.9784643592685267 -0.16651610248330803 -0.000994414413049069 -0.007714731553075601 0.002961073033461934 0.00035116235819566385 -0.019127680857443093 0.2332696803150075
20980000.0 0.9789100962242115 -0.17417079010932032 -0.007074850312072403 -0.00910239447830454 -0.0007636717871294668 0.0037002778843383487 -0.004376626480910261 0.2586443727945058
21979000.0 0.9759709898582708 -0.18460365265364362 -0.008001984708552042 -0.009170825145269061 -0.001270611907225418 -0.0008713096044122237 0.02297321218999005 0.23081566115996915
22978000.0 0.9732691584972758 -0.19532756713532398 -0.00578091884301484 -0.004190363812877824 -0.003498228866111217 0.0011751894470706542 0.02455907134810513 0.25537977298971565
23977000.0 0.9747217378328636 -0.20099723868024255 -0.0034477188361541062 -0.0005888228185024534 -0.0012198674410418967 -0.0009175709533299836 0.032880963577587505 0.25639120650453157
24976000.0 0.9709633234271836 -0.21237139940029195 -0.0012410311580450353 -0.004871588886930156 0.0008822403874275109 0.0004935456716877937 0.06538545058651053 0.25280719023518494
25975000.0 0.965380130761206 -0.2186856199855784 -0.003755354499756305 -0.003111804208760582 -0.028107836733914884 0.0050726217857420776 0.07183464006004125 0.2589691894788535
26974000.0 0.9661949037017511 -0.2286957832006612 -0.007931592948324736 -0.0025681510692685773 -0.0005846763054362552 -0.0005550506564651653 0.08842978888712467 0.26859772798618115
27973000.0 0.9655480341016697 -0.23749351168484778 -0.005061839146927434 -0.0006120528581821629 0.0003474137074811159 0.001870852138120548 0.10507124490770309 0.25936970415132427
28972000.0 0.9636417934966451 -0.24400370798733553 -0.0002713218003375707 -0.0005562608384108837 -0.000593893745359973 0.0015688694697642324 0.11433402609376624 0.26193169700169927
29971000.0 0.960759646609085 -0.2559311975289179 -0.0005890291329731842 -0.004012976892389596 -0.0006678855397896345 -0.00036608064721439234 0.15012113499792462 0.2746547206146927
30970000.0 0.9594928975601019 -0.2603346687952255 0.0022937589622395046 -0.0017403501755813254 -0.0038941976412702737 -0.0019424023819036662 0.16482992997167295 0.24310429689853985
31969000.0 0.9573489563713327 -0.26985214314457495 0.007155263357208751 -0.006138080520324392 -0.0001805009066755639 -0.0006840412528453962 0.1499179179254458 0.24549251447426926
32968000.0 0.9556345050272649 -0.27758870534352537 0.004151762926816107 -0.009014998421964108 0.0019304936966096065 0.0011651094572402093 0.1552644260706097 0.24359817668029493
33967000.0 0.9522361422533866 -0.2900139798257805 0.008937828827945074 -0.010055652128094627 -0.0010155019819143704 -0.0019461776459840418 0.19125980875168483 0.2406756079171068
34966000.0 0.9493604770895432 -0.2978590046957034 0.011481769826938904 -0.011242142664598921 0.0043788443198215805 -0.00027655776726621717 0.19177149483991407 0.25095209489435394
35965000.0 0.9478277942846145 -0.30647822804167124 0.016276571673517686 -0.013529832454869557 0.002254998476689694 0.0010406490766517592 0.2099618494153915 0.24549411962014173
36964000.0 0.9457346480888404 -0.3151867292737388 0.014532291556182594 -0.015620638345986506 0.00036060780133073174 -0.002694557563612144 0.2112906442095959 0.252599402136058
37963000.0 0.9400029037022503 -0.32658302715287857 0.020590491312570944 -0.019748201941618398 -0.001098518278704549 -0.003343090976005887 0.22898564151382908 0.24259189463067427
38962000.0 0.9378916633731639 -0.33411372497268027 0.02420885960006468 -0.02490376643771693 0.0008871245388009232 0.0004939714662025018 0.2364725465790901 0.2307963498831818
39961000.0 0.9372675505570105 -0.3383038838453704 0.026419888723882932 -0.030642189473137255 -0.0017030881160674288 0.0009872515507761412 0.25168701950399985 0.22479107533706316
40960000.0 0.9320883013197835 -0.34949362416330343 0.02119004365695152 -0.02411799207223704 -0.0004804681603111116 -0.0017747109747514537 0.2665061428759102 0.23425450616670096
41959000.0 0.9295379847571157 -0.35937488378527566 0.029651672571926163 -0.03312720782962671 0.001976339542105604 -0.0005025634075276592 0.26528539781363325 0.21662015984405134
42958000.0 0.9233528805320014 -0.36788857346655324 0.028866487950268385 -0.04135151792712101 0.0010577370731391703 0.002218666688488152 0.27261935291213785 0.20591778117192122
43957000.0 0.9239236327199184 -0.3715152655364641 0.02997094866369624 -0.04572718429378835 0.0031558682305059768 0.0006045178577776455 0.28302807855489837 0.20383775760766767
44956000.0 0.9188722318520504 -0.3802162896618605 0.032268702168817165 -0.05154051238851021 -0.0018315534132757648 0.0014097500474970362 0.30339458472713166 0.20192879859804871
45955000.0 0.9146836945845822 -0.39249574082542443 0.033707205561837573 -0.058406483451600016 0.001302411022514149 0.0015801904470137925 0.2950937144041458 0.19497034237074226
46954000.0 0.9096674294931786 -0.40161949885964593 0.03474313652209391 -0.06244161301165389 0.0012293789962458902 -0.002268107563694775 0.3223223243904564 0.17897959357293614
47953000.0 0.9088895382798763 -0.4079032579612392 0.03188987869333576 -0.07317453219477614 -0.0023487893417021483 -0.0009220291030148605 0.328324284927548 0.17343981421753854
48952000.0 0.9021261303587352 -0.4212354749875349 0.03702503651236611 -0.07862229684750983 0.0011645954837861956 0.0002617921995797364 0.3302371860185593 0.15767956198741642
49951000.0 0.9005783759069727 -0.42370427595878657 0.034652372827864666 -0.08823291598065128 -0.0017286702961039127 -0.002553006672820894 0.35388660742454403 0.15751728954799427
50950000.0 0.8953844678628525 -0.43505711456538243 0.035452182489774685 -0.0936698001813376 -0.005485212181477057 -0.0010343617696225577 0.35135643374571646 0.14668312439572584
51949000.0 0.8909811105575239 -0.44186826215364383 0.03392939298181391 -0.10377990953380928 0.0012477258152277966 0.001059667064592993 0.36358914820225846 0.14597701892611764
52948000.0 0.8883640865809058 -0.4511606400133692 0.03849552216997103 -0.11095688464814281 0.0013346691512468231 -0.0012879573635451154 0.3649313207319582 0.14970646804272908
53947000.0 0.8824488601799747 -0.45800199671187414 0.04070399864883546 -0.12122998595745856 0.0027287503160582493 -0.0012715947758275838 0.36852580167394977 0.13275299861235765
54946000.0 0.8774924801277401 -0.4687301433226456 0.04152134490221013 -0.13007627944756764 0.0004300800410417632 -0.00463593367653955 0.37675797505420666 0.12059705970733205
55945000.0 0.8740902654198697 -0.47714282480953385 0.03888786948993828 -0.13943505303148676 0.00204642516465585 -0.0009239142793372535 0.38689228675561355 0.10618807141657724
56944000.0 0.8690479803780775 -0.48472379418157785 0.0415209764302041 -0.14902381326611003 0.0015006035147285444 -0.002769341697242205 0.4020936152329428 0.10609262379572941
57943000.0 0.8660348374298789 -0.49388343041531924 0.0455325013524191 -0.1623129639695855 0.0010032497752790887 0.001328518538975824 0.4038631605263473 0.09167954829273445
58942000.0 0.8575464243754491 -0.5005411941617612 0.04547166870947521 -0.17073769042989817 1.7947238830512942e-05 4.566265686598326e-05 0.4157818873527005 0.09379460773939119
59941000.0 0.8572963747785106 -0.5071418864988608 0.045584857760629094 -0.17986179593872406 0.0018210374401305116 -0.0038125448887905457 0.41298536647929396 0.09097851245872983
60940000.0 0.8472030755542519 -0.5158278527613805 0.045446016703827696 -0.18224749044569974 -0.00023846478815783403 0.00026940520119114134 0.4139318056098081 0.0754673204148925
61939000.0 0.84489012939263 -0.5235410262394964 0.0481504868828275 -0.18970342864312353 0.0016974954407627655 -0.002136629073702224 0.41565594667666717 0.07039748568722906
62938000.0 0.8363114507792265 -0.5345635851005431 0.047698640058245596 -0.20790975778323614 0.0023286702504692813 -0.0028269223812972533 0.4338159933369482 0.05215620466672128
63937000.0 0.8345277270787859 -0.5402434650754373 0.05035683511566022 -0.22589336796013781 0.0013277922827269505 0.0003219438810658688 0.42616420624327855 0.04062244436117025
64936000.0 0.8276472771983632 -0.5483082298599353 0.050875103321070037 -0.2415296656576174 0.001965224536865446 -0.0010071398193905324 0.4389185357279908 0.0524895241137361
65935000.0 0.8241129955715125 -0.5587904111383338 0.048551932094171156 -0.2563617332585599 0.0001099312949038955 0.0001746338603443008 0.4399031493045909 0.020684918568676297
66934000.0 0.8186144521764394 -0.563258709912122 0.050749055427594426 -0.2664159593901367 0.0008656380358831405 -0.0027753404093077264 0.4374842118088886 0.015318272159597624
67933000.0 0.8164588619408124 -0.5717978151788561 0.051850312675207164 -0.2832549287939986 0.0032062347593320097 0.0016361006923325992 0.443986064837872 0.015463501266559054
68932000.0 0.8042652542262608 -0.5638575573230957 0.048414009255757645 -0.29055576039745523 0.001797973418625686 0.0024930385874300993 0.44766428722632984 -0.0023586055270183584
69931000.0 0.7997022065350107 -0.5873411897356043 0.047104726604876274 -0.3069220663059107 0.003294858921312283 0.0023078345759280187 0.44777992574602316 -0.017479163020179295
70930000.0 0.7942613630033075 -0.5952726697381026 0.04686073380207576 -0.3233164447215313 -0.0022899580505431794 -0.0004948542506157573 0.44047627802813644 -0.020671429092587224
71929000.0 0.7916046960949235 -0.6037226709346467 0.04286128759934169 -0.3424831175329472 -0.0015923064059618613 -0.0035390442265861586 0.44730448445846677 -0.03667340838134994
72928000.0 0.784242330497118 -0.6112754589630185 0.03426950754629391 -0.3562992717178459 0.0010870180319258265 6.3292886152734e-05 0.4637346132369455 -0.04154924806564658
73927000.0 0.7785392459327513 -0.6177832972187441 0.027501763035339338 -0.37768602533839796 -0.001707425735460638 -0.0004955199600578167 0.45467643931184853 -0.03970363811867787
74926000.0 0.7742300092797564 -0.626779026531415 0.023463524730832786 -0.39285815988656214 0.0019400840781405937 -0.0007284306600180709 0.46435208129059696 -0.048617311549908365
75925000.0 0.7682382048134084 -0.6316328109994538 0.010559173467687354 -0.4122916999645752 0.0007548744114438419 0.00018152068018634443 0.46625787599266705 -0.06762225107179383
76924000.0 0.761229894622023 -0.6393749960013636 -0.0028537685823865518 -0.4366327835408585 0.001509949251920998 -0.0030665593595466593 0.46862676099514905 -0.08315905292988532
77923000.0 0.7523553627363678 -0.646189961846227 -0.01683678696291357 -0.45749383970700136 0.0021610403385110585 -0.0032906889794886434 0.4602393041904619 -0.0839847215586235
78922000.0 0.7465166783263767 -0.6561788380506897 -0.029856373925575844 -0.4894740200503661 -0.0009957828617724637 0.0016578186137524947 0.45699986574111023 -0.10094286841876078
79921000.0 0.738734794481225 -0.6618815334353891 -0.04982741668413896 -0.50954940119564 -0.0009399311392812032 -0.005637350880068539 0.4669831831655197 -0.11399411060927087
80920000.0 0.733977820713997 -0.6706096739452331 -0.06613614878952206 -0.5376969639111701 0.000880147547958222 -0.0031831831913435534 0.4688285178411878 -0.1168106004942832
81919000.0 0.7289582031921533 -0.6764181294109933 -0.08087213155673231 -0.5663874296119844 0.004121346332312688 -0.0025522133841104954 0.4608731497986163 -0.12654078079300035
82918000.0 0.716966473291567 -0.6855261618646313 -0.09402574608042345 -0.5947850318518614 -0.0030685352044611085 -0.0030036305660621487 0.4782457803881407 -0.1333345274298384
83917000.0 0.7108954266202347 -0.6943120959672491 -0.11342599406243863 -0.6198000611035365 -0.0013957307967596912 0.0022094836294429877 0.4784706066851887 -0.15152111591229606
84916000.0 0.7053927756448236 -0.6987008929127624 -0.12758659635458303 -0.6579359496483322 0.0004308233799940481 0.0015848755151530055 0.4689213451088618 -0.15458886309917588
85915000.0 0.6979885789253341 -0.7033115892986499 -0.14950302026861123 -0.6894037207758333 0.001968089329105955 -0.00013634775480466207 0.4724389010497791 -0.1741739575019098
86914000.0 0.6909188037171378 -0.7150066651235353 -0.1657735920475318 -0.7214001299255903 -0.00019793493371702157 -0.0012146481153315302 0.46010051674741864 -0.17311048144684463
87913000.0 0.6843864640799409 -0.7202320432611671 -0.18322189243961898 -0.7504843456041203 0.004204594407428807 0.000759041621954557 0.4654955999734019 -0.181350914443249
88912000.0 0.6752609059196675 -0.7277332833597415 -0.1982252244804819 -0.7847402437620125 0.0003691716910909516 0.002876165309470415 0.47755863571451584 -0.20061136406368
89911000.0 0.6678641590293602 -0.7361221041926438 -0.21484147914769613 -0.8182128083571109 -0.0009476782204791812 -0.0026903460789328595 0.47449127770530625 -0.2128034702526863
90910000.0 0.6628004954964589 -0.7413141604412048 -0.22974545354593273 -0.8542571178936548 0.0007752842297823276 0.002062496490197213 0.4767210840150739 -0.19976512202457375
91909000.0 0.6530866799062648 -0.7469003407543819 -0.24829246372023184 -0.886417083634864 0.0009032683202497274 0.0020712135755960167 0.472416516897596 -0.22726179562421697
92908000.0 0.6435527134859982 -0.7550725751706314 -0.26325859394797696 -0.9180720938229928 -0.004224213479389793 0.0015731028169326958 0.4614275030272572 -0.22968985176108786
93907000.0 0.6398638406530988 -0.7605235280020374 -0.28180029449896987 -0.9451059428309051 0.0017765168846959937 -0.0019215742906767987 0.4645745828555447 -0.24508383988871363
94906000.0 0.6242575157012337 -0.7703901880291076 -0.29525808487268673 -0.9797715265475485 0.0019223571068184508 0.0007488415069222561 0.45155337724503364 -0.2484061186335883
95905000.0 0.6196411357364113 -0.774917005298174 -0.31797669661241906 -1.0168919980565554 -0.00047849887069637443 -0.0017111095052460244 0.4751694434304735 -0.26891456655223045
96904000.0 0.610019158679927 -0.7851439399686112 -0.3384967321808394 -1.053397527889587 -0.0020570517076375213 0.0019991046230013972 0.467079745316865 -0.2814014813833299
97903000.0 0.6011621677831533 -0.787778473782611 -0.3562854341412477 -1.0829914318695153 0.0019076526688262148 0.0030432345622413365 0.4442352674703191 -0.2821015157431346
98902000.0 0.5976686640315325 -0.7953303564624974 -0.3788940527775732 -1.119302233357365 0.0004463939185598055 0.0002767307052024075 0.457209091317625 -0.2895740212407039
99901000.0 0.5855927047483966 -0.8009929140170076 -0.40615163765330076 -1.1510156706437762 -0.0020754776840736016 0.0003288881528673219 0.46854451262102903 -0.3090649882107684
100900000.0 0.5762862951751914 -0.8056399917501939 -0.43870806944200713 -1.1726744442352564 -0.0011510859225376446 0.001458557712501175 0.4634315655520242 -0.30813639721720626
101899000.0 0.5677331141504754 -0.8138232238182954 -0.4677752111797855 -1.2160860796447377 -0.0012209780364494478 -0.0005264396006087036 0.4544573137681422 -0.30986471223203904
102898000.0 0.5577912777724392 -0.8189022378831247 -0.501852078526877 -1.2535745101122842 -0.0006900128356240388 -0.0012943598517024056 0.46446907886393857 -0.3374300443251674
103897000.0 0.5491430441715751 -0.8255415952997012 -0.5402070198310575 -1.283798266265478 -0.005017172732823521 0.003303993871969522 0.4596875298458821 -0.33482178365839826
104896000.0 0.541947774557843 -0.8365477734390316 -0.584474682796731 -1.3150949334852828 0.0033962236822351983 0.0005060650418978169 0.4440185300332879 -0.3308842903540121
105895000.0 0.5294249273187975 -0.8377492120972039 -0.6262753975778494 -1.3530226545053512 -0.00046320669250184176 -0.0013791046990730995 0.44230430594385367 -0.36128204928632407
106894000.0 0.5200651281640292 -0.8464317291062121 -0.6833780108797062 -1.3907537361165332 -0.00354143902521746 -0.0007736414424594948 0.44624768994365116 -0.3738952126585134
107893000.0 0.5122553932960986 -0.8526180060801315 -0.7329581038298962 -1.4314525336716835 0.0018575330068871336 -0.002337826825242803 0.4375934193359695 -0.37286009727759056
108892000.0 0.5020179105002965 -0.8534466785440765 -0.790258179313703 -1.465505345146442 -0.003319314468825699 -0.0007745496943259161 0.4321794567458608 -0.3726627641405198
109891000.0 0.4910013184570974 -0.862439444764322 -0.8497402672705713 -1.502032979357956 -0.0033764562381319824 -0.0021060234126380507 0.4463982132077727 -0.3683068299039646
110890000.0 0.47114029347650505 -0.8702286895620442 -0.9294519987448492 -1.496883623174896 0.0007242311505147607 -0.0020591804619129587 0.42719266257344657 -0.3679520211160818
111889000.0 0.4716864345819974 -0.8682374071515943 -0.9721630235475134 -1.5697381086496427 -0.0021909483779474917 -0.0029868785091746296 0.4285690270642573 -0.3933664642482832
