! Created with skrf 1.9.0 (http://scikit-rf.org).
# Hz S RI R 50.0 
!freq ReS11 ImS11 ReS21 ImS21 ReS12 ImS12 ReS22 ImS22
1000000.0 0.9760286092508184 0.009538068252490617 0.02074266921707422 -0.0362136785476295 -0.014869232306375562 0.001155329196176254 0.35908566528019964 0.3071947940579013
1999000.0 0.9945863041676588 -0.013018173379058983 0.008472748070207802 -0.02061126531323077 -0.009054879126688094 0.002834096645153137 0.2302351625466678 -0.07125128897023175
2998000.0 0.9996734651343218 -0.02328240067042254 0.008757476957190872 -0.016053639267567057 -0.00660037977890133 -0.004947351348506638 0.197769771064755 -0.1285406229679722
3997000.0 0.9958445940898297 -0.0341543551194041 0.016217954786100153 -0.00729639027097723 -0.003237572832821318 -0.00362165159620267 0.08303614501994941 -0.21772291238644575
4996000.0 0.9990092471175601 -0.03802740115555771 0.012453870719382497 -0.000466336153244912 -0.004954084851120671 0.0006720988697637234 -0.033291255518143686 -0.1972230176542172
5995000.0 0.9941178247749191 -0.051242670439618984 0.006832862122391099 0.0051624936361891055 0.0006486069284254807 0.0005673175717642307 -0.1177101224841835 -0.12039692917495246
6994000.0 0.9948213949915401 -0.05730024373155948 0.005678584083428618 0.003874188625226082 0.0020643268276351314 0.0010728220070477094 -0.14728266796930636 -0.03247305512271759
7993000.0 0.9950655953867195 -0.06584013972253867 0.005830507129708045 0.0042937180914708 -0.0037666127164793692 -0.003078182853008558 -0.15978354114811527 0.028598463914318167
8992000.0 0.9933400721637327 -0.07387201296425147 0.004112595245602657 0.0061235870761218395 0.003279519351977383 -0.0007058499354011785 -0.15707601243102287 0.05583790322907154
9991000.0 0.9918208777548965 -0.08168765567401658 0.0031481856751754515 0.00182655512274338 -0.0006586508305573081 0.0016004917186962164 -0.14780947715515705 0.0910283433413962
10990000.0 0.9913242629071248 -0.0914369415096859 0.002408427016845887 0.0018285138684261658 3.1460674833087015e-05 -0.0036144002437196046 -0.13804420896304287 0.1095306756291029
11989000.0 0.9872702756892454 -0.10166088471226996 0.004789576739007021 -0.0026505175388332894 0.0022673970497526594 -0.001163911890682854 -0.11879967181388018 0.14390726150863395
12988000.0 0.9882301890315712 -0.10967038927452101 0.001994613792112509 -0.008754232709056491 0.004075683950750671 0.0009555437414594899 -0.12040235998927919 0.16435587277007177
13987000.0 0.986743909332039 -0.11731767008053244 -0.0003508048413173295 -0.00016764320585494448 0.0007207825526417707 -0.002133613084429371 -0.09191673087899982 0.18843611025333631
14986000.0 0.9865803604624347 -0.1265494042412384 -0.0015792531464858559 0.0001516091797963569 -0.0015957931503309836 -0.00017439652482980933 -0.09246051271011842 0.20845805947977172
15985000.0 0.9858818345105366 -0.13392292448695595 -0.0036227118416645382 -0.003326334618354492 -0.0037118854365384146 -0.000622806678434827 -0.0681392145649923 0.21121676476159731
16984000.0 0.9837963255515001 -0.14600645150597583 -0.002097399736733687 -0.007672186043856696 -0.00406638156243017 0.0016970653178731694 -0.06228464264471229 0.21202253715166808
17983000.0 0.9857527509474241 -0.15050284304485995 -0.0028172011420837034 -0.0014149307571546658 -0.0019236066049166337 -0.0018494885488753645 -0.05334113093130176 0.21897714919463562
18982000.0 0.9818682586778948 -0.16311440889706377 -0.00021262578215124438 -0.003718547795799937 -0.0005804438067887079 0.0005155008462433724 -0.01918064569034463 0.2386419631918525
19981000.0 0.9820380035929187 -0.166489190724907 -0.004683138107256026 -0.0034369283532198406 0.0015869854494352405 -0.0002216896174042153 -0.004158718394798472 0.23760161773277338
20980000.0 0.9800329983696708 -0.1765698640497654 -0.004869550318339674 -0.0015088352505021785 0.0013249685399454912 0.00035993033925846415 -0.0031854784826721265 0.2636824975703904
21979000.0 0.9787312148146403 -0.1859994370890902 -0.004352916794125878 -0.0031402138078667342 0.0002611006050895632 0.004086762215770067 0.012577049249108086 0.2517492638663031
22978000.0 0.9748688146289136 -0.19323806354343578 -0.003330155651183923 -0.00562549262750275 -0.0011863143518647118 -0.0032308989847037637 0.03264101546976171 0.255250058015944
23977000.0 0.976273819257732 -0.20016870971238543 -0.006606806058727377 -0.0012010711847193817 -0.0017300468602414576 0.0006775633891472256 0.04327884206315386 0.2542636506276164
24976000.0 0.973540280924153 -0.2120961902819595 -0.0075895350593429625 -0.002235488718536512 0.0036256775530712714 0.00010963827044179047 0.05290374042165263 0.25159838809650276
25975000.0 0.9679704021776474 -0.21779290559162767 -0.001244891672760503 -0.002506469258776488 -0.024935870113085176 0.0016766348039587028 0.07886141803360194 0.2685402208626847
26974000.0 0.9673702039130531 -0.22960908403462213 -0.0022953145469197284 -0.004072075793400546 0.002271891404101471 0.002850060097887384 0.08935829251189248 0.26999142411833943
27973000.0 0.9667161332085562 -0.2375498453026165 0.0009319307249618673 -0.00018274739767517456 -0.003827416689439776 -0.002189033260116864 0.10560720420431172 0.25857480313083253
28972000.0 0.9638865189713164 -0.24821124663148925 0.0007561370925077712 -0.0010789100947061784 -0.002004156723817579 -0.003347908234013709 0.11415113664270084 0.2594821657304784
29971000.0 0.9628799409031619 -0.2538424677458906 0.003490601249677986 0.002014512230378977 -0.000950486741717628 -0.00045963365796687156 0.14352575859817468 0.25568901735471256
30970000.0 0.961468014805943 -0.25897883072776257 0.003011007679688953 -0.003238368272039817 0.0019041456078828776 0.004702738550853146 0.17810968990263812 0.2518206958210268
31969000.0 0.9590306670294807 -0.26815324077472813 0.003696785640186058 -0.0059767725662195105 0.002709983767563472 -0.0008256509556988897 0.14668163008623678 0.2448591654221757
32968000.0 0.9559006290995177 -0.2783442369300045 0.010578075372272833 -0.0064281840415015305 0.004212032031143307 -0.0020016003344131383 0.1606573248043838 0.23969375095462694
33967000.0 0.9543155649782631 -0.2896998299709866 0.011677201198692902 -0.010687739683171792 -0.0017809446257105444 0.0006399773914981128 0.18751418149976082 0.24649402191833122
34966000.0 0.9510223956054022 -0.2978166744861037 0.015910472153748523 -0.012060676396653413 -0.0003845164000109109 0.00035991021913756363 0.20179720279338495 0.2549410584228548
35965000.0 0.9490538197962295 -0.3049966793773106 0.015754141185615425 -0.015172527370339315 2.6051147283757427e-05 -0.0019794751679352383 0.2023637779242053 0.2525595112310026
36964000.0 0.9457911984275423 -0.3133583605857569 0.02045958948260473 -0.01724685782115948 -0.0003460462332778377 0.0011468381396968013 0.21462805554561562 0.24905528721492368
37963000.0 0.9410070772617654 -0.3242053565570283 0.02178449710185503 -0.02140499323660883 0.0022017888507851577 0.0004062651809276487 0.22134744327647313 0.23222888422409585
38962000.0 0.9400276063994909 -0.33240279324163874 0.02514415487269121 -0.02054072541533329 0.0013746288054704056 -0.003816174601373869 0.23657472312497274 0.23607006526737456
39961000.0 0.9381021815976041 -0.33757610157980084 0.028732213052489183 -0.025956045846514647 0.0021218335466385635 -0.0007862292635918713 0.24484498873267424 0.22967481232058648
40960000.0 0.9324743966264535 -0.3477035684618887 0.02573823418346619 -0.02202060493712769 0.0028497372421801646 -0.003079572375465689 0.27628301638668545 0.22483567214362246
41959000.0 0.9314931550091078 -0.35758206943746246 0.03037914225418302 -0.032298923710862446 -0.00023715705836356143 0.0019189463145375752 0.267980022335782 0.21143217134323192
42958000.0 0.9268522872668782 -0.3655761763328628 0.03487084740081728 -0.04296882049578409 0.0023976877817769894 -0.00012712902613620718 0.2777744023234584 0.19309450126517183
43957000.0 0.9258877974634695 -0.3696029149252552 0.035606316238314895 -0.04806789614895906 -0.00527201222725996 0.0009680005685026554 0.2807769458304873 0.20259573729499747
44956000.0 0.9208159057126422 -0.37847966825128987 0.03430287200651061 -0.05557771832348779 -0.00019143537776837908 -0.004784461954634259 0.30101697258739957 0.19339883766537158
45955000.0 0.9161194102707042 -0.39074887320919716 0.036566504724349455 -0.06098800496986378 -0.0024847273782382102 0.0002512217287924555 0.3112529931450709 0.18211549365233706
46954000.0 0.913544266293997 -0.3985042490430469 0.038244426062747416 -0.06867771339831463 0.0023190826369356658 -0.002667920928113035 0.3319328412678183 0.1767272318457836
47953000.0 0.9101904350875138 -0.40662014748435954 0.0365255462981806 -0.07427875186376966 -0.0025282059874024835 0.00011095489789204634 0.34066211154281256 0.16562323060245007
48952000.0 0.9034170528800504 -0.41964138212826935 0.03824166588434872 -0.08280772514832078 0.0010209848037673478 0.002467086448622372 0.34130250532383627 0.15199122456139605
49951000.0 0.9019465363768507 -0.42234139924805186 0.037416168489529826 -0.0912508968918833 0.003140708256411607 0.001444873901421146 0.3504377161987478 0.13968934961336846
50950000.0 0.8978123894293472 -0.43268113332241137 0.03846405023679192 -0.09903325256711278 -0.0012411118705040487 -0.0013293172793182003 0.3552549300522111 0.14631951671119822
51949000.0 0.8941795602604972 -0.4403399348007671 0.04156728647112085 -0.11062606416951556 -4.9358643155520416e-05 0.00045562586547238075 0.3605559222916653 0.14067712443893152
52948000.0 0.8923812724234479 -0.4474882120826292 0.0445511227325118 -0.1176243095023842 0.0012661528911189063 0.0009765096318379224 0.3730387026001581 0.1313831274836721
53947000.0 0.8842786861697473 -0.4556763789773458 0.043834335259026226 -0.12577445522425962 0.0001932580820839229 -0.0008980186459947498 0.37185469444241714 0.11900395693898834
54946000.0 0.8791894194130216 -0.46556545580851916 0.042228092860658 -0.13799651710645328 0.0008621388349425533 -0.00253105287863626 0.3850212824288793 0.11308261112598687
55945000.0 0.8763011743653446 -0.4727585010720779 0.04417756364315449 -0.1446171398317469 -0.00533280334423008 0.0005192367325146361 0.39273522844527436 0.08958236488504952
56944000.0 0.8727487394714125 -0.4816585059189347 0.04774495546137907 -0.15849349262865947 0.000584720707052991 0.0011019895314895011 0.40252916260726507 0.09604788986721138
57943000.0 0.8690522781907505 -0.49103770392554014 0.04849205359010395 -0.1666964393946808 0.0017077776581974544 -0.0013207600702101869 0.4039823339845239 0.09028283512000847
58942000.0 0.8630977978742419 -0.49563117203585383 0.05179254558500277 -0.17801407719356188 -0.003804513674526206 -0.0019382711612267016 0.41391252872001905 0.08534413183903981
59941000.0 0.8592880789543725 -0.5064937534293033 0.05194806930334475 -0.1895132230929148 -0.0010081260958664524 -0.0025779874931684725 0.4217079533607081 0.08973787919052272
60940000.0 0.8515749694936429 -0.5132330808286829 0.05351679188564151 -0.19139817817147303 -0.0035239064680844764 0.00172478294422585 0.40620554657717617 0.07789964556804825
61939000.0 0.84901421858554 -0.5198050207083277 0.05445502046986363 -0.2033711245868418 -0.00045525745619335434 0.0003507294135617314 0.41264899309773456 0.06311028908399785
62938000.0 0.8429206791757093 -0.5290448971221261 0.054000509759815324 -0.22086672637563606 0.0015830458768148485 -0.001223416833626016 0.4404099181266201 0.0555744325450451
63937000.0 0.8389373729629389 -0.5354643710005762 0.05824935126413618 -0.2416193187360383 0.0022600445099653665 0.0008952472374357869 0.44029679173489356 0.030309324732164078
64936000.0 0.829757289134514 -0.5455564210676496 0.05262552766091266 -0.25405325204013923 -0.000513887993132806 -0.0005866550816774173 0.43606043999905864 0.04408335145287197
65935000.0 0.8272112146142802 -0.5546553877087712 0.05656862015155477 -0.26964904653855 -0.0005277824003640535 -0.0005498432593666654 0.43902994311279697 0.008236152920765146
66934000.0 0.8232117810995692 -0.5609616945067417 0.05371586218721903 -0.2821891367536562 -0.002369054723836504 -0.0009539960139166975 0.43795522196343545 -0.0067661736637485755
67933000.0 0.8188954608245669 -0.567758314358249 0.05514430343425499 -0.29652513152377286 0.0035920967962256314 -0.005717878237864598 0.4403261657769385 0.010503329709669301
68932000.0 0.8138904091212599 -0.5610375046201708 0.05557691903307551 -0.3094388819331549 0.0022648333004002146 -0.0036254290372034963 0.4451078537603327 -0.019844699341645167
69931000.0 0.8040445926129882 -0.584911333741973 0.052433801792702774 -0.32547332216346636 0.0015113908517135153 0.006311636526714501 0.44821323586407585 -0.03503872163056564
70930000.0 0.7988065306877671 -0.5904365040337306 0.05047155974400699 -0.3402744491226122 -0.00017874078706405858 -0.0007339735110293293 0.44474438529877147 -0.04220140824460574
71929000.0 0.7958406986239358 -0.5988714970999752 0.04468679144826396 -0.36248875476117787 0.0019496745304940098 -0.0007074826463645327 0.443440325883421 -0.044389591253528454
72928000.0 0.7890057397578033 -0.6094557520593612 0.03460852651148428 -0.37584607936604364 -0.0011377994339161457 -0.00273018686872897 0.46313241737409594 -0.047469189256466565
73927000.0 0.7804075646068321 -0.6138352727340074 0.030904395142122475 -0.3987949559114584 0.002323382911973411 -0.0005569576420689043 0.4604657737623982 -0.0768326808747156
74926000.0 0.7766445519262174 -0.6241921427287634 0.027436424984989848 -0.418222056511137 -0.00017841216761368907 0.006292839346812247 0.4673911620185861 -0.0763779818332204
75925000.0 0.7696144578593542 -0.6282990784736616 0.013869240990451165 -0.4369153148292685 -0.0028474386531768285 0.0022495071035439134 0.46333524133476733 -0.0808890396608399
76924000.0 0.7645153592956597 -0.6360839957159968 -0.0016463978947929372 -0.46266145382926815 -7.953173806761601e-05 0.002579901850884243 0.4650933604969329 -0.0982682483392778
77923000.0 0.7592324278840653 -0.6431686666017459 -0.01746298935429422 -0.4865852890461977 -0.00291513321924603 -0.0012335195413439048 0.4482177058046385 -0.0998301035120498
78922000.0 0.7517117096892533 -0.6527343207929699 -0.02678482989172971 -0.5139025254947879 -0.0009202397312183648 0.00025511854513765114 0.4574558674678729 -0.11581254253843097
79921000.0 0.7427848097594952 -0.6574971751875064 -0.05126272902417374 -0.5391151859769804 0.0018493347190228107 0.00036634113121081734 0.45737092721055744 -0.13440607733117918
80920000.0 0.7388518582675921 -0.6676520345273621 -0.06938779822449631 -0.5697863237201789 -0.0006718962081755973 -0.0030131896615518995 0.4687170976838958 -0.14373445056347928
81919000.0 0.7315631119483595 -0.6748951982333494 -0.08247082921074508 -0.6014722875397437 -0.0010676688836466397 0.004491288012680632 0.4692844345883325 -0.14082688289211365
82918000.0 0.724165899448635 -0.6808271360071876 -0.09939306305700737 -0.6276496775440465 -0.0005590479706074179 0.002702098236479149 0.470686154071014 -0.16058826726394937
83917000.0 0.7156402840678503 -0.6916760738122193 -0.1216864406641105 -0.658913710625678 0.001549555133571164 -0.003260243997559577 0.46996810961528396 -0.15916102432642382
84916000.0 0.7104570956621727 -0.6967911013634361 -0.13249964475200046 -0.6981003979010425 0.002093090157559226 0.0012615699012455454 0.46542004449381535 -0.18734283896475706
85915000.0 0.7041083550917513 -0.7016990169210645 -0.15756531672458063 -0.7295865671888995 -0.0008185707766632054 -0.0037665197754416474 0.465194807324358 -0.1903246991287613
86914000.0 0.695058454789257 -0.7118007810019391 -0.168779727859945 -0.7656535886884636 -0.0010405280553053115 0.003076146706595534 0.45590258377015697 -0.1835070751543249
87913000.0 0.6906611980506624 -0.7176919181467935 -0.19049554832458135 -0.7954948634312587 4.428914399560162e-05 -0.0031601097830539267 0.4589332463048576 -0.20445972099678922
88912000.0 0.6811391079261119 -0.726804677323021 -0.2122554113638219 -0.8302533460955004 -0.000180297963309819 0.0027683175113997188 0.47103874963086223 -0.22239610116230435
89911000.0 0.673886176453085 -0.7331368834054398 -0.22835720232754772 -0.8641113716889366 -0.0023086360693543835 -0.0026877627313019914 0.46724470288888786 -0.2150249966266129
90910000.0 0.6682339684807838 -0.7393953440537901 -0.24082107776444514 -0.9016601364069342 0.002325368442167416 0.0017334413280442706 0.46149207907781375 -0.21310996644558158
91909000.0 0.6596653172324963 -0.7464972986599147 -0.26382374063577707 -0.9330620974023897 0.00010447716699223728 0.0006980893514230655 0.46557090546121566 -0.2336155423190498
92908000.0 0.650031021084494 -0.7517991258187591 -0.2820010205421424 -0.9655067473830466 -0.0023610279543595644 0.0008750972328448377 0.45446144032939045 -0.24809728777182521
93907000.0 0.6459857733588698 -0.7581358326810195 -0.30000772020395367 -0.998778303047291 0.006241852447724105 0.0020681567637247907 0.45515243896468965 -0.26579895759294164
94906000.0 0.6313240909254331 -0.7670924790363777 -0.31596770104290367 -1.0340229347696608 -0.0015420935659944239 -0.00041988800391009256 0.4545496934517206 -0.2495393058156307
95905000.0 0.6262316740990063 -0.772056514240477 -0.33884117371729394 -1.0673920938895354 0.0023629483942224547 -2.3018649016032847e-05 0.4520196107731357 -0.27970898200362265
96904000.0 0.6186288480720848 -0.7791197969946634 -0.3593357828936326 -1.1088251723857192 0.0007786157142051577 0.004549177169949834 0.45053755245228 -0.28914657274695316
97903000.0 0.6079338912506568 -0.7867480475214633 -0.3883606786798083 -1.1411636888980297 -0.0018895049302824994 0.002270301030797045 0.43100256924475333 -0.2956979896489349
98902000.0 0.601161956370145 -0.792582188047536 -0.40326262504381444 -1.1812217363407143 0.0014132804376179135 -0.000678036659271104 0.4425474315569476 -0.30740734081564935
99901000.0 0.5914634453868108 -0.7986924878920316 -0.43675878624636344 -1.21213759207138 -0.0015227151332286154 -0.00429629519293502 0.45096807025080615 -0.3305359615144227
100900000.0 0.5829273655293241 -0.8025699333547462 -0.4721453756651327 -1.2355167890478183 -0.0014259684920368094 0.00033420593145285133 0.450937136133919 -0.3219589297462324
101899000.0 0.5761507573997776 -0.8098487383009636 -0.49162721018003425 -1.280811947523756 -0.002103652189302315 -4.500290277058569e-06 0.44619293805958243 -0.3346864441649193
102898000.0 0.5657054313789325 -0.8144506186616693 -0.5314412984315829 -1.3179277833346383 -0.0032174044686843987 -0.0026082343346198137 0.4395795234475461 -0.35440500836561023
103897000.0 0.5558870882527002 -0.8220204580641134 -0.5779838927641211 -1.3508745827445392 -0.0026832972624739426 0.0010122619938039 0.4507545487950181 -0.3449039422340657
104896000.0 0.549348773626797 -0.8335147614408123 -0.6203713439738482 -1.3852905175724264 -0.0010603816278789112 0.0009663540292676748 0.4406682552797642 -0.34505443234609895
105895000.0 0.5374354796800117 -0.8358578636712797 -0.673955061018329 -1.4300134000154616 -0.0015570395180458218 -0.001125615041936023 0.4294941456921647 -0.36404115137324455
106894000.0 0.5308430989074651 -0.8413559718569301 -0.7270201149511296 -1.464824636618816 0.0018136192936655123 -0.000980961446767511 0.42982013094659693 -0.3753135392775622
107893000.0 0.5215371931449945 -0.8492284909872259 -0.7840264554069847 -1.5022634104929666 0.0003999888056608286 -0.00109290814817487 0.42872466489766614 -0.391129848773248
108892000.0 0.5124535667571375 -0.8508425897420087 -0.8453990285889544 -1.5402409910338226 0.000838115079547053 -0.0007182075669420623 0.41553445725415045 -0.3822005844324399
109891000.0 0.49869196956715495 -0.8583320748633548 -0.9060732915637214 -1.5776080769363738 0.002475853735706049 -0.0011622984786578705 0.4385316565804686 -0.38414591724602504
110890000.0 0.47874288533389525 -0.8637337387500715 -0.9783043771301728 -1.5678997848995149 -0.0016763641195955985 0.0009746835762607645 0.41763934159816324 -0.39441542475853136
111889000.0 0.47965579930686786 -0.8646003139603233 -1.0374034319787724 -1.6435159617474562 0.002131895297125433 -0.0011445681172802525 0.4075667340338071 -0.41377818038052216
