! Created with skrf 1.9.0 (http://scikit-rf.org).
# Hz S RI R 50.0 
!freq ReS11 ImS11 ReS21 ImS21 ReS12 ImS12 ReS22 ImS22
1000000.0 0.9854654220645455 -0.0010414975389903421 -0.019588047295557694 -0.02801094178007935 -0.02971764287954218 0.014783490400578475 0.36393537695422334 0.3546991302881744
1999000.0 0.9888935527765726 -0.012399994271286557 0.008068617055256794 -0.02457920049753692 -0.003983019065154303 0.0021057209529321175 0.2691777628450366 -0.06368697518764137
2998000.0 1.0023094946492834 -0.023999048900902615 0.004348326618566597 -0.009886784959614788 -0.0028491934304753835 -0.004721316111026237 0.20020810368928293 -0.13203412765698622
3997000.0 0.9976996001242795 -0.031289435598343365 0.013707226201263491 -0.005787872450935284 -0.003650508594193334 -0.0017570814874161666 0.09801171012740079 -0.2250776716756737
4996000.0 0.9992931535689265 -0.0382991231032774 0.018208951934978717 -0.007055975787914438 -0.0002493189621167196 -0.0007308988443519676 -0.05986437939270513 -0.20008723323744637
5995000.0 0.9960215628423396 -0.04846160313179379 0.012455305373107885 0.0005228146691274544 -0.00017423018906798684 -0.005352961749934455 -0.11459108766860653 -0.10578007483418478
6994000.0 0.9962476799328759 -0.058752955274199235 0.0020568943636068097 0.003461219050878251 -0.0024779854131507244 -0.0026858855824312836 -0.13934484612756537 -0.016358819532445883
7993000.0 0.9956797284506141 -0.06790510036861194 0.0045920661957051245 0.0033624575408266887 -0.0006456409376285412 -0.002640158046727343 -0.16071175307272095 0.05139173614787471
8992000.0 0.9929355434219689 -0.07303773663887295 0.002316919976809516 0.0006268832343921725 0.002219229926220092 -0.002220094158942175 -0.15656960887605006 0.05404059937899195
9991000.0 0.9930213078323467 -0.08514361189323477 -0.0025203359942951595 0.0015844386589452517 0.0010836993110756364 -0.0011916137159642762 -0.13563257246881827 0.09615265069945166
10990000.0 0.9925477315571043 -0.09457949945863724 0.0022764102951238663 -0.0018043944638725961 -0.0011070962053255442 -0.0016685698463815596 -0.1384386889874239 0.11254196032344257
11989000.0 0.9907741457701745 -0.10096800993572681 0.0009913155528572808 -2.1873559585802055e-05 0.0021968577204958357 0.004513934758666527 -0.1299220065785772 0.12898170401881096
12988000.0 0.9890588711719706 -0.11245178926556565 -5.67186164730941e-06 -0.0020910454432607373 0.003075069674301137 -0.0005636327760293025 -0.11152573158173472 0.1583851068129793
13987000.0 0.9870172507401007 -0.11958075414318652 0.0014668078899632633 -0.005776665493080028 -0.005883882632092798 -0.0008919888553567914 -0.09161104486253055 0.17787009738805287
14986000.0 0.9874315584112918 -0.12645453563810008 -0.004525649784160912 -0.003451952720884846 -0.002810871871848925 -0.000474032553401684 -0.08926551531390683 0.19976190922070872
15985000.0 0.9901014737786236 -0.13551394882593357 -0.0017221526130464311 -0.0011611060285251081 -0.0019385922020953262 0.0015169919637806899 -0.0720569662959745 0.21000489243565448
16984000.0 0.9837087875489822 -0.14817314347718796 -0.0018371793646046878 -0.004548986762265935 0.00010913613840894666 -0.0008875940140116668 -0.06642430934621905 0.21253800738401543
17983000.0 0.9857486301767419 -0.1514122346102755 -0.006223712258711057 -0.004849570170032568 0.0009837432470761716 -0.0014347040330103037 -0.056385409688693065 0.21674012819846775
18982000.0 0.9817080715228453 -0.16382491370025457 -0.006210252340788563 -0.00045074545404160055 0.002133320521097452 -0.0032357812242586018 -0.026609704849698622 0.22939210830127077
19981000.0 0.9808211555573068 -0.16686935629176888 -0.005386102771969246 -0.009479846764704859 0.004083033752376757 -0.003832568362802179 -0.00952901878462852 0.2419977919735515
20980000.0 0.9805628103288244 -0.1775777471223179 -0.004057348624561684 -0.004847953555178453 -0.001421466435282808 -0.0005031740041112886 -0.01038500217574542 0.2575499686113984
21979000.0 0.9794435475745547 -0.18736517902633631 -0.007004606673249727 -0.0025165271473134173 0.0008250774549043691 -0.0003244045251141372 0.004442299481077788 0.24377457826623516
22978000.0 0.9753279232511451 -0.1977446338882759 -0.009613287251609537 -0.0025876646968534364 -0.0020455119962123633 -0.001334380716943749 0.02408606167847217 0.25312162537221283
23977000.0 0.9770505957111356 -0.2035475551278251 -0.005283825739717808 0.00033506161345574236 0.0018635810548874635 -0.0003519539990119861 0.04105563136810735 0.25078740727948456
24976000.0 0.9729514736763104 -0.21428710151359076 -0.007635922161277894 -0.0008010055272431883 -0.0008281867930118156 -0.00035283691189387224 0.047082353623847696 0.24686879331889838
25975000.0 0.9695470839393842 -0.22978153014251784 -0.000952533490715829 0.0007882951508139054 0.02248725412590436 -0.006226384642238006 0.07325598824667598 0.25874999517612146
26974000.0 0.9689517237042221 -0.2304940360955499 -0.005193845494117156 0.0003773311697367643 0.0015681236064715642 0.000858141698956306 0.08288051552260696 0.2600880308631424
27973000.0 0.9681631594862209 -0.2411509791451372 -0.0030772180495784425 -0.001071615560630139 0.002762286176245791 0.0003779268710443949 0.09703990938199351 0.25779723549552364
28972000.0 0.9630914473143848 -0.2478061366953682 -0.002967139223285026 -0.0036439631954979365 -0.002493934203284373 0.0011952093277281348 0.11379293011337366 0.24502211852853786
29971000.0 0.9628625405032338 -0.25850829963592714 -0.0001539930353518465 -0.0017840222703105824 0.00042723009767915536 0.0009042852786842542 0.1450274187051271 0.25470973040841555
30970000.0 0.96089485778939 -0.2638812632907232 0.00289284321237022 -0.0036536476282125986 -0.0031286028162485634 -8.105863917804695e-05 0.1722454551164188 0.24489240199266646
31969000.0 0.957834636862462 -0.27300958300315287 -0.00024455873589349254 -0.003182979259392555 -0.0005388384216604049 -0.0029486795907096323 0.14608333995377304 0.24549339717587187
32968000.0 0.958850603896132 -0.28068268806255786 0.007821106399804274 -0.01046845471860296 0.0007738639732075873 0.0006231735498305161 0.16207047761421672 0.23640380336597736
33967000.0 0.9557072855968884 -0.2903554485488908 0.010203669811219266 -0.00867102728140747 -0.00048235141175029917 1.5789830300966965e-05 0.18374995793237503 0.23966409139637587
34966000.0 0.9513363254618727 -0.3010381761615986 0.014429183767035702 -0.010398821494626847 0.0016838220446892213 3.215349948062303e-05 0.18771881105873012 0.24586649914068567
35965000.0 0.9483121200677815 -0.3080628710726911 0.016851441580444413 -0.012236875537524646 -0.004712666862510783 0.0019507929002056494 0.20457128293826407 0.25189183570134366
36964000.0 0.9465052216779546 -0.31597093992385755 0.016640939058277793 -0.01375216594535874 -0.0016074880836550968 -0.0016280772007822189 0.20240460078735686 0.2427587158643551
37963000.0 0.9431947501630715 -0.3247249345366338 0.02391439031079578 -0.02095113258783203 0.0008313046291003693 -0.0020342450392431335 0.22587327746041067 0.23956099789884902
38962000.0 0.9409312172288349 -0.3347750791580267 0.02430808762500662 -0.02435269412026111 0.001190285364473846 0.0009957695307566724 0.22572734162162467 0.2268383408606983
39961000.0 0.9366237481784168 -0.34371131507445857 0.02883849335340442 -0.02847672268372273 0.00025523524252107975 0.004523383844399588 0.25369901712294696 0.21526761112589762
40960000.0 0.934110924769583 -0.3511224379587759 0.024278550227475725 -0.02471988971621715 -0.002609715122621825 0.0014071745354997552 0.25676453599237226 0.22295685467063303
41959000.0 0.9311750551397782 -0.36029941694433987 0.03322830024819689 -0.03363336293958246 -0.001487794369327859 -0.0020717145481934326 0.2562904263108096 0.22103032000706024
42958000.0 0.9261907669646984 -0.36838398702623304 0.0319930909747878 -0.04328866725979159 0.000989522978061621 -0.002647178818419538 0.2727978906652028 0.21003962108520396
43957000.0 0.924217387984911 -0.3762201055809597 0.03637470489789855 -0.04771830479062301 0.0011359261425809733 0.0007610888329236676 0.2701316033152448 0.21287613751741932
44956000.0 0.9215237448089372 -0.3852154935024195 0.03830108344408104 -0.055797738823625646 -0.0015542273683385778 -0.0003355387803866174 0.29821352207199325 0.20765008077633104
45955000.0 0.9163302899603715 -0.3933857720992735 0.03894944503328082 -0.05930197088537139 -0.00015389900215241915 -0.0005655257994702714 0.2928494754975462 0.1941478657874252
46954000.0 0.9143671828003511 -0.4024818032442578 0.040252371223325666 -0.0695031291312095 -0.0006636385395969089 0.0003962624761173862 0.3159994352568424 0.17238361009781847
47953000.0 0.9084103518156663 -0.41282345849907487 0.041660450451610646 -0.07551027184131238 -0.002275097359621325 0.0004334208582533524 0.3226083709206689 0.17108973675797198
48952000.0 0.9041856789088922 -0.42288237503597326 0.04218002119528144 -0.08157350635700054 0.001058189978358529 -0.0011167753642526215 0.3257779481494561 0.1686517113952014
49951000.0 0.9007245279249507 -0.42600669068850855 0.043863118331308515 -0.09004377892433006 0.0005123643151748924 0.0032177108375109416 0.348521856513726 0.15422054741903157
50950000.0 0.8970651801720388 -0.4354283370508947 0.04590664817450203 -0.09787944678727241 0.0010400114514492677 0.002217234571838169 0.3498716801891035 0.1478570097717849
51949000.0 0.8928804718621255 -0.4440210035767093 0.04360055480974807 -0.10796551653732851 -0.0020932137514536875 -0.0004320199481808454 0.35120207549482024 0.1501047707041004
52948000.0 0.8906643554267697 -0.4515113353751119 0.045785979266734854 -0.11820357161048953 0.0009016575612310744 0.0024331461809712195 0.36343039850290876 0.14149862956586168
53947000.0 0.8845863265526784 -0.4591871762364864 0.04886496669426477 -0.12510270109305552 0.0025927266746516237 -0.00445235313569689 0.37315742732073726 0.13508003360737184
54946000.0 0.8809135850574618 -0.4665037978732974 0.04916157494226492 -0.1357592680402928 -0.0011353066687791857 -0.002807254515327299 0.3839457705369542 0.12846692457899242
55945000.0 0.8769082408759382 -0.47733905510534896 0.051644118380364805 -0.14917262448721905 -0.0017905006935441422 0.001970959771943087 0.38128624666526795 0.1098657412420834
56944000.0 0.8705079277115636 -0.48597154807696236 0.05379545159423522 -0.15648008383104955 0.0034094823491029004 0.0015514005031763292 0.3918563487384112 0.1077526124342268
57943000.0 0.8670298882808144 -0.4947697541733514 0.05320120746621592 -0.17044254671042863 0.0010882766836115092 0.0009626567164137668 0.39715060924266904 0.08441858924423482
58942000.0 0.8619153802753551 -0.4991465309964498 0.058015809251029574 -0.1830910405165642 0.0007024765228605903 0.0017821882406675491 0.4032385838778261 0.08912410269419499
59941000.0 0.8577966215428383 -0.5113136433439777 0.058675755859138014 -0.19339508322653615 0.0013670785000620088 0.002701118346013038 0.41399741306956234 0.09479191955726077
60940000.0 0.8506978661591632 -0.5150774831005976 0.05801188954024746 -0.19541461872444477 0.002039080533710759 0.0022417357881654664 0.41296763440447015 0.07618199005661316
61939000.0 0.847487545453689 -0.5235371784151354 0.056831312112632586 -0.20672520319631213 0.0011368811211397568 0.0011915466881729853 0.41573576467347745 0.06477814407745083
62938000.0 0.8411024853416439 -0.5336024748978493 0.06097023565530519 -0.224130470978349 -0.0010663862432942885 0.001048435131098579 0.43451088930186926 0.05521321652275594
63937000.0 0.8352227506632247 -0.543592762795419 0.06354078467439472 -0.24715720098061517 -5.4479693741863765e-05 0.000271760679436159 0.4270841466716165 0.041194605018948616
64936000.0 0.8290642691367008 -0.5488388444532949 0.0589216631350514 -0.2606288155332014 0.001684310970652602 -0.0020099016940734412 0.421076306593023 0.0375253670247015
65935000.0 0.8272525034063377 -0.5578260685876442 0.06303564877224879 -0.27470578166203874 -0.0029629098078935994 -0.0006127532248604762 0.43584370196921646 0.028908937740062104
66934000.0 0.8213455814735866 -0.5648643280990718 0.06142208882013185 -0.2911876445256251 -0.0029558857694696283 0.004085721332818349 0.43364714178100666 0.011527639130520536
67933000.0 0.8174975422631645 -0.5704280472467018 0.06509816757827476 -0.30289909971967705 -0.0005272734136086069 0.0030726736648563134 0.4435133644917701 0.01731387411990378
68932000.0 0.8058100981984793 -0.5801876856478058 0.054664487784748764 -0.32220854346575145 -0.002290409606014891 -0.000281976061527771 0.45291065535784125 -0.006883375844798174
69931000.0 0.8047333403424657 -0.5885906466622259 0.05408019487195822 -0.34077968303855943 0.001706170217616114 0.002311221026604721 0.44351369336146085 -0.01023064522335272
70930000.0 0.7991642130957255 -0.5945533221369551 0.05650406827453478 -0.3538037392340374 -0.0037873011367826393 0.0024605865108597437 0.44685509660739897 -0.02840652381552725
71929000.0 0.7932121885562231 -0.6067816343190083 0.04855709474845832 -0.3771370607084369 -0.0009703788193467666 0.001430204169852394 0.4463994223579744 -0.02679367526986093
72928000.0 0.7869917796331822 -0.6122192870449253 0.04495773689952208 -0.39239672777166906 6.733894161133582e-05 0.001006957250011968 0.458373226239929 -0.05073433412284946
73927000.0 0.7806698887268765 -0.6180084933196036 0.037468920298311725 -0.41706144857847466 0.0019201943818182908 -0.004830318514604754 0.4508467843446571 -0.058294543429400804
74926000.0 0.775677308589264 -0.6302606850024169 0.02815640486934035 -0.43930187048603087 0.0021210911752818293 -0.00016848800066043316 0.46773390631532186 -0.061269539446691765
75925000.0 0.7675286059523188 -0.6340979549012047 0.016655228626019123 -0.46087190502287617 -0.00033804863535337123 -0.00329999122356359 0.47089800835406886 -0.0703100940133869
76924000.0 0.7630063928264921 -0.6421974828710441 0.007581139438305596 -0.4856710924619428 0.003940624352816434 -0.00328677680410308 0.4586247356629106 -0.07223385699327797
77923000.0 0.7558304106085425 -0.6521210325156841 -0.009823514677790426 -0.5126583968706796 -0.00015967271290072782 0.0028059418280444322 0.4648901509962338 -0.08826464410339471
78922000.0 0.7490058355475975 -0.6589916466698537 -0.023801666678783633 -0.536369002949986 -0.002269097121141699 -0.000885440316759099 0.45353365445535715 -0.09839792356228187
79921000.0 0.7411987440415742 -0.6636697329667771 -0.04000624591497885 -0.5652781910953226 0.0029325449075405926 0.0014712865932094044 0.46118322018928054 -0.10562023728360756
80920000.0 0.7363117336622254 -0.6723883631676922 -0.054924425356366685 -0.596481904445787 0.0024371897231823176 0.00033772095607986324 0.464298033683034 -0.13218055021094516
81919000.0 0.7303229196544311 -0.679004009140909 -0.07093376994486697 -0.6278860210224533 -0.0023013902854875537 -0.002476110515781458 0.46411362776570575 -0.14057898411624684
82918000.0 0.7217523255373988 -0.687812504857506 -0.0871009836614117 -0.6614628714797335 0.0008094246098970672 -0.0015695096276127076 0.462386492186894 -0.15357727385293515
83917000.0 0.7129304840411534 -0.6949782718400962 -0.10895464077300489 -0.6911511567486707 -7.136107625441105e-05 0.0033756289910788196 0.4781369715963963 -0.14257506490486674
84916000.0 0.707698540527485 -0.7018517829942925 -0.12313620025104706 -0.7263962152081562 0.0017241153762431456 -0.0022244782516136134 0.4591282587058331 -0.16561696863470712
85915000.0 0.7004397340711875 -0.7090772398648009 -0.1407933283377254 -0.7596288610851918 -0.0013949258550994353 -0.0016736999460103682 0.46195804163379806 -0.17489090024888684
86914000.0 0.6943373066617439 -0.7188664550942099 -0.16092635870132085 -0.7957805009241768 -0.0014380434254044469 0.001169542014743825 0.4545193890568138 -0.16152622766418065
87913000.0 0.686611148461036 -0.7243955289888371 -0.1790870509158829 -0.8312948065579696 0.0012565649217538893 0.001476908244143028 0.4594685287802365 -0.1698699901410634
88912000.0 0.6801321657325532 -0.7307198902698262 -0.19761572518783677 -0.8652208279274635 -0.0006979445276143157 -0.0012980434498726264 0.4547556911582443 -0.20260263616050875
89911000.0 0.6715144097156347 -0.7390421589742109 -0.21149178986950182 -0.9054583663514267 -0.003358867687694463 -0.003818401318976575 0.4674524544258726 -0.20495815465413314
90910000.0 0.6636499787016799 -0.7453469762421121 -0.23513560236084294 -0.9402975614173439 0.0020706671837855315 -0.003637164139682686 0.4563477946912058 -0.20710519308185657
91909000.0 0.6550400142629128 -0.7504652644409621 -0.25291845438440513 -0.9812342172309338 -0.0012911230533878939 -0.0014006676823252269 0.4593272139604727 -0.21914342179565896
92908000.0 0.6472981273501376 -0.7586966132480131 -0.27121327015016866 -1.0112299217094258 -0.000966334004983135 -0.0027769132640421547 0.455735630830634 -0.22915225442356893
93907000.0 0.6426051250844553 -0.7622381386477532 -0.29419667615922235 -1.0478541114166924 0.0020198140036922062 0.0008488472940487359 0.4570117282251848 -0.23461178360353044
94906000.0 0.6296517201205163 -0.7712263122321974 -0.31412462860613144 -1.0842230664526835 -0.002633912700168293 0.00347305140716232 0.44577614402638527 -0.2516692913745486
95905000.0 0.6212605545259319 -0.7774571753287325 -0.34285336416760165 -1.118921936542026 -0.0010139877323476698 0.0023689630286218974 0.45289326725871315 -0.2689141607292704
96904000.0 0.6114285144671197 -0.7883871939310857 -0.36782372825501913 -1.1634505746500698 -0.0033619655685750783 0.0016227225814092966 0.4444331074359489 -0.2664129961466338
97903000.0 0.601188031690652 -0.7918470591704686 -0.3903336238618443 -1.1953341970026123 0.0005092539509167423 0.001252502916921429 0.4437001605539127 -0.28355962979492
98902000.0 0.5990694209229632 -0.80029862377929 -0.4186606294775792 -1.2422218907705007 -0.00034867500170727744 -0.00211991444283335 0.4456130617276292 -0.28672967461134563
99901000.0 0.5872440020946461 -0.803915340589955 -0.45141440832264385 -1.276127980299279 -0.0018685539702170862 -0.0017373341756800748 0.45586515388054205 -0.3173037128044198
100900000.0 0.5784112765150732 -0.808246910104334 -0.4864317206752934 -1.3103015872774761 0.0002913442760790054 -0.000920279078288755 0.4618454630928601 -0.3115062635334025
101899000.0 0.5684159509371802 -0.8165811793876843 -0.5229786135608041 -1.3486014503251207 -0.0034466811385869003 -0.0009229034342174216 0.4484828627780672 -0.32316763707461377
102898000.0 0.5593680614591665 -0.8206339125654106 -0.5588744856128393 -1.3882893132005967 -0.0005641650511788293 -0.000841014708841878 0.45111569682262936 -0.32545534983809005
103897000.0 0.5507679420234187 -0.8298749122706917 -0.606129994914839 -1.4291069637240372 0.0023893767593705538 0.0001456577955513259 0.4616991938675659 -0.3301560400023598
104896000.0 0.544530986307036 -0.839470402744782 -0.6557776016298761 -1.4721473316677807 -0.0019582181890912083 0.0006359990666827652 0.4393942063197479 -0.3382284929786945
105895000.0 0.5287657888978463 -0.8392873777391378 -0.710226733077059 -1.5134317844104135 0.0001441355679366044 0.0006826877838723881 0.440294446781084 -0.3515198951108447
106894000.0 0.521192520404466 -0.8482490204246866 -0.7785582340943216 -1.5524708486087369 -0.0028831545159742457 -0.0013019162045543923 0.4326764674713616 -0.3749705849696796
107893000.0 0.5136114271821377 -0.8532603682053489 -0.8297643576697205 -1.5925459228672043 0.0011668302213392867 -9.920395240771006e-05 0.43049370086150035 -0.39004418871657226
108892000.0 0.5032005479259881 -0.8561080116159323 -0.8903949090366622 -1.632118303482194 -0.00027156996983970295 -0.000934816234553756 0.42269234509861275 -0.3747025819246983
109891000.0 0.4913645892255916 -0.8650313875392994 -0.9556882933795817 -1.6697209728566094 0.0019385428163292595 0.0019458278936633176 0.43756086069682354 -0.38167693276808723
110890000.0 0.4759993924279336 -0.8655809159681364 -1.0198493611902835 -1.6693154266883685 -0.0016425610248698053 0.0004373162836982576 0.4260237787174632 -0.373936360639473
111889000.0 0.47242259921951435 -0.870309971173879 -1.085371513680474 -1.742665368391464 0.001991015393385234 0.003609379379602959 0.41150699041864214 -0.40050153842475006
