! Created with skrf 1.9.0 (http://scikit-rf.org).
# Hz S RI R 50.0 
!freq ReS11 ImS11 ReS21 ImS21 ReS12 ImS12 ReS22 ImS22
1000000.0 0.9919488305912039 0.006486978177489617 -0.011149958859873507 -0.02935057273756559 -0.015624466312675382 0.01603088610913546 0.3705811596183462 0.3470355558165789
1999000.0 0.9934783297896791 -0.011670685167110265 0.007424201731597813 -0.022288269737845062 -0.012215929728606877 0.0010202567732383431 0.2628210898671465 -0.05488883383061925
2998000.0 0.9994246733688992 -0.02168130140533946 0.010499792173087644 -0.020918334561383405 -0.004158528129326594 -0.0057143466036984015 0.19526512974423565 -0.15632040382165988
3997000.0 1.0022426156817223 -0.03134450822870491 0.011940319484108316 -0.010861187158751263 -0.002425571042989125 -0.003704381546751448 0.09836126571563483 -0.23558018775616144
4996000.0 0.9985809565727065 -0.034023629003211285 0.01198570572269497 -0.007294413832917422 0.00043367002696272013 -0.002626493853736984 -0.05284623015318057 -0.20389105983639172
5995000.0 1.0007081576324823 -0.047958996961600615 0.009763822594227476 0.0019092938796720247 0.004420397798645239 -0.004855479867184327 -0.13125696615417914 -0.10805200838948188
6994000.0 0.9962764304112862 -0.061174793217431675 0.004075224281191917 0.0026522782434887614 -0.0012027211231438997 -0.0025813777159577936 -0.14533124905690364 -0.03271125218636926
7993000.0 0.9992158583662784 -0.06878386624486506 0.0016542078491013823 0.003753166759147717 0.007638991778637619 -0.0015852965524490578 -0.16335691552578438 0.03802853255993122
8992000.0 0.9979623684731583 -0.07410824831153504 0.0016085623922415383 0.006912742212347151 0.002227303137053106 0.004140264879759915 -0.1553489411530613 0.06195231481641901
9991000.0 0.9977502876849461 -0.08337736773379932 -0.0008634495448074455 0.0035120599889392284 -0.006269276835020081 -0.0031283039199989197 -0.15550056988118427 0.09843938185054255
10990000.0 0.9980543131981855 -0.09110694685092934 0.0004631020014825185 -0.000780702760566328 0.0002517972497670655 0.0009276680701866061 -0.1348326894221906 0.11302435971143165
11989000.0 0.995540157731156 -0.10187706449257819 0.0025335992730560267 -0.00031498685710037755 0.004181238506032578 -0.0028734841309063196 -0.12567441080058614 0.13367767580237744
12988000.0 0.9917716174199014 -0.11035948029196511 0.00025652294215344106 -0.0008277157004708455 -0.0033012051729029877 -0.0012416752670881999 -0.1212555966141548 0.1604890072208853
13987000.0 0.9922885278798675 -0.11498819316784402 0.0037760166048059454 -0.004952704799645319 0.0009835940255417802 0.0021571104191993777 -0.10359648311130322 0.18525022157063528
14986000.0 0.9924802081372769 -0.12448476350858219 0.0013203399742550029 -0.004659854946496114 0.003592366431697842 0.00016990857445848293 -0.07844426619900624 0.19637601587907688
15985000.0 0.9930629893676279 -0.13538811496298442 -0.001684397670838999 -0.00658135060343788 -0.00454084277863218 0.0005642842118507093 -0.06599954161858544 0.21759164180736953
16984000.0 0.990612953402083 -0.14471657747819602 -0.0005679289156824825 -0.00620342984014712 0.0020371526212526847 0.005691509843988968 -0.061653855680541395 0.22259509916351028
17983000.0 0.9897437732134928 -0.1503348889483675 -0.002556209315709522 -0.006381194651793648 -0.004644889296808403 -0.0014457697802190861 -0.05227643109034126 0.22998008828432692
18982000.0 0.9867465970581657 -0.16232021285141868 0.0007946605177314293 -0.002609566071319678 6.554975747239537e-05 -0.004379911596043976 -0.01455801235292439 0.2428184127909828
19981000.0 0.9855030708003872 -0.16698717077370584 -0.0036149417770093145 -0.005364952400994135 0.004316486886028082 0.002737142275868683 -0.01960639401032598 0.23821458304207965
20980000.0 0.9870381525837028 -0.1750393653243493 -0.008458184326811917 -0.0060734980914521775 0.0012502312109071477 -0.004081459775787781 0.00591956476197847 0.2661117360171076
21979000.0 0.9814984240761047 -0.1838900166216835 -0.004576220477186969 -0.006878562179131236 0.002144692570306688 0.00260821289517771 0.024401804830761233 0.23791176205528689
22978000.0 0.9820277362280732 -0.1928566826396378 -0.004519044106069787 -0.004251136977491542 0.0027607592574872743 0.0025426164607738845 0.03527475657130506 0.2539060381422332
23977000.0 0.9816948871349173 -0.2011883882264625 -0.0020683471904173424 -0.006038853055837067 0.005955530857626654 0.0001999888027876049 0.037561841432110374 0.25078997445368306
24976000.0 0.9773343758739199 -0.2112752543866301 -0.00418278675803677 -0.00045268982953922224 -0.005965924617940358 0.001312461397357343 0.07109444305464832 0.2467828318202856
25975000.0 0.9692303943586779 -0.21764605126517184 -0.0025578146068532992 -0.0035019461535363305 -0.02469704996515292 -0.009813590710251782 0.08259137315215094 0.25542175901330755
26974000.0 0.9752949518656423 -0.22778129398700506 -0.0013172777133058527 -0.0026634262898994794 0.0031695470072416717 0.0008263995252965504 0.09002325100971792 0.2668781933640351
27973000.0 0.9720667176899559 -0.234127282193843 -0.00027797999246213946 0.0012495559837505275 -0.00013818373688103918 -0.0013016744623178989 0.10207764709641268 0.2590962743233878
28972000.0 0.9697029938507493 -0.24666375047398756 -0.002621762307276402 -0.004805115622692623 0.0026423171613039792 -0.0029268622119222633 0.11755593211016288 0.2506289659690411
29971000.0 0.9680537502293511 -0.25142217641228304 -0.0005089929760992976 -0.0032283502327513317 0.0010443282274984996 0.002591959563968898 0.14614611933260307 0.2725403090444064
30970000.0 0.9659665245215749 -0.26055390315961424 0.0003372863856285516 -0.0005728935984505569 0.0010398471687073825 -0.0019096876335493302 0.16801860769798693 0.2517119220005878
31969000.0 0.9614536937615956 -0.26818633913416234 0.007137112337941195 -0.005192567140837716 -0.001361595268762505 9.741721289157199e-05 0.15591872918161528 0.2487382148190947
32968000.0 0.9606698083533481 -0.27927060638803597 0.009702782630959854 -0.009334692978070769 -0.0017646159345126808 0.0012113812898356727 0.16602028194838636 0.24030970452268108
33967000.0 0.9582395614765812 -0.28775753597633097 0.01193342283460172 -0.007222555767559449 0.0027249311593257786 -0.0026893254725740188 0.19336637942637055 0.23917182937281073
34966000.0 0.954694045051333 -0.2950099394741187 0.015283961324344371 -0.01638758653877823 0.0014977536856148946 -0.000518060194622207 0.20131238808255533 0.25409308485178933
35965000.0 0.9520544163362338 -0.30136879303715813 0.01850597508342665 -0.01576901165360696 -0.0011851325334728705 0.0022117339926637147 0.21910648052294848 0.2533142394849662
36964000.0 0.9510548891341916 -0.3118831037166818 0.016770482497498955 -0.016025081080951856 -0.0003090436574087914 -0.00010357351481922185 0.21388938625066753 0.24948423678924636
37963000.0 0.9483239615254235 -0.31896615233395387 0.02217403667885216 -0.0246042829112112 -0.002793487851231609 0.0003598435677768982 0.2274490537430862 0.23739286354980152
38962000.0 0.9462118547809635 -0.3275817896342362 0.02163317472640821 -0.02518816249424902 -0.002329387070253206 0.00029167439359872665 0.24169957158100586 0.22382189828870236
39961000.0 0.9414580695108803 -0.33841802869357696 0.028237827514186003 -0.02951378675753215 -0.00032551578536518685 0.002101772634054903 0.25511591044946774 0.23065346831456746
40960000.0 0.9398514005974874 -0.34579828694332965 0.024043755723824133 -0.025205726021939427 -0.00038963643476006726 -0.0011232024809216118 0.27359089251830326 0.2268509222441871
41959000.0 0.9358476981813888 -0.35573334588789435 0.030602443301595977 -0.034008739723527005 0.0009076782798668099 -0.003688336125449256 0.27226550104675135 0.20944076615778845
42958000.0 0.9301684773727046 -0.3644466305992474 0.032365022921623 -0.0420365601856624 -0.002435032418014964 0.0003010959689886237 0.2857459537703188 0.19561665087075497
43957000.0 0.9286952828440305 -0.3689138656492138 0.03252776876481459 -0.04696336566764304 0.00022580684488355139 -0.0009883375546526278 0.2877085028421691 0.20570833993136392
44956000.0 0.9254444654989078 -0.3772051000071991 0.03583282996437258 -0.052724441577264365 -0.003884457090017672 0.0007183376253457964 0.29994798670704764 0.19693392640778976
45955000.0 0.921253164054178 -0.3862541219523304 0.03669911609472808 -0.05912964168939019 -0.0014116481742483095 0.0006871120736258492 0.3074281097659056 0.18401049790368557
46954000.0 0.9180668905548242 -0.3964138598951814 0.03735059097940189 -0.06654299713290214 0.0017821551005875811 -0.0017069208778234771 0.33565087538516786 0.17263305688705885
47953000.0 0.9165525649297533 -0.40272748772673844 0.04034090897591746 -0.07370674777282431 -0.0008158240431185585 0.002791872498960812 0.34186050040304106 0.16747782558052982
48952000.0 0.9101002420705008 -0.41381160222040153 0.04029655004192249 -0.08127566687772446 -0.002756241297194226 -0.0011848113664803745 0.3495826371481289 0.163827053310983
49951000.0 0.9081520984381092 -0.4166746267670484 0.038380291216813675 -0.09150937381275526 -0.003440332625957796 -0.0008369330404126341 0.3569366229002536 0.15394336842671139
50950000.0 0.9031674585762351 -0.42861190171172864 0.0397953105881483 -0.09884345083232786 0.0008835726969583292 0.0013830646840787256 0.35003039315944984 0.1448343109682266
51949000.0 0.9006163524276536 -0.4343951158449051 0.043180329800071776 -0.10480173916494437 0.0007401651035224254 0.0009175649504599864 0.36719204562554786 0.15014217746964234
52948000.0 0.8980907343973178 -0.4420882455242238 0.044377307463365316 -0.11478208609056528 -0.0005527930225235251 -0.0009197996260394464 0.38333167000054785 0.1356361181971495
53947000.0 0.8925591523542715 -0.45023127572573657 0.04406606491278584 -0.12472451048652045 -0.004541328247929487 -0.0008241600141348165 0.3838583346202134 0.11910746629660261
54946000.0 0.8878396552123433 -0.4591675577362007 0.04764100213522114 -0.13338069901317004 -0.0001953415811574369 0.004784682211724401 0.393676561186614 0.1202938379522499
55945000.0 0.8832503936970855 -0.4691659435156643 0.047700708014110874 -0.14483581939973458 -0.0009712248584429379 0.002153268052951953 0.39490957771555935 0.10351232692543713
56944000.0 0.8812755586752249 -0.475477116461634 0.04994316663144841 -0.1538687493018429 -0.001975780612916877 -0.0006445560471966806 0.4062008979306093 0.09580042557763878
57943000.0 0.8778041977754737 -0.48612472327146355 0.055510256348693346 -0.16643724805494214 -7.623820400967474e-05 0.0009256746015230942 0.403960987423544 0.09474026256288987
58942000.0 0.8705133127804158 -0.4886060396649492 0.0547440610158733 -0.17736687710161764 0.001926118952764044 0.0011946021019164257 0.43215160528915464 0.08749090888067541
59941000.0 0.8668530911542734 -0.5002448739330377 0.053907913134934746 -0.18832738211541708 -0.0009118805293425085 -0.00023572319939926624 0.42038707453940977 0.08439143561076988
60940000.0 0.8595177490292266 -0.5068523839390827 0.055248409438469384 -0.19113835013036826 -0.0015885221112238229 -0.001366768282318919 0.4153885823104269 0.07372784609592015
61939000.0 0.8574046711289394 -0.5123001315159653 0.05557402398044277 -0.20412396651638234 0.00038087260157279937 -0.00029190085730632526 0.41827259199900424 0.07105909056042431
62938000.0 0.8505304914304366 -0.5242199967075847 0.05776539568255508 -0.2209040577342296 -0.0004305446346277055 -0.0016344245725741814 0.44769011499804595 0.05305692871846645
63937000.0 0.8453678519195661 -0.5311974774854438 0.05927222032126949 -0.24046085605652512 -0.0023304175743431347 0.0008449362922928927 0.43728244574028335 0.03034447258714164
64936000.0 0.8410608585527167 -0.5355063764294195 0.059258282074620826 -0.25241864781549855 -0.0032319130635082606 0.0005484559498716851 0.44209232097065837 0.0449757024262701
65935000.0 0.8357719959197782 -0.548184802220264 0.0587372933689053 -0.26743347801959116 -0.0009554816786506103 0.0004980245560210981 0.45071524015330233 0.016781454825688713
66934000.0 0.8336374446455128 -0.5503689072603025 0.06015831151362929 -0.28332606162201024 -0.0022337928895699603 0.0034414038896221828 0.4501075044435746 0.0016044614602573647
67933000.0 0.8301078164040736 -0.5612986902254992 0.05784577676346851 -0.2967618218852131 0.0006755252407850956 0.00140170218095116 0.44879428820128786 -0.00916152886037122
68932000.0 0.8204801186007447 -0.5526062493954513 0.0560020222823778 -0.3088575891992522 -9.854572521866496e-05 -0.0008367429504615664 0.45862244848883704 -0.0045919804566252375
69931000.0 0.815250481700257 -0.5772389145644106 0.05334128974102577 -0.32895056600334943 0.0038961165122631688 0.0005375815783993024 0.4535102779914611 -0.015040181191317612
70930000.0 0.8095659137261423 -0.5863154866432887 0.0488746418577199 -0.34622570823745835 -0.0034677175067612718 -0.0006891597900236103 0.45621189720479116 -0.030798934405187807
71929000.0 0.8064470065502373 -0.5949911465813266 0.048097747538834223 -0.35945220327406613 0.0009592508669104343 -0.0032129374002959625 0.45851945155891427 -0.044035461741674733
72928000.0 0.8001724076113382 -0.6014201955226265 0.043060325939940094 -0.381662166594013 0.0005283202248127868 0.0016072947062697512 0.47362805562958243 -0.05230109794431849
73927000.0 0.794181104063033 -0.6078161554699102 0.03319381397700835 -0.40363924014801217 -0.0006899488381730133 -0.002309288831097727 0.4670803726472458 -0.06481778163212652
74926000.0 0.7888646212736583 -0.616980033718894 0.029459564078511996 -0.4175919817381484 0.0016767865997271087 -0.001495875994518129 0.4637696917740431 -0.05736424583282789
75925000.0 0.7811114618182652 -0.6227869962042663 0.020043945596977645 -0.44205905918838745 0.004127415065503392 -0.00035285433000691144 0.4790145242257027 -0.08158446156483276
76924000.0 0.7791892077540471 -0.6298578989959721 0.012532253422840239 -0.46661512098991786 -0.00010933438915358324 0.0031013901846432116 0.47128205902028536 -0.08163041941948018
77923000.0 0.7706610003297093 -0.6377917342054629 -0.0019270616400924613 -0.4921651340106136 0.001744511438914014 0.0005856427164467739 0.4682976445989763 -0.09274344399498458
78922000.0 0.765409738763929 -0.6470120717153073 -0.020147328820841626 -0.516225283952457 0.0032778884444309778 -0.0028041610957229017 0.4712862996098555 -0.10666309563316402
79921000.0 0.7553963707526847 -0.6520804468213048 -0.03181276211817807 -0.5447825397572982 -0.0034444631230219048 0.0014363754803818484 0.46591545969485015 -0.11978272271632694
80920000.0 0.7518699225883602 -0.6605659462422909 -0.050686412933079836 -0.5709798695346336 0.002105528481925604 -0.0019262207549499775 0.4758959710721462 -0.12725866114846165
81919000.0 0.748747866901793 -0.6666278257768833 -0.06651557374613663 -0.6023691983976458 -0.002455593543537862 -0.00047479636260629247 0.4683632628550179 -0.13445687618266822
82918000.0 0.7361161146400313 -0.6762948704731274 -0.08161335080146326 -0.6285676020890333 -0.002664995966218678 0.00021718494492522827 0.47706351133783714 -0.1501131477886376
83917000.0 0.7290432501652476 -0.6834332826242019 -0.10708399751568713 -0.6592241342958101 -0.0004049304921759261 -0.0016660635322613487 0.48194420774351493 -0.1589985133467471
84916000.0 0.7248582757977201 -0.6901371115456378 -0.12048364380965831 -0.7003399868237907 0.0022896637861362073 -0.0036334825943516516 0.4721231797036547 -0.17094801006010743
85915000.0 0.719444258602773 -0.6957734834581627 -0.14091574810058224 -0.7302423846841904 0.0035240883490823636 -0.00025391843301135816 0.47187548047251443 -0.18717044041683947
86914000.0 0.7092754566197671 -0.7070146303937569 -0.15435278063498417 -0.7681132574739538 -0.003948356891730559 0.0012069778111977868 0.4734988859930259 -0.18293916909006525
87913000.0 0.7053963359854605 -0.7120416579472633 -0.1748636486031868 -0.7945112397280364 0.003095389291609214 0.000257086720514108 0.47270248791727065 -0.18378904404458546
88912000.0 0.6968406039470819 -0.7190272058132892 -0.1918217453209286 -0.8350858488509026 0.0022157105112914108 0.002648293004475289 0.47234787198051714 -0.20395621672181746
89911000.0 0.690236083723875 -0.7267474966723502 -0.20953228930214454 -0.8728512332355397 0.0014881928249499837 -0.0007718119738429738 0.4705169769384012 -0.20972245798375538
90910000.0 0.6820544361920561 -0.7337043817040596 -0.22756372118156026 -0.9063195834814566 -0.0017789975743285706 4.0871625537303436e-05 0.4698035159874202 -0.21745522071419174
91909000.0 0.6742701880149587 -0.7372370382416175 -0.2467698141423242 -0.9438135477254832 -0.0004625281245864374 0.0004977778369700212 0.4739625145633036 -0.2347028035811038
92908000.0 0.6665529826885686 -0.7457171586593492 -0.2674423341835354 -0.9766372158721283 0.0001241301283129951 -0.0008087859585809087 0.4619889392115341 -0.2397129769666245
93907000.0 0.6600940145250875 -0.7527267772127902 -0.28789096912290135 -1.011456989311694 -0.002852903686693432 0.004455741345999678 0.4668520359025341 -0.25353916538408616
94906000.0 0.6478287563170433 -0.7608407419780522 -0.3079343025427043 -1.0436857700469706 -0.00331698705290518 -0.0027269172606735623 0.45845729409117786 -0.2563608324112621
95905000.0 0.6418719269857788 -0.7668099038011724 -0.33167670457719456 -1.077231920846116 0.0017235551560623528 -0.0017211006488032244 0.4704969280442476 -0.26782019305109556
96904000.0 0.6321172225730064 -0.7745891416438707 -0.34837801509320854 -1.121004584254996 -0.0015864644980153144 -0.0021337050443154073 0.45651950016235576 -0.2763395379266472
97903000.0 0.6226365569247666 -0.7804470967707369 -0.3782265473954842 -1.1540552788498875 -0.0009134059045206356 -0.0016713081232336661 0.449184715399589 -0.2861994510501204
98902000.0 0.6195670711914217 -0.7873192993952858 -0.3937914535171349 -1.198806711114374 0.004221806346903716 0.0004997364468522428 0.4633724362111004 -0.2913590550588564
99901000.0 0.6075074736170795 -0.7939310374361199 -0.43080372757445284 -1.2246617664110189 -0.0026109284496326876 -0.0002933919398325215 0.46338848579210473 -0.327821343721394
100900000.0 0.6017809045890239 -0.7964656920552299 -0.4617763866649347 -1.2607186724815638 -0.0012374526145404994 0.0019193985640733615 0.4667502628181715 -0.3139077557359293
101899000.0 0.5891842473157205 -0.8054895251292891 -0.4909093439441341 -1.2970972891612023 0.003914030367464088 0.004128197677518476 0.44730337366865913 -0.31448297581051327
102898000.0 0.5824126785786354 -0.8098544785693657 -0.5252944139730509 -1.3420659667682917 0.0004406773430007003 0.0008342828612310355 0.44985108905748117 -0.34112763789936196
103897000.0 0.5725619264387585 -0.8177142495405946 -0.5712349467889426 -1.3711358947631829 -6.204999504878033e-05 0.0031862208458006244 0.46326040681911773 -0.3456535144299644
104896000.0 0.5649648177645705 -0.8271465776228816 -0.6143801407661051 -1.4099496575612978 0.0006990670805132866 -0.0005928957702940966 0.4431035428531562 -0.35040292781165683
105895000.0 0.5549851791569977 -0.8298562695045902 -0.6698852427347113 -1.454843791809367 0.0007569063156849804 0.002704638753138058 0.44650601808946033 -0.3639096629740608
106894000.0 0.5469846636547824 -0.8360221884235277 -0.7214848939961528 -1.4947682691612638 -0.0008992744034265326 -0.0003032653401805982 0.43445610776661414 -0.3673337458188182
107893000.0 0.5392299214795624 -0.8430392976078548 -0.7797019178564311 -1.5337909581334752 0.0033988633004786483 0.0011890500677382732 0.4416834397391012 -0.3900555949518424
108892000.0 0.5286463920443017 -0.8451624369105282 -0.8367633551415493 -1.568926111987514 -0.0017879645154543213 0.0004945491080218361 0.4375435340725551 -0.3882349281560057
109891000.0 0.5150996087359119 -0.8533844268330132 -0.893043308691818 -1.6036693494922107 0.0009302483274654451 -0.002394370770259223 0.4348357219448554 -0.38118556571005724
110890000.0 0.49759053639771317 -0.859088096514226 -0.9679383232734058 -1.5954878836389412 0.0005726440198461995 0.0016427892793265924 0.4273987289427282 -0.3989421404554054
111889000.0 0.49377692568349957 -0.8602772170309706 -1.026121264701134 -1.6701789757472536 -0.0010112613037846082 -0.0018344895547175663 0.4280661826714506 -0.3978485392119623
