! Created with skrf 1.9.0 (http://scikit-rf.org).
# Hz S RI R 50.0 
!freq ReS11 ImS11 ReS21 ImS21 ReS12 ImS12 ReS22 ImS22
1000000.0 0.9732623418348835 0.004009942110113092 -0.00834552579646458 -0.03328207535198104 -0.006544629105932358 -0.00018797309047845177 0.319702572386095 0.3039117323627268
1999000.0 0.9949318915607035 -0.013942710346285575 0.0015233885676848094 -0.022533472945692308 -0.0051588897729750215 -0.0041530862436980195 0.26059696553286266 -0.060436940329768526
2998000.0 0.9979340937496791 -0.023435898638769097 0.009863139259618216 -0.013922432132187891 -0.001410423451496256 -0.0018516714159832431 0.1952843222396713 -0.123130237201884
3997000.0 0.9939811282625081 -0.034076275926244175 0.011802979889152177 -0.009016689229216526 -0.0013369318736968436 -0.0002496138151814671 0.08945551068609041 -0.20851201216690313
4996000.0 0.9942722498930399 -0.04176360715829472 0.007879678977020816 -0.0055445556634951525 -0.0036226635070460583 -0.005765852829609576 -0.05170933875974581 -0.18942085718769158
5995000.0 0.9914893452027519 -0.05107731355678566 0.005197489398555315 0.0055652800051664165 -0.0028079136074074386 -0.00202725768330919 -0.12733015598157763 -0.07975649214544926
6994000.0 0.9888829880206094 -0.05708334825534854 0.007317274052028306 0.005239682235833893 0.0022690558448042117 0.00010702577451812338 -0.14353899926964545 -0.00863804392060612
7993000.0 0.9951767331503519 -0.06781892051067431 -0.00019715731984828983 0.005823699822415235 0.0018563156164011706 0.0010931407969722567 -0.1606148558545407 0.04311491609310073
8992000.0 0.9919843353519555 -0.07326562261374076 0.003684067907460941 0.0036729562345903825 0.0007873094002860784 -0.00024838105508708907 -0.1471112206878615 0.07776527345729141
9991000.0 0.9874009229030799 -0.08658602339376799 -0.0014756949750890675 0.005184811650677089 -0.0003426910873078109 -0.0007311671639514388 -0.13435412725319668 0.09790719093571135
10990000.0 0.9882040238015319 -0.09573743077533105 0.00027745252679976085 0.0003024074173138417 -0.0026732446170572494 -0.0013017737157718467 -0.13310564588142043 0.11675433818274121
11989000.0 0.9875636615483134 -0.1008468486334019 0.0014338030174523555 0.0011514159304719213 0.003189762170866874 -0.0026502333442560574 -0.12446574611728259 0.12973598100938752
12988000.0 0.9848876286304061 -0.1102752322000507 0.001835956381997223 -0.0029698022082798154 -0.0034858969901126378 -0.0015657195396442025 -0.10758741922801505 0.17230557278235473
13987000.0 0.9842917129677973 -0.11676955513711322 0.004526402621884685 -0.005673145222607602 0.0014846017725032895 0.002423250496766707 -0.09009578272622319 0.19007391068834034
14986000.0 0.9821103348399024 -0.1268812037799724 -0.0023773284046789385 -0.0009456127702028418 -0.005127965152661759 0.00013003000411700524 -0.09378412745558502 0.21067659891272827
15985000.0 0.9833727446515295 -0.13797105369430926 -0.0009389373757912162 -0.003106480590576143 0.0017378312103870097 0.0031244016058606834 -0.0701689455399366 0.22025579689890895
16984000.0 0.9806314764179037 -0.14739704992448982 -0.0023302415728729885 -0.003950309344805091 0.00042478194685288115 0.004689074507543772 -0.06787823147444375 0.22510846199532758
17983000.0 0.9828654164150777 -0.1531093142797521 -0.0027974270985821536 -0.005588918122948146 0.0028241845405950847 0.0008406218199908504 -0.06263081790954667 0.22617935816732082
18982000.0 0.9794152483149509 -0.16367375240448045 -0.0038023459246979796 -0.004159239087974225 -0.00250150114183926 -0.0016872008015576792 -0.021635548177970598 0.2445393229219561
19981000.0 0.9765391840484721 -0.1662148030108762 -0.00342141390595576 -0.006741255469994632 -9.207807431814041e-05 -0.0012599655264216014 -0.013303592117033384 0.2413285479726833
20980000.0 0.9777390736851013 -0.17667424097021125 -0.003430045128368503 -0.0038561631131677375 -0.0007985313405253091 0.0010391633055082596 -0.007894671149512313 0.2636595439959714
21979000.0 0.973790060595401 -0.18607040878550657 -0.007251267506429796 -0.0033467753768658287 0.0021423976399368274 0.00398525942477941 0.01832920691138237 0.24898127690131586
22978000.0 0.9708902977132291 -0.19602339927752827 -0.009727630418316825 -0.005596913038670269 0.002555566367871607 0.0003082647152035486 0.02429463292518218 0.26194473752354835
23977000.0 0.972870560676426 -0.20141056680109048 -0.0024180195182142575 -0.004145542189911338 -0.0024736260452782968 -0.006175272795643999 0.042157681747455544 0.2598439921750939
24976000.0 0.969199636571892 -0.2132125377221341 -0.011111089079676858 -0.00382868193166861 0.0004959247877557841 -0.0002477700646292455 0.06418031435257111 0.25421674509670905
25975000.0 0.9625975968215577 -0.22389517177769117 -0.004287554799624966 -0.005772873124087599 -0.008587941479318949 -0.024642517168629367 0.08436865070957486 0.2544297862661637
26974000.0 0.9656674297662645 -0.22795115695388884 -0.0038729210880325414 -0.0011156828638429633 -0.0028143111423533313 -0.0017516729429393745 0.08099832333090193 0.261993386830799
27973000.0 0.9645365622730139 -0.2381145678335459 -0.00385591758599738 -0.001616322154675899 -0.0039423009999859605 -0.0024021907478819623 0.09462360461263558 0.26637372844203616
28972000.0 0.9628782871609359 -0.24536376904307225 -0.0027982455910054464 -0.0013969770541131235 0.004152240914598075 0.0005914580686352554 0.1230244415252295 0.26330727310958457
29971000.0 0.9599010223250461 -0.253549100902234 -0.0005497738946928625 -0.0061993170126573805 0.0003377807358088662 -0.0004597888337502564 0.14974916105216435 0.2714626608747011
30970000.0 0.9595134032923005 -0.25993040091999053 0.002323971427920842 -0.001714493031163312 0.0025400736373825815 0.005087881359817072 0.172009272396013 0.25421843543259054
31969000.0 0.9571064284840481 -0.2705837203612031 0.006034417380924667 -0.002342188797534109 0.0009792120488752068 -0.0006963795102870416 0.14753485629089075 0.25150513638537525
32968000.0 0.955835365569174 -0.2789038418545781 0.010410475293670868 -0.00791817877832197 -0.0014928281765592625 -0.002976976003307844 0.163423576192833 0.2534588553224079
33967000.0 0.9518046810419494 -0.2899724319855822 0.010863424252223261 -0.009891272375999334 -0.003481325397114481 -0.0032743278623567464 0.18451121371172008 0.24515761873665676
34966000.0 0.9484587294415475 -0.29962421889781443 0.010722293474806953 -0.010180884321615298 0.0038333967843455262 -4.6637596093486286e-05 0.19420479281441422 0.2547396615231135
35965000.0 0.9471430151656487 -0.3055655191295703 0.017882639846149715 -0.01311697791043724 -0.0002242046595845615 0.00030726126095811506 0.20690883865284881 0.2501937952774396
36964000.0 0.9442913014452989 -0.314791821098871 0.011743329761464227 -0.014645143647076614 -0.002232023668849296 -0.006117314708113073 0.21384331025237208 0.24186157386056126
37963000.0 0.9419446236883829 -0.32323020185241136 0.023093360390582584 -0.01660409753044927 0.00029124991962187224 0.0030164712300627455 0.2216368828815437 0.23370050466259776
38962000.0 0.9382231938593982 -0.33293991556025543 0.021264661301233077 -0.02368883113608268 -0.0007663433757496628 0.0018895702214010495 0.24084305726783334 0.23714373078553677
39961000.0 0.9340982750323343 -0.34269987481996184 0.024995758601568187 -0.023042263564635526 -0.0005578785603601888 0.00040334949003493624 0.24625383504323298 0.23307807458982538
40960000.0 0.9309194783241581 -0.34832565935009313 0.021708479630070852 -0.023159338395575955 -0.0040556100951364 0.003329775927405284 0.26714343162382853 0.2350262522724745
41959000.0 0.9285593821973555 -0.3593763085767699 0.029021692473599103 -0.0294688364165917 0.0025015518923491033 1.3813765910226356e-05 0.2661336374960676 0.21282719142325693
42958000.0 0.9231750755408527 -0.3669816168054483 0.027953837744058855 -0.03763588866532622 0.00011829307793451843 -0.0007865259758419095 0.2779707182664261 0.209646109194631
43957000.0 0.9219594584216412 -0.3728906012503855 0.03032134565667494 -0.043253028100798216 -0.0017137996969933777 -0.0003996054928168606 0.2844209125855156 0.21161420186987095
44956000.0 0.9181414647742997 -0.3809747285045339 0.03253853015478524 -0.05061460639544806 -0.0003528048385164213 -0.0022747601949498772 0.2960736452679014 0.19340805787706175
45955000.0 0.9130541453261084 -0.3943292429972822 0.030943049961100585 -0.057645177163096945 -0.001661245729129101 -0.0005690551305236793 0.3052660070397929 0.1976896600305163
46954000.0 0.9123171887689675 -0.40172676386032363 0.03533231609424383 -0.0630582500457033 0.003116436137447395 0.0005426674740833117 0.3276927372370103 0.17376946211033667
47953000.0 0.908168615180654 -0.4086743298677485 0.03456212061102886 -0.07017119122623396 -0.0009041766896351111 -0.0005192092509273038 0.33366809755325433 0.17993178515257371
48952000.0 0.9020931766091741 -0.419221006558795 0.03522873051785524 -0.0775976969528757 -0.000982882487499357 -0.0006177695054525397 0.34349826038466863 0.16450876747974985
49951000.0 0.8979336827806352 -0.42783907066560134 0.036299845019656836 -0.0856516436050056 -0.0027551718884075652 -0.0008694829604642588 0.3519422510118473 0.16270098004226619
50950000.0 0.8947838488975802 -0.4354769643701402 0.04003948705508545 -0.09341426256164337 0.0002947609297861568 -7.794744342190015e-05 0.3483743888923408 0.1406396964369879
51949000.0 0.8886696299809305 -0.44402483131414633 0.038723569511422216 -0.09983099366195877 0.0030845507802121463 0.0004911682451753589 0.35314758886236036 0.15096062801505983
52948000.0 0.8884193865648243 -0.4509599962699367 0.04113423761608275 -0.10865181110388195 -0.003435587553811451 -0.002595146875110511 0.3718526723204465 0.1435377432807924
53947000.0 0.8810841760626936 -0.4608821151573623 0.04313515606877716 -0.12201944807780536 0.00133741686004536 0.001414086505333535 0.3737474187447356 0.12692895919232638
54946000.0 0.8754083800003969 -0.46849652898402655 0.04204913352500733 -0.12668840411638355 -0.0015378853038149668 0.0032410207782595205 0.38446745781579617 0.12261643499408635
55945000.0 0.8737517971669774 -0.47734190329100296 0.04521532039334305 -0.13667844934669596 0.005231879473855323 -3.7091364970179595e-05 0.3866092519519411 0.10567955028632785
56944000.0 0.8687950016704219 -0.4838421328103742 0.04460894770399817 -0.14734609788434153 -0.003354833392211536 -0.0004877445425952371 0.39412826921714567 0.10808806637787137
57943000.0 0.8632629504894144 -0.49568885246827055 0.04533343577190366 -0.15717085061662892 -0.0015867585059865495 -0.0026007321261097486 0.39510262632141957 0.10174313831092831
58942000.0 0.8567466467421402 -0.5009896055100329 0.04909963413746295 -0.16796577567411547 0.00012057206431540972 0.00274050531504807 0.4135562143980338 0.09754323414633884
59941000.0 0.8562290428039263 -0.5068723545786179 0.049772160892287996 -0.1765619336425669 0.0004215859485826344 -0.0002464985946870294 0.41213598892574915 0.09769376813305333
60940000.0 0.8475880457104529 -0.5155410235807965 0.04864795145222545 -0.18328682906087912 -0.00035757503100229123 -0.0012150098953147297 0.4131334142578146 0.0782560308084368
61939000.0 0.843897184863232 -0.5247284327248831 0.04955595698968531 -0.1893299191536469 0.0013529137247663412 -0.0010441660581721973 0.4216998107140201 0.07100209784224439
62938000.0 0.838645321889786 -0.5340272357374455 0.05685573183838712 -0.20476240998865347 0.0016679856719086612 0.001222483182504942 0.4418252422536199 0.060447538747000096
63937000.0 0.832714421139683 -0.5429402606871244 0.05383519710184248 -0.22438296333121144 0.003402437123949999 -0.0001482041467802476 0.44043294552815837 0.03973243070390077
64936000.0 0.8260744002665454 -0.5469704301150724 0.053800349081050844 -0.2407953883709509 0.0008232234681031529 0.0016007891745511702 0.43535004555554013 0.03970799858314614
65935000.0 0.8225794900293442 -0.5594635550695541 0.05631107174537776 -0.2514185618157437 -0.0015983449166213964 -0.0010307449150975918 0.4337693069586793 0.022581788071067494
66934000.0 0.8189008447781193 -0.5639017443417624 0.05725810925451633 -0.2644218548196005 0.0016976426017478166 0.0014713478539186116 0.43319946155903843 0.012701161618101631
67933000.0 0.8135591092987325 -0.5730024776273249 0.060438555298555116 -0.2794472175060319 0.001116462158745655 -0.0019021330741338766 0.4458824446836382 0.005934798139135478
68932000.0 0.7981808941678799 -0.5659853984073826 0.0518770569120172 -0.28694754701400976 -0.00011328474814618412 0.0017513798806192634 0.44523008553451066 -0.01196897867916727
69931000.0 0.7997216670233054 -0.5865977320774991 0.053780046947919685 -0.3081130679884246 0.002368812411408905 0.0012249122685135982 0.4441652849456328 -0.017517122000056
70930000.0 0.7923095259723335 -0.59449323519658 0.05262848831382917 -0.31912883699728734 -0.00151436958408668 -0.0007583690359858687 0.4520038784151036 -0.026956832294323364
71929000.0 0.7900384051240972 -0.6027038924529796 0.05003323519333549 -0.3382027386012395 -0.0006816759725299898 0.001971924729033868 0.4477198292926109 -0.041963171600885384
72928000.0 0.7826657955912303 -0.6130784372464477 0.04218457854054863 -0.3559871672212304 -0.0032448563518076693 -0.0020129509616067217 0.47148327167313925 -0.042818305688137846
73927000.0 0.7773647908793275 -0.618546650562542 0.035111097378289435 -0.37648051679126926 0.0017141937446172038 0.000622061909391058 0.4626541131073415 -0.044423502237771216
74926000.0 0.771909447889946 -0.6271629794401441 0.030199764490656547 -0.3894947256222618 -0.00035762816353692074 -0.0004798788368517719 0.46684391896922156 -0.053947877844720445
75925000.0 0.7672289514996813 -0.6318349712050605 0.022635386209443793 -0.411046715022562 -0.0020560776428123055 -0.001335319983984136 0.4716087936899447 -0.07287394194302389
76924000.0 0.7581902083552848 -0.6412544234141155 0.007354222417659901 -0.4316949086909893 0.0012917174708515099 -0.0016206995305413582 0.46316982108367544 -0.07868496980565004
77923000.0 0.7521148131197751 -0.649543050106616 -0.004892529481708046 -0.4562890052649862 -0.0015484116632654994 0.0022593841278240783 0.4577910336029407 -0.10156570711490785
78922000.0 0.7452798502145257 -0.6566480045688207 -0.020311573077025438 -0.48238795797037337 0.0010141171122881574 -0.0006599537214754751 0.4614091989822205 -0.11441055290306765
79921000.0 0.7374809276798584 -0.6613883812839894 -0.04016799502628946 -0.5053553561224596 -0.002792541373021884 -0.0017254184289212425 0.46619477238488344 -0.1027066002796642
80920000.0 0.7326398953138347 -0.67248283614419 -0.04853327553691044 -0.5361651163134994 0.0021634681284177573 0.0011308820792821706 0.46976052992008904 -0.12084798956208212
81919000.0 0.7282201997367121 -0.676783939333982 -0.07141680496237592 -0.5631919978736967 -0.0011965395976370734 -0.002728100105162292 0.45886426957102144 -0.135426772984713
82918000.0 0.7162464899748268 -0.6869329681852083 -0.08428677277420814 -0.5949869004745474 0.0007798049551212196 0.0011455551184872742 0.4716164082941708 -0.14828615963638003
83917000.0 0.7087645264380086 -0.6933541390718783 -0.10102429879792718 -0.6212441939112084 0.0012143785192029917 0.001331477687307733 0.47142636703945934 -0.14307230979465227
84916000.0 0.7028057761227477 -0.7002635747334729 -0.1182233471951932 -0.6580085456481283 -0.0006795847930469542 0.0013066919669896685 0.46960356768964695 -0.16345064832283518
85915000.0 0.6973483439017113 -0.7053410188033449 -0.13807056234670925 -0.6841407019782286 -0.0006862909274456335 -0.0017237992233513774 0.4581247873963111 -0.17021813972102023
86914000.0 0.6886314012933917 -0.718563433762601 -0.15754963628675123 -0.7215539988461795 -0.0036056311143588663 0.001217440696283495 0.4682140719860244 -0.16646444267249988
87913000.0 0.6827801420422848 -0.7203772414407033 -0.16916090394666336 -0.7507017567376194 -6.28362494491937e-05 -0.0004027890984065466 0.461894413081708 -0.18280692576569543
88912000.0 0.675367249175353 -0.7285433482410753 -0.18653875033296247 -0.7803310035781077 0.0035943312605222462 -0.000150870632800299 0.4705718851913735 -0.20966816560326174
89911000.0 0.6662771389831306 -0.7361262722695436 -0.20101808902261253 -0.819178648638804 0.00019178535430556162 0.0003871134761408988 0.4639061589710255 -0.21422637937880024
90910000.0 0.6618155815745914 -0.7408967379136482 -0.2145326655758023 -0.853491648641591 -0.00038054067431429376 0.0015714710148193706 0.4634480591839378 -0.21092769542106446
91909000.0 0.6515880589911665 -0.7475378039712266 -0.2395737613076041 -0.8822986813669889 -0.0013132613647612666 -0.004095745792541986 0.47116996324488514 -0.20552696284384087
92908000.0 0.6427687545658946 -0.7559647334590477 -0.25190589928383944 -0.9178134746766361 0.0024771761454416485 -0.0010734079529493231 0.4552071200992744 -0.2355347368095092
93907000.0 0.6372037554587509 -0.7607742205603869 -0.26599134235957594 -0.9490082766523962 0.0004028969260687825 0.002579910817440852 0.47262492653190685 -0.2432662690668594
94906000.0 0.6222829469600476 -0.7688783258375271 -0.28499348397326374 -0.9762216046645255 -0.0007338563154803125 -0.002631376520916317 0.45742801884296497 -0.2535808243349645
95905000.0 0.6186125293108787 -0.7732849529640399 -0.3029623911000009 -1.011780150838595 -0.0011139057602643741 -0.0014893237921116572 0.46235343051062117 -0.2685119826005167
96904000.0 0.6093277544484019 -0.7846922573492542 -0.32543178228789266 -1.0510366805216294 -0.0002421175197335377 -0.0009383498630804397 0.45779400522957675 -0.2688759691769836
97903000.0 0.6002958204632407 -0.7886701392587175 -0.3419165782627623 -1.0856712306946723 0.0033814635142664696 -0.0030733081893433104 0.4527170275320809 -0.28164848566167927
98902000.0 0.5958026575339725 -0.7964020148740558 -0.3589341204586079 -1.1190556531020275 0.001028571574567757 0.0029356895807614277 0.45192255187529357 -0.2830797251491576
99901000.0 0.5856376325423771 -0.8001423574384497 -0.3876097592382254 -1.1507681916738424 0.0015874561771345409 -0.002106924017941176 0.462258936686251 -0.3028868474574236
100900000.0 0.5775025641431367 -0.8051792577731386 -0.41759561364379366 -1.1831108023724843 -0.003235205127167362 0.002341700386588775 0.47131227336104575 -0.3124498526103715
101899000.0 0.5638466022614 -0.8142801366503267 -0.445654544458642 -1.2148431279915775 -0.0018440937895785388 0.001946836158627085 0.45694274095334925 -0.3155629867697419
102898000.0 0.5563681319440712 -0.8204534883307307 -0.481187597216583 -1.257150794941057 -0.000502884912485495 -0.002707027630013306 0.4595747477357155 -0.33410883252714746
103897000.0 0.547754542563782 -0.8262674005663918 -0.515303413977179 -1.2860794204633959 0.0006998276763256806 -0.0006124993231168491 0.46108736411373347 -0.3238415585230675
104896000.0 0.5416036706392817 -0.8371809065160627 -0.556379141245861 -1.320739978566 0.00215228180930786 0.00046194126447253356 0.43895278826178097 -0.32181514109377773
105895000.0 0.5295717380056705 -0.8380215218881036 -0.6011338325048403 -1.362814224077164 0.00028851525401552756 0.002099859140211399 0.4457110043283966 -0.3558171026153353
106894000.0 0.5207081335264899 -0.8436053543780759 -0.647950055182715 -1.399192435313212 -0.0013735046877025407 -0.00048365402302073975 0.4387780183559879 -0.3549211171761866
107893000.0 0.512385951860645 -0.8526982834818309 -0.7069122157430164 -1.4345977226589686 0.0037238138606806646 0.0011687250230497169 0.4415380484309033 -0.3714362323600503
108892000.0 0.5009964783971186 -0.8531330777491197 -0.7577240301226542 -1.469934690178677 -0.0014453692089603147 -0.0033916216350574004 0.43214029214494787 -0.3602131036176767
109891000.0 0.4902385280547761 -0.8633287674291218 -0.8157787511767393 -1.5053179124787959 -0.002152171692478181 -0.0006937722251723562 0.447479746518519 -0.3726208201331777
110890000.0 0.47572059212325735 -0.8785194435269474 -0.8941040827104939 -1.5205288051794434 0.0013373705922394012 0.0003244073930079787 0.443025664346098 -0.3744853543287087
111889000.0 0.4690629319005341 -0.8683437729372365 -0.9383447424002457 -1.5753845819068488 0.0005824849188232372 -0.00030941688583444634 0.4294854745414972 -0.39799125365121396
