! Created with skrf 1.9.0 (http://scikit-rf.org).
# Hz S RI R 50.0 
!freq ReS11 ImS11 ReS21 ImS21 ReS12 ImS12 ReS22 ImS22
1000000.0 0.982343144279462 0.0034428179689968744 -0.003789370782869503 -0.05222247210160043 -0.02841591722498105 0.003318283039333 0.290472558556302 0.3555857311194527
1999000.0 0.9972119787361593 -0.011825624386216293 0.005707300435857526 -0.015450180125155838 -0.0076037977834124745 -0.002837027614647333 0.262581493009416 -0.04668338690911375
2998000.0 0.9959638257918637 -0.022184252848457122 0.012004075262114396 -0.01372528337308535 -0.0005818578786757857 -0.007251709617220404 0.1998445056656072 -0.14754715332824647
3997000.0 0.9990877189016949 -0.0329159975399204 0.012996080376325651 -0.008598815760800049 -0.0022636974280659788 -0.0011159893489489378 0.09523107993884164 -0.22791258388674365
4996000.0 0.9936769125648772 -0.04214657831346968 0.012265706094690822 -3.593125470094638e-05 -0.0007048631787752246 -0.00287356820923097 -0.0357075052468571 -0.20058979752354222
5995000.0 0.9969834019778715 -0.04915365911750531 0.012081191163773708 0.005069899303857631 -0.005618512388244926 -0.003976541958050776 -0.11349691966203478 -0.11573937713772968
6994000.0 0.992849076074402 -0.05952535194895004 0.010087494285115257 0.007460252624426806 0.000677540760965042 -0.0005370826186834869 -0.14133454318211733 -0.02283803356819954
7993000.0 0.994867503728145 -0.06708483304010858 0.005294975716096044 0.00012961243821049673 -0.006658235647811852 -0.005698780512759504 -0.1592400951322798 0.03514289655495804
8992000.0 0.9938629826055002 -0.0749743210472711 0.004597030871143682 0.007814963180690743 -0.00833178168447439 -0.0029950911772527243 -0.15665700155937712 0.06008559348725218
9991000.0 0.993161719316394 -0.08238227916696876 0.0009658102975042108 0.0009139557055650059 -0.0002702963722934362 0.0009381599920194892 -0.15625249396179883 0.09043052523129576
10990000.0 0.9914517327475687 -0.09556346928007314 0.0006740003033330398 0.004586712226694299 0.0019434371259668944 -0.0002768835425490978 -0.1389560098577359 0.11931822338778267
11989000.0 0.9903797280963235 -0.09820423738745988 0.003152484643356395 -0.0018149062708035651 0.0009981919325430973 0.0030138530113968526 -0.12196406169790062 0.13558801450773844
12988000.0 0.9892646666113467 -0.10770626577103608 0.003829810847532358 -0.006228868842327913 0.0008429557986560012 -0.0005127050437368676 -0.11135304820708473 0.16550557937118215
13987000.0 0.9858604084310725 -0.11975342687421921 0.005195172888488899 -0.007324799293715148 -0.0014913074910757468 -0.0006379180116930086 -0.08609163114449986 0.19326701577126237
14986000.0 0.9854372762079455 -0.12550814328108545 -0.0029676678723912146 -0.004274637542854013 -0.0001137250344708616 0.0008510123403410148 -0.08384690961314553 0.20589174292723594
15985000.0 0.9887556965342944 -0.13522597554827448 -0.0012618430114011146 -0.0043397655349889765 -0.0008170351156306543 -0.0024455193875212687 -0.0701254946079686 0.20837621237854329
16984000.0 0.9865989403563357 -0.1435161502680296 -0.002792097579519293 -0.007199142414020054 0.0010240390208817566 0.004900644783516913 -0.061914304905240664 0.2212031857545024
17983000.0 0.9838019022355002 -0.15045391142742484 -0.0019940605369546237 -0.0034988282856065166 0.000493130488685548 -0.00181140291656764 -0.05332039295494428 0.22991288252973197
18982000.0 0.9806439853873102 -0.1623296459328758 -0.00405019622604002 -0.007887534541532681 0.003087117755301211 -0.0003147535717668867 -0.02378626262596772 0.23859813246858935
19981000.0 0.9811900096032917 -0.16714515276158032 -0.0030614137400672933 -0.006537768580588272 0.0005093416673529802 0.00243482619673645 -0.01603295330505125 0.2574875573354333
20980000.0 0.9816352781609022 -0.17778235589328922 -0.004005214382054334 -0.005841067979632245 0.0004923875878090195 -0.0018551905485441691 -0.012799664649735186 0.26653743956650056
21979000.0 0.9780571877934553 -0.18448044479986928 -0.005273735542334026 -0.007145437287417954 -0.0033556310367592775 0.0009229317478762211 0.01426856367121683 0.25256751553895535
22978000.0 0.9749999684323598 -0.19464057225279963 -0.0008043165921974001 -0.003220238355024665 -0.0023919743574322377 0.0011975528374091196 0.024791341774597863 0.265371614412045
23977000.0 0.9768417325860111 -0.20102113944647668 -0.008501227868345665 -0.0059048539016018885 -0.000521739700909398 -0.0017234879267183662 0.03731714770516514 0.2646337685817154
24976000.0 0.9739318997677706 -0.21279393284288267 -0.010722968285353622 -0.0004972199884612587 0.001018765733219477 -0.0007362810579084465 0.06004191797657007 0.25879886956960385
25975000.0 0.9758118885286373 -0.219810295441716 -0.009238245233378673 -0.0008640457733779075 -0.0017254468997718261 0.029841092811107254 0.08272668411696059 0.26247097063594027
26974000.0 0.970544675688156 -0.22722960153855828 -0.003006927404511996 0.0002828951848649084 0.0013787974356386187 -0.0035395988983889645 0.08300811718541781 0.2673111771869855
27973000.0 0.9674404164849704 -0.23652071472999384 0.001992100779226769 -0.004476094359450447 -0.0035586507175463804 -9.484900770782074e-06 0.10429138055334061 0.2495152300106715
28972000.0 0.9642629598126534 -0.2472522021627739 -0.0010982505811869088 -0.0011448671911722414 -0.0006164304050027004 -0.0007448992532236873 0.12093286172511043 0.2641946281342134
29971000.0 0.9630249174410387 -0.2554608125186338 0.0016778546943465673 -0.002442592715775429 0.00015409460913181716 -0.0010295700645927466 0.16089879223114378 0.2736118780746904
30970000.0 0.9615413087786093 -0.2573451217593197 0.002436940197339725 -0.0028087864384979183 0.001351896493989155 0.0021013391112430736 0.17213252415150299 0.2544649268214232
31969000.0 0.9597602230548805 -0.26902148498334855 0.007905851424207716 -0.0025895617163050645 -0.0009636400604486314 -0.0010466488303621986 0.15683396367870311 0.25497215798754824
32968000.0 0.9564419878949214 -0.2795755823951924 0.007831438641149324 -0.006533112613602586 -0.004023030195870519 -0.0023377083142500925 0.1620307359289206 0.2534329709791771
33967000.0 0.9548001546050421 -0.28890090450912037 0.007188295109123211 -0.008837322507012819 -0.000581684772020578 -0.001167154611132719 0.17963978179256448 0.2467850790455529
34966000.0 0.9515733155440196 -0.2977606635832911 0.010733882631808144 -0.013926320610145648 0.0010167277061367897 0.001175177355837757 0.19539956855951468 0.2618662990836269
35965000.0 0.9492689449925797 -0.30429797332331127 0.01678345443291491 -0.01581250384563649 0.002390155367576164 -5.272048231808092e-05 0.21174773830740423 0.2535544205366948
36964000.0 0.9472721599763553 -0.31359010590056946 0.01624527495485216 -0.016411383643716734 0.0003255594492441872 0.0018695352689149305 0.2144467548333982 0.2464779269273912
37963000.0 0.9443100039700706 -0.32219515155266576 0.02107493995136696 -0.019421146523732242 0.0018237355649742435 -0.002063637130177706 0.22604473044669715 0.24156293442968443
38962000.0 0.9424939103848451 -0.3305977199323724 0.02422959038690381 -0.024000143466297415 0.003998316310911735 0.002643371714079799 0.23801143378949666 0.23027840475708536
39961000.0 0.9388823610206566 -0.3406172528532243 0.026979288710125914 -0.028993683866416015 0.003632645762787302 -0.0007123533965192146 0.24831459642160142 0.22448993657617977
40960000.0 0.9340787581249091 -0.34724491370908117 0.021318031811035115 -0.023289081991218433 0.0013275982453411475 -0.0016886290175959625 0.2736688591303159 0.22759020111224315
41959000.0 0.932145367672865 -0.3565440103634042 0.02991740000075367 -0.030545071068421237 -0.0013022732648506146 -0.002071446605021554 0.2720493417580601 0.22009518262335098
42958000.0 0.9260337626832635 -0.367356563230708 0.033303405531515146 -0.04056125975587355 -0.0005431651002487438 -0.0011797762704749456 0.2761145718119938 0.20012017693895662
43957000.0 0.924815948717405 -0.37193220457353 0.03442483800066739 -0.047545361409477224 0.004122666008188596 -0.0045040568949921474 0.28521485321295764 0.21319046938526828
44956000.0 0.9204916133803609 -0.3800441488306591 0.03589658615890569 -0.05229829476126598 0.00189632239874925 -0.001527424079979719 0.304613519265102 0.1872838422446777
45955000.0 0.9164888246344844 -0.3900587087158821 0.034275177538742346 -0.05929244358244727 0.0010092051084721661 -0.0003920666085803321 0.3067517913144948 0.1910748931344686
46954000.0 0.9116146196442453 -0.4002637335718514 0.03608103883742229 -0.06503948644094927 0.00181154003051589 0.0016608030908986436 0.3386639356767502 0.1726539537975716
47953000.0 0.9116200299911981 -0.40668544228782916 0.03312685473520215 -0.07344086462210812 0.004670714931321092 0.0023431460625480014 0.3412472517708187 0.1691003703628809
48952000.0 0.9052590542386268 -0.4166853780695776 0.03564196809571053 -0.08132550370138726 -4.715376089459823e-05 0.0022950215033751852 0.34384378301484486 0.153142028496557
49951000.0 0.9018308383843011 -0.4245548838254818 0.03827310069043861 -0.08741244936025731 -0.003460659290578515 0.0017697748697878533 0.3580282419081677 0.14058866571721407
50950000.0 0.8989651024856988 -0.4322148387698842 0.03671219552883165 -0.09608986665592181 -0.0002939728890104256 0.00018873967360590624 0.35450234730179725 0.14152946648142198
51949000.0 0.893700544931989 -0.43805769701406433 0.039978560050031725 -0.10489836283224828 0.0012751073654111475 -0.0021863606823153046 0.3609413843343643 0.14095724408058186
52948000.0 0.8911262510365324 -0.4481288666840992 0.03868400829541863 -0.11078915906716677 0.0029298358502284805 7.320469138624425e-05 0.3694014312345498 0.1341257893317544
53947000.0 0.8867178549334196 -0.4551489287500024 0.04399251445117936 -0.11869820356796802 0.001385423637505149 0.0030030383206249636 0.3796234759680577 0.12950602428817565
54946000.0 0.8798788958941874 -0.4660268614672611 0.042593629374432486 -0.12839254817131515 0.0021222928953617956 0.004830315144407956 0.38882962873696847 0.11799529865499414
55945000.0 0.8785679024108007 -0.47303709211274936 0.044610011563337375 -0.13950398119580282 -0.0010147062199158518 0.00406093465069374 0.3831680615345986 0.1006563057171684
56944000.0 0.8743450620352844 -0.4820386523013634 0.04837265225193202 -0.1500987745881813 0.0008810338255567888 0.00412458120646506 0.3991835186928269 0.10290266506759421
57943000.0 0.8677096171441325 -0.4925163013399485 0.04668154124945426 -0.16123443195104298 0.0038954078464957806 0.002281601460917114 0.40073306065060155 0.09202742213172828
58942000.0 0.8621481466796124 -0.4976653204101221 0.04986681939689538 -0.16850327303942028 -0.0021340123254627217 6.327809335138131e-05 0.4246324821780274 0.09125090657811138
59941000.0 0.8625833888956453 -0.5035182295441784 0.05107765887847108 -0.18019397102784696 0.00083875962886404 0.00041678323678845115 0.42126954080083734 0.07990950600736836
60940000.0 0.852515838972528 -0.5101738337605789 0.04908442531134861 -0.18407031052862555 0.000792818276143282 -0.0012715798553524645 0.41391398829415277 0.0645090320456597
61939000.0 0.8496304680712811 -0.5190418132848026 0.05263905920909936 -0.19276211983901537 0.0025105058609242296 0.0008215398591602788 0.4224896371282443 0.06681746721632366
62938000.0 0.8433606402266307 -0.5304235440216881 0.053455671430247084 -0.21021431093336979 -0.0014577918134306529 -0.0037825438798240753 0.43945781050182386 0.04987116400228781
63937000.0 0.8395981776308252 -0.5374472613633798 0.05324306619980406 -0.22639665517328936 -0.001533167794412581 0.0017708056955736452 0.4362219708572607 0.03815311687788079
64936000.0 0.831619680992611 -0.5432278265200965 0.05403384030211915 -0.24569858840151093 -0.0006111137427755546 0.00037276378895334403 0.43915937810377426 0.046977932271080575
65935000.0 0.8286550931410596 -0.5527964579629483 0.05358678962874368 -0.2585713585246533 -0.0032489412255751536 -0.0011238824225434892 0.45333927400339 0.017344135331047807
66934000.0 0.8243366075593432 -0.558608184482248 0.055443399088364466 -0.2696801953014317 0.004563840206091419 -0.0005844649824988952 0.4414507943548871 0.005922414558197965
67933000.0 0.8207895766067848 -0.5665842379537706 0.05400275259865055 -0.28307516676806693 0.0003141809797542224 -0.003028324352088078 0.4383203604512594 -0.0008776069040491455
68932000.0 0.809389821937649 -0.5739479396632946 0.04764213505265651 -0.29436947318483014 0.0002666025781270312 -0.0007544007536594991 0.4642089311703188 -0.019471675766359667
69931000.0 0.8073026548364273 -0.5822241806856328 0.05630640392801737 -0.3098445853718521 0.002211251189140367 -0.001829098300645789 0.44461389590348827 -0.023363637699042195
70930000.0 0.8017477980733411 -0.5901114637799788 0.05183850052586588 -0.3247203334968721 0.0027066195911133626 0.0013406554690528563 0.4509964118669924 -0.02677524431444283
71929000.0 0.7970074848945126 -0.598571744203753 0.04498444865935224 -0.34272832306562306 0.0018002721089294131 0.0025708586434518028 0.44520134068882367 -0.0444428124443532
72928000.0 0.7895345275769036 -0.6088376699916945 0.039212124999952774 -0.36060511588935135 0.0008951443412972711 7.58059629876821e-05 0.46060747425671317 -0.04476219899715983
73927000.0 0.7839288943396602 -0.6127458408119945 0.03104491255746935 -0.38099738424204 0.0025401951556713923 0.003773891139129955 0.4566118171198999 -0.06348804783975572
74926000.0 0.7793136225589998 -0.6219696234471332 0.025158591289943143 -0.40163621879970945 0.00576782989387061 0.004438415784711089 0.4734479643947171 -0.05398327936999276
75925000.0 0.7712323524373202 -0.6275613589235695 0.013333579377991128 -0.41807971370806885 0.003369272224341425 -0.001753155314078414 0.4768481180062899 -0.07724706367791234
76924000.0 0.7653843905930383 -0.6368380000954116 0.005840343832588297 -0.4431735226700227 0.00040079125307791697 0.0009953793723049686 0.46022735673198856 -0.09023639000141179
77923000.0 0.7588003476506167 -0.641987671821121 -0.014973476566971391 -0.46555590220107657 0.0031956829401099795 0.004066522808590902 0.4684216569824498 -0.10540408223506403
78922000.0 0.7545743103341616 -0.6542329676986053 -0.024891647632002183 -0.49247633145824815 0.00337687885922579 -0.0019458031308983766 0.4571926999341923 -0.11137506928789567
79921000.0 0.7444548958884458 -0.6554510165128462 -0.044070228240896216 -0.518027871840691 0.001315202700551287 -0.00544103620642857 0.46512676359724336 -0.11807741213946926
80920000.0 0.7401070487214054 -0.6670161430864259 -0.05521484639656148 -0.5460696315291705 -2.862142238203993e-05 -0.0022436268087801118 0.46435627552642805 -0.13134819939087106
81919000.0 0.7344134554039339 -0.6732745541683973 -0.07269868624848291 -0.5698211599148847 0.000292871892755184 0.005884057889081224 0.45935928321882835 -0.14170840163407497
82918000.0 0.724235659648017 -0.6819526272397533 -0.08496767648513183 -0.6035981994553313 0.0023377319149131704 0.004273794237793439 0.4680197018100397 -0.14348734806818841
83917000.0 0.7177139390494764 -0.6892977634840292 -0.10437967558278109 -0.6333598901203275 0.00136670146124091 -0.0018453591843979758 0.4703972786314511 -0.14877702933626893
84916000.0 0.7116509776635925 -0.6965841188359471 -0.12232879346368385 -0.664117839873858 0.0029814057087241565 -0.001682152106614325 0.46959251403837604 -0.1751950249268442
85915000.0 0.705324807675496 -0.7026802116578528 -0.1401980671813393 -0.6966138853400904 0.0005762914648058935 7.977688841743306e-05 0.4593887473693849 -0.18892324531244814
86914000.0 0.6964434638484688 -0.713645381746247 -0.15549365756915226 -0.732243642830559 -0.0017159575711527552 -0.00407656822530956 0.4671611843963494 -0.1744888360279822
87913000.0 0.6919916607023191 -0.7177359991239441 -0.17675807366835677 -0.7606976111393092 -0.0012527357530554297 0.0026217045392302784 0.4683696668036765 -0.1903587824404565
88912000.0 0.6825936466518245 -0.7265088968378599 -0.18751741460504806 -0.7952355781860105 0.0038651428621217735 0.0007683618950293567 0.46691154076381053 -0.20548348835506103
89911000.0 0.6755206117586406 -0.7334119729035189 -0.2012757719145682 -0.8296676335528551 0.0012890258908684433 -0.0031229072242714507 0.4845227632537759 -0.20949378708192143
90910000.0 0.6686968375724723 -0.7393411849921349 -0.22334754720679934 -0.8630199030374135 -0.00043198852704519537 -0.005450022011053287 0.47037495670852597 -0.21608859414937268
91909000.0 0.6596586072594068 -0.74345906891609 -0.23745313668504597 -0.8957714772242041 0.0009494955751425082 0.0017377342456442522 0.47441636940164156 -0.23132594460796047
92908000.0 0.6509026645725712 -0.7527501540148146 -0.2584092537483831 -0.9238177728628107 -0.0007935293167971149 -0.0014361731085769235 0.4645623289221346 -0.24023391002196665
93907000.0 0.6476665582489609 -0.7577412098823353 -0.2753524572163664 -0.9564264825431745 -0.004401510768896459 0.004173077327163793 0.462630744607538 -0.2503525556587648
94906000.0 0.6327547289201615 -0.7672211838460751 -0.2911310661518903 -0.994543125698561 0.0021996454083007644 0.0020263147952481035 0.4547406569540473 -0.2627553333179015
95905000.0 0.6294276291448428 -0.7709519847727887 -0.3138722217666539 -1.030908671921652 -0.00118032928150465 -0.002409733005899765 0.4672543483322652 -0.27455205913194336
96904000.0 0.6182158048552258 -0.7818032627203635 -0.337252488717161 -1.0619121209041176 0.002325964607285245 -0.002132162856129052 0.4535549483200498 -0.2796663366645992
97903000.0 0.6093567309583735 -0.7839838419997727 -0.3537377142724865 -1.092073473461047 0.002867486407953571 0.0031776054342069478 0.44124976775907376 -0.29382890869613804
98902000.0 0.6073107963486346 -0.7928000479082902 -0.37506881806150955 -1.131930925109365 -0.00401587340916136 -0.0009993018348906015 0.45311681462231107 -0.29707492194988483
99901000.0 0.5951220652893293 -0.7986058772177695 -0.400426656589074 -1.1634032962360452 0.0022705922190126263 0.0012599806558706832 0.46351669017194164 -0.31830908705383865
100900000.0 0.5891738563504685 -0.8019043235431004 -0.4320827784849849 -1.1928754944241646 -0.0019708879362706233 -0.00038147714992109834 0.4573698146892044 -0.3110870590882283
101899000.0 0.5767623307680791 -0.8095346459336826 -0.46365912347481125 -1.2298002287617977 0.0022594156154392467 -0.003864954201127006 0.44050779039084886 -0.31231347080452987
102898000.0 0.566430053758167 -0.8173577277768408 -0.4989992765611584 -1.2687040886240732 0.00035040195345599576 -0.00024860233518457183 0.4589267340220009 -0.33597493413928914
103897000.0 0.5581787519093796 -0.8241084970208034 -0.5385024391209833 -1.303928217100064 0.00479077206342712 -0.0021016838541717572 0.45890211481790244 -0.3325907894329858
104896000.0 0.5522863848878858 -0.8344653555070277 -0.5808676207479373 -1.3317830078911619 0.0009931245237502608 -7.964775397848536e-05 0.43693023834950473 -0.3404459117126317
105895000.0 0.5409178548236068 -0.8354664606063055 -0.6232381499197228 -1.371521122297663 0.0014566098652775404 -0.0009122918874878511 0.43325344936331883 -0.3568875148219479
106894000.0 0.530436762548844 -0.8419612806737026 -0.682841807164973 -1.4100324426752293 0.004034890656514525 0.0008938932358401538 0.42659742804411155 -0.3710183198416879
107893000.0 0.5256676225761175 -0.8463191923235419 -0.7271625859124502 -1.4548165252199734 0.0009320830906413303 -0.00033616717397822414 0.42999197121540234 -0.36942526693675487
108892000.0 0.5140181786789554 -0.8507733110720913 -0.7861615436637959 -1.4862872564481464 0.001372194205680412 -0.0008021046243733444 0.41394273669706944 -0.3764948558489752
109891000.0 0.501320423893979 -0.8596864783674111 -0.8442505687643171 -1.5286243352901088 0.0033307164409188375 1.1821991750628062e-05 0.43504766244838317 -0.3722252121541442
110890000.0 0.48578815245526497 -0.8740650660214606 -0.9275892385002783 -1.537071155125381 0.00016443522221793656 0.0011548498308365195 0.43069543290747486 -0.39210739968871133
111889000.0 0.4800336955763754 -0.8659296500387822 -0.9695003428080207 -1.5929178720496329 -0.0008050731063249002 0.002085497646016743 0.41839780922441516 -0.3990701970308105
112888000.0 0.4691952078103149 -0.8752990641991087 -1.0468447134069334 -1.6374296259112804 -0.0031907202421021514 0.0007554536053521673 0.41968386896989 -0.41377457121537103
