! Created with skrf 1.9.0 (http://scikit-rf.org).
# Hz S RI R 50.0 
!freq ReS11 ImS11 ReS21 ImS21 ReS12 ImS12 ReS22 ImS22
1000000.0 0.9877967516216061 0.000712393643683535 -0.019232612058791426 -0.03869896287041852 -0.025052320084619325 0.00954084744675121 0.3294988019974264 0.3607535891051685
1999000.0 0.9939870409371768 -0.012674419757732439 0.009917314303917155 -0.018284179361661823 -0.006859032319159579 0.000907143265283585 0.25113885860833457 -0.04568413189000001
2998000.0 1.0016190084088772 -0.01789668111628462 0.01617133111978887 -0.012664031122203866 -0.004068560210530851 0.0011747717061136426 0.18012986362215633 -0.1348528592854574
3997000.0 1.0006728602897619 -0.028484040146482818 0.011443758346625633 -0.010516051769748768 -0.003818159964565498 -6.005001838663743e-05 0.07982001124135772 -0.21607936291693736
4996000.0 1.0002506806928657 -0.040295074818376936 0.015677038601975266 -0.005745054961014511 -0.0022204926809078394 -0.0003377469972860093 -0.058027137565281627 -0.19148235746478023
5995000.0 0.9943302954493107 -0.048589298684960223 0.00958770919355931 0.003737150508788514 0.00017305876135301253 -0.0013479859258018836 -0.12385292962058324 -0.10279623974834319
6994000.0 0.9942869093316477 -0.05807419962367038 0.0052184194190023365 0.002649651822613551 0.0017126169708237776 -0.004573281204096943 -0.1371584764140351 -0.01881555358687525
7993000.0 0.9975932108234742 -0.0664928690925684 0.008411835363613363 0.006012671517874865 0.004040000439973995 0.0005796835500045923 -0.15862119901011673 0.04595460613032109
8992000.0 0.9947835558824172 -0.07192705030059117 0.005212097113541954 0.0071508768626657 0.0020988250067933575 -0.004148851445985848 -0.14363312160258673 0.06309605946480756
9991000.0 0.9935582686527737 -0.08127949388537456 0.0038606122052446644 0.0027957155932812495 -0.00044620576945030125 0.006242126374624697 -0.14128062463297275 0.10927753068823003
10990000.0 0.9934599241657889 -0.09065996875415867 0.004231298194483077 0.0026963710007089623 -0.002787215417100447 -0.0005736116983348403 -0.1394898459450194 0.12116337335694627
11989000.0 0.9910189352300197 -0.10070420938847612 0.0008891642510091311 -0.0027969507324399497 -0.003938905140445867 -0.0006918270181693702 -0.12431666210430613 0.12664879065053788
12988000.0 0.9894849582735918 -0.10922872746813554 0.0011764263124667536 -0.006510117573019391 -0.0011897348751557144 7.648634603945055e-05 -0.11034807423938818 0.17372091383497404
13987000.0 0.9889076094737453 -0.11795071417724541 0.0003001493779525792 -0.004420489815437163 -0.0044060821238070215 0.003464502467377994 -0.09046694778700191 0.18615313462177818
14986000.0 0.9900432962054168 -0.12583800415102467 0.0007699053760337474 -0.0055193391683507126 0.006085509759260443 -4.3547841587233437e-05 -0.07550252004043734 0.19976372938357292
15985000.0 0.9893052128331183 -0.13374216553584864 -0.0008452896379692037 -0.007130487666398833 -0.0004967058013571714 0.001890053528672437 -0.07702690380587084 0.21156935858666098
16984000.0 0.9866280577287442 -0.1422660119368146 -0.0029385215445238604 -0.004477870522789723 0.0007650008167614104 -0.0008209330831994621 -0.05157354968952933 0.21923333317856036
17983000.0 0.9876479106429396 -0.1478157204178095 -0.003957828425937919 -0.0036725194397494725 0.0016737478721233195 0.0031738343830393324 -0.04524864442645148 0.23726939578002587
18982000.0 0.9838488166871235 -0.16149199191398575 -0.005510891440134744 -0.003905639349037441 -0.003848805802991872 -0.0005429166941447761 -0.02134814948269257 0.2337077141323209
19981000.0 0.9841414174086959 -0.1663732733548357 -0.0055158971206575 -0.0033861659442092173 -0.0006707465199323203 -0.0026378542676857037 -0.017376172917045518 0.2415848901846242
20980000.0 0.9815748003005254 -0.17411792144114177 -0.0026983550674600635 0.0005924518810516132 -0.0006057329427937328 -0.0012484440438303372 -0.0019232834696202975 0.2595706963416654
21979000.0 0.9809059422150611 -0.1837630944237262 -0.005036513836209485 -0.007134060065893083 -0.0008120523325030065 0.001972500074764365 0.018782486470860945 0.24287445813807165
22978000.0 0.9788416218002107 -0.19293310156770227 -0.010016104394666749 -0.0031441454908348997 0.0015174058497730207 0.003525461429029485 0.038081541342237735 0.25643882309355853
23977000.0 0.9788851961760711 -0.19966649410538267 -0.00663807317578499 -0.0022493011130401775 -0.0008808802415973197 0.0012233343638758157 0.047421330787339525 0.2580658739784238
24976000.0 0.9735839320795143 -0.21035488959753582 -0.007865526184900195 -0.0037154194479694165 0.004109945823769102 0.00303276369395687 0.06916907532065505 0.2640047430260402
25975000.0 0.9743964835412674 -0.21461192741181137 -0.005978357322567362 -0.0019567470674068236 -0.018874742418694673 0.014056304972428846 0.07167460647016363 0.2646244187251002
26974000.0 0.9718693991730932 -0.2255784717630001 -0.00666312840689978 0.00013332047579120855 0.0010568485702832217 -0.002204540380689433 0.09773420226135963 0.26149183253274977
27973000.0 0.9711176894517176 -0.23208232879510102 -0.0008016737529318397 -0.00382128232323394 -0.0005860208755680476 -0.0021818252320940966 0.1067176903229784 0.2586724809119224
28972000.0 0.9659663257303611 -0.24510355037205359 0.0003094096577408893 0.00022729458090035005 0.0034321291462483423 0.002711488142768216 0.11802482957152259 0.2602819684123605
29971000.0 0.9653115067763498 -0.25042990586224556 0.001717998554937954 0.0019625920968023643 0.0008893636031266453 -0.0009835320413299157 0.15308386783476793 0.2668254768753301
30970000.0 0.9621573584049231 -0.25578679360604284 0.00379736798860561 -0.0023572880723648068 0.0011916337627228316 0.00484960448127876 0.16464594426362858 0.2525928484212055
31969000.0 0.9597408198099708 -0.2676638184878284 0.005265358150387311 -0.0015685703193194496 -0.0014094317202681303 0.0013305995387425996 0.15658705903801626 0.24657812565356402
32968000.0 0.9608756344676804 -0.27406576742696726 0.006243242907276647 -0.009265173003546122 -0.0009813654161099682 0.001745055365284239 0.17171819064132687 0.2465173257681271
33967000.0 0.9572329201252737 -0.2847794310101086 0.01059062505257529 -0.011460242536952027 -0.0001308987743746485 0.0019189475408480621 0.18809194291261805 0.2337365584998556
34966000.0 0.9534465755455369 -0.2936034922365343 0.012541294328106991 -0.012838570754402197 0.0020780382067714697 -0.0011800856738381394 0.2015225371457496 0.25554376654369787
35965000.0 0.9516333956081677 -0.2992867203807557 0.017066271148951737 -0.015141496648959694 0.001080935529575447 -0.004427420425776442 0.215321761665183 0.2518360455979289
36964000.0 0.9493278297436519 -0.3101626602094579 0.01857836833975161 -0.013505663642061988 -0.0007042393990478594 -0.00347233701857664 0.20975742880258574 0.2501722808628649
37963000.0 0.9448757600870465 -0.31957203915537746 0.019253004879903383 -0.022381350854325497 -0.0015552064965558398 0.0026188538950599194 0.22604344076074348 0.2348414887941316
38962000.0 0.9430241001337467 -0.32935862539174116 0.024014275179723488 -0.02329656507111116 -0.0019769916213140913 -0.0008525371130044013 0.24866582723589103 0.22970034937302553
39961000.0 0.940503694769283 -0.3338428786575014 0.026761977084291125 -0.027501165889465065 -0.0011996563581916488 0.0020591628626095483 0.24329596727112093 0.22376720022069735
40960000.0 0.9370135033407738 -0.3424132925326492 0.02056516913097679 -0.022555575136411824 -0.0022329547213739316 -0.0023880257334655897 0.2655996415629428 0.2171847645707136
41959000.0 0.9353079630017005 -0.3525065831237906 0.029030905069094712 -0.031258890359691455 0.002082758279532755 -0.0004932813322413081 0.2740683863920532 0.21114733418505716
42958000.0 0.9294150289557462 -0.3598321216889751 0.031091181839513222 -0.03955168250305319 0.002099268214520951 0.0012851721685836568 0.28083300229463143 0.19473961449890861
43957000.0 0.9281032837172802 -0.36694966453071115 0.03055528468378869 -0.04585119562664237 -0.0025873550388514875 0.0001529160977491197 0.2882012359184239 0.20079900330453088
44956000.0 0.9237803770717267 -0.375694747827566 0.031295376932119964 -0.0501589559019776 -0.0011656633015470045 -0.0027800222179735433 0.30508849149255585 0.188836383845372
45955000.0 0.920383436070946 -0.3855376345238412 0.03478710151404927 -0.05362930871735371 0.0031948873868763543 -0.002352619268406679 0.3078281680859482 0.19420305510688857
46954000.0 0.9162281247745118 -0.39310779056663553 0.03337397628475391 -0.06457871328622679 -9.303058041034667e-05 0.0019911404453274023 0.33417156051710856 0.18750284116663526
47953000.0 0.9135165195547382 -0.40100211777196076 0.0366946210475582 -0.06857356582850348 0.001682905082123416 -0.0010324627266217307 0.3423471727045549 0.17011919474650025
48952000.0 0.9096390896864559 -0.4103177986371001 0.034904398296408574 -0.07564939118919377 -0.0026252128345890602 -0.003829771155775351 0.3412139404864892 0.17195304673858677
49951000.0 0.9051732170605307 -0.4166233848084978 0.03323242320441893 -0.08747077483081077 0.0026273652285816783 0.0011916248252449037 0.35187518638120174 0.15457590487910644
50950000.0 0.9012232315914627 -0.425032942305465 0.034286839901274506 -0.0905866856169513 -0.0019213290122129156 0.004502857505521238 0.36348208687301486 0.144175292579686
51949000.0 0.8986684826397253 -0.43417012631342294 0.03642318504927224 -0.0986165122639534 -0.0010253312313117406 0.00048331845546880395 0.3699575641360269 0.1477677492504287
52948000.0 0.8973513932804839 -0.441188688570519 0.03733251315595827 -0.10613464488427048 0.00038067725944246507 0.0013393926144127325 0.37928616259117603 0.13740974916235005
53947000.0 0.8895701394731292 -0.4527143083466188 0.040344529836284254 -0.11888303953184058 -0.0006533565597584282 -0.0013429333128359843 0.3856057738330751 0.13072995489403103
54946000.0 0.8847202691568036 -0.4585489337498378 0.039872228884840495 -0.12728351181953965 -0.0008291954025487439 -0.0015921272620431528 0.385725524920603 0.12183129048698971
55945000.0 0.8826248508499592 -0.466820097368448 0.045367459202059056 -0.13464013798106234 -0.0012655337889930375 0.0010457659639789992 0.3900217974675106 0.10516766266382514
56944000.0 0.8781383480316068 -0.474085703734378 0.043678931227754465 -0.1452012516440926 0.0014789788393182615 0.0014091305018871772 0.39816843519659917 0.10501134582844643
57943000.0 0.8733895842333951 -0.48528966921686806 0.042981202111364414 -0.1572867622996355 -0.0004782949247899891 0.00024431154083493195 0.4148782424642949 0.09462071062773582
58942000.0 0.8664785850172896 -0.4909826788629469 0.04666186570764905 -0.16781001860890588 0.0017105410448214477 0.0005824183738019868 0.42627545034172687 0.08492887759206476
59941000.0 0.865593240126199 -0.4972843561764519 0.04922534889581045 -0.17503112412918376 0.0008132280289998065 -0.0015386449751226205 0.4233970204935777 0.08079374647564602
60940000.0 0.857166680657691 -0.5070276994043578 0.04581270690223927 -0.18097265909592397 0.0033949972411218246 -0.000383076973543438 0.4193261708061868 0.0766146491508686
61939000.0 0.854524453543283 -0.5120878400670668 0.05039569329458643 -0.18398893869251484 0.0002856977979148127 -0.000498494911513274 0.4223570973409306 0.07216955538281838
62938000.0 0.8497977762209142 -0.5226039637804032 0.0507961741204602 -0.2038113305270683 -5.208260435139792e-05 -0.0001862802363242428 0.443424576244227 0.05137996241598174
63937000.0 0.843051571235587 -0.5314940997924699 0.052977843969167285 -0.22363837986845764 0.0037152817387916533 0.0009019835530996504 0.4368718050944536 0.0417563579015668
64936000.0 0.838969176347591 -0.5348651194195083 0.05229773393104501 -0.23492999601065767 -0.003283721763508944 0.0020551366005834544 0.4341245004523578 0.04291379435893338
65935000.0 0.8354146897976426 -0.5464270987938907 0.04898783783500191 -0.24768471452203417 0.0008326535207722658 0.0034068657368974127 0.44669888624138027 0.020843929176412496
66934000.0 0.8311893946919982 -0.552261591973903 0.052106115724274815 -0.2615830500647328 0.0017094968117990035 0.0007073162945882433 0.44048378973032015 0.013028470271873779
67933000.0 0.8274753158936905 -0.5590683128890752 0.05316318745992626 -0.27398072874080165 -0.002767876083993168 0.005061903504479184 0.4522015472068591 0.018073621366147694
68932000.0 0.8075737109562298 -0.561611749643278 0.047652086283695036 -0.2854524253712014 -0.003369968162342284 -0.0009712489899734106 0.4516850669777578 -0.014209120024071266
69931000.0 0.8136428077676384 -0.5763691505007826 0.05051823700784756 -0.30470645458581763 -0.0005364219330067322 -0.0005488984247320455 0.45373843323440544 -0.02083267721506394
70930000.0 0.8066974434512456 -0.584176912753512 0.049463197901017414 -0.3144333049499763 -0.0008280117039881249 0.002281789842017595 0.45616648780584906 -0.02185421512583155
71929000.0 0.8041740423036375 -0.5933152785872173 0.0452617461010262 -0.3335341279441974 0.001707903277628959 -0.002792702055834861 0.4551526292143404 -0.0501106412279186
72928000.0 0.7986799383491623 -0.5989641742479915 0.042234864594008555 -0.34856765247873445 0.001994312338277111 0.0009494723302027729 0.46948208435533506 -0.04429631773477396
73927000.0 0.7920838739677611 -0.605306251103707 0.03526508126061268 -0.3710810406421923 -0.00020409619210590927 0.00047829507902221585 0.47103136049588157 -0.053435242722466164
74926000.0 0.7879109091182398 -0.6146962497701355 0.031222567047164324 -0.38221815327507386 -0.002035661910017106 -0.0058912321493135465 0.4654374188011688 -0.056581382388161926
75925000.0 0.780542277720386 -0.6221995794333774 0.024768664391952112 -0.40206379888800164 -0.0014331268941820028 -0.0014557411367314749 0.4744519130706239 -0.07110307785620198
76924000.0 0.7734221405801089 -0.6299239384635912 0.009046713216106205 -0.4262679645911425 -0.002966775485055058 3.7319550443793905e-05 0.46667353762358804 -0.07391877027444108
77923000.0 0.7683169291925035 -0.6345842519368105 -0.0018221880979783834 -0.44869325580711106 0.00488384676714968 -0.0020941973492251418 0.46389913922230336 -0.08076380633554851
78922000.0 0.7620119764262093 -0.6440507914015963 -0.01651433300105599 -0.4717500814412439 0.0024577246650105316 -0.0004130123382695371 0.4642662633344209 -0.09333653858749083
79921000.0 0.7565792854965395 -0.6503789716646332 -0.03828690014064108 -0.4949885992312051 0.0022856542760715842 0.0036775885178028933 0.4767082930595376 -0.11565295565726795
80920000.0 0.7509088630935266 -0.6586396065403197 -0.048068194477330094 -0.5222215969352278 0.0064211475426643235 -0.0004193374208163596 0.47763093488522096 -0.1238349934415542
81919000.0 0.7432878075889586 -0.6642379769740655 -0.06231169951014616 -0.5493328393404104 0.0023509701027233753 -0.0029808835658913014 0.47517558676476146 -0.12057993866213665
82918000.0 0.7367211543653912 -0.6737678297273664 -0.0808383256866171 -0.5775119868731595 0.00503508606681779 0.002347519998261432 0.4841060759311239 -0.13089047997302516
83917000.0 0.7271055158810977 -0.6817434584191349 -0.09954112102676024 -0.6078806677175512 0.004087150209531983 0.0012919822467908244 0.48309174464937366 -0.14804859503428047
84916000.0 0.7223219538671003 -0.6904042464633416 -0.11365299752361309 -0.6366034091676682 -0.0016302527296545104 0.003568555263514076 0.4733122829345609 -0.14820253153126028
85915000.0 0.7167867281455484 -0.6946609598094596 -0.13144625495001752 -0.6722620286619013 0.004501238257840908 -0.0023348204341767584 0.4800923518767855 -0.17384555946706465
86914000.0 0.7089643264532612 -0.703944237581837 -0.14737724968174573 -0.7062188820516232 0.003240021736572027 -0.004628082638657265 0.46311941440722837 -0.17156614017954092
87913000.0 0.7036397320723508 -0.7097487413128328 -0.16523113686488786 -0.7369841581176197 0.0031657067813367352 0.001617651773280829 0.4729368447383153 -0.17959995800101583
88912000.0 0.6942552346706048 -0.7183279635775456 -0.1781696631449068 -0.7712427236355818 0.0018111490953402565 -0.0008429476635285077 0.473734325311883 -0.20282231012956894
89911000.0 0.6878361625833354 -0.7244244375858888 -0.19713184577520979 -0.8025045505679447 0.0012518628809502497 0.002223184156249531 0.47896852480264446 -0.2117041531415446
90910000.0 0.6793084485125943 -0.7318734771013442 -0.20991304369644356 -0.8378742012755226 0.002568735775878981 0.002004883203261329 0.46831566327352114 -0.21093555053068222
91909000.0 0.671508745773803 -0.735691428410916 -0.22781463575303032 -0.8698780858061169 9.343060792008192e-06 -0.002361207673881956 0.47224593487661004 -0.21933778551475483
92908000.0 0.6637050169048967 -0.743985050436681 -0.247957263902589 -0.897041582184428 0.003130482718625845 0.0007868025543336391 0.45511089389823006 -0.23446539488835877
93907000.0 0.6582532761549261 -0.7497524478341545 -0.264490374762102 -0.9330882155011941 5.813583561166826e-05 0.001096416139938542 0.4755437743150025 -0.2513934411778516
94906000.0 0.6442243455272307 -0.7583458696650303 -0.27658384851778545 -0.9663295774155372 0.0029898758413390396 -0.0008457511356050135 0.47498063713065725 -0.24547392399795726
95905000.0 0.6380685163263404 -0.7641807205904261 -0.29995008204128076 -0.9940893095841183 0.0015311509575161822 0.0033642823160069785 0.4651567747193025 -0.26549293447799327
96904000.0 0.632485375951354 -0.7723942803521233 -0.31315801988375896 -1.0356495509034331 0.0006950795505031657 0.001993590996751419 0.45671262707849236 -0.26860024551750133
97903000.0 0.6217335504568399 -0.7773897305318178 -0.33494406753743317 -1.0653415607543337 0.00046891620462613314 -0.0013383448737765698 0.45535650882312306 -0.276388213058041
98902000.0 0.616512050193843 -0.7833153382685573 -0.3489911278553735 -1.1052079262899965 0.0005463761778183393 -0.004217683346005082 0.46439417080893847 -0.28125180546207784
99901000.0 0.6079887216626213 -0.792490884555811 -0.3825036730150927 -1.1386123019759462 0.002308105292435518 0.0026791987929288023 0.46719469627477256 -0.31489318601189686
100900000.0 0.5988780271287694 -0.7951602410026252 -0.4095422501726886 -1.1673837143473824 -0.000551264541460953 0.0028285464275611327 0.45403505302484515 -0.30927630996687416
101899000.0 0.5891472549934391 -0.8034048746626421 -0.43155079733374796 -1.2010432296722737 0.0002541497305774371 0.0011260485162937768 0.45083782271355216 -0.3177731841548365
102898000.0 0.5795957093814076 -0.8087570340186618 -0.46537486001135464 -1.2390811142800184 0.00036006164687148477 0.003385008124883631 0.4503937544927047 -0.3368410116938929
103897000.0 0.5723964413672266 -0.817015146764817 -0.49803670740880357 -1.2738080254160742 0.0024713552824657055 -0.0023416472145967792 0.46803079005268056 -0.3360015791937051
104896000.0 0.5645160636403508 -0.826172760527121 -0.5378957415714967 -1.3031677590913802 0.00035538211989506773 0.004003942332676994 0.44211473259165834 -0.33381422375537945
105895000.0 0.5560705077783213 -0.8273371730825104 -0.5810542583483622 -1.342491678068894 -0.001535609339088961 0.00023133567370331015 0.44403953782718547 -0.3568884647774701
106894000.0 0.5445095908157779 -0.8342440322319566 -0.6286852976824322 -1.375520037941633 -0.0030575670429095272 0.0012050821904390952 0.4341571478966416 -0.356880326808937
107893000.0 0.5366932257717599 -0.8401651292262151 -0.6750987135350982 -1.415391781017629 0.0003921877047014458 0.0030147854169252264 0.43687120133206264 -0.36505994848063017
108892000.0 0.5258595172714128 -0.8448293228156069 -0.7363392955301927 -1.4585355648053633 -0.0012323269907243682 0.0006725583017056757 0.42886435974056103 -0.3781816509831204
109891000.0 0.5155999733165064 -0.851183975223346 -0.7839802177331546 -1.4915831901345884 0.0019073682016426882 -0.002119155859195434 0.4489753230339922 -0.37127056076603004
110890000.0 0.49898379876936844 -0.8680516073199166 -0.8679797789932445 -1.4974593412372965 0.0004191873865620093 -0.0008857679413979219 0.43049735879394935 -0.38762385674959904
111889000.0 0.4970637936951825 -0.858344406726317 -0.9041494433838441 -1.5561636407938224 0.002444851567099718 0.002575988707399559 0.42959354254513077 -0.404470750158185
