! Created with skrf 1.9.0 (http://scikit-rf.org).
# Hz S RI R 50.0 
!freq ReS11 ImS11 ReS21 ImS21 ReS12 ImS12 ReS22 ImS22
1000000.0 0.9790229755754076 0.007484479907319176 -0.009996113104596261 -0.040956607968557636 -0.004398501875332889 0.00015520772337119344 0.3247639010738059 0.27356064395911045
1999000.0 0.9960620530339085 -0.008571877887328532 0.004230926390879378 -0.028859038965900446 -0.0004144413155854935 0.0017412568055171426 0.24763226079811979 -0.0477452310839731
2998000.0 0.9975551448325731 -0.02147687857916159 0.00854209838858086 -0.016791949699775908 0.0016598120722533974 -0.005750799883085993 0.1975848998686484 -0.12597155968271642
3997000.0 0.9979632012967405 -0.027414766378199878 0.011018984346666691 -0.004327012536244193 -0.0033129405348407384 -0.0016024478915113473 0.0883986624648195 -0.2124499893420353
4996000.0 0.9969893388954308 -0.035056016783739076 0.009417060705497537 -0.004507204841448214 -0.003673263964248663 0.0005629625143303924 -0.05376501620094059 -0.1984258089145729
5995000.0 0.9977181087460046 -0.0454132440952617 0.007597099973065131 0.002101029336599991 0.0005589851204931924 -0.0008035663298422921 -0.1273696920742282 -0.09982703692525532
6994000.0 0.9974204335411335 -0.05966234579722175 0.007339282674964422 0.0031423254793173597 -0.0017345882596718986 0.001767223784982653 -0.13834695186693813 -0.011993312892070718
7993000.0 0.9971343565566697 -0.06622228924883392 0.004855421147083839 0.006077354073225539 0.0028286405316903943 0.004810122778368374 -0.14690083210456825 0.03791899569866601
8992000.0 0.996660145684749 -0.06938759135944167 0.0031249303295620215 0.004542683728434481 0.0036189441364706705 0.003146753904058046 -0.14878839171134994 0.061095872137157385
9991000.0 0.996724660674501 -0.08119462354460869 0.0031188958394814522 0.0036683039372665525 0.0014713738701942968 -0.002092240064406916 -0.15087658072913634 0.08611346257400407
10990000.0 0.9925519087975954 -0.09397162062159953 -9.693989200868073e-05 -0.0010664599643054327 0.0008887013751850683 -0.0006993468882951924 -0.13478529604128806 0.10208733877941152
11989000.0 0.9919905778995297 -0.0975331137540325 0.0017847609106417459 -0.0016808284321861188 0.00022484893821104944 0.002977074348724661 -0.12608307643418645 0.13838285565015304
12988000.0 0.9912184207421205 -0.10944154868465869 0.0020981020822936048 -0.004557070057951187 0.0017136620474037271 0.0015340696384089172 -0.11438434777680388 0.1744696086534133
13987000.0 0.9893564210679375 -0.11910644518094778 0.002720516592478962 -0.0010685130558615835 -0.0030556090543595225 -0.0025571224287108557 -0.0921087735184964 0.17354830263093426
14986000.0 0.9906170797067616 -0.12276442358536767 -0.004939478060929182 -0.0008291276116879037 0.001971775683841013 -0.0008956118461796409 -0.07891313711525212 0.1952571198365873
15985000.0 0.9911619526870811 -0.1318756923603901 -0.0005619442995255778 -0.005694385280735727 -6.793741399977454e-05 0.0050746252616784785 -0.06892379564817563 0.21274956669741663
16984000.0 0.9864423224511344 -0.146568151800493 -0.004891183875665601 -0.0028212982700219474 0.005585874782296077 -0.0008230185812348048 -0.0583592635127415 0.22146525625059205
17983000.0 0.9871596204511413 -0.1502794948978692 -0.0002621798887061832 -0.005364590329322642 -0.0006666709751960877 0.00010834703186104101 -0.05063308076613922 0.22387584963630988
18982000.0 0.9838286442170145 -0.16123428457716804 -0.0014243711201834958 -0.00821676549226563 0.0024406412577549753 0.0006122900089117996 -0.009910504751143773 0.23239807530528722
19981000.0 0.9844340831185674 -0.16294579151210256 -0.0027225123441570447 -0.0010270597271398161 -0.004068890937873405 0.005925920854026966 -0.006560008190555854 0.2421696717950915
20980000.0 0.9829408129736942 -0.17651087513412092 -0.0047163402167989055 -0.0014096397229807532 -0.0007689317084301298 0.0029082460951739835 -0.008541122947764572 0.25200275321698384
21979000.0 0.9804482068575672 -0.18351462643283012 -0.009451878331346376 -0.0072558431233540905 -0.00030649242197061227 -0.00317296643193709 0.021193549682332703 0.2513006675842157
22978000.0 0.979822925083964 -0.1928368629824308 -0.009354692531287453 0.001178739703740724 0.004478463440099563 -0.0011978401422942824 0.03881581246183169 0.2558946757211214
23977000.0 0.9818870171123383 -0.1995781251821818 -0.008590232133544116 -0.00010176914148063607 -0.0022856979895717238 0.005075333739417319 0.037739390040110773 0.2428399319065141
24976000.0 0.9752946647203564 -0.208680089958308 -0.004501192050115363 0.0001608100259133652 -0.005204172137821809 0.0007514312024531482 0.06865700990074294 0.24638641079379617
25975000.0 0.9707282317737632 -0.2236743660444423 -0.006475332732525248 0.0004843250157560622 0.01660383405597459 -0.02279270898427079 0.09333075001108128 0.24944803424212236
26974000.0 0.9719223137051581 -0.2253131850270023 -0.006209088778860786 -0.0024843180226019924 0.0005595647597826669 0.00113450377453509 0.09048369587613465 0.2545153875463823
27973000.0 0.971532385832851 -0.2321904718090911 -0.0019414950656042609 -0.0026479587401684167 -0.0040203555559790004 0.0016927640774806092 0.11097968291103225 0.24752407456036823
28972000.0 0.9680533833218983 -0.23961333693270473 -0.001958855391262179 -0.001614986615834043 0.0010564653522817068 -0.00014358818392990838 0.11596809775357672 0.2570317668449114
29971000.0 0.9668029984580592 -0.2515261620199897 0.0011460287356283075 0.0006125629204213908 -0.00021578004773293772 -0.001195518313170221 0.14654570152623148 0.263119317903845
30970000.0 0.9637735137799529 -0.25641535052769926 -0.0013575872823988796 -0.0016891710283949415 -0.0031190464375566345 0.0008061653039552546 0.16776260871010956 0.2347207953010953
31969000.0 0.9628737335983876 -0.2646453302578781 0.008111477042039506 -0.0052020181200151585 -0.0007864940904764214 -0.000544858182993214 0.14813612618741676 0.2433616233677482
32968000.0 0.9599864471208803 -0.27706093618052535 0.006245773426299948 -0.0075270170086844754 -0.00016201340893090365 0.0016895229474308976 0.16316610659019976 0.23818611580903615
33967000.0 0.9568034673977495 -0.28587532350247363 0.011499296931406472 -0.007585513582015771 -0.0010669565730724502 -0.001709032037990363 0.18284276809485855 0.23883215078462483
34966000.0 0.9537278777978767 -0.29290479842460476 0.016425693268098635 -0.011694847359086788 0.002117942295259308 -0.0018043833090426583 0.20046160266953578 0.24957660113312138
35965000.0 0.952516200522036 -0.30027812518407776 0.01526285564752018 -0.01831779810492957 0.0008015327762145863 0.00020509338131138717 0.21478775224278715 0.23158321088431924
36964000.0 0.9505569134354821 -0.3088762997318011 0.013850085350605664 -0.016199393514293628 0.0004343290468310562 0.0019063666799382605 0.21333451548932314 0.2448251030244565
37963000.0 0.9465677026190329 -0.3183066323162717 0.021667657854785104 -0.020728652989954976 -0.001729060069229496 -0.0002672722653720197 0.23579672778770583 0.23657846926888876
38962000.0 0.9425800573652707 -0.32740729455875456 0.022147331085454507 -0.025493307850517566 0.0004242013238534324 -0.004197870789151328 0.23745616063524128 0.2269948540944717
39961000.0 0.9412316081335513 -0.33332878904068397 0.022202270902379227 -0.027407582853425157 -0.0004895580710166669 0.0023160899598086513 0.2522312058336144 0.22112296028617384
40960000.0 0.9390887252713442 -0.343815702935805 0.02279539877618936 -0.02314623467422951 0.0005582356868740337 -0.000984036182782054 0.276049095714116 0.22381542524236084
41959000.0 0.9345859250164537 -0.3530497508215237 0.026519041863095585 -0.0294248321042514 3.927883018471115e-05 -0.001319645364443248 0.26704634766991575 0.21465885766992823
42958000.0 0.9309780348885739 -0.361579069156401 0.033753518025086485 -0.039468616294597435 -0.0008970223334750097 -0.0014644920646272035 0.28179250291224517 0.19133554361762561
43957000.0 0.9283590123705963 -0.36731133821771805 0.03216425917351296 -0.04756328828517943 0.0015501298088378428 0.00508614609539997 0.284980140096817 0.20850303593089134
44956000.0 0.9254703417797621 -0.3751916302611911 0.031811617706442336 -0.04975018193885491 0.0008076642435654542 -0.0004307899134413928 0.29814977833970785 0.18732745714652474
45955000.0 0.9213713704807774 -0.3833462615291479 0.034036435166744275 -0.0575406794853868 0.0024390589317784313 0.00373262233924246 0.31784186920545754 0.17400190662742981
46954000.0 0.9167288578738002 -0.39424066097549826 0.0351205765411377 -0.06506945048106744 -0.0004411393429155733 -0.0010687885641267015 0.3275263520734766 0.17150984098716043
47953000.0 0.915251865656247 -0.3997271358473916 0.035226775345315056 -0.07255187743449994 -0.00200361811861481 -0.0020150874787111476 0.33294278426050067 0.1598523115781117
48952000.0 0.9082299952465992 -0.41243042090801496 0.03563872615860874 -0.0786671648455167 -0.0014283484575037448 0.004319093833102804 0.3360444398329813 0.16706684565866983
49951000.0 0.9066054790733042 -0.41631713894850003 0.03618863312874112 -0.08498833613804532 0.00046223223275733606 -0.0011792054336124676 0.355759480722192 0.14556761650269714
50950000.0 0.9027312925862283 -0.42463308728665655 0.03879790211254983 -0.0957384675694415 -0.0015799006420389831 -0.002501248803754798 0.35572170413103266 0.14637138494977092
51949000.0 0.8993286679398277 -0.4338886243249241 0.03690054840127684 -0.10302889319494325 0.0024289215789360112 -0.0028383527078005995 0.35752026461644226 0.14133671001402684
52948000.0 0.8970329224883337 -0.44080867099915255 0.04313648501628981 -0.1144649206686896 -7.02370156652188e-05 0.001609568838645643 0.37773047216639233 0.12939497696956526
53947000.0 0.8908417293898007 -0.4484343273789252 0.044818760989302556 -0.12348615608797518 -0.00015652544311089037 -0.0015874963285185699 0.37201797407698234 0.11867201801460063
54946000.0 0.8859330655506242 -0.4570424965931215 0.04349234233469197 -0.128600951708189 0.0028907590552231213 -0.0010928492042114174 0.3923629821250016 0.10858579269529546
55945000.0 0.8833310536784426 -0.4641854356131097 0.041765766381886636 -0.14089416762514928 2.7161446831631225e-05 -0.001072597787102161 0.3907276373572966 0.0941159803348769
56944000.0 0.879967807169229 -0.47493693593758196 0.04674438549297032 -0.15098934893403768 -0.002103896626704216 -0.002755598264668241 0.4045703601326339 0.08959119351164435
57943000.0 0.8741426151832151 -0.4842792572273247 0.048761268051929776 -0.16151065085909305 -0.0007615275689336914 -0.00011273070231197759 0.4050223726100846 0.0746304190964232
58942000.0 0.8693017905044099 -0.4883075103117162 0.04853011513321757 -0.17277567266188448 -0.0010324088272255514 0.0007033577395285854 0.41986144317995877 0.08280225898761615
59941000.0 0.8652557703325793 -0.4981256903183922 0.050588696722955205 -0.1819983570743507 0.0007421087050472478 -0.000492127730973471 0.42952858236235997 0.08283164063612045
60940000.0 0.8583911548909271 -0.5060998670638239 0.05029163461514247 -0.1842859087850642 -0.00017901490886517007 -0.0028277574662265493 0.4089721736324487 0.0714897068940012
61939000.0 0.8560930737381923 -0.5120960671031307 0.05148649272384857 -0.19397874077289268 -0.0019507482305574399 0.000925460817850771 0.4170543885164475 0.062300638503406086
62938000.0 0.8507161142302645 -0.5222872615534095 0.05438323272089222 -0.2136886406713873 -0.0012518087924285183 -0.0010135495189178745 0.44046886660420237 0.04831785870058195
63937000.0 0.8465787316682668 -0.5286657541130774 0.05344814294501358 -0.23402811255430275 0.002065065984336563 0.0031298324910506094 0.43823632825210845 0.026246685153106773
64936000.0 0.8385468994492511 -0.5355224893466638 0.055800844742433305 -0.24775614351694863 0.0005349327601740175 -0.0010349250597935136 0.44177136742335615 0.03138331607046877
65935000.0 0.8356857794329342 -0.5480053622096859 0.05334303731986494 -0.2632736006995982 -0.0007169734974106518 -0.0007571936156074865 0.4492020289500165 0.007312060682774912
66934000.0 0.8324788456389557 -0.5505142150095961 0.051437698444931554 -0.2738279318273581 -0.0012677544554062798 6.217694304585303e-05 0.4340281221960626 -0.0030817281206704087
67933000.0 0.8284590840859574 -0.5589321470200623 0.05790044417587277 -0.2875947955236267 -0.0019307703878127236 -0.0023969036302791784 0.4418806082528843 -0.00252202395329848
68932000.0 0.81582874508578 -0.5521916961126466 0.05239281562434377 -0.2954058496723508 -4.4834381035884266e-05 0.0012686108470825633 0.45715448278118825 -0.02855943534218135
69931000.0 0.8137000007616895 -0.5765721036023392 0.052397195217543054 -0.31670286208707477 0.0027329305967051403 -9.082908643097588e-05 0.4506032944503685 -0.033153965664525206
70930000.0 0.8106391109960804 -0.5807424519565316 0.050808484489191 -0.33369638410897057 0.0012309711419140228 -0.00029465002201915216 0.454405377452036 -0.043739883915285806
71929000.0 0.8051060368550105 -0.5912793424005428 0.04185156154834743 -0.34877475790252493 -0.0019624515275362365 -0.0011422474681830955 0.4491740680800641 -0.047503318583188715
72928000.0 0.7980125708521402 -0.6008783337564751 0.03795857212812755 -0.36406039128458306 0.0018547500920783968 -0.004016701916988013 0.4655131218604074 -0.05256354857187156
73927000.0 0.7927752132097776 -0.6062425710556721 0.03201632340005651 -0.3850194235387974 -0.00045094456996484854 -0.0024719053758103723 0.46313090660661516 -0.0712164180613906
74926000.0 0.7891641767113444 -0.6152714300375938 0.025781366172222413 -0.4027608964634255 -0.001301561610186647 0.0011942705608396882 0.45814401377013025 -0.07136864384332058
75925000.0 0.7798584760858951 -0.6201374881830524 0.01543415123262222 -0.4239870332703213 -0.0027811899774544033 0.0009590401145453583 0.47271305469826913 -0.09387203682583632
76924000.0 0.7746427027455235 -0.6306555312467421 0.003520281773425445 -0.44246545367647144 -0.005049283143878349 5.4593782447936254e-05 0.4704381566754858 -0.09510932270693061
77923000.0 0.7696836014108913 -0.635241987482062 -0.012476590959022472 -0.46995537646603347 0.001166261731254896 0.0020196761761753623 0.46130364191276324 -0.10477175440938792
78922000.0 0.7641600925065976 -0.6454826207577615 -0.025246507264023527 -0.49841686560902776 3.172605287019315e-06 0.0022470523696088377 0.4638198103533281 -0.11444358605357839
79921000.0 0.755055038634209 -0.6488261337778352 -0.04114051334768888 -0.5231794105253939 -0.0007839057333101108 -0.0002721204036553257 0.4666380587603451 -0.1242046557314851
80920000.0 0.7510071022790274 -0.661338253249771 -0.05462954124355998 -0.549887916943015 0.0012702451049592294 -0.00011391207745939921 0.4702222337827874 -0.14055378059776857
81919000.0 0.7455164250578611 -0.6649572280966245 -0.07392054829804247 -0.5772647861980815 0.00040648069527836225 -0.002843987455434714 0.4651631617536235 -0.14955912035169336
82918000.0 0.7359168078327871 -0.6744002154130739 -0.08575047644705032 -0.6075795648917958 -0.0004139601922937949 0.0048728274238036065 0.4702464525702739 -0.15428700544787677
83917000.0 0.7285700195249242 -0.6796414084489346 -0.11099370095215744 -0.6381460917861543 -0.00445934704256632 0.0048090430013522445 0.4783517586378751 -0.16436651869542065
84916000.0 0.7238269109099296 -0.6896163395530799 -0.12304268925071321 -0.6719922684071241 -0.0011781874850851552 0.0019112902259439085 0.4615219449566449 -0.17646238353664967
85915000.0 0.7185986459523284 -0.6941971334826154 -0.14375772064106582 -0.7037493203450255 -0.0011060694105054871 0.0017014015811994665 0.4636416460326885 -0.18564807238724357
86914000.0 0.7105405549374303 -0.7041320773159029 -0.16066149050906006 -0.7406852486376431 -0.0011371010830324385 0.003849314421318095 0.4597986218360656 -0.18720196477242088
87913000.0 0.7012715946955205 -0.7101963028889983 -0.17873412851218431 -0.7660381516223523 -0.0034306751274176066 -0.003501584282495309 0.4492707352046985 -0.20364438362407558
88912000.0 0.694696662561126 -0.7180527483572727 -0.1999142411525759 -0.804759978703209 0.002617718876988022 0.00033159374575158937 0.46823588950201656 -0.21996752163729838
89911000.0 0.6873266531871948 -0.7257433224084736 -0.21240764320217723 -0.8437472031374662 -0.004450558724794277 4.4432400357636e-05 0.46766000879510194 -0.23007690344483767
90910000.0 0.6813863221337466 -0.731571705309224 -0.22906560820039787 -0.8782513810918726 -0.000974268559288711 -0.0007129269689705247 0.45713561724899715 -0.22878462257629645
91909000.0 0.6714019096354682 -0.735595495937031 -0.24957235299753672 -0.9078435538699788 0.001971866764392119 0.00022662707646706055 0.45604151528873754 -0.24476153287465782
92908000.0 0.6648468552121249 -0.7447340599694281 -0.26536801122553594 -0.9423903953734905 -0.00014992528788909727 -0.00165029356510906 0.4506416510185212 -0.2389596704787261
93907000.0 0.6605726587769538 -0.7495392947139904 -0.28441490310694956 -0.9760662133516682 2.0808411936717676e-05 0.0011968278536266907 0.4635549736473351 -0.27248703213697795
94906000.0 0.6469349892139322 -0.7592216754675601 -0.3042088620571588 -1.0057568295636319 0.001702831258590095 -0.0015505948980209087 0.44401231574621414 -0.2586884564387909
95905000.0 0.6420384357640864 -0.76351530218235 -0.32760358712146886 -1.041789409151939 0.0001560934411117632 -0.0006267907301379692 0.45245295261979895 -0.28623353991911205
96904000.0 0.6318042366983331 -0.7737902424998887 -0.3458063168691025 -1.0759765818870901 0.004403439416996556 0.0038244987779892186 0.44105982303332725 -0.3027487508658128
97903000.0 0.622698503693403 -0.777540817431469 -0.3683476049948974 -1.1104769049352279 0.004192508886294688 -0.0009210343277207826 0.4400076020904419 -0.3129582319138121
98902000.0 0.6186075143196754 -0.7849306184601493 -0.38751699225741515 -1.1530184392874065 -0.00039484210261914865 0.0038426908316937613 0.4444290125068441 -0.3059001811280788
99901000.0 0.6072994221134026 -0.791000112228644 -0.4172708878357033 -1.1843361015732838 0.006602467347451645 -0.0031162701693586902 0.44864602155348715 -0.3277826891863388
100900000.0 0.6008899531373719 -0.7946886609607356 -0.4474686536155829 -1.2129465647618025 0.0009193910579570373 -0.002357525193987254 0.4563813108097755 -0.32924423891322846
101899000.0 0.592356816370533 -0.8018425402660841 -0.47583375856180893 -1.2524255378033227 -0.002294047771369716 -0.003368367340830516 0.4458524607231143 -0.33826145020700155
102898000.0 0.5828809971217362 -0.8080796290709044 -0.5099549874019077 -1.2883217876186523 -0.0007906869057754443 0.0015943358698126482 0.44012014986135284 -0.3607225084618651
103897000.0 0.572974307732722 -0.8146477548531071 -0.5468454340367829 -1.3226765558416476 0.001946334919979932 -0.00294541815524837 0.44106261805604025 -0.34563117545521205
104896000.0 0.5657010095272751 -0.8241930362420091 -0.590486106079258 -1.3565809333645948 0.000739464446630312 -0.0006304307110933973 0.4323106326264415 -0.36194230881056993
105895000.0 0.555523111249709 -0.828078538067159 -0.6357954479257246 -1.4015460354411935 -0.00011149670337504204 -0.00021882447477715534 0.42934571960973306 -0.3748462983381328
106894000.0 0.547347312833664 -0.834177535997444 -0.6912337755068129 -1.435086427943487 0.0005426261538828181 -6.241729372810192e-05 0.42155481058624383 -0.388733172448141
107893000.0 0.5399991406653987 -0.8403713735376943 -0.7404487837082938 -1.4746471147637012 -0.0003444521794637795 -0.0017582235826093485 0.42107805582061253 -0.3997028936189143
108892000.0 0.5286950599028025 -0.8430528437176238 -0.8044785485898958 -1.5079335031982328 -7.639026780393859e-05 0.003077530526985206 0.41553616748913136 -0.39870830965687754
109891000.0 0.5156759916107825 -0.8523138182296683 -0.8603397962728943 -1.5485414490110088 -0.0005167371822624933 0.00017527126150461428 0.42656086223132555 -0.3885940334815604
110890000.0 0.4966947484349454 -0.8639744625387642 -0.9441940473200888 -1.5461364180127541 -0.0011657719759314217 0.001445209707354939 0.41644280065831046 -0.4030385579666823
111889000.0 0.4965001627024361 -0.8581441741015635 -0.9877603677169183 -1.6131688118940741 0.0008309482829137957 -0.0018502463064607412 0.4071352624718876 -0.4280314462886427
