! Created with skrf 1.9.0 (http://scikit-rf.org).
# Hz S RI R 50.0 
!freq ReS11 ImS11 ReS21 ImS21 ReS12 ImS12 ReS22 ImS22
1000000.0 0.9801769159774948 -0.0018298398015178963 -0.013628879340389654 -0.045881160063528256 -0.01534464341178333 0.0011170958130860874 0.36291050139203584 0.3659682193475018
1999000.0 0.9921453292583465 -0.009324153253100324 0.004618481450462732 -0.020979777347944654 -0.013849589471305556 0.0020672761200919176 0.2476461590125055 -0.05312831546466386
2998000.0 1.0002310147807314 -0.01868353089751792 0.0125805610527818 -0.01685148363845836 -0.0010805650496561428 -0.00278004897609046 0.20019062872804583 -0.14643116276076523
3997000.0 0.9992484457465678 -0.028658294469634873 0.010935757962307639 -0.007358448933160104 0.001065498001100885 -0.004052806809033712 0.10374931641519737 -0.21141224742048237
4996000.0 0.9991755508088128 -0.03439670011491698 0.010339132281511757 -0.0018453533047905711 0.004450409438845477 -0.0021931397127486173 -0.015640030066191295 -0.22230750963343238
5995000.0 0.9995526954635586 -0.04963262370200181 0.006801762346675578 -0.0017235627368176478 0.0023512173036394014 0.003478939770198194 -0.12546954849452194 -0.12224249276573515
6994000.0 0.9982105425278661 -0.05816870862605723 0.008172221444485336 -0.0008004039238928051 0.002735077102434099 -0.004967053408635818 -0.14676495578350846 -0.04435103851224691
7993000.0 0.999297182003001 -0.06795049279549784 0.005186181320730127 0.005114422285127609 -0.0033766749562802174 -0.0013590231885181325 -0.17299907997904546 0.01653713380377139
8992000.0 0.9973267238474306 -0.07272197989604566 0.002741474075695624 0.0022719637837757944 0.0009964213552580887 -0.0004031551853512907 -0.16793557656987662 0.0644117948192185
9991000.0 0.9945898716758429 -0.08040657635616882 0.0006631531075437318 0.0026194854620478604 0.002836692266064971 0.0011273570776587072 -0.14910839559477723 0.08077248827237786
10990000.0 0.994518532940721 -0.09061324936164696 -0.0010974060134123003 0.0009448784273923932 -0.0004470031599618204 -0.0006042376487385962 -0.1505401877012847 0.10926646085538774
11989000.0 0.9951431366584681 -0.0980609226886299 0.006428727194604189 -0.0018646981140808165 -0.0028369281080670183 -7.406979150806688e-05 -0.13451143287730138 0.1381752895936724
12988000.0 0.991441528673 -0.10746295730411072 -0.0014992220676098688 -0.007195157703371871 -0.0005050162597015157 0.0012971596629317037 -0.1265216250959153 0.16660880460554495
13987000.0 0.9890739663306142 -0.11605059565563347 0.003490470560069581 -0.0035719231173959426 0.0005441141428419302 -0.002159818701808185 -0.10967096763558967 0.1922604346033615
14986000.0 0.9903303420323281 -0.1237261649778742 0.00019944046554606052 -0.0007942933042666107 0.0024234252286204744 0.004009871676373922 -0.10893990288031796 0.2059868593926003
15985000.0 0.9914997854087002 -0.1353104079311766 -0.001090728565449431 -0.0016219557223958445 0.002456405470603863 -0.003447670993727129 -0.08075646028971918 0.22904058843243266
16984000.0 0.9886651463728435 -0.14239553358010937 0.00038251914064071023 -0.007719450010347855 0.0028582336522288056 0.003609727286882872 -0.06454500317002745 0.21760800471844124
17983000.0 0.9892832953798506 -0.1482196990834324 -0.003212871699144898 -0.005837627880383759 0.0015981060152441208 -0.0014930297949272673 -0.05240792362531636 0.21537851865386437
18982000.0 0.9848912785301639 -0.16120308655611768 -0.003119892809923262 -0.0032998543766034785 0.0011049404788394438 0.0011212030902660146 -0.031092644982813066 0.23956248811669734
19981000.0 0.9838166669955074 -0.16656683256834393 -0.007289874878391163 -0.005397980845825727 0.0006658629565049252 -0.0009851815736358046 -0.02137802566191381 0.24070765290293233
20980000.0 0.9835530951401814 -0.1729983637037336 -0.0009071122970817623 -0.005081327744832747 0.0039979438643634535 0.0008371279313716739 0.0016017347042812584 0.26171116939640443
21979000.0 0.9811275117106673 -0.18357791084287509 -0.009087634072140152 -0.003672511040538529 0.005173404983713366 -0.00409899663598175 0.0070529368828520025 0.2486802482541919
22978000.0 0.9785262251724628 -0.19107792314846458 -0.008105127204774859 -0.004643216104686327 -0.0028577563696000397 0.001390894308353586 0.022709687620382744 0.25282711221865556
23977000.0 0.9788575710282422 -0.20032119545043053 -0.001931282814419945 -0.0022078973371119806 0.0018517710770350488 -0.0042006421309195635 0.02769681557930735 0.260766356012822
24976000.0 0.9744875585182058 -0.21042166728316328 -0.004676342195243023 -0.0012511094070422688 -0.0008666649644740316 -0.0019303787140813136 0.05815338886118017 0.2552613886905154
25975000.0 0.9720643380543162 -0.224658025033659 -0.0072195644479125355 -0.0030910562736607317 0.023458397399956695 -0.01279373999875349 0.07316555736099851 0.2608945800300467
26974000.0 0.9730923514481058 -0.22673665988806516 -0.005078367625323788 -0.0017310867314676158 -0.002050154583967102 -0.0017309249993106807 0.08512354029798937 0.263003950347474
27973000.0 0.971864592902121 -0.23081115876879638 -0.0008416638358039619 -0.0036155847987571475 -0.0031892415189845743 0.0014192083261047224 0.09389745621040138 0.2611976361266996
28972000.0 0.9678168460097488 -0.2437654443614644 -0.002981100628520421 -0.001782191995839717 -0.0001413403982053404 0.0012922442880741072 0.11422754266065528 0.2595387913698224
29971000.0 0.9672715651570831 -0.2526775677905875 0.00011000962026168907 -0.0014016356113961605 -0.00016731052790594164 -0.001291338997767757 0.14903407317770462 0.26725125056594695
30970000.0 0.9646505903509882 -0.2562551422615551 -0.0010275428380688188 -0.0012904644259077724 0.0035642449422495248 -0.004031615827512424 0.17437142879076206 0.2511754202175607
31969000.0 0.9631329824022191 -0.26531151345919135 0.006226256480436582 -0.004274264120234202 -0.0016897778770654907 0.0003110636015609081 0.14872471309788152 0.2496273703662177
32968000.0 0.9623342872599189 -0.2739617384324752 0.0078542042498663 -0.006970804117516296 -0.0002528050888936926 0.0013360745035956834 0.16210340445981702 0.24292991114421658
33967000.0 0.9586903933458334 -0.28159690154263284 0.009119996885424326 -0.006635839093946644 -0.0019953752392049013 0.0007400258081661625 0.18405359838313515 0.24341296250450506
34966000.0 0.955021895058449 -0.2946980302359835 0.011711917151176776 -0.013124040995210707 0.0011386813059216358 -0.0023106186867686757 0.19214869534640416 0.25605998734998553
35965000.0 0.9525171726046301 -0.3007012942461031 0.01294774131360388 -0.015580253580927213 -0.0023741902003092752 0.0001092143523507955 0.21489113105617624 0.25050565231826066
36964000.0 0.9511517626052759 -0.309623930299124 0.01901149225872177 -0.015078680161624298 0.0007494409444958591 0.005274687834381685 0.21109108822682737 0.25262518476235457
37963000.0 0.946436171751739 -0.32039398102478905 0.023359731146099277 -0.019182238712724838 -0.0005680571217499672 0.0009005747609549933 0.2344323176089341 0.23153616048579506
38962000.0 0.9442649040362767 -0.32818777626590717 0.023102831156717674 -0.024496320180676018 0.0019469154811622912 -0.0017882637819154655 0.24152806348227715 0.22436265421522603
39961000.0 0.9425420647882802 -0.33317306699318533 0.024318982352048213 -0.027294907706031313 0.0023459076481838047 8.729441816145747e-06 0.2540873067999136 0.22556970990841518
40960000.0 0.9381443668484646 -0.34052766565360515 0.023680820092688244 -0.023428254925788494 -0.0012505042526545621 0.0011101660877061842 0.2736421568877554 0.22498358725430856
41959000.0 0.935127353286384 -0.3523529435106262 0.02947054688382941 -0.030707261721260867 -0.0015625292203395428 -0.0010674422554804081 0.27004763584643937 0.217527697031318
42958000.0 0.93098241931904 -0.36079738458013666 0.03205218750679644 -0.039456863952919044 -0.0016282712284955985 -0.004492342763509196 0.28327523297653584 0.20282945363799937
43957000.0 0.9292256705430445 -0.3668855723053568 0.03281883682101412 -0.04614957057877839 -3.8996066760378744e-05 0.0001558641474702572 0.28076696463034384 0.20438620784500916
44956000.0 0.9253035989324684 -0.3753581409902039 0.03363859490049839 -0.04963294891279546 0.0008843193197011276 -0.00016998918331274807 0.31031678131969026 0.1944415710397022
45955000.0 0.9211322650294543 -0.38495686159842263 0.035486144800902446 -0.05611319011007469 0.0001071902530180047 -0.0007860449607148348 0.3069143949513905 0.18536195677814227
46954000.0 0.9179179081665025 -0.39341842232314456 0.03243267830505264 -0.06206536241270946 -0.0010456472458545902 -0.002874849425576357 0.33116974110055997 0.17929913680882034
47953000.0 0.9137305393041072 -0.4016589202893738 0.03381624477839658 -0.07033876351520238 0.000512714091454662 -0.001266437555777947 0.3353403300770632 0.1665456174920442
48952000.0 0.9103975710393821 -0.4095224647215256 0.03546080590441741 -0.07821039020398272 -0.001891806475864235 0.0023556307839680954 0.32926092758490527 0.16390273969012153
49951000.0 0.9055705106097246 -0.4185011749553909 0.03522149116171798 -0.08455210526382548 -0.0037068019625108965 0.0003022126043869896 0.3547735606332699 0.14709520760579373
50950000.0 0.9034072749539073 -0.4239731146822347 0.03910709074584547 -0.0940083609573968 0.0019909840985754016 -0.0001915506247676958 0.34756688082294335 0.14318008336360863
51949000.0 0.8995532321251762 -0.4331509598167235 0.03473241830027407 -0.10128678100707313 -0.001116009000274348 0.005363706639547193 0.3524575310441899 0.14073273917334914
52948000.0 0.8975843838447967 -0.44164864443464213 0.03994871391617245 -0.11003422199881185 -0.00138149624269929 -0.0007613705430549205 0.36995582475236605 0.13721317903830035
53947000.0 0.8904144020925371 -0.4509386195705461 0.038062563744853374 -0.11833481074970702 -0.002905356139572111 0.0037057389326759977 0.3658255181247902 0.12583199142797027
54946000.0 0.8854667022756005 -0.4572165233028798 0.04438108002223393 -0.1261333366890374 -0.002991999316274239 -0.00391743162345107 0.3861438414107808 0.1350879713428467
55945000.0 0.8831569532298769 -0.468068149874269 0.044037997334122204 -0.14043896469270856 0.0002436007313123041 0.00011531435824350158 0.3885482400993543 0.10436716161276258
56944000.0 0.878739270237351 -0.4756563954618165 0.04529362791577478 -0.14740959873993062 -0.0002116827617763465 0.004941980522974467 0.40274729637984596 0.09872740832759908
57943000.0 0.87533480827258 -0.4848410798307065 0.0444321080197605 -0.15991430773311163 0.0025792613898706304 0.0025765897234760952 0.4019877679383033 0.09551184010472633
58942000.0 0.8705688790770888 -0.48925306546557396 0.04806820741501914 -0.171349778240874 -0.00027167383795658986 -0.00016243119516563484 0.42287574851253407 0.08360837452028387
59941000.0 0.8657288422916191 -0.4986632300114105 0.048651906478708866 -0.18250844290025864 0.001559931452382482 0.00017896975900101068 0.41727169724338403 0.08355485522407237
60940000.0 0.8590423585346645 -0.5070112828933898 0.048920023518258304 -0.18208217912630292 -0.002496287017899009 0.0007288615687754937 0.4109059347727975 0.06910127965163501
61939000.0 0.8566496158510832 -0.5125653494025826 0.051449447394758104 -0.19176667552891982 0.0011772684498275211 0.0032859840174049395 0.4167431461864679 0.06389910042100966
62938000.0 0.8500095902291063 -0.5241798726692458 0.05393785866322453 -0.20550373965129204 0.0024343976279383706 0.0004636428534950501 0.43940759882080277 0.05208234802211258
63937000.0 0.845675837470481 -0.5302342693561033 0.054834669455365595 -0.22920576249172006 -0.0012841090917022568 0.0018721109750780283 0.4320170108211416 0.040942867149427145
64936000.0 0.8385188446263423 -0.5377454463698452 0.053229088289220544 -0.24328565638070068 -0.00038374712240020237 0.0005407830715948533 0.43603060855518566 0.0484967426535474
65935000.0 0.8364814627663775 -0.5466244827678516 0.05333046415358834 -0.2536315227640343 0.0018804109977414631 -0.0011896383763450788 0.43786597207083194 0.01759206476993331
66934000.0 0.832256904075849 -0.5512931392309204 0.05542832991213987 -0.2674286596864872 0.0024645547500373086 0.0006221210369249215 0.4450745055280653 -0.0010475257505870434
67933000.0 0.8295010788334166 -0.5604914532588324 0.05585751878739025 -0.28027335681958127 0.001693573979066082 -0.002676490804473327 0.4498524371255301 0.006040560158711811
68932000.0 0.8245757744645618 -0.5583205854938256 0.051556956269727845 -0.2938265581383707 -3.327904224359617e-05 -0.002904669374001686 0.45123749398173935 -0.001555968241877429
69931000.0 0.8132167121760921 -0.5773873447587043 0.050916258620700885 -0.3078475099491791 -0.004053913766969939 -0.005619292388724011 0.4539788836814232 -0.020262527521975427
70930000.0 0.8092830375084399 -0.5814276480570159 0.05141848593725183 -0.32419623028951244 0.0013010348031740446 0.000685648544526184 0.44822572819260703 -0.027072568599361673
71929000.0 0.8049801803384442 -0.5918240782422475 0.044394407082507324 -0.34128160750770414 -0.001056742120981421 -0.00231400485086866 0.44245848758698897 -0.04030819431733834
72928000.0 0.7987881706219203 -0.6004292803107507 0.0390894552179532 -0.3542277538618391 -0.0012821379800135332 0.0008105641505691063 0.4576999305645725 -0.04129745723438054
73927000.0 0.7926333088155437 -0.6079158292972168 0.03424131840502912 -0.3745582471165805 -0.0018263213564434504 1.8344556565090624e-06 0.46148704281306985 -0.061447799506637285
74926000.0 0.7865646682371372 -0.6140147870124971 0.026237894367645707 -0.390457852860475 0.0043582398302664995 0.004043632702011723 0.45959302636851834 -0.05331608685740546
75925000.0 0.7815440026165849 -0.6208950595092924 0.019324106082671377 -0.41429651983761406 -0.003545614980978784 -0.0015829350659957008 0.47197547583181954 -0.07721449500791593
76924000.0 0.7752301188977234 -0.6287960433430078 0.004312842921882451 -0.4361461188011893 0.0010596040893104896 -0.001344199224883532 0.46587753560336087 -0.08440557754757215
77923000.0 0.7690454938508189 -0.6375063365589002 -0.005206035340576387 -0.45879812656970675 0.0018143882001242762 -0.0006317444513613003 0.45536285100568646 -0.09945324903678618
78922000.0 0.7641105926740758 -0.6447182191836003 -0.023919674387386625 -0.4852521051855534 -3.378352816125044e-06 0.00375829573818616 0.45882129657809506 -0.10375781691706762
79921000.0 0.7543285977654017 -0.6494319923951105 -0.03762360670585917 -0.5072467120900171 -0.001264921198259952 0.003155850837665273 0.4688918869428532 -0.11528434146999564
80920000.0 0.7518857101218575 -0.6608234705203427 -0.05228114649904287 -0.5338494649063026 0.0009725688068453345 -0.0007570647635621687 0.46309737146342134 -0.1245373318674764
81919000.0 0.7450634096429404 -0.6661337046301111 -0.06668911515070801 -0.5652663852781409 -0.005623218302887062 -0.0017488277137774173 0.46609277319782294 -0.14048037530830693
82918000.0 0.7368663299165267 -0.6735811105281594 -0.08445500349304363 -0.590780740682184 0.002771752568858727 -0.0008146977286853372 0.474079444096951 -0.14780617147712719
83917000.0 0.7280476495106883 -0.6803264964492871 -0.10152971615069478 -0.621407241357356 0.005598415121457445 0.0011687712358424234 0.47551969140059464 -0.14784913176032946
84916000.0 0.7220383007607657 -0.6905852351791963 -0.1234563976677341 -0.6539739585433859 -0.002513669197705935 -0.0004002964962442227 0.46662578933844745 -0.1760813579123892
85915000.0 0.7165134405822556 -0.697031311240735 -0.14267480318174605 -0.6820799022915498 -0.0012708622252702757 0.0004493248622601284 0.47018317375394186 -0.1808586455872942
86914000.0 0.7082618137203097 -0.7057060723811417 -0.15419440106220875 -0.7188225045489789 -0.0002233518262589987 -0.0004312095447503105 0.467804385255712 -0.17785896610664703
87913000.0 0.7017551294355616 -0.7107195687441553 -0.1752398932123766 -0.7488957607544022 -0.0009407896632214944 0.00237789101409034 0.45821438772636064 -0.19559051538752198
88912000.0 0.697616246354576 -0.717606394828078 -0.18956640184434154 -0.7828130164156634 -0.00045424031928341363 -0.0007869470959329493 0.4574662565981218 -0.2029295869879535
89911000.0 0.6860772806154068 -0.7274449819445924 -0.204579237688935 -0.8180806365552324 0.0012002106120498992 -0.00371963984503121 0.46389493542024945 -0.20882385955738528
90910000.0 0.6814833235886945 -0.7309092072203678 -0.21889493211095826 -0.8560521066694123 0.0003199464135319193 -0.001456281387616096 0.46406925608574745 -0.21503103768065893
91909000.0 0.6713785783821576 -0.7382625033709574 -0.24371899986655038 -0.8859872207346157 -0.0011521612191038927 -0.0020664494401250256 0.4699636341247861 -0.22575560042936738
92908000.0 0.6642048108030544 -0.7454541134235417 -0.25944531462850334 -0.9176987180100651 0.0007276377308458791 -0.00011581163905005442 0.4489859340596878 -0.2278610105888011
93907000.0 0.6572087985122144 -0.7493256030686071 -0.27272310068289735 -0.9485617874518802 -0.0011337107250737877 0.0011891323601065887 0.45725110808169445 -0.24494104355551058
94906000.0 0.6468114488271013 -0.7591333704687115 -0.2914256876124624 -0.983617947994852 0.004586224813463532 0.00311910122525246 0.46132608658670055 -0.25435775911813663
95905000.0 0.6391468134533299 -0.7654137819457227 -0.31548699108566075 -1.014519345153022 0.0036781598561222988 0.002975171964813193 0.4543402798350408 -0.2699929789687444
96904000.0 0.631531306428658 -0.773559977287807 -0.3308990018423603 -1.0545440258404242 0.00197490885017609 0.0015379862555615232 0.45208604601228647 -0.27707377038250436
97903000.0 0.6231355417919673 -0.7787586243539338 -0.3543010659346449 -1.084636212579395 -0.0016588788337268817 0.000752078711613313 0.4444524901496672 -0.29438896173049706
98902000.0 0.6179615103551128 -0.7864303447277626 -0.37202086630090864 -1.1215746611852113 0.0010063168587898688 -0.0015313429787752616 0.4411126246855665 -0.2950508406495575
99901000.0 0.6082016393582678 -0.7898120663359832 -0.39550301982594005 -1.1541561277113082 -0.0005533359752652277 -7.981035088846193e-06 0.458452428852946 -0.32407386378237063
100900000.0 0.5980666843666479 -0.7947604624109609 -0.428815631144352 -1.1829204014756323 0.0022683424734357615 -0.0027040868557069928 0.4615335528950903 -0.32224049523614323
101899000.0 0.5911127453540038 -0.8030138853500932 -0.45621149631167357 -1.223773841078924 -0.0027167995205664938 -0.000351507526876267 0.4467577137756402 -0.32125893974792835
102898000.0 0.5805532728712104 -0.8088926701605881 -0.4942591764029324 -1.2550431969320799 -0.0011070122508349477 0.00028881297027201356 0.4522605328213483 -0.34332482081135673
103897000.0 0.5732656899694312 -0.8166628800085578 -0.5281857296748032 -1.2895045906583256 -0.0007211921072361563 -0.0007403296325997445 0.45619079163806486 -0.32174496085196996
104896000.0 0.5646920562868379 -0.8241379149338676 -0.5651036394410509 -1.320919922044663 -0.0007279572806861077 0.0006379159571770307 0.43729397643555623 -0.3411253359883713
105895000.0 0.554339070792513 -0.8297400413610839 -0.6117937563851281 -1.3575809797242944 -0.0016858501698565525 -0.0012959344388489078 0.4372435461253583 -0.36434436645256596
106894000.0 0.5475578616475911 -0.8352729214076782 -0.66210226553082 -1.3982067326286036 -0.0006482646288998379 9.753964161486042e-05 0.44215256509325174 -0.37184694796576967
107893000.0 0.5361124350770695 -0.8430576968000084 -0.7153106749338755 -1.4345684669790577 -0.001062059789917596 -0.0018765620377275548 0.42927151141081454 -0.37461708812075684
108892000.0 0.5269448989264802 -0.8454734902339408 -0.7761301618868548 -1.4717037569206937 0.0012220425436081247 0.0007345785640438906 0.419719581303429 -0.3792633521136391
109891000.0 0.5161327777251083 -0.8515738463073909 -0.8308148090868355 -1.5054275346020496 0.0005014111624519149 -0.00026241013889447836 0.4389143487011863 -0.3832991713455867
110890000.0 0.4979066192595524 -0.8677298429595026 -0.9102465851921073 -1.5118314633404437 0.0006093405191209474 -0.0028302952618174688 0.4187656587951482 -0.3807391767179542
111889000.0 0.4976818915913105 -0.8606470078621637 -0.9486864844837297 -1.5755573116703505 -0.0020399010699113053 0.003265492561647433 0.4196781010846604 -0.39594135823120774
