! Created with skrf 1.9.0 (http://scikit-rf.org).
# Hz S RI R 50.0 
!freq ReS11 ImS11 ReS21 ImS21 ReS12 ImS12 ReS22 ImS22
1000000.0 0.9861006119233632 0.007914093387667156 -0.019600346500916705 -0.04425547360828943 -0.014448884233750505 0.011765371717445908 0.3548417782124138 0.3220945322417817
1999000.0 0.996816810973852 -0.0031476338704546306 0.0016559634120235352 -0.027715559478055634 -0.007062440531263787 0.0024131889624234722 0.2526945245469278 -0.06483958655668702
2998000.0 1.003069563358781 -0.018111974723504228 0.00893899919762596 -0.01172693451023508 -0.0010148214415652353 -0.007389408080965582 0.20446314797029652 -0.15228258885400076
3997000.0 1.0000213096568427 -0.0312584762356264 0.010979141814601833 -0.004582567694749478 -0.0022865396105981174 -0.015226559823744356 0.09729083522652136 -0.21805462996709304
4996000.0 0.9986596682136285 -0.041234759180762054 0.012956815583283154 0.00023800227752445962 0.0041786645874533675 -0.003701482961728067 -0.04267441376115861 -0.21764715511437643
5995000.0 0.9971263228186229 -0.0485875098144719 0.00892008957663631 0.0031950529386043382 -0.005081489251025393 -0.003640375614783919 -0.12403402854827152 -0.11689731077782142
6994000.0 0.9934692138528892 -0.05980500548049494 0.00944916817734781 0.003351919785615023 -0.002919975250345378 0.0032276375650265392 -0.1470783956800091 -0.027503669499808144
7993000.0 0.9950920011908337 -0.06691092097162993 0.009647026367260749 0.0018581379416706047 -0.003565416372380165 -0.003125069703632779 -0.15941201235255462 0.03518154398358573
8992000.0 0.9960304872449295 -0.07047824982530713 0.006586949196549147 0.0016686111771711714 0.0013785042424251926 -0.0016429686747213854 -0.16011336623869393 0.05889850449267677
9991000.0 0.99489344286695 -0.0818813444131628 0.005108505328919442 0.003927034153009324 -0.0046861484822260475 0.00201016798428154 -0.15333439287108225 0.07688134213908211
10990000.0 0.9946455412046378 -0.09040005015691845 0.0037848082987608895 0.001571622925841532 0.0013480038440743462 -0.004199899517614771 -0.13719424013481543 0.11516498724365232
11989000.0 0.9924616094980959 -0.09909938168550277 0.002256712168685322 -0.003120950390539329 0.0012227142186992427 0.0007140079345215295 -0.13268224537095227 0.1314070909362292
12988000.0 0.9911192475528242 -0.10834257931360017 0.0027541611887433814 -0.002314182000279936 0.00556454375798358 -0.0004789171200896523 -0.11909759914801488 0.1755850540854169
13987000.0 0.9895144343253267 -0.11726143005621592 -0.0002875815540989324 -0.006381317552024664 -0.004909645130980125 0.0027925421157152046 -0.09705824303360952 0.1850338266158888
14986000.0 0.9882942223451561 -0.12412120753192483 8.397272579173213e-06 -0.005618439150288439 -0.0008392152218719395 0.0007603672656213123 -0.08669980020185383 0.19540764098378707
15985000.0 0.9914538939240201 -0.1313556660974239 -0.002395680806361743 -0.003167589853016004 0.0006033774537573872 -0.00031218466492006293 -0.06467362865753346 0.21209168695030806
16984000.0 0.988251464389885 -0.1445617496858974 -0.004853082275519069 -0.0067305024362258915 0.0020550751692495614 2.1303908988510143e-05 -0.05696919677116935 0.20890953980691687
17983000.0 0.9860065771219968 -0.14904602496263958 -0.0073308313621256345 -0.005252159783077358 -0.0005540573339564915 -0.006651254180931971 -0.059567518719539345 0.2353252624464431
18982000.0 0.9831863481982396 -0.16017053797939862 -0.0005007132559013192 -0.00787918124146194 -0.001272613685656825 -0.004102614184733796 -0.019199016011173846 0.23423851179772445
19981000.0 0.9840559896923136 -0.16300223937321023 -0.0032898266115748394 -0.003731118045221031 -0.0007502677954628866 0.0012306960804423894 -0.011721966701995452 0.22397690410364127
20980000.0 0.9826146095710411 -0.1738742871230548 -0.009281962247029499 -0.0017676412814593046 -0.004214608432053585 0.004294183605548654 0.0038237694996898284 0.26313093023432527
21979000.0 0.979644092557584 -0.1834626823035895 -0.004562452121985793 -0.004069239682052082 -0.0018675861342121903 -0.0009814480697186007 0.016204159992506198 0.24324866233502138
22978000.0 0.9784515912079127 -0.19114839847276696 -0.006648743849073862 -0.003557446071144647 0.003355187713587123 -0.0059033572749405926 0.0346222056229019 0.2581184003084931
23977000.0 0.9809912771857607 -0.1999425082003574 -0.007382477476350013 -0.006173302434166393 0.005628972225176192 0.002135373172303845 0.05394006272563354 0.25604571416378896
24976000.0 0.9763023789792038 -0.20781043946959682 -0.0049420689379190644 -0.002042785866226689 -0.0036636194532623867 0.0006110461797592799 0.08055017724046033 0.24665607923740784
25975000.0 0.9736196101583248 -0.22275612422591617 -0.005358087882947327 -0.0065476115516051375 0.02465303354427721 -0.0049186232003318306 0.0908514933555593 0.2592390448639147
26974000.0 0.9719742933413824 -0.22461580556256566 -0.005948221831175425 -0.004641283256560417 0.0015780165492398593 -0.000781620224526673 0.08452541078670632 0.27147271672149403
27973000.0 0.96940527010545 -0.2338466601082417 -0.003818141224472302 -0.0003658305174820074 -0.00028412154341148337 0.002565684781358473 0.11029763417331864 0.25292274361110506
28972000.0 0.9677813976418146 -0.24354525259683452 -0.0033435634367140117 -0.0006633517737559663 0.0015978855918576034 0.0007131492535464628 0.11997956089098212 0.2598156600715344
29971000.0 0.9671464139604681 -0.2507551375114913 -0.0015316400865488596 -0.0023198358087969505 -0.00020279794816421763 -0.0006619646910563911 0.16465456255593447 0.2524537942783072
30970000.0 0.9642540672964581 -0.2568088023262393 -5.674106092284632e-05 -0.0026034256159839383 0.003728498315574322 -0.001995146374770393 0.1664780215596421 0.25702621540143983
31969000.0 0.9627351620616903 -0.2649932353156415 0.007070554655374016 -0.0009678415361870087 0.0023889178106653777 -0.001668641439131169 0.1569993835903498 0.2428637265819048
32968000.0 0.9584241178933928 -0.27618149011342513 0.007778977713447897 -0.009240475910313328 -0.004628300487248007 0.002037543848249618 0.1663610001324633 0.24017794292342198
33967000.0 0.9595785496865111 -0.28255659071862366 0.01345880313912741 -0.013420846585153046 0.0022514787815500464 -0.0007063406686790152 0.18533798030031684 0.24651525667025026
34966000.0 0.9543484238484503 -0.29455803906018013 0.014403745182356785 -0.014195981637482267 0.004117313392005993 0.003264444825358227 0.19788331567636064 0.251278775090396
35965000.0 0.9512858271514812 -0.3004479202635995 0.019957059775685626 -0.013537579464206693 -0.0010912854294854364 0.001906568514974688 0.21720383544602131 0.24352133313847
36964000.0 0.9505016250839468 -0.30851886414573754 0.014561656965436404 -0.016770686518773094 0.0008675795169271192 7.141903181727114e-05 0.22093523700467366 0.2458338608973318
37963000.0 0.9453252663322734 -0.3189931919082543 0.022065209924810956 -0.018540170673001483 0.0002543027490194405 0.0007962774983441108 0.22828974882507386 0.23136227910224405
38962000.0 0.944187152700734 -0.32690164885004924 0.024988487047373307 -0.0232534757809076 0.00035598888265902785 0.0011075169499597632 0.24138560275537768 0.23266337291551287
39961000.0 0.9415248548905939 -0.33620847224192046 0.026945654341819766 -0.026570379923161982 -0.0014022199401943639 -0.0009928827556390104 0.25550923466403547 0.21696899254593702
40960000.0 0.9371656148428344 -0.3415544589684816 0.02358217240732096 -0.025283944510328882 0.002519419470928895 -0.0013225981757526988 0.2726367868604112 0.22060703151855948
41959000.0 0.9341501096267569 -0.350657805808338 0.0267241966897268 -0.03118289659314534 -0.002096183742037333 -0.0005872881642893586 0.2766966805778085 0.21314471013192474
42958000.0 0.9299744844805112 -0.36032597036601066 0.03036563933995864 -0.041121969286204624 -0.002148174757318291 0.0013675296544208837 0.2884049303118643 0.19800158876334473
43957000.0 0.9281510325055079 -0.3663014207083551 0.03255830503587727 -0.049129013835316995 0.0007821246551766792 0.002293463556183259 0.2847893592022467 0.20604447890485617
44956000.0 0.924999161452268 -0.3754308583928617 0.03214565926410475 -0.051411658949756495 -0.00039134286817238824 0.00018585425233663268 0.3100217941807532 0.1899154804984225
45955000.0 0.9208833978870354 -0.3867780055096565 0.03359343528903011 -0.06021656142567214 0.003111655712189567 0.0001293646777161384 0.30763551927274235 0.18510917087435236
46954000.0 0.9162767442910186 -0.3934971569013572 0.03481056816100584 -0.0636444624199778 0.0025894835880870015 -3.0983741818400515e-05 0.33075029239791837 0.1799723624662728
47953000.0 0.9154625566374662 -0.39983761801985795 0.037687980734838124 -0.07430102114231318 -0.0013173704979262347 0.005777342930352463 0.34013600589535414 0.16896963511695118
48952000.0 0.9086194431537118 -0.41188169663513674 0.03842270056360155 -0.0806729588036153 -0.0016807171700393675 0.0012741414736342504 0.3359352437579309 0.1533301742198826
49951000.0 0.9064337427690382 -0.41475303164981586 0.03666671744897566 -0.0902819453862564 0.00027652974223811393 0.0018191148993471308 0.3527807483235354 0.14450671014622948
50950000.0 0.9020987791227362 -0.42592476825287895 0.038119597690201415 -0.09764912595874677 0.003286642120087993 -0.0003814678921213473 0.3610843141303134 0.14131776604886295
51949000.0 0.8985184856549926 -0.4322308653963282 0.040497316301947014 -0.10454349081764994 0.0032901781447790355 0.0005467408103730536 0.37269069177648984 0.13266418721026954
52948000.0 0.8955754337344503 -0.44078641044427774 0.039193947656253225 -0.1145562358082653 0.002079386827693553 -6.979623728784868e-05 0.37434548876266305 0.12810958700676123
53947000.0 0.8911248650728979 -0.4483872616275015 0.04383173021812436 -0.1242476326186361 -0.0030571834225857236 -0.00240318267220098 0.36800724506993315 0.11855404415302818
54946000.0 0.8853217004743975 -0.45954786936849257 0.040950347411213325 -0.1333712664042032 0.004186563342685958 -0.0009581024647594741 0.38538647267839715 0.1107722778087686
55945000.0 0.8819693815870563 -0.46617561226746473 0.04567332034734557 -0.14438752813431896 -0.002341332094711201 -0.0004812916049551022 0.3964113433164019 0.09529178110900097
56944000.0 0.8779960695749186 -0.4730323667319129 0.045434742944257964 -0.15218931670218908 0.0014239180600013103 0.0041419221121240446 0.4064216398324355 0.09264561910135878
57943000.0 0.8724105973915798 -0.4853951337301055 0.04530544597059934 -0.1621124346592978 -0.001868202229063291 -0.002336383571531642 0.40229422471649623 0.08390099288830412
58942000.0 0.8692282053196327 -0.4880388670155384 0.046667174267859504 -0.17602881989067368 0.0005374745750619586 0.002771043179309548 0.4252070172613632 0.07528537098125225
59941000.0 0.8652788867861064 -0.4990867640042125 0.04608011283746317 -0.18075060375037938 -0.001655940328465021 -1.9015505787857042e-05 0.4258687327815455 0.06822597382471424
60940000.0 0.8578786574039731 -0.5056799119163786 0.04909120512033251 -0.18957923648963632 -0.002283804152079165 -0.0005995401608582742 0.42268156789226496 0.05906198098461144
61939000.0 0.8547025732222533 -0.5115927497925071 0.05291751971531406 -0.20058427990605185 -0.0018054150333269693 0.00044635220079325107 0.4180075535057947 0.0597434830010788
62938000.0 0.8493088419459974 -0.5225250697070416 0.05635561061653709 -0.2150483517718684 -0.0018589305803823227 0.00013943309402161618 0.4489805619040058 0.04120200709144172
63937000.0 0.8451845040054555 -0.52943384670141 0.05235332051794862 -0.23660457371317856 -0.0022295838521877625 -0.0014636099937358918 0.44033484868385425 0.02475955456030551
64936000.0 0.838188744095805 -0.5365779213638009 0.052722394474162014 -0.25285949848655254 -0.00044089060412034646 0.0037833647820957467 0.43589955160055127 0.028632318266914848
65935000.0 0.8355113429533949 -0.5455993620196182 0.052615267610331355 -0.2614781215045404 -0.0031353605541324546 -0.00215110421407012 0.44111183213597754 0.002048761938630274
66934000.0 0.831032108029322 -0.5522785892014476 0.05222603062006592 -0.2771388763439045 -0.0044053593798342675 -0.0006130395293578085 0.4417847618924507 0.0028336285431679615
67933000.0 0.8273966244006941 -0.5598361544410442 0.054814532832723736 -0.2905996136582605 -0.0031832824670555322 0.0004701725396456558 0.4499540897077675 -0.00542071123509631
68932000.0 0.8240603776980944 -0.5595549837979051 0.05257558623204852 -0.30283672059472316 0.0008122849407970131 0.00019003668361501397 0.4530892416196675 -0.01645407063934495
69931000.0 0.8152237582365253 -0.5769590094796297 0.04833044679986083 -0.32307851127106213 0.004946213715230958 0.0008100941406936406 0.4514252142402735 -0.028630101685694437
70930000.0 0.8103056004464363 -0.5812074548740237 0.04756633592965045 -0.33844578844297596 -0.00027395012404486077 -0.00046969220711951925 0.44257908941171714 -0.041591235403450506
71929000.0 0.8039087434370962 -0.5908869720762078 0.042792975127038634 -0.35168223500713913 -0.0004978578831357112 -0.0013434906677143791 0.453422314524171 -0.06018310916348355
72928000.0 0.7972446762421439 -0.6004532198094694 0.039269753091641914 -0.3693550738596689 -0.0007690532791797834 -0.0006992430553268456 0.4649130450705567 -0.06738084891593837
73927000.0 0.7929065156152091 -0.6072753520965166 0.03008114980574013 -0.39104107017072964 -0.0018369211474738992 -0.0019003237237279265 0.46031861173353145 -0.06538854332124498
74926000.0 0.7879206633935067 -0.6149270978892831 0.02213833915966791 -0.4055464530641633 -0.0008705903534216219 0.0015085485020420175 0.468886244199033 -0.06154295993316175
75925000.0 0.7820041784040379 -0.6197078109065801 0.013044662760062413 -0.42783207761330405 -0.0008362131236738292 -0.0021015340029368204 0.46654705153022114 -0.0824784557412246
76924000.0 0.773711226767251 -0.6287254197209744 0.0008737822585765121 -0.44869226102276893 0.0022046320022805544 -0.0024373811845135006 0.47206941348257203 -0.09731108250975534
77923000.0 0.7698579654678744 -0.6337200573996888 -0.015264180290151292 -0.4735583489279011 0.0012178565586722678 -0.004656676433519827 0.45559442545720985 -0.113664830168856
78922000.0 0.762923047021249 -0.6445566880025474 -0.025335026652548075 -0.49924855297688614 0.004417323895587335 -0.0038253584208506695 0.46374061279361073 -0.11701923388403482
79921000.0 0.7546591481771847 -0.6502954930756372 -0.0481373946424764 -0.5257453807876247 0.0031695250187927337 0.00020891363106526246 0.46545382127659723 -0.12863152579757994
80920000.0 0.7487433590720427 -0.6595339919901886 -0.05773197286798813 -0.5557871677984837 0.0022947551732810435 -0.0019324075617736254 0.4695126569277848 -0.14743362170689636
81919000.0 0.7455878318103953 -0.6636420402485618 -0.07729454020170606 -0.584641129237421 0.001764282407880335 -0.005564557357359521 0.4726239402758952 -0.1482541234775175
82918000.0 0.7358192616527701 -0.6720171539907089 -0.09113286973120929 -0.6118293051820535 -0.0021551585019178926 0.0014974773779964175 0.4702396777014344 -0.16185124335404763
83917000.0 0.7281433310171592 -0.6790594171110769 -0.1130648729543309 -0.6406170445451955 0.003237643654600943 0.0028409965685868483 0.47742177087835064 -0.17396109115943043
84916000.0 0.7215755984644384 -0.6881864174318523 -0.13155040663579598 -0.6788407752440603 -0.0023577524699225226 -0.0002975556475942658 0.46588662632702404 -0.18187750094397012
85915000.0 0.7166253007687878 -0.6938957204991572 -0.15098338514836251 -0.7043476918249547 0.001319263514116127 0.0014453399255960405 0.4540712467231595 -0.18239020144809207
86914000.0 0.7068469110958786 -0.7032470602698706 -0.16854483809696214 -0.7436288995694484 -0.0006826007313715556 -0.000525504741451509 0.46013140947677594 -0.18566911077213566
87913000.0 0.7022591651517431 -0.709512442819981 -0.18702867316675117 -0.7731843502603274 -0.0023919357561736085 -0.0008600255367802676 0.45978469674735145 -0.19073262988263456
88912000.0 0.6937212950682139 -0.7179924304182322 -0.2010221647099171 -0.808261370196757 -0.0006674797313743955 -0.004901168756246245 0.46771308837211806 -0.21157625516681988
89911000.0 0.6871645546066981 -0.7260486305318523 -0.21921699318445947 -0.8464525025328737 0.0046078999793997405 -0.0025504152755870695 0.4689297079910308 -0.2241020846231613
90910000.0 0.6808757113113972 -0.7301369298605562 -0.2356166866890463 -0.8827490716810048 -0.0014436424257812078 0.004399728716032904 0.4547024013326834 -0.22783468294421574
91909000.0 0.6714488839781627 -0.7368837713001146 -0.2600426922343197 -0.9113692851794639 0.003343405532388745 -0.001945251662200121 0.4600905665895199 -0.23868154853556348
92908000.0 0.6625887808555544 -0.7440515717276256 -0.277395781980069 -0.9407327239113488 -0.0006571553783488028 9.741163602076411e-05 0.4624966374913897 -0.2545557925841761
93907000.0 0.6563716262644153 -0.7492944481730843 -0.297426717520037 -0.9747410376352563 0.00375737029372939 0.004575525447803773 0.46150460086068074 -0.263989482052645
94906000.0 0.6469869563526841 -0.7575981655610643 -0.3102872204783053 -1.0101777354554236 -0.002758534735048024 0.006646586979234796 0.45660188986003347 -0.26613537752287997
95905000.0 0.6402053016214425 -0.7652417679987141 -0.33356457815584717 -1.0485809354817166 0.0015266455389163173 -0.001720709272511457 0.45144067050146947 -0.2782546571706998
96904000.0 0.6323740555364364 -0.7732433608931926 -0.35527654997509717 -1.0883673042598223 -0.0009431924061542563 0.0029307954493437345 0.44786446389486434 -0.2871801163802358
97903000.0 0.6217331039345569 -0.7804433961652194 -0.3802186296628457 -1.1184787120644306 0.0019471622142706185 -6.705805694129854e-05 0.44294934778166367 -0.30112558262093697
98902000.0 0.6170051985784677 -0.7854694619118846 -0.40220285877263606 -1.1523643860043224 -0.0036064958691591005 6.0236755708998916e-05 0.443741827035566 -0.31677165509107325
99901000.0 0.6065904394981334 -0.7907836320881086 -0.4258126811481446 -1.1853654076538713 -0.00018421546199034585 -0.0005111360562665125 0.4681632178883664 -0.32604529912484553
100900000.0 0.5970841490981412 -0.7953319809549649 -0.4592780351184487 -1.2145416235443465 0.004088228903945362 0.0011202145850803338 0.4492112132107148 -0.3282824377799667
101899000.0 0.5890384751590804 -0.8039654252380917 -0.48928354188149187 -1.253167646052555 0.0018325712075792752 0.0006114429271448291 0.4453951809413697 -0.3368991021599858
102898000.0 0.5795876415613829 -0.8079917988193407 -0.5244548935858618 -1.2922175731179493 6.331432283100899e-05 0.002127901293935753 0.4437405054615735 -0.3450521420868261
103897000.0 0.5718431332100993 -0.8167761507747742 -0.5646944595653487 -1.325291678913438 0.0011192176291766477 0.0030811445670465066 0.4560812885920727 -0.34973659837253884
104896000.0 0.5636997091937104 -0.8256565983264025 -0.6076197561052067 -1.3584654029951035 -0.0010576299006989024 0.0008933313513252683 0.436626981917472 -0.34967325429125923
105895000.0 0.5509516396338373 -0.8258837086283917 -0.6512166022445927 -1.394527718800171 -0.0006694114453988081 0.001657845236374638 0.43194448114872047 -0.3669427450572673
106894000.0 0.5420467357157356 -0.8348084830767567 -0.7087991811957014 -1.4365066416544348 -0.0015714312434751204 0.0010095868479384211 0.4143226714088702 -0.3917021924748666
107893000.0 0.5362132101601164 -0.8409274375710326 -0.7574874390682148 -1.4776007429606546 -0.0032022335702006945 -0.0004316124205125631 0.4180955223105453 -0.3954416878199266
108892000.0 0.5287318735152433 -0.8433296229761296 -0.8153671574610538 -1.5146457481915965 -0.00019537484635128596 0.001022974082139529 0.4133717981140225 -0.3900719468687537
109891000.0 0.5157504732467101 -0.8526041240785753 -0.8783342293300106 -1.5484993188204044 -0.002778165933843315 0.0020334539356800046 0.43549544746490915 -0.38373120182666737
110890000.0 0.5117895401073238 -0.8619657369807305 -0.9434148625136678 -1.568892546221161 0.0015972134895476657 0.0004505959212287309 0.41220129400634037 -0.3929073800331302
111889000.0 0.49454594162688054 -0.8585501297492082 -1.0027533891398455 -1.6197041702325006 -0.002473711730875517 -0.002259369824913321 0.40971820829800604 -0.4129854540030094
