! Created with skrf 1.9.0 (http://scikit-rf.org).
# Hz S RI R 50.0 
!freq ReS11 ImS11 ReS21 ImS21 ReS12 ImS12 ReS22 ImS22
1000000.0 0.9660998172208402 -0.004066170623264677 -0.012792994849018113 -0.01990004902941186 -0.004891810750354563 0.017219698517837518 0.4009164235745721 0.30440262576589966
1999000.0 0.9991600045227509 -0.012061803905567162 0.00394465395482892 -0.028577819083321465 -0.00299465355826754 0.002090736363857376 0.23988607888416952 -0.05490114523703488
2998000.0 0.9991203453002826 -0.019205571073366273 0.007332101627675038 -0.018042099654060364 -0.004732688169664982 0.003572467456536605 0.1790483733089752 -0.1294125236613901
3997000.0 1.0004779226089866 -0.02703519593449385 0.007942002896061647 -0.004492640411411582 -0.003940347549747261 0.0029871222583116278 0.09880063008242662 -0.21569062695248373
4996000.0 0.9945583743207396 -0.043287744483717756 0.010393117458965267 -0.003295809598346262 0.0008094480894149446 -0.0021551633075343724 -0.0449895619906665 -0.21275067773922124
5995000.0 0.9978603095658432 -0.04760464600655896 0.007128054092629673 0.002728766179987829 0.0013003592010024086 -0.00895192759780643 -0.12126528624464362 -0.11603157464244224
6994000.0 0.9941422463022639 -0.056286130324697446 0.007844477001172948 0.004028527608217258 0.005695233447142588 -0.0003772101953133761 -0.12548528160610112 -0.04163952482735009
7993000.0 0.995471700495345 -0.0678928566559564 0.001177861334587116 0.005881717695961331 -0.0009105865448705308 -0.0022379418124912785 -0.1632879205420022 0.03576003902848511
8992000.0 0.995280810518485 -0.07052329753143664 0.0031488919851635354 0.009199307379703802 -0.002676537116367013 0.0004027407515434165 -0.15584976923187877 0.05358895971242707
9991000.0 0.9903526830544992 -0.08228113127591775 0.0006001088815792387 0.002414459360498477 -0.0031109572300309194 0.0006267338008423917 -0.1470458147383869 0.0773215106397566
10990000.0 0.9936005576489875 -0.09328876662075158 0.0032502696952013983 0.002930088073463903 0.001947166617277385 -0.002569771067305519 -0.14644014904662786 0.11203183461499422
11989000.0 0.9933370997129661 -0.09816438549103643 -0.002136485631728976 -0.00211216448637781 0.0001751462335434886 0.0006005555836128157 -0.1362095403362074 0.12708190998879063
12988000.0 0.9901746145995896 -0.10982612863319258 0.0008700973255883703 -0.0041649087933745875 0.0002662244351517708 0.0024703402256428405 -0.1130442267124277 0.16096422226379767
13987000.0 0.9865666001188088 -0.11687354928731473 0.004574815259512151 -0.0041023848030913405 -0.0021548495313983983 0.0026362445564727306 -0.08502927138541347 0.17861252096229344
14986000.0 0.9887549337235415 -0.12456535843626514 -0.005353516585384344 -0.004066345793610616 0.005749131568354735 0.0016254806140791173 -0.0804910197117054 0.19636765237181975
15985000.0 0.9881860574355399 -0.1327843261985529 0.0016475822595756117 -0.003583989195747069 0.002161447912141653 -0.0017891104779466497 -0.06264613111683875 0.21218849440083185
16984000.0 0.9862837831156033 -0.14273304511630686 -0.00304074371395648 -0.0040135310578758646 0.0005006497481732463 0.004152491840860143 -0.07948989071680557 0.21619198243607538
17983000.0 0.988468864487768 -0.1471540582799617 -0.00220312526175502 -0.00191371399817655 0.0027721511481560695 0.00465481842944244 -0.04826098535407922 0.2219099047957602
18982000.0 0.9839178499072445 -0.1592685838510068 -0.006230557215014029 -0.0090715956486462 0.00476238270990705 0.0021817005516977777 -0.018553345953207664 0.22337630800722935
19981000.0 0.9836658623679738 -0.1642310622533698 -0.0028529127304206814 -0.001249268708646627 0.0053316701449536005 -0.0006419417246997201 -0.013615599792185136 0.2376034779363161
20980000.0 0.981985332977555 -0.1738085302307124 -0.003931469135419937 -0.005628028326797975 -0.005149749221429874 0.001132529991339043 -0.0011235980737836471 0.24970108383710446
21979000.0 0.9791103347751686 -0.18465489144200067 -0.005884101375267199 -0.004613602453189768 0.0018709200131006754 0.005141281990844245 0.002171602359203402 0.2508949023460618
22978000.0 0.9784247672302884 -0.19146398439486176 -0.0056674095134629735 -0.005522498977239324 -0.001204354055706037 -0.003456188840428778 0.020637047375359766 0.2482989155240859
23977000.0 0.9781956634505751 -0.20018569504959421 -0.0027328000940392153 -0.0048746036300830915 -0.004704433424048546 -0.0010515780507617451 0.0310968303670299 0.2629631948447048
24976000.0 0.9765820149785257 -0.20887072655707986 -0.007330304561904154 -0.0012945633429566705 0.0019281248116328775 -0.003969939642269852 0.05376558202640728 0.2469700059475273
25975000.0 0.9752729208647157 -0.21507363578087876 -0.0047420932954230595 0.00017173779314021603 -0.009906060259453564 0.029748534763790888 0.08402860085342997 0.2664521711531451
26974000.0 0.9704628639078139 -0.22570184334613622 -0.00537421729157094 -0.0015485601937218704 0.0012612549747730397 -0.0009047977006548253 0.09108284006132965 0.2493414633871636
27973000.0 0.971064161231955 -0.23218663473783233 -0.0054558410097855295 0.0004085837603312358 0.00046617570982002187 0.002435340454538092 0.10530484968440604 0.2531583280912256
28972000.0 0.966393215826277 -0.24468888201540104 -0.0016973870018626106 0.002184797873284359 0.0011485370209506794 0.0013579897447719325 0.11073602946586432 0.25580308037851157
29971000.0 0.9656458880285015 -0.250088252268368 0.0022739192104647894 -0.0020223508857958325 -0.00048052932826797107 8.35220384224895e-06 0.13460816118911131 0.26597937466895105
30970000.0 0.961835035735735 -0.25767295931905093 0.0022500515335670775 -0.0006734409845364638 -0.0033768458775640256 -0.0031715268705434048 0.15238681491154277 0.2474812577168526
31969000.0 0.9600879850526617 -0.26612378689910454 0.00516868196056726 -0.002648604260324027 -0.003319995531439933 -0.0008651319874556006 0.13769522267710174 0.2504081072347766
32968000.0 0.9590440840052497 -0.2747124890854647 0.010675241312718029 -0.006703678236859092 -0.0005268468752612935 0.003036560816062048 0.1579435450972054 0.24360177056648633
33967000.0 0.9577731601810346 -0.283985457659075 0.010611560927149438 -0.007923026885969488 -0.0023950399780350126 -0.0006912977713475194 0.18180675070568253 0.23646812287249586
34966000.0 0.9526128251381462 -0.2953691242078624 0.01342503968765344 -0.01097062246296581 -0.005553259838684377 0.004293378785462002 0.17988665146278052 0.254154698973889
35965000.0 0.950459513151331 -0.30270130863961375 0.019001318490858603 -0.013166468366990251 -0.0009634223867407646 -0.0007320838395093344 0.20631021056878757 0.24381753751742827
36964000.0 0.9490060637184486 -0.3099847090222608 0.01756531125532977 -0.015385307077318453 0.0002572354736785782 0.0005581626021970278 0.20892994645173313 0.24732866380724236
37963000.0 0.9438684386226626 -0.31979474853414536 0.020863637794925147 -0.022155903270509442 0.0027979250070031573 0.002320152343637457 0.22116173885972884 0.2325251264412969
38962000.0 0.9420895453117377 -0.32911652565060223 0.026146097448012055 -0.02422232906718628 0.0008851053265555503 -7.022378160755794e-06 0.236117775773389 0.2308967663130595
39961000.0 0.939998142598997 -0.33509782487273104 0.025193955826719405 -0.030746096641546407 0.0011506869127876928 -0.001255783476256607 0.24114039125534245 0.2327688981183276
40960000.0 0.9372294711063576 -0.3415492266067912 0.022802485312314345 -0.0214502880267769 0.0021114313604562013 0.0003660541971772422 0.26382720666654225 0.22085885051663556
41959000.0 0.9346313294107456 -0.35208150785564213 0.030930360712969087 -0.03427315298211734 0.0014201615326244585 0.0013459201985830177 0.2574759686431809 0.21692523148830734
42958000.0 0.9294251527855284 -0.36024502786242196 0.030678906321311643 -0.04117640730962555 0.004239280389598699 0.0062525689282777125 0.2734937494150844 0.2044150652982285
43957000.0 0.9271958371016704 -0.3677822440403186 0.032584522930769924 -0.04897183930815882 0.0012648658718124146 -0.00017084402457569534 0.28282489240117153 0.2078652919615628
44956000.0 0.9223440280652233 -0.3762351759277946 0.036169939306925414 -0.05303894323252805 -0.0007746268111614325 0.0006015413776024643 0.2986509573680195 0.1894575556375764
45955000.0 0.9198396244418264 -0.38619143412007423 0.03597281401607331 -0.05867442202753257 -0.0003134699963522434 0.0029418569175782366 0.3076372438832334 0.18501116564123365
46954000.0 0.9161864256720171 -0.3936909262153924 0.036713907373282874 -0.06563248514193261 0.0015890430017285325 -0.0007257981565708027 0.32258646029753657 0.17442528662067858
47953000.0 0.9142608157082984 -0.40145908301768024 0.03938243506801193 -0.07328699021438816 0.001351805170163612 -0.001650992249926973 0.334872323497798 0.17433118457747634
48952000.0 0.9075825927561503 -0.41236236934403203 0.03727913898548784 -0.08209425100688038 0.002268735596047567 -0.0014221433853612267 0.3299976639433409 0.16604931219953253
49951000.0 0.9060207112632973 -0.4175331334420648 0.03747641822981299 -0.09057024775445931 0.0005235803696279717 0.000603762996481431 0.35069484050658833 0.15422086176019964
50950000.0 0.9019114431582356 -0.42778665794789433 0.04036654156692975 -0.0955772314935693 -0.0009465787941311428 -0.0019176985558218558 0.34374144324790307 0.15222698937392345
51949000.0 0.8986493211312325 -0.43452832575031847 0.04290513806966488 -0.10503496120831861 0.0008441009782556995 0.00035838434286220044 0.35559626745616196 0.14206375673001795
52948000.0 0.8966415809481946 -0.44244999997256446 0.04351633118799887 -0.11494351143943012 0.000968682172960878 -0.002371260378134968 0.368958874753472 0.14708300186850887
53947000.0 0.8895704079098504 -0.4525461181925023 0.04409745329460396 -0.12296128043644562 -0.0006882488171388669 0.0006999322175832104 0.3661403109166026 0.12335456484011284
54946000.0 0.8843800156200479 -0.4595980155058156 0.04618910547167908 -0.1316948675155418 0.0025952973154293553 0.0014155131129824207 0.3843708177536839 0.12307103945024721
55945000.0 0.8826136989846549 -0.46794991356407467 0.048846711085627395 -0.14360364541848247 0.0007583530678723565 0.0039008945167304365 0.38919975357736236 0.10860942951424803
56944000.0 0.8782632650744845 -0.475585408949545 0.05054417694898227 -0.1554948816329334 -0.0002742233126962298 0.0028419011119852336 0.38733062599722085 0.09742259699890475
57943000.0 0.8741925872710833 -0.4858977638817547 0.048397202143932845 -0.16409040972856795 -0.001826093897552836 3.522178021185704e-05 0.39156677619089814 0.09513669298623494
58942000.0 0.8682767854659347 -0.4899260326844686 0.05311479883060571 -0.1786470478291603 -0.0018296495011665206 0.00042931393502436177 0.41425516660514783 0.08675581383948384
59941000.0 0.8639369557948087 -0.498554607810417 0.05471843064135622 -0.1872021800972069 0.0002351831302786768 -6.220050886257233e-05 0.40974789727915406 0.08774412970878366
60940000.0 0.8562403273914843 -0.5071990313225407 0.054401260728160754 -0.18870149026106464 0.0012496770447124569 -0.0011339961333350042 0.3980896535962692 0.07670516877787592
61939000.0 0.8544016836434266 -0.5138197328327107 0.05386330615270568 -0.2017366709745898 -0.0009538426388893537 0.0003915304591045171 0.4154370881853253 0.06310499467386295
62938000.0 0.8486769349325418 -0.5238118076470845 0.05944398793987221 -0.2189967263436016 -0.00027785558198516094 0.00227121367312384 0.43131444639787053 0.04766475634573655
63937000.0 0.8419252776542707 -0.5311339209914758 0.059191243732759594 -0.24011870836602683 -0.0017291282131902173 0.0015306689501161268 0.4232451815801892 0.033441233358873695
64936000.0 0.8388428956044348 -0.5350804358701291 0.05757470348480853 -0.25190163181775216 0.0014128784456817524 0.0012196922704632985 0.4273175183733026 0.03592989493057516
65935000.0 0.8345707741497501 -0.5460429004346515 0.05750790953796149 -0.266620261168921 -0.0007327772671611847 0.0012082823883433813 0.4310809309623521 0.016178341227956635
66934000.0 0.8290746863939724 -0.5529232639577902 0.05628631629294732 -0.28354891711558394 -0.00043397437113643506 -0.001579051157403311 0.4341201805767783 0.005271155588237554
67933000.0 0.8272795770533689 -0.5606162364357627 0.05915825298722608 -0.29521548123319913 0.001877170889069009 0.0009170549673644796 0.4363906484800731 0.003093800895547393
68932000.0 0.8070384480057301 -0.5593582948348066 0.05008824794374347 -0.30630141137450884 -0.0014507032012540677 -0.0002739256877096414 0.4408069998238584 -0.015149968128313027
69931000.0 0.8125400867063499 -0.5762556460471667 0.05332646427526671 -0.32646615416036423 0.0008133414833463821 0.002176082148608574 0.4429492955558105 -0.02271687847881556
70930000.0 0.8060818709025905 -0.5838054313443645 0.05168222212731399 -0.3423667496577653 0.0017062067631089866 0.0015791890206118943 0.4430441070723674 -0.038592519967587426
71929000.0 0.8038284611679838 -0.5912275315530486 0.048128585244010494 -0.3600334016274184 -0.00044890900689791626 -0.0006236936333609047 0.44696325879294224 -0.038673122532365406
72928000.0 0.7953037280530201 -0.6006431727697967 0.040384086849728794 -0.376785806766024 0.0016968232722807334 0.0008517805213260657 0.45286811191105614 -0.05639600887053197
73927000.0 0.7905887268498544 -0.6053034057891351 0.03127610597413966 -0.39932790162623805 -0.004948848201418177 -0.0018826985675673281 0.45307742432187154 -0.06416644565361858
74926000.0 0.7853893773681347 -0.6168365562045537 0.029088507985398363 -0.4175011311582755 0.00044134234559644497 -0.002441522139733414 0.45572191077906987 -0.059151472820915416
75925000.0 0.7776448465113813 -0.622951551101119 0.017731944358912375 -0.4395502589420377 -0.00218474425607791 0.0005518160848422059 0.4654518729490812 -0.08281282810164364
76924000.0 0.7742015554590655 -0.6287753974558509 0.004572574682509745 -0.46326590705815257 0.00037005854087543676 -0.0015939779109906582 0.47082133217497146 -0.09116699274400338
77923000.0 0.7647303623844985 -0.6359453175236638 -0.006370172588243078 -0.48608863840932964 -0.001374231692697262 0.0005383777121783724 0.45164591086808137 -0.09298917098856768
78922000.0 0.7610638016526984 -0.644689979635904 -0.02277845700171035 -0.513116695728546 0.004812107048888836 -0.0017113152856310194 0.4643024340844886 -0.0996095334605032
79921000.0 0.7520308732091303 -0.6509098404466729 -0.03648444683513867 -0.5358727570104903 0.0019198743164367264 0.00439319091608669 0.44949340810794225 -0.11971908564429841
80920000.0 0.7473965252644675 -0.6603808371323323 -0.05333569266473985 -0.5697799725417984 0.001979469084102831 0.003014651557225329 0.46183155557868655 -0.13081902655489577
81919000.0 0.7421233219252642 -0.666908738314779 -0.07055467314393638 -0.5961049980452708 -0.0005623058906739853 0.0023495080132645506 0.46622077740686935 -0.13379838616416234
82918000.0 0.7333544646764638 -0.6735089542003858 -0.08482465208074809 -0.6274964115860584 -0.0005766504551267657 -0.002466261877707048 0.4637302034395714 -0.14577845408665094
83917000.0 0.7247518039309003 -0.6830209548204988 -0.10358646108426742 -0.6572620209171054 -0.0010285324010002822 0.0013777850830305844 0.4724130913144449 -0.1542509382166927
84916000.0 0.7200153984713439 -0.6887517367942906 -0.12486236713425085 -0.6909691243743323 0.0030373377515453596 -0.00021939499280151638 0.45908964606377745 -0.16978758562991453
85915000.0 0.714189085397698 -0.6948976709299001 -0.14427796309287 -0.7228134050540101 0.0013119045371924557 0.0016109903646495994 0.46602030987843146 -0.174795849421005
86914000.0 0.705191809046138 -0.7046714819788263 -0.15700805002390725 -0.7601286128686975 0.0021887172580149273 0.0019294866256254841 0.45070237753956094 -0.1722766191918889
87913000.0 0.7007740629675477 -0.71136984759614 -0.1804013423625922 -0.7894047473088662 -0.002609903164323615 -0.0008592960209349178 0.466238148416496 -0.18403320755276054
88912000.0 0.6919952042452256 -0.7178717843623668 -0.19673051191423327 -0.8279521135367454 0.0014537598385949073 -0.002065610530905695 0.46541271585628363 -0.20105079635076853
89911000.0 0.6853174120794546 -0.7253209290243312 -0.21330560185935474 -0.8630459037996869 -0.0022626673649032516 0.00304213446211731 0.46593095150158337 -0.21640857791184967
90910000.0 0.6772616838258109 -0.7317104454573731 -0.23326436739538026 -0.8986479806668644 -0.0002894845875216889 -0.001251350511858447 0.4672785597945477 -0.21310356376263012
91909000.0 0.6693185899611327 -0.7354430848661513 -0.2515678078586098 -0.9342449808370467 -0.0024225280563188296 0.0003584750797323487 0.4570789144004727 -0.22149460258544754
92908000.0 0.6611148286648095 -0.745222857320211 -0.27176557381203004 -0.9660629813317649 -0.004613065377445455 -0.002007409339899071 0.4597928012668354 -0.21987401358322528
93907000.0 0.6549757603965125 -0.7503524573785377 -0.28999650955231654 -0.9996631973642288 -0.0026569797789215625 -0.001090845013797526 0.45625385325383505 -0.2545543744979213
94906000.0 0.6418606700896824 -0.7582475669390729 -0.31341344694217027 -1.0325967521621533 -0.00048663311347981223 0.0026832766316863318 0.45599716618052394 -0.25298631560685564
95905000.0 0.637344859467318 -0.7637002117451486 -0.3356519931541235 -1.0684131233243366 0.0016813276406837635 0.0021477604590998435 0.454894010956469 -0.28058339689464146
96904000.0 0.6292215588159934 -0.7731009936652334 -0.3545393026023094 -1.1104002795993289 0.0008473219273514763 -0.002237533955151157 0.45108923353537544 -0.27045732980724985
97903000.0 0.6194806590026173 -0.7778089919007641 -0.37744048923052315 -1.1425518838483542 -0.00037661378243747335 0.0009208342713877127 0.44006581453103966 -0.29406364032490073
98902000.0 0.6148784141403233 -0.7859773604782017 -0.39885447683461495 -1.1838752328256492 -0.0009969539911325288 0.002990699065353939 0.4442559407403261 -0.30327454384093605
99901000.0 0.6034749427772578 -0.7919568806475422 -0.43152130303868336 -1.2136331098086428 0.0026631483383883024 -0.0012311532505093032 0.4464123191183946 -0.3130086211469848
100900000.0 0.5952466393928848 -0.7935542624499454 -0.4624049242374084 -1.2408505959385265 -0.0031662073528144043 -0.00017406190886145163 0.4596753634004008 -0.3223637827124962
101899000.0 0.5857478920122754 -0.8022343716415893 -0.48926764274298584 -1.284771903237583 0.0030240389545731195 3.795659290972895e-05 0.4412697275972867 -0.32029038117654474
102898000.0 0.5795279708089024 -0.8087629910141265 -0.526577244641661 -1.3266993454911316 0.0009710432414099958 0.0015157392110161855 0.4387055981063224 -0.32767617049027825
103897000.0 0.5690023115827627 -0.8170284134982532 -0.5681837811710907 -1.3559121519785573 0.001509789495047199 0.0016491791406166656 0.45974956148978163 -0.3321128303603363
104896000.0 0.5617417532184386 -0.8246584548502944 -0.6147779705828297 -1.3916436905713536 0.0029341450070629396 0.00041719984279433973 0.4329023791171524 -0.34485279705362587
105895000.0 0.55189287035621 -0.8286169877446296 -0.6581139736933225 -1.4392669567920975 -0.00137766229490111 0.00446303418842034 0.4371884773696894 -0.3558958124678802
106894000.0 0.542067038128826 -0.8338767702390096 -0.7154580265664462 -1.4765346453309678 -0.0012387304417722743 0.0007074597021284435 0.4234552597079763 -0.3656583228898946
107893000.0 0.5359029873451941 -0.8395129511606695 -0.7629585232251783 -1.5199493915594873 -0.0026209614836970613 0.0006025422679053315 0.43231942522836664 -0.36543399700932955
108892000.0 0.5234136399681477 -0.8438869782834039 -0.8288346276374055 -1.5497119016169305 -0.00517108032057398 0.0007916107438460472 0.4223155090727364 -0.37368532271101507
109891000.0 0.5114537293725885 -0.8523378721674116 -0.8870793689407523 -1.5904134254336755 0.0013026672068652677 0.00014732142315716177 0.44049765172888217 -0.3786242064770033
110890000.0 0.4962544217624933 -0.8680813588634267 -0.9718195777253283 -1.598451591431459 -0.0009056400022672907 -0.0014583414465732302 0.41604395648962933 -0.3879768026795616
111889000.0 0.49315244907080236 -0.8580234453122302 -1.0127998373769407 -1.6632788254556847 -0.0017467682816362778 2.5633922240752133e-05 0.41792811425387355 -0.3964662849804523
