! Created with skrf 1.9.0 (http://scikit-rf.org).
# Hz S RI R 50.0 
!freq ReS11 ImS11 ReS21 ImS21 ReS12 ImS12 ReS22 ImS22
1000000.0 0.9920672125408788 0.015423692339086774 -0.001968363295529318 -0.05536327231133753 -0.026778071210496544 0.006385497256751132 0.3112969985573519 0.37622954314777574
1999000.0 0.9944841738776613 -0.012165171881462697 0.008419634595520906 -0.029170208580048027 -0.0032457666645102803 -0.004103563860128633 0.2662713700413969 -0.06231504069073123
2998000.0 0.9970265395673125 -0.020849427454739423 0.016560686587426186 -0.012645850918109167 -0.005697230741013272 -0.0011866857205062216 0.1933590367569916 -0.15184811542264323
3997000.0 0.9963795000203323 -0.026624657830528958 0.009571530671148909 -0.007015915613528694 -0.009203071228671048 0.006075156935998212 0.06924101630364086 -0.22390437084969764
4996000.0 0.9962745758591247 -0.034173952833715854 0.014074704292275328 0.0015302772210963802 0.0014030032764427252 -0.00021952929590370878 -0.04201032451627749 -0.19554322298376145
5995000.0 0.9974862763603348 -0.04466391906901831 0.0106474096740958 0.0018127705079438949 -0.0023221833341682415 -0.0008375461510431944 -0.12113633232002935 -0.09968243448843639
6994000.0 0.9969811395650336 -0.05844024314500209 0.005389637882854886 0.003764046551664246 0.00036789062184706446 0.003890677597815833 -0.1528795683209859 -0.02022839818668297
7993000.0 0.9939268052578859 -0.06600553910311145 0.005343561958652992 0.002339026037849215 -0.0008866380229305646 0.003407886075914185 -0.1543544778682258 0.042379728692234477
8992000.0 0.9977461747215886 -0.07225735109348587 0.0009234945647060775 0.009139573200657858 0.004585843279687888 0.00016256724634881167 -0.1494697463812149 0.06921043023811725
9991000.0 0.9942921974415219 -0.08162025558076706 0.0011982885410875895 0.007458885083549563 0.004027605686010254 -0.003874528197344532 -0.13243834817627725 0.09693426046217693
10990000.0 0.9954848638432503 -0.08968335569739447 0.00045938236647404565 0.0061542611945455085 -5.578838235032331e-05 0.0029010687106690086 -0.12550517135732941 0.11422017397363474
11989000.0 0.9937478693990652 -0.09598707378505997 -0.0014825781235662742 -0.004726154218180222 -0.0013302817533547534 0.0016424716154294424 -0.11640349754116244 0.13282454255590187
12988000.0 0.9907284135169606 -0.10926296279694321 -0.0014671374057255557 -0.0064719247941567495 -0.0034710626929248447 -0.002002992928640869 -0.10308222669919619 0.17014274048496908
13987000.0 0.9901131809710273 -0.11555917024811899 -9.643463872328594e-06 -0.002152511708236521 2.237787226065015e-06 0.0042634003151731945 -0.09900832232658803 0.1843982300133991
14986000.0 0.9893782386282154 -0.12348930825350901 -0.0030279439169738206 -0.001882349961553706 -0.0016243012310491025 0.000791746930553804 -0.07569268628340078 0.19772621644863553
15985000.0 0.9890537055306712 -0.13311953476499339 0.0016410425963410084 -0.005934698716084445 -0.0014113613342135996 0.0043856919384273685 -0.04775933046942219 0.206801794114564
16984000.0 0.9863302081295395 -0.14414352082261345 0.00048116121809973827 -0.0011898693319153898 -0.003425497762219128 0.004655433635520084 -0.06602629232497675 0.2221326480413375
17983000.0 0.9867763846952105 -0.1500713450591084 -0.00468621079278469 -0.00753629804273214 0.0011203957754554114 -0.004118582243156213 -0.046468180271263475 0.2212234875064747
18982000.0 0.9851440943444189 -0.15958278375600202 -0.005049034263051414 -0.004101303066615885 0.0005912965653691857 0.004350546762351097 -0.019652660083297795 0.2319951151551695
19981000.0 0.9847359881580553 -0.16552102302541 -0.0006447288992006302 -0.0030887112281637054 -0.0012864034651459337 0.0023396774928738646 -0.019225183569569787 0.24987447279455405
20980000.0 0.9826309402695704 -0.17366896223833414 -0.008805975759433513 -0.008458464699770837 -0.0034503339461426866 -0.0037200868110697947 0.003585565093281077 0.25084794956091916
21979000.0 0.9822362055361684 -0.18136275080321754 -0.005469524063965916 -0.004512634538215762 -0.0003949592253651564 -0.00025576923937791184 0.03173030744729207 0.23883109953385534
22978000.0 0.9789652731966725 -0.19245458789793618 -0.008463723457126142 -0.0018411829547040478 0.002166682126958217 0.0031281439377400483 0.031108617763843528 0.25381586693306446
23977000.0 0.9792123985413151 -0.1998198388548157 -0.0060831258377246 -0.004153014926111797 0.0008813693392827651 -0.0006832390608010214 0.04320526218088743 0.26081182793755886
24976000.0 0.9759300473125726 -0.2083624912153812 -0.002123809969374759 0.0009367030549434472 0.0007181046416667899 -0.0017167486465503943 0.07415163783409105 0.2598597561008857
25975000.0 0.9764327170188063 -0.22069733579785666 -0.004500098899121901 -0.0006021116192184406 0.025717602973454164 0.005580911180432959 0.09287405664243101 0.2635134700838242
26974000.0 0.9728543673825519 -0.22421746565487422 -0.0037956541737163845 -0.0007572275942478522 0.002410220062343716 0.0024884839160171112 0.09631978890575231 0.25849054000127614
27973000.0 0.9721500211055345 -0.2304482500465313 -0.002627374086807162 0.0019061987846954028 0.0007275607434485536 0.0020965059305886997 0.10996642495624835 0.2506364714369036
28972000.0 0.9669532825174254 -0.2415260868431734 0.0008459950479136665 -0.0012605543317245605 0.0021536817749219905 0.001655737785510998 0.12023305979227042 0.2509061759502709
29971000.0 0.9665584311498618 -0.24923666254810484 0.002080487259089291 -0.004486618592232587 0.0046755787954971826 0.00020393592994153684 0.15826232062045584 0.2657414700735059
30970000.0 0.9646806739374941 -0.25496990026962396 -0.0008063645853893525 -0.0006992574700508086 -0.001560613688298282 0.0037272612279254094 0.1736888043583606 0.25107390724159917
31969000.0 0.9631150363933797 -0.263882471843014 0.0031930580911588 -0.002765513091143363 0.002464662471423441 0.0018466680481496658 0.1517379476874463 0.24867468452699765
32968000.0 0.9614406657588199 -0.2730624939647281 0.009622279224984103 -0.00926234351348185 1.7690253342947815e-05 0.002438403892579708 0.17049052355712374 0.2411688744473835
33967000.0 0.9595681976024061 -0.28099023385176514 0.01203826960013723 -0.010287482325351127 -0.00045189852558806385 0.0017381498902799882 0.20279736002689344 0.2373109546020212
34966000.0 0.9552629642948501 -0.2900998033360513 0.01312793819185994 -0.011666444064525622 0.00031532399305855726 -0.0005859478764144529 0.20669033315139188 0.24659742665276665
35965000.0 0.9519248563496022 -0.30066743491903014 0.017964374692854345 -0.015134675767083163 -0.0005195306195004439 -0.0007313344155538456 0.22332545150848335 0.24614752330367262
36964000.0 0.9508038538884199 -0.30725171350364855 0.018013274550626446 -0.014407234387756505 0.0024127197106229127 0.001667336811676539 0.2188186295385108 0.2500751560809029
37963000.0 0.9484316087845676 -0.3172227564903203 0.022545442151777707 -0.020209012827964782 0.0025418603811931243 -0.0038036998260273834 0.2410222856943309 0.23606923203094535
38962000.0 0.9443732818136639 -0.32783598334760344 0.02621357295081382 -0.026225994135635013 -0.0006486422041630319 -0.0027696289769930417 0.2477645899325414 0.22199431918082857
39961000.0 0.9408867292830357 -0.3324280123877521 0.02732858003826713 -0.027205591038461693 -0.0004117985562195681 -0.0008010950079113458 0.2584444095822658 0.22769682164596425
40960000.0 0.9377621133154461 -0.33883697933246365 0.02261175945389241 -0.026466412907292656 0.0015890986756427476 -0.000595550674950894 0.278534598828291 0.21250310561863087
41959000.0 0.934920913473291 -0.34924033502198354 0.03189043196503981 -0.03234483795574137 -0.0021829464467133285 0.001526813618121627 0.2815118408862479 0.21774951633892511
42958000.0 0.9298335035420933 -0.35931845640828963 0.03460401895355689 -0.04016039456158114 0.004315042027262859 0.0019775002567522545 0.28942368736564716 0.19706918162836148
43957000.0 0.9287609487274187 -0.36564711252236765 0.031445249219482566 -0.04493953375664496 -0.0027120222334825962 -0.0007347929064852686 0.29042744014874095 0.19742167377886735
44956000.0 0.9244318774741597 -0.37392048397299704 0.034485738524166955 -0.052379134363721463 -0.0030144457619495587 -0.0007353460342779739 0.3129197145267645 0.1859624534724367
45955000.0 0.9201332759038598 -0.38275529721668317 0.03265306527021168 -0.05931526799525815 -0.0003914515231692987 -0.005987078181220739 0.3152344309816278 0.1840450967037408
46954000.0 0.9194193626967937 -0.39120056495769745 0.03704003489637182 -0.06431510671160826 -0.002299485873667826 -0.0019543054807788147 0.3416769088583313 0.17666500797559082
47953000.0 0.9163271133532722 -0.3985121797205944 0.03796408067771142 -0.0728943668025604 0.002849381681252542 0.002828962745944605 0.34309399263171647 0.1731151555266832
48952000.0 0.909173782905806 -0.4112550257173114 0.04122686420247162 -0.08108167416476403 0.0013592367885238994 -0.0013369549347765004 0.34036413835873897 0.14902387446081644
49951000.0 0.9079089784598565 -0.41268335808702017 0.04102907805833585 -0.0850953678322327 -0.0007415555536215284 -0.0006702662999480643 0.3603889348804384 0.15361964942592188
50950000.0 0.9037011029639609 -0.42297241337789465 0.042188067578729026 -0.0953845510370133 -0.000642108769326967 -0.0008382491008867279 0.3624014389407454 0.1351457645717289
51949000.0 0.9003208325263673 -0.4309338049678032 0.04722954026181769 -0.10158110300472889 0.0009176539116286626 -1.307179592308398e-05 0.37098767256271803 0.13693599368499706
52948000.0 0.8988573673794122 -0.4384059047101811 0.04114114403158769 -0.11522835740134527 -0.00032578675036475026 -0.0028742496972752347 0.38607142621262275 0.13826055030684428
53947000.0 0.8910285538552523 -0.4489482822593463 0.043140914721170626 -0.12222684170684721 0.00010749040442848302 0.002946309743486724 0.38812183640058423 0.11865314309801551
54946000.0 0.8872266022592084 -0.4551228258443874 0.04754818092480868 -0.13308967029826796 -3.2500583927860236e-06 0.0035576158493307625 0.39551506840011713 0.12058864674773766
55945000.0 0.8847857635041582 -0.46441735008649704 0.04904052238189254 -0.14343535866487417 0.004014442744907117 -0.0029209597109276617 0.39080898851236306 0.10100831632709097
56944000.0 0.8807948181349765 -0.46997095749798584 0.04762914766068816 -0.15270602240228237 0.0003623286396125059 0.0016147935939408947 0.40733842008297877 0.1000650959415554
57943000.0 0.8776665291783619 -0.48133467845357636 0.05274010041386763 -0.16575917039954427 0.0025101670363355806 0.0004923139355078686 0.41037308978687487 0.08480727268208524
58942000.0 0.8703253404709628 -0.4861423711785496 0.05078905743034448 -0.17692499869248882 -0.0018026597468871013 0.0014713801854561357 0.42710571279749454 0.07849879231544962
59941000.0 0.8687026368524118 -0.4923961657138148 0.053551530360476746 -0.18490397649994156 -0.0012025517206232183 0.0005285009130078554 0.42231438841536467 0.07617783796883784
60940000.0 0.8590267948259206 -0.5031298549640099 0.052719522186483576 -0.1900713003345557 0.00010057058999764451 -0.0001759012791781961 0.41221749839796606 0.06412022087893068
61939000.0 0.8567939756266671 -0.5090818762427616 0.0546302613467582 -0.20086562265772337 0.0019885995186956387 0.002277547874017904 0.4272285245074682 0.05578065927596849
62938000.0 0.8510298128447147 -0.5213781311011135 0.05556831143019621 -0.21642085557193125 -0.0001913751931440403 -0.0013138933899267023 0.46060019172051864 0.04602900242261879
63937000.0 0.8464583337528827 -0.5275236169313119 0.05647497257996578 -0.2368918164148608 0.0018053535014463562 0.00027781198073585997 0.43491512010544986 0.03991988979571593
64936000.0 0.8395784278925149 -0.5343105623394816 0.058932720316227365 -0.25080799675723925 -0.0017324348576849865 -0.0007912118047141361 0.4437839531753356 0.03459392982983461
65935000.0 0.8379054574992034 -0.5435225891525121 0.05648741072266604 -0.26484501142367933 -0.004895989667541851 -0.0012037738555677443 0.4404244050037602 0.009579791299075723
66934000.0 0.8323485287163622 -0.549933701874787 0.05591412764537255 -0.2793351708464528 0.0030321790427381506 0.0020254863769671606 0.4391763979827093 0.006473707684389847
67933000.0 0.830647836515893 -0.5565665029639012 0.06089581520738949 -0.29493195990937887 -0.0007916677367778335 0.003759100208007903 0.45552017609183665 0.0034971630662761983
68932000.0 0.8243180592505525 -0.5613469436795774 0.053615730759364606 -0.30723792018146023 0.0007039343166625936 -0.0018191749106904942 0.46088905322069756 -0.010927341900892444
69931000.0 0.815805414956776 -0.5733439344513921 0.05538537639135502 -0.3225565869287867 0.004714369892940651 0.0019245739883763256 0.45527309336685073 -0.024554403282076795
70930000.0 0.8102305808770945 -0.5808453263551029 0.04706575315874232 -0.3374277797497567 0.00132825219098761 0.0001572983043229113 0.4583848167181043 -0.038666388534616396
71929000.0 0.8076675138853896 -0.5885322192830177 0.05031228353573831 -0.35523584461778274 0.002210378833897413 0.0009301016885020209 0.4660446927784994 -0.05401017201050238
72928000.0 0.8022312539117217 -0.5955108693418003 0.04246022694259417 -0.3710560117675274 0.0017088719585821798 0.00010606674908502052 0.4724976242433587 -0.062432844532199605
73927000.0 0.794028709403096 -0.6017807723944439 0.03341321223797204 -0.39426657768896745 -0.0006887528554038146 -0.0019662038450458516 0.4591404381080952 -0.06669846818868065
74926000.0 0.7904150012348244 -0.6114999031569444 0.028378903739975286 -0.41026042044892674 -0.005128904425266781 0.004476329900987955 0.46520584229545237 -0.0737311266303365
75925000.0 0.7836836871018864 -0.6173111673089938 0.01581531991222 -0.4325822104225209 0.001728141130102166 0.005732264154219449 0.46945928596338576 -0.08635938289930041
76924000.0 0.7778048377706407 -0.6265555148951983 0.008510805077403706 -0.45619997303873705 0.0009513000365453355 -0.0003296422214368835 0.4802517288731933 -0.08789992982539183
77923000.0 0.7731594118196443 -0.6311011431234312 -0.008879293089185121 -0.47932622368737177 0.0016822450897813017 0.0013190538683490907 0.47389685720550856 -0.09447650319387278
78922000.0 0.7649512480704834 -0.6425427837089215 -0.017230458630471537 -0.5091786594624951 0.00020424603202067688 -0.006089240563198321 0.46454936357638693 -0.1134468864525328
79921000.0 0.7573471000335485 -0.6461488888242202 -0.039043429289310025 -0.5324306084722596 -0.000473631343576636 0.0011562920840387997 0.47201188863641186 -0.1276132122387316
80920000.0 0.7546084337573343 -0.6576352231954298 -0.052339574596544 -0.5605851243970916 -0.005902533514075838 0.0009394476637958847 0.47130956309282773 -0.13576636417849533
81919000.0 0.7487470965949048 -0.6628045612808502 -0.07377652371209831 -0.5876484424866267 -0.000905487835539979 0.0016025341659050905 0.4687772281292286 -0.1438975073984158
82918000.0 0.7377231400345323 -0.6697109347670752 -0.08233101712830335 -0.622128929241053 -0.0010757085295514351 0.0014305407083597059 0.48872108038355394 -0.15372094170519457
83917000.0 0.7309105954810826 -0.6776209507796296 -0.10156884183926979 -0.6464050284430262 0.004464399694800746 0.0013879506773524048 0.4759960117599963 -0.15698108291631024
84916000.0 0.7254017282450731 -0.6858926920991804 -0.11610893383762322 -0.6870134627961015 -0.002453532145833856 0.0018389184579692256 0.47735527958995744 -0.17251879578061508
85915000.0 0.7180642268709816 -0.6917647177604387 -0.1383955401744857 -0.7126178898826582 -0.001642353513543276 -0.0013741726608589096 0.47365625424148555 -0.1870757948477707
86914000.0 0.710553444011732 -0.7016713725648684 -0.1537486248572416 -0.7566416697113021 0.0019428500495551639 0.0023766193853336083 0.471903622419372 -0.18717064579809198
87913000.0 0.7062990619509059 -0.706675006679358 -0.17628759052818188 -0.7812361048362833 -0.0010457356591045376 0.0008113538118719838 0.47262295761087647 -0.19490919102789306
88912000.0 0.6984103308933294 -0.7137211121169599 -0.1910709943828731 -0.8179069985392838 -0.00547794228716233 0.00023131021800764035 0.47417016396029243 -0.21656742816007535
89911000.0 0.6916600598265834 -0.7223044196913702 -0.20895811038338855 -0.8545487914156825 -0.0025162458892104894 -0.0009076816854560379 0.46987640002589814 -0.21035779507473
90910000.0 0.6832234049291873 -0.7276136013688637 -0.22825226786292602 -0.8860400363349452 0.001757608116238177 0.00021348029354403413 0.4673442596867666 -0.22613242639618963
91909000.0 0.6761371563994351 -0.7343781450901747 -0.24835526010954406 -0.9236607981591082 0.0021720673726560707 0.0026140616099554646 0.4775380738731615 -0.2358385996110708
92908000.0 0.6684388135325614 -0.7415829991283387 -0.2638765323883548 -0.9560166023614326 -0.0009729008973513448 -0.0007558738621237991 0.46089160154402786 -0.23756185352909892
93907000.0 0.6623253790351119 -0.7466518910884747 -0.2844405386957724 -0.9883734736811074 -0.0037805699797963713 -0.0037821075882452713 0.46226058245406026 -0.25787541263608854
94906000.0 0.6482230670265672 -0.7543817497916229 -0.304937045703318 -1.0225661439035287 0.0005823828708375573 0.0007693158601335377 0.4628229650931595 -0.26652987079758245
95905000.0 0.6430411646577955 -0.7615729286946498 -0.3236916328700279 -1.0601040751312747 0.00021164857427606468 0.0027231806642951384 0.465929220698728 -0.27643713738221926
96904000.0 0.6355728549382003 -0.7700425075089722 -0.3449780607037377 -1.0998883763769343 0.0004306463419230691 0.0008655480370818704 0.4547621227193117 -0.27530589073215567
97903000.0 0.6256780063038437 -0.7749032645515486 -0.3735023266943444 -1.128350543882047 -4.23576980226002e-05 0.005561724339453927 0.46016446688052987 -0.29587923794946774
98902000.0 0.6205612490943566 -0.7823750190333608 -0.3907884805920957 -1.1703997127757344 0.0002336672029884361 -0.0025261832518232957 0.45334373729186783 -0.30660929043367546
99901000.0 0.6119461049936878 -0.788999626735054 -0.42052775277705645 -1.2046805192536647 -0.0009442255529061672 -0.00188651683242929 0.45582499089785394 -0.31573021387407857
100900000.0 0.6040847995908987 -0.7911852528859622 -0.45096564208334255 -1.2287290985145418 0.00012996819005506633 -1.7879520121361297e-05 0.4642519392151563 -0.32469950333187586
101899000.0 0.5972069090756777 -0.7984168570128483 -0.478980923383994 -1.2724979181948457 -0.0006517907791929923 0.003861836691448771 0.451313416037074 -0.3324462156408868
102898000.0 0.5840522777006659 -0.80755199301696 -0.518413008655105 -1.3097315272826575 0.00028559294613756336 0.002625729614747198 0.4539601194997915 -0.3409648440906116
103897000.0 0.577926709462389 -0.8129631061930027 -0.5544581063497888 -1.346139072847604 -0.0031067216290140767 0.001237659547014494 0.46234826103012916 -0.3311352360175757
104896000.0 0.5691469813085225 -0.8214965400927726 -0.5985958592446324 -1.3823943737512752 -0.0016444563818748448 -0.003965185741943383 0.44647092877693273 -0.35551342143168535
105895000.0 0.5589116533708164 -0.8251360888673458 -0.6508960313366644 -1.4243169368210082 -0.001920545135608603 -0.0020509081149798335 0.4339860376748729 -0.3648471742637783
106894000.0 0.5503255785875918 -0.8322204072078696 -0.7002742821725273 -1.4667241402379492 -0.0012214425700955117 0.0020009290908121835 0.43517157511339455 -0.37948502540064377
107893000.0 0.5431392335756585 -0.8375058645925091 -0.7499251662426326 -1.5042860070348856 -0.0011431741016608833 0.002140493237811284 0.42851756534567875 -0.38551561065047923
108892000.0 0.5327168215227231 -0.8418277859750931 -0.8133916954913811 -1.5358840916770564 0.0009928436371220094 0.0010040155882008704 0.42109774683045936 -0.3846522559706499
109891000.0 0.5222889470080164 -0.848026447716849 -0.8686224784764398 -1.5787832881005066 0.00022636317767099558 -0.001247137884955264 0.4309096637408669 -0.38733621217842906
110890000.0 0.5123966316210853 -0.8642476225812634 -0.9495824136296079 -1.6027627088017016 0.0007696188917354601 -0.0006250653605287067 0.43001840038318595 -0.4040276282927765
111889000.0 0.5020962857638334 -0.8574058708564823 -1.0000478993931021 -1.6456447624622528 -1.900575577366395e-05 0.0031949170500267256 0.4255078257130349 -0.411027273243474
