! Created with skrf 1.9.0 (http://scikit-rf.org).
# Hz S RI R 50.0 
!freq ReS11 ImS11 ReS21 ImS21 ReS12 ImS12 ReS22 ImS22
1000000.0 0.9782383471404646 0.008297609038505314 -0.0023849264874800714 -0.042424157943198065 -0.011124684570252388 -0.0015048859740486693 0.36492277293799136 0.34751500646050837
1999000.0 0.9937038283945531 -0.013921845305081584 0.0005507300824229874 -0.020850194326014575 -0.014022638714373703 -0.003495087922534687 0.26546771945267406 -0.050741557039632894
2998000.0 0.9979685105786293 -0.022820048842239933 0.0045983289142549864 -0.01738712113356396 -0.001629648795592785 -0.004787591077861912 0.20680146837383548 -0.12916452016875807
3997000.0 0.9963657293827747 -0.02970707094853678 0.015341286807223109 -0.01027771271969217 0.0026061603708920924 -0.005860076718541456 0.07330897346144283 -0.22300355782818684
4996000.0 0.9957048930077363 -0.04056316271313577 0.006395224794968057 0.0011644742524529097 -0.002630629526633078 0.000663823908781708 -0.047071168484539676 -0.2040633731770356
5995000.0 0.9945452155593603 -0.04997614072130414 0.011539058172126951 0.0029016977347529178 -0.0037263702906213717 0.0017882890509295169 -0.12938497946974611 -0.11202311819268994
6994000.0 0.9921491872188237 -0.058722662818690194 0.008259241892468993 0.006389070752948757 -0.0019349697896539264 -0.002325946499476426 -0.14840574038752652 -0.01977680160668251
7993000.0 0.9943820259982651 -0.06981663351118818 0.006644263290667144 0.007013747713276621 -0.003146206865625552 -0.002337175204042401 -0.1670915574536293 0.03995815038174943
8992000.0 0.9927862005681325 -0.07364726389175667 0.003914900976103872 0.004081873959470202 -0.0043038584784163055 0.0032467806008358623 -0.15699648619520207 0.0695139780160057
9991000.0 0.9921578127255201 -0.08139451682368977 0.005844079014963811 0.007274944281144674 -0.0012230763032548434 -0.0005415506885282915 -0.14559687469945587 0.09535529397469734
10990000.0 0.990845560873338 -0.09510173595997207 0.0036925282330509553 0.0002594483046728008 0.0027767324897334964 -0.004581919977199342 -0.12880889094187636 0.11925349543859837
11989000.0 0.9891123782803914 -0.09932665506553573 -0.0007809576310972868 -0.0023752515485427885 0.004494731085979959 0.003396405492741616 -0.12892748148965588 0.13362258279847175
12988000.0 0.9875031428008058 -0.11011467496901252 0.0031774709878449104 -0.006719351700298467 -0.00014755895697727097 0.002164365391774637 -0.1312269599915247 0.15906936344998296
13987000.0 0.9871055775151342 -0.11985207753106929 -0.001111180158768089 0.0011927918524453982 0.0017821425161590166 0.00516683608713286 -0.09546006163391103 0.1851237338177088
14986000.0 0.9869087172183774 -0.1261814384264854 0.00024153648419447974 -0.0019003262163394393 0.0018985044221431849 0.0009755482403611684 -0.07815981441400091 0.2011551914648462
15985000.0 0.9875759341691377 -0.13381900939311647 0.004895423125388341 -0.005322685551900756 0.0030951055725026164 0.0009969825961807213 -0.07729214644027413 0.22000840867479413
16984000.0 0.984496024441744 -0.14619587817514204 -0.001649530266340329 -0.00402502960750939 2.2330904229335642e-05 0.0028320193872100274 -0.06004094832971755 0.2232507435561149
17983000.0 0.985440029385594 -0.15023962787666745 -0.007840437385727867 -0.006632817651419399 0.0020532508515800256 -0.0005744973833420816 -0.05139285888936539 0.2199814668040646
18982000.0 0.9799595029441722 -0.16292303348333154 -3.21458064370399e-05 -0.0028748771626662716 -0.0018208656653978916 -0.002480409249514098 -0.02021525885493445 0.2372432808799398
19981000.0 0.9811495331727819 -0.1664490122164509 -0.003846189242452708 -0.0042431771697798645 -0.0007724789748681559 -0.00010069801588637639 -0.025670921565591316 0.23541763586278588
20980000.0 0.9795636924532348 -0.17864453316960066 -0.005180509088719907 -0.002656093648215446 0.001449334566775792 -0.001284495302968768 0.0006001667942628346 0.2530483440854336
21979000.0 0.9770131490144521 -0.18638144743741014 -0.004932965942255955 -0.004033949455501745 0.0010268477410424518 -0.004033963529642406 0.014256831776061279 0.2518381463850723
22978000.0 0.9748670750444033 -0.19492599185170176 -0.006194743812613978 -0.0008755981587862303 0.0005660708696952778 -0.002670085411402308 0.03989105490574652 0.24794982666230425
23977000.0 0.9767892561713596 -0.20056064055841577 -0.005761386153920598 -0.00326676734995194 0.0013489576192549215 0.0014327407814235256 0.04034611540428552 0.2458751445893303
24976000.0 0.9728352805010001 -0.21373982722585988 -0.007241487419528642 -0.00442475370140626 -0.0009810422188509353 -0.0001625798922900179 0.062296774990007873 0.2565634488018399
25975000.0 0.967277549849028 -0.21844251135724757 -0.0055278985794434575 -0.00027497084261973227 -0.024233016059257196 -0.008489462899635218 0.08615976392308347 0.26484698525180256
26974000.0 0.9696725802499937 -0.22872757668746313 -0.006375456000408644 -0.004910123946445082 0.0005171786826150941 -1.6977025526451538e-05 0.09456050680651182 0.26707549391978225
27973000.0 0.9675584378650275 -0.2384355630148063 -0.0039940073592441795 -0.004272785198240528 0.00042766763132518783 -0.0011517879997641508 0.10872850360020829 0.24771815765070496
28972000.0 0.9652016808937602 -0.24688085228478077 -0.002769144218505365 -0.002743052313011604 0.00021174799794191143 -0.00134779971119176 0.12259057390754641 0.2589536360220076
29971000.0 0.9638038624835387 -0.2557293914097716 0.0019680307409553396 -0.0035368328929643784 0.0011769822162810317 0.0008180269571610648 0.15962752201629102 0.2661082921292355
30970000.0 0.961029989560862 -0.26164230719371306 0.004776729617728493 0.0005146499880349852 0.0005888923947977306 -0.002006357185818466 0.16834800892009621 0.2451450561966103
31969000.0 0.9569018624735698 -0.270195479781978 0.00633154703304171 -0.0069286382965183515 -0.0028437920012434567 0.0009417708822551987 0.15482339863805367 0.25373344324342095
32968000.0 0.9554146362221647 -0.2812397285848296 0.005793638502292716 -0.006815132043918989 -0.0003573015090974987 -0.000651501326455787 0.1633344775700887 0.2432718535340786
33967000.0 0.9538278097869927 -0.2892324758510853 0.009270930993606475 -0.009011003504426513 -0.004055309295720813 3.200029569179738e-05 0.18849247347406053 0.2506004770578671
34966000.0 0.9504995433836865 -0.297628019896319 0.013973292051679865 -0.012774667784661183 -0.002866290365634598 0.0021122324868182198 0.19680726059079784 0.25267665898484926
35965000.0 0.9486369533560072 -0.306123075120829 0.01570519516075742 -0.015677770100767575 0.00038360791246917265 -0.0023348495168243806 0.21421788803741265 0.25362052886702713
36964000.0 0.9472338514673115 -0.31364315736741855 0.015812663359887142 -0.01322182889455474 -0.002516074778802706 -0.001560151377999236 0.2134276950682414 0.25220750083781757
37963000.0 0.9439067251178881 -0.32259612931686515 0.020648241547432267 -0.02398799604633309 0.0002628554717254532 -0.00123806930976581 0.23809769849480744 0.23274116356260613
38962000.0 0.9405563739150395 -0.3340724608476312 0.02415403257243627 -0.02431452501262749 -0.0010750379458620224 0.0007223816967315575 0.24270328239388794 0.22733634176090875
39961000.0 0.9374224987539921 -0.3411436625438349 0.025372165411412018 -0.027750676343216346 0.0031660353991447886 0.00030148439098251473 0.25643663393632105 0.22938491324716467
40960000.0 0.9347360207286515 -0.34867961990538826 0.02037892057068977 -0.02357541453959012 -0.00019109226476022836 0.0009963182002943672 0.27310166653748197 0.22341574850589652
41959000.0 0.930033775629236 -0.3580274701846607 0.030940459933388485 -0.03129651641190089 0.0006030519609905769 -0.006746335827352091 0.2653580790811641 0.21687104912909577
42958000.0 0.9249454154898858 -0.36645130890916794 0.033187352819010314 -0.04246716855167681 0.004680479976624693 0.000351699641905302 0.28288897400382645 0.19678674943212618
43957000.0 0.9239632617537351 -0.37375306122411717 0.0332423468812822 -0.04738443533149369 0.0005391386226807287 0.0007081672844172673 0.2858119486817088 0.20739739412240518
44956000.0 0.921193357906771 -0.3796362277357727 0.0350626607317763 -0.054241865658348744 -0.0018184482895174325 -0.0018953716290878485 0.304169015235504 0.18773742042721198
45955000.0 0.9160463430865513 -0.39199514412139885 0.036494993627316695 -0.05727743190185917 -0.0018928746230017757 0.0005327975195558681 0.3079770754153488 0.1912641650874741
46954000.0 0.91381288801355 -0.3993273889897051 0.03539077526828058 -0.0668828328693549 -0.0038907651824653553 -0.00031147521464850006 0.32863741853068495 0.177458160695662
47953000.0 0.9101450758879992 -0.4087640130452144 0.03615564268749529 -0.07402456435659832 0.0013784528001781705 0.002511243821730769 0.3387092812170469 0.16091460036439037
48952000.0 0.9040093706233191 -0.4185883727783541 0.037524377636255796 -0.08516339711596564 -0.00023393171782343607 -0.0007024197622911647 0.33447708318789987 0.15979428182546057
49951000.0 0.9031803670190781 -0.42115032328645224 0.037213489659681805 -0.08798323934221082 -0.000997452927840624 0.0012604954488482562 0.3557044692525475 0.14392866716107486
50950000.0 0.8970737811591935 -0.43202507934348844 0.0381298755668845 -0.09755952631370196 -0.0011819124605218106 -0.00018076740679469716 0.36637522939057965 0.14852800660818188
51949000.0 0.8943545676926462 -0.440306135411829 0.03753047428164911 -0.10443804768950096 -0.002140614096442989 0.0033252237060098027 0.36545596222642424 0.14133035459574278
52948000.0 0.8902055057034428 -0.45030097925751555 0.03972875156904882 -0.11417709505419553 -0.0012192595372218624 -0.0007285076385066458 0.380625615575741 0.14380941705461528
53947000.0 0.8855789475679335 -0.455657266248955 0.04163551548640655 -0.12516800287861593 -0.0023287366647669746 0.00015972071504343987 0.3701324665576843 0.1260704251596095
54946000.0 0.879940134761777 -0.46634008311577285 0.04334807461759616 -0.13494307905171465 -0.0005617323419867937 0.0012265661836811058 0.3857549476229339 0.11926337698735331
55945000.0 0.8776260302330733 -0.47489142698024844 0.04480803933795162 -0.14518094565671688 -0.0015608458689404907 -0.001594922740891045 0.3938995119368256 0.09135322327614159
56944000.0 0.8734512184495269 -0.48163652216794867 0.04525429053113012 -0.15208312087304124 -0.00023772297737900997 0.003160386944487573 0.4029552526296845 0.10211547551001814
57943000.0 0.869265883142708 -0.49264167335308523 0.04662505402037505 -0.16590143898799403 -0.0030516594270093202 -0.0019824686049582595 0.39761046844035 0.08922369106608086
58942000.0 0.8604058697008782 -0.49801303427146904 0.05003958126484517 -0.17538328042219117 -0.0009013492882922902 2.5677817442726798e-05 0.4200749337806326 0.08322922949875923
59941000.0 0.8610535153378334 -0.5049805348806619 0.04931057883687649 -0.1868648267613041 0.0019446936790816418 -0.0006669321268644276 0.42431978419592287 0.08341738859815402
60940000.0 0.8511448509043092 -0.5118175699671527 0.04846403639860728 -0.1889985414847545 0.00030002852517057975 0.000529438112966914 0.41408855308599307 0.07761548043656445
61939000.0 0.8487449081639229 -0.520748874985644 0.05006959963753228 -0.200277036649605 -9.017600764338376e-06 -0.0014919977772746363 0.42109942525409616 0.06489592852429128
62938000.0 0.8424692356863793 -0.5301739785080064 0.05321367918775772 -0.21408778015289054 -0.0015435951328650246 -0.005830293112048089 0.4434179245182001 0.05090866088772903
63937000.0 0.8364291667534094 -0.5394805291909962 0.05102389514489491 -0.23506614671945592 0.0043075184476502855 0.001335549874041579 0.4414692153256626 0.03262042493756589
64936000.0 0.8316026119101568 -0.5443299216368737 0.05266758300009668 -0.24982445039564868 0.001137734302798202 -0.0011453568148119995 0.4454416998649095 0.03425946675335137
65935000.0 0.8283717569503546 -0.55429292600572 0.049490784125025986 -0.2633077133639273 0.0006583333748492867 -0.000919059476302023 0.4360739695453215 0.015223076003094471
66934000.0 0.8236366232832913 -0.5608866337384925 0.05248784787138063 -0.27403722010785475 0.0027121029998495726 -0.0005644245757255338 0.4380382655155526 0.0006576475395436797
67933000.0 0.8201056710020286 -0.5679452938393913 0.05397152290464067 -0.2897166654028792 0.0017673750971965222 -0.0004021676409727462 0.441360728102283 0.0004491778963646174
68932000.0 0.8150505183350816 -0.5668598436357216 0.04839481585433346 -0.30283648824450654 0.0005629305324254984 0.0012115247318252092 0.4577829077932053 -0.0026940872457530624
69931000.0 0.8053801062947193 -0.5848716700821699 0.04758513437803158 -0.3215575201636321 0.00034296778298775396 -0.0016474997654678026 0.4526528069158075 -0.028383921080088796
70930000.0 0.8015581341213265 -0.5896600353966154 0.04694672873167904 -0.33493073521049715 -0.00017729476883518853 0.0018643423904823484 0.4474908760155755 -0.027273646596169987
71929000.0 0.7964332376773445 -0.5984588720035674 0.04523515206205849 -0.35382229059594655 0.0027399372483816885 0.0027682929223856673 0.45412845558881154 -0.0441899453400977
72928000.0 0.7889191445703957 -0.6094445149103527 0.032476853070165075 -0.36729204217638445 0.0042817509844658595 0.001433567072838114 0.46462779033863943 -0.04913728705243427
73927000.0 0.7821137239257608 -0.6145619813265208 0.02873260203275711 -0.3879507216138137 -0.0021097336299914543 0.0021236205676587057 0.4613140311449711 -0.060462655894499166
74926000.0 0.7775583889049167 -0.6244388651970585 0.01694210583696182 -0.41038024020999014 0.0020089157531946646 0.005457669806938334 0.4671474305211986 -0.04713399554548629
75925000.0 0.7719800432831165 -0.6286220546382362 0.010077486113443111 -0.4300927075569212 -0.0013008166971641446 -0.0007844354948081875 0.471935560774326 -0.0801144052066946
76924000.0 0.7651426045377797 -0.6384633814363536 -0.002978863578653524 -0.4495327682327839 0.002498568426976166 -0.00035496366045392074 0.4719979885038527 -0.08839564295437259
77923000.0 0.7584735695081419 -0.644580629407662 -0.020356319589426984 -0.47284741857255935 -0.0008708312996518412 -0.0032833113847983843 0.4635227478863196 -0.09195630399225187
78922000.0 0.7523223072521372 -0.6541124226093101 -0.0318600066981698 -0.5073135513422075 -0.0009074004055368717 0.00437042592683225 0.4649674552346173 -0.10397601326577273
79921000.0 0.7441925376625773 -0.659145371823495 -0.05610144113531691 -0.5301347019084306 0.00015960614037555045 -0.0004161424717226302 0.4642499247042406 -0.11988331456089676
80920000.0 0.7376015446798829 -0.6691539203194216 -0.06605815021966403 -0.5605688095127629 -0.001213062226505096 0.004332355264512769 0.46914063669831774 -0.1264431186395567
81919000.0 0.7346925033181174 -0.6735212569482556 -0.08030460032216581 -0.5854289514339867 0.00016139973188887321 0.0008210047338250857 0.46834053540361287 -0.12217006766740059
82918000.0 0.7257190055856898 -0.6828801453415655 -0.09679079370931847 -0.618655552114519 0.0013036889925466355 0.0011514242031556996 0.4794556080733519 -0.14729431850893754
83917000.0 0.7166471830302327 -0.6894991228528375 -0.11986127461626252 -0.6458685010490641 -0.00098534130297276 -0.0019205452270529698 0.4851663173457023 -0.15385287335051404
84916000.0 0.7124996242917421 -0.6949953177469084 -0.13428455282205665 -0.6782097287523826 -0.003515838431410726 0.0031402967544191377 0.45981934656801843 -0.17294069163375209
85915000.0 0.7042105109244622 -0.7031200215606921 -0.15196820695973703 -0.7113679282638784 -0.0004571369633861189 -0.0005170562679313714 0.47578338568947665 -0.18145970430610406
86914000.0 0.6968925331513316 -0.71366807009626 -0.17083097118675658 -0.7489004873094887 -0.001901158335711608 -0.0015026951917652062 0.4630940470135383 -0.17627455675344303
87913000.0 0.6891761328476187 -0.7194453907991916 -0.18878752606670945 -0.7756317577836866 0.0006635365294425644 0.000468631810652368 0.46072757095390093 -0.17680478111159267
88912000.0 0.6836890104714948 -0.726741772561278 -0.20928273719516743 -0.8087811778238281 -0.0008436926767303778 0.00029037819979387246 0.46122879929832816 -0.2083929342535935
89911000.0 0.6753156472141245 -0.7343097872136585 -0.22351384457359424 -0.8469690252139869 -0.0002594286356099951 0.0012025191911739022 0.4694223607287678 -0.21490850485690555
90910000.0 0.6674823505652936 -0.740321178007107 -0.24225210679635473 -0.8802580014454442 -0.0013657114102842564 0.0018061194872486669 0.46661842944157605 -0.21644444930622936
91909000.0 0.6600690106623271 -0.7447067379614989 -0.2584854673350207 -0.9144535769838708 0.0002901838313708707 -0.001408443589380463 0.4692378493802272 -0.2335014621068124
92908000.0 0.6510780314397019 -0.7541300643241872 -0.2738850170376893 -0.9424006223917006 -0.002827060910743126 -0.0027274311795989 0.4586862001909395 -0.23328561993487162
93907000.0 0.6455098415838111 -0.7582592545003608 -0.29178158761785555 -0.9781958815989791 -0.002188505690280228 0.00463526568792028 0.46042912902552124 -0.25543113241106674
94906000.0 0.631251175010215 -0.7667127906518991 -0.31320790619047145 -1.0110452149878268 -0.005846637477067472 -0.002857267784623993 0.46507900404190505 -0.252901745925942
95905000.0 0.6274305383356439 -0.7726625625406243 -0.335830882817727 -1.046657431010675 0.0012586237382986448 -0.0023816051319419315 0.46372670483936 -0.27056736373744167
96904000.0 0.6174536158520887 -0.7808919296728462 -0.35725978258715846 -1.0833990695241418 -0.001825430398789873 -0.00045201495074703637 0.4582356749011562 -0.2824323273863703
97903000.0 0.6079262892311581 -0.7865391283760996 -0.3808742539639071 -1.1090147111542017 0.003158344159337707 0.0006204449209288386 0.45316498955822476 -0.2900262922972571
98902000.0 0.6026005687037314 -0.7944586740063573 -0.40199519984570437 -1.1528468820086264 0.0026640492199326987 0.000519550057142697 0.4585346767190214 -0.2948217865120937
99901000.0 0.5921469896195113 -0.7963877665895871 -0.42948582101046817 -1.1750554275488303 -8.114482696327276e-05 0.002955858551377772 0.4542978096571222 -0.32049955276995507
100900000.0 0.5849274569747485 -0.8026139243758819 -0.4651962700274233 -1.2106904879371825 0.0024165121247036003 -0.00035679459658113005 0.4587925894528525 -0.31607052103469946
101899000.0 0.5766077060425183 -0.8113146816620446 -0.48831808160083784 -1.2509337704701546 0.001227957795950094 0.00013702099460184526 0.44389658106673374 -0.32956541520958277
102898000.0 0.5668958262434749 -0.8158311001235048 -0.5226389635614795 -1.2916713854507975 0.001454343810732926 -0.004214358508614548 0.45024500442357057 -0.35421658450814936
103897000.0 0.5562485974176894 -0.8250763232646137 -0.5683799143895893 -1.3156562107722074 0.005299953041158495 -0.0023097967264707146 0.4458617860900772 -0.3450896385268127
104896000.0 0.5512120917174744 -0.8342825053388371 -0.6138770083168796 -1.354057646660923 -0.00047990440147154873 -3.442108631746779e-05 0.43997249624255674 -0.33511600815701625
105895000.0 0.5401338122770206 -0.8367300575694003 -0.6637174020087317 -1.3916639640612887 0.0014577912029880326 -0.0004391347399087261 0.4330750581629001 -0.36966102556017544
106894000.0 0.5301309878474546 -0.8413884501298327 -0.715012783136293 -1.4306333341620738 0.001987884208089188 -0.00021112086751105924 0.42846811060647044 -0.36470601228019456
107893000.0 0.520983966536306 -0.8489363723136718 -0.7735817739147758 -1.4694063625804363 -0.0009214840894242975 0.0011610809168472597 0.42864521466309047 -0.38228670743884496
108892000.0 0.5109043586081959 -0.8510187689441097 -0.8324917075613759 -1.507965770447574 -0.0009415942956953475 0.001706944715840259 0.4267164243873595 -0.37272079387400286
109891000.0 0.49779024772834407 -0.8592651931438592 -0.8875168800201508 -1.5377549491968143 -0.0007733398549128228 -0.0005551146475570737 0.4410284861790671 -0.3829674084613473
110890000.0 0.49029914823498466 -0.8733908263939165 -0.9620382423869844 -1.5593315376740642 0.0010314129348930235 -0.0015994922501920287 0.43521220257927845 -0.3889699585766144
111889000.0 0.47813428991506646 -0.8656655816124464 -1.0180757978422792 -1.6040538842719116 0.0024264361711236033 0.002757428984736149 0.420146079005923 -0.4008863453648038
