! Created with skrf 1.9.0 (http://scikit-rf.org).
# Hz S RI R 50.0 
!freq ReS11 ImS11 ReS21 ImS21 ReS12 ImS12 ReS22 ImS22
1000000.0 0.9803581617824942 0.0034289204464985432 0.002880314169686344 -0.05031863572910144 -0.0062476592838870025 -0.010713959031042658 0.3762701735923189 0.31674109617289353
1999000.0 0.9934169860281259 -0.015766154852533566 0.005782231803540201 -0.02597353620877466 2.7890066469459496e-05 -0.0061460722698165274 0.27777813922528105 -0.03972793211810013
2998000.0 0.9960194058017233 -0.0220840188098076 0.009630268474151266 -0.010268709817044606 -0.0032822669900405433 -0.0038177470791279757 0.18578888753026065 -0.14808366878311785
3997000.0 0.9963868120633513 -0.03329780919583073 0.011287970513028723 -0.007966764691259188 -0.004409390093314963 -0.002077577144626851 0.08216604711075216 -0.24138815825709772
4996000.0 0.9963192514288541 -0.03574865030372175 0.007620364734138641 -0.006371602244733746 0.002287867865608919 0.0008007407402293756 -0.04459646649445354 -0.1977853045392885
5995000.0 0.9998326743446762 -0.04714758748624103 0.007286556977531753 0.004959342436047679 0.0027690387744792994 0.0007499108159842612 -0.12074235976084517 -0.10949295682089617
6994000.0 0.9941026991049599 -0.05907196193223717 0.008663165148961137 0.004043379502535613 0.0008597369050383898 0.00193730540496717 -0.14849823444555066 -0.012630938989809005
7993000.0 0.9980393488847711 -0.06347673325457218 0.002441976152204982 0.005502384086608471 0.0042201993232561415 -0.0010582300447390467 -0.16491365930246554 0.03969914093567167
8992000.0 0.9951221006609887 -0.07139919605332436 0.00031427532548248887 0.007889442938694523 0.0027821870721908438 -0.002109083525215192 -0.15032480630982945 0.06433391851855644
9991000.0 0.9926856379787914 -0.08388198112735507 0.005473020786934573 0.001386485375394223 0.00459294138380687 -0.0019219264370454532 -0.1405957956566123 0.09548107989295114
10990000.0 0.9930297647223679 -0.09217180242047275 0.0034209437289739572 0.005827838309261313 0.002746507320458168 0.002421213985187946 -0.14781034919479027 0.10796405283664634
11989000.0 0.9893937776718501 -0.09982500472439657 0.0030284214997660947 -0.008411280147055767 -0.0019413350448646103 -0.0008115562853243895 -0.11786401266953311 0.141508111041156
12988000.0 0.9911463222930313 -0.11014647414238138 -0.0003958132265887761 -0.002508261973833352 -0.0014801446919830586 0.0007776099331248132 -0.11959253768321544 0.16532730101374274
13987000.0 0.9883633573146197 -0.11921534055554002 -0.004686005035730893 -0.002991430817435816 -0.0013739704660648542 -0.003391783334896486 -0.10213526284297271 0.19384429383576623
14986000.0 0.988084788489107 -0.12703096556917373 -0.0006635988449017812 -0.0004359117786685991 0.0017181140743865093 0.0002313542472140686 -0.08693093968376521 0.20250029787777493
15985000.0 0.9880826865386754 -0.1338916938891796 -0.003090653719887802 0.0011359979647181107 0.0005501405135411373 -0.002093004037206258 -0.0748257061959351 0.22459797082941244
16984000.0 0.9861111355003446 -0.14268850818205797 -0.002099655898449564 -0.003851657832648943 0.0001677046237859019 -0.002744988415696836 -0.050003395858728046 0.21674876070454321
17983000.0 0.9869270371043727 -0.14739931521002442 -0.005257728097452448 -0.0009053340483794158 -0.0028836248023618866 -0.0015349434904592969 -0.05064338810574433 0.23678661819000868
18982000.0 0.98316177657174 -0.15878652957130823 -0.004242257180210384 -0.004334708881880471 -0.005412995302095443 0.002753016649040224 -0.017279779805321943 0.23144605609912558
19981000.0 0.9829861151039602 -0.16651569662294255 -0.00759269960091561 -0.0042064350083004885 -0.0014264193998919045 -0.0012095404167335702 -0.021177613390367542 0.24076440394569987
20980000.0 0.98020283476272 -0.1759826259382671 -0.004368815757774346 -0.0032977562385995978 -8.366666823181596e-05 -0.0015528270399551868 -0.0008704456250077382 0.2559753892317179
21979000.0 0.9809596128388546 -0.1847423204494429 -0.003811443940166393 -0.0028190998951737913 0.0034296721672202415 0.0008932948160802317 0.01776477365423898 0.24390726231144425
22978000.0 0.9758291851153624 -0.19631378045641035 -0.0054514744066771845 -0.0038979979397562076 -0.0010137716228551179 7.721845516909e-05 0.030628241138025782 0.2541526581209627
23977000.0 0.9784399154227027 -0.20016504855147507 -0.006671035373274267 -0.0020666399382871362 0.0016704946766432486 0.003951813966788741 0.0392921190801642 0.2591416705893327
24976000.0 0.972633339650488 -0.21174166309524037 -0.006313623119303209 -0.00048228517487479736 -0.002480536919885309 0.001540997711998919 0.05878699165658645 0.24791027761189824
25975000.0 0.9696150250728558 -0.22743951455709094 -0.007907984760321597 -0.0017406679500184296 0.022487835651198485 -0.014849889369779374 0.06993721028601715 0.2543900930513204
26974000.0 0.9696459322687734 -0.22847240050303974 0.00014349469800484734 -0.0004696016627871942 -0.004917047948944642 -0.0006107491147601333 0.08953099606817973 0.2643459432803908
27973000.0 0.9711491275858366 -0.2344730187148802 -0.0038545018369999027 -0.0018872757353032383 0.000769181066854646 0.001957740256157938 0.09717148715158859 0.26315717367525565
28972000.0 0.9657787492817322 -0.24696953754625878 -0.001736669439559163 -0.0011862496871659284 0.0015776568699072736 -0.004232533074275307 0.11713470353346832 0.2571333282290075
29971000.0 0.9643479879854244 -0.25464762783199796 0.0025623482879213767 -0.0009040228322793561 -0.000667730094530719 0.002063579557312729 0.13582271664771092 0.26679546704439266
30970000.0 0.9617530891650722 -0.25938986674779857 0.002055550889342482 0.0008164871084832447 -0.0024125016169993124 -0.0025313329976468335 0.16730178631077272 0.24840345308031556
31969000.0 0.9611454983484811 -0.2685270435197355 0.0054044407301545696 -0.00786102390813349 -0.0006414918390954239 0.0036413570350948793 0.1495231498633785 0.2566538007432067
32968000.0 0.9586498439313504 -0.27707110386216316 0.007562596232613589 -0.0072136909785046055 -0.00024826559579856083 0.0009557031771861939 0.15496506490443912 0.24759311233587045
33967000.0 0.9562497403683888 -0.2882052479022356 0.00962215352495509 -0.011306295056816549 0.0010610800155268505 -0.002652726765026044 0.1884096265442764 0.2405723878387673
34966000.0 0.9530912541624686 -0.29782450205618205 0.013203754662223599 -0.012676683621507975 0.0010731771321309488 0.0015741558505024816 0.1937112811130767 0.2547162905872543
35965000.0 0.9490678283699505 -0.3046585466225199 0.017645283574912463 -0.01644416680956881 0.002154087311800032 -0.001078052756242528 0.21702778890345223 0.2554804326610525
36964000.0 0.948152747997695 -0.3129597371698467 0.01608453917130468 -0.014137447616057343 0.0031837232444692763 0.002125590343134355 0.20467395451705955 0.25831680246423894
37963000.0 0.9443485655179982 -0.32324057874143663 0.024468820188864416 -0.024737720798913978 -0.002109625726709069 0.00048047302010438965 0.2279244044785019 0.24545166873973429
38962000.0 0.9405345643298214 -0.3331773193269807 0.02325427869404022 -0.025874193412740564 -0.0030980113313537087 -0.001547079567121233 0.2283601929826517 0.23845162957280472
39961000.0 0.9385527766936942 -0.3389340415856109 0.02880224992323144 -0.028592501195413355 0.00161595588431915 -0.0009804489416763693 0.2451893734468618 0.23051359189153103
40960000.0 0.9345400975921594 -0.347516933737677 0.021855230587529802 -0.02479976288225155 -0.0015612305654035695 -0.0033752774274346175 0.26810544002568476 0.22857003164158232
41959000.0 0.9311307526167593 -0.3582334568076348 0.03182040893218857 -0.03391728907840799 -0.001373577203742158 0.002621582472450538 0.26344321974161794 0.21605496965395085
42958000.0 0.9255110003273538 -0.3673429426857973 0.031737675245495985 -0.04453963487537175 0.0009380879051875808 0.0006714317067809476 0.2771585792207682 0.20382780401438155
43957000.0 0.9253995588255092 -0.37207059258499986 0.03258968151766108 -0.04696813652879384 0.0012043593737744343 -0.001925599814811388 0.28419157139830786 0.21118390009221932
44956000.0 0.9221215243409832 -0.3801028025640715 0.03667504027803629 -0.0535098545800156 0.0027013983709550846 -0.0006306651449582548 0.303738391983667 0.20001602297860105
45955000.0 0.9170034110764627 -0.39152968213295397 0.03485621957039772 -0.05990363633228139 -0.00029228241526604675 0.0012728518861321791 0.30371993019740917 0.19592394872980917
46954000.0 0.9146562199493284 -0.3988630192597526 0.040066033572073556 -0.06858421295999156 -0.0007171269797844264 -0.00015305250692904986 0.3195604048880462 0.17992500388714175
47953000.0 0.9108497978062348 -0.405917356757926 0.03655048742185156 -0.07494588834182347 -0.0007628603406174071 -3.218281113430924e-05 0.3304655764962287 0.1781885238757401
48952000.0 0.9045295302264638 -0.41730175434725014 0.03933294253004098 -0.0808912961299205 0.003010160187225322 -0.0017192941932501293 0.3276397008115919 0.16940953856879057
49951000.0 0.9037506281483672 -0.4207475140953678 0.04135057247680187 -0.08909121475903646 0.0002728183004562902 0.0004079524072010623 0.34672436320953975 0.15632872621159288
50950000.0 0.8984290945462209 -0.4333007782197693 0.04184122988322634 -0.09809379257557028 0.0034692201739296136 0.004191124423660049 0.3488164370497662 0.14625051049793453
51949000.0 0.8920747090172616 -0.441423664122992 0.04326475178690003 -0.10528673914272363 -0.0003948796078350692 0.00380445616666522 0.3585113935118068 0.14260967096316587
52948000.0 0.8913771007976087 -0.4482526382372442 0.04393756835729787 -0.11304606835117167 -0.0016718855887973328 -0.0009417160593914686 0.36729426042613467 0.14299335095737412
53947000.0 0.8870058983658807 -0.4542767223632934 0.04518144065001364 -0.12491467744740524 -0.0019304705225730873 -0.0015318322307865152 0.37114515495239964 0.1282675749531395
54946000.0 0.8799367843947278 -0.4665569811910077 0.04454644444484739 -0.1359978377194363 2.2321374867394987e-06 0.003822158702163378 0.3782849519628155 0.12024630263958382
55945000.0 0.8777531363908998 -0.4736346382053771 0.04708255760013262 -0.14652713782910728 0.0033323338359888344 0.0030824963588014084 0.38311266704358005 0.11205207856548216
56944000.0 0.874261051482369 -0.4815016353304967 0.05021494428766998 -0.15745639355528313 0.00011763167357858206 0.002695237002616301 0.39289975090324925 0.10372551037909944
57943000.0 0.8684166839571892 -0.4919451607951839 0.053570000478291316 -0.1677371532077669 0.0025721482826893075 -0.0005479948000979987 0.38977129292453033 0.09523119153817183
58942000.0 0.8633721299279835 -0.4953325570256987 0.04965589088162279 -0.17959673758939043 0.0034995438601609185 0.0018817005431816239 0.4107216417860522 0.09216025627926534
59941000.0 0.8599850761826177 -0.5058079518079734 0.05444817174079275 -0.18833503431251217 0.0023104281734873506 -0.0007709788763850192 0.4274245552141333 0.08686058743273803
60940000.0 0.8530911177950289 -0.5122895256749138 0.050522711053004044 -0.1926549360350382 0.0045591627214719285 0.00010051883376106059 0.41087802457566874 0.08163220032901336
61939000.0 0.8502219588498225 -0.5186521510478583 0.05440792426918444 -0.20114687228373376 -0.0030505032055595255 0.0007446963172945463 0.40917092273604705 0.06270719083400117
62938000.0 0.8434941394403039 -0.5302300525232997 0.05706593411767603 -0.21864228773493716 0.0019034277109314542 -0.0014775030159895593 0.43170673392845266 0.06628014907887729
63937000.0 0.8372649627226636 -0.5391274426608392 0.05888402967768096 -0.24135921046746484 -0.0015678970381182002 5.6467208193560915e-05 0.43271983403369724 0.03788004320825876
64936000.0 0.8324445137169122 -0.5443787309370319 0.05973810178286261 -0.251344541429947 -0.0018326863514521365 -0.0028201564690103734 0.4283889809207097 0.04838691088306672
65935000.0 0.8298047523398387 -0.551686821208572 0.05688463914875387 -0.269015412256484 -0.0017679968632044092 -0.000982090413747823 0.4423946982712257 0.012413137536947921
66934000.0 0.8254594382845682 -0.56171880888299 0.05644225902377175 -0.28719512510058987 -0.0009409662034151893 -0.0024416729646966244 0.43964058555607965 0.006560445274323793
67933000.0 0.8223762276545347 -0.568601752130344 0.05812490725787906 -0.30023478600992076 -0.00019901396893682783 0.0013623764864312841 0.44257394638847614 0.014909840924042383
68932000.0 0.8105684238588714 -0.5604607456441039 0.05391346421206997 -0.3088632175617774 -0.0003681644866858148 0.0012291029891365374 0.4506494915387079 -0.004341162165139776
69931000.0 0.8096480584002493 -0.5823898373269458 0.05681834592381631 -0.3315020058773725 -0.002846760421702104 -0.0005427983345870351 0.4518565300983592 -0.017731625521384353
70930000.0 0.8011036821122541 -0.5930286431760177 0.048229385233311405 -0.34688308068319923 -0.001815289414221733 -0.005015799904413505 0.4455969558180436 -0.02850741704701589
71929000.0 0.7988450766817615 -0.5984253665297876 0.05211464692749568 -0.36296644874234923 0.002411506012716219 -0.0010127402799995288 0.4500568401376568 -0.03893491920715432
72928000.0 0.7916181528660267 -0.6082563906659594 0.039164741380153884 -0.3815500139251541 -0.0004836019035400418 9.552537127615942e-05 0.4653979994954335 -0.04513879360304728
73927000.0 0.783070579312068 -0.6136975567955785 0.03149799515831631 -0.402405702861007 0.0019786452352490574 -0.0019855670097043317 0.45544599641880423 -0.04908383497744017
74926000.0 0.7786670327969909 -0.6235459437444285 0.027296913237459537 -0.42136857499587543 -0.0008877984610264756 0.0015475343795754658 0.4586522311011171 -0.05917690374172558
75925000.0 0.7749545318358073 -0.6280252775861372 0.01683456108659867 -0.44333915620163933 0.0014343427394993584 -0.00028141498661136624 0.46602982532772774 -0.07266326443263911
76924000.0 0.76788648402278 -0.636899558757213 0.005361183762010789 -0.46462779067051074 -0.0021700617528813623 -0.00420588258845649 0.4605738798139093 -0.07988541677404344
77923000.0 0.7590231046795504 -0.6434068593725252 -0.010843115741672057 -0.48914975923766196 -0.00041599198962406867 -9.675066768192729e-05 0.4543290872066535 -0.08904856478331978
78922000.0 0.7550168309171106 -0.6521716417821946 -0.024691657163729366 -0.5193117338925811 9.93443117733489e-05 -0.0027420802138008802 0.45358836776667016 -0.10669655685057493
79921000.0 0.7469155355756426 -0.6556416059401287 -0.041694483441289565 -0.5470903657633938 -0.0018721748284831932 -0.0028653593871264954 0.45776001050372933 -0.11057813285015074
80920000.0 0.7421462183003747 -0.6669905808446267 -0.060158539064504156 -0.5742045524781431 -0.004032586267560806 0.0002952081915869032 0.45605646672083544 -0.1206879369742789
81919000.0 0.734951996696202 -0.6731259833888943 -0.07709351153887381 -0.6047581961896884 -0.0010784564224034865 0.0006728774418314768 0.4601714213228082 -0.11659246781309064
82918000.0 0.7277331684694126 -0.6812701537646205 -0.08939789361924165 -0.639278704498627 -0.003541635217966792 0.002082153958730552 0.47537705445935274 -0.13962723213810968
83917000.0 0.7183961287120328 -0.6893361075096563 -0.11017259510477156 -0.6715576405699515 -0.00010001749346671136 -0.0037850647461617664 0.4794165402163882 -0.14671510948756536
84916000.0 0.7133173264530281 -0.6991537068791841 -0.12821699120653995 -0.7037202776692896 -0.001993834491023186 -0.0003206265372833532 0.46660512108150587 -0.15444839155366186
85915000.0 0.706308212932429 -0.7043170876765653 -0.15044294891832816 -0.7370000283125892 -0.0007822715447384025 0.0017927301097645997 0.4709428893578748 -0.1655149533433656
86914000.0 0.6977656883069084 -0.7144569693764533 -0.15828470725434354 -0.7738697432322876 -0.0008539043542860146 -0.0014156099409287802 0.4602755647801698 -0.17226341640434203
87913000.0 0.6933910491679707 -0.7175307385037527 -0.18066832620267564 -0.8039402672917458 -0.004022618164889762 -0.002583147279676272 0.45572684953568404 -0.17945988380214667
88912000.0 0.6845419436468587 -0.7257855408956428 -0.19541683569968604 -0.8395384921688356 0.003879425649223403 -0.0018233920520413546 0.46800277671887974 -0.20100417935808795
89911000.0 0.6762578644694711 -0.7341724750010657 -0.2163849870153157 -0.8772980841494992 0.0008727994428348313 0.0015238795866758005 0.46206965951988793 -0.19767221909306024
90910000.0 0.6700627589183664 -0.7402704066432124 -0.23777611752112163 -0.9124270738599232 -0.0022203314299645335 0.002928130687710446 0.46179014332286716 -0.21171329837269498
91909000.0 0.6588801710039724 -0.7440749901742271 -0.2534413179198902 -0.9441078272808828 -0.0007782485915202293 0.003728577383101064 0.4610924251503036 -0.23028141333162702
92908000.0 0.6537410177894966 -0.7526221188010309 -0.2735353214336151 -0.9813123718124667 -0.0021334819220229237 2.003307278908343e-05 0.4514664216982588 -0.23148092064783646
93907000.0 0.6456637947035004 -0.758561690339735 -0.29247699432031543 -1.0113257385488388 -0.0033704879874541915 0.001020862643271363 0.4603596560736658 -0.24699747967284222
94906000.0 0.6342523930343142 -0.7663562652365059 -0.30784382759811757 -1.0496180096733954 -0.002224164235190874 -0.0015369279862432706 0.4602127817320024 -0.24741683458385033
95905000.0 0.6266252027976964 -0.7718621147463747 -0.3330290393431217 -1.0835022688735807 -0.002095845873474584 -0.0007062564115819102 0.4638058599032913 -0.27380239750478536
96904000.0 0.6189720574468884 -0.7808068877820981 -0.3518743596682072 -1.1294257886010437 -8.680496389609284e-05 -0.002946812282175266 0.45275346338461314 -0.26518755015128026
97903000.0 0.6103161920602553 -0.7886737528085168 -0.375743648192554 -1.1574447432460653 -0.001068519747471279 0.0015775036012345308 0.45788459017462024 -0.28210740758906
98902000.0 0.6052275829234667 -0.7939070071781823 -0.40029262148147376 -1.2031465659829188 0.0009822104253024231 -0.002414592406044389 0.44995487000116613 -0.28299943790091464
99901000.0 0.5950998148879512 -0.8001702368054727 -0.4288112426784801 -1.2310542440012695 -0.0016727097835767357 0.002393366599776697 0.45628220192745983 -0.3076705992928618
100900000.0 0.5837802395951124 -0.8038163212670376 -0.46821883443414813 -1.2628262321575079 -0.0027374301834827315 -0.002417383047586315 0.46460224204477396 -0.3055830884718088
101899000.0 0.5764715736836887 -0.8118090428466855 -0.49383115739520334 -1.306795028281679 0.0006734633320513842 0.0010084872123493917 0.4499075285225923 -0.30983073842776276
102898000.0 0.5665370766510819 -0.8175453126919916 -0.5327175820175384 -1.345740501580222 -0.0004650344632821284 0.0009482186918058 0.45476199802618866 -0.3272483187538613
103897000.0 0.5584158313554795 -0.8247337476395451 -0.5743758828154908 -1.3813114946314335 -0.0022917468317003426 0.000957192744117631 0.4623107106690813 -0.3273616148018106
104896000.0 0.5499190968859675 -0.8359707592787693 -0.6229488261072847 -1.4176724574440869 0.00032184378769178695 -0.0027535741392061873 0.43620914338837585 -0.3299474097691621
105895000.0 0.5406634626168974 -0.8373860518662266 -0.6756146993173315 -1.4673380034522898 -3.4279676939127983e-06 0.0009805180581868391 0.44623190000722235 -0.34993796426930346
106894000.0 0.5303904335311491 -0.843848252751429 -0.7333933094667892 -1.50027766047667 0.00029056836064482753 -0.0020095793268590984 0.433899428538723 -0.3626195004736639
107893000.0 0.5224562428696096 -0.8497178340199596 -0.788793225699927 -1.5373580029108065 -0.0020329236940439537 0.002024300893047939 0.4286398415814503 -0.37442096703313665
108892000.0 0.5125672095258276 -0.8528081129092913 -0.851365747397068 -1.5753855392122373 -7.984955563576273e-05 -0.002503200858863262 0.4217226184841453 -0.38179875661908075
109891000.0 0.49959760152744503 -0.8616484969945831 -0.908619461487737 -1.6096003419189917 0.003355320099163448 -0.001323670291707791 0.44143046275023073 -0.36831709594467255
110890000.0 0.4963378359819314 -0.8687134002539464 -0.975341082778018 -1.6384321504247294 -0.002245797056530564 -0.00023454189214437506 0.43424190998137485 -0.38355623109229703
111889000.0 0.47900738195166087 -0.8679321685390027 -1.0417455898283068 -1.6828427600561122 -0.001899201151899471 0.00263540376656476 0.4197885336423496 -0.39807295553881317
