! Created with skrf 1.9.0 (http://scikit-rf.org).
# Hz S RI R 50.0 
!freq ReS11 ImS11 ReS21 ImS21 ReS12 ImS12 ReS22 ImS22
1000000.0 0.9746556416013239 0.0059406735904689355 0.003561142003720795 -0.027446741364827547 -0.014776125824594706 -7.325362513468673e-05 0.3303624809184323 0.30401922227947775
1999000.0 0.9989370908400821 -0.012220800586029442 0.016909988527618488 -0.024534768187121945 -0.0019505339300683136 0.0014066101693974275 0.28599217285892475 -0.029062897630327916
2998000.0 0.9984782012071588 -0.022983612142491595 0.008417683350769164 -0.012611985155743074 -0.0021851970476053687 -0.0003192993804265529 0.1785173326405088 -0.12727800199530917
3997000.0 0.9984292563054183 -0.028365109026750178 0.011218953542891047 -0.0026305246228371317 0.0005964498010604137 0.0018588885461522412 0.09270878132314211 -0.21161745577484342
4996000.0 0.9982907698735143 -0.038533836156113804 0.01252763876630991 -0.0004605381683781588 3.564640453309768e-05 -0.004048232339649915 -0.03135040995324939 -0.21523856369043912
5995000.0 0.9962700152484555 -0.0489913376331199 0.0063524366598802645 0.0007231720668756976 0.0008235562205225906 -0.002026865888920021 -0.12374634399930252 -0.13892140808315429
6994000.0 0.9927381791462093 -0.06045608178693604 0.007805949988456642 0.0029989129037392465 0.00022138803090659986 0.0012329120152205907 -0.15041098137792389 -0.029059666768389326
7993000.0 0.9962894350257537 -0.06939547458411338 0.005097976523536127 0.0008226222322175009 -0.0010768853032372462 -0.0038918362707816502 -0.17014818886776506 0.024717614697000085
8992000.0 0.9946817304188309 -0.07288265413828054 0.002078085727836831 0.0065745289119723905 -0.0003237892233537711 -0.0004776772041054102 -0.172385702553372 0.0546136106792104
9991000.0 0.9950738510809997 -0.0848819926615088 -1.6856255107055637e-05 0.002795600059502032 0.002141019518671458 0.0028137307738779556 -0.16005542856404276 0.09220517110330967
10990000.0 0.9942507466004621 -0.09157595659027376 0.0012434751373914764 0.003086787792639664 -0.002065844997931103 -0.00028365276643114486 -0.14249388795899254 0.12429684855349343
11989000.0 0.9912983718384432 -0.10276546898375755 0.0077278283641444385 0.00048159696162839127 0.001617631179228219 -0.0027068545799301303 -0.12568109789935575 0.1386635181863368
12988000.0 0.9882528893514735 -0.11047911029902596 0.0003005259273921335 -0.003655745997049863 0.0007249960495323297 -0.0004085372939738987 -0.11174591475442198 0.16410794355453198
13987000.0 0.9855897815190711 -0.11895757068463433 0.0020827158312619024 -0.007005761775047096 -6.413972288847036e-05 -0.0028062366504433994 -0.10246700550424694 0.19082592916318428
14986000.0 0.9873175024954483 -0.12707306312177488 -0.00010911811176502416 -0.006635498251456694 7.611723271212687e-05 -0.0014024706250187551 -0.09895478919476806 0.2007447346129632
15985000.0 0.9894394315854724 -0.13502763397474396 -0.0017424108863035937 -0.0025052617480995324 0.0022176058015422138 -0.0047264939553400805 -0.07369788156337516 0.22348690728118892
16984000.0 0.9854258557155948 -0.14739812224444288 0.0015295195567062703 -0.004749211864946967 -0.0009803120252911694 -0.0038805818870460036 -0.0604688391381034 0.22353130623378054
17983000.0 0.9863989013828568 -0.14903011950841794 -0.002976321558350466 -0.009254447265277285 -0.0003544059818681345 -0.0011789451059388148 -0.05785283979020278 0.23284670080896386
18982000.0 0.9829441692149625 -0.16298378915802383 -0.005841215104225911 -0.0043434330166773685 -0.000847102639505551 9.714013040823248e-05 -0.02803689451164995 0.23897836073216466
19981000.0 0.9814910186745354 -0.16928757534805322 -0.0025843416627218873 -0.00553158413690146 0.0013394581301041954 -0.0025655659967145205 -0.007623872244362384 0.23913922648364017
20980000.0 0.9812511080107127 -0.1780547495343739 -0.002220061716068777 -0.004846581519983519 -0.00018374280765558952 -0.00030024209012701906 -0.0017621463468776811 0.253886371343758
21979000.0 0.9778833205102039 -0.18663380941549174 -0.0035138415510942126 -0.0017020793212726075 0.0013285316806814146 0.00352211774195949 0.008077117790838048 0.2560410427376887
22978000.0 0.9761513411786424 -0.19391818606860345 -0.005664336239596937 -0.0024973619038475055 -0.001083800672567937 -0.0015575138892290135 0.02138804310752025 0.24962870796683392
23977000.0 0.9772743653525822 -0.20526601611009002 -0.009327351871513935 -0.006243983986804059 -0.0023888770174745584 -0.0032277366916435204 0.026020565888272354 0.2517357199795334
24976000.0 0.9739550800092835 -0.21082391998089334 -0.008116488247615544 -0.0016692315084549433 -0.005127977666155515 -0.0022320377847183143 0.05614600006132179 0.2506242318108009
25975000.0 0.9694255864114202 -0.22756848352061884 -0.004779378119274826 -0.0034524995663282906 0.02014641275429418 -0.018644378439186777 0.0767851512734886 0.25704514041099374
26974000.0 0.9690170906519862 -0.22896548084233198 -0.004527532260759071 -0.0018661908365132061 0.0010523393255950503 0.0012772183568623477 0.08598569460621915 0.2658152405763184
27973000.0 0.9682333953355577 -0.23941790328832427 -0.0048050407692001055 -0.0019150230229490362 0.0006540446149216707 0.0011003244075889454 0.10517243417932125 0.2571545369496645
28972000.0 0.9646526331380846 -0.2456570988120635 0.0032934207188507363 -0.0015714755648894776 -0.0020783297153595844 0.003087391193621785 0.11468257619228173 0.26063525462780646
29971000.0 0.9636669067152349 -0.2559002835322592 0.0002682247606899669 -0.0019273734681067418 -0.00042357627596475425 -0.001745086760789798 0.1469448174886705 0.26990129026594395
30970000.0 0.9625775299986924 -0.2616212455394563 0.0035570137327956995 -0.0019471734394251594 0.004548049279985597 0.0031758235512733537 0.16567723153220432 0.25485812168307365
31969000.0 0.9599792545303921 -0.27035902833320125 0.006125612364052247 -0.007926311130170848 4.1709645299395365e-06 4.193158527130099e-05 0.15274532006158198 0.2560962657991812
32968000.0 0.9590008641585944 -0.27960060772657325 0.006886092683257687 -0.004063463060812162 -0.0012621598056405331 -0.0018936311902599857 0.16223291693213399 0.24968128831110137
33967000.0 0.9555161017649945 -0.29071393668317463 0.011724136783788825 -0.008305684569251941 -0.00048596810214084 -0.0008223561005498957 0.17905173079265457 0.24866315838932543
34966000.0 0.951680885278725 -0.2977083400496239 0.01157058454908883 -0.01242773824283352 0.0022376413057182344 -0.0007609075319804606 0.19386160287748347 0.24818580543168237
35965000.0 0.9482528814074038 -0.304481316692102 0.016742519155733233 -0.015980130761977695 -0.002617319723020601 -0.00019796738429249825 0.2101721689896368 0.25326583549739107
36964000.0 0.9473290680069112 -0.3143992458613045 0.016967831373032295 -0.014726109570295237 0.004409203643234734 -0.0009814406484783223 0.21237903480555603 0.251541638499594
37963000.0 0.9440596630359571 -0.3238527816129347 0.022636341142185067 -0.017957830638042557 0.0015695079105111668 -0.0018240757382419382 0.2187246033463778 0.2412654193289409
38962000.0 0.9411739814986091 -0.33401171652511813 0.025404152144083744 -0.02256684788667317 0.002002915005112505 0.000987886401968958 0.23829626947740062 0.23121084329709557
39961000.0 0.9378764921329543 -0.3417392211151429 0.02676171664229028 -0.02600120276617533 0.00045834764214254574 -0.00020387630587287187 0.24656105096110859 0.23265573422968455
40960000.0 0.9341678074505694 -0.34930319241168667 0.024041960302118776 -0.022171878627697404 -0.0006504185521338849 -0.0028790506229554318 0.2704583918805382 0.22812051237754397
41959000.0 0.9297710346470189 -0.35977790332427606 0.028925095386550276 -0.031433139957996056 0.0002151150694204183 0.0003160951287955077 0.2633333301039254 0.2241635220689956
42958000.0 0.9271371882232484 -0.3670807787537898 0.029250825130483913 -0.04061453435749141 -0.001130243601137654 0.0008055361290025346 0.27661568318346325 0.21273355877704364
43957000.0 0.9240606269807756 -0.37465077388001733 0.03312225331730964 -0.045288122407359424 0.0009016301647490531 0.0026696799249000982 0.2785469936184466 0.2174528706366625
44956000.0 0.9220065393879271 -0.3822382546147087 0.03579010435905171 -0.05297206429627024 0.0024719735678668275 -0.0014817216731112996 0.3001005312721798 0.19186694331008522
45955000.0 0.917730904408368 -0.3933036005222925 0.03641600363887198 -0.05620900732252495 0.0010251722749475445 0.0017050451968141126 0.30437686550388077 0.19598787058140227
46954000.0 0.9126547640200299 -0.39997281661200906 0.035726803376731585 -0.06664723959625306 0.0008037723880822066 0.0010542149838897313 0.32402902286840446 0.18021899597142085
47953000.0 0.9107357087869908 -0.4081570461773965 0.03859964753233834 -0.07126921955451207 0.0005212112405777736 0.001773278230057364 0.3259162593134612 0.16985077776719396
48952000.0 0.9043792444891725 -0.41822320114287476 0.03818640557330783 -0.07849635259679806 0.0007436022436382785 6.0347885026140654e-05 0.3281621990480132 0.16913403976128566
49951000.0 0.9021465110082963 -0.4228065692672687 0.03840611365236908 -0.0865759804953505 0.0024940006068393046 -0.0010623634890117321 0.3474044059093804 0.1629565085651704
50950000.0 0.8982264077382275 -0.4325683554881003 0.03784445949394157 -0.0935327165012939 0.0002750352847872848 0.0006165237046594211 0.35527304546406013 0.15390413877375703
51949000.0 0.8919144315465665 -0.44211412783122545 0.042295040361403705 -0.10058405948094971 0.0025552117819761353 -0.002760304038136079 0.3555749590258034 0.15254454028839656
52948000.0 0.89227696817478 -0.44874437872114087 0.04322597573581812 -0.11095633568141326 -0.002368962119811074 -0.0002858952547703828 0.37481365824047397 0.14057296885743423
53947000.0 0.8847393098746672 -0.45908835769979783 0.047293016986597256 -0.12044183155974267 -0.0013134865884764598 0.002021379376290475 0.36503452831413186 0.13423710316629775
54946000.0 0.8794388895921946 -0.4674107456582997 0.046687540246796194 -0.1306216211308977 -0.0015119518994621854 0.0004745932351621642 0.3894215042023047 0.12733831400570042
55945000.0 0.8774730694873548 -0.4749746436268358 0.04861147927316355 -0.1385409156854566 -0.0006905806250340797 0.002444524732236624 0.37857496583938255 0.10430006179360761
56944000.0 0.8728164186346221 -0.48314684107301364 0.050630757624201266 -0.1502800654531711 -0.0038009061539004824 0.003672727467120511 0.39700388935807857 0.11578606940236165
57943000.0 0.8685000949154137 -0.4927741285943463 0.051963249124191396 -0.16305836247766387 -0.00022712886377870904 0.004946743644625178 0.40398690134138177 0.10183123132810816
58942000.0 0.8620274333817302 -0.500356412437481 0.05158838187869774 -0.17138575972824477 0.0022825887169894018 0.000648228362614347 0.4218904815800904 0.10479233088580195
59941000.0 0.8589917924472401 -0.5061804735134274 0.05698157874568947 -0.17867460114481518 -0.005512373550190932 -0.00013518067706379925 0.42188132322478666 0.09172295170562875
60940000.0 0.851698344575151 -0.5148173294168983 0.0535693226978857 -0.18637128953596846 -0.0013734249116300315 0.002409947811574773 0.4160514478710452 0.09000825033166117
61939000.0 0.8482574349992519 -0.5208685199342441 0.05745995087527083 -0.193286900843853 -0.0020409503027952877 -0.0019211991450185022 0.410574161599234 0.07540652817824246
62938000.0 0.8426916136778168 -0.5322605057733265 0.05813017601971111 -0.20857756572317981 0.002923505418291189 -0.0017534074926616632 0.44178221217566316 0.06764322096986063
63937000.0 0.8379681493558038 -0.5391316330036751 0.06494732451487166 -0.23079754525419016 0.0020987236400893143 -0.0009704356641376381 0.4343905664639678 0.051836691020195634
64936000.0 0.8324242464487843 -0.5453355168262687 0.059048993725900216 -0.2460541093515786 0.0012206952479930746 -0.002039855807361669 0.43590218245637463 0.04718138301342516
65935000.0 0.8288002574069636 -0.5572309437658238 0.05980261299002416 -0.2596657548428853 0.0001727577796021851 -0.0023654476674371994 0.4390010369051287 0.03659850367790723
66934000.0 0.8246719971547839 -0.5605854843632145 0.05946091054122791 -0.27305356142091997 -0.001632726507560587 -0.0044476012555656344 0.43328775932667285 0.02628354593105018
67933000.0 0.8212624618326035 -0.5709118918867003 0.05962689994124521 -0.2839137725567337 0.003945428069579268 -0.0026910707838843644 0.4379408604644985 0.020859825611244567
68932000.0 0.8140917573881232 -0.562723952625723 0.05698170345726403 -0.2948858597218904 0.0029349576684598033 -0.001362011164729936 0.4518063006171779 0.009508551407565234
69931000.0 0.8055309640318522 -0.5870021233069901 0.05883542156113738 -0.3176804395882964 0.001942891343489317 0.0010340489216755055 0.4438025576637012 -0.01525039794782941
70930000.0 0.8015177854990825 -0.5907282905106601 0.054821870007950704 -0.3299977458157425 0.0004022626755307672 -0.0006843389657325007 0.4463655557335518 -0.018667405472841764
71929000.0 0.7957779851662736 -0.6008779524376859 0.05081450322527693 -0.34937533477904287 0.001567475312912889 0.001721814994535894 0.45393550553431034 -0.01972445072898329
72928000.0 0.7902239750655291 -0.6103382432689549 0.04608450817004094 -0.3637239075765098 0.0009556275216973817 -0.0024434527191641176 0.47253011709197573 -0.036755215021731735
73927000.0 0.7833051689770028 -0.6177198343455624 0.03749310019553909 -0.3869235468571177 0.005388173971359135 0.000776311492918225 0.45703193243841095 -0.045989536699685765
74926000.0 0.7796026291642578 -0.625671706534007 0.031623488112611606 -0.40669900539689596 0.0012993249849252327 -0.003657878252434059 0.4597833989289542 -0.05360551896724928
75925000.0 0.7718219006244473 -0.6301474240687379 0.023323245008944306 -0.4226929665552205 -0.0004638215648521982 0.0006331345167877503 0.4710977413601762 -0.055641409082000874
76924000.0 0.7662498925313292 -0.63726147074943 0.011970140534887872 -0.4477371198781993 -0.0006373515754056093 -9.305757915397277e-05 0.4656811858726962 -0.06438480582279772
77923000.0 0.7605954608060771 -0.645906602001552 -0.0015463658455720265 -0.47453646512136627 0.005379653320581491 0.0033792273588583136 0.46318896502983464 -0.0776450192838577
78922000.0 0.7528708243422649 -0.6570448342451207 -0.013423720065633249 -0.49940090013019556 -0.0022638638279658136 0.005384768430678146 0.4624002494979342 -0.08782438648375657
79921000.0 0.7446631942729486 -0.6589546564462601 -0.03406178813781919 -0.525665422504557 -0.0024988264357958226 0.001683693751478559 0.4581159173013577 -0.10052038561971179
80920000.0 0.7406376783668738 -0.671098329287391 -0.04848113812099854 -0.5523456658940873 0.005186189499191076 -0.00011496418609380557 0.46410001348095986 -0.10952704809759478
81919000.0 0.7318876171561287 -0.678080989245034 -0.06345994195901201 -0.5857028302915727 0.001180590438146501 -0.0010980749126344035 0.46387201283400065 -0.11748119413051923
82918000.0 0.7245874258661799 -0.6826385168283601 -0.07613977594303446 -0.6115342335416264 0.0009110867446040386 0.0002925107060208489 0.4805750523272916 -0.1334420366549497
83917000.0 0.7151305585541504 -0.6918449521728326 -0.09725566448898726 -0.6405658044922515 -0.0006727264649843923 0.002201102935966104 0.48494876865876846 -0.1402812563293624
84916000.0 0.7090759967485976 -0.6988886062599553 -0.11161634775022855 -0.6782116836304872 -0.002281272245906963 0.0014635312065530415 0.46181463506054754 -0.16398442121400814
85915000.0 0.7037658341259388 -0.7038415584931184 -0.13040013560123856 -0.708932329184654 0.000657069459973076 0.004480532039487129 0.4697839966389166 -0.16126808889227398
86914000.0 0.6957273784541842 -0.7144713549347297 -0.1456940427260217 -0.7414568033049183 -0.00539542213586031 0.001614291976554605 0.46374257814656217 -0.16466469162203437
87913000.0 0.6870904264313974 -0.72124692729489 -0.164410342697514 -0.7720967279415747 -0.0023032706657859347 0.0019640611561583354 0.4723783425959502 -0.16864590507718566
88912000.0 0.6825975346537867 -0.7272733226900134 -0.18094358628149335 -0.8029103544154801 -8.372466172379468e-05 -0.0016859724200081793 0.47172015430981473 -0.19303328832593764
89911000.0 0.6722734899012535 -0.7372416814620489 -0.19337440743567055 -0.8482823275436683 -0.001990458605526516 -0.001291512691763204 0.47860700914436033 -0.18614604052434264
90910000.0 0.6676046475403279 -0.7412773889931855 -0.2087322090464617 -0.8777603900191578 0.003198791386939119 -0.0009660512792518353 0.4577405656960649 -0.2018754789474106
91909000.0 0.658038029579777 -0.7464828800848446 -0.23005660963769983 -0.912355407537549 -0.001715803623173586 -0.0009070214122061262 0.47383389342801874 -0.20584530539423282
92908000.0 0.6480961157931002 -0.7558521619046257 -0.24716603624400077 -0.9411572136308733 -0.00359258292050117 -0.002027269733662318 0.45775512312048455 -0.22126745715976853
93907000.0 0.6447839345540883 -0.7599791917039236 -0.26718359321259494 -0.9753904903181119 0.0016584950005948157 0.0012440566055859365 0.46619158876660666 -0.24133974001242947
94906000.0 0.6292223604431949 -0.7695150962120847 -0.2832276763030518 -1.0086332344950635 0.00044835382879277933 0.0003465331889687554 0.46947190717746234 -0.23518885155371672
95905000.0 0.6241864746723202 -0.7750924446258916 -0.3082742570319473 -1.0446560876362139 -0.0033077494494173137 0.0017907313739585447 0.4613740298336613 -0.25969538607385345
96904000.0 0.6164735311616867 -0.7846862437082996 -0.3235423988661148 -1.0890008670042277 0.0012318192140571803 0.0023938003226625965 0.46898108211101514 -0.2620918527386559
97903000.0 0.6080953984295748 -0.7885640046881272 -0.34679665342315646 -1.1187143236405346 0.003928037542348926 -0.0031047364938747066 0.45809987818680636 -0.2697286805110519
98902000.0 0.6022112143123561 -0.7961576278485545 -0.37138732187780127 -1.1528992490015921 0.002405320793437615 -0.002923009554954729 0.4540616054030326 -0.2848625380965716
99901000.0 0.5894773531546196 -0.8001514469885211 -0.3941036550574001 -1.1863516648192465 -0.0015948822216128597 0.00108370274687445 0.46415919802834443 -0.29695060766848774
100900000.0 0.5836455874520574 -0.8042404896302741 -0.4276100600717529 -1.2164672189477332 -0.0022011121719145033 0.0021510478586841855 0.4635286791419809 -0.28593819204312415
101899000.0 0.5719634922327942 -0.8132634030606976 -0.4539408617347922 -1.2539633802274588 0.00019272751089547194 0.00048755784824370917 0.45824456756800125 -0.30420937089349426
102898000.0 0.5643004718114877 -0.8175351248804741 -0.4900215784244382 -1.295222788387937 -0.0037513966982910883 0.002620493313414618 0.44984553729246 -0.3248449796488442
103897000.0 0.5536300472394544 -0.8260984484839804 -0.5364262461345514 -1.3311542043858005 -0.0021946119290683227 0.00034240113928989097 0.46288807650619573 -0.3220877455684931
104896000.0 0.5451911280107653 -0.8359014821893483 -0.5797447451095132 -1.3652394138442918 -0.003325921571530831 -0.0014817266112633221 0.4457060027933426 -0.32694979614457764
105895000.0 0.5367839145029695 -0.8384221553512698 -0.6213214615425441 -1.4092764129820796 -0.0004914406138340392 -0.0016843993572497654 0.43748343695050335 -0.3423357215643365
106894000.0 0.5271754348783291 -0.8454916868579162 -0.6776844792556941 -1.4472411580230637 0.0016637282552276382 -0.00526649248849338 0.43823486801362777 -0.3468311235602686
107893000.0 0.520061917952014 -0.8501427683548645 -0.7292930181405223 -1.4871452596140322 -0.0003119175808436804 -0.0008331671017476782 0.4448555785983209 -0.3641605351708956
108892000.0 0.5088022395377724 -0.8540115002073141 -0.7887032776774086 -1.5243788375679166 -0.00026714102453285923 0.0032226009840997283 0.42956585269370734 -0.3604574261747538
109891000.0 0.4962110277336931 -0.8629829328077537 -0.8429161486469663 -1.560297193117441 -0.002930035779919334 0.0011561856467248235 0.449641290216287 -0.3583816104345097
110890000.0 0.4906384696870855 -0.867678763198175 -0.8980861632710511 -1.578821980889892 -0.0016960615914195774 -0.0021623514977707234 0.4383154648785507 -0.3695515628884553
111889000.0 0.47881120609877964 -0.8686070107685248 -0.9649918070428384 -1.6341094015824638 -0.003932462377218937 -0.0004659728935199426 0.4378526134810601 -0.3836983499935924
