! Created with skrf 1.9.0 (http://scikit-rf.org).
# Hz S RI R 50.0 
!freq ReS11 ImS11 ReS21 ImS21 ReS12 ImS12 ReS22 ImS22
1000000.0 0.9889903211693286 0.012948768546789374 -0.014507857388116583 -0.0437639973769087 -0.017835917843044537 0.017758629807960002 0.3670813495276535 0.3250366542683405
1999000.0 0.9935436400986586 -0.0077448581755528165 -0.0007464456352124211 -0.025447688771300103 0.0027005035529279625 -0.0017394796052622899 0.22989177557853144 -0.05230606219502807
2998000.0 0.9993746773154607 -0.0209003266268475 0.00998049518118617 -0.010329708266447784 -0.004073698402317092 -0.009444234875364927 0.19503085809039986 -0.148546960711158
3997000.0 0.9983036759092865 -0.026673001996329417 0.014199489259524987 -0.00015174563399168573 0.004264283509738396 -0.0015939172202699828 0.10630804428457774 -0.20920777839360624
4996000.0 0.9964109751881154 -0.03661549407503267 0.006951515298598558 -0.00025843248386027775 0.0016903842243768947 -0.002738802892739404 -0.02449255330537877 -0.2159540272230022
5995000.0 0.9960187634953649 -0.048676571060052166 0.010306379686231637 0.0008245952915508871 -0.0012081267367642196 -0.0005678687323805019 -0.12527990161870048 -0.12882763354346277
6994000.0 0.9942749452353462 -0.06009300683348504 0.00971847512391334 0.00419611589797965 0.0026283930340061444 -0.0021604615326332416 -0.15398902931686775 -0.03917193142466729
7993000.0 0.9958902891920005 -0.06651017247544654 0.002857603647755321 0.005039212324196659 0.0012037457533188587 0.007892616709752656 -0.1664159792543969 0.029857935388103017
8992000.0 0.9953379010526174 -0.0709262717625141 0.004211987457407946 0.0010360614111326347 0.0011414647040584663 0.0004619445981475679 -0.17318492554369166 0.04937634762430253
9991000.0 0.995217679155066 -0.08167287542393734 0.0010998237369607231 0.011715738844926417 0.0011215800632763406 -0.0014602922954878041 -0.18157393786151424 0.0884507342157371
10990000.0 0.9947690484615416 -0.09205476572084237 0.001691042340885361 -0.001425055828286372 -0.0001555692026056663 -0.0013991651585058273 -0.15424270025141423 0.11172691545080972
11989000.0 0.9918169015355258 -0.10118607946980186 0.0031949365585190958 0.0008687346385531984 -0.006127016504585432 -0.0007474069985875855 -0.13726032465085436 0.12513839736364718
12988000.0 0.9918135455871419 -0.10701081085041197 0.003588451560342002 -0.0019960646949382806 -0.0002265624779460572 0.0015746128514069551 -0.12148120119194697 0.16706196337276089
13987000.0 0.9889128536513377 -0.11453240867618186 0.0015458355123221916 0.0005569582093555918 -0.0022478292801064647 -0.0027541591879911465 -0.08656968336163731 0.17789565702575724
14986000.0 0.9896767521086361 -0.1232144724807155 0.004948679327222328 -0.002142359861653117 -0.0010762825560299875 0.0013349127095378022 -0.10102966548438551 0.205919875961873
15985000.0 0.9897491275307336 -0.13358610227546652 -0.0022425295911052824 -0.0038468854659603753 0.005628227865877436 0.004190108796613844 -0.07873531892297506 0.22019153037094183
16984000.0 0.9873621742556231 -0.1439955650365959 -0.0032108820417738352 -0.004036599683918915 -0.0003338354759484132 -0.004285186457205719 -0.06974648713150618 0.21653785071154336
17983000.0 0.9861350692762724 -0.14933808962378436 -0.0017900480481199718 -0.0028349518105114024 -0.0006482575621958572 0.0015108339495778099 -0.07672032049055517 0.22843244212641184
18982000.0 0.9840895668773654 -0.1604239566402712 -0.0024457629158948033 -0.0007132424614917085 0.004232783562996029 0.0034868655183173686 -0.03355390801308989 0.2384577206362778
19981000.0 0.984979679946973 -0.1619193500374759 -0.005119399007452579 -0.002497578894548388 -0.0005325726496389857 0.0023826104407941953 -0.026392788094879445 0.23562210619181892
20980000.0 0.9837009367007891 -0.17449795960695458 -0.006058379602013914 -0.0015849877122242114 0.0031528799326198003 0.00046545698255409624 -0.009296702347096555 0.26030389483141886
21979000.0 0.9806863156572622 -0.18293106306908302 -0.004048131506357978 -0.0015095623727530713 0.004495530677511453 -0.0038530444256008023 0.01286807317190472 0.246414556320203
22978000.0 0.9783563575265757 -0.19098423225840175 -0.009994895859606324 -0.0025586773443567238 -0.004630551615157538 0.0017555497160040537 0.018877120945350972 0.24898360123370492
23977000.0 0.9790246814037517 -0.19978666844232232 -0.002383583111204909 -0.0016983196095490174 0.003477695910637066 -0.0006323934577991982 0.03185370947367263 0.2590374287757791
24976000.0 0.9767845277019759 -0.206731930494609 -0.008320898541128196 -0.0032479859527175686 0.0032128742933575814 0.0023772776951551163 0.055212743587900855 0.2560128204084645
25975000.0 0.9681106374258333 -0.21925023654479095 -0.005027486846157621 6.882918466104439e-05 -0.013169081667121949 -0.02285073867831569 0.07406409782824039 0.26321641384596217
26974000.0 0.9698966284571169 -0.22630702217456125 -0.006224318934953099 -0.0010538670534015783 -0.0011980749509773497 0.001061378736521804 0.08143745328024997 0.2732432857623168
27973000.0 0.9715035763121322 -0.23140193454838875 -0.0036914031728036297 -0.000550325813899637 -0.0010717894840086102 0.002853754919832563 0.10559517563851233 0.26114617992012007
28972000.0 0.966902131341401 -0.2420875212179594 0.0009765789313445283 -1.652510780809424e-05 0.0018028984971416929 0.004025726314033808 0.11203622513464528 0.2545998812167419
29971000.0 0.9663129851922979 -0.2523539500359563 0.0006352899996714459 -0.002729158140180494 -0.0021606009468153357 -0.0015587415894306132 0.14285684497605142 0.2683945251369491
30970000.0 0.9647441397997738 -0.25570648161905196 0.002850358368983119 -0.00010017101363115148 -1.8221253513416877e-05 -0.0027156819808972494 0.16045288316060177 0.252463435955487
31969000.0 0.9628586175016467 -0.26295311381084213 0.004156861587924302 -0.004708334075130974 -0.000664405573981834 0.0011896656309177253 0.14588024371709124 0.2500993491175898
32968000.0 0.9585716521913734 -0.2747037608990833 0.006530941331156863 -0.009836298613370122 -0.002175663311598218 0.001118888464756642 0.15306718213805331 0.24901486111538806
33967000.0 0.956580203060843 -0.28438416219803136 0.011478523945904618 -0.011093372648265916 -0.0002584792868072209 -0.00038235569672313044 0.17625788982714166 0.24610609044613907
34966000.0 0.9545460513067027 -0.2924622183646661 0.012608718048600786 -0.012088968398539587 0.0017560708178353404 0.0035211187749985256 0.19769487112808393 0.25488883612204416
35965000.0 0.9510641069038016 -0.29902504812184927 0.017946348759931164 -0.013640438742464163 -0.001458164171338078 -0.0003533986474322403 0.2045550678602091 0.24894161344119478
36964000.0 0.9502310302057102 -0.30767897224086405 0.01842873205586578 -0.014634651056759264 0.00044698816998284594 0.001205271856168303 0.21167900000306156 0.24828512476929396
37963000.0 0.9463978794434253 -0.3171095002897072 0.023893671074328257 -0.024395970007396902 -0.0017431097171616379 0.0012034060882913445 0.22468886209245514 0.23662285052927085
38962000.0 0.9453339816426817 -0.32443820748116886 0.022647219449098935 -0.025279942450574428 -0.0012526966314570702 -0.0022327801784403473 0.2412681624688742 0.22981911382409623
39961000.0 0.9409122262407434 -0.33414514019462843 0.026293371132306967 -0.026432785357180327 0.0013581739783884157 0.0031200104498107987 0.24781977802017155 0.2292656601238679
40960000.0 0.9370171130441997 -0.3400817454132366 0.022359249822449773 -0.02361761107388467 -0.0016478406212514839 -0.002995184780452372 0.26036596519879524 0.22697915014181314
41959000.0 0.9350978095062366 -0.3514434182690553 0.031033130248510704 -0.033640240166190404 -0.0017387048249527608 0.0028944306754500083 0.26990160737898633 0.2193997581111691
42958000.0 0.9283849204233735 -0.360940578459234 0.029648750237378337 -0.040882867018123346 -0.0011189269923589803 0.0027210379885386545 0.2776018250921173 0.20248674679969922
43957000.0 0.9303384062045665 -0.36421501199943274 0.03411103210615854 -0.0435349059300996 0.002171600340510446 -0.0005512333222365244 0.27788935293049216 0.20968913683801643
44956000.0 0.9254600943587777 -0.37314952350826097 0.03123816898775041 -0.04937285489631675 0.0006772451096612372 0.002758804362850135 0.2989390493816462 0.19597176349361575
45955000.0 0.9217298295985683 -0.38291689331785067 0.03512839083417241 -0.0571529655181744 -0.0030834693388435033 -0.0006144971913751992 0.30807309037095676 0.1893928874305693
46954000.0 0.9172987365311404 -0.39285174473759615 0.03348529361779465 -0.0650158653094003 -0.005133173877060813 -0.0002279575286998719 0.33123188334049886 0.18061053733574386
47953000.0 0.9158339450793201 -0.3989096656367815 0.03326800683930776 -0.07130031179903615 -0.0021880556242633363 0.001116456339329748 0.33052974397936175 0.1755209694849524
48952000.0 0.9106584191078753 -0.4089380741969931 0.03679707332794096 -0.07740339812048394 -0.0017785045446875433 0.0014161330873282195 0.32817739146011593 0.17022006621850966
49951000.0 0.9059361037866618 -0.4178730430990288 0.035698880158537526 -0.08640681925679462 0.0006083672196729054 0.0015230386310804659 0.3586948950331447 0.14791883465996244
50950000.0 0.9026769720239232 -0.42359046258116045 0.0331504075904839 -0.09576823035216213 -0.003092375181517911 0.0025244132076052976 0.3455494232459902 0.14718466448092848
51949000.0 0.8976421357250659 -0.43285227009563243 0.03555200147634293 -0.10062641355064839 0.0013792364277780034 0.003194362471149787 0.35338475073880093 0.14039824905701473
52948000.0 0.8955769163613143 -0.4408413995506314 0.037587306743861175 -0.1134435429761557 0.0009995544200395734 0.0025646091293566264 0.37555447116150237 0.13871466642934438
53947000.0 0.8920377091426845 -0.4471229607518174 0.03888242195069316 -0.11989428504648691 0.004287313864510632 -0.0009318347203098343 0.3739130607972395 0.12346629797333325
54946000.0 0.8851815419165826 -0.4595264082718003 0.04251768913080683 -0.13111357710449392 0.0024496477306105136 0.003618529940571829 0.3873852701588513 0.11621628096748647
55945000.0 0.8837172379758342 -0.46554356951241727 0.04224659972006547 -0.13966122823454818 -0.0013810652198866565 -0.0016275683536243325 0.3896696041787769 0.09424358814479283
56944000.0 0.880258585991541 -0.4734620892755541 0.043745570799484886 -0.148778154568059 -0.00018099486437320167 0.004176482404858515 0.39995809164926954 0.09953711752288451
57943000.0 0.8757026709483806 -0.4829456054700903 0.04305414385106727 -0.16074430631130174 0.002152691356030614 0.0012807002735500121 0.4078587275428835 0.0970731232985729
58942000.0 0.8685398711104785 -0.48910478306125116 0.04433095714548178 -0.16871043630909577 0.00024419689347095945 0.0008370789556834726 0.4200585682622267 0.09124038365794075
59941000.0 0.8658424056225782 -0.495421198492461 0.048190016473660884 -0.18031990913007442 0.000998794048300032 0.002737245616962503 0.4088032261216753 0.0859984816072959
60940000.0 0.8577992534117947 -0.5039216630699334 0.050496942313581254 -0.1855750951792531 -0.0001378281077076593 -0.0022892760348517884 0.4147011734817759 0.07405613766189856
61939000.0 0.8560818514297879 -0.5102731189250975 0.04843881041918073 -0.19225784903317905 -0.0003878805681689604 -0.001031478874103064 0.40842115831443365 0.06067762695414468
62938000.0 0.8494136093694986 -0.5201310066780106 0.05110972162750213 -0.20918226641579643 0.0006996961317702077 -0.0008040844416445377 0.435126457287411 0.05631807575900364
63937000.0 0.8456811550679261 -0.5285144258390478 0.05001574504364867 -0.22797057019731456 0.001696383485462546 0.0005137945610601037 0.4322844898693634 0.0396730278687454
64936000.0 0.8406237568180295 -0.5324078136862217 0.0517062422921307 -0.24326762227003715 -0.0006383574934205671 0.0006181061234543878 0.43618552476850597 0.03570211623395818
65935000.0 0.8378755300101622 -0.5443435668290659 0.05185854244578131 -0.25646030729561076 -0.0029078410468049475 -0.00017537186148957435 0.44112518225111824 0.018319337082838477
66934000.0 0.8311059515493638 -0.5501168602326477 0.05075917882806574 -0.26838144677922593 0.004050934799302916 -0.001742786547313425 0.43754761878919246 -0.002776361503392835
67933000.0 0.8300947926674127 -0.5561498130292278 0.05374348549850216 -0.28127851484868566 0.0001454786576218412 -0.00010040241326555403 0.4466041923110529 0.014324855094626542
68932000.0 0.8149800408134967 -0.564464720558895 0.047693259554460216 -0.294488175053534 0.002361302046434231 -0.0009757863587924928 0.4534478080763094 -0.014996876604162511
69931000.0 0.813468728948446 -0.5747616662661138 0.045889679377290764 -0.3116760977919376 0.0004975075672621276 0.0018828016854817503 0.44531668221593035 -0.024402674564196696
70930000.0 0.8112854591582106 -0.5800170692621481 0.04792038037417254 -0.3234300905114344 0.0004715095485578732 0.0018535522845681345 0.4551289274304806 -0.033083044813624715
71929000.0 0.8053547622791929 -0.5879217915575375 0.0410976232203559 -0.3416382536295923 0.0005634488175769094 0.004242495713547885 0.4485085791868407 -0.04277090920814555
72928000.0 0.800348885075599 -0.5986538875671364 0.04082276609036474 -0.3567664372823506 -0.000154785562183581 -0.0008845985931056599 0.4528253662558885 -0.05522345362280832
73927000.0 0.7939242170589246 -0.6055077512446672 0.03341415543677824 -0.37605143620840864 -0.0001642588238647047 -0.0010444815232217293 0.45567543680349537 -0.05151619595033892
74926000.0 0.7894729500652232 -0.6145843208643655 0.027926743614912108 -0.39459986562338484 -0.001280845465836727 0.0017569161835572858 0.45508152580246863 -0.07118110534613178
75925000.0 0.7822158565093242 -0.6187992178294865 0.019409658524671664 -0.41190721543263176 0.0013844989281431971 -0.0010291450043460049 0.47462222514889413 -0.07937468899285458
76924000.0 0.7745104471495847 -0.6266576052272487 0.005820074500623639 -0.4331976837369484 -0.0019760867922025264 -0.005277023894865621 0.46890970888521694 -0.08358818034376096
77923000.0 0.7712697568916442 -0.6342424997178162 -0.012487886086342855 -0.459742260943819 0.003443391590418178 -0.0026721262458269768 0.4610091629652723 -0.0940113858213941
78922000.0 0.7632783441471372 -0.6444896510550068 -0.02528943741913026 -0.48437388414454585 -0.003965345011928483 -0.0016206251535669492 0.4573298198852154 -0.09982771739229773
79921000.0 0.7563911071998832 -0.6455646134593616 -0.0431143435330674 -0.5117610694423255 -0.0029563477903563713 0.00015156136879495593 0.4595004376143047 -0.11451286268914262
80920000.0 0.7517952729879956 -0.6591807973560101 -0.05855890612771557 -0.537789783127539 -0.00048526323485889366 -0.0015302177276006453 0.4703244292344233 -0.12540304196595048
81919000.0 0.746173666142887 -0.664049155876945 -0.07183214025471471 -0.5642935724597854 0.0023915138082365507 0.002020059311781194 0.4735478245337004 -0.12985739575549643
82918000.0 0.7376125710733218 -0.6723262742297105 -0.08734664391933611 -0.5967944773446121 -0.00019409463318478525 -0.00196902340339186 0.47240504876076017 -0.14009276339391638
83917000.0 0.7292241669013231 -0.6794521699487545 -0.11173994296318884 -0.6195765503846828 -0.0010633192431780526 -0.004715985885007211 0.4719628897509284 -0.15246084532742488
84916000.0 0.7245766758392014 -0.6868067563898981 -0.12543857140056078 -0.6557968039270902 0.0037444175826991484 0.0015660282920092674 0.458612682300126 -0.17348215388184376
85915000.0 0.7179967585262031 -0.6931684175226573 -0.15140108136677105 -0.6831817453101131 0.0004827334891442067 0.0023677533246988926 0.46373379900352324 -0.18012459768104944
86914000.0 0.7102807954702399 -0.7022401148376266 -0.16126295683171699 -0.7218569866025345 -0.0007203078873390469 -0.0015081157282722567 0.4597851279287382 -0.1819593998548958
87913000.0 0.7031642615170844 -0.7087585611519153 -0.18303870302017416 -0.7515862636036482 -0.0036440434647216284 -0.00025193447711022306 0.45184233063626456 -0.18738165009196764
88912000.0 0.6981918292336609 -0.715281135842652 -0.1946585175768591 -0.7833904368574968 0.0015958765574724068 -0.0006562844991389174 0.4603229671667504 -0.21006301573765623
89911000.0 0.6893746395495091 -0.7248549008532564 -0.2143405730374942 -0.8212158131392494 0.0019368988881571997 0.00027283323076818125 0.4659963363357931 -0.20677209977803673
90910000.0 0.6829137824041216 -0.7298392518113123 -0.22938934297809063 -0.853129912707367 0.0015878560628954615 0.00037329580926541813 0.4596984267559201 -0.2223078542902432
91909000.0 0.6746332795019505 -0.7345664275301744 -0.24847368764216968 -0.8843589489033858 0.004027390547023133 -0.0008607702175660525 0.467649600913217 -0.23075573235720248
92908000.0 0.6655681103676497 -0.7422060724297774 -0.2689728834067064 -0.9199109664537554 0.0023379709163519496 0.0015982781468794546 0.4589221015749883 -0.241578863595299
93907000.0 0.6613829389132718 -0.7476845607436625 -0.2827327891541158 -0.947526033277785 -0.0018446094808566994 -0.009932983744350615 0.45882417975245143 -0.2538528684819026
94906000.0 0.6457667707355886 -0.7580412231869251 -0.30236781932144413 -0.9816908948914594 0.006021780797857433 0.00021932976108931707 0.45185464783223467 -0.25173924314140445
95905000.0 0.6422857503629309 -0.7636314937878917 -0.32216297907702635 -1.0156089089827913 0.0009855735721701828 -1.6142962289050265e-05 0.4647663558702453 -0.2754120396353298
96904000.0 0.6342397356071265 -0.7715747303547481 -0.33962109731566853 -1.053409190365786 -0.0003269730388923117 -0.0005092337297622053 0.4509840367413356 -0.2803535047569222
97903000.0 0.6250075470140593 -0.7758494475892012 -0.3598674500389008 -1.0848239277995757 0.0009016591163658069 -0.002088132482908695 0.437316910351935 -0.2791641410106922
98902000.0 0.6203227920933204 -0.7836977976462274 -0.3779093742618397 -1.1242122060652182 0.00253835768310782 0.0014245877914005512 0.4428284614897797 -0.2942931381609069
99901000.0 0.6105587862160068 -0.7901718769681927 -0.40494211787492973 -1.1519492364540054 0.0005619778354594725 -0.003194486530956311 0.4563407203912676 -0.321316709384649
100900000.0 0.5984297630868157 -0.7944430985142094 -0.43787811414303823 -1.176905715872999 0.0026270422738356104 0.0013036826397097665 0.45397255891198574 -0.3102569294067477
101899000.0 0.5938409426084186 -0.8007075062093179 -0.4604669673433296 -1.2199836402532769 -0.0011622401811638404 -0.0009749986591115105 0.45589251997575825 -0.3203368683373065
102898000.0 0.5819491909924717 -0.8079286776301531 -0.4989656207857609 -1.251405765658318 0.0011941898994292921 -0.0002080708826747696 0.44882992089920365 -0.34051018782646514
103897000.0 0.574225971879685 -0.8158999516679917 -0.5293576152727005 -1.2858728851160988 0.0005372007897677579 -0.00174270144556143 0.4504735583441348 -0.33946891516422145
104896000.0 0.5686053244559988 -0.8235962986155829 -0.5772843656534549 -1.3153096538747402 0.0009549522793171801 0.0034296474032073504 0.43178996914812073 -0.3456351071333249
105895000.0 0.5567169089050499 -0.8267023167339054 -0.6178373356389901 -1.356874864434637 0.0025761851175559827 0.0015670177756755242 0.43089643643937064 -0.37416908765136037
106894000.0 0.5480877536340192 -0.8323023796249862 -0.6652772249422668 -1.3928497599074052 0.0010311584407132824 0.0029763904029118477 0.4099676486393186 -0.3673806880255796
107893000.0 0.5421954047361364 -0.8376491549330287 -0.7175286141782915 -1.428855699741713 -0.0012596789112512214 0.0009168949144525439 0.4163763589734712 -0.37734589255084655
108892000.0 0.5297825499983702 -0.8430399871223336 -0.7718064714612509 -1.4674612517523362 0.0010315490553034674 0.0029284705198964396 0.4158422325912088 -0.37936743363862824
109891000.0 0.5205349251610437 -0.8491454241957538 -0.8308775170632577 -1.4984335592153548 -0.0024827680280608117 0.0017443225785785804 0.4241753391005691 -0.3765417820573399
110890000.0 0.5010715689373454 -0.8640727849155228 -0.9147056104265698 -1.5062418395643364 -0.0007723652111187261 0.0007948635456275031 0.41821151289297004 -0.3888007864405281
111889000.0 0.49896140491589136 -0.8570317210613385 -0.9579866047938026 -1.564480933100702 -0.0019953220429147307 0.0012308817234643569 0.41317633753366373 -0.4079885846641643
