! Created with skrf 1.9.0 (http://scikit-rf.org).
# Hz S RI R 50.0 
!freq ReS11 ImS11 ReS21 ImS21 ReS12 ImS12 ReS22 ImS22
1000000.0 0.9789832253506695 0.00266786580631771 0.003980521211577358 -0.040688869956878655 -0.0026520014833409994 -0.00027975906327791977 0.34805185191606963 0.28676096322162525
1999000.0 0.9951915854289289 -0.01311788072460231 0.005293835068127356 -0.016274228438173804 -0.0020085280340399417 0.0003639187282507536 0.2577281998934009 -0.055513837756609626
2998000.0 0.9972692658460451 -0.024908600532754947 0.0128259779260284 -0.012267754055695452 0.0018760001866291968 -0.0011215582550484033 0.2066698399548702 -0.14691393469316766
3997000.0 0.9982210347271818 -0.028326072961929103 0.01581145640088298 -0.010138859980440436 0.003966018859599738 -0.0043398787010813095 0.11170624166598352 -0.23425200076170294
4996000.0 0.9914043496451749 -0.04164485275502768 0.014466296444588628 -0.0035774336820383404 -0.001312700164047739 0.00336915758009462 -0.04461634255738425 -0.2120455339845717
5995000.0 0.9963532415679658 -0.04854112365095056 0.010658239104950194 0.005742889820796709 0.0013875086068882696 0.0020799410725333 -0.12547298151450031 -0.11857033324934975
6994000.0 0.995992494971685 -0.05996151045936123 0.003949725882748822 0.004143075484038885 0.0012460329959658163 -0.0008522111988612047 -0.1470351419520427 -0.03384164048022277
7993000.0 0.9955092009653919 -0.0680377158533179 0.00135443023757216 0.0056040674449590825 -2.0776174000111478e-05 0.0007796185363403869 -0.1689128891351778 0.022571850306236308
8992000.0 0.9921264726273685 -0.07597794895932274 0.002358106429213765 0.0070062741550271 -0.0028944444272581147 -0.001540685346238629 -0.16297152166516257 0.06249882338173611
9991000.0 0.9909840695449673 -0.0839962794869829 0.0033055302728550676 0.003996336578485188 0.002219970558149194 -0.0011939683866211688 -0.15833505759976976 0.08463817323458481
10990000.0 0.9916623741615269 -0.09469312728135904 0.00184931247683791 -0.0002612084352019188 -0.0008049726136961687 -0.0024657320722941815 -0.1346038455330105 0.10061790813133345
11989000.0 0.9890783958992456 -0.10260668665040981 0.0032481075573527083 -0.0029292988949351385 0.00198736529376832 0.0026538845111882996 -0.12412804354887438 0.13885410460886183
12988000.0 0.9878889628545225 -0.11125685222589958 0.001732210165286958 -0.0038748146808559153 -0.0032134876330735325 0.00445754623314032 -0.11646697803192622 0.17057278992005384
13987000.0 0.9856713611651595 -0.11990615582121619 -0.0016856879461345524 -0.006505433344309714 -0.0025121317897359215 0.0016407387132319994 -0.10453876188758027 0.18886598082505962
14986000.0 0.9866762125483299 -0.12563519344627394 -0.0018415930415045796 -0.0031891506860733175 0.0026381450873246013 0.0052746319260992105 -0.08991868139141983 0.19403568591689088
15985000.0 0.9872811146094889 -0.135440008599547 0.0005441825669573622 -0.002763305275871759 -0.0031056692256005787 0.0025898866224523228 -0.0758689944245356 0.20811045544618795
16984000.0 0.9856047938180894 -0.1447001083164811 -0.0029484263122852 -0.003992595603304234 0.001018592193405697 0.004092866221675584 -0.06210134789343666 0.22425370648555254
17983000.0 0.9842471530219746 -0.15232630154092788 -0.0017492364775695125 -0.005526178246305506 -0.0003188573562759424 0.0036293054458219295 -0.05764503899332519 0.22532106302078822
18982000.0 0.981497713623947 -0.16294819107914169 -0.002014175934618224 -0.004648371296971102 0.003318049961362184 -0.0026241150821761624 -0.026606775377304256 0.240758780699919
19981000.0 0.9806143148959636 -0.1689169387542878 -0.004648965851074918 -0.002176977210156154 -0.001707446522081361 0.0033552962138583627 -0.018244060299272846 0.23900530460179434
20980000.0 0.9807648055259477 -0.17958468283138762 -0.007180948775985086 -0.0028250420533999653 -0.0026372022303126482 -0.002620006842058622 -0.005365202708174661 0.25708263761115085
21979000.0 0.9782196123522241 -0.1856950246707336 -0.005377240872936526 -0.006222759221006452 0.00010806567254467204 0.0031982709755532706 0.019775823472408444 0.2574432002131502
22978000.0 0.9762944422460287 -0.19479003644826323 -0.0075946066916699586 -0.001522012636787847 -0.0013626180316705474 0.0009230300223000782 0.02302599713350423 0.25900017215866455
23977000.0 0.9768319168556148 -0.2029645623678802 -0.005333166923347621 -0.0038533361371947384 -0.0014369298564374667 -0.001671074884701042 0.03842976736326048 0.2424554636984196
24976000.0 0.9740612545894902 -0.21268734799359412 -0.006782610311168772 -0.0023815305265368868 0.0034962189509089637 0.0006530837236266286 0.06625342569008387 0.24931862545012265
25975000.0 0.9732571574808704 -0.22057963689619273 -0.0037717092138243244 -0.001273037616904032 -0.010924236029183288 0.025472376850201747 0.07772854651868782 0.272976212649275
26974000.0 0.969900550176029 -0.22946449914798628 -0.0036092545756364752 0.00039334682971541566 0.0035302928635182703 0.0015440388959776796 0.08307742713826902 0.26497516790394837
27973000.0 0.9696347252097812 -0.2351568033618253 -0.0027902114597021413 -0.0035006478514907563 -0.003184271993386487 -0.0003926229731160013 0.10341276781948978 0.2564364984395012
28972000.0 0.9648219822091618 -0.2489439358771042 -0.00462661505282041 0.0013540777689688267 -0.0013879039955032896 0.002144496933027885 0.10987836756371243 0.257479308422121
29971000.0 0.9630152730542691 -0.25480163728714833 -0.0009337638237444446 -0.004798054209934081 -0.0012178058521808484 -0.0021654582866899278 0.14874957113251167 0.26442448852724254
30970000.0 0.9605543471309201 -0.2616839518673086 0.0008418926858335488 -0.003722577917809777 0.000791603804734793 0.0035292665489643025 0.16860704838477614 0.25084236245095
31969000.0 0.9596605771942824 -0.2701050248776144 0.0022280546890723696 -0.003989050098031188 -0.00039914125467315306 0.0018163422567365824 0.14712506919344565 0.2464314207316588
32968000.0 0.9574672290757078 -0.27897166143908986 0.010025261281989325 -0.007812968441357341 -0.0004038865167489863 -0.00037899899193714323 0.1677945171207625 0.24868606605358926
33967000.0 0.9548187215584293 -0.2885966788227592 0.01273081867894202 -0.009108817937734895 -0.0007562919745831973 0.0014088948954702222 0.18820865915440868 0.24003906794582336
34966000.0 0.9507107142089212 -0.30030489547851735 0.012965287275351968 -0.01181263419850104 -0.003628428453728549 0.0020784371916353524 0.19335426643117593 0.24883132826648222
35965000.0 0.9466657790097557 -0.30766017749109575 0.017124554160089428 -0.014683007269226691 -0.00018910312560451372 -0.002113083994317926 0.21453038230443822 0.24748738910561
36964000.0 0.9469737746309943 -0.31573740378062104 0.016237498610030328 -0.012440658292038378 0.001999733433441001 -0.004501056417240098 0.20628919065981433 0.2490659369261858
37963000.0 0.9427005876738869 -0.32569554127176537 0.022828514695257898 -0.021942043480687807 0.0014175408573587679 -0.0006224603554987014 0.22578710078367276 0.23512555321084014
38962000.0 0.9401465028954938 -0.3344713878426272 0.024795239324345464 -0.026740548199100787 0.0056071273613944065 0.00035299298997458185 0.24231060748419722 0.2242058414150695
39961000.0 0.9375862123423774 -0.3410623860959671 0.02795757879088642 -0.027683076141776182 0.0005011404776832914 0.0009528827152747405 0.2485984432367607 0.22126599241017378
40960000.0 0.933599340596321 -0.3496953995452537 0.024316283327241353 -0.025227478982437462 -0.0022918811312055464 -0.0030384541439560982 0.2642509314476937 0.22983034891203177
41959000.0 0.9315149793823163 -0.3593678658135183 0.027957015529873938 -0.03378112950675846 -0.0015058960063039327 0.00014098331788855612 0.26698661193211615 0.21437012195035388
42958000.0 0.9247559312533012 -0.36884601676694223 0.0333012887883799 -0.0424183088046061 -0.0019892916314196134 0.0007062514084374575 0.27691906804054656 0.2030780984758207
43957000.0 0.9232466965425645 -0.37446545458325237 0.032619620347989854 -0.04661228021447788 -0.0007973730034017557 -0.0006550939268578695 0.2872591798579046 0.21219968960713398
44956000.0 0.9201033243816363 -0.3830264567714106 0.033805126100962334 -0.05468373913832188 -0.0006114768176535313 -0.0016563877689723834 0.30306711861450913 0.19746011803829916
45955000.0 0.9159420867808953 -0.3932083508732474 0.03485928894770346 -0.0592430610762182 -3.137877385072601e-05 0.0021588666587897608 0.30864080935827337 0.18673652306838626
46954000.0 0.9101348067213939 -0.4025999291358745 0.038085239325984455 -0.06941002328001689 -0.002229360793930785 -0.0029308446216209246 0.3338025035810589 0.16832702394154408
47953000.0 0.9097449909725013 -0.4089402346681526 0.03564713462795217 -0.07394724803633096 -0.0008164377430486177 0.001243467830751837 0.329225437540887 0.17127630134087884
48952000.0 0.902849549179953 -0.4202817254349227 0.037915047772209914 -0.08051511982057183 -0.0013998778358661418 -0.0016627751496671843 0.32649789806230944 0.15967054932545885
49951000.0 0.8993444408852429 -0.4255238938753143 0.03798030140152512 -0.08837796096889376 -0.003667927678881246 0.0013695953630532024 0.3453500304599031 0.15007444931547803
50950000.0 0.8970769489094959 -0.4345683140879346 0.040355074397779946 -0.09869544659830891 0.0013158668212429451 -0.0028936960174925056 0.35017579613290367 0.14609698889329323
51949000.0 0.8924945170201273 -0.443705200061944 0.038355306578562114 -0.10566419243298324 0.002994786219054788 0.0014334950014421152 0.3547869436971403 0.13894256657713716
52948000.0 0.8916849178349439 -0.45118389473771053 0.042744543604913005 -0.11524938208965674 0.0036248080754179824 0.000953664583794838 0.3711342523914489 0.13247260185351645
53947000.0 0.884612804698129 -0.46066438607527493 0.04310600106171427 -0.12516123657889247 0.0024629741898698236 -0.0037137329982155536 0.366666943629183 0.12493574642444626
54946000.0 0.8794102335892432 -0.46972077073034874 0.04761925675800906 -0.13603976978451857 -0.00047893842303799004 0.00012395100104026297 0.3804678927580657 0.12179388995034604
55945000.0 0.8763370690025581 -0.47692445205294887 0.045303265184709895 -0.1474108229203129 -0.001451326530240074 0.0013181584041082872 0.3842394639151359 0.10296480679556948
56944000.0 0.8730739998737423 -0.48576966033961466 0.04735293522986238 -0.15819740016323422 0.000669035788404649 0.0024435812668325086 0.3938488484206793 0.09297248921328709
57943000.0 0.8649047901705891 -0.4968426724114681 0.04923757719548982 -0.16636730105930728 -0.001458736095291342 -0.001314718583117379 0.39356181771121956 0.08928702568151084
58942000.0 0.8626914436057539 -0.4981441903820824 0.048873095426565476 -0.17816525845033823 -0.0038606241179583865 0.004671857066813799 0.4193637260774832 0.09105079310285917
59941000.0 0.8577591354444749 -0.508659453487839 0.05277540391759455 -0.1877292999650687 0.00037132973115341325 0.0022105016083725283 0.4142678617087712 0.07587311520224006
60940000.0 0.8497084972408078 -0.515913783969539 0.05355976618479035 -0.1914823874916975 0.0028055332786590397 0.0010630681277381325 0.4056723202745501 0.069553652652272
61939000.0 0.8478223628534796 -0.5236245243297365 0.05093265768921483 -0.20211751757844562 -0.00016038079854079784 0.0005592580112375826 0.4153854173338504 0.06747833942253538
62938000.0 0.8406692854160731 -0.5340854478002832 0.054514498691059246 -0.21984507583922025 0.0008614347704053941 0.00030130995291494415 0.44086876287631277 0.04792943109405246
63937000.0 0.8356028376519309 -0.5419873834380656 0.05579881195663642 -0.23774414319647905 -0.00025179640351153054 0.0010050277807417357 0.4283370159222189 0.034359479676294324
64936000.0 0.8298485285256382 -0.5463484093084129 0.05533371888167813 -0.251443916576507 0.0025896948840249227 0.0024441087930276635 0.43177639955542757 0.02845213371126803
65935000.0 0.8275505842775827 -0.5583016290929407 0.05478885811972362 -0.2675392469106109 -0.0015748750871036167 -0.0004695673303684736 0.4333504094874619 0.014658327730647559
66934000.0 0.8226789606954611 -0.5642177951527547 0.05674115038753085 -0.27985871997868783 -0.001859147001367454 -0.0007270999712662654 0.42877844940010573 0.0039720888964107125
67933000.0 0.8198480135597633 -0.5714485641176378 0.05480154957568724 -0.2960653698546041 -0.0015615909648013686 0.0038434691706778043 0.43957186252368224 0.0017164760269153326
68932000.0 0.8118390059951371 -0.5668330016837654 0.05513082308041583 -0.3057345196815628 -0.00011244982033163672 0.00395416025435343 0.4533012658025135 -0.006962870313240602
69931000.0 0.8051934141728652 -0.5880059022132728 0.052993527055080425 -0.3261577539501743 -0.003043871404572889 0.004188210490952367 0.45002736231737833 -0.018300229002750305
70930000.0 0.7978174184091945 -0.5950562466564724 0.0501484079575638 -0.34158397377412447 -0.0005524598443375512 0.000826289458610921 0.4524192613284239 -0.04049910977210831
71929000.0 0.7945955054872911 -0.6047644334692611 0.04381908228430278 -0.36167937966471286 0.0011039240284801597 0.005137722329227625 0.4521712924933258 -0.04482829309615929
72928000.0 0.7878983384960134 -0.6109121374634993 0.0347609795904989 -0.37313994176512627 -0.004954945786679943 0.006731454051247969 0.46251899855769796 -0.04253489102412501
73927000.0 0.780408863786508 -0.6191354706842854 0.02533380400193008 -0.3971278550697544 -0.0007238571952960126 -0.0006140209475955932 0.4558947220792945 -0.06287157319085347
74926000.0 0.7748398075003304 -0.6279777938692187 0.020732169458016605 -0.4169677754841543 -7.874329730221096e-06 -0.0037540549546717216 0.4595220913584336 -0.06124622692159412
75925000.0 0.7717866898887629 -0.6336177235088573 0.012653448485374969 -0.43798087490481585 0.0006938567524689064 -8.003631912015176e-05 0.47145351573843286 -0.07311197294473228
76924000.0 0.7643073479233107 -0.6397626313691939 -0.0010645612614282839 -0.4596445948431578 0.0012296755704514096 -0.003651996416924721 0.464683866676011 -0.09492844073843806
77923000.0 0.7566673949058283 -0.6470025574218602 -0.014694437747066321 -0.48640393390258224 -0.002632392381587333 0.0013887570921730587 0.4641072226547533 -0.09664607096354846
78922000.0 0.751522081303663 -0.6587096177793446 -0.030970926475362336 -0.5125888506329979 0.0008518157799914725 -0.0015289722886653373 0.4599705620094649 -0.10728697250690303
79921000.0 0.7399178769414507 -0.661152953383297 -0.047547328674868855 -0.5390414309474216 -0.002357852671946472 -0.0002815006456491545 0.4606204277758261 -0.11063693786260949
80920000.0 0.7374028704542023 -0.671513477174437 -0.06197692193449733 -0.5670631363203971 -0.0031582162136113753 0.000830432843631697 0.45994941569050923 -0.13152284012656945
81919000.0 0.7321545209132058 -0.6792189296584381 -0.08394718840539629 -0.597671834470915 0.0010473994751858818 -0.003240209005431029 0.4621119147583846 -0.1478200818946449
82918000.0 0.7216714242832181 -0.6857016787189829 -0.09504074959745025 -0.6289339553760431 0.0015007098849758303 -0.004185195691163776 0.4729116288645601 -0.1538006545066325
83917000.0 0.7135385240310689 -0.6942258574790799 -0.11758964268983799 -0.6574218824324881 -0.002408873998945677 -0.0010478124826821178 0.4701227944837659 -0.15140685108929128
84916000.0 0.7091452661306618 -0.6995953783255524 -0.13339991278218202 -0.6966268163885928 -0.0034568885486161763 0.00036256660338529207 0.4631126953807337 -0.1661606021359809
85915000.0 0.701357209488103 -0.7055739237415605 -0.1541849281698828 -0.7205640352704595 -0.0005291346441857554 -0.0007724340557506601 0.4614828544963071 -0.1758750868086219
86914000.0 0.6944440951891685 -0.7173744801579557 -0.16725293222731397 -0.7598673146631362 -0.000985420215457381 0.00025453122144233935 0.46610334312434093 -0.1881675293809028
87913000.0 0.6860737485063756 -0.7237163373452409 -0.18704259650444574 -0.7912595200298541 0.0017405667021539843 0.001980121409977884 0.45664078381638024 -0.18523009178198313
88912000.0 0.6808467588767135 -0.7290281403951937 -0.20366987865155955 -0.827774170214956 0.002457130617002506 -0.0018588800362016064 0.4585364946880063 -0.20960862207751857
89911000.0 0.6715367533928569 -0.7382863820493925 -0.22203244443985662 -0.8643769459009547 -0.003154905772765853 -0.005360315523126292 0.47536360840178005 -0.2191761245784747
90910000.0 0.6652953598828536 -0.7421473841167563 -0.23599182612178934 -0.8977915359401109 -0.006187730681239757 0.0004640195135381445 0.4550968462116295 -0.20614217184561837
91909000.0 0.6577367068603449 -0.7481371864708427 -0.2576868903703248 -0.928443070035138 0.00012428831902586902 0.0028248534184714303 0.46053194508840056 -0.2285243430142495
92908000.0 0.6466512481825848 -0.7566491955225387 -0.27973300872564527 -0.9621550452184399 -4.258463234774662e-05 2.8250913868709665e-05 0.454410190580715 -0.2433031327406168
93907000.0 0.6404095151300182 -0.7620421235259472 -0.29828403232161127 -0.9948054293915771 -0.0031362573833316277 0.0031660271097383 0.46795901614411206 -0.2510550856812796
94906000.0 0.6294790413112475 -0.7709305724329998 -0.3165636685933907 -1.0295642676281525 0.0017162287117168406 0.0010045184343772662 0.4560583746475005 -0.2531689374842026
95905000.0 0.6233159577007177 -0.7759243942650836 -0.33833399212880194 -1.0684428497300114 0.00043966463567696846 0.005302718113659732 0.4609805870023639 -0.281014592596107
96904000.0 0.6144179963406874 -0.784496365853721 -0.3586342537097169 -1.10705664028137 0.0001057923385823583 0.0004719262958230614 0.44542481286736213 -0.2914245619780107
97903000.0 0.6045611943274316 -0.7900717750169218 -0.3831746709888497 -1.1351056788923164 0.0023572900914986938 -0.00043697201091383325 0.4418038893498469 -0.29443798608255056
98902000.0 0.600362124348202 -0.7970027871852859 -0.4036294326642191 -1.1800758405471914 -0.000208979035641933 0.001207782922797047 0.444611074356478 -0.2950188911791554
99901000.0 0.5880665946850757 -0.8021323342999577 -0.4356911624937768 -1.2076564913669867 0.001221444216488915 -0.0013179569279023423 0.45272265121494043 -0.3215586419456261
100900000.0 0.5784773342764489 -0.8072335314129448 -0.4770347427327476 -1.2340001764809039 -0.0006877899245928472 -0.00020913944909931628 0.45374987382542803 -0.3346829122862537
101899000.0 0.571509130186435 -0.8155663379557452 -0.4992506543900524 -1.273992857967463 0.0002965665836762252 -0.0007062376528468392 0.4411876442080858 -0.3309143648364625
102898000.0 0.5619060225722894 -0.8211127093785541 -0.5389088451708418 -1.315810701688366 0.0012357122155931472 -0.0005084167517488737 0.4541263350210641 -0.34325256764420026
103897000.0 0.5527367292122313 -0.8281424230195943 -0.5781229383261015 -1.3517673886202444 0.000832193424933619 0.0027316425932206534 0.45757649915598037 -0.34311521132289824
104896000.0 0.5448099068342752 -0.8384920912711273 -0.6238863676149482 -1.3833979590389838 0.0019574473662384044 -0.0005202539335318219 0.42529436562656237 -0.3472646302854639
105895000.0 0.5321657463430282 -0.8387434711562098 -0.6783073583794371 -1.4230888930524719 0.004873539461097742 -0.0004408844211617501 0.4265746504207419 -0.36374867169849817
106894000.0 0.5253258014499042 -0.8459615572447816 -0.7307117931650821 -1.464774877553022 0.0019919880600789077 -0.0017289021564284863 0.4229078626884314 -0.38018637413287565
107893000.0 0.5174722621491182 -0.8518435925146554 -0.7867537142722753 -1.5054738564248729 -0.0028385985302735763 -0.00024396070512418762 0.43364520682244356 -0.37926225237943223
108892000.0 0.5065542680272194 -0.8565683185598263 -0.8466246398694647 -1.5438917001415287 9.706251477578286e-05 0.0011172268144747518 0.4253204295083464 -0.37609475049757835
109891000.0 0.49441618592739744 -0.8639057203728918 -0.9066321899651227 -1.577094138635689 0.003019903799045728 -0.0006797856743924375 0.42492579582768497 -0.3786807158612762
110890000.0 0.4876286138315772 -0.8654612725603004 -0.9639513115049911 -1.5888915810865785 0.0018982654322582187 0.0017032163424513978 0.4186005224107644 -0.388890794323336
111889000.0 0.47182734538303245 -0.8702267673869845 -1.0377333578852348 -1.643850848140498 0.0025873387496684196 -0.002036982381137417 0.4115741479407707 -0.40390874884784134
