! Created with skrf 1.9.0 (http://scikit-rf.org).
# Hz S RI R 50.0 
!freq ReS11 ImS11 ReS21 ImS21 ReS12 ImS12 ReS22 ImS22
1000000.0 0.9821050810681508 0.006346477698979046 -0.02112550327798664 -0.04106621033771896 -0.019295546552632433 0.017413322823493355 0.3688031350895954 0.38754847677688736
1999000.0 0.9916027175073896 -0.013170119424295992 0.009881444727816878 -0.0214297438586069 -0.0006560463521717209 -0.007739781531731899 0.26087753288350357 -0.0658128495479152
2998000.0 0.9970622386452062 -0.019181418613336568 0.009087981805217494 -0.015614502403331199 -0.008021882833302319 -0.0035969019313389083 0.19773933731735793 -0.13474772630101084
3997000.0 0.992411546922754 -0.03129471080784489 0.013616419281531532 -0.007819109205557648 -0.0023591847471810096 0.0004720853675909436 0.0737980274614394 -0.21919579353071683
4996000.0 0.9954636752947359 -0.03824409231641755 0.01153194606806965 -0.0024929379165219714 -0.001270878812274559 0.0018618221107859919 -0.06812323667585 -0.18113877811238024
5995000.0 0.9932493303751128 -0.04570366089932163 0.0125535466019423 0.0037520099154670287 -0.0006307016400629696 0.001792113869084741 -0.11251112252252905 -0.09471301652444851
6994000.0 0.9937683362069035 -0.06138674494850529 0.009359722511700004 0.00829315255972517 0.0027183732514186377 -0.0008988076929581021 -0.1394528723198733 -0.028240022435846505
7993000.0 0.9912422069432756 -0.0708339130754792 0.0061433211151375846 0.009547250214711285 0.003985480582146037 -0.000393857878302427 -0.16051620351323548 0.03571573074567531
8992000.0 0.9911883363582805 -0.07438342621548318 0.0021345316357992542 0.004503990238951697 0.0007949759030458522 -0.0024984693471468552 -0.15976136978920677 0.06998806044723868
9991000.0 0.9889606922857912 -0.08598635989416459 0.006051890910623614 0.0002531187602298119 4.060895692817923e-05 0.0009799635364650132 -0.1415313023129481 0.09339767683642286
10990000.0 0.9901715086251172 -0.09393296285681281 0.010650619954681705 0.005947540569625053 0.001438190252820373 -0.0012762978810577379 -0.13275152750297037 0.10580727879795464
11989000.0 0.9864564961658705 -0.10007131216364702 0.0032174043050035924 0.00011430387548373432 -0.0005580565847455623 0.0023544929816423574 -0.12564983958408363 0.13610970634563155
12988000.0 0.9880056341768351 -0.10837625631488569 0.0030978335733174447 -0.006491430516097917 0.005422680727820448 0.0038909516238350614 -0.11749282094654964 0.16207736107187218
13987000.0 0.9853053351474143 -0.1181199769515804 -0.004216809069882557 -0.002124887470492544 -8.636595794340513e-05 -0.0033664543240527586 -0.09608650127145318 0.1919334616346275
14986000.0 0.9860449805264746 -0.12567843849898938 0.00036102225079300866 -0.0031182757286778457 0.0013387497905117888 0.0013755778527603014 -0.08711316955259316 0.200102653426463
15985000.0 0.9855181849585769 -0.1340320849347358 0.0026406351573466597 -0.00799948140130251 -0.0014813715072755907 0.0028344086661298584 -0.06220112571547787 0.21164630728018224
16984000.0 0.9825925836577799 -0.1451058014888755 6.716384322240236e-05 -0.006243144197155936 -0.003923128795635538 -0.005702968267915862 -0.0657544118778026 0.22053304958977077
17983000.0 0.9834779266275826 -0.15192952987589803 0.0017211378322626817 -0.0024446990647018535 0.0019864471797123905 0.0011879619291091312 -0.05589274997948696 0.21647798134854399
18982000.0 0.9805816964360494 -0.1637127880392954 -0.002949923590706842 -0.007315132742062256 -0.0006847437626735961 -0.0004027021469331966 -0.01770630712700892 0.23517238078893116
19981000.0 0.9813418051969296 -0.16799424115377054 -0.0019295364858519764 -0.005655490322559664 0.0014595965240721766 0.00019742146789399498 -0.004836672166241999 0.24111111420975814
20980000.0 0.9788040363684779 -0.18020050123896839 -0.0015511956483188454 -0.005004534546902107 -0.0019065214273759359 0.0066855937900725335 -0.0003384780950903817 0.25747758633996093
21979000.0 0.9759717901374043 -0.18745897826722138 -0.007573405351710879 -0.004793407534132374 -0.0027820792813638157 -0.004484540447973037 0.0240356863097427 0.24341085978622573
22978000.0 0.9746369684539727 -0.1959529197737296 -0.007570465660559671 -0.007932885431120685 -0.0007942199109546083 -0.0013868585762017173 0.025231499156890273 0.2542412889792999
23977000.0 0.9776389574696805 -0.20146164538838715 -0.005465566205360298 -0.004533645983457842 0.004287966106469593 0.003592703221972001 0.036651598238993034 0.2538060967563377
24976000.0 0.9694401216415903 -0.21473906709664747 -0.006507977527895916 -0.003776569646544568 -0.0023784848954325056 -0.00025036202053111783 0.0624741090250391 0.2524123653721773
25975000.0 0.9628235570718758 -0.22361477569127738 -0.006530716866268878 0.0001984481242421048 -0.011525663863762744 -0.02288998247158686 0.06572592992141936 0.2610354967968239
26974000.0 0.966535568993289 -0.22804446441608525 -0.00649600152934514 -0.0014557789235133216 -0.0001452996011790924 -0.004013159007397813 0.07977789836264078 0.2785138461300087
27973000.0 0.968091265267067 -0.2336930802304795 -0.004107374217529009 -0.00915559806660264 0.0009314434388571054 -0.000538155203734991 0.09627294302432894 0.25067793057115006
28972000.0 0.9634039578865985 -0.24702282759785005 -0.0067440936237717795 -0.004873851992562028 -0.0005077500353208744 3.769061975532836e-05 0.11394536398892678 0.24733381853363887
29971000.0 0.9611016818207273 -0.254231363150516 0.0015626476639531324 -0.0011030662948534951 -0.0003621125233897238 0.0002742479982284769 0.14441959880226615 0.2703630863094895
30970000.0 0.9609063731622982 -0.25971485291772983 -0.001735125676813383 -0.0011949232806598503 0.0012193312103171018 0.0035664609348689956 0.1709028296541079 0.24834270080116908
31969000.0 0.9573430374954331 -0.2698093650320864 0.006302293187466324 -0.004378531150079391 0.0020428455059284417 0.0006100938881753935 0.1533818252447779 0.2496917847779146
32968000.0 0.9562057956714122 -0.27825406840224576 0.0067689444503418374 -0.0019430733265593544 -0.0020681505364851496 -0.001073969514314623 0.16569871942902065 0.2443546990597535
33967000.0 0.953286785301705 -0.28869757632190324 0.010655055728235337 -0.00887488421854614 -0.0005699828313759544 -0.0006281843148508646 0.19339878711248856 0.2465629695988802
34966000.0 0.9499399270988341 -0.29861056486410825 0.012316685002106576 -0.011218313055396646 0.0007351914805717125 -0.0006676368566629416 0.18985940700705037 0.25915055646463736
35965000.0 0.9479724421210947 -0.3060103594667471 0.015081435322055069 -0.016430181234139495 0.0024160957494934084 -0.0002203228205177239 0.21099755321298674 0.24570738387792265
36964000.0 0.9446461889320729 -0.3136199064809353 0.011120319302809364 -0.015133235102038345 0.005829334575446019 -0.004372531815105475 0.20274060674098654 0.2503018544683531
37963000.0 0.9415118627877851 -0.3232462019434644 0.021964943808623804 -0.02018219931038238 -0.0022897133260777365 0.0005932046419087012 0.22710161208955898 0.23013111820508647
38962000.0 0.9394822792454414 -0.3320079220030607 0.02264728795759611 -0.020870781438310407 -0.0037064291320117386 -0.0009387691251333894 0.23596273354728958 0.2380200152043748
39961000.0 0.9370924340900136 -0.3404360027967863 0.02699319583927959 -0.02762241336364907 0.002522806724056203 0.004417778119514018 0.24581109663678616 0.22285686039074623
40960000.0 0.9333121250668802 -0.34835565209157143 0.021001240243743127 -0.02664411806299064 -0.0018617836051603668 -0.0051031239466581705 0.2628759676611691 0.22733556463563712
41959000.0 0.9302942160899261 -0.3578398648370943 0.027159842987537288 -0.031559843145717976 0.0016880586906642722 0.0004887773949783513 0.2711946925107492 0.214473344252847
42958000.0 0.9235973004338591 -0.36755528843602253 0.03122664630312228 -0.041011890499703864 0.0014309415954279162 -0.001742636769345296 0.27742225971031237 0.20820908893999795
43957000.0 0.9243294066079175 -0.3715804464525215 0.035787230711656015 -0.04580312972538781 0.0037792127993039565 0.0003821347143628159 0.2841756032691427 0.20808990671490724
44956000.0 0.9194966628762149 -0.3824464465837072 0.035085503957610314 -0.05304851064535659 0.0003293708700946599 -0.0018497959677848492 0.3078283186471358 0.1842540432524547
45955000.0 0.9163961898176858 -0.3923083106341594 0.0332011233222614 -0.059127592255308274 -0.0029836696853275868 -0.0013659993463238473 0.2951778978408897 0.1931582692074903
46954000.0 0.9131439419701438 -0.399746211375701 0.038050491125241656 -0.06558686865293925 -0.0008771564809229033 -0.000540781015614406 0.3293895219445785 0.1879767777841775
47953000.0 0.9091814464670515 -0.4074446539814702 0.038166601219813426 -0.07414721451475932 0.00415307816910745 -0.001886616274440328 0.3330334284643687 0.1794652745443202
48952000.0 0.9044671680980166 -0.41642195950472405 0.040632102551159864 -0.07900266751117982 0.002442553142842586 -6.232011377242943e-06 0.33137999665807133 0.16294234536147034
49951000.0 0.9003665277270965 -0.426448771968746 0.03872654468604936 -0.0884693623381531 0.0014272564773627062 -0.00020898845530602643 0.3504167229285286 0.1512288237904099
50950000.0 0.8965892809449103 -0.4333690051384487 0.03811590281975548 -0.09864288297811939 -0.0006022502540133633 0.0005028336663259923 0.3498098422424867 0.13896405963876615
51949000.0 0.8917665613610558 -0.4406479953650966 0.03943543430980973 -0.10607672579428855 -0.00015930379920589478 0.0014194912908903168 0.353855248566451 0.1373137522281551
52948000.0 0.8905433228096168 -0.4488269302071865 0.040922787181513154 -0.11797474000813302 -0.00014459504858242014 0.002949136811795522 0.3736932533659727 0.13427317926434515
53947000.0 0.8852941979404999 -0.4553398364934558 0.04432335452902671 -0.12410208659158074 0.0006558480553791129 -0.001058561196126344 0.3750256186311927 0.12783036146116147
54946000.0 0.8789573096722938 -0.4680726903544401 0.042873572192474216 -0.13506614870091138 0.0034345985143569334 0.0027659717797145268 0.3908620191121508 0.11435572031089075
55945000.0 0.875953084341165 -0.47440777313425175 0.04709146030062442 -0.14435812145482055 0.0001716045583556016 0.00032275724407297034 0.3752770541308807 0.09592028814493865
56944000.0 0.8714901717552398 -0.4826438080572699 0.0515448637589811 -0.15345726815592042 0.002958895451647245 0.0027007601589591856 0.3973133428168778 0.09658308081837197
57943000.0 0.8652109377278475 -0.49460954217048697 0.052019753439764074 -0.165310569988601 -0.0018205637433464465 -0.00033432719437158235 0.4021776489483751 0.08920224771942455
58942000.0 0.8606736768114421 -0.49716207930701356 0.05185959862857611 -0.17746530757036144 0.002175221682452102 0.0036435502407803086 0.4171245177885752 0.08199668834982665
59941000.0 0.8584588760268151 -0.5060486551200162 0.05407101222164514 -0.18781767627679963 0.00032280155241272564 0.00013135356792997425 0.4265150594020005 0.0810522103850841
60940000.0 0.849301217191514 -0.5143427629762205 0.05149878881957684 -0.18996936682096044 -0.0017029415269147832 0.0019998615466849568 0.4060155826951674 0.07036956632453878
61939000.0 0.8477266551939736 -0.5202471321339867 0.05185924887987071 -0.19961859391906764 -0.0008724630339976758 -0.0008951641883216566 0.42032031210507587 0.06621920073401374
62938000.0 0.8409903606531332 -0.5306157619799031 0.05651483480949 -0.21434882038179276 -0.0009161533639493847 0.0012670870571196858 0.4347209902159508 0.048110235840964514
63937000.0 0.8345081530709597 -0.5408646984118075 0.05899565531956863 -0.2344304971874919 -0.0014183873168204563 0.001074845884619217 0.43501939020412617 0.036213061975898235
64936000.0 0.8305161877737677 -0.5434599120990691 0.05665682441163004 -0.24983420798281353 -0.0033708120018741856 -0.0005109514561295879 0.4389816617122957 0.03480029228194065
65935000.0 0.8257747692602656 -0.5578211907261635 0.05648238579756552 -0.26421206910286094 -0.0005999473393230294 -0.001380430883889236 0.4382527825170232 0.020813181915324098
66934000.0 0.8213815286914256 -0.5611516948290692 0.05539257029941701 -0.277870116069926 -0.00397173334983649 0.0010867712648007447 0.42571253603839143 0.005088288474650195
67933000.0 0.8178325603660981 -0.5677993827814825 0.06002253797569535 -0.2946946189592986 -0.00018822307483180035 -0.002537030286319393 0.44732945537095864 0.006574023788480446
68932000.0 0.8037331418660006 -0.5744319526455743 0.050215804427247046 -0.30497559962714144 -0.0005868843745268332 -0.0032707106918466893 0.4493125745758333 -0.008932894980143071
69931000.0 0.8024231039775728 -0.5850061999910747 0.052926004958834566 -0.3233140463743996 -0.0028440915900421176 -0.0005570575795379662 0.4541857382339048 -0.022484420773791963
70930000.0 0.7961442789937915 -0.5935938358056425 0.049379983937502814 -0.33820215708994517 0.0004670401140458046 0.0027205540320993597 0.44769943144874036 -0.033202702574257684
71929000.0 0.7952524843212327 -0.5991278970494592 0.040656887790382956 -0.3584685846319175 -0.0021529255148248633 -0.003006389212080847 0.44536121796316275 -0.053843448264187396
72928000.0 0.7861027817555207 -0.6104486366634232 0.03564195231926081 -0.37561710717074165 -0.0009073483382462208 -0.002446672719691341 0.45728147801727165 -0.04442326830332858
73927000.0 0.7818318764696218 -0.6152075353610277 0.033551390793255344 -0.3962179908186812 -0.0020931267945317753 0.0008393280530359598 0.46023778873795845 -0.06421976895126863
74926000.0 0.777441182486875 -0.6247679376139667 0.02384463976691839 -0.4138035089046441 0.0013525981819987405 0.0018320371087545424 0.46372899872127277 -0.0625297796670975
75925000.0 0.7698444741877476 -0.6292772024375192 0.011196971675576308 -0.4347290306600036 -0.0008425196906183864 0.0013987242277891303 0.4584095418296722 -0.0769587468746081
76924000.0 0.7624555709604457 -0.6367088933189017 -0.00013158336410982788 -0.4590130972159926 -0.002230227792185817 -0.005018743462477632 0.4617757365547346 -0.08843521679360722
77923000.0 0.7562337888959397 -0.6484634170414637 -0.015768545250832915 -0.4860431855687645 -0.0006867005809807385 -0.0013012377324227561 0.45628676458664086 -0.09624718300322044
78922000.0 0.7497010534276572 -0.6533567028281418 -0.0292914992851294 -0.5105469998664857 0.0019676878891086145 0.00012421622701260003 0.44598809041653514 -0.11151800478672695
79921000.0 0.740613781926351 -0.6588639941761484 -0.048108011935149964 -0.5343771488888792 -0.0008203556685530795 -0.0012538934748860565 0.45351526548021814 -0.11544520062093193
80920000.0 0.7355982733306857 -0.6687959707398914 -0.060843668106748704 -0.563997164408932 0.0023871008264378575 0.005141291475069245 0.4663325071056682 -0.13707380841919406
81919000.0 0.7327851188902773 -0.6744404466155349 -0.08502851635306571 -0.5942269532146758 0.003493852969542981 0.0012289522674683877 0.4611626753081874 -0.1284176739650556
82918000.0 0.7210125540183089 -0.6827954125622075 -0.09340142166076178 -0.6233835979176454 -0.00019802377368884747 0.0041936999162312544 0.4605803181507033 -0.14762125938426643
83917000.0 0.7117898571773007 -0.6913609900764709 -0.1159837680751684 -0.65047281337815 0.0003702071179761974 0.00022327535471869237 0.46951082957452384 -0.1564947173365364
84916000.0 0.7066335340385451 -0.6977561518855968 -0.12854483529739694 -0.6868916494348764 0.000995237381623383 0.0012926850948005214 0.46009844841232367 -0.16302730032903173
85915000.0 0.7002231077803285 -0.7039653245632618 -0.14656393946175741 -0.7214007527321068 -0.0005877627256844917 -0.004541451015038688 0.4616677783369297 -0.17878546533609377
86914000.0 0.6942211551609563 -0.714041911817498 -0.16548629988747202 -0.7567554438149445 0.00361723696979169 0.0010844793424686493 0.4634965157327727 -0.17405279980678168
87913000.0 0.6851325445150245 -0.7211484214496817 -0.1850819896302879 -0.7833434870786212 -0.00041114059521459235 -0.00039748393243952735 0.45137660984921574 -0.19400352061245912
88912000.0 0.6784602862641224 -0.7260301067947562 -0.20319193788191797 -0.8174743031953915 -0.0006890790053976982 -3.0846499203620745e-05 0.45585748212486926 -0.2132177526773381
89911000.0 0.6732881215874272 -0.7334211726554354 -0.21252528532109924 -0.8553724886996223 0.003177235495908597 -0.001274633533231591 0.46457807126897693 -0.20868290692339275
90910000.0 0.6663854876262667 -0.7399664644705884 -0.22838035508146823 -0.8908633609565848 0.0017498027941775368 -0.00019335289558081346 0.45749701934262 -0.2245273116585562
91909000.0 0.6557736284115211 -0.747007624164565 -0.2581089575769995 -0.921808708553198 0.0024330215282266543 0.001896349599648134 0.4627397166461741 -0.22795399421861087
92908000.0 0.646759114141369 -0.75347845602915 -0.274128433739826 -0.9566057288435763 0.00013579992282028642 0.0014190745038714508 0.45658435555405075 -0.24765739693433775
93907000.0 0.6407612200068028 -0.7609940067959757 -0.2895014988679034 -0.9911037552926724 0.0015424689357489939 -0.004732592851624717 0.45972150690385166 -0.2485672489670589
94906000.0 0.6279719159378601 -0.7669288946462594 -0.3119039411771412 -1.0238855314653912 0.0007266312742562971 -0.00030945380728902025 0.4645967504799001 -0.2559764102168742
95905000.0 0.6223409282352879 -0.7733587801979365 -0.33496583993465956 -1.0565220415863874 -0.005026249918056837 -0.0007957786817719054 0.45753872862302025 -0.2717583802553846
96904000.0 0.6137270952990965 -0.7821249947839116 -0.3589105450471028 -1.094983015842251 0.0010369786344019175 -0.0035971729065502164 0.4481146921940944 -0.2748842904201548
97903000.0 0.6048278613125884 -0.7865947829664525 -0.37915456445555307 -1.131644354368244 -0.002953249333560958 0.0001897468601209357 0.449795315552882 -0.27989515622583266
98902000.0 0.6009308382710029 -0.7937209577451698 -0.40018161146836845 -1.1694784702129322 0.0002629653954946852 0.0032537605356836455 0.44542329573178324 -0.2993753454067925
99901000.0 0.5893589151647451 -0.7992451085072931 -0.43285037651972763 -1.1976771348722202 -3.914218776994859e-05 0.0009489581478100824 0.4492554873315523 -0.3191440478584701
100900000.0 0.58147821378522 -0.8029769029144923 -0.4615759329793491 -1.2334952041962886 0.000603455841853085 -0.0010802103054023252 0.4414018221596666 -0.325315823461027
101899000.0 0.5718828939820396 -0.8116323040686142 -0.4959295772910825 -1.2706033010786206 0.0019361889960683358 -0.002301860361100102 0.44161098136228316 -0.32414317323868036
102898000.0 0.5621017771093876 -0.818072159895121 -0.5362417105617521 -1.3006018690909245 -0.0003944729131947035 0.0015428425715644757 0.4407779913784339 -0.3430407304466823
103897000.0 0.5537396204029686 -0.823775065665365 -0.5725491961192368 -1.3422387149029102 0.0006468144722684864 6.532327104179227e-05 0.4486348680755421 -0.3368743970634173
104896000.0 0.546086100252615 -0.834201311113745 -0.6222736928503426 -1.3740071520393908 -0.002187630566349706 -0.0016000511768604348 0.4343253238318079 -0.32980143416061014
105895000.0 0.5364814055252703 -0.8348173145339227 -0.6664611098122712 -1.4173442076054763 -0.0007073198043011243 -0.0005643493604102154 0.4248649620125244 -0.3745515769811899
106894000.0 0.5288238191249067 -0.8418342156856943 -0.7232019673448867 -1.462027672218445 0.0026831938963542 -0.0020752622134485965 0.41832889926742256 -0.36812287654763676
107893000.0 0.5184095847777394 -0.8474263780881333 -0.7812131146240426 -1.4955254881396713 0.005032132143051262 -0.0004918038216304504 0.43308983663458644 -0.3803173774689072
108892000.0 0.5076587642203914 -0.8502413771060693 -0.8433591989573546 -1.530138991475614 0.004161229086091426 -0.0027111441686245162 0.4105449350477452 -0.3800815626883823
109891000.0 0.4963697829107263 -0.8594499326954179 -0.8997689994172292 -1.5695937709444818 -0.0008070684578409996 0.0023234603793874237 0.4366632222314376 -0.3843353191556276
110890000.0 0.484296858964178 -0.8607070531182088 -0.961811954143824 -1.571531049698363 0.0010769237712299161 -0.0007806317902570552 0.4281990357652853 -0.38953793061739184
111889000.0 0.47642880504714324 -0.8665209682883336 -1.0282958563874778 -1.6400945779851674 0.0016265306666635288 0.00192541742157463 0.4154979896453786 -0.4168446691582475
