! Created with skrf 1.9.0 (http://scikit-rf.org).
# Hz S RI R 50.0 
!freq ReS11 ImS11 ReS21 ImS21 ReS12 ImS12 ReS22 ImS22
1000000.0 0.9643554782312851 0.0021962046919905176 -0.003286092894114449 -0.03664287218219733 -0.011119942334806048 -0.0013833676740072538 0.3611962397888008 0.305817781243065
1999000.0 0.9958968606514411 -0.009045960070894556 -0.0011463067906782058 -0.01769704902721764 -0.0005944513633346642 -0.000571619602857144 0.26129604516275706 -0.03852903236667679
2998000.0 0.9988894418660477 -0.018852360025891083 0.015050533087619972 -0.0168372657934255 -0.008312060461302567 0.0005101081974557715 0.19207473179390736 -0.12873422828175327
3997000.0 0.9989020673099553 -0.030015282538355406 0.01116544659669541 -0.0074142683682439535 -0.0023212571443466546 0.00047496408898317145 0.09094164793266817 -0.21483159739549632
4996000.0 0.9969957485205017 -0.03538699248784204 0.011134684065433813 -0.0031432673646182756 0.00011754236315877299 -0.0007051991118457617 -0.025264133820870775 -0.2197122468704035
5995000.0 0.9995592908072277 -0.04818367107632977 0.009966593405735968 0.0029942983459302 -0.0031409130043128903 0.003804877299905764 -0.12228310680836717 -0.13745288350301518
6994000.0 0.9977032905048491 -0.05930205300229293 0.009914066947181038 0.0028835219122129866 0.0027219247109274373 -0.0018590770534172559 -0.1368801937682991 -0.053964231995303105
7993000.0 0.9980831496282938 -0.0683901749001629 0.008293102365990054 0.008301326186490333 0.0059085252759343496 -0.00019253522337723316 -0.17336215487699272 0.027440772245066136
8992000.0 0.9960030859490143 -0.07055646215798024 0.003868683018246725 0.007580765901677047 0.0016385620709613463 -0.005422992899553425 -0.17560367359658885 0.0465091837527029
9991000.0 0.9938869031162546 -0.0824093359758512 0.0038646103903616858 0.004425436483592155 -0.002986136755828021 0.00023383511130046456 -0.15368154567307532 0.083434697762888
10990000.0 0.9949639580395215 -0.09215094397416224 0.0026886696622074454 0.00460609702017069 0.0003819717257304936 0.0030135131252474194 -0.14090576570783353 0.10992404191663042
11989000.0 0.9902566997327182 -0.10009796764902427 0.003285800427528071 0.0013128438456101112 0.004803897575807396 9.29637334242703e-05 -0.13039022390297314 0.12274138741081808
12988000.0 0.9909524479298025 -0.1074583718233809 0.0030893000521540425 -0.006711848646517666 -0.0016223019867449564 0.004208458184407132 -0.112546903643985 0.1589814490126177
13987000.0 0.9892482769399518 -0.11926274568504872 -0.005202460629156265 -0.004259773182151721 -0.002271026425272253 0.00080888410950836 -0.1092017372990645 0.18402931105360934
14986000.0 0.9895860192101613 -0.1245667418847672 0.0005634591104055609 -0.0036179863724621706 0.0013308048732681098 0.0020368969189151057 -0.10162309818455519 0.20203722417728434
15985000.0 0.9912182300105846 -0.13329005683352255 0.0024629394013449277 -2.2913802907600797e-05 0.00020120873354050848 0.00017899072118974393 -0.06893769336851932 0.20967011398412988
16984000.0 0.9864031567943079 -0.14310335569518967 -0.0069207191508558795 -0.0056599593853645875 -0.005527147449311081 -0.002200084343104601 -0.0731337052822337 0.20599824198022026
17983000.0 0.9877914693467413 -0.14798153929056757 -0.0010743890287675333 -0.007813793400120325 -0.0034915716976764628 -0.0017018145865177862 -0.06258813257997231 0.22401909658589783
18982000.0 0.983232048101126 -0.16280914395962306 -0.002343523605573153 -0.004901083898263874 0.004219907769996454 -0.0004493476751108826 -0.03542879599745609 0.22600575894118416
19981000.0 0.9852844277494027 -0.16583572767209112 -0.006394108413726272 -0.00133109032827036 -0.00024035630473437903 0.00406730001546117 -0.017889134403079706 0.24708016523905466
20980000.0 0.9828472894384485 -0.17396614069839778 -0.004481409507409296 -0.003684574278651684 -0.004989458682059275 -0.00071048037306271 -0.010667725257724588 0.2513987706734673
21979000.0 0.9811347353006746 -0.18358977759253137 -0.007481561171163478 -0.005695316613906462 0.001686251653477313 -0.003376156401404566 0.010557881732110303 0.24983213613660826
22978000.0 0.9780571679654892 -0.19495985492743573 -0.005067355403737711 -0.0019150907244071301 -0.0025263176162538324 0.0011272196655069296 0.010574394883689619 0.2508271856188117
23977000.0 0.9815436561901794 -0.19765574117342233 -0.002937685213603024 -0.004694111723668085 -0.0016896702504002612 0.0029445109156381673 0.038498603363094644 0.25389315615874947
24976000.0 0.9771732478949968 -0.2079359278415902 -0.007301130647858937 -0.0014346423607976102 0.0022943408960712556 0.0014116934437458251 0.05573120379818081 0.23965803947534417
25975000.0 0.9723520547783508 -0.2242355512632178 -0.001781410339296592 0.0013469996941526008 0.022096644854931298 -0.013397682029180956 0.07278598353158215 0.2571085544955287
26974000.0 0.9714569875425498 -0.22643518037565227 -0.005973468503190258 -0.002924534704922125 -0.0030927792446667104 0.004120792980453982 0.08528501580351888 0.26488101868696357
27973000.0 0.9710336724600506 -0.2316632128861794 -0.003382989604391066 -0.0005038515334530396 0.0023576506443371494 -0.0018351339594854168 0.09212465640366142 0.25201117538900397
28972000.0 0.9669953091392518 -0.24517116060965027 -0.001043993218611946 -0.005093802133729997 0.002170813188184792 0.000822170858174855 0.10265585575302882 0.2521234643971349
29971000.0 0.9660479318944576 -0.24953680169955225 0.0014195657749901684 -0.002126752362283057 0.00031611301560117847 0.0013629760546566944 0.1438473520547502 0.2587821187926954
30970000.0 0.9633371034595668 -0.25864064602094516 0.0034496035412283814 0.0007058240381041217 -0.0007217974662331795 -0.0016460146665350107 0.1577522855821583 0.2515539846267699
31969000.0 0.9615491697097922 -0.2660739531979954 0.005886282122781663 -0.0054764823226155866 -0.001632518769387749 -0.00021532317776010482 0.14778292721654288 0.2500986413643824
32968000.0 0.9585833630817759 -0.27693531301701513 0.008379785709862085 -0.009763536539251093 0.0025060515289846742 -0.0016536485300309661 0.16314981150161556 0.2503031740110127
33967000.0 0.9573220304106501 -0.28595634449760043 0.010800413799879012 -0.00918807577390299 0.000621507093337915 0.0003865930751004941 0.17917413818382333 0.24396614616598794
34966000.0 0.9548761340118614 -0.29484243839814095 0.013000433666754343 -0.00984230091880553 -0.0022837201456113254 0.0007717636929222479 0.19633281019192425 0.2574655363386366
35965000.0 0.9521012796780121 -0.29930838826449885 0.01636781903176218 -0.01648499862885902 -0.00013827675536381292 0.0006028156631392853 0.1987290409273025 0.24942758893136605
36964000.0 0.9495079578407443 -0.31003692290935186 0.01773175298538449 -0.012023122549292605 0.0016879689869503862 -0.0002528281493716382 0.2122490633919465 0.2536580562533772
37963000.0 0.9472423879572237 -0.31890411511471056 0.026238958945920633 -0.02073426228430352 -0.0014888838341934269 0.0025972367061316303 0.22260172297652536 0.24115057261777806
38962000.0 0.9445663341050721 -0.3275934388923339 0.024458669618790403 -0.02290391892949456 8.636629653432791e-05 0.0005210958626893371 0.2377337825553033 0.23678988018272185
39961000.0 0.9403841459247516 -0.3368236795689632 0.02790540799850541 -0.027840596978817647 0.0013131989386350577 -0.00035887963616895003 0.23664796288116646 0.22402070097246385
40960000.0 0.93768520212389 -0.34147627292519134 0.02297746745529331 -0.023587134715156412 -0.0007211664782493097 -0.0009707594826008592 0.2621794657060397 0.224721267082347
41959000.0 0.9351447192924417 -0.35264250770356714 0.03241602322003329 -0.0320287279231983 0.0012559326978561715 -0.002636586223311447 0.26200996030639134 0.21997334723380288
42958000.0 0.9281623399235028 -0.36267689148431825 0.032807644774307226 -0.03843825720987974 0.002401660898657802 -0.0006285824758798155 0.2718593081013438 0.20107591172405168
43957000.0 0.9286292823669696 -0.3664325964302398 0.032047644145849326 -0.04419659852885751 -0.00016938704299805454 0.00095784075391548 0.2742990192067001 0.20690882592881923
44956000.0 0.9252674120340146 -0.37329201042598964 0.03437772847843337 -0.0518218135943071 0.003044073218389812 0.0009892870709161685 0.30041137431613146 0.20123712172333696
45955000.0 0.9216024712453121 -0.3859231876896406 0.035107107850945264 -0.058514700251749534 0.001085410306244128 0.0007376679681367682 0.30374048043685037 0.20138194044400132
46954000.0 0.9177816218105352 -0.3943636328971317 0.03455161829000461 -0.06766189122262116 0.0022112551124449753 0.000751045695743581 0.319359560541858 0.1797700563039111
47953000.0 0.915083982043045 -0.40090798304005376 0.03801981458509113 -0.07547021107804915 -0.00014162410618646606 0.0013539064088497123 0.3276259228722091 0.1769219562720617
48952000.0 0.9088858726739729 -0.41229394087188653 0.03667083448560366 -0.08002840278994366 0.0023071817148477454 -0.0010343259714288419 0.33668752222972215 0.16747320268272883
49951000.0 0.9078349325906686 -0.4161606619577303 0.03838708418817906 -0.08693006160506074 0.0025436470010264003 0.002442374474045575 0.3483432201189663 0.15140235177218814
50950000.0 0.9020581839892262 -0.4249215848024895 0.03571802772847509 -0.09547995300830371 0.0026964369472938406 -0.0032799682695826 0.3431694666917389 0.15532464733102566
51949000.0 0.8975854637679641 -0.43568455561960034 0.03982673587863778 -0.10543458022723488 0.0014550746451900878 -0.0006198716656001792 0.35393058927618826 0.14392994755647684
52948000.0 0.897661132351724 -0.4405110229392913 0.03931105250280398 -0.11250400319598318 0.0021680512146113272 -0.0010889676732678292 0.3622260712281175 0.1462685316793833
53947000.0 0.8915968543009225 -0.4485066901359439 0.03915796545104296 -0.12090484431214875 0.0006242611154571748 -0.001162734490238061 0.36352241990365086 0.139641023529598
54946000.0 0.8856374465037905 -0.46004763375790264 0.04194304645631506 -0.13349361265814705 0.0012650063534307666 -0.0013460394216663178 0.37612708786604415 0.135515454002151
55945000.0 0.882146795576722 -0.4661381119171882 0.04445555028895578 -0.14378004274775455 -0.000489971341583737 -0.00039797139239351476 0.3820301564330327 0.10158005117203174
56944000.0 0.8772990867401711 -0.4755020954473931 0.045132248580523296 -0.15336411755761467 -0.003990587137940023 -0.0012593754098391993 0.3892722546232848 0.11115791417647475
57943000.0 0.8742414790070191 -0.48421329553887693 0.046207712178168846 -0.16456745867764835 -8.556418641980698e-05 0.0010712763362544354 0.3967541148125379 0.10166373283860634
58942000.0 0.8675031366009409 -0.4891759417341875 0.04683688174798426 -0.17330809256490404 -0.0005573066888447209 -0.003445910691409447 0.41776511493549073 0.08671927662115389
59941000.0 0.8675066993588462 -0.49710739639289253 0.04919794251268262 -0.18603944331651492 -0.0020430370249183696 0.0009284405769421626 0.41554987561838574 0.08784801927075035
60940000.0 0.858750964085967 -0.5046231919664634 0.049572064391206996 -0.18661976796951074 -0.00022588373813705093 0.00029158821773389993 0.4021471494021972 0.08338873124671514
61939000.0 0.8547616386422053 -0.5120282394894758 0.04838011452708742 -0.1987266472061206 0.0010839229353461796 0.00337118661493702 0.4084974718132811 0.058993625546813415
62938000.0 0.848943118648541 -0.5229502937299961 0.05138910316959345 -0.21499963032429817 -0.002685146169608859 0.00237258452427619 0.43719976949877987 0.05261752012042872
63937000.0 0.8453130131111264 -0.5302290268129318 0.049271567843051825 -0.23319402919055954 -0.002596471536443419 0.002652412797216744 0.4267753511332162 0.042292755187739145
64936000.0 0.8377088413203868 -0.5364122188407486 0.052265441182106256 -0.24709283162528164 0.001859342906639592 0.0006253455911366402 0.43709229804295147 0.04484185619955629
65935000.0 0.834497257010834 -0.5495425568792593 0.05152822163803762 -0.2626350469187828 0.00393964724188354 -0.0011032761808447687 0.43219773305055814 0.018873206177407502
66934000.0 0.8297622759878615 -0.553054266058444 0.052412302154568935 -0.27539566031442503 0.004319491237132039 0.002519499273018259 0.440879888630574 0.01824370876851204
67933000.0 0.8281030756941206 -0.5597371010715099 0.05722278569212417 -0.2892391039099714 0.0010486886767912954 -0.00037173580133439114 0.44323001556897124 0.017011730387526302
68932000.0 0.8086460387123319 -0.5625564052331588 0.0466147556309182 -0.3016655843282587 0.0037108363806345208 -0.0027143693330604975 0.448002351811744 -0.004787721942257081
69931000.0 0.8144559953096777 -0.5758948604824689 0.050442210338450685 -0.3188002068876548 0.0001614596792998924 0.0001334494048895532 0.44546841631417544 -0.01574232946868059
70930000.0 0.8082339129435732 -0.5852800838640596 0.04888648697397074 -0.3314117368032607 0.0019091771338092438 0.004690737507060048 0.43685597527832914 -0.026966771254080316
71929000.0 0.8046193947545764 -0.591022680237213 0.04847847920566617 -0.34995490506416077 -0.0014610698423664847 0.004164402175262035 0.4460066138488785 -0.03611686874782104
72928000.0 0.7974555564592247 -0.5995433607357421 0.04225314481977569 -0.36301661613822733 0.001028179351569887 0.006296424080968922 0.4547682185202204 -0.048143791825167113
73927000.0 0.790986724928945 -0.6067993103746754 0.033783331865474664 -0.3872801611999913 -0.001186938384019791 -0.0009139611932688864 0.4623832142471137 -0.0530097883066682
74926000.0 0.7862018032849838 -0.6164569272677852 0.02762874073161524 -0.40208641330931105 0.005184134455553146 0.00448260709753227 0.4649664331453538 -0.05499730519559315
75925000.0 0.7809972348209887 -0.6201278164072059 0.01749022029140766 -0.4227685668342201 -0.002754858103092447 0.0033505460800182826 0.4608731913683821 -0.07307992735301956
76924000.0 0.7745898576667706 -0.6276074430922343 0.0020327097648614825 -0.44441954627390307 -0.0019670793726703105 0.004014733661915194 0.4610695398928063 -0.08451141821692429
77923000.0 0.7673988090721285 -0.6384847956738506 -0.007081736367136114 -0.4699907167037626 -0.0017729830280800668 -0.0006741867600598793 0.4618017178561332 -0.09508157353622379
78922000.0 0.763405374017446 -0.6453039534632369 -0.02589969168468051 -0.49497155748454724 -0.0004404007959609838 0.0021991935828891765 0.4620119918412884 -0.09512335476025463
79921000.0 0.7543112867331724 -0.6479296857259635 -0.0396158129149434 -0.5181608714520792 0.0007113869241080337 0.0022925542531571875 0.45599308232121843 -0.12186152820391874
80920000.0 0.7490234138831658 -0.6606132557683109 -0.054279934280182525 -0.5483797003103134 -0.0002762572256842956 0.0007613384165679649 0.46210108351357704 -0.1255983216511195
81919000.0 0.7457688052017895 -0.6651831689361174 -0.07987756428801406 -0.5766838468766177 0.0005691551069888182 -0.00039482882362936334 0.4637806643227999 -0.12358212162486261
82918000.0 0.7331336157785489 -0.6746233341913627 -0.09180627379901952 -0.6085552202776173 0.001326869577395506 -0.000422819342971997 0.46293010835377607 -0.1422138945270859
83917000.0 0.7254672880064237 -0.683114054432058 -0.11188112879376166 -0.6338108131531315 -0.00582699729575448 7.066277023465477e-06 0.47611843427724515 -0.15618969001308805
84916000.0 0.7226859158418262 -0.6907638652628414 -0.1300476199288486 -0.6704604201135528 -0.0008719084676840013 -0.0012846806267072515 0.4629767922973918 -0.15902032937966684
85915000.0 0.7159059215233524 -0.6961854976719922 -0.15705749801855265 -0.6979197855686228 -0.005393824224269024 -0.00032360990621584774 0.45655182950411144 -0.16896926410873886
86914000.0 0.707450552184291 -0.7061784194147691 -0.16289984757110776 -0.7390751729677502 0.0008340398600269586 0.002144482424201982 0.46056365802475346 -0.16691265123967666
87913000.0 0.7028263277891684 -0.7111094611488392 -0.18842197315163026 -0.7674013593255139 -0.0009714720754145876 0.002198950813749519 0.46139686616077424 -0.1728192217261049
88912000.0 0.6942290148864741 -0.7187090429956727 -0.20590989271297647 -0.802494874209755 -0.0008630704354712969 -0.0026272733996893787 0.4601052625286488 -0.20068166334631368
89911000.0 0.6868796992449014 -0.7272890834422264 -0.22086986523887583 -0.837540784911016 -0.0021813539510359653 -0.002303218742716328 0.4665259522999301 -0.20783770379948713
90910000.0 0.6801072504844836 -0.7332607987690573 -0.24029607093966146 -0.8721570817341112 -0.00030416638448548525 -0.0004582986992497665 0.4559806496514283 -0.20520777758277434
91909000.0 0.6721783068820395 -0.7373460993517187 -0.25365934400950496 -0.9086370124184177 0.00024258737049109725 -0.0008317949061266336 0.4613401852675462 -0.21263046813264105
92908000.0 0.6628748023767957 -0.7450390380254742 -0.27395000269917663 -0.9393379389288613 0.0010968025130537722 -0.0027194430699610038 0.44755025055145803 -0.2278291066047689
93907000.0 0.6585995045459672 -0.7514421726345991 -0.28900378293514994 -0.9741286595014915 -0.0033476984556449155 -0.0019096521800769498 0.4559199081247477 -0.25140980415354053
94906000.0 0.643781983867365 -0.7599679242762815 -0.3089109774888851 -1.0027395719566778 -0.0009238005898434589 -0.0008399109033646827 0.46121685899744747 -0.24873401318381977
95905000.0 0.6381783605929037 -0.7652764099793968 -0.33111643940827173 -1.03740779189217 -0.00026949132007923044 0.0010420986339703905 0.46027164538601884 -0.26446069836300223
96904000.0 0.6306295379482513 -0.7744484133337579 -0.3501164955119838 -1.078475173703784 0.0019552111929705533 0.0003449590397187271 0.44797187607194117 -0.27828597939994276
97903000.0 0.6205372630912127 -0.7789117510766334 -0.3685065831277434 -1.11228606909397 -0.00071881780853561 -0.002223414123315102 0.44499131854105445 -0.28015677384652654
98902000.0 0.6186185443038243 -0.7844198755312216 -0.385102627418542 -1.147087727152695 -0.0013350917318217532 0.002412166533973389 0.4313513610215932 -0.2828263982212749
99901000.0 0.6061066277983456 -0.7923936184977248 -0.4160348104437911 -1.18080010147696 -0.0030569953694617076 -0.002137741745110872 0.4503849952025858 -0.31217396868631886
100900000.0 0.5971381105840239 -0.7966562408078796 -0.4523316398149203 -1.2070669925643502 0.0016412738041357076 -0.0005185003855339962 0.4584101828621407 -0.31112311799880565
101899000.0 0.5878166204141948 -0.8044121107901312 -0.4749597896474129 -1.245495498313055 0.0001363384838921571 0.0002447897320967283 0.43876387666754363 -0.315217278859628
102898000.0 0.5804597733157892 -0.8080235195216675 -0.5032292886538364 -1.2847480700374505 -0.0007637918836787675 0.0031265222208990357 0.4452970566925699 -0.3304721121394878
103897000.0 0.5720891660776442 -0.8154993846144741 -0.5391485090315612 -1.320457487013514 -0.003343680986068053 -0.00015741008319346337 0.45756294775307255 -0.32743319903228973
104896000.0 0.5633647197023532 -0.8247870386443333 -0.5920661195662078 -1.3520122091027185 -0.0013735884988217689 0.0006100579016335739 0.427842076450408 -0.33908950798218934
105895000.0 0.5534142278534393 -0.8288628421031923 -0.6353414235306984 -1.396616242154582 0.0011305306686437225 0.0027649049574001595 0.42073692115748335 -0.36345954264528757
106894000.0 0.5444666117221098 -0.835279237910799 -0.6920368187362826 -1.4276585091520888 -0.0013776564710784175 0.001264341585053565 0.42597288201715494 -0.3668567543265342
107893000.0 0.5372818980833416 -0.8421705393861517 -0.740179512866369 -1.4588981674270158 0.0033612087979029695 -0.0030748256227954903 0.42651130486596445 -0.3798558570438691
108892000.0 0.5268407096644206 -0.8456489028836315 -0.799505574359768 -1.5003678322890215 -0.0024407766363140067 -0.0015324012272325033 0.42433599819154116 -0.37617974122457526
109891000.0 0.5150782120539176 -0.8518738050464632 -0.8566750266445932 -1.5301153812652448 -0.0015320225082517676 -8.437979227784744e-05 0.43364598719078945 -0.37771621415465567
110890000.0 0.5085615675486966 -0.8689204658870756 -0.9333756452208017 -1.5506701886309198 -0.0008138217999916121 -0.0016641057421929093 0.42540750978355746 -0.39232567491403425
111889000.0 0.4945299866649062 -0.8599269069422166 -0.986093613268213 -1.5961072050058667 0.0011408817541696773 -0.0019264366067376108 0.4178868001372626 -0.4003396689200803
