! Created with skrf 1.9.0 (http://scikit-rf.org).
# Hz S RI R 50.0 
!freq ReS11 ImS11 ReS21 ImS21 ReS12 ImS12 ReS22 ImS22
1000000.0 0.9881768720015869 -0.0013611538253637178 -0.015790116816932327 -0.048127107277994914 -0.015180453919365016 0.00772567723015499 0.35717441185800597 0.34005410560510435
1999000.0 0.9972282309210088 -0.016563397460825042 0.0030556260256791685 -0.030038186292377776 -0.00781297085648977 0.003933131449385018 0.22602159944871583 -0.045089945953108605
2998000.0 0.9991911514534827 -0.022255114924743438 0.01363361499371718 -0.010820273756383897 -0.0018386608926557538 -0.003018667980669346 0.18949081655325775 -0.1192016857052769
3997000.0 0.9952835123307449 -0.03521410972289598 0.013619874390309752 -0.007044355286481837 -0.0040459432379029445 0.0002296739776801934 0.07070723312220968 -0.2287018516260887
4996000.0 0.9930806246939304 -0.03910347239763931 0.012232266085623545 -1.1546104105134909e-05 -0.002821907671802283 -0.004148956748680735 -0.07276689226972735 -0.1786184064164886
5995000.0 0.9937201747859108 -0.050332374088839886 0.009762875153934522 0.0005427507256853483 0.0034346881011745626 -0.0019303141306144646 -0.11389155482241325 -0.07983327192733136
6994000.0 0.990554748636016 -0.059094384240798596 0.00827873318630149 0.0040470817431614075 0.00029275047178529935 -0.00045377869561878355 -0.1444949767124136 -0.016514488794057498
7993000.0 0.9890544374370112 -0.06997262736361608 0.004162067544719205 0.006364758790260244 0.004235399844520298 -0.0001368923940087089 -0.15804854789881903 0.0461725543919189
8992000.0 0.9904632623351097 -0.07215667271522257 -0.0026732565915046063 0.003541580683773444 -0.0014602580411964925 -0.0009160535758878861 -0.13872918412788365 0.07054874003277277
9991000.0 0.9881195646303081 -0.08491011332521228 0.0006837476314195904 3.410772181412752e-05 0.002341372855204006 0.003230779482712158 -0.12310637847067589 0.09584925003877028
10990000.0 0.9882276913145542 -0.09135854908603784 0.0024454979087406474 0.0024709410779792224 -0.0039011691733993083 -0.0035038058574383027 -0.12810959394396487 0.11319604715497994
11989000.0 0.9854649998677926 -0.1014211344078325 0.00100351046832561 -0.0004956985207824556 0.0036902876508373788 0.0003803482753558111 -0.11786772464955114 0.13332960560182272
12988000.0 0.98245610054094 -0.11070849095661218 -0.001450406887473372 -0.004658048727919213 -0.0032298739816520056 -0.001068978220707709 -0.12146172237749978 0.1770084699868658
13987000.0 0.981533606260413 -0.12052125040601246 -0.00016014032879103226 -0.0033931289406392592 0.003508663475395303 -0.00446280504191332 -0.08501596198877423 0.19070621090610368
14986000.0 0.9816551907639075 -0.12468526437505095 0.004035422764628057 -0.0014893539266143691 -0.00253126414834075 -0.0017312370470345122 -0.07374834122566185 0.2013140579136821
15985000.0 0.9836288368323041 -0.1336352415679659 -0.00273339133176597 -0.0033067487133779387 0.0018113823696835657 0.0001836770982010268 -0.07457342688572256 0.21968906373010422
16984000.0 0.9804890797682299 -0.14224797969830705 -0.0034981791113448896 -0.003145483366392243 0.0034610917803393065 -0.00199820980644368 -0.05365129390578534 0.2243404749462857
17983000.0 0.9803123329820276 -0.15099188022319107 -0.00440660452737643 -0.00109300977722322 0.00012982157082908774 -0.004880831851589263 -0.04162083126607475 0.22089501936940756
18982000.0 0.9760501965619254 -0.1613442986703486 -0.0028297851332689905 -0.005393648756429158 0.0016091278345555997 -0.00027006471030922646 -0.015516522702162963 0.24071917512554594
19981000.0 0.9761039906390299 -0.16621396851817444 -0.0033855988069888014 -0.0065080253244602536 -0.0008681102161629414 0.002184886743343355 -0.007759380483207328 0.24133616376205874
20980000.0 0.9761835315793431 -0.17623571074637967 -0.008452262842881857 -0.004880985019075422 -0.005500088021087098 0.0007183909754097745 -0.005872037323375788 0.2585674308631189
21979000.0 0.9742354235565223 -0.1851973012131759 -0.005148246568379011 -0.003901883647223959 0.0013234230562497958 0.0031825417415465977 0.015174719109136103 0.2400258440521746
22978000.0 0.9713352814407691 -0.1951136243151202 -0.004449708865643396 -0.006608498105001965 0.0017535494439911952 9.988824455570227e-05 0.035638359127531063 0.2637901539145408
23977000.0 0.9726136771110505 -0.19998738275331593 -0.008571118596244905 -0.0033139861126451242 -0.004459500766351412 -0.0028566636209591016 0.04794272942503197 0.26221800707145987
24976000.0 0.9701506246760482 -0.2097612019480093 -0.005317998729038507 -0.0027888075462542813 -0.004000146414132521 -0.00173847430170904 0.055316221011175816 0.25377156145479096
25975000.0 0.9606455095174603 -0.2215065288246357 -0.007664250133978919 -0.0015518681342833645 -0.012759480757520536 -0.02452898900991362 0.08261507437093724 0.2629415158033712
26974000.0 0.966155017180573 -0.22687098867375458 -0.0038615250283383414 0.0024805733203468456 -0.0025593853674932433 -0.003001098071633361 0.09339834471526502 0.2622121870989381
27973000.0 0.9656863100423404 -0.233690187643403 -0.004841219903740923 -0.00032333235472456045 -0.0013053324988357396 0.0005854237652668743 0.10395079751058477 0.25559863565151014
28972000.0 0.9607162334787028 -0.24639323923455053 -0.0045394307781859156 -0.0003928149042327807 0.001891921490896764 -0.0007075186548126958 0.11499663159549907 0.25454932970190486
29971000.0 0.9605735835928038 -0.25333371440982505 -0.0036186344833287133 -0.004031331014573764 -0.0010675975815684692 -0.001971591661559045 0.15123958009198224 0.27199161085886614
30970000.0 0.9584256722147371 -0.2585982725091747 0.0006021079255043405 -0.0007224489604794649 0.0024630124236482806 0.002092657719779855 0.16852652750499578 0.25655531391126535
31969000.0 0.9572234480407239 -0.26814404693564886 0.0032823896447901468 -0.0058502699358127415 -0.00155075138563355 -0.0006588696267674091 0.15676720088446158 0.24789939397838565
32968000.0 0.9554577503247175 -0.27555969775972305 0.009966878544073793 -0.007772652583267917 0.000961739811126467 0.0008096491121068606 0.16928870678787808 0.2418179555245802
33967000.0 0.9520907664944772 -0.28594729433404137 0.008637964928040795 -0.00696162031286806 -0.00016222623191416066 0.0015887144993405621 0.18777136592663143 0.2349155044756456
34966000.0 0.9485821122354275 -0.29668466694451023 0.013533596876261106 -0.011813993431556312 -0.00034399157520282497 0.0005062651159851715 0.19944108555402035 0.2455581833008909
35965000.0 0.9458712006396924 -0.30432892994493116 0.014248829287855955 -0.015280976899908537 -0.002942938390317368 -0.00031743636896269437 0.2098047879277118 0.25217851762512977
36964000.0 0.9448896905224032 -0.31283026163956257 0.01648426139439218 -0.01599940528055189 0.0008083757748508861 0.0007698659915571214 0.21542997661715665 0.24028692410685049
37963000.0 0.9388106640924263 -0.3235590639069434 0.019688554928009902 -0.018942925803759485 0.0005935148643042718 -0.001774620568797421 0.2305721276097341 0.2329860162810646
38962000.0 0.9379474904397069 -0.3334667216197978 0.024026602186518763 -0.02253814014533524 8.178617513576369e-05 -1.9546939820907796e-05 0.24210391526232616 0.22828812904891135
39961000.0 0.9337790672385523 -0.33943060481208714 0.027606565260727158 -0.024614017132626124 0.003688576752507173 0.0035944468015347833 0.2526210831701022 0.21946392693780983
40960000.0 0.9321213461405027 -0.34771280720476344 0.021519393715581644 -0.02403666545371436 -0.0012418429940104082 0.00018450535826166386 0.2658770462598029 0.2193236464979611
41959000.0 0.9292276229985281 -0.3570771360665723 0.02976444958562789 -0.03305320759192088 0.0006665355126903754 0.0006944670807263499 0.26613426245534816 0.2150597721293963
42958000.0 0.9236250786786869 -0.3661691162356397 0.02922298678562344 -0.04121863308829246 0.0013291159724868888 0.0008283929839328865 0.27871557733429586 0.1989927984430847
43957000.0 0.9228439910932118 -0.3730184720950855 0.031149550734294793 -0.04819863058274161 0.0020299564930678763 0.0014239563261742156 0.2909992140378642 0.1990059075362972
44956000.0 0.917479479319988 -0.38053447260363116 0.03237052119031275 -0.05458059966799113 -0.000665930816361232 0.000734227131984009 0.30195938692075813 0.19228265075258316
45955000.0 0.9149461263298414 -0.39163810478427397 0.03300643307376532 -0.05949043156842158 0.0013796141329252218 -0.0012702934459143636 0.3082438444081544 0.1840380294463117
46954000.0 0.9111388852947625 -0.39818147474338594 0.03291984750645268 -0.06805437480024265 0.0034183709491497154 0.00013803546911671965 0.3182561126523911 0.17284531577508414
47953000.0 0.9071476363002989 -0.408589594244372 0.03354035248639709 -0.07532862092517183 0.003906390301086822 -0.0007913013315259912 0.34193964510092617 0.16687989643229245
48952000.0 0.9016796512794084 -0.4187161255810961 0.03555423237643775 -0.08108093374500731 -0.0004815171454264282 -0.0030852219596587183 0.33317949753899034 0.15629042559499903
49951000.0 0.8987659347484144 -0.4241479357910502 0.03372181352736183 -0.08978954188248116 0.004357226256900583 -0.0005643847040070615 0.34945992887177235 0.14798608511253958
50950000.0 0.895702775134101 -0.43196157753910247 0.03802756223670449 -0.09528752699977877 -0.0019459620990949589 0.005243141564452169 0.3509530298000684 0.14249252321491235
51949000.0 0.8919675245478079 -0.44068148861173606 0.03685872291577332 -0.106348349213461 0.00024510538457785255 0.0037624485264645077 0.35456014383391976 0.13573164835612261
52948000.0 0.8893525445223925 -0.44756360638857334 0.036555027715244263 -0.1136654042200076 0.000912138782715076 -0.00035177403578584267 0.3634213173784171 0.1394839639526201
53947000.0 0.8825313303039739 -0.4584029189969215 0.038459134889239265 -0.12413707310800146 -0.00013912802348539356 -0.001931298121243079 0.37113162645630227 0.12379977404219984
54946000.0 0.8761316911069601 -0.46563451814492723 0.040055719450555305 -0.1316905980888097 0.0011104508161980113 -0.00037982238163274503 0.38023296368141185 0.11076320908609551
55945000.0 0.8743684479251892 -0.4750627001753512 0.038578920405772016 -0.14558643624694267 0.0003578499680694714 0.003225013613239125 0.3842756716098379 0.09759835502900675
56944000.0 0.8707099364777348 -0.4826970801112631 0.04244892646576205 -0.15501208459776394 0.0007567628001927802 -0.00037564189654560936 0.40403877426128537 0.09865933988856851
57943000.0 0.863987103500905 -0.4937598676534135 0.04014910799184023 -0.1643111784038431 -0.0002280743082371919 0.003136860961276908 0.40026492684377096 0.09424833909300852
58942000.0 0.8586565553313478 -0.5004484242272164 0.040335097473904964 -0.17598394984989563 2.001015862439147e-05 -0.00046099786145733547 0.4187132800094535 0.08682856688881227
59941000.0 0.8566621308977205 -0.504837921069502 0.0454343427891398 -0.1842524481321183 -0.0028737666851613524 0.002342406293570083 0.41745401720045794 0.08300480502603322
60940000.0 0.8480913228525399 -0.5135619699892399 0.04317900627990714 -0.18806065082778411 -0.0005759196787368056 0.00010181342655904802 0.4040941151143694 0.06021994300217148
61939000.0 0.8452746654742428 -0.5206077308227445 0.0425879751444352 -0.19503991547626082 -0.0017898759571270135 -2.3028194776335896e-05 0.4119930633347849 0.05659513697863018
62938000.0 0.8377980670722401 -0.5317649872378006 0.047830068654062696 -0.21441918454557102 0.0008096746711342673 -0.0015020014848277 0.44144372643615276 0.048910468909254365
63937000.0 0.8354432455318721 -0.537499694683794 0.05052868646516453 -0.23555867831592428 -0.0014613594565458978 -0.0028162542948682525 0.43694230546693186 0.02510711312458013
64936000.0 0.8279951273726529 -0.5452380016507876 0.04719424905905529 -0.24850329045837977 -0.0010558065375439786 -0.0028137521781030034 0.43626166307660547 0.03276581198792366
65935000.0 0.8235417358089291 -0.5555793846227701 0.04728893790151629 -0.2592341508238383 -0.001006578346798567 0.0024579045936081946 0.44951948113771123 0.013103296290738833
66934000.0 0.8196541639675597 -0.5611432030245405 0.04930014841603623 -0.2736851985994252 0.0030313627330861063 0.00010387690619541583 0.4317189070309103 0.008451549341759327
67933000.0 0.8156494910370695 -0.5692089477160118 0.04682583665264026 -0.29032563990806987 -0.00039907017417255747 -0.004820782711276965 0.4403058665824377 -0.0013553767367650085
68932000.0 0.7975252592803597 -0.567007288760731 0.042003342659320514 -0.29569709969663843 -0.0030017846450711093 -0.002773836507621766 0.4495833482070252 -0.02274829387560212
69931000.0 0.8013850312284356 -0.5849232182611657 0.041096337166216745 -0.31474459795771015 -0.0009368203073246641 -0.0014493273070925428 0.4396277794839803 -0.02795324087373091
70930000.0 0.7963171331204133 -0.5921305069120202 0.03859678169499976 -0.32856099627356644 -0.0027969440872561415 0.00028590348409718346 0.44832015451679036 -0.04525425155199455
71929000.0 0.7920605609381447 -0.6012202025043334 0.037440884470777355 -0.34539178838691986 -0.0005586002817920146 0.0019876005401251733 0.4399662120698821 -0.048374668212707264
72928000.0 0.7852063101777574 -0.6094688618371173 0.02802393118956881 -0.36379819155419013 0.00048099521329060096 0.0004305324162110553 0.46308425566750616 -0.0625273381579756
73927000.0 0.7791443154326387 -0.6139563616430771 0.022618958571766035 -0.3827619198561069 0.004058387607602834 0.0036656520362216257 0.4597449763493598 -0.06325048049593467
74926000.0 0.7731997888695151 -0.624346481587057 0.01546807522427926 -0.39977151616829343 0.0024507140996672156 0.0038627138463381296 0.46013560060856107 -0.06351387761118633
75925000.0 0.7667118980286266 -0.6297872540107022 0.005487276970373002 -0.4201235332544589 0.0015158037856370177 0.0020113629662366975 0.46235651741740935 -0.0900911550966292
76924000.0 0.7611741787310696 -0.6376027249330743 -0.009847304166537238 -0.4410589803872739 1.1417753353346449e-05 -0.0005892761167547198 0.46073076229334137 -0.1029246833397926
77923000.0 0.7532529990128584 -0.6428937077426835 -0.02446649078438252 -0.46493209922093753 0.0035619208744021623 0.0014908481886155066 0.4586745111105978 -0.09953658895830286
78922000.0 0.7476526798436716 -0.6542468728458518 -0.03685880537943761 -0.49246801232389786 0.0035791735207784327 -0.0019869191558436693 0.4616311026717518 -0.12273451162188481
79921000.0 0.7389306249528227 -0.6571108793474895 -0.05933349276908936 -0.5157136763125644 0.001637427436883902 -0.00014107931380544418 0.4555246077427851 -0.13545197619002006
80920000.0 0.7336413676339639 -0.6664560912356995 -0.07126239831786259 -0.5475534045351068 0.00023045366661261443 -0.00041323555218156384 0.46965457064775845 -0.136232517849703
81919000.0 0.7303190193654506 -0.672762496040086 -0.09516452152430939 -0.5729274970439534 -0.001435388475452234 0.0017575031780167317 0.46286420327995864 -0.14108536683160713
82918000.0 0.7183743740437041 -0.6813058034115931 -0.10322846428807302 -0.604720974061365 -0.0003089065588056308 0.0014585984377325596 0.4672225267463311 -0.15609747994370027
83917000.0 0.710861643358785 -0.6882895825640888 -0.13412463275656317 -0.6289204497580891 -0.000526030055176818 0.0013274454340618579 0.4657746855151368 -0.16842284122789114
84916000.0 0.7058509031237047 -0.6961354983596586 -0.14913783461405905 -0.6653596440442038 0.0025464343413311467 0.000738936732890177 0.45979040841001534 -0.18189344610279745
85915000.0 0.6996293456939393 -0.6998588955081377 -0.16890275095451687 -0.6937626993619622 -0.0031153040953695796 0.003209188322095405 0.45276305474689355 -0.18797675005505737
86914000.0 0.6921819370167952 -0.7120788016930973 -0.18236078311960888 -0.7341136237545269 -0.004382600711119721 -0.0010983863067800489 0.4700870209509266 -0.17630109937967797
87913000.0 0.6862040357521331 -0.7169300695761652 -0.2022459678350867 -0.7612059180796278 0.003984376470208965 0.002911888545093227 0.4494128368916324 -0.1939809868363778
88912000.0 0.6790498550844978 -0.7243862413483034 -0.215292840804997 -0.7926011058648065 0.004191317170378667 -0.00015683790763066177 0.4630154287332448 -0.20819103263822267
89911000.0 0.6694465720755728 -0.7329494721699887 -0.23365486191732251 -0.8284730706229364 -0.002303173139329477 0.0029942789033039663 0.4661381711508238 -0.21696367852745607
90910000.0 0.6633766457466557 -0.7368802420963096 -0.24610326992450177 -0.860578594250094 0.0031440826286787647 -0.0007035140983238567 0.459202751976709 -0.2364534508989392
91909000.0 0.6539762928047967 -0.7418576035124899 -0.2690611128535561 -0.8922655246388298 4.348117977732201e-05 0.00032194362022717923 0.46424633197896964 -0.23719878709022163
92908000.0 0.6464796585497826 -0.7517652267472583 -0.28456691148796825 -0.9215960137447421 -0.0018999120110603607 0.0007454730595618975 0.4556241949873757 -0.24685999572653694
93907000.0 0.6404120642752295 -0.7563830043805448 -0.30074902052841523 -0.9547305707125958 -0.0012868867265126034 -0.002542490881640616 0.4654722178155681 -0.2702507788459754
94906000.0 0.6271864781495233 -0.764296717509239 -0.31844567748384844 -0.9878423447154171 0.0015992409662100313 0.001355970575822206 0.45184581277488706 -0.27017910642720266
95905000.0 0.6216931479491757 -0.7711616956067283 -0.3464943443760507 -1.0204701308139354 -0.0005132936434323851 -0.0016755578190659095 0.468280916854441 -0.2811405173787017
96904000.0 0.6130985272397899 -0.7790860702710586 -0.36485010281744595 -1.0502053186092228 -0.0005602336733586535 0.0013937870941733066 0.4383454645711462 -0.28934679786703366
97903000.0 0.6035200466179343 -0.7836982462888931 -0.3853078098347616 -1.083963393856702 -0.001060712744539075 -0.0016064184872169463 0.4408185161128607 -0.3070446117049695
98902000.0 0.5997221690608532 -0.7920890901830081 -0.4058109673695918 -1.127183669384256 0.0004186372059573843 0.0017450283774781987 0.4461424244534505 -0.30938689103579875
99901000.0 0.5906159319956461 -0.7974060256688023 -0.42856610088741726 -1.1553618337707698 0.0004118818375164455 0.00010737329882739175 0.46455665481432756 -0.3232050686247381
100900000.0 0.579174077879433 -0.8013267142199295 -0.46460039989705876 -1.1767456289039246 -0.002580929608068415 0.0022374400585257735 0.44314618973270603 -0.3257320238576253
101899000.0 0.5719165652163706 -0.8077359802566114 -0.4917224243459102 -1.217130262375963 -0.0026588388569821274 0.00037668196452972743 0.44450069027327094 -0.32890999392019943
102898000.0 0.562054097172035 -0.8143979830317168 -0.5271231239814949 -1.2541282091556627 -0.005056066591995813 0.000786761153212234 0.4490277208087637 -0.3530339782333805
103897000.0 0.5534812860875805 -0.8228941976948422 -0.5651545525109856 -1.285228543925207 -0.0013388523792195696 0.0012462413518488694 0.4453580029846253 -0.336128866261954
104896000.0 0.5454120657393042 -0.8308660266468867 -0.613586947930857 -1.3176608093124327 0.0017283664693232715 0.002690003944498782 0.44350003209185673 -0.3555581423614457
105895000.0 0.5364511411606259 -0.8336459469279882 -0.6567412719690007 -1.3592222884931437 -0.002435022206368611 8.478399691417734e-05 0.44657246661979966 -0.37125958051625807
106894000.0 0.5270461976921015 -0.8383461643612967 -0.7083815701191343 -1.389052999111463 -0.0009278108197451618 0.0018634335391488506 0.43596266466226014 -0.38365663729640037
107893000.0 0.5184841642238258 -0.8454365281173513 -0.7580874117028948 -1.4271758051528218 -0.0005414407442237795 0.00321494686365411 0.4335616517274076 -0.38436980791472436
108892000.0 0.5079766965543963 -0.8497686445907984 -0.8225602165433779 -1.460805038793374 -0.002684659247277212 0.0011872138891155855 0.41681597474050835 -0.3848610394559573
109891000.0 0.49682324725892957 -0.8580469258939701 -0.8786109135990793 -1.4966729158719323 -0.002587149697693227 0.002973275133876084 0.4357114115664219 -0.387178882142087
110890000.0 0.4886659476962156 -0.86775754768608 -0.9511354963647957 -1.5137948422606327 -0.001847633517817617 0.001856284317941866 0.42878559407315214 -0.39667788288274153
111889000.0 0.47772791654063784 -0.8640339889302627 -1.0062070119341398 -1.5660968925435519 -0.0006984261283217955 -0.0021052490371778884 0.41470142519894226 -0.4076070936060437
