! Created with skrf 1.9.0 (http://scikit-rf.org).
# Hz S RI R 50.0 
!freq ReS11 ImS11 ReS21 ImS21 ReS12 ImS12 ReS22 ImS22
1000000.0 0.9797893869555826 -0.0017350404733643778 -0.004461177670796747 -0.06060294664397173 -0.0140178792821541 -0.013828256034690522 0.3169097428740557 0.32393825401069853
1999000.0 0.997616341518193 -0.013384799434280444 -0.001151316229926763 -0.01909528461685783 -0.005573015848708158 -0.009368627566839644 0.24734104798931206 -0.06386663583937104
2998000.0 0.9971987183836686 -0.023109580648053216 0.011809072539221178 -0.0156770641082255 -0.01005555393578651 -0.0006717111740155969 0.19283216721951393 -0.1331918176819635
3997000.0 0.9966961481455483 -0.02960222133619987 0.013113749454623616 -0.010099803071909809 -0.0001398219826547186 -0.0036739782216730008 0.08899146985071066 -0.2042296362442289
4996000.0 0.993317314173272 -0.04063175512683867 0.011562323304775132 -0.0015271883904593698 -0.003255077900663698 -0.0030783166016527296 -0.03457674345680738 -0.19495771261525444
5995000.0 0.994734664696805 -0.04943283241626782 0.014540068987917735 0.002050702812084905 -0.000902743443516368 0.0025707252558739547 -0.1268852212050334 -0.09754347086176367
6994000.0 0.995133631806319 -0.059877511511883606 0.007940870616831028 0.0034402772650543177 0.0026698198975740636 -0.0062905862373086995 -0.1466707614864667 -0.0274772483744277
7993000.0 0.9949012616882682 -0.06768889326899999 0.001678473301657533 0.001818273918534515 -0.0014474407074449509 -0.0020918214524502945 -0.17070694485938684 0.05306955656668208
8992000.0 0.9936147041413619 -0.07407947401327865 0.003046499787927565 0.0022365373807198712 0.0011055800335558943 -0.0019373024395283633 -0.16406639806936862 0.06085500628135273
9991000.0 0.9908079129449643 -0.08269871528345561 0.0009562499316912608 0.0005111160167177889 -0.0018685861908212212 -0.003430635314205262 -0.1453264238777243 0.09811660866031807
10990000.0 0.993584168427084 -0.0907631106400619 0.001614357616622818 0.0043209913433553526 0.0013397014212881177 -0.004416795448365093 -0.14099672715187198 0.11232892335663405
11989000.0 0.9875820451978374 -0.10057150150443525 0.002750765366791281 -0.003095770090003718 -0.002792466123038079 -0.0023533153963259325 -0.12401155121453679 0.13646621191109656
12988000.0 0.9894519868946406 -0.10970319143601881 0.002523219243505704 -0.004187688954447609 -0.0015632717441181466 0.001554329892314308 -0.11536142038965955 0.16992552930822447
13987000.0 0.9840481090790554 -0.11745645407101094 -0.0024689049746735078 -0.0051084743216084005 0.0013874240905829309 -0.001975289229396578 -0.09921102080287501 0.1790335567625843
14986000.0 0.9872494172765565 -0.12530510203539078 -0.002417784843124164 -0.0002717046119963042 0.0022494955894476728 0.0006007451294679518 -0.08742435581400387 0.19784330090843727
15985000.0 0.9872817253588377 -0.13506490111230474 -0.004158387835760599 -0.0051928788160227925 0.0015075652411452255 -0.004039981213804185 -0.06479414511113855 0.2116784118550513
16984000.0 0.9840724631602907 -0.14596687852262347 -0.004271814545960552 -0.003811119588443775 0.0009432131384028625 0.0005551671412765912 -0.061236006506992624 0.2139726146502995
17983000.0 0.9851387422904345 -0.15035124367434083 -0.0023729601252241847 -0.0039035335325568834 0.0034741915195625017 0.004596378742270919 -0.05689232519013956 0.22966766983191042
18982000.0 0.9808484429355743 -0.16128984926479215 -0.0033208443184622478 -0.004277885055846757 -0.00020179663795569447 0.0002496323062000957 -0.028771628675859084 0.23813382481348275
19981000.0 0.9817119233163529 -0.16731362850499398 -0.002845374747286777 -0.009987619912471775 0.0012059510145577424 0.001836121927048188 -0.009704956423803267 0.2456982479934525
20980000.0 0.9800093863972389 -0.1760383280916611 -0.001982018463589851 -0.00854994303240021 0.0007572890520430555 0.005678943721746125 -0.005221454486931615 0.2555700584583243
21979000.0 0.9772893689346885 -0.1870022473694853 -0.003996642861152956 -0.0027932509152052763 -0.000285561467807608 0.0037993784294898243 0.014233684445772618 0.24610059522093433
22978000.0 0.9758099816510454 -0.19618333036266478 -0.0037142973951627307 -0.0035708651961096705 0.0013776295071986889 0.0030104145012598347 0.025556893752769188 0.24857375903081497
23977000.0 0.9758575594480016 -0.2018075949343589 -0.002408716928770224 -0.0016888915551792367 0.002250156079108799 0.0002897319595949277 0.035255296256695996 0.25334618979375356
24976000.0 0.9728232025873788 -0.2117630421783642 -0.005802612844938099 -0.0006995635226163398 0.004706982403133189 0.001650424918102759 0.07158708329800341 0.25506062688877473
25975000.0 0.9690859555182834 -0.2280251265501584 -0.004670089121825676 -0.0001034387968641457 0.02619657645583221 -0.006787512611865813 0.0698499780426663 0.2545721247401
26974000.0 0.9690054356372975 -0.2295843614129049 -0.002161107305367629 0.0026073117525886058 0.0020612186625435375 0.0004108340852256909 0.0922913179386012 0.2607381812896723
27973000.0 0.9678688416858457 -0.23417215094604948 -0.0031648097120366247 -0.003791240205051463 0.0024487452023804327 0.00048038086709902765 0.11051194089938701 0.26366651030544325
28972000.0 0.9655992011120291 -0.24409745459920518 -0.0006280120052414836 -0.0018137821078050061 0.0008155619992506908 -0.0016630608294849638 0.11212699396789981 0.2494186176766333
29971000.0 0.962691406026862 -0.25528864359979575 0.0027306598646716033 0.00017570531902563437 -0.001106687466024865 -0.0007892647381503011 0.1447234657174951 0.26838548905579274
30970000.0 0.96084484326424 -0.2599117032965583 0.002878486457673185 -0.0015609214638770518 -0.0016360006101958692 0.002438463438610213 0.16321798388106357 0.24220951994255072
31969000.0 0.9596953282473005 -0.2682426078017922 0.004910588857398148 -0.007521265647196432 0.001108510874097643 0.001545883693881037 0.1456824231118769 0.24499278586369042
32968000.0 0.9565591999085234 -0.27940399468040095 0.009346460273416856 -0.008875547042196357 0.002735456102620051 0.004629638645039019 0.15812404188158327 0.24085891301762388
33967000.0 0.9563073680814587 -0.28859595117415215 0.01313096163711501 -0.011908649130132853 0.0019684275133159605 -0.0011935916556849516 0.18776367880441955 0.24109009481899243
34966000.0 0.9521066857829228 -0.295015292717952 0.016705213850431885 -0.010936272850077339 -0.0008636436471356501 0.00208362882115463 0.19080657105419432 0.24797862300315462
35965000.0 0.948621403897902 -0.30402520138431555 0.016521218274581737 -0.012954975828755004 0.0013413779070423418 0.001422005229068693 0.21579225123910978 0.2471055883830978
36964000.0 0.9467266396845679 -0.31262702095558886 0.01780422147786722 -0.01606272508813656 -0.00016884378351319257 0.0019788489028829868 0.21595879382391794 0.24586334162725132
37963000.0 0.9421907305580786 -0.3243557223580835 0.0240314084741752 -0.023699643821107112 0.0005096828263651142 -0.0007213251322208792 0.22953603319487786 0.23551645188852505
38962000.0 0.9424628547795755 -0.33087282091270753 0.02343937151721096 -0.02280398737782846 -0.00019861043725423735 -0.003609485054632403 0.24237762600582893 0.23380894161853286
39961000.0 0.9384162413097484 -0.3400734528761161 0.02532937622080204 -0.028337947434933744 0.0013657470930957165 -0.0014108711281334665 0.2545820272893627 0.22591075159504515
40960000.0 0.9341283663868117 -0.3443212714566243 0.02301207334150687 -0.02351692962240413 -0.002292979244012963 0.0012796403483110942 0.2664107318315033 0.22600754571253331
41959000.0 0.9321579646395085 -0.35585508415804445 0.029066890447549645 -0.03284796356914911 -0.0014791416657629712 0.0010052396885837443 0.26523186175087754 0.20945716390031488
42958000.0 0.9266444917350017 -0.3642041814287425 0.030461908070176645 -0.04192909107486242 -0.00439109495418108 0.0007463228850882521 0.27449023498728076 0.20763056407144728
43957000.0 0.9244354344055086 -0.37152883147273863 0.03308741682074612 -0.04664218857579699 -0.0008697924211680274 0.0004780147395882901 0.2815738770260494 0.20529698305751887
44956000.0 0.9210961072964988 -0.3802715979576133 0.03382139084650967 -0.053479307862552145 -0.0017944908723205586 0.0004997027140802828 0.3026557785660565 0.1944112185049365
45955000.0 0.9172539143138965 -0.3900354970279435 0.036224006296839986 -0.05994156680773784 0.0003804320564901161 0.0030613693575679006 0.30081715676919507 0.1928516558686948
46954000.0 0.9141480252419436 -0.3982370335255813 0.03618320205559817 -0.06813146323369076 0.00257662467925384 -0.0033223697130752993 0.32682585388265356 0.1770030612274103
47953000.0 0.9110740556169646 -0.4047055938131523 0.03869536515680587 -0.07263021793304392 0.00019811727341307548 0.0008631862604747417 0.34351446168849553 0.1711590029646794
48952000.0 0.9050955434151854 -0.4164059139205038 0.037732669401927994 -0.08345945631289965 -3.425448823142314e-05 0.0017874071657746292 0.33009919657935316 0.17014038093781722
49951000.0 0.9024596306681475 -0.4211506586179235 0.03775957368319383 -0.08764888400837433 0.0009296339217333045 2.314046711275148e-05 0.3512315288997985 0.1581348719533742
50950000.0 0.898445231303799 -0.430985748067686 0.04280221166355967 -0.0935914190961855 0.00014876833981535052 0.00191626045659054 0.3492444502798558 0.14625992723135525
51949000.0 0.895278740928008 -0.4398618429056566 0.04045524137948947 -0.10624841848671086 0.0018624366778134448 0.0011536506887421425 0.35415312481203154 0.13736657970508537
52948000.0 0.891929146398122 -0.44703042276730703 0.041658481988943105 -0.11385661281360386 0.004962674113391735 0.002941125722367468 0.3647243252264786 0.14312240160467493
53947000.0 0.8856415342614417 -0.4544029744544369 0.044349033261344144 -0.12390813205384944 0.0017499167564332745 0.0007171340132625475 0.3675163816423202 0.12940467840668066
54946000.0 0.8808854762097336 -0.46616495588552226 0.04691412542259342 -0.13519442124112657 0.0005308381113815619 -0.0006445060980951665 0.38861895798386314 0.12178743357397921
55945000.0 0.8793629100862022 -0.4728653952984145 0.05122678306793671 -0.1453635247868961 -0.0009357676913788375 0.0008536234907378784 0.3969522550940062 0.10447076625134419
56944000.0 0.8732847254766326 -0.481536456739469 0.04938434307712035 -0.15279359604316298 0.0016115364386472763 0.0007503209426725693 0.4056668136851132 0.1049162740894741
57943000.0 0.8700971135733919 -0.49053643750617754 0.05167752041224753 -0.168076335812903 -0.001138696360955916 0.0036075484811336567 0.40181409326381334 0.09923074174765345
58942000.0 0.8621303653510003 -0.49817852974787113 0.052391149013291054 -0.17779221287547192 -0.001661298313573092 0.003617001250237439 0.4147096622407891 0.08929017144731352
59941000.0 0.8608426757684967 -0.5032962772768489 0.05461895847489386 -0.18747429901553928 -0.0010714845403429264 0.0013639448004674193 0.41787758533710895 0.09554845139675071
60940000.0 0.8523844994179446 -0.5114787609314975 0.05437267113300596 -0.19065070139997384 0.0012358533934610364 -0.0018928093249112132 0.40531059074967685 0.08469801895267673
61939000.0 0.8500618612702092 -0.519362676040383 0.054679928847546896 -0.20111752830053678 -0.0006087154298472006 0.0015366564973691868 0.4160319569175192 0.06844804573206903
62938000.0 0.8444484606525876 -0.5282474337945005 0.0597872530709577 -0.21713447906189207 -0.0011941110847848366 7.839209142497031e-05 0.43687353069397933 0.060232201987198745
63937000.0 0.8413534520620919 -0.5362637024628846 0.05606814357035157 -0.23631662595250136 -0.00016939584243249757 0.0021714262911891515 0.43344970042313474 0.03922153673920457
64936000.0 0.832413676153502 -0.5449990881282395 0.05970204275754895 -0.2546924651009248 0.002669421842582509 0.0010460900947549415 0.43506822299338954 0.04824697984811346
65935000.0 0.8313616899734194 -0.5524174888519913 0.05925855634158657 -0.2671781701244902 0.0005504349434635499 0.0032429702970669157 0.44591050496650547 0.026548631333134693
66934000.0 0.8243218698998395 -0.559007312032528 0.05425489369728678 -0.28017797415676005 -0.004052790961707054 0.003950077672654756 0.43881278757153275 0.01328277899013857
67933000.0 0.8215007065487769 -0.5662673117705632 0.05996411628064595 -0.2955487390126562 0.0020240224861097396 0.0017104918258273407 0.45174041454877795 0.01931570508788954
68932000.0 0.8165736213129255 -0.5607648320427152 0.05724813448540522 -0.3081451173054523 -0.0016209650152901765 -0.001069530716122879 0.45189940089614067 0.0007045892911055642
69931000.0 0.8056407716681515 -0.5845074619506112 0.05439403856680138 -0.3273435553439739 -0.006054293219944541 5.344492127003648e-05 0.4400538162890039 -0.014599766050645903
70930000.0 0.7995030150024403 -0.5919609939810291 0.04559078484394526 -0.3410007117024877 0.00021919344835551478 -0.0007593615156188904 0.44800999693594645 -0.02908159180552598
71929000.0 0.7973521737724384 -0.599596295606775 0.04554468998912372 -0.35912078354788185 -0.0017298301122325524 0.0005868767344021363 0.44030225271658857 -0.03025242368715908
72928000.0 0.7911822875570336 -0.6061890369389894 0.03913721051208364 -0.37902451384855473 -0.0022719609926802192 -0.0007680028069379139 0.4637623373598272 -0.04958998949495586
73927000.0 0.7846735701602708 -0.6121618246117073 0.032434966498667825 -0.3978732828010104 0.0034231174742957375 5.623312339867882e-05 0.45842768021111335 -0.05719189672626036
74926000.0 0.7790341805457108 -0.6215787204397144 0.02464053796722467 -0.4177137014900227 -0.00276971869857015 0.00010700635923099536 0.46019924870409856 -0.0653218558079394
75925000.0 0.773769338275973 -0.6279072893421153 0.01640534181711695 -0.4380745423336804 -0.003094085199070981 0.00151908960765647 0.46968167258427945 -0.06923579224240688
76924000.0 0.7666504455401497 -0.6363421191914691 -0.0002469797207602101 -0.4638439637760284 -0.0023182832083168334 0.0035350556645880713 0.4629573546085947 -0.07732632378958598
77923000.0 0.7625826193760705 -0.6413150957326135 -0.011342072167364249 -0.4864133285834592 -0.0006712268977454336 -0.0012413411295880926 0.4581828000430792 -0.08477015627379575
78922000.0 0.7559221435547947 -0.653176992978568 -0.02531507355693013 -0.5169634029958187 0.001357236104041894 0.0018206997202134076 0.4605386561811225 -0.09963320807284
79921000.0 0.7457364444219807 -0.6557247085956591 -0.04141562476788203 -0.5437398760558636 -0.002875021933064824 0.0023649630053969558 0.4551576104071878 -0.10672638951270982
80920000.0 0.7422628566266928 -0.667901233632924 -0.05803105160596253 -0.5676355944851469 -0.0005398489959639307 0.0008022681694780967 0.4689981765312863 -0.12960958498247108
81919000.0 0.735648709496824 -0.6739315833351762 -0.07673174094481651 -0.5994098203579731 -0.0016704619126502466 0.0006015861326367823 0.4715531552850932 -0.1304469871122857
82918000.0 0.7263215289455248 -0.680966529235641 -0.09054981049842042 -0.6312627967207478 -0.002675662631279608 -0.00035632790035848073 0.473251089832677 -0.1366960394787774
83917000.0 0.7181038156186572 -0.6869861709029708 -0.10634371637220376 -0.6585695053053614 -0.006088521858920103 0.0008024709972653814 0.47428888922677703 -0.14754112481959053
84916000.0 0.7148198886744025 -0.6950113861804817 -0.12302362050067302 -0.6956511430371595 -0.0018238687887153417 0.0052849450149031856 0.46064806552167115 -0.16158467112056807
85915000.0 0.7080481673817316 -0.7003346752777357 -0.1402742431744967 -0.7251311775891464 -0.000790781986621413 0.0004890834590252377 0.45827336663847545 -0.17202607229962985
86914000.0 0.6997120815414172 -0.7115473504363413 -0.15457662470029748 -0.7625514414262579 0.0014380688250527195 -0.0006145809137188454 0.4651230259312437 -0.163879638175594
87913000.0 0.6922429753941195 -0.7169814602411253 -0.1778472374844539 -0.7896354570712667 0.0012584571398002514 0.0007253044040172174 0.4578235072811091 -0.17442354273957464
88912000.0 0.6862962474221684 -0.7228017868401058 -0.18805836370653214 -0.8276533144282222 0.0057413049761636985 9.072403528808221e-05 0.46323572327638035 -0.20159696808634991
89911000.0 0.6771845637830045 -0.7335139908461337 -0.21033117619898467 -0.8624726322305838 0.0025655761295950803 -0.0020668705507970084 0.46205035249255577 -0.1980068341535336
90910000.0 0.6701655512311614 -0.7376058365577334 -0.22258049759202134 -0.9007734797803987 -0.001628431726027657 0.0025278927228952154 0.4628809656525291 -0.21159271792191275
91909000.0 0.6613410574344689 -0.743611553041276 -0.24735317256954772 -0.9277248629522546 -0.004070454730871892 -0.002422078174651396 0.4637203888838599 -0.21041316165677873
92908000.0 0.6531836146240784 -0.7519224748121468 -0.26437098680969773 -0.9693257913200631 0.0024562725372452576 0.0011462995100106886 0.4667862449321434 -0.224332819915297
93907000.0 0.6473106098604337 -0.7566201832347016 -0.2812360144896867 -0.998911998884765 -0.003007098775215607 -0.004268863510361604 0.4686409282655006 -0.23625947180896248
94906000.0 0.633187709113678 -0.765394772569275 -0.3035103132612052 -1.0327496717738938 -0.0005401703801448416 -0.0029958138287447334 0.45588184948227206 -0.2486316493220907
95905000.0 0.6278282771045441 -0.7715725474619607 -0.3251163373230706 -1.0701046371521952 -0.0012280265451059765 -0.0011754177576568591 0.4655122622298627 -0.2650329414726319
96904000.0 0.6195499176532345 -0.7798419159784055 -0.3470251917277958 -1.1092851736331313 -5.548344225982183e-05 -0.0034638327593629575 0.4415662644864567 -0.26882497531382127
97903000.0 0.6098612309554882 -0.7844361834116634 -0.372635173845862 -1.1429058776701013 0.0008304799269343105 0.0016512001865791992 0.4544046840335172 -0.2855343302974257
98902000.0 0.6071553469618431 -0.7928075637679322 -0.3952478303425974 -1.182766141370926 -0.0009820557087378671 0.0025748760742916087 0.4463901433764422 -0.291540980682578
99901000.0 0.5954212973888038 -0.7978760654950329 -0.42515634792935736 -1.2128180522833467 -0.0016171818142009233 0.0020301705802266493 0.4564165813866386 -0.3056085141440498
100900000.0 0.5880306256433282 -0.8014789630486355 -0.4576309948094138 -1.240477077786908 -0.005343313666859511 -0.0016136461269461691 0.4634811200286854 -0.308207237557711
101899000.0 0.579011240248716 -0.8085430113498252 -0.4851167850320027 -1.286845235217201 -0.002330114024128491 0.0003129201598630697 0.4441742337144089 -0.3060033815535666
102898000.0 0.5665239890978123 -0.8158799584606192 -0.530023896588266 -1.3190389093466468 0.001568984973486941 0.00020743086478589175 0.44710776621774395 -0.3444425865318911
103897000.0 0.560223855075319 -0.8231733633187776 -0.5717075213781052 -1.360145347881506 0.0011324023458168726 -0.002273323775965369 0.45271496136443445 -0.32759187613675445
104896000.0 0.5539219022896285 -0.8335007888537594 -0.6160118078418573 -1.3947665185070963 -0.00030960661295154643 0.002014820342754577 0.4437325739365882 -0.33938097483154567
105895000.0 0.5393910154279639 -0.8330746639050968 -0.668795413887802 -1.4332532366607946 -0.0024275515942273843 5.597276845498131e-06 0.4393553666259148 -0.3506072404871411
106894000.0 0.530193956223242 -0.8420009050127838 -0.7249260952628637 -1.4756499832897156 -0.0005481666332549433 0.002375744409797893 0.429761329741166 -0.3550906294864802
107893000.0 0.5242866742210256 -0.8481992685561902 -0.7749360635402358 -1.5162097427960826 0.00045126750922142185 0.00029094203754544286 0.4377529840861634 -0.3778216639747635
108892000.0 0.5132837755716817 -0.8506554124884409 -0.8371561194862622 -1.5553533981724872 0.00010116810763651162 0.0008807886800034655 0.42354073101155215 -0.3591263376295312
109891000.0 0.5012026138343832 -0.8593768692753966 -0.9027999176723945 -1.5940069648062136 -0.001443657758315591 0.0015860024162829016 0.4424485979944699 -0.36771577604275835
110890000.0 0.49231604223312675 -0.8748122072718867 -0.9820440699989313 -1.6163228568512957 -0.0006787539771289791 0.0015262195715609183 0.43033164887608083 -0.36885202944486223
111889000.0 0.4838613879376904 -0.8644537729479882 -1.0251307329260084 -1.6639658262448136 -0.0011951629831623543 0.0012265432072611473 0.42261970390359294 -0.39986429357275627
