! Created with skrf 1.9.0 (http://scikit-rf.org).
# Hz S RI R 50.0 
!freq ReS11 ImS11 ReS21 ImS21 ReS12 ImS12 ReS22 ImS22
1000000.0 1.0006582500896117 0.014210215319831694 0.0035202279322406713 -0.06641426755025363 0.0039781429514419 0.005893262442178622 0.30079780333445705 0.28455282991768915
1999000.0 0.9903769872834713 -0.012059170558327987 0.0012077587800706096 -0.026920810678247826 0.0009099947425093212 -0.004678209147247096 0.26324803861772533 -0.05727733135089829
2998000.0 1.0016965332614542 -0.020840992605789914 0.010756512732864303 -0.016159273224923457 -0.006883988826507321 0.00027688342378403034 0.17530625401579594 -0.13985683274316357
3997000.0 0.99730637178336 -0.03157482849676883 0.013986158511447732 -0.007502472012580797 -0.002497615839328508 -0.0019153332669891556 0.08352019198293646 -0.23603624226015255
4996000.0 0.9953899351221992 -0.03566903392067129 0.014480213951937099 -0.0022852152283157528 -7.958923355973352e-05 -0.003397753776320794 -0.046668663423070605 -0.2136736223690331
5995000.0 0.9959794345627444 -0.04724255332129893 0.007872331055471459 0.004022499155482776 -0.0013607691279113637 -0.004036291057087354 -0.130833293813761 -0.12452611054249663
6994000.0 0.9970288727055223 -0.05722123689510052 0.004543108592135263 0.003524751025684899 0.0024424819237738966 0.0021217205135544513 -0.14335301699406613 -0.03153529166170796
7993000.0 0.9976782569730235 -0.06752671362268248 0.0003315825625943057 0.008003105668247008 0.000745922723889457 -0.005163210021875378 -0.16273920565574654 0.036561483233406085
8992000.0 0.9947956799321648 -0.07233456933992274 0.005134299180993504 0.004945106589361794 0.004617832096638274 -0.0028727857477120295 -0.15275958904676956 0.0601662185817098
9991000.0 0.9926064565819286 -0.08118819688765012 0.002752155249285822 0.0032150613500100574 0.005086596895380448 -0.005338795699332011 -0.1571180962083283 0.09317053874498363
10990000.0 0.9946049044739926 -0.0907592466158688 0.0031022680280502644 0.002979434423080515 0.002808890192717489 -0.002502246253120485 -0.1338681155780166 0.10526280488658275
11989000.0 0.9910742491987444 -0.09760348215686353 0.005880106365041282 0.00020876512309767482 0.000836778931612734 -0.003541315799922121 -0.12662622400188556 0.13506630808985748
12988000.0 0.9899229558415542 -0.106606717527182 0.0034386043462463723 -0.001088424885086499 0.001258187657610293 -0.0024017916107641653 -0.11101103600270372 0.17371379341493415
13987000.0 0.9876922966358098 -0.1157510479057513 -0.0010658174654219392 -0.0050105928742416855 0.0013831745117034095 -0.003992490896404654 -0.08772345952942723 0.18129354003060605
14986000.0 0.9889788228102464 -0.12377243367510904 -0.00374157976624792 -0.0021963145728251593 -0.0002685399188074169 -0.0013419853114069117 -0.08982970027166705 0.20140031615544315
15985000.0 0.9909487913401267 -0.12981040515514125 -0.00042041100612545494 -0.0033387934531840364 -0.0034252628805168674 0.0008601140317151502 -0.06183377393351138 0.21652461074690657
16984000.0 0.9844458948232877 -0.1433757204814557 -0.0031714807505072787 -4.991019810247303e-05 0.0035858380471196828 0.002796270667304741 -0.0632058598901513 0.21467352195039466
17983000.0 0.9867615898545162 -0.14714922851237575 -0.002070935076828152 -0.0032803338056610603 0.00043914210006294036 -0.003416168676185693 -0.0607199841067312 0.2271972269044856
18982000.0 0.9842075401247353 -0.1568985862607359 -0.0049937393022338955 -0.0056553091585628225 -0.0016782727334860145 -2.8889263547334818e-05 -0.020341909494375813 0.23344547552739725
19981000.0 0.983609897220074 -0.16335288806665024 -0.008897864627753133 -0.005496721743364821 -0.00012124269686369235 0.003520031343164657 -0.012723199847476194 0.24050461791618324
20980000.0 0.9828755383195387 -0.17163126211467716 -0.004589743118021553 -0.002179269064015226 -0.0006614992726214754 0.00039332434758257586 -0.0030604865059048834 0.259522961303537
21979000.0 0.9788128250424104 -0.18302917991810902 -0.0058721411238426766 -0.0027391425252943063 -0.0021569986519183034 0.0009646184386184111 0.009004041927367526 0.2540075867890765
22978000.0 0.9791392766120385 -0.19148299342932235 -0.006373152922663051 -0.0005210859600636125 -0.0013317910584669734 0.0007574357897593822 0.036886816677350796 0.26117097800808864
23977000.0 0.9783667353213381 -0.19612635083962215 -0.005491734601667947 -0.0002229507794267355 -0.0012339244702654808 -0.0035270657187214493 0.0491058733679095 0.2536063944197481
24976000.0 0.9741238163149241 -0.20827692496541236 -0.00298609384244549 -0.006528414880298978 0.000267979761740857 0.003765047552544631 0.0586312217230115 0.2582378914027859
25975000.0 0.9750615362996419 -0.2123486479706953 -0.003615391398441847 -0.0004566244785342838 -0.00621585799062507 0.02479393576507938 0.07371025996510092 0.2579856077917666
26974000.0 0.9704062266651559 -0.2248049084417289 -0.005692609169277814 -0.0009043317608765869 0.0028316163982688453 -0.0027031640797323003 0.08596603545486581 0.26502224274468505
27973000.0 0.9719728449209994 -0.22897505569423637 -0.004600167915839528 -0.0018504908752221974 0.0007599176727405547 0.0016817514663863325 0.10470835997094685 0.2595282358630649
28972000.0 0.9676460263328391 -0.23964440594402872 0.0003086533746777756 -0.0026643204200900877 8.733538810337895e-05 -0.0025343254702235056 0.11861120140371226 0.2589376291417839
29971000.0 0.966289025658124 -0.24754099138864571 -0.0012785051138253767 -0.003373939857780864 0.0012547705852277815 -0.000466283381804596 0.1548856166639649 0.26782643299648995
30970000.0 0.9630709284925013 -0.2542431399223811 0.0018659362200042437 -0.0006782313485649823 -0.0034921062499529395 0.001995833259954253 0.17451392890502693 0.23967629856773742
31969000.0 0.9622905139316446 -0.26336074518077185 0.004525741971532003 -0.004811070157835324 0.0003777088209250087 0.0051179117240428675 0.1580098663892456 0.24565841252367637
32968000.0 0.9612483916394096 -0.27084902278510886 0.008571356548989856 -0.010107025650135092 -0.00017741436039570458 0.004650941294369537 0.1705401522752331 0.23949560549400545
33967000.0 0.9602566439797403 -0.2791995519745085 0.01192942227776944 -0.011511184070227451 0.0002459397036619224 0.0006928483784896128 0.18940487552260457 0.24881937998529507
34966000.0 0.9544032144818484 -0.2913289718595025 0.012772585838342657 -0.013308383437599346 -0.001787259558714653 0.0019648199814443824 0.19701027161977264 0.2436923647353429
35965000.0 0.951809048098849 -0.2985549921507977 0.014779236128204289 -0.013253991866482382 -0.001706346223390329 -0.0021537642660053495 0.2083967991508972 0.2545903468116193
36964000.0 0.9495804504059617 -0.30586156641822587 0.017823467951586056 -0.014326185606391702 -0.00010176017894155735 0.0015696380798713673 0.21392477046504357 0.24678905925198227
37963000.0 0.946633334169083 -0.3151108354673406 0.023674647838579144 -0.022475374872496786 -0.0016119277325696273 0.0012754036119883543 0.22550205623899244 0.2378719895447681
38962000.0 0.9449764341964613 -0.3242469750997548 0.023054528288254685 -0.02509011790119896 -0.0005490964414392021 0.0031823720995764787 0.24237622807713247 0.23194591108942159
39961000.0 0.941744590106919 -0.33014847278361137 0.025078512531601753 -0.027831528947082552 0.000463462143879009 0.0030089820382315467 0.2467084833782818 0.22380796562720476
40960000.0 0.9381634559737339 -0.3404439482402645 0.023969689206401395 -0.023390399343075022 -0.0022827376876731827 0.00026195457755399395 0.26563680174050214 0.22358869587275015
41959000.0 0.9361843484907144 -0.3496213979521515 0.028671221827532328 -0.03287536329968741 -0.002983667494763314 -0.0008265230883126082 0.2697024806611573 0.21213547848065883
42958000.0 0.9296180994599118 -0.35884702658171996 0.03541482103015405 -0.03924185700514387 0.0022323700592233775 0.0007434758716858367 0.2752510949731543 0.1967496415271946
43957000.0 0.9304765089508176 -0.36202630196119606 0.03364277607454513 -0.04591050323159193 -0.004616147259823161 -0.0007605873750307164 0.29013564204908787 0.2081151330820601
44956000.0 0.9264561094069067 -0.369450647053998 0.03319376340100378 -0.05224519765804492 -0.006534446591599959 0.0021230045832328474 0.29765036347406687 0.1871948042461539
45955000.0 0.9212955054509492 -0.38067017959892807 0.03309254278084808 -0.05728950589233372 -0.0024307145221542166 -0.0010854638739472631 0.31880095297182 0.17822939563736231
46954000.0 0.9183945939067673 -0.3906020919616585 0.03561365136833327 -0.06513266452053695 -0.0019726665902118573 -0.0020965140528176585 0.3242182165381066 0.17822448977020358
47953000.0 0.915108771622153 -0.39767226697142727 0.03481250418683571 -0.07003201118661057 0.0031224147204088953 0.0005357467677530509 0.3441198704335452 0.16985926444501062
48952000.0 0.9100011779555789 -0.40774745584179767 0.03866235498591949 -0.07709448826889471 -0.0003546914835399669 0.00328439903767618 0.33115693120359424 0.15655244579954014
49951000.0 0.9063591563243755 -0.4144589400615774 0.03623035310412121 -0.08603490722672219 0.0028267871589945583 0.002794596461073311 0.35307231668538586 0.1513766094824911
50950000.0 0.9041959842262064 -0.42058667648203246 0.03953386369103393 -0.09654953363024987 -0.0021446457313352776 -9.134292877283787e-05 0.35276914129637094 0.1349498919340845
51949000.0 0.8991446055459615 -0.4315194499887546 0.04006989952976107 -0.10024804311189747 -0.000237061806541035 0.002043776610732078 0.3614353007142442 0.1389516367755481
52948000.0 0.8978211576058374 -0.4381143617371089 0.03999294370912188 -0.11069090512286459 -0.001947264225299208 -0.0008428444423651821 0.37171438558275666 0.12373623451048488
53947000.0 0.8904609942776894 -0.4484488454506142 0.041406975103578395 -0.12007014686228897 -0.000247208409826348 -0.0010535850184522975 0.3684573400919941 0.12275529545128636
54946000.0 0.8864412763484032 -0.45547598333590955 0.04310885833687092 -0.1305376991835753 -0.00011219137186509313 -0.00018143741229147974 0.3816861898966174 0.11855444313564674
55945000.0 0.8848304423419323 -0.4614518484760684 0.045154395970383336 -0.13766347836866477 -0.0014233514418948137 -0.0010511121298186765 0.384331036762643 0.09248892898889
56944000.0 0.8809896042003061 -0.47146626729490204 0.04906981194060032 -0.15158288005930656 -0.0016889389324877349 0.0017285502146096856 0.39339249639804924 0.09368028214128515
57943000.0 0.8761996921835259 -0.4821641127370373 0.049251909609866494 -0.16426304587101 -0.002178690865714108 -0.0033132399496193917 0.39932191832917213 0.08272958901692902
58942000.0 0.8707712755495871 -0.48628915982134036 0.04922296751046812 -0.17230882408542922 0.0015165407180046649 0.0009905825500092838 0.41833805295903076 0.08661136225148035
59941000.0 0.8663899461918995 -0.4943017721550242 0.0501394178508269 -0.18256067237296805 -0.004231497253302679 -0.0016112369321089565 0.41565145251651386 0.07492147643734874
60940000.0 0.859378921509154 -0.5018328211175144 0.05183995231597267 -0.18820184140671334 -0.002392638062390792 -0.0001551127573854789 0.40657318892307787 0.06729954969358441
61939000.0 0.8562532265524025 -0.5092145994083437 0.051762961210518856 -0.1943018052647178 -0.0013222927364996374 -0.00023516598300838703 0.41757938197847716 0.05516515871121088
62938000.0 0.8506700638866419 -0.5197701091214237 0.05631500063794297 -0.21229665522798158 0.0004345779811704544 -0.00014906833851228158 0.43251195345546917 0.049685387239047245
63937000.0 0.846233999263372 -0.5263671204821967 0.055925448236526364 -0.2311570417901726 0.0008197167529394088 0.0014368268071063652 0.4326798091162003 0.027017895698409115
64936000.0 0.8395630566877519 -0.5324245239713502 0.05748846550197011 -0.24568108703290287 0.003216358991791892 0.0020224621293906714 0.4338728520087039 0.028479133670738916
65935000.0 0.8359309584973792 -0.544637270134585 0.05221477638912338 -0.2612128766709709 -0.00031988631759905173 0.0011253830975702977 0.43716345558493713 0.004296834584519224
66934000.0 0.8334288265528368 -0.5498028829751271 0.054001740408010916 -0.27495467967029735 0.0002837992981282385 -0.0021108910462188523 0.43294675842592645 -0.0014420383949488534
67933000.0 0.8294276786889363 -0.5554933231666088 0.05927227423909161 -0.28584774460346185 7.275714648928252e-05 -0.0009858464717590802 0.44281020140683547 0.0015010138066693691
68932000.0 0.8208842442977734 -0.5640392488016003 0.050617474863283975 -0.30313349132696443 0.0027966424268738403 0.0007284704085755282 0.45357698172783595 -0.027634542346606852
69931000.0 0.8150108738463402 -0.5717304049586877 0.05652347444020259 -0.31718453789781076 0.0026328167919230498 -0.00025575360164036936 0.4442010961206759 -0.03281661304888237
70930000.0 0.8099364379804932 -0.5788494533740797 0.052574013602735815 -0.33314531697220257 0.0025793173294455553 0.0031417299205090572 0.45682047439347767 -0.050050865348742805
71929000.0 0.806104653057942 -0.5899205964054273 0.04872920213093651 -0.34985659201953345 -0.00220033448852323 0.0007641157673489109 0.4455667350430191 -0.059650031471861244
72928000.0 0.799407921395499 -0.5956254970122818 0.04336620734113656 -0.36486596539230065 0.005156475848281529 0.00032058587580404704 0.4632897230583725 -0.05541152613623365
73927000.0 0.7936846479432212 -0.6036802109198586 0.04183581314433494 -0.38718444013802034 0.0021971012034925604 0.0018051141625148096 0.4607903922328272 -0.0704447654801779
74926000.0 0.7893493316164157 -0.6134348673076202 0.031315753592486416 -0.4039041985685401 -0.0005140861016906924 0.0009200394355164713 0.466707225968854 -0.08061938149388816
75925000.0 0.7815287079932768 -0.6177214038766663 0.02182041837195719 -0.42429379064602774 0.0004961609516983118 3.0372331686033484e-05 0.47728504679293854 -0.08832525304725969
76924000.0 0.7752073164538852 -0.624969313139746 0.0074899327597001625 -0.4446587999982292 -0.003750762782913867 0.0015753160288679295 0.46234553368031245 -0.09167579710516337
77923000.0 0.7718776566797172 -0.6315692539663632 -0.005033123375486269 -0.46868197041420007 -0.0019538790921785005 0.0008462079344042573 0.4692237730908087 -0.11052871855054364
78922000.0 0.7644076795305378 -0.641451857844171 -0.019774046030585624 -0.49594104101739783 -0.0011365874467573697 0.004813459934230009 0.4580912765727098 -0.12155330768837645
79921000.0 0.7565557764067189 -0.6452456635380256 -0.03849617063145541 -0.5206143133032397 0.0007096868798793773 -0.00029863024114626125 0.4509157060182081 -0.13731757517193838
80920000.0 0.7518637619365501 -0.6547024263057367 -0.0511254331775064 -0.5503580918800526 -0.0031441253764464263 -0.005665542353392623 0.4619026880444374 -0.14128769796880103
81919000.0 0.748262072801609 -0.662448536113289 -0.06838189868768473 -0.5790332888115046 -0.001962102140524847 -0.0009888897012795784 0.45659205038122724 -0.15194575393102233
82918000.0 0.7364496276808749 -0.6713770362901168 -0.07877695079659014 -0.6079623559606232 0.0006729144854616632 0.0012017952413106259 0.4662735602172692 -0.16002968986820118
83917000.0 0.7300104052533591 -0.6776924738801711 -0.10226587961249053 -0.6355491644358314 -0.00163713386267348 -0.0030876846964817844 0.4649903881723275 -0.15549359024521928
84916000.0 0.7244901062829997 -0.685350203022548 -0.12426747810691972 -0.6683332272406828 -0.004743381761998104 0.0005759141991892154 0.4542201541228029 -0.17806161948510174
85915000.0 0.719681426508184 -0.6896035895056994 -0.139743395653295 -0.7019302423113616 -0.0010497938262871336 -0.0002550930760201446 0.4620069676139356 -0.1928953905441388
86914000.0 0.71072694444998 -0.699550711913579 -0.15783081188829703 -0.7370391439290596 -0.0028345848668799105 -0.002368649136228369 0.45932023070925254 -0.19485908433070043
87913000.0 0.7037158744588231 -0.7061549534313655 -0.17666641968799346 -0.7684662671917524 0.002216479682943476 -5.884171890266197e-07 0.46397848074389964 -0.2026103980564245
88912000.0 0.6977946327395569 -0.7128371953881664 -0.1912277605623356 -0.8015461168587332 0.0011405507206572927 0.0024724589193165837 0.4618191304509276 -0.2213094964061623
89911000.0 0.6890563154771646 -0.7221072082239827 -0.20729432508928602 -0.8425771997714971 -0.00018120280185633666 -0.0010813875053372 0.4660726740739582 -0.22055951801169207
90910000.0 0.6844783712182002 -0.7266345050439593 -0.21823992419922572 -0.8744507340539639 -0.004642341170106454 -0.0016771041991583706 0.4531842718766683 -0.22024727106961853
91909000.0 0.6769185367983234 -0.7312604243406153 -0.24235127456380479 -0.9132469094249919 0.0034743758136391674 -0.002859294776024182 0.4659323184689482 -0.24513362486641974
92908000.0 0.6673644615243017 -0.741178730947117 -0.25799552597760395 -0.9426606513059402 -0.0024871715725324583 0.00021770933905190635 0.45139402605029355 -0.25407551226182123
93907000.0 0.660780332456487 -0.7449249110451968 -0.2792827376916992 -0.9730094542590167 -0.0025857767049765955 -0.00356287240278127 0.44991844610180765 -0.2632129333397863
94906000.0 0.6494701914047262 -0.7538502257701514 -0.2960247396606371 -1.009263450529569 0.001733564013429856 0.00243583302018857 0.4595231486947925 -0.27599871427168565
95905000.0 0.6414093834757704 -0.7607484311664614 -0.31808809589413906 -1.044482687953439 -0.00023482781152630775 0.0016040883168434853 0.45749167373237226 -0.2845280034786605
96904000.0 0.6349140059808208 -0.7687384235195911 -0.33198090295417615 -1.0811399557919086 -0.0039026554013425726 -0.0004965249346927499 0.44203330292003884 -0.28853622392968464
97903000.0 0.6258330781471293 -0.7731462222289451 -0.3578242703712916 -1.1138842928496897 0.001126512697611791 -3.3226092283113554e-05 0.44221293405833195 -0.29107220827059627
98902000.0 0.6212229976584221 -0.7799215794400639 -0.3779116946945361 -1.1538043831330784 -0.0007146004916953264 0.00027518487087555845 0.44149118311364105 -0.31318352160181967
99901000.0 0.611013287233638 -0.7862198963476718 -0.41023670917776806 -1.1837446528364954 0.004436027629880363 -0.0005623743351309778 0.4511316962727313 -0.3233374240435031
100900000.0 0.6043156562038037 -0.789590525566237 -0.4364559989929495 -1.2127238493321826 -0.002157824838462009 -0.0024471679344737264 0.4474157909999593 -0.3173369895440503
101899000.0 0.5945392342304802 -0.7977066120408143 -0.4580583057803137 -1.2534602659863887 -0.0009251168108098774 0.0019403595368709281 0.44455565691409143 -0.33154576484503706
102898000.0 0.5868453363649339 -0.8024416662859224 -0.496798216460215 -1.2905547684488052 -0.005008879607311289 0.0011569199776393824 0.44043966654294003 -0.35301948684108614
103897000.0 0.5782718869687902 -0.8091737224054886 -0.5384905994759782 -1.3258105212948046 0.0002492810916491683 0.0005703337374267798 0.44516026381899315 -0.3513827790751909
104896000.0 0.5665801345140294 -0.8196533942673966 -0.578008451414499 -1.357607312956664 -0.0009944578687441149 -0.0011811162012659519 0.4308289935806279 -0.3512986493957859
105895000.0 0.558533643491134 -0.8244985698238166 -0.6234207667507259 -1.3995392265770676 0.0010909077322307154 0.00016342202198063022 0.42395320474824577 -0.3714518886002493
106894000.0 0.5495063524016457 -0.8287605994883193 -0.6777979839675439 -1.4372809280490482 -0.00443575967214042 -0.00013271601237874395 0.42301625168717916 -0.3787501877287048
107893000.0 0.5410949725087568 -0.835604581160101 -0.7249532367216529 -1.477587264349148 -0.0015886768258354163 -0.00045028784857522724 0.4362854978190432 -0.38749135002834534
108892000.0 0.5335056598069519 -0.83760348104276 -0.780432334416481 -1.5199782281816545 -0.00021868982034902525 0.00042355234987627097 0.4152133615721522 -0.3782072831133124
109891000.0 0.5197858334588985 -0.8477363157464933 -0.8433275106797786 -1.5488552322136657 -0.0008775059917687432 0.000695846790112561 0.4182111234995251 -0.3920951751683065
110890000.0 0.49992234428787236 -0.8564542445891188 -0.923376456344835 -1.547506785112122 -0.00011048838800778634 -0.0035576238449611898 0.41256767766829733 -0.40599983434896614
111889000.0 0.5038316795181884 -0.8545445953511622 -0.9674553793288759 -1.622926980091101 0.0008426529277198645 0.004057586107663661 0.4206927983496861 -0.4176574926584106
