! Created with skrf 1.9.0 (http://scikit-rf.org).
# Hz S RI R 50.0 
!freq ReS11 ImS11 ReS21 ImS21 ReS12 ImS12 ReS22 ImS22
1000000.0 0.9743430583921512 0.0015198803492996883 -0.02214943781873149 -0.04545781445157859 -0.018710039214626443 0.006827151972582767 0.3488911186302341 0.3337736155764022
1999000.0 0.9927044967819607 -0.011182503104590921 0.0010022476707515506 -0.01863444395933233 -0.0068101392547007065 0.003109683435944002 0.2198550522709151 -0.06700087289426306
2998000.0 0.9960722125944539 -0.02228787106811975 0.015563457409081246 -0.011721858371679555 -0.004010308061481751 0.001086598068153301 0.19848247782709813 -0.13023734762968533
3997000.0 1.000095385177859 -0.02746510182394673 0.011670431928604764 -0.010567391298698202 0.0012951457700187013 -0.0018707137772793212 0.09206933345268624 -0.21760888539243534
4996000.0 0.9979223423203402 -0.03552444753540621 0.014665343931218563 -0.0008140326579934138 0.004543678231598409 -0.0033940790149610193 -0.03191740917267554 -0.199108557256573
5995000.0 0.9947585885194588 -0.04981962599753328 0.0076350457958943825 0.002852869876229114 0.0009154365361777128 -0.0052985089549551535 -0.11024800599671072 -0.11666596642872863
6994000.0 0.9976309684885779 -0.059415986210632196 0.008720525752580909 0.006558265989899553 -0.0036982149076753893 -0.0036284710201884636 -0.15539225380921315 -0.03844553465011356
7993000.0 0.9961961284378091 -0.06355021990898146 0.0021435996658555065 0.005557411952073029 -0.0071821268017825705 -0.002305734830182447 -0.1659289423211936 0.03651109975295197
8992000.0 0.9951455193578919 -0.06957260662905808 -0.0002560516756702793 0.008189100149417055 0.0034655272750304263 -0.004714828530765482 -0.16870648099556626 0.06937219987994209
9991000.0 0.9942183467559089 -0.08246001500240786 0.005238196388176007 0.004108638539930209 0.002126427466947029 -0.0019170785646950524 -0.14957612177111942 0.07698509487005427
10990000.0 0.9960873791273588 -0.08994902282448347 -5.821045981993507e-05 0.006183626125927092 -0.0008038565659193986 -0.0008333014260615852 -0.1384395139518225 0.11584969894990298
11989000.0 0.9935254293891015 -0.09770643687701216 0.0024114233624475197 -0.0041027326999260256 0.005706093673500442 -0.00012561556209019883 -0.12836276316050774 0.14338350135144348
12988000.0 0.9914552591162343 -0.10779982593566995 0.0003621431656839865 -0.002680530036442304 0.0010409179115483458 -0.009120410592197417 -0.1204192287097284 0.17414677723390154
13987000.0 0.9901496180676762 -0.11676982186521938 0.0007393912939560226 -0.0015606939832789254 0.000331029701038493 -0.0010541149781021829 -0.10982453898965082 0.18392210072666818
14986000.0 0.9889446036387918 -0.1241469013617056 0.002401871942580809 -0.004483931988672787 0.000317956482846129 0.0026628316971337336 -0.09165960482222735 0.2000255348725335
15985000.0 0.988833224218925 -0.13132437237925482 -0.005040134269312813 -0.0005624947126992271 0.001015555341811863 0.0038941014258770134 -0.07727060533292422 0.21556248622996413
16984000.0 0.9855132128319775 -0.14477141467013974 -0.0013136477721349413 -0.002869845277495793 -0.0021532870428957527 0.0027129286361600564 -0.06833581581721673 0.2176107676715365
17983000.0 0.9862831474677896 -0.1455583756333881 -0.0011166029072849678 -0.004091186418331822 -0.0014717945595048977 -0.001145293754724867 -0.06304025230232445 0.22949797942062428
18982000.0 0.9859302200229955 -0.15871895077591705 0.0012231970873285713 -0.0043450364428910026 0.0035197913567713217 0.0024598713134832686 -0.02475585359945814 0.24021802961335395
19981000.0 0.984309865326464 -0.16475416949806812 -0.002481903094066043 -0.003952244756308167 0.002243760372239156 -0.0027946000873236235 -0.026861777125944626 0.23909783209279853
20980000.0 0.9822987869221547 -0.17394294609515887 -0.003139065231120269 -0.003940937905584386 0.0018364848191073186 0.00012262684407897512 0.005252330393017746 0.26461493579433976
21979000.0 0.9806650273396593 -0.18067406577011835 -0.007856292905549987 -0.0009312197141630613 0.003027577528608494 -4.941668913316973e-05 0.018177383474446633 0.2458129465120031
22978000.0 0.9786156399043356 -0.19104716594241264 -0.004528322717835989 -0.00440990554038638 0.0028115866202543744 -0.0023087859032847944 0.03821092888881621 0.25647228744459666
23977000.0 0.9795183406153917 -0.1969759920855066 -0.00200740447051597 -0.0033113234129200516 0.001957069574681877 -0.00017946636090225215 0.05301971429418622 0.2635949515434673
24976000.0 0.9751648775722402 -0.20944302592952962 -0.0030963486769087223 -0.0072098268000490556 -0.0026391116793144636 0.002909416826256766 0.0679642350457874 0.25967493795975183
25975000.0 0.9703814075712488 -0.22278282638040586 -0.005775196555521549 -0.0007678975854162073 0.020626138412489954 -0.01781070183116899 0.08404341860845621 0.26499415308599505
26974000.0 0.9727677006872739 -0.22301514045596607 -0.008277067948228913 -0.00025146313852978107 -0.000321833949137589 -0.001995780655779463 0.09986064438741767 0.25468056474440626
27973000.0 0.9702205425397984 -0.2304092440935889 -0.005465898616195086 -0.003460717757702389 0.0017705872924836813 0.00020016457059206816 0.09742220697000692 0.2621744216930651
28972000.0 0.9678449237847405 -0.2391923563852112 -0.0027479472661158535 -0.0029211275896725924 0.000736098837028116 -0.0005328732197510542 0.12064822997928525 0.24948471342321857
29971000.0 0.9661662307445474 -0.2497818596152935 1.7996851880861e-05 -0.0012707695249441844 -0.0010340316919362823 -0.0012580080753999115 0.14986555052510678 0.26506318328618683
30970000.0 0.9645032559040102 -0.25548676373456874 -0.0004386566811029692 -0.0004164547324220581 0.002912747028578689 -0.001940709087319894 0.16887256201509668 0.256801457738186
31969000.0 0.9623195429202435 -0.263765104325371 0.006958737606423498 -0.004390775943981584 -0.0018589646878901646 -0.0025359091365381023 0.15436013219861833 0.24522178872935632
32968000.0 0.961404491518203 -0.2729144519966387 0.010568336248309477 -0.00668691083980996 -0.0026789590780281662 -0.0011433690231287868 0.16338854614501117 0.25149012252297215
33967000.0 0.9591171795003627 -0.28054710557278817 0.00895448953595253 -0.0069068991962686595 -0.0011606130974887812 -0.00222666341487381 0.19236867868130667 0.24548530022673087
34966000.0 0.954641682077206 -0.29113978093486725 0.016289596445629606 -0.013260517392942529 -0.0012157831520645545 -0.0017087069678432215 0.1945665341619647 0.2546823105148864
35965000.0 0.9518780668569543 -0.3000225661390619 0.015958741922267795 -0.014706839735934174 -0.00203813052665736 -0.0025113453631086654 0.20920262484371388 0.2575676249230487
36964000.0 0.9510526054791594 -0.30793821743379357 0.01735490756334197 -0.013467913031641377 0.002614108142994221 0.0014965042052835352 0.22272352101665005 0.25413038820051775
37963000.0 0.945103663457919 -0.3186381761817325 0.023271133070519485 -0.021696939973511804 0.0014048222542781504 -0.00026633871820269753 0.22934934941326066 0.23161466094294217
38962000.0 0.943652524640163 -0.3258978486523753 0.02126298273743402 -0.02668637308735645 -0.0010013920458988009 -0.0008552129204535054 0.23805013131372404 0.23557343928278238
39961000.0 0.9418496668626951 -0.3309123372188325 0.02890728494039402 -0.027027228032206134 0.0009569767367711644 0.0009850902898901265 0.24733172519262692 0.22605078074237847
40960000.0 0.9375253073155245 -0.34065135192881785 0.02255797869799607 -0.02213480056541634 -0.0013956789154342985 0.0014294428575889772 0.2728703015144973 0.21755418826900885
41959000.0 0.9356354876662651 -0.35122905363524565 0.03137089484548393 -0.033003047034532884 -0.0018560066053481899 0.0012685597472345909 0.2677255007382411 0.2181255034709561
42958000.0 0.9319490046568265 -0.35814621921660755 0.03251239621123749 -0.039692820873471694 0.0005292838686896148 0.0005092298798008171 0.2900938105600176 0.1975562882946747
43957000.0 0.9300697819498727 -0.36316233635623096 0.034848397547737636 -0.04527368036502923 -0.003107018581111944 0.000855859546844646 0.29430559731874517 0.20546792265425923
44956000.0 0.9262114162331214 -0.3703246637876495 0.036358539137503025 -0.053165215493559896 -0.0028918812407150063 0.00042557554455306196 0.30505943369330235 0.1910168103275774
45955000.0 0.9224985600036274 -0.3834822202713367 0.03764097284481502 -0.057930914500945854 0.0033795406528014105 -0.0012290693589308206 0.3150758271458642 0.18311039631148615
46954000.0 0.9198434727195629 -0.3913947496341957 0.036816885356182084 -0.06655083982016866 0.0005209119363993389 0.0006139083936082738 0.32772524252807006 0.17481405157171334
47953000.0 0.9142860081361638 -0.3988939106372001 0.03790725373600114 -0.07232098958929163 -0.002777949868700376 0.003242593878361514 0.33741762640277756 0.16862259919036837
48952000.0 0.9103731312786665 -0.408529619971277 0.03858594920032967 -0.07936154283505063 -0.0012438108211408699 0.001640454417566326 0.34316928352237497 0.15663863030791553
49951000.0 0.9059714004065905 -0.4136507133927384 0.041842658543108285 -0.08611765303940214 0.001933715717263568 -0.003495902815841402 0.36496661287079585 0.145924112783387
50950000.0 0.9042467101825283 -0.4233891168252611 0.042425553105765255 -0.09511024311797281 0.0009594896733608234 -0.0030159435267408338 0.3524124252583697 0.13662135077839768
51949000.0 0.8984791001722234 -0.4329232877990183 0.0436323369302592 -0.10134073644835201 0.0009171348638332514 -0.0005474955863836379 0.36829331091147954 0.135629081563875
52948000.0 0.8961378741018841 -0.4396088337660606 0.048046149927629726 -0.10919350309195015 0.003079917088467435 0.0027080019266363677 0.37343358380891134 0.13969377512485234
53947000.0 0.8903834461477207 -0.4474163187983972 0.046279644725246046 -0.11926567401123847 0.0001787346592228201 -0.0032581585906864808 0.3696957101400755 0.12862736166549193
54946000.0 0.8854467226396652 -0.4579863030208173 0.04519718739144746 -0.13236132462752248 0.003416725121099383 0.0024921736077866664 0.38131958775410557 0.12445988663034767
55945000.0 0.8843768260535316 -0.4624566157440948 0.051600663106663246 -0.1422708534182692 -0.0020222541274016064 -0.001357509764092755 0.39037250304057297 0.0988246948757134
56944000.0 0.879754472638251 -0.4719057169785009 0.053546120235366465 -0.15170406673434855 0.001707275802952118 -0.002264696541074367 0.4024435948206381 0.10128454741707675
57943000.0 0.8743643401246621 -0.482242826268431 0.0504355634000686 -0.1631291378214133 -0.002743419462433621 -0.0009488552652562041 0.40078273577821805 0.0872156036391258
58942000.0 0.86922084968384 -0.48850983080886234 0.053190498069856866 -0.17490972647889128 -0.0002704011530015598 -0.0019801420163916093 0.417005893976517 0.0904614310307761
59941000.0 0.8677276857020356 -0.4940471155175277 0.057380710398314376 -0.18266249202579815 0.0002260269174054043 0.0005013182536036469 0.42279112301554694 0.08309775660715932
60940000.0 0.8595302622354366 -0.503202810892866 0.05379826229671312 -0.18738160466690443 0.0016370360580487521 -0.0002505162062805567 0.4118826219974379 0.07481002262668865
61939000.0 0.8569191939135469 -0.5087037408428968 0.05547883793825226 -0.19518382632131984 -0.002677533132335917 -0.0022248010855227965 0.4211721089740936 0.06620096228389961
62938000.0 0.8514153784334499 -0.5202408184014643 0.06116966018014938 -0.21511515176501408 0.0009018138968554768 -0.001568703442151938 0.4509081319512584 0.04518196917705693
63937000.0 0.8474072909289196 -0.5278824543290952 0.05992521173316684 -0.23597435195466715 -0.0016752527557708694 0.004496002339532543 0.4309408066046507 0.03147565605869366
64936000.0 0.8401948416153435 -0.5333249487629169 0.05696116340779716 -0.2479652187063142 -0.0010832745215310518 0.0025381953782501994 0.427652176537851 0.031436249502884955
65935000.0 0.8374654496426659 -0.5445138727073969 0.059452405661603584 -0.2642640503474662 0.004066720161538087 0.002284967023293693 0.4372230990197062 0.008378750485256143
66934000.0 0.8330304309615439 -0.5480537557776831 0.060987224243905735 -0.277597453322817 0.0013740908067241227 -0.00016415467634292265 0.43430789243950046 0.013741410594233146
67933000.0 0.8301933262567626 -0.557192858633106 0.061006128475011905 -0.292168175678838 -0.0030648887160828367 0.001220182141537935 0.4470068412804436 0.0008950780582253578
68932000.0 0.8272117419426261 -0.5572890020243052 0.058556596488779894 -0.30427313373824216 0.0012104163168958483 -0.0002833147103722096 0.45326407828144516 -0.01486643177874143
69931000.0 0.8154753628251051 -0.5740578662341133 0.05399026554483942 -0.3236623660595061 -0.0007045813001201143 -0.0006232511535120087 0.45030840731089067 -0.03060364564833692
70930000.0 0.8113473080866829 -0.5774476365017812 0.05660523734601893 -0.34207419701908365 0.0013235308368267486 -2.8293295048228662e-05 0.45371701732888514 -0.030498866004986927
71929000.0 0.8080972677337018 -0.5859039459658263 0.05032890235177555 -0.3605735741140155 -0.001343665094723779 -0.002830735879682338 0.43937386664401257 -0.05199712573334687
72928000.0 0.8011023762432872 -0.5973184954673335 0.04349361554592638 -0.374449130456065 -0.004157808462176202 -0.0013066581993222152 0.46377531816679773 -0.057696513751227106
73927000.0 0.7926766703120133 -0.6030454305680958 0.039189227984234354 -0.39407589455565495 -0.00023114689184785124 0.0008551718626604115 0.4613292299804917 -0.06441838956079717
74926000.0 0.7897845148873414 -0.6126404709829141 0.03275746023408409 -0.4154964895569502 -0.004586544109552081 0.001243313085885093 0.4615082450361266 -0.06253068173212703
75925000.0 0.7815521224270087 -0.6174332862543435 0.02223554604230146 -0.43459326659334735 7.465617755447324e-05 -0.0020175223158373228 0.46714225952257804 -0.07647027386599525
76924000.0 0.7752912610212249 -0.6257745431128682 0.010518264560974324 -0.46204959660883305 0.0021735779220618217 -0.00011844693214437208 0.46427110450799686 -0.09341691685623471
77923000.0 0.7704622355320613 -0.6322426899134053 -0.0018144900782882604 -0.4836986570896345 0.0008669420151113665 -0.000187614608822563 0.46407830169274433 -0.10202138441512254
78922000.0 0.7652644739390279 -0.6412117155080863 -0.015459725116300116 -0.5119685240168759 -0.00015367915363831154 0.002247436380795508 0.45838173336741594 -0.1157239561935351
79921000.0 0.7560735035976962 -0.6464332497191837 -0.03312706163946162 -0.5367425764732805 0.001997634684581343 0.00038998954483754784 0.4592281584056236 -0.12354255548748964
80920000.0 0.750795014081762 -0.6557295329325703 -0.0479280155148448 -0.5659990961285175 0.0005376521136867429 0.0006691036282850196 0.45910050358865206 -0.12875601782303622
81919000.0 0.7453646849155622 -0.6618562579372689 -0.061703604727988325 -0.591887677936931 0.0018787250923736915 -0.0041255084746713916 0.4620300376561139 -0.14568931953128866
82918000.0 0.7393850746908026 -0.6690990334692438 -0.07720080575266662 -0.624971917148394 8.277122738527837e-05 -0.0024080058856442137 0.47655041637545864 -0.15722300703897316
83917000.0 0.731965132134117 -0.6776606804588006 -0.0981019961195906 -0.6550584184004904 -0.0012244906016154352 -0.0008797374523069194 0.4691546402250468 -0.1626360465342996
84916000.0 0.7245542416015304 -0.6856262875402541 -0.1101640975519634 -0.6903644564601812 -0.0026646995397422383 0.0028499935759747777 0.4717565324549624 -0.17291859012572933
85915000.0 0.7191376869556193 -0.6896134027098965 -0.1338716980175729 -0.7202356321426286 0.0026098028120496116 -0.0012209550665024237 0.460960827270179 -0.187563199214004
86914000.0 0.7121117883056444 -0.7013210597594636 -0.14963866270918935 -0.7570671237529771 -0.0019288026753366619 -0.0023597502158944988 0.46007807605612533 -0.18154429216445825
87913000.0 0.701782217106397 -0.7066059947192848 -0.16655458636523257 -0.7885782744722977 -6.950603171798434e-05 0.0036340406346730384 0.4553320729402698 -0.19840329310250085
88912000.0 0.6973547999835765 -0.7138333596049332 -0.18550625156016762 -0.8217446241485828 -0.001945777576298519 0.0027406120628928605 0.46289949769289135 -0.21981810791804407
89911000.0 0.6888194005524015 -0.7227051039660852 -0.19890994487747796 -0.8626700447035579 -0.0028382382163353597 -0.005111142432278078 0.47453213372930964 -0.22544765470571793
90910000.0 0.6822512499777336 -0.7273651184713356 -0.21771507854214936 -0.8940979237266943 0.00026735708687460004 -0.0015284520798791593 0.4592819659298827 -0.21721775621845943
91909000.0 0.6749858224401026 -0.7314803679914166 -0.23705826742146824 -0.9255203629483966 -0.0024370303164287063 0.00014172484669739788 0.4593764509286317 -0.23459798161155274
92908000.0 0.6674413784600998 -0.7414274251066532 -0.25984862169072 -0.9640190309560456 -0.002243709366788939 -0.002100048099421434 0.456155488052526 -0.2412602641330765
93907000.0 0.6621509085840356 -0.7461652844077753 -0.2775039604275938 -0.995775076948605 0.0016776331183009294 -0.0009348775230905382 0.4623255404140631 -0.2556937993652652
94906000.0 0.6470474640104331 -0.7553499220637195 -0.29906806597288044 -1.0259245945766389 0.0019897558694968727 0.0019205622337229128 0.4656387377279597 -0.26289593457509447
95905000.0 0.6427496257700321 -0.760770055057692 -0.3225846091113719 -1.0640377715351383 -0.0006758242407535506 -0.0011912856108028363 0.4596678805658346 -0.28589589997254883
96904000.0 0.6370083562989587 -0.7677592760613831 -0.33848466391476784 -1.1069740460094386 -0.0015768469416487935 0.00048364334779033876 0.4486678933667513 -0.2912759482961844
97903000.0 0.6259319132256005 -0.774231761554471 -0.36788048438440835 -1.138493161347091 -0.003167357007532551 0.0034173044072535364 0.44402119218598013 -0.29265917473016445
98902000.0 0.6219535058271904 -0.7795999215233842 -0.3823229535250053 -1.1822182231504117 0.0020153133798679005 0.00010816162827763709 0.4399344663731351 -0.3032986538743371
99901000.0 0.6113535970263313 -0.7851039060945794 -0.41573269756497516 -1.2122854996292534 -0.0011821872631522616 -0.0006226497090030363 0.4638337172001281 -0.32200075603686334
100900000.0 0.6010803913331522 -0.7902388512688961 -0.4506999676170068 -1.2406493733888027 0.00028328953379171677 -0.001223275146765057 0.45961437564738605 -0.3182987242265723
101899000.0 0.5940666482748218 -0.797535967631253 -0.4794376885254067 -1.279763531837587 -0.00419284821126269 0.0011003021656850694 0.4506615364524178 -0.31868023881368307
102898000.0 0.5824741833598536 -0.806615638782978 -0.5166709154259396 -1.3186845926895945 0.00047600462703166024 -0.000576518285591576 0.43955686221579143 -0.3505295036042013
103897000.0 0.5761298948027055 -0.8133274646411638 -0.5566047910402885 -1.3564051545655513 0.003012171162434153 0.0013971625713209204 0.456055526867291 -0.3445777817123408
104896000.0 0.5684055567802048 -0.8221744572475997 -0.6007364572806573 -1.3933953164403434 0.00045325134065496723 -0.0025355184749166148 0.4361873332216585 -0.34683366593653775
105895000.0 0.5563850203184004 -0.8227139969164821 -0.6480450904249238 -1.4351465545389965 -0.0003842377059790747 -0.0028359141215849497 0.4368924916815774 -0.3613746894032049
106894000.0 0.5480638246003264 -0.8302821758230526 -0.7073980996088556 -1.4739517867521241 -0.0003405997877552463 -0.00019898508115454578 0.4213624275041931 -0.3745206697216772
107893000.0 0.5388930283278838 -0.8376554840891347 -0.756087421439607 -1.51741736781309 0.0009533274679730475 0.0023158865002430706 0.4294890304918434 -0.3838725186050395
108892000.0 0.5332727223588369 -0.8401178973060834 -0.8145392954669899 -1.5611745190814317 -0.0005267578422610601 -0.0018228009183068985 0.41984951346214006 -0.37880079440466363
109891000.0 0.5200409213448928 -0.8481422346674848 -0.8741435916405157 -1.5904215272039735 0.0009104844467417354 0.0002830934839984771 0.4332369458730122 -0.38547032475486964
110890000.0 0.5081819853818046 -0.8653724537142418 -0.9609315312765453 -1.607387957836724 0.003262744940489632 -0.0029856812632143618 0.43332158192563136 -0.385749374500424
111889000.0 0.50181804394412 -0.855022536534621 -0.9934987040960412 -1.66291653541586 0.001498813708616594 0.00037400323458356804 0.4124131121719606 -0.4113876373332551
