! Created with skrf 1.9.0 (http://scikit-rf.org).
# Hz S RI R 50.0 
!freq ReS11 ImS11 ReS21 ImS21 ReS12 ImS12 ReS22 ImS22
1000000.0 0.9675505841033263 -0.001445902966405603 -0.0022637059355906358 -0.035733713384439515 -0.0018503795997140964 0.0037620876006496584 0.3803042301848146 0.24295256033336135
1999000.0 0.9922431341894034 -0.012143790682888235 0.016532013198502196 -0.015900873109818504 -0.0033353136208433783 0.0018223941816238967 0.2906489890313492 -0.059644541033229845
2998000.0 0.9997606945856369 -0.018950133737124612 0.011847356839467105 -0.011567412631973152 -0.002949115800135598 0.0007176002981288208 0.1957923338878837 -0.15640209709506925
3997000.0 0.9985330316294289 -0.026483519428165493 0.010178316986466623 -0.011518904482762458 -0.002321164195778455 -0.00025888773213916095 0.0919420593377715 -0.2425174421041293
4996000.0 1.0002651499638386 -0.034300258830358824 0.013423286354416593 -0.0011604791707451175 0.0046808213153931985 0.0009534795587665684 -0.04516394459326082 -0.21253739633376728
5995000.0 0.9982926026114399 -0.04472569921776125 0.014467011167663399 0.003153074818142206 -0.0018019518259693647 0.0008460699514139905 -0.12465723046330193 -0.10152721131903124
6994000.0 0.9957059433459264 -0.056566112548492115 0.0077011844360644005 0.002511349933426131 -0.003301235106161771 0.00581815321795027 -0.14073937664591782 -0.02956354302394218
7993000.0 1.0001173664306322 -0.06313149254703641 0.003885891464917612 0.005433362563034098 -0.0007397325322972123 6.747689914455059e-05 -0.15051830562752022 0.04115595692035855
8992000.0 0.9989394773390988 -0.07033534778884688 -0.0009373393450527366 0.0035151629788389765 -0.0008238803718267401 0.0004459261452019073 -0.15416553646877296 0.06943372084157261
9991000.0 0.9967326134829947 -0.08224579393652288 0.005082177652619079 0.004968469934015827 -0.0005045758800771981 -0.0030989920091669034 -0.1428672762680964 0.09664039119589397
10990000.0 0.9962990029370488 -0.09257645557398864 0.0008742688830216012 0.0025733072738334537 -0.0011270104904184102 0.0017428042132686204 -0.13448086005270687 0.11249453512275283
11989000.0 0.9930438505599869 -0.10009848345501783 0.004229155791814751 0.0006455415527948194 -0.0032449347674734256 -0.001167175080158151 -0.11662030536975347 0.1363345656848088
12988000.0 0.9916276106025822 -0.10990804697843412 -0.0038993602439261776 -0.003174683422246693 0.004453777814921685 0.000764477317604926 -0.11025698701980936 0.16468137075368786
13987000.0 0.9897688399598197 -0.11762942295443302 -0.0020741141950916153 -0.003653581051655959 -0.004213641228703167 0.001359007346511734 -0.08038060474857296 0.18879296710720897
14986000.0 0.9909885784301995 -0.12781108968275157 0.0007444573198921812 -0.003849557186604708 0.00017815975259094705 -0.0013814275653561184 -0.08850533613560163 0.19865151629457592
15985000.0 0.9942885469371601 -0.1340262891137061 -0.0031386120705794132 -0.0018917364569128567 0.00011343280166804338 -0.001403483941470218 -0.06733860004985504 0.21242749131017777
16984000.0 0.9883257039521041 -0.1455447779089925 -0.0023506480371001106 -0.006343406777133041 0.0022420526513675723 -0.001312330358368517 -0.05785547736501397 0.20903010497176325
17983000.0 0.9902809949950199 -0.14760533316812544 -0.007222829815982379 -0.009207899989414306 0.0028887122879984514 -0.0006637999033826033 -0.05156033464100501 0.22793451031337394
18982000.0 0.9850398313364536 -0.16315193802909952 -0.006804579047173537 -0.002646188323394028 -0.0022914208640521867 0.0008413669271770373 -0.016566484009577935 0.23793328652706497
19981000.0 0.9836731647782934 -0.16659728110943606 -0.003325747622371929 -0.009264579472743891 -0.004071223758596637 -0.004590208336300029 -0.011630624965667332 0.24008361168280856
20980000.0 0.9843485096746106 -0.17564256182763024 -0.006941324314893727 -0.0008056933615924466 0.0001769562757454805 0.0030971577585333448 0.005497367526118241 0.24725757464307313
21979000.0 0.9825739875134744 -0.18737947851317813 -0.00808875471606291 -0.0022196900460582326 -0.0004324215895080797 0.003590711454626131 0.026340036612008635 0.2515242349625937
22978000.0 0.9788130612086656 -0.19499805708601511 -0.003433204857279441 -0.005169458850358793 -1.2337722877036806e-05 0.0064340795211283485 0.03181255137069709 0.2598893376967335
23977000.0 0.9818978800435638 -0.1998159528439985 -0.005154181373859969 -0.0035105535529108456 0.002306698013187517 0.005360193909221639 0.04199043356504844 0.2547635545736856
24976000.0 0.9761500391712915 -0.20953407330046847 -0.0015328805580598227 0.0011365349637042436 -0.002983208436062974 0.0014917492685779014 0.06614939322985207 0.2538862243562703
25975000.0 0.9689590376381956 -0.2191234214050654 -0.004459810258669557 -0.004206094149679223 -0.023207754549609803 -0.01399266471280812 0.0725394418259586 0.25534785330640314
26974000.0 0.9726863315759909 -0.22787129501155107 -0.0026479902537852734 -0.0014115826213007172 0.000298638241506808 0.002873700506219415 0.09509128322158371 0.2747751911422728
27973000.0 0.9725675173529296 -0.2344484327777838 -0.0021866622970399935 -0.003151675730084518 0.0012038087317289964 0.00027391944354869286 0.111038396247096 0.2570489805832206
28972000.0 0.9680637731531331 -0.24627011040424535 -0.00218684638587286 -0.001435189249400514 -0.0012527306980911206 0.0012341327526891642 0.11283057908488894 0.2514219979901692
29971000.0 0.9676024191836159 -0.25192386983176907 -0.0003186893695658582 -0.0019691928417058897 -0.0017011711297630744 0.00146174564745739 0.14891170810063556 0.26439934246996744
30970000.0 0.9636034606851532 -0.25895372401183214 0.001572451392327734 -0.0015121844901884725 -0.0006033304700527256 0.001011904368322895 0.17652079118441785 0.2479083868077624
31969000.0 0.9638457520954178 -0.26672461620296384 0.0024819768293292215 -0.005866235960407054 0.002203182598274951 0.0003152380707630895 0.15668334009468318 0.25349208630995534
32968000.0 0.9625143488123125 -0.2765236903909142 0.012267479126714298 -0.0100574015951253 0.0004890991140923963 -0.00013814514554638923 0.17157961614861814 0.24473888765844476
33967000.0 0.9582755511130839 -0.2868931317039767 0.011383346969844034 -0.010453826752158401 0.0018016506825316578 0.0010990456105791115 0.18650643874082476 0.2534588103621868
34966000.0 0.955107499935601 -0.2963612177795299 0.01650751615584076 -0.01491693402226665 0.0010887668388618883 -0.0009693959355158712 0.19624492583984648 0.25756403679883794
35965000.0 0.9530318646156705 -0.302249244546911 0.01580915210495776 -0.016507777673942355 0.0025378496317689896 0.000798408096624153 0.21409102062327826 0.25002664887864057
36964000.0 0.9511729034285067 -0.3126117474062429 0.02060113597187249 -0.015677337196361548 -0.0005651304268045696 3.857962885221983e-05 0.2189861511868275 0.24364727326481603
37963000.0 0.9477720333084166 -0.3201826473989959 0.02432771434672329 -0.021927382367127952 0.0005306448921321287 0.0025268360560857686 0.2296647081625933 0.23912726041710686
38962000.0 0.9451845457405593 -0.32924582122513346 0.027369886591242037 -0.027179681723348954 0.00012557428440510338 0.0018517383828784092 0.24191984100143943 0.23378216266182128
39961000.0 0.9410554693195298 -0.3396404496873121 0.027605808018411945 -0.03105295622739617 0.00262132773566052 -0.0023614485941381175 0.25814357936599824 0.2358893551479391
40960000.0 0.9371778082378391 -0.3448540444456465 0.024442206371523174 -0.02496188049430315 -0.0001385443768892209 -0.0026254367127387353 0.27344646722103333 0.23583818602876072
41959000.0 0.9345462219289816 -0.35440103490151764 0.031163565535611393 -0.034632561427616844 -8.486327509071486e-05 0.0016363662131707829 0.2749633701143645 0.22177177497677875
42958000.0 0.928133581628295 -0.36563392681729223 0.03650623241851853 -0.042361426531752996 -0.0029603683354403007 -0.005400733249682161 0.29324351579975244 0.19694476404921343
43957000.0 0.9296642143474306 -0.3667050166861295 0.037439418267627166 -0.048586724522462564 -0.00047791562540439313 0.0007430643320267281 0.2938735708832516 0.2088454535806957
44956000.0 0.9259669519151027 -0.37538074232711227 0.03562763149484591 -0.05625249906944103 -0.001133543933436475 0.00018220623289384077 0.31453318151459064 0.19639262572792682
45955000.0 0.9212939449431657 -0.386783931275666 0.03630937325812872 -0.05777516887263842 -0.0022714104421997783 -0.0007234817969063274 0.31539298625130935 0.19895788655763658
46954000.0 0.918854466440692 -0.39568776332860134 0.03804019531694797 -0.06588510436227943 0.0033769646009384107 0.0020357087465570516 0.32977336746207714 0.17405197922954468
47953000.0 0.9133405129820764 -0.40452925693655006 0.0370491532993942 -0.07334436127186594 -4.940866771767063e-05 0.0004350897441100225 0.34465626277204 0.17397176104187295
48952000.0 0.9106751171230237 -0.41331718976709286 0.04087993810124329 -0.08209808871123929 0.0014870414404275667 0.002287638380197165 0.34116091908204543 0.16688675097830286
49951000.0 0.9047436840299509 -0.4220936274334315 0.04049096507261749 -0.0921227115455145 -0.0014582388532196641 0.0016676719372708166 0.36314812766785637 0.15597259229855195
50950000.0 0.9028357768050628 -0.42835005595050274 0.04013356882712291 -0.09831850366949545 0.002164720753501814 -0.00010825793522665184 0.3546524675664293 0.1520764127471541
51949000.0 0.8992607960224916 -0.4357904935114974 0.043352436587761466 -0.1072335473530281 -0.00026067140161426764 -0.003226215866374173 0.3647275236465339 0.144815427201894
52948000.0 0.8949144179977429 -0.44494547129930556 0.04276988040973265 -0.11798969732437307 -0.001284768407159415 -0.0038526781913060244 0.37740289022644313 0.14004784794750447
53947000.0 0.8912668878563038 -0.4511036044867506 0.048384071545291764 -0.12536663817758728 0.0006182227211112703 0.0005840739292853059 0.3807210490154592 0.1282826883666237
54946000.0 0.8848718435338538 -0.4630427653230303 0.05029690590561545 -0.1367778219315239 -0.0001681679148965178 -0.0016604929859783686 0.3935512991866919 0.12632937731765675
55945000.0 0.8832675552304825 -0.4673020061557266 0.05028968809596463 -0.1456050931713949 -0.001423560311834695 0.0005253541615882625 0.3894236281958623 0.10528722826278968
56944000.0 0.8785847357432837 -0.47571095817933856 0.05087430478833376 -0.15622193363223272 0.003051851117699687 0.002116616867832998 0.39842209663981104 0.10929473347868635
57943000.0 0.8750003888240747 -0.4870282587517052 0.05097040395112758 -0.17012640641672555 -0.001916562288080111 -0.0007715878301302635 0.4084920669467531 0.09497244646490569
58942000.0 0.8675914948690673 -0.4927249829873224 0.05343014067557011 -0.181892421132929 0.00020723875511742838 -0.0013638975360625073 0.42628543735761704 0.09355000213701327
59941000.0 0.8674207596884984 -0.499303652155107 0.056687284756380345 -0.18911354754323934 0.003771335458607366 0.0010741480593264453 0.4238303126106028 0.09773251721591297
60940000.0 0.8569880969881125 -0.5088314055536405 0.05695396478896339 -0.19405192841769836 0.0027097163439424037 -0.0006557394313295587 0.4130869028470143 0.07850757661214224
61939000.0 0.8553857554743536 -0.514363555994755 0.05667321033639306 -0.2021060963236066 -0.0010390225584825078 0.0026320749124613576 0.4236463341635019 0.06911174874155963
62938000.0 0.848116486215056 -0.5248814011376539 0.057167387004930285 -0.22221647873051295 -0.0005358696008270086 0.0004474073121602982 0.44525262367633206 0.05753959852747195
63937000.0 0.8433010754991589 -0.534837472434348 0.06038926677489221 -0.24278726629129646 0.00046388444722139004 0.0015551931001605893 0.4407928402164734 0.049523219623773984
64936000.0 0.8393181907040058 -0.537584975661852 0.05899280214753695 -0.2577089782369671 0.0006810661118624656 5.9195295139338795e-05 0.44741888927376805 0.045164053036321504
65935000.0 0.8352777492270704 -0.5487995381039957 0.05946664319060291 -0.26844967575506873 0.00013627424591490975 0.001725144152320125 0.4491188058700487 0.019498424016561603
66934000.0 0.83066527942638 -0.5559394658418252 0.05677936390582097 -0.2847250780278063 0.002180504286424036 -0.00011449017164109322 0.45150484727804335 0.00720453821356699
67933000.0 0.8274347286041593 -0.56254949741046 0.06084290683561233 -0.2984677270205156 -0.004278973861471685 0.0024322372598581127 0.44943657956815014 0.013079514905829459
68932000.0 0.8156534425714357 -0.5714502300658962 0.052822936042384444 -0.3165593921160169 -0.002616770569327136 0.00025702423777405913 0.47179442235226504 -0.005532504725939414
69931000.0 0.8118346502480596 -0.5798781086630282 0.054352467572829015 -0.33164687122206443 0.0014435360288585486 -0.0004692455525535552 0.4511529901329396 -0.018702340525927036
70930000.0 0.8072175043931751 -0.5879684154393453 0.053547982409352886 -0.3499932158656473 -7.351187997117969e-05 0.00023043491300406906 0.45459671554628794 -0.01801463128730005
71929000.0 0.8044113724407658 -0.5961039762054633 0.0475105264494577 -0.36707554841135276 -0.0006513969386259697 0.002247960142037602 0.459630147060118 -0.0445356223094984
72928000.0 0.7986853248874396 -0.6023503809731052 0.0432111588701689 -0.382230000255536 -0.003920472456178555 0.00422210908934685 0.4697951256440887 -0.04020581559059465
73927000.0 0.7917709251135896 -0.6107156977495917 0.037811331517852945 -0.40618770027932527 0.0027645044281844784 0.0023630176343710186 0.4649907414777575 -0.05102357684223369
74926000.0 0.7875638475667748 -0.6181845144217201 0.030472821395783688 -0.4234879405849005 0.0006935026215438556 0.002126920070674213 0.47072654652377605 -0.06008571712444886
75925000.0 0.7809950462706717 -0.6239439479838486 0.021630727437343327 -0.44521036805538006 0.0036741050511789127 0.0011900729981398615 0.4843362322596377 -0.07618492930716894
76924000.0 0.7753679833862367 -0.6327725558078199 0.009611966329018439 -0.4692721563264646 0.0055462827586642205 -0.0014322529879333477 0.47330587389913203 -0.07294220203406912
77923000.0 0.7699771107512908 -0.6373792186972322 -0.003297434901767331 -0.4941068890115565 -0.0023133808904612315 0.002435634445159782 0.46690857987663453 -0.08691679519853689
78922000.0 0.76364227338082 -0.6505007841023508 -0.018083755428162415 -0.5228311325287587 0.002995099620835015 0.005303699177675328 0.46829542552974 -0.09193479253209724
79921000.0 0.75178304233448 -0.6531388828100142 -0.03613950211544009 -0.5472893233550771 -0.0022769481218389478 0.0008209791157380849 0.46916153502858543 -0.10563947952646008
80920000.0 0.7501217735672725 -0.6639755469520618 -0.053794868399519455 -0.5748257913192208 0.001416462499835653 -0.0020896216571090883 0.4839147640163252 -0.12511770441877634
81919000.0 0.7452163709207218 -0.6697107498978564 -0.07002617132438299 -0.6043872592598625 -0.0019946428694280907 0.0008040847594151202 0.4768156664396032 -0.13249224551933989
82918000.0 0.7339881079447335 -0.6769788679181281 -0.08187689274489232 -0.6400397310389735 0.0038126405905996017 -0.0025970632452661443 0.49068629832310384 -0.13139784795790965
83917000.0 0.7267633791927975 -0.6860910313611932 -0.1049251307231196 -0.6676540580897687 -0.002407458767911921 -0.00020574340248052817 0.4801755248059648 -0.14674766351228993
84916000.0 0.7234808445657145 -0.6919093731519182 -0.11881262835846321 -0.7027931740082239 0.000981816744056193 -0.00027607407079966096 0.470254339855385 -0.1660701077833578
85915000.0 0.7159242115346709 -0.699127044794764 -0.14511923049206582 -0.7363392235195615 0.0005876473846109273 -0.0019961553313509787 0.4789172256391628 -0.18349331191650337
86914000.0 0.7075118925569656 -0.7080720739130026 -0.15578377846835986 -0.7760376925453564 0.00190602194202216 -0.0021421943515773896 0.46561660530733084 -0.16900019734922586
87913000.0 0.7011358570979943 -0.7133302620949576 -0.18226732354940337 -0.804917613846372 -5.899814797242803e-06 -0.0028992307890256613 0.4695625436922528 -0.17777722641064334
88912000.0 0.6946096430980462 -0.7207631187402731 -0.19487958493673863 -0.8406454143810482 0.002283354074871844 0.00011350846642852448 0.47786661850441736 -0.20206171367221856
89911000.0 0.6862832580428404 -0.7312894969074177 -0.2141859599839621 -0.8767834359496924 0.0049961655118468794 0.003616666486909155 0.47531412600235434 -0.21557730100967956
90910000.0 0.6804727395838821 -0.7355263026243224 -0.22680530832445384 -0.9141375128069349 0.004652509223737209 -0.0019299545670922373 0.46757115413345535 -0.2031675268991297
91909000.0 0.6700006879949698 -0.7410137874495096 -0.25516331198627573 -0.9497603659456393 -0.0003076985568355693 -0.0010749021804547184 0.47567972046231943 -0.22121949924201892
92908000.0 0.662990914426495 -0.7485749353644696 -0.27112558043006174 -0.9816665619615768 0.0023690017361182405 0.000799697641780168 0.459270793034683 -0.2336918367622056
93907000.0 0.6549269069389363 -0.7535576280978105 -0.2911149460060024 -1.0159769867737765 -0.0030510322293396206 0.0032375495870844823 0.4755701322609858 -0.2479680742984234
94906000.0 0.6440951432694191 -0.7613059931044458 -0.3045133409452814 -1.054477689373437 -0.004973954851199747 -0.0018372990293434837 0.473921764166797 -0.24619315139343506
95905000.0 0.6369402733597859 -0.7677628206460387 -0.3359054751090041 -1.0885186709890624 -0.001187114951228292 0.0019657259815829492 0.47549187166194545 -0.2595805883120307
96904000.0 0.6280866919572166 -0.7783124040513812 -0.35395232783154135 -1.1275392767875685 -0.00047269964212170285 0.0015560278953907008 0.46706126166224754 -0.2568622230583344
97903000.0 0.6212337856254376 -0.7821278825041899 -0.3766265397259714 -1.1632449293033869 -0.0008990189330181341 -0.001672019144320703 0.4606233194604182 -0.2786828090379196
98902000.0 0.615708957695851 -0.7909601193929368 -0.4021279495991847 -1.2081403951177014 -0.00018051706816951343 0.0014855155946350222 0.44845272557976007 -0.2980201383549179
99901000.0 0.6033212007790757 -0.7952348367787306 -0.4324210131660212 -1.2317321343869663 0.0008183999343910976 0.0003874823388667504 0.47034549663785435 -0.3077678985038728
100900000.0 0.5951003904661796 -0.7984699984326278 -0.4611993542951771 -1.2667213737605092 -0.0018704750518695828 -0.00036992786556635837 0.4620782401220629 -0.3030031810570596
101899000.0 0.5881377435552311 -0.8067279833963621 -0.48698574567224373 -1.3142547518407717 -0.0005527130558479592 -0.0006150719081174256 0.45775336626885904 -0.3045843685016153
102898000.0 0.5796853543041589 -0.8114886827493417 -0.5232112262031656 -1.3515616218123314 -0.002360116962712435 -0.0010370019494760029 0.4637788833637774 -0.34383879627937236
103897000.0 0.5695314957872145 -0.8219589316330702 -0.5676914976411943 -1.3880414476123895 0.0019119824324995386 -0.002639989724509008 0.4705860439026996 -0.32699108515830605
104896000.0 0.5599541624849408 -0.8295134822827104 -0.615342453340971 -1.4206859261639482 0.0008836108845073679 -0.0023782321082342047 0.4385391811974635 -0.33330506245729047
105895000.0 0.5512021683731513 -0.8323454335026632 -0.6637524350197586 -1.4708524375525713 -0.0031113469683200054 -0.0013080374166001187 0.4545151360143091 -0.3479290069466674
106894000.0 0.5411245326094511 -0.8387166132474084 -0.7252417268199554 -1.506452049719542 0.0030164290140246588 -0.0007136243195402074 0.44057251556027677 -0.36510812102977075
107893000.0 0.532397538663019 -0.8448956548062957 -0.7778050536913107 -1.5428665644679898 -0.0011161330045172866 -0.0004825181997067212 0.44053339724465207 -0.36366409709247566
108892000.0 0.525519950519716 -0.8477302868659085 -0.8368093690513599 -1.5815229329642568 0.0021357620222831795 0.00315090206903878 0.43544417806355 -0.3741466322921528
109891000.0 0.5124737464208254 -0.8572720940129822 -0.8912769966412638 -1.62047810440565 0.003971318711928419 -0.0010433218815337907 0.45025483624178086 -0.3732897823861337
110890000.0 0.4957350828122812 -0.8709311004402707 -0.9807442123626559 -1.624092453284958 0.0012437837303611598 -0.0002731401971330435 0.42830696795780726 -0.3846840751276168
111889000.0 0.49025348018163906 -0.8619212452531794 -1.0248356555209657 -1.6872335824280267 0.004143616086570142 0.002389311195662286 0.42050679624815557 -0.40091105091043844
