! Created with skrf 1.9.0 (http://scikit-rf.org).
# Hz S RI R 50.0 
!freq ReS11 ImS11 ReS21 ImS21 ReS12 ImS12 ReS22 ImS22
1000000.0 0.9832972747599634 0.01549950484980199 -0.012723829921598134 -0.029594585001588448 -0.01729678235174831 0.004429802402618897 0.3441936922125288 0.36332255887311343
1999000.0 0.9906168150920263 -0.01678149123946276 0.01274968196493134 -0.02248278307156622 -0.00235132421397297 -0.004270291844696847 0.27397801380355774 -0.03460348666330482
2998000.0 0.9981268969950923 -0.026725918782865198 0.008337009713152835 -0.008470567634568257 -0.0005548400901028199 -0.007140586238934706 0.18436660945351213 -0.13149540567113413
3997000.0 0.9954333677624385 -0.03268463204764523 0.009230299182812176 -0.003444952341016769 -0.0030864564835719026 -0.008905115462132816 0.08760801300850006 -0.22338268022490573
4996000.0 0.9961210868681584 -0.034867514073117056 0.010333410242016375 -0.0017382401722118453 -0.00363602940655036 -0.0023028026348779944 -0.058204463109863186 -0.1833366848794386
5995000.0 0.9926952277435354 -0.05010456381618757 0.00824137449553372 0.0033003760211324884 -0.002189503022246214 0.0007258721324280833 -0.11624002025086955 -0.086122995175722
6994000.0 0.9921595540871185 -0.05845354847860078 0.0077462342609898975 0.00034398070856850777 0.0016061548219066266 0.0034681005149600395 -0.13535116556662408 -0.0074615812296263
7993000.0 0.9930873507532008 -0.06869054281332332 0.0024164647953233273 0.00691117963457491 0.001230090436754453 -0.0023485531511986775 -0.16033618866752627 0.04063303615263594
8992000.0 0.9891275568925921 -0.07250640601479356 -0.0035883539537487365 0.0037697732945517837 -0.0013302856079533416 -0.00010636591932860236 -0.15330420196165453 0.06337203778276537
9991000.0 0.9889123565675114 -0.08417435853976708 -0.0022531296334677474 0.001580164406569612 -0.002421563078406018 -0.0036028209477436935 -0.12994597005449524 0.10027019174009903
10990000.0 0.9901384077987907 -0.09061007896848682 0.0020992189212838235 -0.0015685249500801642 0.00020117570300422883 -6.556050164690868e-05 -0.13494236680341418 0.12438273357461169
11989000.0 0.9861687250712633 -0.09967008305564433 0.0030984927407020435 -0.001296338417048858 -0.000275867907086517 -0.0007816296197693028 -0.12599954290324894 0.13579895630369307
12988000.0 0.9853934699108383 -0.10773061953816862 0.0013394988340776062 -5.520663678385014e-05 -0.004498287039741329 0.0015234502135925497 -0.11197925709668981 0.1664714035925493
13987000.0 0.9837714896294555 -0.11936923390154636 -0.0036590171818762377 -0.003971773435725467 -0.002268739468394609 0.0009080447349429135 -0.09878149664116906 0.19338601760505
14986000.0 0.9839707902719187 -0.12511880666652697 -0.001658513895129142 -0.006078335210513119 -0.0005980224064160988 -0.001348377121598145 -0.07982450789575388 0.1997718601192138
15985000.0 0.9848061728519414 -0.134263067098559 0.0021096689397164274 -0.00412648851214877 0.004320321047433471 0.0025752936068734683 -0.07350981403893846 0.21376459908322212
16984000.0 0.9799694489741553 -0.1462254507337578 -0.002878407082806411 -0.00704878195830669 0.0032426232656183104 0.0044040229105524464 -0.0660432925991034 0.2224609022861303
17983000.0 0.982675014546723 -0.1476903893745216 -0.0021310893242524544 -0.002198353416663758 -0.004655108095155985 0.0024261705391858198 -0.06036165488809056 0.2305912494207468
18982000.0 0.9788676918590905 -0.15996998784289643 -0.0019472998042690402 -0.008892690213557073 0.0009371279052849705 0.00280497406427318 -0.027432960303628347 0.23511701453784575
19981000.0 0.9784486767098621 -0.1647748603814297 -0.004556251986473404 -0.006895981131431347 -0.003252792890032291 -0.004125174574324749 -0.018788248334332222 0.24982233641613688
20980000.0 0.9769372319917939 -0.17692988701237522 -0.005713403062465538 -0.0023775005195392513 0.005551673069017179 -0.0011860310463682534 0.007163491704790869 0.25768473035404216
21979000.0 0.9752435077619445 -0.18375362041924037 -0.006331082319342443 -0.0025348585437080158 0.0008637887940091078 0.0014772185961411707 0.012212471482405545 0.24322949993224802
22978000.0 0.9713355711974478 -0.19409608909900183 -0.007307099163050269 -0.001118533310587609 -0.0020683646525114533 0.00023151692899262452 0.02200875258826028 0.2494683707268694
23977000.0 0.9754126417779884 -0.19818047799842892 -0.009043791116800775 -0.005472381241742519 -0.0029849501471617625 0.0028124596585478293 0.04128471381277558 0.24631627820580032
24976000.0 0.9691051902511346 -0.21094045037951378 -0.007678698971307472 -0.0058829884277076016 0.00017123888896176606 0.0019098658427481603 0.05648447743731652 0.25651221249656575
25975000.0 0.9633406356418708 -0.22242419988417728 -0.0015985130707780607 -0.0015759412668471169 0.00962308279524681 -0.021571736534315565 0.07201422723177371 0.264148726614327
26974000.0 0.967966814587196 -0.22585089448332235 -0.004070826340607602 -0.004592410278395793 -0.00021917329789642356 0.007397199600069801 0.07443127525766764 0.2755436119080377
27973000.0 0.966706321331427 -0.23384939496150026 -0.005852995451352635 -0.002002870046544551 0.001970613895085828 0.001316077140670205 0.093173008014296 0.2571507487961253
28972000.0 0.9643634621573886 -0.2423030627144755 0.003959360814003789 -0.00036108459945039965 0.00022245234241990283 -0.0003261799375757165 0.10345787078136714 0.24907893521208482
29971000.0 0.9622940700915261 -0.25340464541654545 8.216316346131215e-05 -0.0021638250168555745 -0.00019006067158663343 0.0020448838547780742 0.14332596187034322 0.2671487659674679
30970000.0 0.9604025929760686 -0.25742252538354926 0.003342485325827202 0.0018085525511662148 0.0004829673117020976 -0.0002961961068164955 0.16377234406160446 0.2485522126507174
31969000.0 0.9567489875675741 -0.26780892865888917 0.0027380466237934362 -0.006604101307667332 -0.0009379452532236551 -0.00022700588402112766 0.14344718743964785 0.2562497380928507
32968000.0 0.9571017174877301 -0.27495724612935246 0.010262994440860058 -0.0064664396588675855 0.002947675422068459 -0.0028386720634714976 0.15716967458553055 0.24930854585368398
33967000.0 0.9539748592460615 -0.28438901980642184 0.01279402062194585 -0.012436346232926467 -0.0016301081839933847 0.0036411535219319975 0.17849672648638285 0.25331850652024107
34966000.0 0.9520509652662162 -0.2923438209842409 0.010833104290744683 -0.010826166905504881 0.0011459623433137322 0.001807885686708897 0.18421537477945857 0.24874985816048947
35965000.0 0.948369120578277 -0.3032108610828205 0.018352732291165876 -0.016144094411852192 0.002878870855941305 -0.000641441164731245 0.198691280231843 0.2506419644389806
36964000.0 0.9454328179063983 -0.3110778388467541 0.019201240376271494 -0.015972147400479416 -0.003229557584149378 0.0023218017591437982 0.21012433075672132 0.24368420287133916
37963000.0 0.9415845852043053 -0.3209601161073385 0.02340554908523557 -0.02032594866515776 -0.0022872305149350862 0.001616338506145845 0.2257585536547038 0.24191846761199576
38962000.0 0.9399261869963399 -0.3294248953077491 0.026531191544970325 -0.02479661408043637 0.000992190294922943 0.0007539515809584351 0.2343983555635754 0.22972777717570783
39961000.0 0.9358409591063485 -0.3384047690915568 0.030193781427668296 -0.025110624729747223 0.0020438191516402677 -0.0021618689258806733 0.24686300219243446 0.22605529761883064
40960000.0 0.9326377522524698 -0.344737340564466 0.025373945136287337 -0.02622379950199208 0.0005937833794810487 0.0009392690405911743 0.25663058383487214 0.22127985651335882
41959000.0 0.9299100916636649 -0.3557187496999201 0.033023399100631574 -0.03472335822843761 0.004700564364751223 -0.0027234275458750384 0.25702371904695287 0.21653757076376617
42958000.0 0.9237718082563107 -0.36481185044330183 0.031664691849218066 -0.04067655237251632 -0.003362156950204998 0.0015705471660183363 0.27088760549990276 0.20674117226989175
43957000.0 0.9236106094863126 -0.3691981249591096 0.03701913272246375 -0.04573638232268282 -0.0004924533594794507 0.0028408762062225455 0.27772694172916707 0.20235723156774962
44956000.0 0.9190986127793668 -0.37946757765063893 0.03738992018081616 -0.05336859363494785 0.0009878676009067262 0.0017111020132881585 0.3067354488922716 0.19969968473149025
45955000.0 0.915285640061835 -0.3893475541024972 0.03951823590883779 -0.06233916403693141 -0.0030540605457195723 -0.001700643648939738 0.2975715866354965 0.18874047349530831
46954000.0 0.9126318624945324 -0.3972334098294865 0.040684236239505074 -0.06612184398236443 -0.001515673806473729 0.0033253733687015415 0.31634289561118956 0.18209544602028913
47953000.0 0.9093321187018242 -0.4048246559132135 0.044443357024382235 -0.07871831534276692 -0.003032935949476472 0.0026859187412826262 0.3277993451860717 0.1765202179683184
48952000.0 0.9035831360422278 -0.4157358565063792 0.04424482808011382 -0.08076408904291048 -0.00037769546589772247 0.001750173100445868 0.32868135411034594 0.17054199360330405
49951000.0 0.8992538331223047 -0.4232416493149538 0.04223769577677318 -0.09069703998945478 -0.0006440516419311071 0.002811166872052573 0.3332813768435758 0.16199073270792505
50950000.0 0.8964022876219438 -0.43136824265950074 0.04548912366971131 -0.09711408367874204 0.0005692051343325354 0.0008298011116005331 0.34863271412443714 0.14273356297391482
51949000.0 0.8915674125947615 -0.4402263453100943 0.04636238862057009 -0.10674821891907721 0.0011216480095528295 -0.0012259936471149336 0.34560344412207455 0.1490588243612571
52948000.0 0.8889961834855961 -0.44580215221333824 0.04705337770805032 -0.11729513052767175 0.000615388269178839 0.0013578307069874627 0.36351966622567616 0.14211051539971625
53947000.0 0.8850812610115089 -0.45333318060260847 0.050328236938341216 -0.12442510129760066 0.004137566697751827 -0.002374389633075211 0.3621486560077063 0.13262369992128858
54946000.0 0.8789032360479999 -0.46462365483082535 0.05434308769132649 -0.13666235434918717 -0.0012716247650889222 -0.0010118026575437243 0.37540667827061325 0.12243118102356229
55945000.0 0.8761852267727893 -0.47185580391589504 0.05477012862958948 -0.15010547438497446 -0.001317893189818875 -0.0010503014323255163 0.3761811287175934 0.10532185429913128
56944000.0 0.8706715889598292 -0.4799805134421253 0.05703933764804777 -0.16034398190940002 -0.002236750963720803 -0.0006746901153196634 0.3922134477589 0.11324596446459641
57943000.0 0.868329704199752 -0.4901091739973566 0.05677348922483845 -0.16885728386565726 0.00043417911641166577 0.0004085996439670318 0.3908808309121552 0.1017854175293944
58942000.0 0.8598550782205481 -0.49756488614283756 0.05709008983580898 -0.17757490305867904 0.0003828477728630023 0.0031244723713105293 0.4133753206790923 0.10441941069311596
59941000.0 0.8572589857231011 -0.5043933568813133 0.061373230606028 -0.19295209198521096 0.0008678624650324516 -0.0017041264121621953 0.41128038235154557 0.09295759152843018
60940000.0 0.8501796300075842 -0.5122553662902589 0.061107340427986406 -0.1974477970839588 0.0006990680104464145 -0.00010512448230308522 0.3983381280514034 0.07785987937226557
61939000.0 0.8469577019810579 -0.518166885043772 0.06081697886115105 -0.20904366292849516 0.0004628193547568665 0.0007537204476610926 0.405801593500318 0.06848097356209734
62938000.0 0.8402719875520522 -0.529835922837744 0.06514930615424712 -0.22276810191863236 -0.002671273464438891 -0.0012790927272815856 0.42467137543868677 0.05057171405305505
63937000.0 0.8366285303034233 -0.536599193706377 0.0681058410855702 -0.24636725900629952 0.001635492360367481 -0.001494854234258179 0.4194671223214638 0.049538796774246524
64936000.0 0.8288467065070227 -0.5421088231678778 0.06672588617580442 -0.25979090459510623 -0.0014531020861475478 -0.00013075536234206228 0.4263916435921096 0.04698497000136707
65935000.0 0.8266984988765155 -0.5522724895631828 0.06560998412394485 -0.2738040901976187 -0.0014657384304893654 -0.0010564576017855955 0.4328964853796329 0.034349060596816645
66934000.0 0.8217502546015855 -0.5596024210626948 0.06554294668346947 -0.29154123943532906 -0.003186517723913373 0.0008240369014103286 0.4327333292688404 0.01744163586868402
67933000.0 0.8178986842946022 -0.5668387701508768 0.06693476158508753 -0.3058563560738235 0.001483106570322464 -0.0011139972396583115 0.43792038839030917 0.012511596416554333
68932000.0 0.8122181776361619 -0.57130225921345 0.0640534542782172 -0.31872057539328763 0.00024378541854201748 -0.0022330315538540276 0.447015085691637 -0.002831810152262511
69931000.0 0.8046433390936932 -0.5824842283359711 0.06204024686254492 -0.3372277576075915 -0.0035696074704134584 -0.0001594944698396461 0.42967357810966234 -0.008827391726319783
70930000.0 0.7983988278014627 -0.5886229772606999 0.06198025056351781 -0.35527141268130985 -0.0009749357821997045 -0.000417915967968024 0.43582115362231516 -0.02243289081693083
71929000.0 0.7940602982933718 -0.5996040949862179 0.052924569688486696 -0.3746734989092884 -0.0006902771687309604 -0.002601487818413488 0.4421744677960093 -0.03193045916246632
72928000.0 0.7885210366500336 -0.6070194540691066 0.04407175840852436 -0.38954266713400043 -0.0003665932718731165 0.0014455954419896886 0.4598428823084473 -0.04524031132982546
73927000.0 0.7824481468788593 -0.6138999101155165 0.042083686622569796 -0.4129908081372917 0.0034171509873578143 -0.0013182963878049256 0.45176464631774266 -0.05053778756381089
74926000.0 0.777806276216945 -0.6231538683563871 0.03555664458633752 -0.4358863622620797 0.0005497782731304578 -0.0013004530715091923 0.4574106362078345 -0.05358322032907389
75925000.0 0.7685609350569115 -0.629547833735806 0.023768876625250457 -0.4585978149228512 1.892544592129205e-05 -0.0018864982181072104 0.4591850505649921 -0.06629451795492325
76924000.0 0.7630756112779415 -0.634600078721864 0.010314087759175345 -0.48274038768570626 -0.0032429110871069677 -0.001444926570597518 0.46145225409394786 -0.06868105014204827
77923000.0 0.7568232146712809 -0.6419656904193779 -0.00039959100756051973 -0.5096438891732802 -0.004608516506566377 0.0020676348832192864 0.4566116351752826 -0.09213677863130816
78922000.0 0.7507954131899608 -0.6519565665095459 -0.017390373926619334 -0.5383767442794519 -0.00018799797092556496 -0.0017002260173250116 0.4573223229113439 -0.10149359010288522
79921000.0 0.7423290444864034 -0.6558849667593422 -0.031726948589925336 -0.5656051449810037 0.004945028651366988 -0.0031957173906901697 0.4542281800236972 -0.11174716426988071
80920000.0 0.7368004169759194 -0.66784404917998 -0.04807691133999447 -0.5952944126371474 0.001854188474199549 -0.0006776032206900647 0.46116208801805086 -0.13090495435556096
81919000.0 0.7307912851699181 -0.671942096741006 -0.06613947761169729 -0.6251972722383327 -0.00024222300426593482 -0.0035085777085030316 0.4626372892831577 -0.13620893872918874
82918000.0 0.7232879532978577 -0.6794273593977475 -0.08069234034639107 -0.6577045549868286 -0.0022092719298121523 -0.005719717979187793 0.45868979767619983 -0.1315619518545041
83917000.0 0.71351520487803 -0.6871055588043682 -0.10139925829158891 -0.682920523749957 -6.198674270592729e-05 0.00038445000347056725 0.46519030119894145 -0.14148231487870883
84916000.0 0.7101542767761475 -0.6946257300968247 -0.11445084086275835 -0.7235046097204962 0.0006612534466600897 -0.006118909320961898 0.4588489926501971 -0.15473999532085878
85915000.0 0.7040916254164599 -0.7002263947298815 -0.13227454301137934 -0.7573131871954499 0.0009971711016244949 -2.1235622853855422e-05 0.47150739935431435 -0.16302654391886973
86914000.0 0.6945139145859086 -0.7127609340975117 -0.1480617044643789 -0.7962539862607302 0.003114918429213181 -0.003937887634423828 0.4540816286752743 -0.1707316068442229
87913000.0 0.6883439353725003 -0.7169849113007184 -0.16860264886794538 -0.8264609945325383 0.0006070244252957015 0.002338559533926691 0.4664180137077017 -0.16941225195942042
88912000.0 0.6811475067341081 -0.7239626689732752 -0.1914357537480882 -0.8637050584846087 0.002659441014484066 0.0016614347760234103 0.4620320895090644 -0.2041280646380794
89911000.0 0.6757091526966026 -0.7304317611132743 -0.20533699337356165 -0.9042244676142678 0.0024542435832374636 0.0010304703582353716 0.4636935913309631 -0.20874984151273943
90910000.0 0.6685949764977556 -0.7361563745862462 -0.2190284838732835 -0.9393924321294965 0.0005537713925981315 -0.0013618715405073734 0.45311057720241127 -0.20113536034297327
91909000.0 0.6578345591653015 -0.7410420437713324 -0.24011685731878687 -0.9719102483029745 4.106839134856885e-05 -0.0021733451478384742 0.4587739419888001 -0.2121151276124762
92908000.0 0.6515547841230962 -0.7502787606645316 -0.25978678131254407 -1.010965435710474 0.0019000815052029464 -0.0006187590663656619 0.44350745421612414 -0.22678741474943562
93907000.0 0.6469199919622478 -0.754962069047555 -0.2797172188751557 -1.0438172614369567 2.048834774994514e-05 -0.00145721361373255 0.4592479161679511 -0.2527714778874282
94906000.0 0.6305931642929127 -0.7647022141435525 -0.3004756466176601 -1.0813964402520007 0.002172854808144369 0.001938632921732193 0.4566957196839446 -0.2407628994661841
95905000.0 0.6252741704363791 -0.7681333498625729 -0.32558436099062976 -1.1135374073821331 -0.002041492773773412 -0.00017896088763330468 0.4530676299565665 -0.2641850661383791
96904000.0 0.6172451552779448 -0.7764271276403897 -0.34706131630985315 -1.1592663836626471 -6.356579588578422e-05 -0.004552066362995866 0.4518995689406848 -0.27482395789891256
97903000.0 0.6079614431650724 -0.7837259719280983 -0.3751978644114444 -1.1950999431667175 -0.002143293281235928 -0.0021117949751595037 0.4513654012373093 -0.27867886845414525
98902000.0 0.6022645511367005 -0.7907485561922377 -0.39752010513972186 -1.2407541129533701 0.0021865813292763965 0.0015187053692404815 0.4484222133884377 -0.283161837739153
99901000.0 0.5951716533366266 -0.7964176228848446 -0.4281918041393977 -1.2742255610636004 0.0023584971822104006 -0.0006039739654774862 0.46020292825310805 -0.3110959030865959
100900000.0 0.5822455760017584 -0.798988234310982 -0.46695765075838547 -1.3053844619108235 2.1874445434460226e-05 -0.00023332169832294579 0.45494674868514967 -0.3161448095901802
101899000.0 0.573747941617461 -0.8085156522886411 -0.49625623874450636 -1.3481785033103575 0.0011935763019827758 0.00043850286227813996 0.44538179075634304 -0.3091559512975176
102898000.0 0.5652161665928251 -0.8129159405295923 -0.5392603249385073 -1.387287306692891 -0.0029334052881304306 -0.001253415398019917 0.45364169665069703 -0.3325108635591881
103897000.0 0.5579975725024168 -0.8204481310524209 -0.5796692779259471 -1.4296108014298194 -0.0013781347410267888 -0.001880488744681825 0.47093710898255764 -0.31859740615885535
104896000.0 0.5498714903511126 -0.8301855164474061 -0.6288927843283197 -1.4704545721863609 -0.00249643900952337 0.0013354243413349833 0.44510138991765236 -0.32511618542510917
105895000.0 0.5382940787413566 -0.8312192771784074 -0.6818872348002548 -1.5127497775050116 -0.00010420603383470123 0.0023822308534162764 0.42345140248259583 -0.3570519348575535
106894000.0 0.5286877611431864 -0.8383141888071591 -0.743411945604145 -1.553851149432937 -0.004334954360955477 0.004563914204543409 0.4401930492247814 -0.3596952643922202
107893000.0 0.5219671733495084 -0.8454923262392889 -0.7971571902028298 -1.6002877995638563 -0.000237724804684197 0.001307563745881745 0.4352852210668995 -0.3628754380069564
108892000.0 0.5121286244573716 -0.8470398522409678 -0.8590750749394036 -1.6398139705825958 -0.002949720377085373 0.002327667507271458 0.4240020113411241 -0.37073017115373996
109891000.0 0.5000906534867173 -0.8562765989347297 -0.9196293830638488 -1.6822659274935117 -0.00040000316403228966 0.0002292113487355222 0.44113390615674825 -0.3548114848816047
110890000.0 0.48961434755900185 -0.8714523687507957 -1.0025917767953956 -1.7035863557807251 -0.0011372322920016706 -0.0004044064244205656 0.4284089435614152 -0.3802630856743686
111889000.0 0.4801417824194976 -0.861900517224597 -1.0483792796435676 -1.755263361126767 0.002032625960175897 0.0003492748855131501 0.4215395300035321 -0.3828111812073954
