! Created with skrf 1.9.0 (http://scikit-rf.org).
# Hz S RI R 50.0 
!freq ReS11 ImS11 ReS21 ImS21 ReS12 ImS12 ReS22 ImS22
1000000.0 0.994586602749389 0.015273001346137483 -0.021474425753023194 -0.04995701559238596 -0.02485517922677683 -0.005885176834488615 0.286747827280319 0.34067940930883445
1999000.0 1.0011184660730281 -0.012351899529922897 0.008578404077010424 -0.019573720818220307 -0.00370030314557739 -0.006723845211099827 0.2552199720219522 -0.048644890493390325
2998000.0 0.9978649498251022 -0.018395744347708742 0.011940027304825384 -0.022656755781885987 -0.0015984780521858717 0.005923338977331963 0.19121531478348924 -0.15797822123714111
3997000.0 0.9959482666317806 -0.02908909607725774 0.010716423688877002 -0.0023410309442798575 -0.007589110139397609 -0.004936956052963446 0.07598678911743634 -0.23874112903700162
4996000.0 0.9964225989576584 -0.03908810943631943 0.013475759919283804 -0.005444789242084964 -0.0005788293737068621 0.0006165096744335175 -0.055824717165593465 -0.2297035592672031
5995000.0 0.9973680161009943 -0.04886762272769732 0.011540778643457945 0.0015872885891371402 0.00024258343794105814 0.001482249689032417 -0.1408990628178654 -0.09873477917637337
6994000.0 0.9931562306757955 -0.05953964673271194 0.007926662624534671 0.003288838657840349 0.003897551472451077 -0.00022813934155126018 -0.15912079568331866 -0.034256097387144926
7993000.0 0.9951530827948882 -0.07115859389301074 0.005463344955867283 0.0037709567239229236 -0.0028155471577063916 -0.002236175484444693 -0.16625968648393474 0.04489799472441647
8992000.0 0.9957811817406326 -0.0746601617278532 -0.0015151473878240354 0.006316378589450605 0.00029464620893092543 0.0011133719011379949 -0.15974274847768882 0.0805289472413731
9991000.0 0.9933713106702527 -0.08335304403262245 0.001039992617418024 0.00013687230098528855 0.0013108347390193213 0.0017898990249397163 -0.15362932308067212 0.10177860528998449
10990000.0 0.992954420271381 -0.09208495074400366 0.001675272482500915 -0.0025452056911328845 0.0019090177424279811 0.001094022935040749 -0.14257121134828216 0.11819680010340154
11989000.0 0.9903289672563358 -0.10060342648736922 0.003551366356196214 -0.0025125277247182026 -0.004150773997791056 0.003984490089793379 -0.12317013587384111 0.14205351047341108
12988000.0 0.9899534394409224 -0.11131934561920415 0.0011104904980858248 -0.0036299210149204485 -0.005416133661018366 0.0017349975338552472 -0.11650688679488498 0.17999195810469937
13987000.0 0.9865052451915466 -0.11917669682268624 -0.00034483604623631377 -0.006403691997649256 0.00099143405627116 0.0028201352899578616 -0.09753030598561536 0.18052860002050156
14986000.0 0.9878171303890232 -0.12547623596520413 0.0012341742622282682 -0.006905674641934219 -0.00011402006694893779 0.0016272735040697738 -0.09308790737845633 0.20268917618920834
15985000.0 0.9880756676334538 -0.13509815264726854 -0.0025519929982912603 -0.004395291762371683 -0.002698339602857102 -0.0015554941497006594 -0.06797124958282633 0.2185218945602228
16984000.0 0.9839216118373351 -0.14391288317736037 -0.000758082298632037 -0.004950613704009409 -0.0017441298871667598 0.0005339298963915259 -0.067926563674562 0.21533461407301815
17983000.0 0.9862933327920499 -0.14976400796904057 -0.0029885557428556858 -0.006480451332109847 0.0012636021072292218 0.002552181511649567 -0.06110986303032357 0.21238293844097997
18982000.0 0.9830015910465033 -0.16296125622074345 -0.0020322306868287934 -0.003839252573159438 0.0009613315646820922 -0.0049947013851927005 -0.030932857636451976 0.23511687420236985
19981000.0 0.9834013647961137 -0.16544567013113665 -0.0034809446139719116 -0.0020504299787507834 0.0008133937044144481 0.0035079409601307347 -0.02940137632992202 0.23743960234650474
20980000.0 0.9797800571725704 -0.17827902488210662 -0.007216849255142142 -0.0038073574787579776 -0.0023152628170294443 0.0044275268382564185 -0.01592217837738203 0.24950015149456087
21979000.0 0.979181605155153 -0.18532226758211803 -0.005425778331579056 -0.0033635253470974775 -0.002705761753213728 0.004586460579972946 0.013857056438939874 0.24330769175241468
22978000.0 0.9756144462448525 -0.19405451592619433 -0.004519151119430301 -0.0013760744441169833 -0.001943775137611577 -0.004746855416483958 0.023392750424255163 0.26639822170051836
23977000.0 0.9748924236004504 -0.203966184009605 -0.008206878916014739 -0.0033220928842482337 0.0035469950924478084 -0.00041717554341087846 0.04058060652887659 0.25313080234052615
24976000.0 0.973659483725687 -0.2135309012954066 -0.009589391617598498 -0.0008062152673025202 0.0013988136466312172 -0.004192124891030594 0.05246746953996001 0.26340360657850415
25975000.0 0.9733843732103219 -0.22572941525629522 -0.004933888667666737 -0.0030854609958270007 0.020725284053872424 0.009057277209862876 0.07783552833905158 0.2601462562198824
26974000.0 0.9696331961494834 -0.23030818856032345 -0.0011629900102289327 -0.0008134584659542904 0.0003917123240998887 1.405939598194318e-06 0.0839689586324885 0.26964492080477875
27973000.0 0.9695012720869214 -0.23491784256169487 -0.0020370865544914987 -0.0012420974451346214 0.0003359615488199469 0.0014054468819501868 0.10174069107184752 0.2605151281542453
28972000.0 0.9643992533568384 -0.24725668209731488 0.0003980073651856625 -0.0027521557182764874 -0.00488772994971878 -0.0014517036956355988 0.10953941057550373 0.254642623533004
29971000.0 0.9634318715655801 -0.25480717627383176 0.0009290144860456352 -0.004859392180715749 -0.00012323035499326547 0.0022411318012740067 0.15325759075706688 0.26527105575116827
30970000.0 0.9620206756157444 -0.25965152012808757 -0.001181686379790729 -0.0011210499247656554 0.002267429950104811 -0.0009635953162337889 0.16428930547248025 0.252550983574347
31969000.0 0.9608836548054748 -0.26750773298854996 0.0063360114789730556 -0.0037530786633005256 -0.00035238912711218573 0.0024286728441593594 0.14689105040814684 0.24477709149957488
32968000.0 0.9584544359376153 -0.2785847252533917 0.0077272496816005315 -0.008636021214257435 -0.0011527087434815059 -0.002620168821145173 0.1603091143319848 0.2542808147601675
33967000.0 0.9548638327106258 -0.2882401329155502 0.012608804236376748 -0.006026491259167956 -0.0008300143388036745 -0.002854303440562215 0.17962602111134957 0.24991909574041155
34966000.0 0.9534540060842758 -0.29525468571192215 0.011002845886904417 -0.010196570113475929 0.0014044384168209634 -0.0005608532930120187 0.1850995370500683 0.2635705557850695
35965000.0 0.9494254984660988 -0.3057959946882888 0.01483096522553445 -0.013481691852990406 -0.0011230803823591554 -0.0009555870044449188 0.20503145981347662 0.25258092005287086
36964000.0 0.9473232279265141 -0.3135514139832408 0.014141024548321725 -0.014551732892468937 0.0011297201601913024 0.0012524504570470395 0.21235361887218446 0.2483320646913866
37963000.0 0.9442727438093795 -0.3223984166023553 0.020574931348281995 -0.022032834990383852 0.002281622161487028 0.0005982817926865762 0.22044885446445942 0.24454255269238437
38962000.0 0.9404115804541805 -0.3344288803388104 0.024649113366875502 -0.024722456535039544 0.0018122592558504885 -0.0016683559825421655 0.23072822244718758 0.2389820684996285
39961000.0 0.9381999328754604 -0.33880355695075226 0.02872194066021227 -0.026333009953502177 -0.0026978006848250896 0.004319940362314886 0.24597413394385254 0.2248549234119006
40960000.0 0.9349824677027196 -0.34901204867816915 0.022500232960048883 -0.022723748732626177 -0.0010686379878251876 0.002963518168130733 0.2574519303589096 0.2292400911761971
41959000.0 0.9321357993731864 -0.3577957285615787 0.029933218358627754 -0.029747391565391253 0.001018114602930502 -0.0036684070476059043 0.2608335104102231 0.2298691466184186
42958000.0 0.9261989815557032 -0.3661234108783241 0.03152192781209872 -0.038815320081880524 0.0035187079080480446 0.000382572450509905 0.2735058806616545 0.2122242874590296
43957000.0 0.9271332626690514 -0.3700602227227886 0.034458177224580624 -0.04512972684561024 0.005337898597701753 -0.0021028830832106786 0.2786482832304134 0.21118503485271703
44956000.0 0.922581806933985 -0.3785497958240412 0.03537919599227718 -0.051162906477252044 0.0002956774790486442 -0.0005853150708912582 0.2998818854320657 0.20072628927898165
45955000.0 0.9182583832835454 -0.39178456594854455 0.0334974747842742 -0.05643167967123532 0.0031195634505707492 0.0016397437215501453 0.3082319134061191 0.2000509400702798
46954000.0 0.9150094180050792 -0.3990372063241802 0.03762018054969182 -0.06216965177680015 -0.0049580091576886575 -0.0024514081554843953 0.3255687177067616 0.1874136215214225
47953000.0 0.9114785957161058 -0.40565460556660266 0.03714011333936809 -0.07240951697165844 0.00030564732887040214 0.0022782516032746228 0.32310675920916987 0.18283070311998342
48952000.0 0.9047966671212913 -0.41602347312646104 0.03723883302991632 -0.0786501661690553 -0.001957123972289709 -0.0007030742265322698 0.3330310869218507 0.16329761278307386
49951000.0 0.900545688485653 -0.4228364398380313 0.03519512174687135 -0.0856828298289856 0.0013779794854679708 -0.0011616266541490112 0.3419427039486721 0.165550279698558
50950000.0 0.8985779056102192 -0.4348932232791769 0.03815211059988454 -0.09479923652759119 -0.0011074330268143905 -0.001660778498391859 0.346989886799317 0.14652997817510643
51949000.0 0.8952599901910497 -0.44005872462106865 0.04198784130197031 -0.10217312648642281 0.0003280394936658559 -0.0014103064831076434 0.35752796150391974 0.14579761489081944
52948000.0 0.8926466758956917 -0.44836196376183846 0.040889254091722255 -0.11287741074450004 4.9238945951588956e-05 0.0005567410342123315 0.3682432257489818 0.15415846648817064
53947000.0 0.8859891782389235 -0.4575808066817453 0.04385494720205348 -0.12144292598416387 0.00031401681595161056 -0.00030698714892909165 0.36461274978023395 0.13245179622676523
54946000.0 0.8807642385357473 -0.4649687341559058 0.04274187483842909 -0.13095629962619615 -0.00041329268041052675 0.0005992933604780568 0.3816247102525859 0.13530361231182972
55945000.0 0.8782040420482168 -0.4732833006352261 0.048489607540926086 -0.1406780967355507 0.002317186159259444 0.0012503916889664882 0.3878249468257082 0.1170248402986588
56944000.0 0.8739841155135194 -0.48163911430764356 0.049423401215760596 -0.14852398354648302 0.0020116792228764423 0.0006036699834042054 0.3911601150433299 0.11141023158906421
57943000.0 0.8689406099050455 -0.4923921972603218 0.0485869823478684 -0.16051856191362393 -0.0015168280276678502 0.0016597720326843861 0.3943435817809352 0.10443968847652153
58942000.0 0.8625855042396757 -0.4966076950678314 0.05044415868664135 -0.1705089110886494 0.0015182902885398062 0.0015996773126870656 0.4121862844454112 0.10572354255952889
59941000.0 0.8595368470209086 -0.5073519296635769 0.05321834709182694 -0.18284042537530873 0.0013384717468752907 -0.0017462889318256038 0.41425786722186936 0.0957652967937657
60940000.0 0.852795745018071 -0.5137419591235206 0.05432084172924378 -0.18423069864663286 0.0026281616173118613 0.0006190545347582083 0.40679115505112823 0.09837472363762435
61939000.0 0.8496120819274011 -0.5205862014969155 0.054283818099617326 -0.19677969126863082 4.6675640973108055e-05 0.0024065336148576338 0.4098951147004868 0.08656576454993484
62938000.0 0.8435770197464495 -0.5311573566022583 0.05849033365582865 -0.21037129298426113 0.002118355171128393 -0.0006305308982298937 0.43185307515745364 0.06836741975722606
63937000.0 0.8389354404991195 -0.5365508889551373 0.05676959590764913 -0.23093793056899992 -0.0022219605260252093 -0.0017744351646892529 0.4382128858848262 0.04689493417824881
64936000.0 0.8322065689879027 -0.5447428233785032 0.05823234921231209 -0.24436710029753458 -0.0024114719956530046 0.0015996646429428 0.4277562619212544 0.05172152495784782
65935000.0 0.8298370529870817 -0.5533710081543081 0.06033645156920323 -0.26145760115643457 -0.0010681849807711468 0.0011413805872188053 0.4367539772211551 0.025163769322504758
66934000.0 0.8241382345630476 -0.5620779435739345 0.05841537307998349 -0.27029750850649054 0.0029180960170726495 0.0006328847440575093 0.43715777713739407 0.023946946463640296
67933000.0 0.822088556807521 -0.5679551367239559 0.05842210335977082 -0.28527749232533267 0.0003449162424475723 -0.00024227437058807428 0.4406449300898082 0.022876275439625476
68932000.0 0.8078684043201195 -0.5598639957045496 0.057774043372587645 -0.2978426017969766 0.004860089057782641 0.0002237076673282314 0.4497287472510653 0.00174111958160408
69931000.0 0.8066916158766897 -0.583256816337585 0.0574721817299858 -0.3148483854004741 -0.0033362223945427433 -0.0014124648444302909 0.4510360180975013 -0.0009041750054431986
70930000.0 0.801981949503339 -0.5903032060753388 0.056559228691750285 -0.3269849058259942 -0.003189259695484921 -0.0009792858343611582 0.44728287262974387 -0.008390338410592908
71929000.0 0.7972114552144841 -0.6000839023001737 0.05273117134290255 -0.3506480050336169 0.0011764214620212268 0.0008623256662142438 0.44913406162733177 -0.03159181855205756
72928000.0 0.7916212755397801 -0.6096121252450375 0.04533449359216155 -0.36508619393883174 -0.00024899596207862825 0.0006215415677720504 0.4559552306486303 -0.03248616342328452
73927000.0 0.7844533369813388 -0.6152118695862769 0.04070999906842915 -0.3858929436882896 -0.0013716845456031113 0.001150703762205367 0.4533667243298658 -0.0430963166041772
74926000.0 0.7798481040651984 -0.6245166757668809 0.033194889684476224 -0.4063591395887578 0.0011741281986849433 0.0007786949951385658 0.4593617382286525 -0.047323353739891674
75925000.0 0.7726451393675141 -0.6285310150945256 0.021769837170824185 -0.4245287409690489 0.001118668318881332 -0.0006845812117982898 0.47491291843193356 -0.06234062922102723
76924000.0 0.7646172073882767 -0.6379387884176296 0.010650520905460975 -0.44660679424209654 -0.00013113266661672683 -0.00246383903565046 0.4638518674208979 -0.07709858088931162
77923000.0 0.7609845819954661 -0.6429366214123952 -0.003704597097375963 -0.4700278033616268 -0.002069859587575675 -0.0027395438484757017 0.4617165580830234 -0.07629082144639746
78922000.0 0.7542745592713441 -0.6529361029021289 -0.019584848692050773 -0.4987912903790116 0.0016239436256964722 0.001722833776735236 0.46651589344898226 -0.09219023254932061
79921000.0 0.7449621551317808 -0.6580325331329846 -0.036517744979758064 -0.5213859056999943 0.00035954886080832507 -0.0035653420586079358 0.461483977786927 -0.10097811213800259
80920000.0 0.7397175759191768 -0.6687422010044356 -0.049772733096841416 -0.5511158668420557 -0.0051497531666899726 -0.004389646448344855 0.46871510737658717 -0.11361347114649022
81919000.0 0.7343136631454663 -0.6743137877827257 -0.06717269300382017 -0.581244902894309 -0.00042470567121763464 0.0006837992902983876 0.47209720130718313 -0.11483685402746394
82918000.0 0.726900735373518 -0.6813752258392133 -0.08081734403782297 -0.6121513418940387 -0.004814753447935553 -0.0007174712916024653 0.4737220869620289 -0.1252752019129882
83917000.0 0.7179522786426693 -0.6920437504174132 -0.09915422522166978 -0.6438832027415301 0.0028324427021405112 -0.001611231142664192 0.48143385535587985 -0.14034678092914615
84916000.0 0.7125993446185006 -0.6973490927693844 -0.11546855648822037 -0.6768410878334195 -0.0022484582360295033 -0.0027193612455374693 0.47364834932992667 -0.15005391082886094
85915000.0 0.7061992140503045 -0.7029311568544477 -0.1370548355213552 -0.7088453523302627 -0.004391830960464256 -0.00021644105088593926 0.4659747636113275 -0.15654233797400458
86914000.0 0.6966564604370242 -0.712593774665031 -0.14951899675528535 -0.7450706112237235 -0.0014776798209471666 0.0003583169604436136 0.4723243348313047 -0.15656711938068466
87913000.0 0.6915206587260448 -0.7185066158499148 -0.1700890190933931 -0.7719977562744903 0.0008790168768000658 -0.0001698165710572974 0.4578837576498409 -0.17388719034322717
88912000.0 0.6840085489120957 -0.724977484550499 -0.18646500276370825 -0.8069864610173644 0.0050648230300932755 0.0006276086717061615 0.46159082498213494 -0.18904172079282405
89911000.0 0.6776542530689744 -0.7341752819882528 -0.19913706993886604 -0.8471906293828816 -0.0030750305273120194 0.0008569540534936317 0.47251560047247265 -0.1912624719361815
90910000.0 0.6688384641241024 -0.7392031019740865 -0.21956556428485643 -0.8750963623768941 0.0008484882268152545 0.003989567108115354 0.4750836048311264 -0.1923913657279405
91909000.0 0.6600410687120467 -0.7444360864375524 -0.23410120277181667 -0.907706458583274 0.002072967992477151 -0.0010260530449568634 0.4799053192284205 -0.20675212276846824
92908000.0 0.6526008663965795 -0.7541145178097513 -0.2499190532199901 -0.9428108068486614 -0.0010907618176094532 0.0036439491967076494 0.4546022003977169 -0.21244176833088638
93907000.0 0.6464725679299842 -0.75971264466903 -0.2695746906858512 -0.9748378485956666 -0.00035748506939010287 -0.0020415607695222185 0.476080104843281 -0.23056138249370928
94906000.0 0.6330357240326033 -0.767549871763078 -0.28951579815371487 -1.0153929107884383 0.005339056916056037 -0.006061584116970927 0.46209281189943646 -0.2361750811810427
95905000.0 0.625978302993494 -0.7761068293001843 -0.31122730688907485 -1.0435127606745276 0.006003870691596256 -0.0005508408644894694 0.46473809295860946 -0.2558936685289319
96904000.0 0.6181363074784834 -0.7817162100518742 -0.32736238748214386 -1.084777796086826 -0.0008632686272539569 -0.0014607252919351635 0.46011790661167595 -0.2612885239965373
97903000.0 0.6078638944778582 -0.7872654539881776 -0.3527752661017551 -1.1170324201238906 -0.0017890256726028485 0.002914087611409088 0.4644976663973851 -0.2667705447784359
98902000.0 0.6041128735749226 -0.7943560729509466 -0.3706591407698659 -1.156993192488506 0.0020222779874760014 -0.003026124533503209 0.4486179725036033 -0.27917016197967187
99901000.0 0.5948222721874628 -0.8000709390239994 -0.40118875790275726 -1.186712521675508 -0.0010230663441330046 -0.0006005164663881652 0.46155830090466965 -0.29783310364698284
100900000.0 0.5862288802946918 -0.8021269466122131 -0.4292443901564736 -1.2178950877001669 0.0003808868061338653 0.0015695551667772444 0.464290918098248 -0.2947021483285896
101899000.0 0.5766750061468272 -0.80984823708554 -0.45325519488963745 -1.2588266287279422 0.0006995753674793386 0.00010789049544050841 0.4532284621577148 -0.2947769973050015
102898000.0 0.5670527800283298 -0.8158194592721741 -0.48838750136795106 -1.299228508819203 -0.001773232373162445 0.0036720849134611096 0.45588768604938906 -0.3220334812228904
103897000.0 0.5578539319867061 -0.8228977811095202 -0.5318379362581525 -1.330293694956369 -0.00034256262168522395 0.001248825320918881 0.47189604909527105 -0.313452846910462
104896000.0 0.5510852557254325 -0.835127136992946 -0.577700570732723 -1.36377398690402 0.0007209321601905092 0.0011347325922820082 0.453737339200641 -0.33365611797646166
105895000.0 0.5392572784781492 -0.836439276725059 -0.6195533776118621 -1.4056056664348409 0.001904211533487711 -0.0030565405942883173 0.44947146358162704 -0.34229106183450086
106894000.0 0.5318453638056934 -0.843785747581926 -0.6767971211598943 -1.4442404073486792 -0.001160343742628457 -0.0010449845576428315 0.4459026560141171 -0.35591464535412976
107893000.0 0.520712047401291 -0.849549239333516 -0.7277913278273184 -1.4817088429446414 0.0024175858893990035 -0.0006650281502160844 0.4461146260179066 -0.35400698778117834
108892000.0 0.5119675120220227 -0.8524803372178035 -0.7884564169887097 -1.522826096829617 0.00013381264489712732 0.0007901420759190308 0.43869504838755 -0.36184534367357163
109891000.0 0.4985755870207756 -0.8605257831627644 -0.844639150048741 -1.5584689244912586 -0.0006296560748623312 -0.0009973719471581114 0.4486228465890895 -0.3536866363580935
110890000.0 0.4791469778708061 -0.8707171872693644 -0.9231248199636022 -1.5568853865545682 -0.00012161327924319026 -0.0035310076935459542 0.43403607866626653 -0.3742944242237794
111889000.0 0.48041281155767956 -0.8666574385195374 -0.9663212971749016 -1.6268396728400176 0.0008288011523803821 -0.0001244676175033117 0.4323250082666332 -0.37999568060605043
