! Created with skrf 1.9.0 (http://scikit-rf.org).
# Hz S RI R 50.0 
!freq ReS11 ImS11 ReS21 ImS21 ReS12 ImS12 ReS22 ImS22
1000000.0 0.9816429992510965 -0.005029980011325504 0.012654527559634067 -0.033998035999928906 -0.032069237375136825 0.005954452626625473 0.9910010438079688 0.1014882687236129
1999000.0 0.9911301297959513 -0.015820751678117254 0.010572146730482124 -0.015958648962526748 0.0009658257837250571 -0.004589871865618024 0.9966312561403189 0.01816262230984583
2998000.0 0.9989960292934443 -0.020796120619524266 0.009888603346799781 -0.011927632992834756 1.8756325959215336e-06 0.0029519838218471416 0.9989904877932352 0.02363122575415658
3997000.0 0.995875119752009 -0.031923849509918105 0.005729381235089873 -0.007002708217818306 -0.0013698792282374904 -0.00495570983046258 0.9776385421631546 0.038683557724979035
4996000.0 0.9936924012923996 -0.03592231794782625 0.007462822991383473 -0.007335179007316605 -0.0009334857836291806 -0.0046346945369345775 0.9821718306327708 -0.006321631868570376
5995000.0 0.9918797787039586 -0.050888931787138304 0.00812793666414631 -0.006877042137556391 0.003673075276177156 -0.006408353596965144 1.0098394477730117 0.017788028681915126
6994000.0 0.9924279140186718 -0.05552568202721734 0.006211141384081265 -0.0004686697533893855 0.0002764860524235456 0.00025927194048767487 1.0159846383309228 0.007236256680823107
7993000.0 0.9914984884373964 -0.06719171901066454 0.00914609900120561 0.0030518333227988943 0.0009416212561230898 0.0036773396440032803 1.0032061373830283 0.013949603932753015
8992000.0 0.9915718567269332 -0.0728327780874965 0.006413301261415463 0.004152994802793141 0.0039471273091732356 -0.0025616562865027103 1.0033739465090443 0.0047722624495929985
9991000.0 0.9894570536255065 -0.08128756181588585 0.004017483182526802 0.0003269731605656782 -0.001079520210290391 -0.0028137204531677603 0.9931670957903243 0.009465502821273014
10990000.0 0.991451122362348 -0.0918820433841152 0.0049859652408683315 0.000960959877110799 -0.0007252212937118206 0.004504192818890856 0.9926319966783704 0.007615928956890277
11989000.0 0.9888487607053382 -0.09959011431119448 0.002567060219486405 0.0024585818427561874 0.0032404690009355287 0.0027088472647928854 0.9886142201931399 0.008534539972719937
12988000.0 0.9852994223820285 -0.10910455551277762 0.0058076546489249205 0.0004988912995851449 0.00015950890889348957 0.0009797037783986589 1.0152133316685965 0.003851304268593741
13987000.0 0.983738646758041 -0.11896879995468711 0.002847796260520388 0.003721752974253678 -0.0008520901263894794 -0.00047318242169332663 0.9962143505990133 -0.0172768131501763
14986000.0 0.9848605144606429 -0.12347478967513087 0.0006825609981085271 -0.002294488708505904 -0.0030326979553773475 0.000935719596185768 1.0090217894242421 0.009595049906624714
15985000.0 0.9845606256808753 -0.13450962051423485 -0.001620333931795011 -0.00040646062664140097 0.0011171448711849313 0.0010488769169379232 0.9983227839718741 0.01632450986109839
16984000.0 0.9830020309908535 -0.14352062424912 0.0005110497615376766 0.0028841205258116867 -0.00023806531341972884 0.0007863353356300137 0.9895943798120915 -0.002464849401431028
17983000.0 0.9833168226021471 -0.15041710450815637 0.0009024334516957678 -0.0007742798283182005 -0.0009367388410321607 -0.005476892865905057 0.9980155633837017 0.0013322023128889728
18982000.0 0.9797343947720312 -0.15945778957981835 0.0007987903864776246 -0.0008506927550525671 -0.0027102082537871107 -0.0010204171648033067 0.9932980332773452 -0.0035042196846109654
19981000.0 0.9783521765108026 -0.1635420762512668 -0.0023605678754320806 -9.398717032463068e-05 0.0012033783845188958 0.0001751716135156961 0.9961966291855078 0.0010102539640073913
20980000.0 0.9773323625657677 -0.1761449508178274 0.0016548650978655344 0.0010673586765312282 0.0017045838468460225 0.0032483516295917863 1.0057076030051384 0.00041801519042121703
21979000.0 0.9773846706371596 -0.18538455191436834 0.0005165307099785459 0.0008342048201017898 0.0013420374812371967 0.003594400396527149 0.991628945932225 -0.02315978244618472
22978000.0 0.9749520701494728 -0.19246698863248585 -0.0038738991818883105 -0.0036995073920408758 -0.0031566321571914447 0.0030839140886193455 1.0106452086666315 -0.0016507981314611688
23977000.0 0.974962009344356 -0.20290925505066543 -0.002854103852314988 -0.0032247633695359325 0.0012789977616841702 0.0002861799177927803 1.0143074582086076 -0.0007682413707472753
24976000.0 0.9700202870428049 -0.2114137651393459 -0.001515580875729383 0.0006090604097028116 -0.002733003945127989 0.0037337065035316914 0.9942870203213254 -0.005363842785750385
25975000.0 0.9685722082511211 -0.225757297247613 -0.0012411558745816806 -0.0029596785325253453 0.024562969529649117 -0.016202592525134025 1.0039856195200212 0.0018507694181159947
26974000.0 0.9675524520510953 -0.22669713303637712 0.0001858651658239997 -0.0029154314688159123 0.0017417403841985366 0.0015297830473802272 1.004664336791056 -0.0106070405480228
27973000.0 0.9660866274038293 -0.23627149971482922 0.0032408036800972793 0.0014070109679984494 0.0018676083474978642 0.0009369849022029637 1.0004813365478233 0.005577020147093229
28972000.0 0.9622433303494545 -0.2470308724734429 0.004390249980679437 0.0028617428654832363 -0.00041769933817315056 -0.0015253896195696077 1.003501641504497 -0.009611822896318104
29971000.0 0.96272019480474 -0.2523968940936545 -0.0008012344987595948 0.0008298779678298857 0.002107862113343595 -0.0002708722731374928 1.0055838240054342 -0.03358207328170581
30970000.0 0.9603650013070973 -0.25983341730697174 0.004351151512057457 0.0014067427392455605 0.0008161848115326908 -0.002730245575334268 0.9972270268029351 -0.024994606930059157
31969000.0 0.9574173649344287 -0.2687639955128195 0.0007336279500934438 -0.0023143073612728474 -0.0013625985440341186 9.637427364758874e-05 0.998837543405044 -0.0091738581560186
32968000.0 0.9554721204550168 -0.2787984806328646 -0.001308724257115462 -0.0024183617694707262 -8.643081323622185e-05 0.0030207498624704367 0.9991367726298183 -0.01821356138241116
33967000.0 0.953462737084985 -0.28854504445650925 0.0003577088405741592 -0.0008612054102100676 -0.0024753653334691605 -0.004535575569688936 1.0022646182284038 -0.016419368371580177
34966000.0 0.9506664115813802 -0.2965375539387584 -0.0018837512411909452 -0.0020605819454250236 -0.0015003920638192035 -0.001546099094763447 1.0083326964446884 -0.00848947333018306
35965000.0 0.9471162981186729 -0.3042001344953368 -0.002610838515049236 -0.0016415213959420389 0.0016181314047941802 -0.0002638573895948571 1.0006434978133403 -0.016326761739047176
36964000.0 0.9460618491942068 -0.31247418573737906 -0.0011471939655474813 -0.0007324231420650529 -0.00021821691258232023 0.0015989002211795583 0.9966941518793933 -0.014515136195607174
37963000.0 0.9418328805292656 -0.32058240003460275 0.001427563169978875 0.0016580852536042488 -0.00018350833488739115 -0.0013304085422842326 0.9987065499447785 -0.023683286998169954
38962000.0 0.9389375204220045 -0.3325043440254244 -0.00044448099905369695 0.0019895705462436427 8.677053397203652e-05 0.00340466475716453 0.9916840920361678 -0.01602174995721118
39961000.0 0.9366416939774675 -0.3400596049342234 0.0013080228996300036 -0.00129620086176623 -0.0023498966543164658 0.0003784945208272921 0.9914774422296161 -0.023620398555234935
40960000.0 0.9323536941463533 -0.3462981749542555 -0.0010937979348202452 -0.0010367477656030742 0.001952671612016129 -0.002319634227141497 0.9829046160873044 -0.019399583357089783
41959000.0 0.9310657954753174 -0.35581610317819296 0.001525186622216853 -0.003012604060511562 0.003850814997217162 -0.0003064449102732715 0.9881918772948067 -0.01899993857689357
42958000.0 0.9250063883982435 -0.3650340865185579 -0.0003403851896194156 -0.0005882512453465394 0.0008734444967036112 -0.0018031144224907568 0.9942361710000658 -0.03301320780260301
43957000.0 0.9226322892052743 -0.3728020759060162 0.004521502423814804 0.0037597641415302702 0.001423767464838457 0.0006360956280281079 0.9996343172559242 -0.020244918672156196
44956000.0 0.9194254577389251 -0.38032973620474086 -0.0011306587870406214 -0.0004443591886850444 0.0018312174224751118 -0.0034729889546791836 1.0037517279375854 -0.01469511734119355
45955000.0 0.9156969588063272 -0.3910666762303373 0.00137253265328109 0.0007882079833350915 0.000873029931604941 -0.004473712747388445 0.9951158314972699 -0.031202807642052705
46954000.0 0.9123563592744383 -0.3982857681219506 0.0024336135589169356 -0.0013866773893936705 0.0031043391937307075 0.0009389368678821709 0.9991471802669839 -0.024825672715665603
47953000.0 0.9096254373201345 -0.4067733745147957 0.00038527604537987503 0.0002491731442720994 0.0001049977521201812 -0.0006440102023840297 1.0036025324986897 -0.016359854136776382
48952000.0 0.9041659438185519 -0.4160637362036102 -0.0012602071479630621 -0.0012296525256440555 0.000552368506244937 -0.0012738322065895243 0.9890559628405189 -0.0329606439174686
49951000.0 0.8997254040034708 -0.42380609408996384 0.0005190855447912323 -0.0028399357406717484 -0.002606643262081071 0.0005104598902591198 1.001884096746199 -0.030698875615445983
50950000.0 0.8971855241802057 -0.43019246440923326 0.001187517898873823 -0.0003231767596135289 -0.001537502210107441 0.00045697198729871205 1.0036390611339028 -0.028601043262406842
51949000.0 0.8926153472557212 -0.44035257108542936 -3.206604220077248e-05 -0.0053655607139472 -0.0020547826621079963 -0.00016168727207565556 0.9896824208578804 -0.028730920544339733
52948000.0 0.8904541431091214 -0.4474768276255211 -0.0019846047716076697 -0.002681622167814114 -0.004375719617326818 -0.002744620007312714 0.9894378094171844 -0.00886746197812725
53947000.0 0.8829755411562613 -0.457580075926397 0.003113795936097869 -0.0009112641673743117 0.0014000429614375739 0.00021511098450360076 0.9934041516562153 -0.03432271375685942
54946000.0 0.8778076528252399 -0.4655435218875281 -0.00417931176267132 -0.0023299006306057657 0.001507490815280134 -0.0022442602014574957 0.9994815068915446 -0.024153927815109687
55945000.0 0.875101949899925 -0.4722527336536539 -0.00016452695363257963 0.002586472805708013 0.00034861992942717654 0.0003324529824353971 0.9837860097106123 -0.036219125299779914
56944000.0 0.8719059428621071 -0.4817197829565858 0.00025939663895238504 0.0013257229368975275 0.00029294982707885617 -0.0013651966340489082 0.9975422379319989 -0.037017186041881235
57943000.0 0.864844682483389 -0.49353467376184035 0.0017333133775329229 -0.0008912229477888297 -8.00241375084442e-05 0.00011701819561516753 0.9869877804333329 -0.023583487412445266
58942000.0 0.8611031563463415 -0.4963368930679727 0.0008995941066269615 0.003450364377181349 -0.0009937737052088137 0.00017049704885582548 0.9875924422853655 -0.02330198771751254
59941000.0 0.8574653538501905 -0.5072300401904125 -0.0014089196060493722 -0.0018351693249097432 0.0009276718793642084 -0.0028054774215562454 0.9930196519864191 -0.03133276080289109
60940000.0 0.8495877262070713 -0.5130566888788202 0.00010832851929075143 0.0009996905564604846 0.001554178868504973 -0.0012608735243443737 0.9831960636180588 -0.03198824052857751
61939000.0 0.8462669143125515 -0.5194585279499343 -9.942629735464075e-05 -0.0011679886769242868 0.0022086836561664223 0.0007185523937524147 0.979263816383933 -0.03246944624080936
62938000.0 0.8422404030351054 -0.5304019886343406 -8.38656673340011e-05 -0.0012668839043727023 0.0017150687393903366 0.0029234955390022473 0.9967981687339298 -0.03844473022631582
63937000.0 0.8374603560556445 -0.5375225668259453 0.002122720502752388 -0.0008389187405789966 0.0014998225283138686 0.0031325538076882567 0.9979405743143217 -0.041053005622144804
64936000.0 0.8284057738560751 -0.5455681023409611 0.0013483027479457362 -0.0011000734535393428 -0.0007091703378116179 -0.002426809930485731 1.0030800837537548 -0.030089884821322733
65935000.0 0.8255821173567265 -0.5553373760704248 -3.8087016451329126e-05 -0.0006016951917779019 -0.0010680367240938672 0.00031529774536276134 0.9937670422614907 -0.03959047209441064
66934000.0 0.8209845738279049 -0.5605933715926485 0.0006717425088036611 0.0019996976917279682 -0.0004678066244669502 -0.0006248378924375808 0.9928613396211082 -0.034175317882036996
67933000.0 0.8173358213185729 -0.5697433054442095 0.0031064393637896437 -0.0014000984527875859 -0.003977433275108644 -0.002708625024114362 0.9990823219483059 -0.028240386240127067
68932000.0 0.8094955703730805 -0.5747293878499351 0.003371621238153256 -4.0969022857629486e-05 -0.0007620632360114815 -0.0026020690442768247 0.995386006369995 -0.046999927221139964
69931000.0 0.8027083026815853 -0.5837352575457887 -0.002251607182171868 -0.0004937439689029727 -0.0008156855760064631 -0.0032279967177949553 0.9942394819376327 -0.03102784307098852
70930000.0 0.8006921948543368 -0.5909853607098442 -0.0007135794435843719 0.0017237321598768814 -0.0035335028037981014 0.0021761243686083194 0.9870099440635998 -0.03430702223247515
71929000.0 0.794532356250892 -0.5998197551001514 0.0023915865328401377 0.0027613683948429783 0.000959998767561919 0.004115902785438402 0.9941567948174435 -0.03730705766081699
72928000.0 0.7869152133737797 -0.6104408350191678 -0.0031444715302986945 -0.0011420188482967283 0.0013239076874480957 -0.0016792311503827683 0.9955076563476315 -0.04402639514253025
73927000.0 0.7822693813875077 -0.6162841139447016 0.0008563510206594048 -0.003694396760381266 -0.000378949362868755 -0.004500748786731532 0.9903815188404633 -0.043266967067927535
74926000.0 0.7768157559187906 -0.6244144470088099 -7.081599887658349e-05 -9.531886067516612e-05 0.003394324248860908 0.0016848334236935218 0.989616903800687 -0.03728631610848409
75925000.0 0.7683750274259623 -0.629634033229742 0.0005415107904297861 3.330741024559193e-05 -0.004577872140318766 -0.0023085802124668043 0.9962020480587903 -0.04497019395635151
76924000.0 0.7621790957876791 -0.6368031402225305 -0.0032798842981269804 -0.0016196953528982184 -0.00012356719976135963 0.0025677219572304037 0.992426824374037 -0.04240530731953707
77923000.0 0.7574660984066588 -0.6436296136456076 0.001429514714292401 0.006796931019520612 -0.0024064817595549686 -2.0162570228581016e-05 0.9927944738692128 -0.03738983959250165
78922000.0 0.7512886851170366 -0.6540368760552528 -0.005256627906004685 -0.0003528014581344648 -0.0011356313538542775 0.003634563046946236 0.9851191792620848 -0.0429007841769407
79921000.0 0.7418859304820634 -0.6576202566426637 0.0021880619546047956 0.0014440250949381182 0.0002882826319903639 0.0012355354170385843 0.9792667033160236 -0.042230904164685466
80920000.0 0.7384358076853877 -0.6679318343004989 -0.003743189264514815 -0.0023372688090206994 -0.002564017344104023 -0.004261645007744516 0.981369205988719 -0.03485745782571177
81919000.0 0.733624235370151 -0.6723386798508333 0.0018837805000341528 -0.0017472710379019842 -0.0023767632197214585 -0.0015159194834420743 0.9891668099630714 -0.04474935097273563
82918000.0 0.7221328670592437 -0.6822752234712883 -0.0012004154013229552 -0.0017900610062415883 -0.0007808485989047422 0.0006334231510061036 0.9908561019197248 -0.025678300248611723
83917000.0 0.7143492573879292 -0.6905908475170476 0.000258846005598126 0.00018269490137082353 0.0015049939224585117 -0.0017682591969117375 0.9968852043906586 -0.04236084424317749
84916000.0 0.7092840349465709 -0.6984800648199716 0.002691392430455 -0.0023261796576768373 -0.00020947217693878726 0.002095251320042076 0.9812708840461695 -0.046348233755439394
85915000.0 0.7040147381902672 -0.7034005247452476 0.0025868683494565 0.0007257450148338607 -0.001390889886088232 -0.004305120212302725 1.001591485655423 -0.04311303033379175
86914000.0 0.6972021093477371 -0.7130852085529935 -0.002281674043540457 -0.0019352513389825471 -0.005041302108100255 -0.0004686342795570291 0.9825837117120615 -0.03906899362856103
87913000.0 0.6895045502289174 -0.7177089714881779 0.0013499583313173827 0.0021682594402438996 0.000899424270962236 -0.0001719380011197359 0.9927469084124332 -0.048105543043978564
88912000.0 0.6810520856579274 -0.7254883015693548 -0.0009545258314187567 -0.0004899114141866174 0.0014827273840840294 -0.004715358878795582 0.974803260499274 -0.04771934312188894
89911000.0 0.6771753140747777 -0.7326120227519652 0.0006528711014020365 0.0011939572514533725 -0.0015533698145089657 -0.004424303692319548 0.9854099051189811 -0.046211619852594706
90910000.0 0.6687766469813943 -0.7399257835366487 -0.0034719317797406654 -0.005565209192350887 -0.0012664354703100951 -0.0013750889398655086 0.9799394558063913 -0.0589774218313556
91909000.0 0.6585633376901063 -0.7433637506567474 -0.00018209983315712556 0.00066359359963546 0.00015456530012389292 -0.0008655299075818068 0.9903303420781422 -0.03993912359316091
92908000.0 0.6520430116823935 -0.7532031457025083 0.0005514433719552683 0.0016812087881136607 -0.00018477623912367948 6.7933607528838645e-06 0.9735589647730072 -0.041006506350949934
93907000.0 0.6454063518381803 -0.7563695233362666 0.0012343679762359815 0.0009678854514993434 -0.003381339370659574 -0.004214151141360205 0.981327323377175 -0.04555690826196665
94906000.0 0.6301385860933015 -0.7676432995997129 -0.0025861640330955564 0.001890307057814398 -0.002869085960487988 0.003341415428681492 0.9831394520909481 -0.058343334017783105
95905000.0 0.6250657151181017 -0.7726135202142763 0.0014257721266634554 0.0023905197432837833 -0.0006393200213631059 -0.0010716653580335968 0.9862694636676436 -0.04915816463964815
96904000.0 0.6157931015241309 -0.7819773591577261 0.0031074990700151513 0.0024208912594032325 -0.002505473784542826 0.0019928341649692403 0.986988824813591 -0.04980743585135356
97903000.0 0.6080662806026754 -0.7855335900049268 0.0014674531657367376 -0.001675219916121232 0.0034852950044398103 0.0013264564822669095 0.9880629492748035 -0.06252356041027242
98902000.0 0.604068255810355 -0.7934485514607962 0.00017321623647696268 0.0015381772674973966 -0.002792678323780354 0.0022145213149769756 0.9646615169485415 -0.05600657053898683
99901000.0 0.5907110668369335 -0.7982974657183699 0.0011045771195691428 -0.00548383520623052 -0.002052824838465737 0.00029309129700167026 0.9971243059090652 -0.061096221964741154
100900000.0 0.5837099812744996 -0.8037768147057511 -0.0024489308240680653 -0.002101952055264179 -0.00046003125186233683 -0.0008077583567843611 0.9964091348030651 -0.05870433081985662
101899000.0 0.5768796519749437 -0.8110978374556721 0.0015026941476562776 -0.0036341766090683563 -0.001240272075319605 0.0004172670918996609 0.9743991093844715 -0.05783882280742598
102898000.0 0.566435637979266 -0.8171871616123334 0.0007732639835098762 0.0008549103794991836 -0.0010712060803888524 -0.0036163682332055113 0.9872779337103591 -0.06697472499834335
103897000.0 0.5561288561157582 -0.8237890909543404 0.002572464231015759 0.0011268640168048227 -0.00027487284552121484 -0.0022527399443164915 0.9752805289457159 -0.06416898638255492
104896000.0 0.5506468085764359 -0.8355255439426051 -0.002478085651454504 -0.0008764304671286275 0.003014240530126831 -0.002113216989577909 0.9793198254232525 -0.06909547309317905
105895000.0 0.5403366402422173 -0.8367341583661758 0.0026810164991917028 5.307597443163021e-05 0.0014476232713174606 0.0009794379671914572 0.9932825945843269 -0.07347218894131187
106894000.0 0.5318262859921858 -0.8433638802603285 0.001466294330250564 -0.00032303391382957036 -0.0006184156185417273 -0.002965731204623853 0.9736778140356882 -0.06186724906348819
107893000.0 0.5226770779592581 -0.8505045695938216 0.0016533004958568026 -0.00024031531777156975 3.7236949439438284e-05 -0.0005862131470183304 0.9834799865101236 -0.06986030054363601
108892000.0 0.5134131675798097 -0.8550162969982888 0.001344455002787492 0.0026646238293574734 -2.907551423382882e-05 -0.00145910662137523 0.9821649502964275 -0.050839676112423876
109891000.0 0.5022200925824758 -0.8614757959051719 0.0015032072795227525 -0.0006156934676361329 0.004082905978732948 -0.000612613955788424 0.9776661809956656 -0.0731467939649467
