! Created with skrf 1.9.0 (http://scikit-rf.org).
# Hz S RI R 50.0 
!freq ReS11 ImS11 ReS21 ImS21 ReS12 ImS12 ReS22 ImS22
1000000.0 0.9898116852374285 0.00877874363190463 -0.0062067107407846765 -0.062121245838622934 -0.016496425463810808 -0.006276778403690416 0.30432776166728337 0.33739105836192684
1999000.0 0.9980960037558128 -0.0164809698733554 0.0013327533131925898 -0.020014302590864216 -0.0016417114502197394 -0.0008708650983093761 0.26560862042213945 -0.06585783023003282
2998000.0 0.9970388197323796 -0.02670978309671023 0.0119756288206984 -0.016013694476880027 -0.00010730689683609168 -0.004289313533075008 0.18645449119747812 -0.12732681840166096
3997000.0 0.9937993681268795 -0.03233166519227046 0.009609378473993542 -0.007325428464161637 0.0013057619891237422 -0.000788608672273269 0.10150812522077213 -0.2331132813186843
4996000.0 0.9941745722225761 -0.04223920161021016 0.011591933045937294 0.002790021557426916 0.0010198164687181285 -0.0035728759556675465 -0.02465227741435097 -0.2051806734379383
5995000.0 0.9910246454268881 -0.048730829120802316 0.008236999379677252 0.004759710361460723 0.003845961066209161 0.003387793558350817 -0.12508083240357323 -0.11353816869770808
6994000.0 0.9932005265325843 -0.06028494893120014 0.004460452592832053 0.004531476964478338 0.003868619927687348 -0.005593835951840234 -0.15379114056717377 -0.03145375905051416
7993000.0 0.9926603331850048 -0.06940666339426758 0.005273709738003488 0.008167445628235745 -0.0014932138624996517 -0.0025813107610938423 -0.1692406592861992 0.03054891996671311
8992000.0 0.9897385580625532 -0.07560236356138658 0.0032752205999544096 0.008030658663903869 0.00022346373791949805 -0.000625729944916372 -0.1613145862086188 0.07300702375348618
9991000.0 0.9888199888695425 -0.08565089408568934 0.004553537522888441 0.0035700320994280985 -0.00040223364338006114 0.0014514646035925923 -0.15320501394394104 0.095786842206677
10990000.0 0.9894108496610045 -0.09305055538839765 -0.000649146635348897 0.00030605064464759126 -0.0034419909683221705 6.983663277684744e-05 -0.153358535229662 0.09436172070269024
11989000.0 0.988224466182278 -0.09945856831742426 0.0016408650159752567 -0.0021255109691197833 0.0001339308878341009 -0.003271810068011279 -0.1407092330958792 0.12978861917198106
12988000.0 0.9857328022025782 -0.11253324606911835 -0.0008609371873376278 -0.002220415377733449 0.003198643350098775 0.0020891366551446283 -0.11695341656172169 0.15901839328687864
13987000.0 0.9838338944950844 -0.11806076203224773 0.0026080457482770742 -0.0020343234912112373 -0.005758944288295796 -0.0006185714269194989 -0.09640208606770172 0.1688727444184094
14986000.0 0.9850713852597897 -0.12542179622521415 -0.004894871845841287 -0.002068182883061918 0.0024382876378946424 0.0016865155107766323 -0.09650694788015826 0.20320160926554304
15985000.0 0.9840624927539641 -0.1351799290902853 -0.0015096808760411923 -0.002272504328404128 -0.00028031349177583384 0.000960527685090565 -0.07675081071779216 0.21352345527206523
16984000.0 0.9812470520704317 -0.14530983273022985 -0.00013531181297399443 -0.002147486498459464 0.0023200874019870914 -0.001564660385176537 -0.07244165807161865 0.2184947104047251
17983000.0 0.9847657809801793 -0.1528614221263742 -0.004090264474511508 -0.004825558916545222 -0.00011359281141331946 -0.0029986136245323796 -0.05144137172797222 0.21799543568787075
18982000.0 0.9788801357635062 -0.1626976194436158 0.00029378365336941444 -0.0037622648784524622 0.0007389618380558462 -1.7679515271992147e-08 -0.03818760187594795 0.24062107137448313
19981000.0 0.9787453551705623 -0.16751363709575975 -0.00620814787474275 -0.0048622601039256495 -0.0011719140409073424 0.001282722374375774 -0.016437123017971556 0.2363600260112781
20980000.0 0.9788150089807899 -0.1775420337101505 -0.0014515657176594344 -0.007386889027792136 0.001430215060086027 0.0015443713706240225 -0.0024299858011401906 0.26522987714753093
21979000.0 0.9765735624844122 -0.18532846658164523 -0.006398557335747614 -0.005100117993502739 -0.0031694411323024796 -0.000376901527438105 0.011798100870501729 0.25108989726609765
22978000.0 0.9736762583047612 -0.1944220121967668 -0.006608680909238428 -0.0013343668416397145 -0.003144088657193693 0.004288460687555147 0.022962260902130934 0.2567523981969837
23977000.0 0.9766519248610583 -0.19950965572921464 -0.002722265831382433 -0.0011011252766546184 -0.002114655776596596 0.00045143391410886174 0.027465700264402086 0.253632996639625
24976000.0 0.9693514127699416 -0.21257384453624154 -0.003584297820310541 -0.003340531037756887 -0.0007290562412343613 0.00036520543895898484 0.0730694711580825 0.2551676109637117
25975000.0 0.9701899147508789 -0.21906009024165596 -0.004693819887230369 -0.005020599053423873 -0.014491660273281987 0.023661014765300765 0.07635121740516418 0.25740920435856474
26974000.0 0.9677279980389165 -0.22930536646269456 -0.002956082446128981 -0.002678881936869951 0.0030574544565917447 -0.0030206053080578535 0.0762740399614553 0.26086562681857556
27973000.0 0.9669286665330319 -0.23518271548235165 -0.0017640674309654838 -0.0037257795846784656 -0.0014792620572916981 0.00181948178239221 0.09709514081395025 0.2642946253167461
28972000.0 0.9610530438903413 -0.24667782269614302 -0.006650579397955201 -0.003405283481810851 -0.0006770414641514397 0.0033910543993201695 0.11299051945842488 0.2583278504565764
29971000.0 0.9614251497758464 -0.25535679128327743 -0.00018586989658029692 0.00040730188056309016 0.002673672818581847 -0.0005573731063278907 0.1478030996762401 0.2641671467652543
30970000.0 0.9591502162863467 -0.2615036117128299 0.001080689992154353 0.0015818396122418432 0.0021586155452061107 0.0012334683136564658 0.1593511494979 0.2639151712079052
31969000.0 0.957790160021546 -0.2695561172351711 0.004287830047636452 -0.00433851027094393 -0.00027279464841487624 0.002564476007086088 0.15135920564068062 0.2525663927402499
32968000.0 0.9546448661395425 -0.2791590125975071 0.00955882767450015 -0.007909666389653234 0.001453815008593503 0.0005345768197857742 0.1613892972561288 0.24396507034445095
33967000.0 0.9524181444291806 -0.28880997309489964 0.013177587305798712 -0.009858186707404798 -0.003602166834085841 0.0019597708920718227 0.1873721716079345 0.2511888746519772
34966000.0 0.9503534568676548 -0.2964847965017745 0.01126401494393028 -0.012699523833314196 0.0003013024068851225 0.0010357667541904558 0.19348275479819 0.25460112234769017
35965000.0 0.9447720436655329 -0.3058841900344842 0.01617436802748982 -0.015835092575710287 0.0022404565739159816 0.0011332059747886343 0.20550507427650394 0.24579060125767344
36964000.0 0.9449660355355582 -0.3147498817683813 0.018773145634498948 -0.014151627040234387 0.0012329434145881642 0.0008465386580355785 0.20513803534701985 0.24336797812975483
37963000.0 0.9397421954332892 -0.324693203828201 0.022528384856399918 -0.024880356700858027 -0.0010605777472473335 0.0015779535735162716 0.23678343850904993 0.23580450433533068
38962000.0 0.938261491938089 -0.3353484070502069 0.02373467505453791 -0.025966565848134327 -0.001218670669321508 0.00253052973883641 0.22947413034707284 0.22644803937869418
39961000.0 0.9370669228439854 -0.3397834086071661 0.027691984889001448 -0.026033896330693862 -0.0025295768626367367 0.0019565206797048894 0.24659025623311415 0.22095436930707463
40960000.0 0.9322277604171976 -0.34961984286298164 0.023943796390456667 -0.026960342687962154 -0.0016156569570036341 -0.00036607911930313194 0.2579395656888383 0.22352607010649447
41959000.0 0.9286784532320095 -0.359765993178347 0.02937183517993044 -0.03352470242586801 0.0012068741150021 0.0018473276118322647 0.2694109364925946 0.21507615057970308
42958000.0 0.9246990746740072 -0.36775145551722116 0.034012410651155636 -0.042354475456876504 -0.0029631589697620875 0.00047352526779411287 0.2817953202973654 0.19678293232012078
43957000.0 0.9239144174244855 -0.37279725620660564 0.032529071382865475 -0.04866533340056802 -0.001832270490082103 -0.002158883253646266 0.2850825891455624 0.20123213997784373
44956000.0 0.9190349348430835 -0.38179718837357757 0.03421703512896745 -0.053604120889750695 -0.00011704086341382669 -0.001101308740833081 0.29763609239462974 0.1939530092291827
45955000.0 0.9151128218008184 -0.3939000680067769 0.039427482795616586 -0.06037411758138878 -0.00028479815461379866 -0.004384380957391542 0.3074890185903363 0.1830403225831724
46954000.0 0.9117587503953284 -0.40158612395543414 0.03855071788144168 -0.06414441087456875 0.0009336928123128605 0.0006566367365562954 0.3189837048419039 0.17327709767113814
47953000.0 0.9091397225291603 -0.40879248450234684 0.03723564846161689 -0.07569732774030327 0.001875750653642128 -0.0022435332712400606 0.3258303566424781 0.1703855989813562
48952000.0 0.9015312457921131 -0.4199571931905923 0.03807373058899623 -0.08237615351281301 0.00391642241902226 -0.002863221425297008 0.33164203697052297 0.15629044579257645
49951000.0 0.898121367043643 -0.4259092513431209 0.03925214457977744 -0.09275002051788588 -0.002583966992564301 -0.002287062462272992 0.35024252182342935 0.15406388251554806
50950000.0 0.8943656917216417 -0.43602313794713854 0.040279832867790986 -0.10008820084876552 0.0035601740091064367 -0.005108767452075207 0.3489669346920003 0.13819304740712973
51949000.0 0.8920015329741657 -0.442759506279355 0.04111272039708446 -0.10528964727759875 -0.0004606681515468761 -0.004033579488755166 0.3570101630824965 0.13258655142890344
52948000.0 0.888161865525416 -0.45117865791326267 0.041288153661381874 -0.11409848968270403 0.001488414719317006 -0.00029321349323739815 0.36554861298716507 0.1391458243468334
53947000.0 0.8817771054815754 -0.4595290051025448 0.044792034040141884 -0.12463818323012724 0.0005364321560471292 -0.0007711141852674144 0.36617251722153876 0.12307886933443085
54946000.0 0.8763206903023372 -0.4706006720193199 0.0473775528088476 -0.13541572875945712 0.003059791450706778 0.002491319023606112 0.3798206092111593 0.11546426972714906
55945000.0 0.873187527017944 -0.47890782576638596 0.04675889294088771 -0.14595367651536773 4.24051686425435e-05 -0.001517587239104259 0.37800484539842527 0.10013030854877372
56944000.0 0.8687040979749132 -0.48512844945807126 0.05087172464066734 -0.1587533651732905 0.0011172624288981721 0.0013458675534660002 0.39705101649422353 0.08756410190108634
57943000.0 0.8643715133133378 -0.4940456736997201 0.05002604897950966 -0.16865206414019873 -0.0011917245013031937 -0.00013406660093753334 0.4035049169415452 0.08808699863769165
58942000.0 0.8570985963066663 -0.5014842927890587 0.049971220331130724 -0.18017980399064593 -0.0007325050786757477 0.0033442924591104827 0.41505800335495474 0.08479315184782524
59941000.0 0.8564643797829554 -0.509122549349366 0.0520654699776981 -0.1878713098273428 0.0017339756989061823 -0.0027786611668396736 0.4110722951751133 0.07521724114499626
60940000.0 0.8478842110074787 -0.515201566489491 0.051362172637634484 -0.1942863899687825 0.003346529516664319 0.002107614692607376 0.40092505142081003 0.07488858279992247
61939000.0 0.8442765921501545 -0.5239195550390554 0.052038976720344236 -0.2032981065040928 0.002848200815918573 -0.00048449468942577165 0.4164755932647499 0.0639488575795891
62938000.0 0.8381798756512155 -0.5346907444404784 0.05717148127679799 -0.22262602505649856 -0.0007799619269696735 0.0009076684741020554 0.4348995824676304 0.042711865640835595
63937000.0 0.8337695945878363 -0.5412160904535591 0.05635037515671256 -0.2418177155692646 0.0019490733942448399 -0.00228131874851957 0.4249025770593623 0.04114251435866181
64936000.0 0.8259310552028845 -0.549518949919336 0.05471750735326542 -0.2558508510657241 0.00239546671143285 0.0024932798228271707 0.426349582218529 0.0418096947931436
65935000.0 0.8219736345288218 -0.5600358059869732 0.05365788929089312 -0.27133132723652875 -0.0005446107281855054 -0.0017403428294937332 0.4330548526196358 0.012068128182759244
66934000.0 0.8169769553621795 -0.5646881154470521 0.052314225113940814 -0.28605176225385837 0.003889309070192147 0.004363581144716011 0.42160587021873974 0.009578096578088936
67933000.0 0.8157668140417126 -0.5719039787571283 0.05432351412348232 -0.2978147947190767 -0.00031057519543792686 0.0016432082708286535 0.4446464345988599 -0.005088558487606045
68932000.0 0.7995977820303689 -0.5664350358003242 0.052782588822118996 -0.31090872747678716 -0.0012279109215496556 0.001205407083162811 0.44114923054125715 -0.021439874432159077
69931000.0 0.801434247360085 -0.5879016579151431 0.0508096209805785 -0.32872863016418263 -0.0021050998185443066 0.00011227075250806811 0.43648561388820967 -0.03060406648262249
70930000.0 0.7945779994506965 -0.5933357633489901 0.05344894927469325 -0.3439631120433138 0.0012146202191440894 0.00394439089204485 0.44344439549386455 -0.0437639552893817
71929000.0 0.7894598971413084 -0.6049473731223524 0.03840072102747358 -0.3654608396646193 0.0006245610806994701 0.0002411006207489105 0.44044811587481286 -0.040762830728709516
72928000.0 0.782386938957263 -0.6118866440690497 0.036727663825236234 -0.37835109439241854 -0.00016874953611030304 0.0012015732445585859 0.4516350319227124 -0.04817570294516269
73927000.0 0.7776954357134152 -0.6193880060128074 0.02735699040427562 -0.40209260909643735 0.0020985117329107676 0.0018974816455069722 0.4467784598688775 -0.06123656697957385
74926000.0 0.7711722265103966 -0.6280308945497806 0.020410728349174272 -0.4192456860999481 -0.005274546302779913 -0.0030274811460900553 0.4522444968490287 -0.07175727201314801
75925000.0 0.7632392776044002 -0.6328517657808291 0.010554518390128801 -0.44347581625621074 -0.00579370454725624 -0.0024358419111063768 0.46667781225913224 -0.09530920989615926
76924000.0 0.756705909046425 -0.6417970204669258 -0.004469805719915097 -0.4621899315572184 -0.006427802099972082 0.0019653919179121733 0.4560788010013119 -0.08848515976255987
77923000.0 0.7515931879086432 -0.6483527442051302 -0.019681071915722173 -0.49082775266898687 -0.0017557782885938486 0.00029093268473386763 0.4566392949038641 -0.11095812948451246
78922000.0 0.7443128118116209 -0.6566012956049344 -0.035370475750479746 -0.5183312116688275 -0.004275529530467473 -0.0015215372645454963 0.4433520933082793 -0.11729430751816916
79921000.0 0.7376429731384333 -0.661612698624726 -0.05002013038522189 -0.5428191505586786 -0.004281928964328327 0.0024501513841895845 0.45315041959183283 -0.12436470354865879
80920000.0 0.7313123489715133 -0.6733674958013399 -0.06736842233164175 -0.5714697473161161 -0.0024403624140582085 0.0004879917200906107 0.4578395377271783 -0.13361512714795312
81919000.0 0.7263318147144003 -0.6778156946380675 -0.08399005982849023 -0.5993411837576379 -0.00013716193493841026 0.0032534714193980484 0.4603739438255821 -0.13776899941380064
82918000.0 0.7157893669502232 -0.6871312193904441 -0.09815629199955948 -0.6326318866275215 -0.0033704441134212158 0.0030226628644961836 0.46971164603472043 -0.16204109350517684
83917000.0 0.7080259681909091 -0.6929659899824273 -0.12214258007364033 -0.6618429675005654 -0.006960833781762524 0.0038627417035537906 0.4636395810048589 -0.16891657570125818
84916000.0 0.7042937859062578 -0.7018201607041722 -0.13607361866712267 -0.696842329359974 -0.005862970742793606 -0.0010815353491898472 0.460805697407949 -0.18354047167961005
85915000.0 0.6972601944046075 -0.7063206609146082 -0.15495651732639806 -0.727918340076051 -0.0015085228234638912 0.0019015935717414828 0.44604505404506245 -0.18637539357688113
86914000.0 0.6883305231717289 -0.7171484841677727 -0.16745442184809575 -0.7661343224764964 -0.00401133826066369 0.0008588480524141644 0.44679452426067584 -0.19260432001042013
87913000.0 0.6839871913840353 -0.7232861137112886 -0.18982848544788988 -0.7937399651098339 1.4993696328499896e-05 0.00029182496646246484 0.4499325887496256 -0.19463535371062546
88912000.0 0.6731252245542049 -0.7312373845433856 -0.20766013937613537 -0.8290672987274821 0.00038289112734974723 -0.0024157480814879766 0.45150342887657946 -0.21180861737118148
89911000.0 0.6663566416925354 -0.738085783514522 -0.22421571262230647 -0.8676013277089145 -0.0024712205179498836 0.002030603094985209 0.4658939838206983 -0.20754103470802798
90910000.0 0.6594567625874124 -0.7434919563988095 -0.24311824056585205 -0.902452053740898 -0.00032976709513436026 -0.002862222259467571 0.44618316094857213 -0.22499950784599637
91909000.0 0.6515962860968177 -0.748919156321184 -0.265536449874016 -0.9369162769603826 -0.0032780731399428614 -0.0012813300626732173 0.4502056653941625 -0.23763077303244914
92908000.0 0.6425692061804127 -0.7573311325375938 -0.2811151318081565 -0.9648650791268606 0.0009551626615055199 -0.00267768397047424 0.43701909423152235 -0.24031771203775182
93907000.0 0.6375529777635051 -0.7617680318009463 -0.2986024597621292 -0.9995439479327591 0.0006654218035700454 -4.064272111377195e-07 0.4554377329492797 -0.2707604625402693
94906000.0 0.6253289857182712 -0.7704659838244373 -0.3188873417974097 -1.0360202879844496 0.0038410937316890295 0.0014069253441385027 0.4490132386572928 -0.2645922145481401
95905000.0 0.6175549566615249 -0.7771037839489536 -0.34805145867321874 -1.0672202013921235 -0.0001127429149495365 0.0028156690596781225 0.45592693988414634 -0.2756760955412674
96904000.0 0.6099245474528155 -0.7833038395051297 -0.3638640304607873 -1.109218885441837 0.003320117047392771 -0.0010560623684290184 0.4382851815948568 -0.2893229030397757
97903000.0 0.5987860502696405 -0.7909062689424604 -0.3933428919495809 -1.1407885463457896 -0.0006236450163563425 0.0007236978270285861 0.4420681247524142 -0.29861082440340964
98902000.0 0.5954016675219167 -0.7964588744399305 -0.40847305356921676 -1.1837968787798183 -0.0019795618798411855 -0.0053990201094716835 0.43669467435274034 -0.3097490609331271
99901000.0 0.5849184810223298 -0.8006222398107177 -0.4417228496254566 -1.2127279104332376 2.123271359976441e-05 -0.000643370692594464 0.4560292499525153 -0.32935576999309774
100900000.0 0.5779917849589918 -0.8045208650382651 -0.47386366424373694 -1.2442731661731274 -0.0014421232628974642 0.0008842089668794203 0.4457831928517201 -0.3209983889382097
101899000.0 0.5684778433483808 -0.8125929123041709 -0.5033189644028181 -1.2849508144211106 -0.0026777657074019017 -0.0008087135140773861 0.4362396769913853 -0.3307750291897074
102898000.0 0.5570239201776717 -0.819714749004127 -0.546372456729087 -1.3250015159345372 -0.0003618271691801273 0.0013458339344778374 0.44615067853402723 -0.3536135882310337
103897000.0 0.5482901166999126 -0.8278131189575316 -0.5873109214473214 -1.358011711014562 -0.001353379147466531 -3.853070057455514e-05 0.45298110074097975 -0.34604115568453764
104896000.0 0.5380580928105558 -0.8362615638919844 -0.6363781864966712 -1.3876147362474962 0.001483059537436591 -0.00046681269252170555 0.4333645110965336 -0.33866363952314454
105895000.0 0.5277093192932744 -0.839755477060453 -0.6881334423452676 -1.4319622465840545 -0.002202539521767577 0.001176961369991324 0.41820810208758763 -0.36420124433244033
106894000.0 0.5183947798855972 -0.8443534325372065 -0.7436541754520196 -1.4684319945512547 0.001488714687167364 -0.00033935931721580556 0.42295651845001025 -0.36919301238057867
107893000.0 0.51164797973158 -0.8529471029680519 -0.7978567514144725 -1.5089280281373079 7.502996978747793e-05 -0.0011818294184485043 0.4167362860049749 -0.38854264535540983
108892000.0 0.5026922356276347 -0.8547018720043209 -0.8577466080135718 -1.5446503994241585 0.0028174304935978355 2.4537089192857356e-05 0.41163129564893886 -0.3873475294956403
109891000.0 0.490300799424058 -0.863332271222459 -0.9184240131933201 -1.5866692785800942 0.0036276750518212417 -0.001209637833772469 0.42545444758841316 -0.3909678311987294
110890000.0 0.47158650205340846 -0.8709524263276558 -0.9981492752489044 -1.581128606413813 0.0003055811838269179 -0.0001844412502965088 0.4120503070362614 -0.39746109983408784
111889000.0 0.46860878162323105 -0.8693276187206932 -1.0565215754850432 -1.6523503880940635 0.0010178697267980287 -0.00011558819073809606 0.40220291605852104 -0.4083657485123137
