! Created with skrf 1.9.0 (http://scikit-rf.org).
# Hz S RI R 50.0 
!freq ReS11 ImS11 ReS21 ImS21 ReS12 ImS12 ReS22 ImS22
1000000.0 0.9890749071808723 0.014607541254742798 -6.785036594529851e-05 -0.07088498196169259 -0.010200574232262312 -0.007299647785236364 0.2857515176719726 0.31996240010376903
1999000.0 0.992744053517871 -0.013856539580528399 0.0024988106468575187 -0.03243165138700235 -0.005870975401545844 -0.0032009590500416607 0.25357100698150964 -0.0826746621043787
2998000.0 0.9999082799083919 -0.019961559865177128 0.006097614829742534 -0.016118301201693185 -0.0004199538508432966 -0.0015613521207437117 0.1957600101773736 -0.14618714583832118
3997000.0 1.0021953097850405 -0.029200356964885335 0.01367042889726908 -0.011576184605244963 -0.003718518946412377 0.004602835857574348 0.09525472425924458 -0.22038437234961847
4996000.0 1.0010847262474984 -0.036547088776140706 0.011979042441047102 -0.0009861762783561097 0.0018593870217259857 -0.004808232130787466 -0.026510970455914436 -0.21304934098066491
5995000.0 0.9980288068998651 -0.04809289129166418 0.00774572897644039 -0.0008225975283914493 0.0030637166443912003 -0.00019822319927123802 -0.11976175166033795 -0.10645300346748109
6994000.0 0.9977542320044768 -0.0571116103589864 0.006681752794692984 0.004117780834856621 0.0006556889010055968 -0.0005037890334456207 -0.13770196256606276 -0.030145086244604526
7993000.0 1.0002937486768222 -0.06436111929659458 0.006606799568550358 0.005220769170649359 -0.0002997391469602489 0.00031533840058664325 -0.16141989115342148 0.031827999774688316
8992000.0 1.0009691395127562 -0.07302316909072405 0.0021429195400898284 0.00525957966116126 -0.0017496680199912526 0.001208973896500619 -0.15558245547958371 0.054623675928514324
9991000.0 0.9974602642128049 -0.08032302700696363 0.0027264103971284047 0.004786610674812621 -0.0015631830502861376 0.0007018649378720431 -0.1376790816279446 0.08998092651876712
10990000.0 0.9955489613339314 -0.09300250086922537 0.0039665051549219055 0.0024884986538228127 -6.413142198288956e-05 0.0023490482173930977 -0.14236435554051588 0.10833172106328594
11989000.0 0.995146270620778 -0.10003099354478717 0.000911472824481315 -0.0007305874530075464 -3.563856407946775e-05 5.7333140708613463e-05 -0.12464539679008416 0.14608848698320642
12988000.0 0.9922821462310822 -0.10995280310677476 0.004269113011476432 -0.00446920878452133 -0.002558700914243942 0.00364757289330141 -0.11816206506664143 0.17358498609092549
13987000.0 0.9939124055201347 -0.11773602711650986 -0.00013873933004482388 -0.0030928327033979243 0.002154018512160582 0.0035796043721296232 -0.10016451092552572 0.18906817019863562
14986000.0 0.9920331146246605 -0.12424545535791383 -0.00023459574275929912 -0.0020965279257246284 0.0012923169004393352 0.002382990021053145 -0.08518056987615558 0.20658332498869159
15985000.0 0.9941430494390162 -0.13274315253561553 -0.0013221326357304515 -0.0013058131212529797 -0.004850921683336608 -0.0017572267436602273 -0.08157274241354066 0.2128283827298045
16984000.0 0.9901634680814635 -0.14233783559506796 -0.004169740059599724 -0.005602412830546254 -0.0017508651242386765 0.00046541288205278965 -0.054110953313644496 0.21897367284595787
17983000.0 0.9893635152930959 -0.15110380826401468 -0.005014610941849295 -0.005157875536806343 -0.003316313186443572 -0.0002645724425265828 -0.046262693609584356 0.22433288682497207
18982000.0 0.9862585414622882 -0.16250613416631426 -0.007970815085351848 -0.00305163743469427 -0.0001244648796212905 0.0004368187483600695 -0.018242608871926663 0.23601674238569584
19981000.0 0.9873253310460847 -0.16575395522200745 -0.0029827905178306975 -0.0040442210136488925 0.0007195221013784471 -0.0031934981434727566 -0.01483142273640636 0.23845550672967064
20980000.0 0.9846330853493401 -0.1761195489190198 -0.0006841780273313078 -0.0038505796614822863 -0.0010114103853995236 0.00032320558579638906 0.0008282030245328594 0.26186077291516524
21979000.0 0.9825102088005631 -0.1854703383203742 -0.002603398077845891 -0.0047130164058772715 0.0003288205331603457 0.0015085650424784957 0.02049095390656127 0.24195635559959813
22978000.0 0.9828829223880905 -0.19188774681528473 -0.007899094104492178 -0.0074538142433372276 0.0010553645338149224 0.0016250435672823089 0.025411866412013588 0.2493538255521017
23977000.0 0.9836120677550487 -0.19902475344448284 -0.006021449622080454 0.0003074416815400264 -0.004476360195066582 0.0005932457793254591 0.04636184305902414 0.2516186019069544
24976000.0 0.9787317151775635 -0.20982017642634998 -0.008449683525952937 -0.0027121487811031944 0.0026733338397655023 0.0019152817780328393 0.06310146247290158 0.2530621044676405
25975000.0 0.9700156117285408 -0.2221637735543421 -0.0042797174610017434 -0.0017928625446466306 -0.0038729919043535978 -0.028840425371712386 0.07605980722493066 0.24919004097183817
26974000.0 0.97477980994957 -0.22634575861429376 -0.005890482342593168 0.001371956734630543 0.00011751392232615092 -0.00040528754620580606 0.09227180482429867 0.264591774604723
27973000.0 0.9731540422050015 -0.2362249531401501 -0.005209383654625544 -0.0031607204465628116 -0.0002632528143836955 0.0033434194377097025 0.10408058118955635 0.25609579769149704
28972000.0 0.9697684903079871 -0.24190468174007648 -0.0011047048812509535 -0.0014492205314031116 -0.0021048566389082765 -0.001477347339877712 0.11489117670733554 0.2578922161811089
29971000.0 0.9679176605037825 -0.25208586955417517 0.0005929326767421028 -0.00013503456966438266 0.00043974955498621505 0.000980341006974321 0.14894632382686424 0.26405209363771937
30970000.0 0.9649239440694699 -0.2580075371213376 -0.0012594637448799571 -0.0027156466850886463 -0.003256282060394057 -0.003134339403711065 0.17258686106237509 0.2570716569006324
31969000.0 0.9638282842169085 -0.26619389511498975 0.006374326343597216 -0.004464518395675233 0.0034478285586282036 0.0008127122031763534 0.15009644493727844 0.24568325046936054
32968000.0 0.9617005881923528 -0.27504897460358324 0.008540299364616028 -0.0058985928744692195 0.0006133534176250703 -0.0013554823158889407 0.16166916802441111 0.23515518576526165
33967000.0 0.9594476116881456 -0.2854966138886997 0.00917111246454314 -0.009727088638009909 -0.001342502695972363 0.0007250520281131121 0.1990149198311142 0.2590653093422876
34966000.0 0.9567161148338541 -0.2920293531568624 0.014774323263450365 -0.01241843685441406 0.0002782108857594414 -0.002210585556782172 0.1996736875703159 0.2493547300074171
35965000.0 0.9537769330928476 -0.30021745076694295 0.018822311921173743 -0.01448707551826941 -0.0005955669946264501 0.000377335211491875 0.21225843237629177 0.25264231271732607
36964000.0 0.9496911048277555 -0.3101021853116113 0.019046091478576242 -0.013947061416646355 -0.002135230757079744 -0.00045009124570986983 0.21933921676691645 0.24659544044056375
37963000.0 0.9485299983735858 -0.3182531124913087 0.02391729031721146 -0.018073905490851246 -2.9687307151670955e-05 -0.0015110238059641691 0.23721488315629458 0.2334734508550073
38962000.0 0.9448285533754386 -0.32946276231385524 0.02307787142694573 -0.02506354013086264 0.0005403617031837196 -0.002284717469236052 0.24783034141488686 0.23693519086699769
39961000.0 0.9443731919921641 -0.33247029450994753 0.028328380717422115 -0.02858682708344504 -0.0017387836297462073 -0.002824452825491444 0.2541097901593114 0.2254343788382569
40960000.0 0.9382274069330541 -0.3429622506992241 0.02259162372399526 -0.024459118209849976 -0.0005997836147169399 0.0007754181206278851 0.27736484582983983 0.2314933851037415
41959000.0 0.9371997068335443 -0.35229780028282714 0.030094408137851254 -0.030229589882306247 -0.0009413456480759474 -0.0025396448033826453 0.27237063756401625 0.2058352432674524
42958000.0 0.930836444925164 -0.36033641985661374 0.03185642534644984 -0.04148844526474893 -0.000572416148345442 -0.0015252752883376068 0.28629139617657684 0.20149873294953077
43957000.0 0.9308339685951844 -0.3654753317671921 0.03214958783221721 -0.04779738912188145 -0.003577821192691783 -0.0031081635864165114 0.28575978556836057 0.21185658374458086
44956000.0 0.9266343167481885 -0.3727152162665455 0.03619893970230586 -0.05157310451115799 0.00018111522930701985 -0.0036709599450408374 0.31312672908196576 0.19070142150080902
45955000.0 0.922313155836798 -0.3852118084578489 0.034473745424786824 -0.060663833864890125 -0.0009194302630178997 -0.0016947312492167704 0.3068289134642976 0.19334847497541474
46954000.0 0.9193938025719885 -0.39161191721552513 0.034870877402177126 -0.06693404165073503 -0.0009784023110671058 0.0019934743610810616 0.33625138499268203 0.17855683137730433
47953000.0 0.916015869197386 -0.4000541872028806 0.036353312347497176 -0.0744976065838716 -0.0020641286556663165 -0.0008479693000463912 0.3400285780131334 0.16579988477187327
48952000.0 0.9118632543298091 -0.40948428760582495 0.03880584558238207 -0.08312648682150785 -0.0020976375069087696 -0.0003631877607595854 0.34085192377896817 0.16057907962488913
49951000.0 0.908027419487708 -0.4177889441183119 0.03855542851633653 -0.08687035032323552 -0.001952907446916788 -2.9097641215628804e-05 0.3574280923500017 0.15856760693482969
50950000.0 0.9057594705288133 -0.4272200475391617 0.03913613022035361 -0.09805602257355499 0.0020987071113593805 0.001846288154332786 0.36508550647313665 0.13237535530926184
51949000.0 0.8997211514747878 -0.43334872000489594 0.040900604621698755 -0.10541273159623307 0.001089452817986873 -0.0015742200173992395 0.36114395013744915 0.1470105595225039
52948000.0 0.8986400790653613 -0.4397120390021193 0.04563216945849924 -0.11404458535621413 -0.004061791666234417 0.0004486021595630577 0.3784378833395449 0.13490722237702843
53947000.0 0.8939474612731733 -0.44792201256496467 0.04500982704849537 -0.1219639426334871 -0.00013891075778504913 0.0009331679780265681 0.37835090095691387 0.12152827327865544
54946000.0 0.887747113381354 -0.4605464029086249 0.04448998756298548 -0.1338845620655548 0.00020186073082921352 -0.002124751047805389 0.39610389186539113 0.11349446970690039
55945000.0 0.8862424058153908 -0.46670350803754224 0.04804172625618821 -0.143465293749274 -0.0009659193219300154 0.0037273636778970545 0.39319374182043204 0.09957676760292748
56944000.0 0.8816874450591988 -0.4742076352263661 0.04966635693574247 -0.1535215830558408 0.002499751753325534 -0.0010062406753088044 0.40311932687356006 0.09695095081002461
57943000.0 0.8760244500335053 -0.48315597471778676 0.047734081081406365 -0.16784009738841824 0.0026396906480910497 0.0005007372005410174 0.39925442051758736 0.09315692300052385
58942000.0 0.872195276492441 -0.4877865306220276 0.04681005800959093 -0.17632411270526427 -0.002443575121421188 0.0006202064405239797 0.42273955805005975 0.08305478184698423
59941000.0 0.8679853109995125 -0.5003181420846935 0.05198312012229403 -0.18552166539798298 0.0015983290484401405 0.0034179101698863343 0.4226262739402483 0.08345392649972914
60940000.0 0.8601004820265751 -0.5051758639559624 0.05313232061718838 -0.18892869106380403 0.002833147989712782 -0.0006183983056982143 0.4046803827047118 0.06978916831090612
61939000.0 0.8570723182674752 -0.5124348592988338 0.05088424249532985 -0.20057797223665033 0.0022783791604969973 0.0030449198115406915 0.42998547475376 0.060247160097581694
62938000.0 0.8528276121498539 -0.5224823116381822 0.05797318541200128 -0.21680736215872773 -0.00034884100679643724 -0.002000089240234607 0.4509395959337862 0.04163680584967644
63937000.0 0.8486981042857695 -0.5283027600247239 0.053452988651461406 -0.23518051288367142 0.0004355191097812672 0.0020829613907464373 0.4339912507685498 0.030980216046750823
64936000.0 0.8396702610168295 -0.5367992934774872 0.05276837909090891 -0.2504083496405983 -0.001835426703336161 -0.00046315115189919605 0.4409791533478194 0.027360098966145233
65935000.0 0.8389881473094674 -0.547242641810036 0.055682118489664464 -0.2652632138381479 -0.003391031692818093 0.0008707881434673203 0.439996810013709 0.01792839518083243
66934000.0 0.8331063054695179 -0.5530996403442424 0.05335104698138476 -0.2812732082351252 -0.004815570913390384 -0.0005081178869834235 0.4455169955128655 0.003276173865870094
67933000.0 0.8308239724000329 -0.5600711835699362 0.05704202854556426 -0.29351436255641233 -0.0034108782759018916 0.0022857099531394046 0.45432557033776905 0.003510012282151395
68932000.0 0.8207192981579233 -0.5535217831957165 0.052379736255600134 -0.3046220399573934 0.00043353446030761056 -0.0015957629982681603 0.44736185892760993 -0.011976585994064832
69931000.0 0.8166990780995026 -0.5749565569079306 0.05351575042753125 -0.32431333534714263 0.00042858197600006113 0.0008550383739346924 0.448978322843469 -0.021314490328313285
70930000.0 0.8115893666809568 -0.5820914957413511 0.0515303546268051 -0.33750817465862315 0.0009874641540310051 0.001833177458923121 0.45367961964460163 -0.034348578101132586
71929000.0 0.8086973324358545 -0.5898195338339797 0.04811618594082605 -0.35620016066743687 -0.003649766176765397 -6.273487012455265e-06 0.44977638910076406 -0.051057198849604996
72928000.0 0.8003762012775074 -0.6004125878898502 0.03905968059215314 -0.3712705200622438 0.00014181792580233603 -0.0021746971803859694 0.468191515297914 -0.0556584521380464
73927000.0 0.7956483267979698 -0.6042166084920135 0.03279900439555398 -0.39380579266326443 -0.0005192698661016531 -0.002241089384958746 0.46261280860311793 -0.06628736311051288
74926000.0 0.7894326613586534 -0.6148474288652377 0.027234389125083462 -0.4098165004877862 0.0016478122475319914 0.002542101143185213 0.47044783516394983 -0.07379467792160281
75925000.0 0.7834873886741909 -0.6204825032936042 0.017351073211325625 -0.4316645040346788 0.001848511080257256 0.002256872559132693 0.472394020975624 -0.08317097022087515
76924000.0 0.7787061054441464 -0.6297653562589878 0.0026311274485782093 -0.45535071527981524 0.0009843314293949297 -0.0017530403781377468 0.47151051185711745 -0.08730938255559434
77923000.0 0.7741948433241044 -0.6339206327225558 -0.008793169097070343 -0.47802681210208314 -0.0003809271038393781 -0.001010650001724407 0.45864428622518255 -0.10317467791562433
78922000.0 0.7699336157180569 -0.6439871052189784 -0.021619051922185523 -0.5060684482285236 -0.00044858836020204363 -0.0028103345119624536 0.4724311000105541 -0.11139150308626708
79921000.0 0.7583984482955194 -0.6503781285705634 -0.03934383424116075 -0.5294640755624636 -0.0001077249544278764 -0.0017600153999662936 0.4625769925281695 -0.12215737679155454
80920000.0 0.7537735711166578 -0.6594360492201202 -0.05503332261880559 -0.5576963494746442 0.003465044383456553 0.005044307519340608 0.4697515110108946 -0.1373731369408932
81919000.0 0.7498856802806312 -0.6655678513833545 -0.07159003004239803 -0.5852524956106797 0.0024821679754055853 0.0006113918840808553 0.4706682602019146 -0.13773236808935937
82918000.0 0.7372653097640836 -0.6746145131995529 -0.08537784694130418 -0.6176089409567087 0.0019089857550883607 0.0002237995273352504 0.48263100297886435 -0.14280653942174865
83917000.0 0.7299964647067936 -0.6815553497079918 -0.10677770361259643 -0.6463065143507533 -0.0005476661574294897 -0.0016076378650540107 0.47948963564259983 -0.15927737496369934
84916000.0 0.7260240512633708 -0.6899673541785308 -0.12293396479058553 -0.6853053502438654 0.0017808217186301475 -0.0013059292876933144 0.4675206752177689 -0.17540691053639093
85915000.0 0.7208224997184388 -0.6952752983248155 -0.14777949442068472 -0.7108205964438332 0.0039804977595357775 0.002087247336213574 0.47226015893024864 -0.18278507196206226
86914000.0 0.7137918673303986 -0.7031376806529306 -0.15868328079700098 -0.7497360992239204 9.502883434689294e-05 -0.0011751390048439726 0.4708242898467842 -0.17347379173601807
87913000.0 0.7061318137048694 -0.7104310712453895 -0.17864727363713556 -0.7787784424051672 0.0004261405574837522 0.0025704889815425075 0.46375943644614326 -0.19355839957014423
88912000.0 0.7002700622096328 -0.7161562836573571 -0.19480797299289063 -0.8145744501347935 0.00018856800273837278 0.003658676504244706 0.46028862834750783 -0.20790871820818335
89911000.0 0.6912382576122112 -0.725091900254881 -0.21652738855071166 -0.8515561776708622 -0.00046569721941931957 0.0008379437997324845 0.4730346504400049 -0.22167346104372157
90910000.0 0.6838431630284532 -0.732236495364879 -0.23189953656412937 -0.8847333760802415 0.002142962720416809 0.0003683113650157832 0.4685703948714688 -0.21980346459279443
91909000.0 0.6753414676389554 -0.7367386629139683 -0.25332522309966915 -0.920727238397183 0.00076236393513275 -0.0008447068546365113 0.4657512214919749 -0.22537032544843463
92908000.0 0.6683143796180081 -0.7423281797781874 -0.26840776972620434 -0.9523666378152927 0.0004219395763602827 0.0016437628184813968 0.45655901084287687 -0.24307564821300762
93907000.0 0.66260711952679 -0.7515269733744826 -0.2921773893788077 -0.9821425454590512 -0.004468924934712758 0.00010942135122351534 0.4605145321041545 -0.25711757810560454
94906000.0 0.6505710026313702 -0.7593964050535225 -0.3057940130552005 -1.0184553177143294 -7.846886560034593e-05 -0.0022098899614941 0.46110779338054186 -0.25641620855306213
95905000.0 0.6454552610760286 -0.7654918754260399 -0.32790760327920815 -1.055488259438581 0.0020427362859679545 -0.002545376203646496 0.46271367376196965 -0.2795115412102003
96904000.0 0.6361020445410908 -0.7760463155808707 -0.3554307147307585 -1.0993461589008178 0.0013042687960521065 0.0025622564829940013 0.465299790108453 -0.2830372095715147
97903000.0 0.6272980717038714 -0.7783632577740321 -0.3729823866614839 -1.1252473694811747 -0.0019090392919389187 0.001877038999337348 0.4481748936749142 -0.29383512240792353
98902000.0 0.6220972193236864 -0.7861811955209417 -0.39631502958814313 -1.1655715034602336 0.0012101258611352866 -0.002096855855969022 0.4443555703372005 -0.3058610499676303
99901000.0 0.6078216683048272 -0.7903694055491626 -0.42532588819871486 -1.1944967291696424 0.0012460944610833452 -0.001534529955803212 0.46288902189754494 -0.3331808339786882
100900000.0 0.6042620159697968 -0.7966512353552947 -0.4545021913771794 -1.2273835432045443 -0.0007066606194482049 0.000618476140761371 0.45650440723110447 -0.3236725981969712
101899000.0 0.5938922278394018 -0.8038207949567814 -0.482803170627639 -1.2654387361594788 -0.0023292664197968 -0.0015955717526977583 0.4533925486670531 -0.33504545428074956
102898000.0 0.5822371516095867 -0.8111689085915185 -0.5194946231601393 -1.300349867831233 -0.0001586231761800723 0.0003170615172305617 0.4469850363799039 -0.34519090850927114
103897000.0 0.5751301567117078 -0.817456074667481 -0.5580192362938746 -1.3391427454166345 -0.004147564070301383 -0.002251006031543457 0.4635621926089178 -0.3398110702208106
104896000.0 0.5690018408304647 -0.8278508877572957 -0.6032339224931373 -1.3755156969669753 -0.003971105300608772 -1.915410639290307e-06 0.4352478307295014 -0.34323251722158155
105895000.0 0.5586600557413594 -0.8300106168068342 -0.6505922222096084 -1.417161690912284 -0.0014139544328509637 -0.002847178223912425 0.43756933246379964 -0.3666145733289728
106894000.0 0.5514187073262669 -0.8351611374846347 -0.7030021431320643 -1.4576220154538435 -0.0023274591005620162 -0.0022940491907784038 0.4375288938143405 -0.3818652215148684
107893000.0 0.5440592815569347 -0.8407631310403377 -0.7555076169535795 -1.4904744197235065 0.00040827755819396893 -0.0015279284393047243 0.43061318354951883 -0.3978308732682123
108892000.0 0.5306828811421569 -0.8448573579792387 -0.8206204488241374 -1.5225383798094125 0.0007416552976473782 -0.0025498830585335827 0.42402113444252354 -0.3899628929258211
109891000.0 0.5196879615938855 -0.8535579954094462 -0.8731881446074863 -1.562544898624336 0.00040471969557380564 -0.001963451005417667 0.43579102669188996 -0.3913939949153902
110890000.0 0.5106223061864631 -0.8535533524214043 -0.93101040937985 -1.562662221795345 -0.002594734018871688 0.0029107466950956036 0.42602223740853046 -0.3983446724175306
111889000.0 0.49812538798028233 -0.8596020217603569 -0.998352143879206 -1.6228149965143264 -0.0002345083935698836 -0.003767535234690483 0.4245274916252215 -0.4144243762852246
