! Created with skrf 1.9.0 (http://scikit-rf.org).
# Hz S RI R 50.0 
!freq ReS11 ImS11 ReS21 ImS21 ReS12 ImS12 ReS22 ImS22
1000000.0 0.9733273499422561 -0.006001086727028266 -0.005335254821909775 -0.03764023219841887 -0.005198067581651498 0.019431462241658082 0.3846754096096651 0.29289056939689323
1999000.0 0.999704343218355 -0.008377339453399812 0.002957711551263411 -0.02069338588805667 -0.0010102561984294378 0.001072190982770747 0.24929385761891448 -0.043528528436996256
2998000.0 0.9982646167716681 -0.022129600609246233 0.005277479143789895 -0.017569591394490727 -0.006303556091414725 -0.007616948384418023 0.213488401222237 -0.13587469707260863
3997000.0 0.9972137766284375 -0.03132235323628829 0.009051623130693732 -0.008855406518782197 -0.003005485769825401 -0.00037278366080210516 0.1060532170207242 -0.22554306067923077
4996000.0 0.9944598933185254 -0.03770659627528342 0.012142979503379637 -0.00010157321922164555 0.001025789471526035 -0.00039738386182926167 -0.04791147102919567 -0.19311500223915423
5995000.0 0.9984236109857789 -0.04821884506993098 0.009319373991132715 -0.0008487196690516165 0.0005705449273975103 0.0003828665099822255 -0.1163125875565598 -0.11899445060967175
6994000.0 0.9919355352845023 -0.06274444626648555 0.009450812892108475 0.005240874028333082 0.0016545156182241885 -0.0014154588166217453 -0.15251692485223653 -0.031163219772950914
7993000.0 0.9972777333899622 -0.06816484442305645 0.0076009472161533195 0.0009498464016524474 0.005903742775838739 0.0018846573423123615 -0.156869269595738 0.05358603337913416
8992000.0 0.9947369131202097 -0.0724994295051102 0.0005019910144533912 0.0020408753254895448 -0.005144411292986875 0.0018496044199204078 -0.15169189702068192 0.05896810310258274
9991000.0 0.9927074523883335 -0.08365395388877088 0.0037940557993366548 0.0003140999896352965 -0.0014348391548018242 -0.006539737916877677 -0.15324518391010233 0.09299497449243647
10990000.0 0.9901294441921343 -0.0953597783962144 0.0030700951049985738 0.0009997913867826613 0.0006576416314467342 -0.0012705070980612732 -0.14932768617671946 0.10707116511511017
11989000.0 0.9904717587538278 -0.10100708796465435 0.0013595875435188645 -0.0010397489618693254 0.0024958091005093525 -0.0014590549630547494 -0.1234030769176593 0.12714917541712278
12988000.0 0.9885427238116776 -0.10892658687386353 0.0012968715264600932 -0.0032956630551615965 -0.0035803970375062753 -0.003462504162642449 -0.12492841735144766 0.17523226871516134
13987000.0 0.9882665330368771 -0.11805001225019443 0.0008317354334269957 -0.005919751944126207 -0.001628516418709584 -0.000594114241277981 -0.09447166471944358 0.18221481529883082
14986000.0 0.9852769530968665 -0.12682979546681888 0.002459524385511148 -0.002702075955645216 -0.001986173176652892 0.0006727674007742655 -0.08183406911180809 0.19276942793040036
15985000.0 0.9898906659253931 -0.13391526372591658 -7.132343547341877e-05 -0.001741546631513572 0.0022284425339962276 0.002174059617760394 -0.0738966012351851 0.2174854718443925
16984000.0 0.9863217331650057 -0.14292156959808236 -0.0026413398650627392 -0.004533117625457159 -0.0054708679426572985 -0.002844267917725876 -0.06860575608757255 0.22057394405652833
17983000.0 0.9853507023537169 -0.15110214841635097 0.00164661501442442 -0.0014411804561442218 -0.0024168443694788573 -0.0009603162476431113 -0.058543237432153276 0.2284870899196769
18982000.0 0.9805779044889202 -0.16485028996067266 -0.0017133758184693566 -0.0033025978177314386 -3.0269949458473795e-05 -0.0041130987231628394 -0.023227548255329588 0.23399191581150053
19981000.0 0.9816428131212827 -0.16688139155500317 -0.0045020578572140275 -0.0015783906584864982 0.002561001035037664 0.0006951461834154127 -0.012051655682981355 0.24579652293111726
20980000.0 0.9817827670320249 -0.17728581281067204 -0.003814207686426362 -0.0039427035660579484 0.0029795604497425254 -0.004440687817391594 0.007205391678144923 0.25460097503264695
21979000.0 0.9791540888112928 -0.18654169033523552 -0.003913663332278443 -0.0034989266830957174 0.0018367629545887414 0.001411425682652274 0.023540600602923036 0.24623171323560997
22978000.0 0.9763962979413754 -0.19711696477060697 -0.004766188923072975 -0.0024333575460208224 -0.0025952989041031532 -0.0038800313124717142 0.02374848886518591 0.25264262027231305
23977000.0 0.9764990416753274 -0.20139384434278831 -0.007615890118869465 -0.002095831756083118 0.004678832777661956 -0.00043398644814798446 0.03879454787094666 0.24986293688576308
24976000.0 0.9720090936111655 -0.2135485781132725 -0.009485771972336719 -0.0029738589740993322 -0.0016971412209927828 -0.0004933084700338376 0.06338642738831113 0.25661368724202216
25975000.0 0.9670846740427458 -0.22026572415978898 -0.003930839681461279 -0.006185830346174181 -0.024080094277059528 -0.010159604741225172 0.0732341554091612 0.26416593829687207
26974000.0 0.9685604288891292 -0.23094412205143086 -0.004334872343139383 -0.00029164413995359795 0.0012778032413600592 0.002936680310294215 0.07423617305246108 0.26542100889598974
27973000.0 0.968013005817627 -0.23488905868286628 -0.004749056816372551 0.0010176628776591085 -0.0003309502008892 0.0004826095031559141 0.10013966924045435 0.2597330200444534
28972000.0 0.9633042754350992 -0.24858715282262372 -0.000608050288948087 -0.0035829431027906583 -0.0017754959137035002 3.858641758667046e-05 0.11889646067792663 0.26104306284454726
29971000.0 0.9641479460349501 -0.2543407447629791 -0.0011923202458661375 -0.0044880409207356505 -0.0008882468853368662 -0.0007606087954910567 0.14256384216303 0.2686049522713881
30970000.0 0.9613641225360835 -0.2615227197576268 0.0030032313791472412 0.000882363516850827 9.696866747199327e-05 -0.003262332911842995 0.16446776350907033 0.2503240568289922
31969000.0 0.9589010467406093 -0.2695734578640187 0.004540723128775102 -0.008421331094922397 0.00046621732886333516 -0.0012175771324246924 0.15052433677676183 0.24144513184141028
32968000.0 0.9571810654794409 -0.27986380682868267 0.011010854213072841 -0.0067374950360617 -0.0018741428304433338 0.0006196015751060108 0.16769590888121577 0.23769844040401902
33967000.0 0.9549315785759664 -0.289748617750651 0.013401412976366895 -0.008972155988527228 -9.839040795771024e-05 -0.0005962595231129775 0.18138629869164907 0.2443137537490345
34966000.0 0.9508215641263185 -0.3000741980667135 0.015135342177983357 -0.011448203931419022 0.002843706170991613 -0.0021480649323435777 0.19793018899381704 0.2457562554704801
35965000.0 0.949283532921994 -0.3045876061811078 0.016218466061238425 -0.01454888759460521 0.00021384238195936938 0.0028197210527885455 0.21350246818559634 0.2489052101677633
36964000.0 0.946942341488261 -0.3151302168592056 0.018305604686813717 -0.01439222029084129 0.0007868783693292874 0.00010484122753712642 0.21559751910217695 0.25340353748514727
37963000.0 0.9416944855819759 -0.32634187213181487 0.019910919473133986 -0.021427811412609875 -0.0016994297362156333 0.002570526117172526 0.2312290768176438 0.22657655438959298
38962000.0 0.9403381443344166 -0.33238584653186687 0.02426707714570905 -0.022366247143725423 -0.0032286619782555806 -0.001700247210780468 0.24635230520456128 0.23616519505718594
39961000.0 0.9370542485240526 -0.34157892311883514 0.02627133585032577 -0.028409547060264575 0.00034436430898344614 0.0009580688557276839 0.2597779867972504 0.2194814903005891
40960000.0 0.9336430310521483 -0.3496538285930202 0.022972878475341327 -0.022538691587738607 0.0003499133425359051 0.0017103508967552098 0.27465665909390113 0.22012525019264959
41959000.0 0.9303951187692094 -0.35875552178667397 0.029621537549646637 -0.03242324282308718 -0.00028424400814296266 0.001365226847007787 0.27738663704757577 0.21512603702350044
42958000.0 0.9266839355008425 -0.3667073326805322 0.031708303263298016 -0.03888143846956701 -0.0030857042192837156 0.001626724495664424 0.2776002668404885 0.2033213209973061
43957000.0 0.9236527576120327 -0.3747630573518254 0.03312658999932954 -0.046565120670157396 0.0010733582181340036 -0.00032445429722565913 0.2889876939311952 0.20352967552995763
44956000.0 0.9200921434032654 -0.38261033661361643 0.034583621788060806 -0.05175541582366396 -0.0006944220235706787 0.0005359500154986505 0.30120506691501736 0.19887374757549048
45955000.0 0.9159999548233957 -0.39356236399398903 0.03386937804462908 -0.05981470415015022 7.150415099948677e-05 -0.0017055596371756347 0.30669622832213056 0.19035401744901406
46954000.0 0.9118293881457723 -0.4017458309002181 0.03530157168764447 -0.06682373996621334 0.0011636820248517848 0.0046363844687468325 0.33134433552299175 0.17366396349509894
47953000.0 0.9109418148344763 -0.4090913294841027 0.03517697883474354 -0.0741723830405226 -0.0044515519554899395 -0.0017477544763420546 0.3398416898172226 0.17489466459036046
48952000.0 0.905085607552683 -0.4180143657471484 0.03549465238531569 -0.07911718822313898 0.0006383407592677008 -0.0005947801144410723 0.3331696332176014 0.1688659352345788
49951000.0 0.9005287530398606 -0.425544233993922 0.03589461773423783 -0.08769424090921216 -0.002860864440290338 0.002332072344500112 0.3481332949807315 0.15026536449847316
50950000.0 0.8965654651059416 -0.43464995549104407 0.036462548357325965 -0.09691291862254313 0.000638665021124009 -0.003539028795010952 0.35771459592129223 0.15776281255690972
51949000.0 0.8931114429175793 -0.4424149878944874 0.03893774229251373 -0.10344164729528328 -0.00012105331907020568 0.0004893784578631624 0.35096155366584664 0.15285759457238313
52948000.0 0.8930737076029849 -0.4497110556493562 0.03688259075011033 -0.11540475611602789 -0.0014225231527108812 -0.002062547141425256 0.36794518409993515 0.1330780086853753
53947000.0 0.8841922928439053 -0.4580877611936794 0.03940243572738354 -0.12132749991287799 0.0007498735314314545 0.0015309480880812123 0.3738797052058249 0.11349071540445693
54946000.0 0.8806907941059495 -0.465929212638607 0.04087709247973275 -0.13166591941502317 -0.0011234139697441354 -0.0011531960305965862 0.3843633222714575 0.11075465527777036
55945000.0 0.8756852676172685 -0.4770036666610361 0.041763033656675004 -0.14202836093922028 -0.002683538352631091 -0.0036719623347275785 0.3943790554512855 0.10129722724123229
56944000.0 0.8715492278539405 -0.4836723708298833 0.04422953278729604 -0.1501798317393434 0.0026942381364294748 -5.25916016587201e-05 0.39386162138072894 0.09708211590454405
57943000.0 0.8666026714425087 -0.4936978326402773 0.04296602379167667 -0.16276506857054152 -0.0002600061023008442 -0.004689225465756826 0.3971888844412629 0.08596582072309393
58942000.0 0.8601840018245127 -0.5023329963830434 0.04649077308470634 -0.17297707537054252 0.0006930398634907004 0.0008856829979048889 0.42175021838087035 0.09119936539460231
59941000.0 0.858945389615764 -0.5065476516408138 0.04643292329880459 -0.18322756998535275 0.002666044357094724 -0.0016077095683000027 0.42166270407327816 0.07759207733506719
60940000.0 0.8506407287703307 -0.5146086459019908 0.04782005633404458 -0.18704868715008083 0.0023025222044570225 -0.0012550363986683307 0.40447267343569165 0.08076409548304442
61939000.0 0.8475701113508113 -0.5221769259118727 0.04771123721509539 -0.19525148795872185 0.0001322451039162304 0.0005281109236175536 0.4207897343522998 0.07036146747624694
62938000.0 0.8404669043134587 -0.5342378383817 0.05068554978557241 -0.20789670823150197 -0.0022490725571063103 0.0011895042527756182 0.4408064329722181 0.04507646351921823
63937000.0 0.8362216584126221 -0.5397079787205707 0.05082161044430441 -0.22813237509140907 -0.002495979195757105 0.0009544629533133894 0.432146179352748 0.03560762873967583
64936000.0 0.8298005055350534 -0.5474965028552875 0.053370623671973746 -0.2452786839582163 0.003741011417729778 -0.0020459962115594046 0.4358764755733551 0.04033886766333895
65935000.0 0.826635576766495 -0.5577033839469901 0.05051751809687285 -0.25608973892776754 0.001421186343585558 0.0010729710577689932 0.4346378506137734 0.021643434483502647
66934000.0 0.8230703623956813 -0.5612632417670356 0.05211970779728578 -0.2685653454632886 0.001515337734481866 0.0030271075526738995 0.4394989360017591 0.011017019273906971
67933000.0 0.8177555888521794 -0.5720177317933645 0.053148179579778576 -0.28316282174748086 0.0014976602664236987 -0.00277963060115471 0.4490217527681544 0.016018071107794567
68932000.0 0.8012429859924608 -0.5703347214188218 0.044656025703428526 -0.293490126151826 0.0013035523923622752 -0.0012427807088004662 0.4520118576874122 -0.012376737034236866
69931000.0 0.8021171375819485 -0.5890544570931803 0.04609692952138088 -0.3110378389828814 -0.00027574556636746414 0.0021701090933539924 0.44833380067953776 -0.02049775133229212
70930000.0 0.7966262231327076 -0.5960923773496165 0.04362039531896714 -0.32979962201086144 -0.0010684769555956506 -0.0014336855383803838 0.4495012025805809 -0.04586744623642732
71929000.0 0.7946405707658581 -0.6051609118680015 0.042111816661372405 -0.34524511773626715 0.0013792170403859176 0.0019968429917019293 0.4543166409365432 -0.049609510592486424
72928000.0 0.7867215930407983 -0.6112005107175128 0.034954354843440526 -0.35658315275576674 0.0005848403047364851 0.0011554926821943684 0.4570179544646317 -0.05698583174942524
73927000.0 0.7809513422584454 -0.6180757904931503 0.029324596702469088 -0.37936395164559333 -0.002971937302771247 -0.0007134843921073298 0.4555739372066791 -0.06422349644144913
74926000.0 0.775713238956743 -0.6281463153543438 0.022252425725058284 -0.39650431418914067 0.0003316883075336757 -0.0013600652097949003 0.4648231618561465 -0.06371097748468914
75925000.0 0.7682134871473759 -0.6338529492917648 0.009126733195388226 -0.4149731659640418 0.0026925029788400635 -0.002411698652700495 0.4697618382511738 -0.07529120498357088
76924000.0 0.7626390817293811 -0.6410321989751889 0.0011046018129042278 -0.4387287858079578 -0.0012465850670932786 -0.005667119204137147 0.4661651260691477 -0.08773522201451171
77923000.0 0.7555450965945933 -0.6472632325081247 -0.015987505545934637 -0.4654257185238249 0.004290803777309884 -0.0003900130018963854 0.4614810372965156 -0.0956236447001057
78922000.0 0.7516632946668933 -0.6568708541224149 -0.03183484367547951 -0.4882947141321599 -0.0008402460219674434 -0.001041072589381205 0.46702888348634314 -0.09952230935071656
79921000.0 0.740662575494229 -0.6612967451267665 -0.05051742691142199 -0.5159642705728169 0.0029000992540899194 -0.0030914402045368904 0.4620116968915605 -0.12214013738481214
80920000.0 0.7371609683788315 -0.6717493190408036 -0.060334001654074966 -0.5424998524814602 -0.0012281937761065313 -0.003036427263797567 0.47273911243106076 -0.12722313812704383
81919000.0 0.7310776947258429 -0.677577319058384 -0.0821816186425923 -0.572263869314046 0.0004348249619065691 0.00387982404137919 0.4693737995132048 -0.13657406736470096
82918000.0 0.7202782335997484 -0.6870248558497911 -0.09682323057349441 -0.5993336476315274 -0.00236914209975983 9.503533314291175e-05 0.46819379740941075 -0.14123136497377486
83917000.0 0.7128850688591544 -0.6932275367198557 -0.11638474156096282 -0.6290987258592946 0.0018534211339969328 -0.0027593388005559454 0.47872151493398973 -0.1478661945655796
84916000.0 0.7084178332392738 -0.7018958283659852 -0.13191284123212496 -0.6628319454877445 -0.0002311569598356114 0.0008089019270638175 0.47396501764577637 -0.17073305426319438
85915000.0 0.7024606437176916 -0.7067702250836027 -0.15115845586979637 -0.6887169537335776 0.0017820063645374287 0.0011344555103207422 0.46480414223003413 -0.1774007662604709
86914000.0 0.6957798229183846 -0.7171507829666378 -0.1678532701407314 -0.7314232757904705 0.0034922883341819183 0.004862670260745313 0.46218085234755907 -0.18065424766742624
87913000.0 0.6873707067108464 -0.7241414084167755 -0.1865351658789776 -0.7578746189492708 -0.0004125347467938248 0.004805487882673383 0.4660399912876483 -0.1912215663010025
88912000.0 0.6788145006328812 -0.7299343282512011 -0.20200219896512006 -0.7889286852075137 -0.0008663792212661381 -0.0002599399746716152 0.46428679961533686 -0.20708303576089476
89911000.0 0.672302107854006 -0.7379859730801533 -0.2181527905287851 -0.8253588439669767 0.0007017231403569653 0.0007226452428858567 0.46810313262822273 -0.21602154987788727
90910000.0 0.6662477062498686 -0.742105224927563 -0.2336840180259877 -0.8606176746960463 0.002303994832479946 -0.001190196821540751 0.46743008077852016 -0.20341919863273997
91909000.0 0.6558293336748793 -0.7487327261683997 -0.25482114073331036 -0.8930865989440075 0.0005551713815699809 0.0009968548624081034 0.4671495355083129 -0.22888469427938485
92908000.0 0.6484438423889759 -0.757354763386896 -0.26806246949431106 -0.9233498767604897 -0.0003391406472114052 -0.0009777174643602461 0.4558507530853372 -0.23989747661142863
93907000.0 0.6419108838416359 -0.7621674909530383 -0.2835818004785996 -0.9538555942779368 8.080843346555454e-05 -0.00033591288855517747 0.4644484856588075 -0.2531595731988827
94906000.0 0.6274851703210558 -0.7707318276859698 -0.30289828297157256 -0.9848609609964613 -0.00280422130903369 -0.0009467127739300756 0.4624436619057055 -0.2468826682702566
95905000.0 0.6228641585641506 -0.7762477493952382 -0.3309741197799962 -1.0196376156561 0.003009605018261483 0.00027129122952712176 0.45444608780304346 -0.28058425294643413
96904000.0 0.6143485574670546 -0.7839578092245457 -0.34354686761663306 -1.0602889541628735 0.0017568751630693017 -0.003744473189434024 0.44235534733583387 -0.27652160920512847
97903000.0 0.60302700342588 -0.7904245954777747 -0.36317447591066515 -1.0884561873534524 0.0002785971380087328 -0.002660885488549974 0.44766850430539745 -0.29879603202346633
98902000.0 0.6019202141607178 -0.797192666452543 -0.38325145591112875 -1.126812600986961 -0.002307172032199232 0.0036025285548122537 0.44113498413195235 -0.28734683508245246
99901000.0 0.5909781521101579 -0.8025497302276433 -0.41216203331468776 -1.1565879316744154 0.0018316075161850236 -0.0004960286091129503 0.4604497729411607 -0.3154291042935536
100900000.0 0.5804718585742236 -0.8057602083575403 -0.44042421219709604 -1.1814406394785848 0.00190797370334795 0.0001703251922475034 0.46207573065908353 -0.31222349909299607
101899000.0 0.5728169022439039 -0.8137823995471382 -0.4649922633581129 -1.2245497043068931 0.00012920338198395905 0.002123216189606915 0.4390760453752513 -0.3220180757017069
102898000.0 0.5605945402847127 -0.8196497486103267 -0.50477827611676 -1.2563576839597044 -0.0035445856965144436 -0.0027954017694358743 0.4510332666605576 -0.3401796247359715
103897000.0 0.5518624730784912 -0.8266442704196839 -0.5408752493075953 -1.2906962872401264 -0.0005723901100785283 0.0013550050346302373 0.4569416151637044 -0.33350979221094107
104896000.0 0.5472040975941268 -0.8391378835019888 -0.588164310163251 -1.3253205529724448 -0.0008890308469428294 -0.0013772356144407954 0.4345967167182639 -0.339165928589098
105895000.0 0.531151146712469 -0.8395733534307941 -0.6356850714312883 -1.360898331426855 0.0010762107715674258 -0.0022732195437225695 0.4372964145037822 -0.3604146022709628
106894000.0 0.5243730521712038 -0.8460950218915463 -0.68282324601196 -1.3953302413270092 0.0029365406661873423 0.003148955858570901 0.43560224845594825 -0.36058951788026544
107893000.0 0.5158957046712573 -0.8535349412424466 -0.7373249732308068 -1.437153949954976 0.00019031266217405516 0.0015413474993395306 0.4418037738003045 -0.3832763232392647
108892000.0 0.5068093558327462 -0.8549022995889043 -0.7956183853107243 -1.4699160118386208 0.00014924822218905824 0.0004333799896435062 0.42508080435155693 -0.3727833965774675
109891000.0 0.4953329241078711 -0.8638921517155633 -0.85083384350378 -1.5066164050442918 -0.0015859142425247315 -0.0008354263815999628 0.44509015162408233 -0.3795503533238394
110890000.0 0.48359552853976756 -0.863865381890803 -0.9082370711798681 -1.5078964088539422 0.002350547374615349 0.002258483395154565 0.4245667395099843 -0.38315987096623405
111889000.0 0.47237838773519014 -0.8708636365463324 -0.9816486891940276 -1.572885543675587 0.0021469557926980746 -0.0008133914715560915 0.42309994988544464 -0.394261765768549
