! Created with skrf 1.9.0 (http://scikit-rf.org).
# Hz S RI R 50.0 
!freq ReS11 ImS11 ReS21 ImS21 ReS12 ImS12 ReS22 ImS22
1000000.0 0.9841324754335089 -0.010696081110101644 -0.025053915544348136 -0.035362649722789026 -0.00924810871495673 0.013880839447196317 0.3633003753029949 0.2633285066465518
1999000.0 0.9966483115304139 -0.01341778591217539 0.005567138464452258 -0.022877687683210385 -0.0017600767039928026 0.0004672123368639056 0.2611749247411974 -0.06688957132371146
2998000.0 0.9976013528917197 -0.020384356920213852 0.012668309452962332 -0.010872243798958209 -0.0008153608262685484 -0.0006414495862814707 0.18529511763798995 -0.14584008800574508
3997000.0 0.9977487101102563 -0.029912411697479747 0.01588775178703241 -0.009136039099617976 0.006018379943182948 -0.0063631769954318575 0.09095591661389923 -0.2280136222359651
4996000.0 0.9994385922702986 -0.034640682080519715 0.008610989218292264 0.00514574860529101 0.0040466537637920035 0.0009277279825595504 -0.04491911873771904 -0.2092753570650799
5995000.0 0.9968119653741077 -0.05145355373546786 0.007887464647900261 0.0007201804956485678 0.0031003954421916493 0.0007079739180232907 -0.11003703615133652 -0.11625591554854084
6994000.0 0.9981272760793342 -0.056446974460005794 0.008874524473828381 0.0049753330791436545 0.00407501182594221 -0.0026957952283011284 -0.1509008629771436 -0.03677103124802631
7993000.0 1.0004507838758516 -0.06788813119709416 0.006945974039253935 0.011830784416276479 -0.0016947214121507952 -0.0051831508729437556 -0.16229543031292687 0.03735343363911676
8992000.0 0.997602331016234 -0.07058230446773783 0.0036525439506487267 0.004899147544050842 0.006552994935496592 0.0008240507379743222 -0.15216580955384112 0.058718693616889625
9991000.0 0.9967358314615529 -0.08121462913174435 0.0038412205319848384 0.0065244641264366006 -0.0012364302213523919 0.005761820169905208 -0.15548320136196608 0.09863693208349653
10990000.0 0.9930117257430219 -0.09501735881861574 0.007423271173088436 -0.0006182417742139585 0.0007107039154444659 -0.00021171067656569774 -0.14584281979242245 0.11805051144317417
11989000.0 0.9921737778360936 -0.09911732421455945 0.00277131929499037 -0.00462799633415089 -4.2807935004092e-05 -0.0024344242913380844 -0.13294656405475458 0.13930585872832138
12988000.0 0.9898529170904621 -0.10913264776639002 0.0017324620355503634 -0.001493645387224388 0.0026524042219586617 0.001720548218980179 -0.115982101766914 0.1616817117509869
13987000.0 0.9897481751903341 -0.11639958192108676 0.002205827332868812 -0.008099672652673617 -0.0028933843767387857 -0.0008178562571166838 -0.1020089834924514 0.19123398238805983
14986000.0 0.9910096213022389 -0.12311743788510655 -0.0009063369817960366 -0.006024091462786554 0.002137184337149721 -0.0005543254720089165 -0.08571529083714198 0.20926090444482015
15985000.0 0.9906524777520145 -0.13133058384776264 -0.00710225608072952 -0.00549429049416215 -0.0012751595584992834 -0.0020433290880736543 -0.07101744506188654 0.21407100876291477
16984000.0 0.988639511983378 -0.14235190012875915 -8.354238857923337e-05 -0.002614197199812301 -0.000179502317428778 0.0032380094500327975 -0.06885315208863309 0.2186066005251204
17983000.0 0.9880865533063815 -0.147201924349226 -0.005378894413178815 -0.00631474787817168 8.035762763288474e-05 -0.0013800939831689815 -0.054082104892386 0.229615197984909
18982000.0 0.9852188845662616 -0.1600636365637475 -0.004087241969587636 -0.008790069471314855 0.005215272153611158 -0.003588234138147627 -0.020557119787339255 0.24388038307321683
19981000.0 0.9843374378280958 -0.16296744071138736 -0.004873858828781447 -0.004120387900272151 -2.4514968496033282e-05 -0.0009029813706235186 -0.015412830488158993 0.2361995929489153
20980000.0 0.982932778417938 -0.17589392015528227 -0.005007050724756274 -0.00385433008569812 0.0008841989289772324 -0.0020555532890196536 -0.002405663867855385 0.26166364310434204
21979000.0 0.9812904430473103 -0.1843199885878181 -0.0017667712719280338 -0.009131199463087521 0.0037096372589681577 -0.0017830850104454392 0.012304880621029097 0.24215561767300015
22978000.0 0.9787024800004728 -0.19359095303997068 -0.004382729071186627 0.0003572976942895182 0.0003628193269366356 -0.0072917173233011615 0.031058590090062742 0.2610012134439751
23977000.0 0.9791578756560857 -0.1991098048732442 -0.0109205396520152 -0.006048864191140659 0.002280950609634499 -0.0012258491680904333 0.04206827413561306 0.2557963007843173
24976000.0 0.9755128224423649 -0.20957764898607614 -0.003730057099560342 0.0012730795442624505 -0.0003512517122191215 0.0011024865848563126 0.04652699930817412 0.2556153625903325
25975000.0 0.9778080909406062 -0.21920851929632504 -0.009750511693587259 -0.0031403352845226773 0.011989758934125301 0.023448761128928807 0.0820959911531087 0.2609283897141104
26974000.0 0.9727313630128701 -0.22517554703191858 -0.003978272404552229 -0.004192853656124695 -0.0002702463250470401 0.0014950830480904963 0.08469203803416436 0.26336241562656515
27973000.0 0.9716012146424685 -0.23197276881194442 -0.00433659642259664 -0.0010503948864341555 -0.0037110004519689374 0.0017894263147965456 0.09995531450526547 0.2556272587032797
28972000.0 0.9671215684446466 -0.24416773667740568 -0.001734122750576454 -0.000527049128975804 0.0025840732204180173 -0.002094102577243641 0.11349983270875849 0.25116895730779276
29971000.0 0.9680804675274408 -0.24925778754103492 0.001960993811449388 -0.0034706337414739112 -0.002382852051429128 0.0021033554175174476 0.14007873826165368 0.263078048852471
30970000.0 0.9640866664496412 -0.2575534807511215 0.003902691097142228 -0.0008626881312286562 -0.0002778461519256995 -0.0019501539017113705 0.17469988244687332 0.259948707582955
31969000.0 0.9614577051457441 -0.26532416707280804 0.0030333596802705563 -0.006791860050082665 0.0018333902702186034 0.002033131570550159 0.14850961744202398 0.2601833731067834
32968000.0 0.9600504997799533 -0.273289647109549 0.0028541155094331133 -0.006235119793982578 -0.0007522554875714949 0.002126132908108656 0.1690986005540989 0.2525931781177894
33967000.0 0.9580008970482379 -0.2836967434070603 0.011525952015302222 -0.007106658691153715 0.0032120527080683556 0.0005667973180774078 0.18625724341770933 0.2471953414598183
34966000.0 0.9547448994221072 -0.2917159607502996 0.011421054448843584 -0.013061452590602247 0.0029601168413926895 -0.0014583412832061523 0.19565732004662767 0.25100430750322095
35965000.0 0.9512540614319589 -0.298890161957872 0.016631401684284373 -0.012767845023573204 -0.0035498078148134167 -0.00041168932312922316 0.2145176819522699 0.2539790835852921
36964000.0 0.9506094634085471 -0.3073058646009119 0.01641462807199054 -0.014462771819683121 0.0018894574853027756 0.0002920300529899479 0.2141895008155187 0.2594650706846664
37963000.0 0.9468307377156341 -0.3181180228309428 0.022828002662454536 -0.023124388312839077 -0.0013221278018285495 0.0008620949588398063 0.22925491294772357 0.23519546109849077
38962000.0 0.9458272824004142 -0.32498112585663663 0.02318649327928342 -0.023001883929359892 0.0015364900317978534 0.0012119367306859838 0.24025532569698785 0.23287107166677934
39961000.0 0.9410910416950009 -0.3351056072858495 0.028417768119863674 -0.026447724207872024 -0.0011053242942455862 0.0032859981095276817 0.24262809721395873 0.23649508329632096
40960000.0 0.9380005445450175 -0.3409649529104869 0.02176879996255181 -0.02394620890246313 0.0006770176083699406 -0.0015384595698561747 0.2765784633272916 0.22115582622556887
41959000.0 0.9356336512630685 -0.35151330111126494 0.03392090655308095 -0.028719965300416882 0.0001746387981691327 0.004269931483164343 0.26990987134988137 0.2151835072046427
42958000.0 0.9305437728395576 -0.3602961079438991 0.03202604390583665 -0.03775910240248599 -0.002180932371591297 -0.0002566692066574453 0.2757761502853782 0.20238884633985266
43957000.0 0.9293301581736979 -0.3659089724205317 0.039491617104235266 -0.044440571590523816 -0.0033064674469754194 0.002032861245189119 0.28793196533776616 0.21505563486161305
44956000.0 0.9249350374258145 -0.3736540105914923 0.03495285509393043 -0.05366912452269649 0.0003552928624076549 -0.0001992533129515673 0.3047621760968589 0.19376265954436925
45955000.0 0.9220436659583704 -0.38479604385446714 0.03826666385281918 -0.059388361588322516 -0.0005864421773260007 0.0017290634169564573 0.30635232659880396 0.20522594351713855
46954000.0 0.9193581916873546 -0.39247203108292616 0.03962640058519917 -0.06276385676925318 -6.797570834511612e-05 -0.001703012776104742 0.32568299776988563 0.17977851935262085
47953000.0 0.916094204244244 -0.3994735008672106 0.038763863779500855 -0.07328028491575549 -0.0011787529622412619 -0.00039157222275392617 0.33731978219920533 0.17744565594592807
48952000.0 0.9107681000623002 -0.4092397612670448 0.03980004784238948 -0.07884011216147213 -0.0037427292102120194 -0.00037578919809078256 0.3385129934784528 0.16673246877635123
49951000.0 0.9078108117604846 -0.4142789831366901 0.043017518107486476 -0.08875120668685059 0.0014877777388267615 -0.0006098009886475496 0.34620622500291237 0.1541914872787496
50950000.0 0.9036831992054317 -0.42571577781876474 0.040454757082210274 -0.09460536938767988 -0.0010710782908038244 -0.004532335610142828 0.3509648888577296 0.14966195457457296
51949000.0 0.8997889183346689 -0.43241580540392655 0.042760981211705434 -0.10307838626973248 -0.001559715239706123 -0.0037285206563767983 0.3612741483998244 0.15320286324668234
52948000.0 0.8989245423752303 -0.4407132236131368 0.042267581818456135 -0.11107318725894254 0.0021906050562786484 0.0005042130335705526 0.3820151259501822 0.14192552140917583
53947000.0 0.8923107346230027 -0.44774807041187475 0.047387773658848636 -0.12144072608337671 -0.0027349380151053034 -0.00428391976702784 0.3734388248444897 0.13406769624248244
54946000.0 0.8862929924582656 -0.45997986575976624 0.04510216414341229 -0.1303465632068245 -0.007039707886141704 -0.001058814701653838 0.38281747825886886 0.1296482749191846
55945000.0 0.8841442566089015 -0.4653449868167628 0.051165252901464 -0.14563701309261745 0.0023224866712693946 0.0004696778384989089 0.3875059372006597 0.09773266228671146
56944000.0 0.8796156596070752 -0.4736234759669436 0.0519899921012371 -0.15455470220563755 0.0010896791132655752 0.00021834838966374297 0.39877253408378766 0.10444985849600008
57943000.0 0.8755548875874785 -0.4843916656618668 0.0513864351321641 -0.16710259477966788 -0.0033478199340016284 -0.003594202265037588 0.40676462666668145 0.10057754281008888
58942000.0 0.8690539714736706 -0.48855627069442104 0.05282733707950639 -0.17740574922219463 0.004185663111824716 0.0013490858543138886 0.41477406228591596 0.09155299152146314
59941000.0 0.8660269830909556 -0.4967004409081772 0.058717163890467654 -0.18540272516794343 -0.0020666499507375653 -0.0002074568313105621 0.4199941280624617 0.08714574954099898
60940000.0 0.8588368287683481 -0.5044835450677525 0.05379711018512558 -0.1935607514941484 0.001021237123096905 -0.000727977880876718 0.4100560384653034 0.08202187132796733
61939000.0 0.8558073221283917 -0.5109335276339096 0.05700922472809915 -0.2029017042475028 0.0013510332114105084 0.00041557000474265324 0.4233137088484629 0.06479866381777304
62938000.0 0.851313854884061 -0.5220799089291217 0.06006357889796374 -0.21900100356831265 -0.0020142666666046775 0.0009165396843592101 0.4503662427042231 0.054431303263570804
63937000.0 0.846910798828111 -0.5284192984348043 0.05931105736782603 -0.23945231895070562 -0.0018595528289921525 -0.0012395710420493383 0.43668983191692523 0.042905346919208054
64936000.0 0.8389795266935184 -0.5357929679364221 0.06178478409811598 -0.2557168590769666 -0.00232881550747986 0.0009035961227901122 0.4310703272550563 0.04546214854171198
65935000.0 0.8356854427542568 -0.5472161348111199 0.06259369115809574 -0.26875610698552493 0.0010957998968734648 0.002216262948413862 0.4482430349875461 0.02051630116507246
66934000.0 0.8346400164084429 -0.5500522183590519 0.061688662098752706 -0.28289942278574187 -0.0051147274090837 0.0004929611215835802 0.434082795705317 0.019051449640215757
67933000.0 0.8281803630558919 -0.5587549815962368 0.06217351061203609 -0.3005943267548724 -0.002495136132722962 0.0018894228030751352 0.44373933340132893 0.0077408223435404
68932000.0 0.8132157387925084 -0.5646817076062892 0.052962528941696355 -0.31002437317323933 0.0014830829079479683 0.004404449883771252 0.4565571486406935 -0.008437084743541053
69931000.0 0.815485360867148 -0.5740071805442659 0.05957995628427451 -0.3296596664561407 -0.0002014148920219629 -0.0019922037787575295 0.44739371282011947 -0.019325347087141273
70930000.0 0.808819818223915 -0.5820006863580431 0.051463387261121527 -0.3439014966536375 -0.0012315097624735654 0.0037245304180167868 0.45611786240297214 -0.03407648263763945
71929000.0 0.8077163757647284 -0.5887406167799976 0.05237594952845527 -0.36459133897727564 0.0027005701714413947 0.0009281543773193088 0.44928516197790785 -0.04083983142135957
72928000.0 0.7994998984295719 -0.598229813664535 0.044670997344979785 -0.3798051161598601 0.0018473109318638335 0.0008046286683168676 0.4679475697690104 -0.05520212482248447
73927000.0 0.7939962849216915 -0.6049190439972544 0.03891510629313438 -0.40287584873442595 -0.0007224882921824475 0.0021775042927131717 0.4605533082688628 -0.05820699049638158
74926000.0 0.7905031673859386 -0.6137087797333509 0.036613118260195636 -0.42275643859823697 -0.0009485803104156485 0.0007389835675958919 0.4650528603632079 -0.062463078603353
75925000.0 0.7807673872012645 -0.6184832389320754 0.02538011598657382 -0.4432825801067199 -0.004294721437914648 -0.00327774327915051 0.4735196967464803 -0.07854021962740686
76924000.0 0.7766563608326718 -0.6269826890083575 0.01811220389922298 -0.46702280429975046 -0.0036420437440836855 0.0005694950286015592 0.466903678595751 -0.08379311076547803
77923000.0 0.771875247330686 -0.6330697229580579 -0.0015638681231362282 -0.4916101996367991 0.0033887014793337143 -0.0007608984379386627 0.4686554039202284 -0.09120621750937576
78922000.0 0.76438609960616 -0.6435711028292692 -0.01173787293178412 -0.5219349366616851 -0.0019008694796486295 -0.0022366563469474582 0.46576320102030994 -0.10678053485216471
79921000.0 0.7563726011145928 -0.6463657317557493 -0.03374973597237379 -0.5459410363598665 -0.003737685256857469 0.003001776246936189 0.4553304095219889 -0.12423547297184434
80920000.0 0.7518373037636795 -0.6591217599619669 -0.04378240158465403 -0.5761640870754788 -0.0016867721101623513 0.0002178359502342261 0.4735100310707001 -0.126576667519826
81919000.0 0.7471701659630977 -0.664265151498012 -0.0618925816173998 -0.6051780958286028 -0.0005247946191897111 0.002855803507766164 0.4691949422395319 -0.1256483797501677
82918000.0 0.737303704840114 -0.671885988356687 -0.07590069415768956 -0.6391157383732472 0.0017134967562674748 0.004327900744617515 0.48092443907206417 -0.14303198926541022
83917000.0 0.7316425431687908 -0.6799305424280512 -0.09613750399233584 -0.6663731859492273 -0.002835490688589651 -0.003934596741194882 0.47806344654569505 -0.14110853543939644
84916000.0 0.7239710590447297 -0.6876497642773192 -0.11718839053197123 -0.6992013337440984 0.0011828635867745534 0.0024682409758941364 0.4739778790399372 -0.16559068214667957
85915000.0 0.7185905263847527 -0.6947151161779078 -0.13522307597548022 -0.7298520501147678 -0.0014881713074551609 -0.0037296761924686165 0.46668241731769716 -0.16178502966439978
86914000.0 0.711961052809039 -0.7027892453097476 -0.148277418842836 -0.771421076558261 -0.0011661476522781542 -0.003117548266039541 0.46024818880192975 -0.17732017194200778
87913000.0 0.7047415226701171 -0.7083423013110292 -0.16988871660901222 -0.804590780226161 0.0036852488002532303 -0.0005432079226374814 0.4684468338568685 -0.17137836209240478
88912000.0 0.6969868326284456 -0.716317353571423 -0.1884343432825588 -0.839938706507011 0.0016676837604704265 -0.001544322228572527 0.4716434447012472 -0.20684877548668643
89911000.0 0.6914389686255108 -0.7245188495685186 -0.2004194161562333 -0.8795720415222362 -0.00033755562772030213 -0.0006173956927646588 0.4659230089155804 -0.21478067069234127
90910000.0 0.6851050210577091 -0.7285948743914659 -0.219646114884301 -0.9133552664988758 0.003024974580770123 0.003481386254769013 0.4522830740386323 -0.20969314664090727
91909000.0 0.6749052005772086 -0.7362412827265513 -0.24287526833034592 -0.9488974197654151 -0.00400932993251289 0.0015335952717246445 0.4717825347609072 -0.21824381232826143
92908000.0 0.6679072473891928 -0.7432653282980388 -0.2648749997939926 -0.9823795989255539 -0.001168096551732843 -0.00451236846035758 0.4567098964002211 -0.22666465998716986
93907000.0 0.6611243384069772 -0.7479250098612408 -0.2797306429655983 -1.0185151306397235 -0.0021832869955690755 0.0007392793582124132 0.46358846423112987 -0.2469424568149884
94906000.0 0.6475723341269682 -0.7566387204811489 -0.30006694302968534 -1.0501600254707943 -0.0005000190493740535 0.0007413380566597588 0.4608215941735988 -0.24304448959049246
95905000.0 0.6427879871449036 -0.7629893347617668 -0.3195178356524698 -1.0907877626669458 -0.001064384074416283 -0.0024374608521633727 0.4647442998575833 -0.2598609101093981
96904000.0 0.6341152340933434 -0.7712950495133133 -0.34245104399888165 -1.1329925116257724 -0.004057436570987415 -0.003274145285446858 0.45439979714025436 -0.27304263087638114
97903000.0 0.6271327024095577 -0.775654615494864 -0.36440428023034954 -1.167385286029767 -0.0004998244853647489 0.0025066623835767877 0.45265539946991007 -0.28249364451388304
98902000.0 0.6213038582165334 -0.7835265748034649 -0.39003388976739056 -1.206601883894153 0.002082086573938019 -0.004148025248371452 0.45063537261099756 -0.2860648748723747
99901000.0 0.6107263843031427 -0.7904656862280678 -0.4230065075353167 -1.2388383133693333 0.00028420603302845395 -0.001096593294808622 0.45988868283557194 -0.3092809041563393
100900000.0 0.6021823566783988 -0.7931710252708741 -0.4561594551590163 -1.2691536099121452 -0.0005127062601275705 0.0029380922496659288 0.4620090669021493 -0.3097955745281158
101899000.0 0.5928717208400172 -0.7995943938323958 -0.4839369789796056 -1.3108216508148973 0.0008959262261371377 -0.0029745875621900366 0.44586053449967483 -0.3276752119792772
102898000.0 0.5840411259580723 -0.8065119715562982 -0.5210883348902282 -1.3532647825426958 0.0007625428736213498 -0.0009976186084818658 0.4486479434879999 -0.32590381095806237
103897000.0 0.5755492894706873 -0.8158788198591671 -0.5633084750398623 -1.3941628364969656 -0.0007088456536778093 0.00026365226315561814 0.46057799800469273 -0.32838800580866123
104896000.0 0.5692437051654597 -0.8249717869178916 -0.6084927975934927 -1.4325895387307717 0.001231191892714794 0.0005585251088154977 0.44286919140490294 -0.3350565348674272
105895000.0 0.5574887243508162 -0.8257779759322113 -0.6621548598797606 -1.4784003905646177 -0.0008425740815414882 -0.0034093702180189407 0.4360119037493855 -0.35211020399419934
106894000.0 0.549024086665178 -0.833505167409577 -0.7136220030769985 -1.5140711717252173 -1.00909359948879e-05 -0.0005142305118161962 0.43827565915523564 -0.3730729746162857
107893000.0 0.5406306630934665 -0.8383990359847264 -0.7692125424430497 -1.5507615628497824 -0.005115427799375446 -0.003118771237823783 0.4305489126319013 -0.386147130406905
108892000.0 0.5314865125476198 -0.8432840949484158 -0.8301317669611911 -1.5929208323902637 0.002771156272444879 -0.0007077282840846509 0.4313809961116908 -0.37301541992213333
109891000.0 0.5208221582685498 -0.8489527116067711 -0.882882129124701 -1.6296937866581669 -0.002417326600009027 -0.0010870907629875258 0.4359703420308955 -0.38001678247080617
110890000.0 0.5171176067331253 -0.8581970094725364 -0.9502765986211663 -1.6549131575744351 0.0004889776309506691 0.002725329525863959 0.428532534054319 -0.3807920697401457
111889000.0 0.5026656798009468 -0.8570048216942845 -1.0142872144906792 -1.7043093105773786 0.0004620881357190148 0.0005113669563050837 0.4234347739130482 -0.40302658294609517
