! Created with skrf 1.9.0 (http://scikit-rf.org).
# Hz S RI R 50.0 
!freq ReS11 ImS11 ReS21 ImS21 ReS12 ImS12 ReS22 ImS22
1000000.0 0.9794249784442085 0.004273955506567559 -0.020487728220886195 -0.04646008377862768 -0.01963558727603231 -0.011291185246258157 0.33530503003594414 0.33036363277242636
1999000.0 0.9919763483987443 -0.018400294793920368 0.00861719596624715 -0.02397504357254422 -0.006517259174493828 -0.0032241022423732187 0.26744008579270445 -0.06330806693779933
2998000.0 1.0010876398790571 -0.023559470682066496 0.007985119759996707 -0.012270767685442918 0.0040530326152621015 0.00037915806234030197 0.17986188333187628 -0.14284446891745764
3997000.0 0.9980824426628901 -0.03269061634351157 0.01259179400062548 -0.0014997512821505407 0.00140156851939861 -0.006664516812840282 0.0966408548791435 -0.23076958559792562
4996000.0 0.9959656096115186 -0.035801123773509996 0.00997314335023721 -0.006890934859663042 0.004562054406033406 -0.000571728306620535 -0.02981106724025141 -0.20631862904875364
5995000.0 0.9953007908593988 -0.049207075538129384 0.010530713855097127 0.0006169749407766642 0.0029003152156651837 -0.00741497054271836 -0.11552604166830573 -0.11028812885099143
6994000.0 0.9939573445163424 -0.06077356589719725 0.009402833452320068 0.007292745654911507 0.0017987573921790887 0.000789410694592545 -0.14280437765707107 -0.028008685420358746
7993000.0 0.9953537246147723 -0.06871129683909319 0.005610874092109732 0.0069859811793757205 0.0023131160348700674 -0.002398855718989155 -0.1652598543335223 0.02820138645923273
8992000.0 0.9944372576383257 -0.07101858250350036 0.0011648865432286033 0.007646165745993538 9.916539560837205e-05 -0.004428183848312402 -0.15994558068719678 0.07213735471165705
9991000.0 0.991944160408677 -0.08506906266331507 0.0009576050895028389 0.003304598220817057 -0.004914705146401386 0.0016563590701100187 -0.14455596866389092 0.08705052357960967
10990000.0 0.9918378101699487 -0.09276920207310663 0.002190371042567281 0.0024285481050172184 -0.0014628614399959205 0.0025067148776582193 -0.14325511769438032 0.11286885405358398
11989000.0 0.9914874315428057 -0.103542406837248 0.0031247363404248284 -0.002809100719683872 0.0011317107176250156 0.0009986796356333057 -0.13279112028868215 0.1371285463223349
12988000.0 0.9899439797038068 -0.10947821349103581 0.0018439304327185265 -0.004529796075740548 0.004169963567117824 0.0035545597027353466 -0.11276920350894186 0.16611624635164032
13987000.0 0.9871854200092827 -0.12173387538847272 -0.002603800235614132 -0.005837477568223778 0.000746210769336571 0.002262507554954485 -0.09959333451849228 0.18100794945727577
14986000.0 0.9851852488534084 -0.12851408859205918 0.0027172916529606124 -0.0059496019797336515 0.0016055152977570242 -0.0037552509351397776 -0.076129989024017 0.18806410583812389
15985000.0 0.9889556103711198 -0.1360247041992228 -0.0010844001500927443 -0.00581060496421662 -0.003916509906317619 -0.004959923976304067 -0.07944796390092033 0.21484320839926047
16984000.0 0.9846771895331599 -0.14375988531602846 0.00020884294474315596 -0.0011778824559551802 -8.222171367388806e-05 -0.0002332685779396127 -0.05915416243152546 0.22473332056280548
17983000.0 0.9857659508098197 -0.14904004785631414 -0.0013971904699778162 -0.005477181138852646 0.001526456897535845 0.0003194881970687534 -0.051763645616134044 0.2273924807436853
18982000.0 0.983069832659263 -0.16055959677729856 -0.006099296381602834 -0.00263179651064944 0.00011103770538122572 -0.0007724287332433407 -0.011538045933668688 0.24019432741034533
19981000.0 0.9821881581561569 -0.16820966554516412 -0.005816977341755126 -0.002765665106191901 -0.002982801600509534 -0.001574842410432791 -0.014329079484011338 0.2429485639726872
20980000.0 0.9811318120001896 -0.1766836603826871 -0.0067327928877479425 -0.0032746294432791493 0.0017033209101942378 -0.00030813335813584524 -0.0034603885901167875 0.2633683085099113
21979000.0 0.9771422103407387 -0.18651154038132775 -0.008182180423136336 0.002525683562650814 0.0009118100229492973 -0.0012529474139600602 0.02155018699172989 0.24875825375900892
22978000.0 0.9770222058805326 -0.1956730976535563 -0.004715323160217165 -0.005009610932679266 0.0037621622100051377 0.0023694584854158677 0.030513256875331338 0.26040361397021744
23977000.0 0.9754625011564391 -0.20321363794446487 -0.003295769883010085 0.001309873476158553 -0.0004620072321976829 0.00223745333016826 0.041582053603705545 0.2586444329018094
24976000.0 0.9722090853312031 -0.21529065397612013 -0.007334165334549654 -0.005550423186675964 0.0021192135086595953 0.0013216529659917113 0.06264084866617141 0.2549897095269372
25975000.0 0.9738806273361794 -0.2255622720764483 -0.005358890057144539 0.0011695444157608554 0.026268145072675244 0.013032626644344857 0.07107984659421943 0.26066419035907523
26974000.0 0.9713450033985104 -0.22910473688195057 -6.956816868706977e-05 -0.00043445192439225933 -0.0010927385365706878 0.005666544488004515 0.08311215170967035 0.2666154745869015
27973000.0 0.9668316556873885 -0.23929866420601514 -0.006262001297251364 -0.0036102791001835634 -0.0013098481433334009 0.0011830295604954438 0.10130042227913022 0.26505857413611417
28972000.0 0.963509325225654 -0.24739986701735467 -0.0022934590661235045 -0.005716654044212918 0.0011487055221815225 -0.0013484408911812473 0.11421702059766922 0.25533848665211356
29971000.0 0.9637688622056485 -0.2549191463971071 0.001500903575656881 -0.0028464402652225796 -0.0011908397537599912 -0.0017660782415750563 0.1517412893344904 0.26402516009105353
30970000.0 0.9591351650460959 -0.2613180895843198 0.002559188398621664 -0.002517110003071039 -0.002391620595533449 0.0018690022642897548 0.1659459379282531 0.256686223942993
31969000.0 0.9587927757275524 -0.2711799065521914 0.005094170045925567 -0.005090391049830525 0.0008417852865294322 -0.00016610867324604598 0.14860273653263367 0.25317620095303717
32968000.0 0.9583561601318376 -0.27901471463232874 0.00995509340992108 -0.007868945818300305 -0.0014665248576109587 0.0011966383769999845 0.16609682318882987 0.2434710009232693
33967000.0 0.9566987799527618 -0.2877534034028045 0.011329246632449117 -0.008015215950680329 0.0002455503988035306 -0.0030709457453319535 0.18632873232126976 0.2510222509590506
34966000.0 0.9508259140041534 -0.2994882841834825 0.010999057430936836 -0.012670903625272869 -0.00041327771140135924 0.0003506959067865703 0.19671953781327095 0.25533321572512474
35965000.0 0.9480423785134713 -0.30648444163369853 0.018017052045179616 -0.017072297348959486 0.0014469461838382532 -0.004441278222806573 0.21316900944229525 0.2521942211538374
36964000.0 0.94715350469855 -0.3154567365349074 0.017497877936375326 -0.014593068483828532 -0.004304346415462188 0.0014654996071639932 0.2104858470803492 0.2477472967599603
37963000.0 0.9415120298478932 -0.32688432480726254 0.02351528211490291 -0.02417061133725268 -0.0028723954976206845 -0.001669405951513418 0.231517123293301 0.238832285874407
38962000.0 0.941118509852905 -0.33163721133528956 0.022323560782857667 -0.02698679780326038 -0.0009829348752258215 0.0012254325768583923 0.2447814888658312 0.23803584655599025
39961000.0 0.9372705429340568 -0.3421507287922951 0.02997514463642302 -0.025945796570456647 0.0011157304097827478 -0.0012817391589500654 0.25580555501052593 0.23786683410210177
40960000.0 0.9350669018792167 -0.35060582904880977 0.023763171890447885 -0.02567970134863385 -0.001441054743879545 -0.0010633065112615732 0.2766708952726957 0.23068870349240128
41959000.0 0.9308983353472086 -0.35946020829543285 0.030527836107991167 -0.036458581819149675 0.0012774822714350486 -0.0015824278848241865 0.26370498759963756 0.213548997270123
42958000.0 0.9262441727609664 -0.3676234051299687 0.03505470004728137 -0.042353038542177014 0.00030200900569414476 0.0010977026897063858 0.2869549465784394 0.20207006922393275
43957000.0 0.9240581803888519 -0.3728865882281689 0.034989601075020124 -0.048232224044832836 0.0009491298359481613 0.00216947594527181 0.29517727445330505 0.19834485673270744
44956000.0 0.921176993389516 -0.38048994502069494 0.033205475724682965 -0.05435605173205179 -0.002673166430248044 0.0008685203239388988 0.30954952077341336 0.19685500048754195
45955000.0 0.9151866496382188 -0.39405063510286625 0.036733944106967335 -0.06088165341534507 -0.0015636984540485556 0.0024836123265127665 0.30924482441647705 0.19327669942758813
46954000.0 0.9135101827657323 -0.40075835004191573 0.03854780119202708 -0.06846620918810939 -0.0026885275595959096 0.0018807857989131202 0.333091413678741 0.18547228530294713
47953000.0 0.908883046075066 -0.41171426909363923 0.03877395581985884 -0.07523603108783473 -0.0012086796877515652 -0.0026271134726190983 0.3350840639071297 0.17080089509274424
48952000.0 0.9045013875919387 -0.41826493916446955 0.04202554051022803 -0.08221736926783284 0.0007274189017527252 -0.0006426891833677139 0.33112121284882917 0.1706213619612749
49951000.0 0.901438010552542 -0.4270053009929443 0.04411543743482296 -0.09281378615175777 -0.0031348711141446035 0.00026522069436183445 0.35193187662691405 0.15740027882713087
50950000.0 0.8970246627140461 -0.4339624996330349 0.041840313578997965 -0.09745365748796254 -0.002264139436525915 -0.004190637044384555 0.35692142302897023 0.148882715329802
51949000.0 0.8913230124802078 -0.44391984887500474 0.04591942593796474 -0.1047480099420403 0.0003908919799652084 -0.0034164673025660407 0.3612028303203711 0.1411915814365474
52948000.0 0.8910597631116988 -0.4498404835675901 0.04482373515154058 -0.11710283835362209 0.0034876392130951247 -0.0012748568106972708 0.3672281398037663 0.14042638425262363
53947000.0 0.8840521705903368 -0.4605312868747506 0.048999388262652536 -0.12621853214296952 0.0012048231631288854 0.00015803808079303903 0.37379475939270373 0.12700632108895488
54946000.0 0.8778676974198589 -0.4675207509199512 0.04887497089862046 -0.1339927901541684 0.001393600000012389 0.0025520356188081447 0.38778439176785606 0.12149227390346254
55945000.0 0.8759001390769328 -0.4771854199438722 0.05226183344706479 -0.1469264864379505 8.468737201755149e-06 0.0032574198903835235 0.384818151507605 0.10011308000810853
56944000.0 0.872979072719132 -0.48411596936627127 0.05250559000931262 -0.16054173263193583 -0.0015868218047664074 -0.002996881487699819 0.4043296334407762 0.10498460412792687
57943000.0 0.8662716282111772 -0.49543936425899376 0.05817705248731807 -0.17118336852839366 -0.003128621447774691 -0.0014631277205097975 0.40368087008578973 0.10126149444971537
58942000.0 0.8606867150401093 -0.498533667439287 0.054535941076360624 -0.1818889272536284 -0.003394397823833883 -0.003838263471161379 0.4176515636382004 0.09404050779518505
59941000.0 0.8573170663936664 -0.5092023963525287 0.05782034914610554 -0.1896118300820454 -0.0010190491233536352 -0.0006364735340359314 0.4176366261593822 0.0899915897928713
60940000.0 0.8503100655530533 -0.5160239500518964 0.056049194816417104 -0.19906831441251852 0.0015622585728872697 0.0004936742886450857 0.4012228659566729 0.07259485706387013
61939000.0 0.8479866433753102 -0.5231816418282227 0.05973501645922351 -0.20604778720329975 0.00012400600988835141 -0.0006433653300361857 0.41661991175172414 0.06973520576599454
62938000.0 0.8415997806716076 -0.5334702237927642 0.06309952046272753 -0.22293108062534447 0.00156118632397668 0.0009370425891666721 0.4419192001040762 0.050933169876058754
63937000.0 0.8354024020361748 -0.5415997411236357 0.06339972659045363 -0.24493255997205787 0.002439102133587271 0.002539953539364455 0.4405440293398363 0.048540814961344526
64936000.0 0.8310216648659361 -0.5453267473647775 0.0660707652746864 -0.2582422818215044 -0.0020322523592740845 0.0032474687811778757 0.4307233347439043 0.04960792113615088
65935000.0 0.8255637571992095 -0.558460349478031 0.05809433153531418 -0.2756811711247524 0.0018595598184225912 -0.003178003665590734 0.44302030780778173 0.018864559298069267
66934000.0 0.822349165128029 -0.5616905619059606 0.0629583720426988 -0.2863628891877806 0.005506366476957519 0.0022186097861134663 0.4355640369143465 0.018823893564836682
67933000.0 0.8196582579420166 -0.5705856789540537 0.062188018268335164 -0.30416500930722984 0.002350379598748706 -0.0028154427831490144 0.43645761658714555 0.009319951948279495
68932000.0 0.812473167703473 -0.5767620801872158 0.0547688797110633 -0.31988408124499584 0.00047759343812674 0.004894317796827999 0.4585254744343937 -0.011567249465807089
69931000.0 0.8030893862278587 -0.5881802908787076 0.05377066373048625 -0.33694515528635066 0.0018231709668878858 -0.003728013753528424 0.4432542132653576 -0.02178767755564834
70930000.0 0.798403816086321 -0.5931035327080764 0.053746418456161245 -0.35271180907179056 0.0011551968296137122 0.0005788477956038427 0.4484600677010417 -0.03127125502081882
71929000.0 0.7950717532153444 -0.6012296930118125 0.04982844879038679 -0.37276668748065966 0.002109938246053742 -0.0014407637343921659 0.4495636870105609 -0.036994900198681575
72928000.0 0.7874469192303236 -0.6133950391221568 0.04308741704614193 -0.3896300531872533 -0.0017498476833786472 -0.0013394904910354467 0.4666087389897407 -0.04910299519188262
73927000.0 0.7793285484865139 -0.6173967283650792 0.036892250537918655 -0.4102437936461429 -0.0028022562076465084 -0.0025199347019529313 0.4609655465882525 -0.05327451261798271
74926000.0 0.7755348757494075 -0.6275979700559515 0.030413144491968025 -0.43103916882652127 0.003335115336527902 0.0030050846186183144 0.45557693245797143 -0.06331087354029281
75925000.0 0.7690784220073474 -0.6337969163728145 0.015200927834481308 -0.452510584899371 -0.0059084380859204385 0.000982943607408289 0.47204548029132415 -0.07143315819374864
76924000.0 0.7632263888541352 -0.6395233731597902 0.0027955469661571685 -0.47752339193108645 -0.0016874225386697506 0.0008513763565975589 0.4738450271856313 -0.0848840242239274
77923000.0 0.7553052600623946 -0.6472502541483305 -0.008938398780924794 -0.5059860183705408 0.0016635750873658258 0.0014093315471157893 0.4599099831736464 -0.08914195217862524
78922000.0 0.7512040305762484 -0.6587448844036655 -0.021681747215762166 -0.534212943787926 0.0025653636919264256 -0.00099609728899622 0.45709720540876664 -0.09997564869754925
79921000.0 0.741343913310705 -0.6608046356065989 -0.04084833765879614 -0.5590691585470916 -0.0024203226882610726 0.0023359840600245315 0.4587082289823634 -0.11063186102503937
80920000.0 0.7380270934946973 -0.6722677785702431 -0.05747519233571981 -0.5886783957594944 0.0034162135793630844 -0.0007170417272901647 0.4677753887158116 -0.1288646642092834
81919000.0 0.7321381406861203 -0.6770395009057231 -0.07554529203829702 -0.6212727839949602 0.0015660262945823887 -0.0009228530171032403 0.4666216423165482 -0.13013949428135724
82918000.0 0.7208953503102831 -0.6851759856635479 -0.08290770285530226 -0.6533428882235246 -0.0012644701055037073 0.003167223551063683 0.48022988559104557 -0.14736440649360102
83917000.0 0.7135993850178588 -0.6936235801839019 -0.10644683800182898 -0.6827609334345458 0.001105980573967595 0.0035848800950389276 0.47894836518373474 -0.1523307157005044
84916000.0 0.7085246812454674 -0.700698722061778 -0.12568567723775664 -0.7204465657988013 0.0008322635031010837 -0.001813817904126793 0.4716952041718845 -0.17156284869179633
85915000.0 0.7018040449942424 -0.704870256895352 -0.14520967043304567 -0.7504632202185035 -0.005278518110363803 -0.001785882789844101 0.47000229345737904 -0.18552733182149683
86914000.0 0.692974793805743 -0.7178653553403229 -0.16046382972656115 -0.7927123840835876 -0.0019389640517580278 0.0018967415608063458 0.46352190971095275 -0.17457439749262033
87913000.0 0.688482154183128 -0.7218517279769853 -0.18024610183522044 -0.8202845453909317 -0.0011865784372274725 0.0034679028530926023 0.4592889235536927 -0.1776969910968956
88912000.0 0.6779400771727315 -0.7303157841625983 -0.19453808021840943 -0.8544805348941167 0.0027747076026967375 -0.0022502275226600806 0.46298637983540664 -0.20710392585343362
89911000.0 0.6724664316108062 -0.7371174900907107 -0.21488884174380596 -0.8951699451137787 -0.0033883455277376063 0.00021542672680418024 0.4744723600334976 -0.21177970508347355
90910000.0 0.6641837369046615 -0.7426625718052304 -0.2313442213933319 -0.9310164933560057 6.509701418515953e-05 0.0011970286895810714 0.4588522882400756 -0.21916920908249538
91909000.0 0.6564745125710086 -0.7475229914073925 -0.2527187951593957 -0.963080865331247 0.002689440076235202 0.001804550763940985 0.4653762201555117 -0.21595938566954812
92908000.0 0.6474506068739808 -0.7570781893249297 -0.2713306991064849 -1.003253315511285 0.004095907042859648 0.0012197789149324284 0.46063452884766803 -0.23232537390110208
93907000.0 0.6419962666590694 -0.7614168327255558 -0.29207573514329516 -1.034392842746654 -0.0014030572866277258 -0.0030757031976672987 0.45975219037987225 -0.25209500725303874
94906000.0 0.6293447074473715 -0.769902305729748 -0.310262123408451 -1.0706542538812793 0.0005526057952531912 0.00011239799758015363 0.45549957636342364 -0.24923706840223755
95905000.0 0.6241655577453349 -0.7748702454311012 -0.3346329223913398 -1.1059431081664333 0.0019061172398285647 0.0020830988182341074 0.4637663526721928 -0.2656831920523602
96904000.0 0.6142405236969749 -0.7841350398779958 -0.35626383692181973 -1.1490322308698495 -0.0031308219639440363 0.0008745724737182204 0.45426752766750794 -0.27256252285273896
97903000.0 0.6046149700385954 -0.7908719276104244 -0.3864360538580812 -1.182397128243973 -0.0001659605356851342 0.00049072164368418 0.4526844719477816 -0.28179286756473826
98902000.0 0.5994590715543986 -0.7955716796940037 -0.40936363577267687 -1.2188317986789543 -0.004210355118855344 -0.0014958074738510312 0.4488624268060883 -0.28945651153109175
99901000.0 0.5882146979024239 -0.8017136143016161 -0.44013086625383513 -1.2591696105845505 -0.0002898345331920716 0.00017582876617417854 0.45665864991860927 -0.3230047671838808
100900000.0 0.5800286318987556 -0.8069696115633214 -0.4781406237672925 -1.2887121920089157 0.0006487987999805313 -0.001681491121397857 0.4588662495694957 -0.30667704291489656
101899000.0 0.5711400087469619 -0.8141069811238081 -0.5027949535410451 -1.3323922289617494 -0.0002999792315021501 0.0020154938882414454 0.45082158163185004 -0.3231577313711636
102898000.0 0.5611811162964793 -0.8180015293948034 -0.5450192106788432 -1.3707797031106095 -0.0008305827929201823 0.0021141295324745147 0.44811603585053617 -0.3348230222305524
103897000.0 0.553853190745786 -0.8279607677303993 -0.5898885182899056 -1.4101760771615506 0.0009373735694709681 0.001162255797687091 0.45894596967217366 -0.33453605387561486
104896000.0 0.5450297110859113 -0.8367310089076466 -0.6411971331475986 -1.4426583692778068 0.0009586057379684329 0.0001718996642399457 0.4409658153173053 -0.3329388985557925
105895000.0 0.5337586329341326 -0.8383196642333316 -0.6907206290272698 -1.4890943740962737 -0.0010528559992012039 0.0016279081022373574 0.4326568046045685 -0.3520220743452947
106894000.0 0.5238239479362128 -0.8459542755270641 -0.7520730376356551 -1.526886711559662 -0.0032603276492957664 -0.00031927635695162663 0.43859358357897005 -0.36698622939336156
107893000.0 0.5164583351672793 -0.852120231404725 -0.8047198281001186 -1.570603364045651 0.00019804193988006972 -0.0007343640610191506 0.43693397233978853 -0.37561905716479954
108892000.0 0.5063682116510865 -0.8541839335185838 -0.8682424785839068 -1.6108087088113456 0.0029382110335145245 0.0017147477457438193 0.4259210109837033 -0.37037878479688896
109891000.0 0.4939843477726504 -0.8624122399384353 -0.9271315692110322 -1.6474924145416538 -0.0005464325322761898 -0.0009357290906748762 0.4358480059491799 -0.37150358948215245
110890000.0 0.4772007365684619 -0.8627138126815389 -0.9961495464860968 -1.6483765326634396 -0.0024772091879532924 0.0038092737965549 0.4201868773578079 -0.3944776465660564
111889000.0 0.47473659057837864 -0.8683390604729335 -1.0648789898484696 -1.7218774664532037 0.0003446364419952561 -0.0015961025936868376 0.4243449420756923 -0.3975181004328952
