! Created with skrf 1.9.0 (http://scikit-rf.org).
# Hz S RI R 50.0 
!freq ReS11 ImS11 ReS21 ImS21 ReS12 ImS12 ReS22 ImS22
1000000.0 0.9891250795258839 0.002674479688413895 -0.028672179977557156 -0.048030392370608126 -0.018810730806965287 0.009198958260063318 0.35805524930892596 0.3178981880576279
1999000.0 0.998957461509881 -0.0076354426214041175 0.0032398937026026056 -0.020994191353284748 0.0007454939060045429 -0.0024330121021053494 0.23322927806928592 -0.059866855659619446
2998000.0 1.0004395780809823 -0.018121096048145654 0.013458012190146954 -0.017665177359422576 0.002622336944165511 -0.003332319201841968 0.19132743067985572 -0.14515213134654623
3997000.0 1.0007279027037805 -0.029963861193994645 0.014009299412490038 -0.006888910891665407 -0.0026578814645938998 -0.00578736295668141 0.08490231632332067 -0.2244836110274975
4996000.0 0.9994693308446408 -0.030352712283512346 0.01203203790814847 0.0035680261121911866 0.0063287412227681855 -0.00984392738186516 -0.05953631810077571 -0.2017776800921332
5995000.0 1.0012537405293478 -0.05100684860868713 0.009422484832903083 0.0011391958770164848 0.0034313319810846347 0.0027278273967364206 -0.12724360598900336 -0.10710610131974398
6994000.0 0.9954598878607227 -0.05873801813074038 0.006081604313147111 0.0002589208085717629 0.002681302654179302 -0.0029775849018946598 -0.1440914612565788 -0.010019842540651665
7993000.0 0.9982022295639679 -0.06737413995542928 0.004359390189328795 0.0016982763301900707 0.004423514928110563 0.0038165344121706803 -0.1653456046419566 0.03918531370138287
8992000.0 0.9998032725923346 -0.0703053257887902 0.0003509691023522798 0.006552286698356158 0.004291261641029303 -8.202591301837617e-05 -0.15504354695182984 0.07306309271996177
9991000.0 0.9970540721662112 -0.08206344955085462 0.00433154422950121 0.003929866217770622 0.0005526041022507129 -0.0032687091512774093 -0.14936032247482464 0.07858383226991664
10990000.0 0.997207373572704 -0.09090387230602281 0.002478895391515525 0.005312141296654588 0.005960369708683722 0.00044799504794308025 -0.12761435744594432 0.11092987063752828
11989000.0 0.9966803687258974 -0.09905426430704065 0.00026413522714504824 0.0022432426498925685 -0.005525292553698925 0.003852543488377413 -0.13103067782919298 0.13630070449422568
12988000.0 0.9939806076724883 -0.10853991219376813 0.0028069328292381446 -0.0034740054684247613 -0.0022898845871047444 0.0025930317701756246 -0.10688976849214213 0.16505155501447497
13987000.0 0.9930432883412675 -0.11647329977880072 0.001983262335733372 -0.0021257545256358765 -0.003307685397724616 -0.0023358276336620716 -0.09848165300377282 0.1845163292276445
14986000.0 0.990571023098824 -0.12268200520837995 -0.0030765304505929627 -0.002593407625706815 0.0025973683286845736 -0.0015530900012704692 -0.08864996973697134 0.21396189957297088
15985000.0 0.9915735605520877 -0.13279816944165812 7.169391137335954e-05 -0.0017448349035837855 -0.00144146147918189 -0.002086025017355918 -0.06294701460808778 0.23162121500615868
16984000.0 0.9888394374100838 -0.14414119323603822 0.002475991153499608 -0.0028806137228534617 0.002788080472637807 0.0019328063354086314 -0.0583607953199424 0.22376746177868173
17983000.0 0.9896105917245426 -0.14999789089050813 0.0011438415854491942 -0.005188370184055594 0.0014303636158653143 -0.001772294438322454 -0.04502161091606287 0.21738957378018997
18982000.0 0.9860994548079189 -0.1620076430065114 -0.003864646611816108 -0.004539071758165789 -0.0005952297517215052 0.0016118678954745503 -0.01661339149575684 0.2317087835069243
19981000.0 0.9880389700583889 -0.1659028221428373 -0.004303588990059269 -0.004174008116084664 0.001241972528749077 0.0025608067962133775 -0.007636532803211049 0.24188384672910254
20980000.0 0.9846014951895428 -0.17530398343311202 -0.005126828671261972 -0.00768393426654121 0.0027188193104457363 7.962039096626543e-05 -0.006294538884601865 0.26617085833263154
21979000.0 0.9838288045800647 -0.18314122579190323 -0.009800282581763917 -0.0018622441684362342 -0.0022522498006553133 0.0021364302015156266 0.016581911415391726 0.25297213333166185
22978000.0 0.9807669739361502 -0.1920132145351636 -0.0061168025691175605 -0.001741875424631972 0.0002589450010856182 0.0006544976343645323 0.024637870983900956 0.2497251869895999
23977000.0 0.9825509811995324 -0.20079280896445456 -0.003740305885535859 -0.0028533267329953317 -0.004845341420371748 0.0002826126305207994 0.049176003750541035 0.2572675043633898
24976000.0 0.977261065726295 -0.21083871616120742 -0.008630229289102067 -0.0020060996186443063 0.002195019319518375 0.004473153858536624 0.0704778872995571 0.2539796338768149
25975000.0 0.9786772334551698 -0.2232702716631463 -0.006804814650260278 -0.0007402388917451537 0.01963925971567574 0.019630080425720012 0.08047289463260673 0.2607524893584132
26974000.0 0.9722414138115888 -0.2265751819057924 -0.004616729908755729 -0.002778850495510746 0.0007385893330084728 -0.0026533032844262452 0.094669365705258 0.2634679683793916
27973000.0 0.9736042940778632 -0.23325237256916728 -0.0003541507656782705 -0.0013459789268389366 -0.003589722234808315 -0.003533903701888719 0.10775592224013988 0.25945270298683903
28972000.0 0.9689745011108801 -0.24564042827254864 -0.002099693132072816 -0.0028776460752542605 0.001977911710792248 -0.0014670818012336199 0.12131166177822074 0.2544840405027525
29971000.0 0.9683054219073728 -0.25011432039326503 0.004899997987757874 -0.004480178140171301 0.00016345020238289534 -6.328427969749315e-05 0.15556695875881338 0.26903168730566596
30970000.0 0.965720914154205 -0.25636692757484664 0.0018478335775981795 -0.0012148634918791134 -0.0007494060646065945 0.0004422625188062591 0.17776194630769684 0.2616646792937471
31969000.0 0.9641299354122576 -0.2662136828976979 0.003998195655819727 -0.0067388942980717735 0.0009359353646627598 -0.003012954516204084 0.1515645196128341 0.2584115024211013
32968000.0 0.9629951397687606 -0.27319986773376204 0.009022167212733403 -0.007003878722135211 0.0024484227395997053 -0.0010757122092879083 0.16116832826665226 0.24163594185826873
33967000.0 0.960108688528465 -0.2832445309836552 0.01151597842092716 -0.012416742763653439 -0.0010119981412709436 0.001037872426787202 0.1842193070132294 0.24912286842754025
34966000.0 0.9565244593276195 -0.2918759968171502 0.011454613685383573 -0.014490283223547541 0.0032758729896520595 -0.0028297830059331544 0.20239569000655666 0.24299476399044034
35965000.0 0.9531221094524159 -0.3006247148089743 0.013663976321895933 -0.01609055991333637 0.001339064480142203 -0.002903971728051341 0.21232532262188392 0.25288240789646266
36964000.0 0.9518813532549091 -0.3105834210411157 0.015224753827438252 -0.014395064492523271 0.0035512185385802373 0.0018632421205372228 0.2222428371718837 0.2524439102014378
37963000.0 0.9465041283085915 -0.31807356728875386 0.022169228314857355 -0.023170207620427725 0.00014366807940422878 0.0003061654345779422 0.23192215184726292 0.24580740562589873
38962000.0 0.9472305211811906 -0.3272837984178414 0.023710356795176447 -0.02585067288902612 -0.00015201390092951423 -0.00025522791196534874 0.2503804355475753 0.23250303564471264
39961000.0 0.9417885772334196 -0.3361664659817384 0.029164527843952983 -0.02787967785393675 -0.0013725128267960364 -0.002110393180779438 0.25568874337830577 0.22891244320399645
40960000.0 0.9392083715703545 -0.3430300473095073 0.02345607471831472 -0.02128751711916721 0.0017213914216363604 3.450751870245366e-05 0.27293451041930855 0.23045376106102575
41959000.0 0.9365708397434801 -0.3509984576863445 0.029042700790129827 -0.03044947254362532 0.0037980089515778155 0.0013526836501321301 0.2779365436811161 0.2194545177744014
42958000.0 0.9318730559584791 -0.360088301808883 0.03213957000188662 -0.039751504326174 0.0018855801593859417 0.0027470268248654013 0.2884488235826162 0.2068467276192804
43957000.0 0.9300222374672993 -0.36672561876465404 0.03345583736909962 -0.047254316790239996 0.00105537001047111 0.0018744212902648673 0.2972174721589743 0.2061571968484955
44956000.0 0.9270520440835351 -0.3746576379183257 0.035879788983188686 -0.050634480481800664 -8.775927453938681e-05 0.0009179719528505 0.3094579177982432 0.2038391432502004
45955000.0 0.9223088047843233 -0.38436032559346317 0.0340920978155332 -0.0570098369762282 0.00014993889322411318 0.0007755146231585372 0.3147890819698596 0.20033894036500496
46954000.0 0.9183045087269902 -0.39320077810284304 0.037032303185467415 -0.06537493507537595 -0.002141174674552416 0.00038970709918649803 0.3279021021408942 0.17974163045767264
47953000.0 0.9172655458385386 -0.39911533349086925 0.03646785132044519 -0.07149286045920883 0.0029065348489856085 0.0011837499079755851 0.35178213778136624 0.17033238714634366
48952000.0 0.9120774789715405 -0.4094132889940423 0.038803363034923745 -0.07747871844745441 0.0043248219975383475 0.0007315452867788985 0.34873405457908685 0.17145996557456347
49951000.0 0.9073683257928535 -0.4168141166969685 0.03987534443749309 -0.08653300886257966 0.003687628675292892 0.000420325901511662 0.3622287497256222 0.16223496957873346
50950000.0 0.9058716089964124 -0.42576981101911254 0.04144569105447751 -0.09241748660457502 0.00134282332518326 -0.0008516675713004299 0.36437801340805637 0.14844581733008946
51949000.0 0.9004404886481232 -0.432482025692547 0.039292548147387626 -0.09946119235201852 -0.0026335427556574537 0.001494671717075073 0.3747460174267905 0.1508872620460709
52948000.0 0.8996563870873829 -0.43878724118401286 0.03895711181993695 -0.11121946466288592 0.0002402980581703137 -0.00015807522660295803 0.3911892053096243 0.14255867060696312
53947000.0 0.8913211561490014 -0.44821505589750926 0.044447920099626705 -0.11939274979925374 -0.0021206474423589956 0.002266916734689709 0.37952359166310057 0.13100199358841882
54946000.0 0.8879521292033327 -0.4573382853121614 0.042607910997246895 -0.12934052926960168 0.0010707918716004426 0.0030480391219133694 0.3939729697173302 0.12509125173291533
55945000.0 0.8861265065210542 -0.4659742040175531 0.04594131938357505 -0.1426520287374363 -0.0018912074542642942 -0.0030731085821908677 0.40420979825465086 0.11464282355291337
56944000.0 0.88200294661573 -0.4731180427484982 0.04937763350723539 -0.1491343688518349 -0.002340683177143462 0.00016294078310413428 0.4028801439443404 0.10848517713069172
57943000.0 0.877904943650048 -0.48281571340917 0.04608053081431854 -0.16145996680948696 -0.004522786893722415 0.00011791771306192006 0.41207964918236967 0.09953521121806673
58942000.0 0.8699469565804943 -0.48803576459552184 0.05085667324329147 -0.1741382412107837 -0.001485989992855315 -0.001017937635127939 0.42885188290476184 0.09795477131411445
59941000.0 0.8699091117308535 -0.4936081274985626 0.05529303436765276 -0.18163422081595076 0.0009326310502161343 0.002625124973972239 0.4286917039340382 0.08759192332795818
60940000.0 0.8614453316901497 -0.5046373062688171 0.0511248725016191 -0.1871940970844252 0.0009567084609215795 0.0016675961962360861 0.410766559083268 0.08578163330067881
61939000.0 0.8578973541634111 -0.5101020668154747 0.05315329835584611 -0.19078076694167684 -0.001768442022680614 0.001706454117290383 0.4344093219530021 0.06952440726027807
62938000.0 0.8529451736590008 -0.520699441959387 0.055656514680200955 -0.20861329613016658 -0.0011125203945332486 -0.0011311861012881944 0.4515148242621825 0.060101630662823466
63937000.0 0.8486705630880266 -0.528275219465055 0.05682345659047299 -0.2327841983149858 -0.0010846949992355174 -0.004788184316620807 0.4449167705064534 0.040474807461776424
64936000.0 0.8415513606742591 -0.5337124910738957 0.057450863188885266 -0.24183241662533994 -0.0013434553602639948 -0.0053056811856233834 0.44791669875753687 0.045609512717852664
65935000.0 0.8388976082682935 -0.5459717210091899 0.05543945139065666 -0.2572233232643242 0.0003277052172030186 -0.0007620737650037053 0.4432012936832959 0.019952021502921302
66934000.0 0.8345898832456284 -0.5519451577838583 0.05493501952930275 -0.2687294245484761 -0.0027110918297168483 0.0017351782327307338 0.4564849100058391 0.01092042617167608
67933000.0 0.830714536160182 -0.5565766596095937 0.055598812255333654 -0.28247668955438815 -0.00047358784212978965 0.0038637544815073137 0.4610408426292656 0.01518195172258114
68932000.0 0.8137955697686825 -0.5552623986592873 0.05440361439085506 -0.29338213907777544 0.0008098949475264388 -0.0028639248144104873 0.4620834328918377 -0.008266977790255077
69931000.0 0.8182965557548687 -0.5736580769733125 0.05559323111724942 -0.3158428175953255 -0.002692956229882528 -0.0031344006720802117 0.45838307804276834 -0.013096311427166697
70930000.0 0.8129865130944921 -0.5801154588238959 0.05203784457613833 -0.3255126982482706 -0.0014570196283258134 -0.0007177662172060682 0.45743040944391017 -0.0375103471188508
71929000.0 0.8103016908585217 -0.5895477121063406 0.047551022462859874 -0.3451791790209059 0.0007970313724442393 -0.0016052376450123055 0.46168501539906454 -0.03765911324242122
72928000.0 0.8030338601717649 -0.6005337084982276 0.044328329117672545 -0.3613334644457877 -0.002302585949366811 -0.002749276479417547 0.46779333360699943 -0.04685685043716147
73927000.0 0.7973855000164048 -0.6058795069282242 0.03843070860468023 -0.38072122786903034 0.003830972883952397 0.0005781514288752145 0.4738518735861436 -0.04843048093815909
74926000.0 0.792445894825075 -0.6133761025666765 0.03269869170869904 -0.397026643321301 0.0020787781606494654 0.00021908747273129549 0.4679020396163705 -0.05950288499594351
75925000.0 0.7828659538156945 -0.6195527491773746 0.02015970455893828 -0.41840863810839135 0.0006362124043580682 0.002481483932818612 0.47941663852652666 -0.07086310880088209
76924000.0 0.7812219707869639 -0.627040643691246 0.01172834588750395 -0.4419936672214129 0.00020791568681361776 0.0031073500266751122 0.48362106732635723 -0.07393851802758174
77923000.0 0.7721450260584566 -0.6346242442470863 -0.0035797756039443974 -0.46475955200906355 0.0039981232989054535 0.005167068468178971 0.47571686360960547 -0.08494453059167516
78922000.0 0.7679348066355617 -0.6451430927845407 -0.014037051104347187 -0.4908369297356648 0.0010973473246392183 -0.00043700312427733315 0.47137899760365315 -0.09793046057369051
79921000.0 0.7580112670397062 -0.6475388996831459 -0.033723166980524084 -0.5169139176070747 0.00543809700672594 -0.0015626312356849799 0.47189811062044995 -0.10996419859595022
80920000.0 0.7538841258347038 -0.6593532322271913 -0.049935728407316304 -0.5422846879777454 0.002477477582483612 0.0036055772026668846 0.4853399543864205 -0.1188213205034653
81919000.0 0.7471556396811956 -0.6641147986226351 -0.06320092934964415 -0.5688300645309997 0.0006508732975292315 0.003952612634381521 0.48209984820302343 -0.11594662413206232
82918000.0 0.740450151132807 -0.6725173485765279 -0.07849069982429314 -0.5989145207841372 0.0008464189818696191 0.0007210859881073806 0.48353927603483204 -0.14168467576880187
83917000.0 0.7326177515874722 -0.6801504027021648 -0.09985494064671054 -0.6300517802121043 -0.0009143199839172251 -0.0007867601378333839 0.48130725845947553 -0.13731549361679343
84916000.0 0.7272038030137545 -0.6862432780773393 -0.1146460402196131 -0.6640378642780567 0.003513408961532296 0.0016950486483356612 0.48208857841666614 -0.15911567785167488
85915000.0 0.7203375266655235 -0.6920681877657693 -0.13335065532284227 -0.689140195748999 -0.005694868267659841 0.0009433561162154042 0.4794102576462769 -0.16726136836559238
86914000.0 0.7119654008912124 -0.7034557519445094 -0.1471371493885642 -0.7313091617003081 -0.001036431310841929 0.002692465411478387 0.47298719256425753 -0.17116652130653942
87913000.0 0.7067768842524002 -0.7086848728062913 -0.1678489739236253 -0.7607028227118566 0.00016912023246586105 -0.0011286809038328518 0.47757654622066165 -0.18176769210710755
88912000.0 0.6987796019050829 -0.7155463909778134 -0.18617706187481567 -0.7969425705335742 -0.0006640701090998426 0.001097334891764644 0.4725522000213015 -0.19500903643684783
89911000.0 0.6931537497769591 -0.7257170672460038 -0.1967846501489557 -0.828188524271348 0.0020173084780047666 -0.003803158366288485 0.4810036259386437 -0.20207137507048667
90910000.0 0.6860437786209594 -0.7300666142589153 -0.21669156812946286 -0.8633683814841694 -0.001448381812857115 0.0008219644002392907 0.47530733335780273 -0.20516916523029147
91909000.0 0.6766813063034072 -0.7338348892738165 -0.23386197290399693 -0.8979809671242761 0.0006555193854098379 -0.001592129966746719 0.4759484247922867 -0.22017809106889139
92908000.0 0.6694566929873876 -0.7444103306291434 -0.25706588355329124 -0.9320338797377302 0.001519320644814987 -0.0004447321549370723 0.46732181525858735 -0.23016450829008972
93907000.0 0.6623793050176229 -0.7488997774264398 -0.27305071845174367 -0.9631790124483541 0.0018577251465163188 -0.003194141622564804 0.476947678030437 -0.24709658554171612
94906000.0 0.6518312763788888 -0.7567378612639046 -0.2881066069569101 -0.9947420318493516 -0.0034641371036702438 0.0024159300983834647 0.46257531438231697 -0.25570195922030126
95905000.0 0.6441331106707456 -0.7631440044104579 -0.3112686835020834 -1.0258397005418927 -0.003975126111702233 -0.0033511691691203963 0.4717090649566601 -0.2664358144520241
96904000.0 0.6375858547910115 -0.7696199704187874 -0.3273771090512524 -1.0713533865411748 0.0002226784886323867 -0.0020378433727001287 0.4607026987015054 -0.271314569271814
97903000.0 0.6268446576444549 -0.7773575541940827 -0.35091934130586055 -1.102298169960588 -0.0018163591908124934 0.0005262787282913732 0.46531932964800576 -0.27388032027498904
98902000.0 0.6230137895724447 -0.7826223714203304 -0.36838998809203605 -1.1376488749585918 -0.0018187927832352744 8.263491363391498e-05 0.45194226451807445 -0.2889357077729834
99901000.0 0.6121511297352259 -0.790884016783679 -0.3952308061403187 -1.1679919704290238 0.0012129172634413956 0.003090924585596652 0.4643465149853598 -0.3107791746674011
100900000.0 0.6052141157329928 -0.793375333946381 -0.42717052727215715 -1.1982260889560983 0.00010734120800076216 -0.0005428978580202239 0.46200785768080316 -0.2997497288425708
101899000.0 0.5944074259000819 -0.8021869391007551 -0.4555488219652685 -1.23802936024557 0.002947168792106253 9.762268471502141e-05 0.4536783896212008 -0.30538616979934424
102898000.0 0.5857942467174043 -0.80814868552129 -0.4908019043877085 -1.2759528542753447 -0.0015890394150400741 -0.0019551576493851077 0.46112125818324906 -0.3237409449166067
103897000.0 0.5767912340287368 -0.816411054501718 -0.5252336080233952 -1.3120330495882055 0.0019934836641567135 -0.0011434973805131011 0.4677628766434212 -0.3306066702597991
104896000.0 0.5716482872362492 -0.8246467606653546 -0.5702188219132426 -1.3487678310016418 0.001706937341928761 0.0016317765473033295 0.4594456367193103 -0.3335227377040245
105895000.0 0.559675742299502 -0.8275430080826625 -0.6144280368300598 -1.3922217572348736 0.0050504988647486265 0.0033162290704462556 0.4525690076462998 -0.3583039539525672
106894000.0 0.5522506191588211 -0.8343309930978824 -0.6672844633572138 -1.4274991598869944 -0.0007474397560858145 -0.001675170963362062 0.441408717720032 -0.37085072304871824
107893000.0 0.5444529496013417 -0.8390537503130528 -0.7190553517082141 -1.4575113421444708 0.0006502182729840708 0.001231858140322015 0.455932001484661 -0.3818725093368087
108892000.0 0.5326112348486732 -0.8435740910613432 -0.776847290232051 -1.4981296222033391 0.0009245406519719258 0.0013908167959337152 0.4350152032570187 -0.3832852290452304
109891000.0 0.5209473349451489 -0.851012031591532 -0.829884370833957 -1.5315228151841316 0.0009777961619937003 0.0008104150494230655 0.45098885016369694 -0.3790860889310323
110890000.0 0.5163787947862223 -0.8605753620341037 -0.8881769452924766 -1.5548960287591338 -0.0005575332823156637 -0.003310388018240509 0.4460211314269443 -0.37911162130648085
111889000.0 0.5015822460692417 -0.8572199805867422 -0.9487313434410077 -1.5990651930651922 -0.0018484885378562698 0.0033010061164157195 0.43370017704339586 -0.4000554527618979
