! Created with skrf 1.9.0 (http://scikit-rf.org).
# Hz S RI R 50.0 
!freq ReS11 ImS11 ReS21 ImS21 ReS12 ImS12 ReS22 ImS22
1000000.0 0.9910271084141015 0.01133581682962624 0.004419074868662519 -0.04277086928655127 -0.0026304015431309734 0.0021138402316150085 0.31074067846625936 0.3082817558603311
1999000.0 0.9936040442902513 -0.01614423310709291 0.0070080974107873395 -0.02105401811272413 -0.011263331897571803 0.0008313426780615561 0.24057141244647898 -0.05621047088182138
2998000.0 1.0014610105740336 -0.021978390489877347 0.010354565360944671 -0.010957128116250388 -0.0017909034470269707 0.0012508610647977314 0.1820223577445778 -0.1344016726797138
3997000.0 0.9970105256124023 -0.03556925640383057 0.013977573120191013 -0.010758657498020545 0.0025934843553825854 -0.01015553968277835 0.07756397497356508 -0.23932452065952242
4996000.0 0.9936272492630237 -0.041908819682818746 0.014964122483211955 -0.0031609197316493933 0.0023127518811155005 -0.003770504704651184 -0.0484868959135958 -0.20086763819168116
5995000.0 0.9945496360110825 -0.0527681018724677 0.011778629727695644 0.002484092014770066 -0.0008211189189808264 -0.0025997563358847228 -0.12176931176947388 -0.10051080970442267
6994000.0 0.9929692490552201 -0.059848991400626265 0.005197632676490361 0.006447910473671268 0.00249358597237128 -0.0018430546715963636 -0.1408016066541932 -0.013029025213263544
7993000.0 0.9961526546752278 -0.06852174969851722 0.009517380736846605 0.01015180771177238 0.0012464669070238472 0.0013689023072865367 -0.1504722314067638 0.0380039578354588
8992000.0 0.9970366693193593 -0.07333986089105009 0.0006213331721656487 0.008443332957416021 0.001992693660012553 -0.003475822517900731 -0.1504913651466641 0.06590213546906816
9991000.0 0.9923762510760272 -0.08285500586747879 0.004992379827057211 0.005223129238549645 -0.00539292108070328 0.0015334816992081017 -0.1362347404392621 0.10122829562156464
10990000.0 0.994377324961117 -0.09278315289519436 -0.0025799064982793382 0.0017465417580567726 0.0012395975330666592 0.0016295536888716042 -0.12455616259917104 0.10846758612861662
11989000.0 0.9903409736389761 -0.09947106574680291 0.002659548458876908 0.0007091243890527697 0.0004711755148701521 0.0032981570209151424 -0.12588795753613624 0.13349601607306474
12988000.0 0.9901633468311517 -0.11186262076820984 -0.00046092990056581344 -0.0017830899432404945 0.00012720664403387963 0.006690000667335515 -0.11783803432432108 0.16183435340983734
13987000.0 0.9861399985050597 -0.12100719534986683 0.003609841855724107 -0.002607537265996852 -0.0035103721375634887 0.0015571952337192483 -0.10377259011464432 0.19977936681724173
14986000.0 0.9874896742465149 -0.1249809931210018 0.0020441180470634973 -0.004088005935253679 -0.0013967570623290367 -0.00035084114492881153 -0.08945114322710193 0.2057069618670562
15985000.0 0.9897648960446551 -0.13495533677003374 -0.0007276110653860594 -0.004798427044118495 -0.00016391149617761558 -0.001192488868349225 -0.06790633353106153 0.21235819423118155
16984000.0 0.9863992215380509 -0.14504532795346153 -0.0071115043957152785 -0.00581237486194088 0.003532174437492368 -0.0030654895869380258 -0.06532439850905497 0.21911338880187164
17983000.0 0.9847846828001058 -0.15305600815157508 -0.006117925213779982 -0.008447144859364916 -0.0061591557107329034 -0.0004818808502848661 -0.051210128005876224 0.22052446163297118
18982000.0 0.9828145810561261 -0.16413063522837917 -0.001400441018481565 -0.008865521680158157 0.0058035412300422185 0.00399250159288635 -0.01602239362171178 0.24110968281145603
19981000.0 0.9826747148876244 -0.16611224414090037 -0.004615008735998016 -0.003827442299285776 0.0027526096615664688 0.0004223801654279351 -0.004502611908522179 0.238315613872275
20980000.0 0.9797158124520227 -0.17970252395688038 -0.011540407476455688 -0.0023910773910239 0.0029734441788318257 -0.001307401084736865 0.0007269868065519421 0.25267364724199476
21979000.0 0.9782339095394444 -0.18641992783008496 -0.011181095197439546 -0.002796096987265344 0.0034442498543136146 0.0007612057516766721 0.020054829994312913 0.24811787401988838
22978000.0 0.9741867131050747 -0.19567224893308394 -0.002216300945793265 -0.0037475974554073816 0.0015463924782208606 -0.0009013910759503583 0.028343151079800923 0.266986602792645
23977000.0 0.9785019008526951 -0.20257832740118736 -0.00683490537120955 -0.007531965818477327 -0.0018988001154484064 -0.0006611621659450265 0.035571960732742255 0.2555064406818706
24976000.0 0.9735958440172868 -0.21362818432329303 -0.008573268479645613 -0.0019562969917972556 0.002503487666528084 0.004159368147981345 0.05374432002476941 0.25447378727241277
25975000.0 0.9675435599080643 -0.2262810219714199 -0.009638439835021417 -0.002445326771041512 0.015618983719914359 -0.020298312373373564 0.06823246148999264 0.2532393683438195
26974000.0 0.9693342149358412 -0.2279027573653214 -0.0020589344398833334 3.961116563931564e-05 -0.0024820169878383945 -0.00011583351644438568 0.08206235040391445 0.26503281149311525
27973000.0 0.9679294612384385 -0.23853111748295283 -0.00254762500081718 -0.0012828040394819717 -0.0015887077446449264 0.0015467979040279412 0.10536950004064372 0.2612507139534451
28972000.0 0.9651622000881587 -0.24561140938886575 -0.0040125584856260076 -0.0023901994352837417 0.0032653976951098284 -0.0004668913519946812 0.1164436181184801 0.25127255644116325
29971000.0 0.9634844307832482 -0.255868906243569 -0.00028885245461168275 -0.0023514122111677497 0.0010020408255897503 -0.0005172237908259941 0.14878959110050924 0.26723555672317123
30970000.0 0.961316932077642 -0.2620502593870691 0.005259520670488506 0.0007488779464406338 0.0011071473555260706 -0.004967418076666451 0.17067847340118372 0.2523790499277652
31969000.0 0.9587275257289257 -0.2690737174729111 0.0009242903367717388 -0.004992664706241987 -0.0017976933477978582 -0.001070841677692519 0.14390084902997344 0.24291424724468672
32968000.0 0.9579190335181156 -0.2782630728801782 0.005475646770302214 -0.007174376056931983 -0.003443638710676919 -0.0007647100955371301 0.16104412120563566 0.2439319268056245
33967000.0 0.9555344939267599 -0.28750143505229797 0.012360454099857685 -0.008141984664331622 -0.0007549056134688248 0.001684186875868963 0.18614810790657046 0.23926541521039726
34966000.0 0.9498878907472931 -0.29807947427097153 0.014309285695383337 -0.013972281713016586 0.0007681889321141007 4.843925942257454e-05 0.191678478590013 0.2436896817294855
35965000.0 0.9483488399470552 -0.3066051784952022 0.016485713289792113 -0.014425483304443276 0.0007859177912530347 -0.0016173927358724444 0.20203815107601256 0.24782566109018317
36964000.0 0.9471576573490188 -0.3143570512365179 0.017869476540394388 -0.014289677568521088 -0.0034922888050357057 -0.0017478451346507459 0.21496058392750317 0.2532695091923756
37963000.0 0.9411173864066879 -0.3258468150220973 0.021938256670800325 -0.02206823943897848 -0.003148093179690331 0.0027317819178124783 0.22779736369816184 0.23334646355187685
38962000.0 0.9411479454755396 -0.33120396366464366 0.025065870113932673 -0.026789029801048355 -0.002337792588788386 -0.000560081136021467 0.23299716388670305 0.22936296642386025
39961000.0 0.9374097932408204 -0.34259864658839867 0.028557855808712278 -0.02502284284526437 0.00054742180554573 -0.0003730229457420187 0.25529775740940824 0.2239629758391483
40960000.0 0.9334293987713832 -0.3497362012135632 0.024879490824930874 -0.024826139320123463 -0.0015048147561143074 0.002690974223804575 0.26190195044751424 0.2277022995092228
41959000.0 0.9296566352603405 -0.3599789624706176 0.028566178891948554 -0.03199542152438679 -0.0004998801872785608 0.00014719945999680512 0.2676623548195744 0.21819202351241038
42958000.0 0.926938259844106 -0.36748746352111183 0.03403178211782259 -0.04110230947495591 -0.001826360051408464 -0.0015635374250779137 0.28052594698993366 0.19849465116572013
43957000.0 0.9253170720127245 -0.3714795452724126 0.03267723895511208 -0.04698695633609933 -0.0005299157803461701 0.00110877945609806 0.2787832812052882 0.20474638704849757
44956000.0 0.9199935004842459 -0.38153741556594917 0.03544662745652881 -0.052089063940985336 -0.003987697561895747 -0.00037328316266838584 0.3059233010771518 0.1921891758321948
45955000.0 0.9163876417450966 -0.39296922585599575 0.0347095181761842 -0.059937897694423176 -0.0010300494988135052 0.0011567574494227592 0.3014503132498209 0.18163816895020946
46954000.0 0.9145747633449429 -0.40082359719026245 0.03926978450260582 -0.06543484286592963 0.0024341219134393455 0.0002640028625136089 0.31908103018564493 0.18202981026652623
47953000.0 0.9091019893856159 -0.4107664564398065 0.03689079613780401 -0.07143913447851244 0.0008418883952995243 -0.001975994851100577 0.33369194829587046 0.16983660565233316
48952000.0 0.905158282433786 -0.4174811412525341 0.03776553654253995 -0.08071550827383842 -0.00023980689104334402 -0.004256362477143732 0.3301106421778591 0.15539387901369045
49951000.0 0.9016153518194854 -0.4264455491952349 0.03889903890437389 -0.08842583309919114 -0.002495149219322925 0.00122870972398374 0.3509763002128115 0.15714454709892545
50950000.0 0.8970328471951492 -0.434554420247872 0.04093931381179717 -0.09882661316077361 -3.377401909827527e-05 -0.0014115389688343532 0.3536659802632576 0.14286391624699743
51949000.0 0.8933306484575827 -0.44224461791112246 0.039675588721488075 -0.10645411968474179 -0.0018948741780551784 0.0016933942671863845 0.35237502791895997 0.13899311634434344
52948000.0 0.8893512832416332 -0.4514914749466046 0.04280762357115222 -0.11383897098722623 0.0010645088934575586 0.0013306763933615732 0.3727170202657518 0.13894536964296128
53947000.0 0.8854496522696537 -0.45683838043727165 0.04342293930284436 -0.12390928965058065 -0.00035298594879333063 0.00024144316002420145 0.3629053926818505 0.12483604953070189
54946000.0 0.8792317895599857 -0.46929221066638754 0.045713984527753465 -0.13221997768433605 0.0019574840840825736 -0.0024363343520673445 0.3771151716543201 0.12446715409750748
55945000.0 0.8764182146516926 -0.4771788855091345 0.0470837388420937 -0.14330645965600963 0.0009659106764254566 -0.004346773517813795 0.3784779693978115 0.11012275299101132
56944000.0 0.8705120472526807 -0.48535727124248046 0.04798208096304073 -0.15424301856727973 0.002458946288835096 -0.0018522068394280675 0.3979471637147427 0.0909980229789732
57943000.0 0.8672650158878961 -0.492946722904177 0.04826888089061403 -0.16530416998605243 -0.002234951457150098 0.0028308989809392097 0.3980434148339159 0.09903025778743131
58942000.0 0.8625636752868759 -0.4978366708596271 0.04909742447019326 -0.17907620644017358 -0.0034759995338745488 0.0016091001959181775 0.4164194043087205 0.08114142909642613
59941000.0 0.8579000498493855 -0.5086405820679489 0.051653621896979855 -0.18513109922258833 -0.00065350593489729 -0.000365980010545684 0.41327998076812095 0.08190040432813239
60940000.0 0.8496924122302458 -0.5150680811420427 0.05177119742057436 -0.18984808370547204 -0.0009530093618644293 0.0022087132172047036 0.4012136411589021 0.07776245961757974
61939000.0 0.8480114277454086 -0.5224387079583536 0.05408059505061562 -0.19974654343925788 0.000390686579729581 -0.00021422596751841675 0.4189982361823626 0.05743839209160603
62938000.0 0.8410113450025153 -0.5336958528319854 0.057356312082904815 -0.21828144843925337 -0.002152945405482948 -0.0019387116488559777 0.4346737938694472 0.04766599568645717
63937000.0 0.8388383244992615 -0.5406168266677162 0.05534098436557218 -0.23809556343900973 0.0009028555909354061 -0.0012230617883069845 0.42695306166478686 0.035426706880893076
64936000.0 0.8316394162775591 -0.5459020674438967 0.05467623768376116 -0.25244751735091164 -0.003839542825603942 -0.0036442857905703966 0.4314837016037666 0.04785812946900212
65935000.0 0.8270879360230899 -0.5558628807269514 0.05707253225148069 -0.26490253352839743 -0.001799206273556207 0.0012239311433638689 0.44378990946684804 0.015143789387625678
66934000.0 0.8227564940681789 -0.5643802561515052 0.05368673548465175 -0.2772348299731674 -0.00015048950761498318 0.002675530599089048 0.43394577514421945 0.014363756900355951
67933000.0 0.8203674101182288 -0.5703955127347252 0.055449345924279955 -0.29168681062915675 0.0012922304034376773 0.0010662532999392298 0.43993609093684616 0.0040069773155078725
68932000.0 0.8053408051783392 -0.578649732117543 0.04916530689990646 -0.30295311482248866 -0.0023900601967345478 -0.001626033733009625 0.4543242101397267 -0.013632289556545338
69931000.0 0.8055293679748884 -0.5865661938945823 0.05127064611567379 -0.3204271768345053 0.0032883455330086865 0.00040548228565846734 0.44714957551151185 -0.0236170709554494
70930000.0 0.7979776288230158 -0.5962211044260318 0.04572686235385261 -0.33678077138048107 -0.0025529194810781433 0.0013868972476833686 0.4415659158192425 -0.035797014705190575
71929000.0 0.795863987023895 -0.6025357005127823 0.04611381518278698 -0.35366649467086614 0.0021274762707474415 -0.0012119259488543679 0.4437630753229923 -0.05318917298445501
72928000.0 0.7871916131616435 -0.6123154304841332 0.0393048423215118 -0.37123039010711545 0.0020352859836170055 0.00033101514454350736 0.45031952435660266 -0.04525118887723483
73927000.0 0.7804902730507106 -0.6157650479316175 0.029875270665638914 -0.39254758656678207 0.0037812596216635734 0.0019653220766522343 0.4551779736537665 -0.06157610581013594
74926000.0 0.7752682255946953 -0.6266406181379026 0.024358495831467243 -0.4097315195155462 0.002779165326231381 0.0035971046884227913 0.461253924545783 -0.07344351949704689
75925000.0 0.7698948079112279 -0.631607000608237 0.013836988602573135 -0.43008131790261744 0.003773454148729631 -0.002327267102232818 0.4673929381746957 -0.07877816274466612
76924000.0 0.7633224851531251 -0.6403940886709192 -0.0017805547379524636 -0.4520350785417379 -0.0009835026854104316 -0.006272759068535191 0.4647809895948699 -0.09197487202607799
77923000.0 0.757949622805495 -0.6469990058987786 -0.009550661498214229 -0.4775766083737629 -0.002769981058175806 0.0012766343318849147 0.44641631934191633 -0.09452019467931816
78922000.0 0.7498168286441783 -0.6566057348531056 -0.02909225202781028 -0.5040113680576663 -0.00084096762485056 -0.0018289339289469175 0.46025688608441084 -0.11226715910221315
79921000.0 0.7427479650863534 -0.6600723729410897 -0.04970182868091661 -0.531215540584406 0.0011664861169039154 0.0025908180220290318 0.4501561316278741 -0.12024714655586664
80920000.0 0.7374856108321723 -0.6712232703002017 -0.058592108904685934 -0.5572178277039433 -0.003995424960383374 -0.0015041489039471835 0.4552492276293562 -0.14183187830623467
81919000.0 0.7331709107554987 -0.6767071968524885 -0.08234048627238655 -0.5899896294973556 0.0038834704530529857 0.0027958605561194277 0.46600567863517045 -0.13337397256126943
82918000.0 0.7205937533758731 -0.6859571516440888 -0.0917699211507159 -0.6180147996269924 0.004047646154099912 -0.00011959970744609832 0.4721710137858958 -0.15754848098410643
83917000.0 0.7133339495125764 -0.6924062942714986 -0.12086956084032534 -0.6466437867321287 0.0014792860838845304 -0.0006137188719231064 0.472714579961408 -0.14514393994207836
84916000.0 0.7087650781620886 -0.7006962076077539 -0.13574296942071476 -0.6787297297377263 -0.00306881664798443 -8.944514270551893e-05 0.46496088812279013 -0.17369353387523156
85915000.0 0.7031766321644836 -0.7068771294523643 -0.15475209623694006 -0.7125550228229907 0.005352199006782198 0.0040799942164541905 0.4687775675062333 -0.17255599128381185
86914000.0 0.6949545422637176 -0.7140086949918935 -0.16553740872476394 -0.7531125042207775 0.0009571937702448739 -0.0010316432090603823 0.46076707312212273 -0.17690832130646764
87913000.0 0.6874308818262207 -0.7215393621152102 -0.19216342515459225 -0.7805206666955433 0.0033651663400105923 -1.890484246733515e-05 0.4561449516800219 -0.19593161557500224
88912000.0 0.6812643056872622 -0.7276365712589303 -0.199780011303133 -0.8182446161324376 0.0035974562086047686 0.0012913729619656758 0.4691905380777424 -0.20984494272752574
89911000.0 0.6710610559357508 -0.7385259648728643 -0.21949227988152756 -0.8527433923158886 -0.0022057679783932375 -0.0013889400516563022 0.4721207155660577 -0.21197837138348252
90910000.0 0.6656309910896631 -0.742840404096999 -0.24035529834809155 -0.8851534439903626 0.0029005111003623536 0.004523533330492301 0.45399124126928436 -0.2182150694974442
91909000.0 0.6565533078463515 -0.7468301643693925 -0.25810892067040847 -0.9174003273311805 0.0019417442391084466 0.000181616520468046 0.4660752457090933 -0.2251199007356042
92908000.0 0.6469529749546015 -0.756002624602184 -0.27613456455636765 -0.9474419115087032 -0.0037187236444203536 0.0004325790916456815 0.45388645084936036 -0.24208122493157372
93907000.0 0.6414773526480098 -0.7617950829722524 -0.29501530181676455 -0.9813922885630207 -0.0013170626725478114 -0.000429199423090499 0.4570176762562779 -0.25156850700815453
94906000.0 0.6304201086339556 -0.7698413771823073 -0.3137060928844907 -1.0139664568501008 0.004186446607836841 -0.0012175919636033296 0.4542544748001199 -0.25798635020688065
95905000.0 0.6242103848383361 -0.7753667114739813 -0.33109973981432045 -1.0509348065940576 -0.00237987104165317 -0.002268633581167451 0.45765344189027285 -0.27878619711884345
96904000.0 0.6137762948591612 -0.7844385799678393 -0.3570260064138452 -1.0878103034445763 0.0020193994349791515 0.0017434206734480014 0.44323227229365236 -0.27823542588679395
97903000.0 0.6037666824608051 -0.7882259838874086 -0.37570856047872336 -1.1205694717236434 0.0010865356582351752 -0.0011535489026129123 0.44900143556076105 -0.29591105381410765
98902000.0 0.6002557675709081 -0.7972467917670537 -0.39849378355603826 -1.1581754196097382 -0.001979591639243393 -0.0020808091905404626 0.43779355181725227 -0.2947674007675117
99901000.0 0.5903181650735357 -0.802201289254894 -0.4245610717736516 -1.1911586405808456 -0.0008587335763187006 -0.002380331092832023 0.46739216837018727 -0.31563128912738436
100900000.0 0.5815119837066051 -0.8058012535641833 -0.4571412836640039 -1.2180512082609773 -0.0012181583797069271 -0.0009204322945300181 0.4468524851796015 -0.3076878060840469
101899000.0 0.5719124477267021 -0.8145123303838022 -0.48562111420752846 -1.2579676859430209 -0.0015348673348114475 -0.001536657697513927 0.44869103718870734 -0.3270788604656712
102898000.0 0.561652924724789 -0.818488875069839 -0.526017155213811 -1.2924135344655632 -4.102666141961789e-05 0.003489619943709309 0.45084267968601527 -0.3426634728805115
103897000.0 0.5540920727429385 -0.8281289354783072 -0.5639785269901443 -1.3298341208071882 -0.0007717430676530477 -0.00025650601736112034 0.45227759671600926 -0.3326860465465766
104896000.0 0.5443115269267075 -0.8375346851568097 -0.6128451718369791 -1.3559476512849247 0.0033131560668010953 0.0011264722563596912 0.4329261778395367 -0.3347554849770947
105895000.0 0.5345318733392938 -0.8372952833101266 -0.6563167635031607 -1.3999196138667163 -0.0019170669241636274 0.0015307489199662397 0.417602493479706 -0.36038832114752567
106894000.0 0.5273137312642454 -0.8440338010223164 -0.7085909215824914 -1.4394554372664252 2.134782037888975e-05 0.0009150510501251122 0.4256746717355262 -0.3693072564895685
107893000.0 0.5205413951021863 -0.850209414153401 -0.7657493837668244 -1.475175384037345 0.0018053222739483432 0.00088784934682748 0.4267927508582432 -0.383246789649768
108892000.0 0.5065426692668127 -0.8553661511551953 -0.825594452552055 -1.5110521718045584 -0.00017642620845195763 -0.0004462640436908024 0.41961433839693807 -0.3837268658156475
109891000.0 0.49360545347267987 -0.8627816301243496 -0.8904953426812448 -1.5460844666003901 -0.0007495860734036217 0.0015016685871307757 0.438661213634615 -0.38111476961357277
110890000.0 0.4876447079930347 -0.8638494208369812 -0.9444832970564098 -1.5603875653444095 0.0009523271339080544 0.0060141466468421325 0.417976710721042 -0.38661017248362517
111889000.0 0.475424092560114 -0.8691669892289928 -1.0168368420302156 -1.6139869949878833 0.0018305733404016305 -0.0017744371853381615 0.4272421165013107 -0.4118962649314514
