! Created with skrf 1.9.0 (http://scikit-rf.org).
# Hz S RI R 50.0 
!freq ReS11 ImS11 ReS21 ImS21 ReS12 ImS12 ReS22 ImS22
1000000.0 0.9780577951110455 -0.004035137045310541 -0.012779806524224184 -0.03358184277870107 -0.007136032286469089 0.022889416090031017 0.36633188122124266 0.3231840338923094
1999000.0 0.9965070268432337 -0.01149032386918508 0.002969883481215251 -0.026820852778530455 -0.0008470013677576705 -0.005175888998805967 0.25056862869535984 -0.0673242040399802
2998000.0 0.9965593930158103 -0.023140428794638575 0.01472485515277744 -0.011642569181229875 0.00033993484411303334 -0.0042778078172684255 0.18701307578437412 -0.1498548413988282
3997000.0 1.0011875505065757 -0.02692477742624729 0.011545582766986792 -0.0017632307312310646 -0.0007963859776250354 -0.006372848716793944 0.08992609227585563 -0.23239504989402054
4996000.0 0.9966329719164781 -0.03637944648958376 0.016871504267820747 0.0009878810981703895 -0.0016559903235496753 -0.0024419984106485086 -0.03667569500049392 -0.21023230975385476
5995000.0 1.0006431393004984 -0.045020390858955005 0.011710006155224245 -0.001163678244494731 0.003459735001604119 0.0010466790734391066 -0.117157745996104 -0.11552520609422161
6994000.0 0.9990939776970849 -0.05488448322091413 0.010675014901555415 0.008423606254714774 0.001550657941304563 0.0013654400710646712 -0.14688596024711573 -0.026368037581373682
7993000.0 1.001184642229246 -0.06478275891552253 0.003368175293090514 0.0037354596660671667 0.004531493154405597 -0.004739783600131469 -0.16953087851974694 0.038153828845514465
8992000.0 0.9987422045873059 -0.07199650871464548 -0.0029561984421775968 0.003232201868613214 0.001718973182601097 -0.003454709665253834 -0.1591481356822828 0.06182986250270732
9991000.0 0.9965889905581808 -0.07970752507458807 0.004966407106229455 0.0028677147943604103 -0.0001459893068728921 0.0030949741858016804 -0.15213847386759624 0.09626288373765216
10990000.0 0.9968985195804902 -0.0922018226947102 0.0066879646317170366 0.0028695583612991745 0.0014838995830119253 -0.0005631156305431719 -0.14433883957632693 0.11387800673861202
11989000.0 0.9943154526171524 -0.1010315366197477 0.00016435238153071077 -0.0028444196356524442 -0.0021235337821461503 0.002179073337862695 -0.13608510543384333 0.1342004934121322
12988000.0 0.9928783311301198 -0.1099662033366082 -5.541252999513258e-05 -0.007523401699095664 0.0027046486200784977 -0.0026984248114608413 -0.11151649171845286 0.1797127109439069
13987000.0 0.9919491800225839 -0.11546427302643607 0.002296361573761174 -0.0049413815711350515 -0.0002795443633004314 0.0017464673881990918 -0.09170441100888294 0.19107115139935144
14986000.0 0.9922697951282221 -0.12578455747903308 0.0019285246937211047 -0.004189904888396385 -0.0029460214373955842 -0.0034817957511757715 -0.08419687548996212 0.19221741166184142
15985000.0 0.9925082184490978 -0.13386753309147828 -0.002098723381895844 0.00039222053044132003 0.0017319012606560615 -0.0046755958058666645 -0.06917219908075259 0.22324920059078093
16984000.0 0.9902704362554504 -0.1448905545004224 0.001250255267825551 0.0010330444796689347 8.98836288850885e-05 -0.0012938197685013503 -0.06084488283256426 0.21041225874055325
17983000.0 0.9891526055206677 -0.14817569725725716 -0.0029509127956343162 -0.0025274951004228803 -0.0006315682548859611 0.003142661979748427 -0.05634671180375742 0.2271912558038806
18982000.0 0.9862019471480297 -0.1603067619641635 -0.002673305022183167 -0.004024598663329085 -0.00354596839514847 0.0010025012639933095 -0.02276820253857393 0.23957414798590537
19981000.0 0.9863386375641326 -0.16589778141111597 -0.006058881643134619 -0.004352491515199811 -0.0014144526681366186 0.0012316732889046515 -0.0070000094886025705 0.23967606185018892
20980000.0 0.9858209587366765 -0.1758222581259265 -0.006869367679243775 -0.007453534324349825 -0.0026851257098561977 0.004272873000215342 0.003466565264450433 0.25550458593074005
21979000.0 0.9831858043330353 -0.1837343764323987 -0.0024096352721688424 -0.004144573852547423 0.0004946025769866227 -0.00020387419028212458 0.015118150430103734 0.2436079849204101
22978000.0 0.9823512344574848 -0.19221522344719644 -0.005559154116522818 -0.00378897775627509 0.0032486959650489923 0.0020338355056332357 0.027845853654841685 0.2548040541263681
23977000.0 0.980798558309705 -0.1992242969258623 -0.003256295662397865 -0.0011362348268068746 0.00016280303487567824 0.0006608484200482502 0.04880775327137933 0.2509109542593949
24976000.0 0.9760174680463458 -0.21044810278403597 -0.0024627168911958196 -0.00521474063182617 0.0012490088796674953 0.0030283680285281955 0.06466358660241657 0.2567281464005686
25975000.0 0.9768749118086781 -0.223998354544821 -0.007930912291719373 0.00028868782968901214 0.02601358340932806 0.008304103894818024 0.07835656825731334 0.26510303983315053
26974000.0 0.9743717236135111 -0.22647717604967466 -0.005786660239023874 -0.005901027388692596 0.0010951191643103107 0.0001307743387721246 0.08450549911826509 0.25972134950208253
27973000.0 0.9720378587768888 -0.23388190052554522 -0.0048437210826554455 0.0008130306900899623 -0.0046196714827726896 -0.0019408338598800208 0.10849528938810475 0.25624594602372036
28972000.0 0.9681740387323892 -0.24425477283896468 -0.0028561803059319597 -0.0034674419859611807 8.233371167018674e-05 0.002335503806552798 0.11612127440829863 0.25589911115475295
29971000.0 0.9682356611709332 -0.2529430256517978 0.0031520010591546744 -0.002983819827936635 -0.0012971308434043035 0.0005786230267533781 0.1495563468407161 0.2664799560560971
30970000.0 0.96423767244802 -0.2590670220252378 0.0031398668978332104 -0.0015366269062108912 -0.002613789648126113 -0.0010000827442815765 0.18185376988873697 0.25434305619626085
31969000.0 0.9634008588922757 -0.26636760634624007 0.00640462415518996 -0.0013049969041178965 -0.0009518133992798838 -0.0018673098749675354 0.15581138608881898 0.2511332142889128
32968000.0 0.9625873184879917 -0.27484897864663355 0.007308347454236429 -0.005131228087023212 -0.002501416309716435 0.0035867574746955796 0.16978510452120657 0.251593519524496
33967000.0 0.9581783405479812 -0.28581649476144105 0.011526992737645207 -0.010214933170426259 -0.00041974070865842685 -0.0026420244974812252 0.1924019335006915 0.2447289358191946
34966000.0 0.9547271534889862 -0.2957512820611567 0.01741241818112721 -0.014593730410541045 -0.004652846026833442 -0.002522456146512808 0.2007966685120299 0.25373002380378634
35965000.0 0.9518881308331483 -0.30162300973893763 0.016613330398410533 -0.017478538551985646 0.001659950206645637 0.00050527972365919 0.2141621469684179 0.24265850569035854
36964000.0 0.9493805816357076 -0.3110744508860304 0.017090318184982422 -0.017519675495169973 0.006212174148976714 -0.004167255144970781 0.21766286178640298 0.24749763054209878
37963000.0 0.9474812158868922 -0.3190494637301505 0.022477308087399603 -0.02120679124488475 -0.0001801543001828268 0.0008543652737229176 0.2277387067945535 0.240180328188102
38962000.0 0.9461901535815676 -0.32677806700923134 0.02773781469911216 -0.026278764797412327 -0.0006719979138912482 0.003071692797061876 0.24209216245777576 0.23349556483264922
39961000.0 0.9429937665456153 -0.3376782965680705 0.026737589467633313 -0.030393312029298555 0.0013477064433888547 0.0028917307855587395 0.2600879728200346 0.22664754909631152
40960000.0 0.937427229443977 -0.3434294690485795 0.022588538913916996 -0.02346503639533631 -0.0009490648415653592 0.00023557430635262359 0.2685427788624154 0.23719290573466117
41959000.0 0.9359076467070966 -0.3534657517499884 0.03207646875375103 -0.03411408281252236 0.0033080653453284054 0.004878593605972654 0.2696440129778185 0.21131195463157795
42958000.0 0.9298541017533732 -0.3625028371508661 0.03423973641602958 -0.041406942592285396 -0.0002460325527742571 -0.0011239037877822915 0.2926926195063369 0.2040276672868626
43957000.0 0.92959973960898 -0.36957644768967135 0.03483983777881324 -0.049055271832963855 -0.0010061279375752667 0.0014711544465675725 0.2966190057542168 0.19355612487177953
44956000.0 0.9250015475221549 -0.3770069241613722 0.0353193680949325 -0.052756342182761914 0.003427099071154626 0.0018135395321280156 0.3076465541161778 0.19625458198330467
45955000.0 0.9214733031450155 -0.386508695675808 0.03299731586930896 -0.062109467545222535 0.001308650611401597 0.0003966922855592564 0.3220261053131009 0.1880520153172405
46954000.0 0.918218039981468 -0.39451529099971694 0.036461742428799564 -0.0675690294199634 -0.0009192742964707906 -0.0019801830373147667 0.3350341249032687 0.1796734225624394
47953000.0 0.9136571030838406 -0.4044882849038328 0.034802487043741885 -0.07422761508913094 0.0019455930869600071 0.00010940150458193157 0.3488041949270315 0.17645214485039676
48952000.0 0.9083745282709901 -0.4147414032110325 0.039347768497903904 -0.08087461585636967 0.004405613554035997 0.001590260520950674 0.34543067804349076 0.1582314488223318
49951000.0 0.9079450256898148 -0.4161839966855065 0.03970364457362974 -0.08803432869750802 -0.004351615531218804 -0.0010365141444882888 0.35631388084186416 0.14065331792535088
50950000.0 0.9030860482167115 -0.42676169162815364 0.03816564601038029 -0.09705771539728485 -0.0004958433532656626 0.0010848060570711538 0.35865067499776776 0.13935852599911341
51949000.0 0.8989224708915222 -0.435225917470778 0.042491131290356934 -0.10420222254782116 0.0015439477519380003 0.0021522136682461607 0.3719579372984761 0.1314085615196472
52948000.0 0.8969157087317992 -0.44260178586866844 0.041682593896609346 -0.11437144606190107 -0.0029718717188762377 -0.007250918984200803 0.38394963660985043 0.1348964572817382
53947000.0 0.8917985025236125 -0.44929925811049615 0.044543861090112165 -0.12531648182276262 0.0024729897948457583 -0.00019661002709102712 0.3760142025177447 0.1217833230863096
54946000.0 0.8862047610888057 -0.46004106400682626 0.04379177769345325 -0.13296378414548515 -0.001810922517565378 -0.002222746223722959 0.38835871088613194 0.11581037550993337
55945000.0 0.883858942258675 -0.46872242841086253 0.045950870537742855 -0.14587914025944076 -0.0009027598020266245 -0.0009588040478141763 0.3914189297908989 0.09695839014545035
56944000.0 0.8801069525332127 -0.4756990819653757 0.047958261315857745 -0.15576979352493187 -0.0015357773286828985 -0.0020067983481913726 0.40837570921666533 0.09566444355660884
57943000.0 0.8760978590411962 -0.4851878283339683 0.048244246115308385 -0.16760901238634376 4.871909365440247e-05 -0.0018453342553511908 0.40869801264976624 0.08733684738838195
58942000.0 0.8713892275488901 -0.4898566260547555 0.04770804602905693 -0.1775892364173555 0.002209512453806141 -0.0004905162267454232 0.4244705736695098 0.08568283859774513
59941000.0 0.8670158281850383 -0.5004117800707854 0.05217628434003466 -0.18580430523060507 0.00017564490909030916 -0.001517865455287901 0.42422763364876204 0.0901065369718633
60940000.0 0.859576719210495 -0.5048666431408612 0.05201976970958805 -0.18934914586279872 -0.001802186167617059 -0.00015353010575029988 0.4170035769649424 0.06701867764775264
61939000.0 0.8567529556379084 -0.5138196435819754 0.05512755908190838 -0.19938877347022502 -5.628064744197826e-05 0.0007329192473465762 0.43284968636845256 0.05496436745767427
62938000.0 0.851427470915984 -0.5244752628481262 0.05557005533870938 -0.21550348269311748 0.0008228982807737935 0.002551430175818169 0.4502266946430188 0.045384094101148714
63937000.0 0.8465415948672157 -0.5309221277208843 0.05626955439882156 -0.23782318120958698 -0.001988979221517428 -0.00385656667754778 0.4383970582332308 0.033825278578886286
64936000.0 0.8389226139738767 -0.5381096651420023 0.05190179342759011 -0.24903954294199904 -0.0016651608360718113 0.001985492101347328 0.44543704794504013 0.029848071931627432
65935000.0 0.8360413242749842 -0.5484500911892811 0.05115482659483015 -0.2664675813480748 -0.004374340384114981 -0.00038224712635911225 0.4463556533121916 0.014618123222255195
66934000.0 0.8332736361040248 -0.5529428428354755 0.05297047926202906 -0.28122751391398554 -0.0032316527224101953 0.004863145488121734 0.4508573900468384 0.005097994982640931
67933000.0 0.829484164316555 -0.560216972113543 0.057563829880474204 -0.29399940302574057 0.000997749887744381 -0.0006009206313699629 0.448106666676462 0.0035473112282677225
68932000.0 0.8152069586057691 -0.5675216703974677 0.047103879890244636 -0.3086459787805041 0.0009939388646475213 -0.0037827167869460164 0.46010266970402003 -0.025547286050057235
69931000.0 0.8137116268579112 -0.5771193830865946 0.04751967601099816 -0.32442341000997416 -0.005820499826310697 -0.003082884555755722 0.45167594713117526 -0.02164523556618864
70930000.0 0.8106784020048393 -0.5834269834271296 0.046564457974753656 -0.33752679403412905 0.00039695855147051 0.0004045525719711029 0.4500601924997739 -0.03470335569806458
71929000.0 0.8075380956266649 -0.5905529471009855 0.04479198518646621 -0.3542031701555131 0.003462568445754479 -0.0026027731176315404 0.4532510533196235 -0.04320977490501161
72928000.0 0.799871269335324 -0.6045499504233687 0.04095553902607636 -0.37356479781537705 0.0027052316301690257 -0.002687202305304355 0.4634513429278323 -0.054686868301255104
73927000.0 0.7946981361533737 -0.6072604911669736 0.03111393279655551 -0.3962570474926016 -0.0046935272513497295 0.000289309660214543 0.4626243494472707 -0.06112341222297374
74926000.0 0.7896216681154014 -0.617081921301095 0.02540922617801604 -0.41456765251739713 0.0012112608305699611 0.0006997602109065417 0.4691826080456926 -0.06769301009802976
75925000.0 0.7821618343626238 -0.6216146065429088 0.018348863777495516 -0.43223810057795836 -0.0009117676955381065 0.0010826712080286103 0.46489689159727343 -0.07921255537598165
76924000.0 0.7769613751024455 -0.6286973876102215 0.0007693515049400639 -0.45336775150160585 -0.004275703998574789 0.0014403213526750045 0.46659377254485956 -0.09222085448723541
77923000.0 0.7708615791513456 -0.6357599396449054 -0.015763185563845334 -0.47783713146816015 -0.0011455216059697217 0.003771101002513795 0.46544326382007195 -0.10124688626085679
78922000.0 0.7648124038060237 -0.6465511856685842 -0.02996810765564541 -0.50380435878692 0.0011385074439784668 0.0028476232785966645 0.46689906541672294 -0.11661639765483543
79921000.0 0.7556801530658918 -0.650084497774182 -0.04792311537512753 -0.5299745311083848 -0.0030774519032347614 0.0040956521577981625 0.4592034505606647 -0.1269245700531587
80920000.0 0.7512649034746602 -0.6602238338747015 -0.0611596154444481 -0.5600948261192003 3.087259316140167e-05 0.0019973850484972825 0.47773987558930825 -0.1378440598245432
81919000.0 0.7463576084226344 -0.6667649403377816 -0.07706359091988026 -0.5892882452709652 0.0006590656974020646 0.0038242722101640373 0.4732596063857411 -0.13968845166517302
82918000.0 0.7384433914394135 -0.6753952612807236 -0.09253867993173874 -0.6193844095943094 0.0035140449738798613 -0.0025908509851494126 0.4770761029358246 -0.16667319638312128
83917000.0 0.7299774953630772 -0.6811647064385004 -0.115080579315208 -0.6455782719000664 -0.0021331049805129025 0.0017122575524175824 0.4707950388492874 -0.16267139273055345
84916000.0 0.7219752215209022 -0.6900333520307871 -0.12848473180830025 -0.681604393135893 -0.0005643272682791041 0.0013502371511614705 0.4672867729636766 -0.1711548429527876
85915000.0 0.7175007434531774 -0.6961246370759605 -0.1493743294409717 -0.7133360926688485 -0.003992807884393522 0.0019563729789651386 0.47380334194499363 -0.19370708176717608
86914000.0 0.7086792324012329 -0.707466002392482 -0.16676002090287628 -0.7487864881129147 0.0010411723846570349 -0.001322001744884092 0.4586952470990425 -0.18433980733620267
87913000.0 0.7031822744446831 -0.7132056946707608 -0.18551221316964583 -0.7800632424732624 -0.0019017347745866515 -0.002319733692113786 0.4688728570393834 -0.19654488895345498
88912000.0 0.6948698461831548 -0.7204785992251252 -0.20139088187118337 -0.8135746728095381 -0.0011534862648610441 -0.000997970448757335 0.4624786721306794 -0.21577910855604995
89911000.0 0.6888712297429698 -0.728264456332594 -0.21968526285106355 -0.8521941768112823 0.0003525818237108461 0.00018218835068613428 0.4721674856800612 -0.21485102648711996
90910000.0 0.6816606971051425 -0.7327800903368834 -0.23269840013406085 -0.8877029460822176 -0.0022092585531597536 0.0007873592921274703 0.4635382185776281 -0.2177134964715764
91909000.0 0.6704995246442034 -0.7379001933851876 -0.2585027133586951 -0.9187806160358372 -0.0043133544665136135 0.00048245407252510647 0.4655460236572552 -0.23048567175622517
92908000.0 0.6636660137468576 -0.7482966515028353 -0.27974606720734757 -0.9506239745577754 -0.0007596362080303777 -0.0001311907745285038 0.45862998325138365 -0.23911301041941563
93907000.0 0.6579369317831499 -0.752662062110729 -0.2973019283914168 -0.9839247435143323 0.0030403544073355593 -0.0043555545353370605 0.4587514186094434 -0.26763905688972833
94906000.0 0.6469926075000174 -0.761417200264302 -0.31363729076868396 -1.0179982414524495 -0.0004897262541549987 -0.0005412630572940607 0.4529414026721073 -0.2597165968328245
95905000.0 0.6375574823964796 -0.7672135829879856 -0.3378678271033647 -1.0514363530511255 0.0007703134943404593 -0.002180640996780073 0.45617789026163824 -0.28054356060769015
96904000.0 0.6328456549162237 -0.7759095398116045 -0.35976072659271513 -1.0933582846306518 0.002445124436156436 0.0022535521962694072 0.45647910947090575 -0.2882670435163354
97903000.0 0.6225447305793451 -0.7813047365099554 -0.38406133287992716 -1.1227687418994587 -0.0022890601705357833 -0.0002608577556854542 0.4481191861641174 -0.2964130707536513
98902000.0 0.6178091859649463 -0.7891167135185582 -0.40641060934966605 -1.1628495566792092 -0.0019253685693152126 -0.0037468934488177124 0.4403190438986346 -0.30446513581885254
99901000.0 0.607845015442417 -0.7949811324395114 -0.4323644927939634 -1.193603327607216 -0.00037532029815726256 -0.0019180712194473237 0.46401629408225065 -0.3275385757054797
100900000.0 0.596793815919257 -0.7974708291602471 -0.46669914254016637 -1.2182228190886402 0.0008048490719008114 0.0030257713574657953 0.4559218595725953 -0.3324858052877847
101899000.0 0.5910107484139137 -0.8048165305243337 -0.4903636048340408 -1.2627148722475572 -0.0016420434750436046 -0.0028339432169623164 0.44015797319704697 -0.33724811224982065
102898000.0 0.5779450837728308 -0.8120984798285338 -0.531296948626554 -1.2969857873350474 0.0019848024075137275 0.00034256716844541804 0.45094625204389727 -0.35412057090285204
103897000.0 0.5713868127850847 -0.8188616870774347 -0.5687125065138957 -1.3392046808799178 0.002308872934919665 0.001867422912169456 0.45720313457732537 -0.3441276477946346
104896000.0 0.5635240090269671 -0.8293520522161711 -0.6172486743274046 -1.3686217832001877 0.0009152966404403489 0.0006567310169038849 0.4443412583396402 -0.34608647575301915
105895000.0 0.5517316511061783 -0.8315725550934511 -0.6662954169417892 -1.4108311367340771 -0.0018660801682098503 -0.0009583473273390484 0.43383443508840386 -0.36421802193264063
106894000.0 0.5453618137180206 -0.8370099586816103 -0.723287938267418 -1.4487847840023953 -0.00178331128185013 0.0006033574726561744 0.4266665311628453 -0.38459577450417315
107893000.0 0.537326002770606 -0.8434217770840178 -0.772000719497542 -1.4810077556080783 -0.0008141458187999128 -0.0007885559689436252 0.42002777550019266 -0.39868040633364427
108892000.0 0.5249919065642092 -0.8474198958527446 -0.830783549430186 -1.5206584896340736 0.0008570815275437398 0.000969888999331516 0.41883501709586596 -0.38930557727356757
109891000.0 0.5137270766998645 -0.8542234916755752 -0.8900385546102915 -1.5508377306176244 0.0005465079158639735 -0.0006329119906424717 0.4301038414624241 -0.3982845073176534
110890000.0 0.5046144382067693 -0.8551314646919891 -0.9469223718758992 -1.558865229627283 0.0008331051978649546 -0.00020007358000344517 0.4170916964071919 -0.3937139662701476
111889000.0 0.49461155511502236 -0.8610000162506962 -1.0136661794191344 -1.619014889215604 0.001500907664226337 0.001343117604555402 0.415478231764494 -0.410283728875335
