! Created with skrf 1.9.0 (http://scikit-rf.org).
# Hz S RI R 50.0 
!freq ReS11 ImS11 ReS21 ImS21 ReS12 ImS12 ReS22 ImS22
1000000.0 0.9939772117947546 0.009559928385592916 -0.0070535405908991695 -0.055130442147795604 -0.015370202014169098 -0.009888779527855409 0.2685790110360219 0.33266120433244456
1999000.0 0.9935402562308954 -0.013387982134986896 0.0033011160961201012 -0.028668999401967914 -0.007303943026097201 -0.00461553630543906 0.2663087531551422 -0.0885602147526956
2998000.0 0.9989235748536645 -0.01812177040842013 0.011566241427961681 -0.01152192015551674 -0.003570384735483199 0.0015227968940829135 0.18466124914188506 -0.13379262239136602
3997000.0 0.9993329894204437 -0.025589288595217623 0.015709362783187627 -0.008126562122066102 0.00018430725788921864 -0.0031259290346734294 0.0824014183175494 -0.2179228410418381
4996000.0 0.9977176012179494 -0.032767994493725326 0.010866703603089735 0.0011661463694993776 -0.0004449259170876213 -0.002229306091989106 -0.045529917124375 -0.18478067138653206
5995000.0 0.9996705195077289 -0.05018492878491826 0.010394885385902821 0.0030684852465579756 -0.002757790089937913 6.459239677738938e-05 -0.11377590967997753 -0.1027752846383487
6994000.0 0.9979219157765736 -0.059238548431092726 0.005960103206919635 -0.0010915670173957648 0.0011078222238558688 -0.00046709816435845365 -0.14739191889493952 -0.018768636638753774
7993000.0 0.9965020011641189 -0.0657319864673694 0.005352602953444834 0.004798862118020651 0.0001309335519115097 0.0004948809074604071 -0.16680054990184234 0.036751444162821695
8992000.0 0.9971561266369773 -0.07003550862655746 0.004553411488190033 0.005988920450809063 -0.0002955345209387316 0.0011007599941669913 -0.16340803188612707 0.0596482277160225
9991000.0 0.9957226800651093 -0.08307982550153617 0.003563210567832312 0.0052549871899261694 0.0020770337379245503 0.0026318971403767226 -0.1507969887171298 0.08567900530150796
10990000.0 0.9944837046771879 -0.09404752634990216 0.006574963181596939 0.0010638087040180896 -0.0015018510346325228 -0.0009734464488554164 -0.1450307524899976 0.12145803190479029
11989000.0 0.992809904947002 -0.09893081336027139 0.0009770984733092451 -0.0040164873159656235 -0.005344529092904512 -0.0013203589276016107 -0.11145120014514617 0.1406870243206763
12988000.0 0.9931093661713541 -0.10870356807267731 0.0014705919823315972 -0.005504039708650549 -0.0016790274633175914 -0.0013619116917866936 -0.11470677297655785 0.17162098161735476
13987000.0 0.9899084998982335 -0.11466454705456766 -0.0018344080632437484 -0.0034364208875960352 0.00017315766779904188 0.00124172925858393 -0.09373295190571734 0.1858233388417356
14986000.0 0.9896728317033251 -0.12572572747183494 -0.0010773832162484023 -0.005145954232982086 0.0011454247667388449 -0.0008133193911159767 -0.0809945888354325 0.2064251844919588
15985000.0 0.9926288926201967 -0.1334758524250808 -0.002745439691588938 -0.0037161436848362093 0.001690331961455414 -0.001278487741076266 -0.07060593667109892 0.21714471650021047
16984000.0 0.9888415204641994 -0.14124585963507175 -0.006441084196405754 -0.0020792053676373674 0.00043377024728274304 0.00030804116236189606 -0.05915740400565635 0.22196809693467562
17983000.0 0.9878064217993503 -0.15026157797974832 -0.006317999378142461 -0.007165914817955309 0.0018459034615672357 0.0003037856343132385 -0.055231972982106435 0.23134629110090324
18982000.0 0.9840136602726922 -0.16228442840500373 -0.00264985806233443 -0.002902382419027724 0.0011891554450829292 -0.00045641507033578597 -0.01515403703931245 0.23474306296182884
19981000.0 0.9855055223091876 -0.1641367155486401 -0.002341921187652848 -0.006246609212726747 -0.00037475957110644947 -0.0053428492437662045 -0.018963484819044838 0.24112460221414128
20980000.0 0.9842412761451076 -0.17317008412901488 -0.0054385638635231935 4.0871970110092466e-05 0.000538752230063818 -0.002937665401471254 -0.012592237800327795 0.26461337337932883
21979000.0 0.9813578422560356 -0.18391365455446226 -0.009306378443025244 -0.007485877202999995 -0.0005318174769190633 -0.0018020811866096493 0.02276065668767588 0.2517602235370706
22978000.0 0.9804318188978756 -0.19001739613152083 -0.0012977375220786613 -0.0010119765512056765 -0.004051944643067299 0.0025024917817284076 0.02878645715915395 0.24610735537985085
23977000.0 0.9798762907737051 -0.19951420655323057 -0.009010515097007806 -0.0024752580404059686 0.0014676427915449567 -0.0012917657428985051 0.04051009539288402 0.2579638351013945
24976000.0 0.9773692697510866 -0.2092970631882531 -0.002183148165999827 -0.0022299116260048497 0.0035132286016715864 -0.0004304202008476242 0.055622010992383175 0.25651737997048696
25975000.0 0.9756932435713254 -0.21530938739234357 -0.005003289267719975 -0.00184881619084162 -0.018069981651576254 0.013319480707283506 0.08241063398188907 0.2657022485620758
26974000.0 0.973061962396498 -0.22728550367781084 -0.006852216510158081 0.0008671563092759045 0.0007108710902890415 -0.0007646186081042427 0.0957465913567537 0.26651875285158233
27973000.0 0.970640630906771 -0.23200168051741696 -0.003158346780860118 -0.004189883278652345 2.8169585620917818e-05 0.00010032637026208903 0.1068766686499084 0.2563405341090201
28972000.0 0.9689313747812686 -0.24073599761041317 -0.0026968745019371244 -0.00300654052814882 -4.6428378966539536e-05 -0.0015528788445684195 0.10994471619323769 0.24854304117031403
29971000.0 0.9677450783687486 -0.25265246324163304 0.0006724082769995146 -0.0005279641154581853 0.0006590246423966894 -0.0014451543192735216 0.15286534910831526 0.2670051169771712
30970000.0 0.9636572259347544 -0.25598927173562064 0.0029942808031902125 0.0007346214990065128 -0.0035338120825329513 -0.0004685313933058546 0.16780517203777962 0.25395219122970997
31969000.0 0.9614400374332926 -0.2667311709292124 0.003926897778702249 -0.004749281168410999 0.0008766832699212887 0.0013975741134126364 0.15342703607000843 0.25001780046983124
32968000.0 0.9600434317320132 -0.2749955193329873 0.005532537839582974 -0.004288017687298241 -0.0021009822495767494 0.0016123146132078015 0.15851819398311195 0.2454201100996666
33967000.0 0.957628620367655 -0.28296721542740894 0.01097663553276826 -0.008723451399857128 -0.0034334866550358115 0.001275364154150099 0.19085676155339046 0.2459240126590981
34966000.0 0.9545596862221016 -0.2937583877552482 0.013553633169869208 -0.011264874287652802 -0.0005198505665703238 -0.0019395166350937836 0.19858741480111586 0.2472384416360238
35965000.0 0.9518978579575927 -0.30138560000230064 0.01950824316479798 -0.016143619492638973 0.00372018761976233 0.0016648282310698273 0.20598446065106243 0.24908418009036806
36964000.0 0.9495406628738128 -0.30958266705544135 0.01391353879789359 -0.012533058524139662 0.0033028169715019263 0.0016512713992735551 0.2065739740328611 0.24997489867238837
37963000.0 0.947898392558698 -0.31657567036276896 0.023988223007290907 -0.021901689363208476 0.0010700533565484133 -0.0014994577061522858 0.2308247135835357 0.23557692009209796
38962000.0 0.9440283432490701 -0.3268799104494121 0.024733814664854494 -0.024646451443861624 -0.00249940368794147 -0.0006433481458787143 0.24323875244379356 0.23324737054592257
39961000.0 0.9435127298374418 -0.3312969195143511 0.02821038076318727 -0.027921111032263628 0.0021940934941106446 -0.002870157857418533 0.25367038506294143 0.22513669920965576
40960000.0 0.9386303667331312 -0.34286812631597574 0.025202176799907612 -0.023761437847617698 0.0020716478965052223 0.0021888611737397802 0.27465271380402784 0.22173594584569
41959000.0 0.9339340880584305 -0.35197537352273367 0.03248170449405626 -0.031833993462347845 -0.0026828862327431006 0.00025582156700820416 0.26895882417563677 0.21499540278587098
42958000.0 0.9308912409067993 -0.3599201346173887 0.03262979420870153 -0.040982826265007495 -0.002011667293079071 0.003001645510658433 0.2791177749341358 0.21231378506544768
43957000.0 0.9286650084656631 -0.3652234092462719 0.03427009726116551 -0.04742518582831549 0.0011539100190888622 -0.0010997981525472488 0.2891429249648066 0.19804540588662045
44956000.0 0.9256472279666195 -0.3718443955402761 0.03472553876070336 -0.0507556278048936 0.0008308073045289721 -0.003714061488175082 0.3045344836702406 0.18775004304580054
45955000.0 0.9220229953602203 -0.3829664497119394 0.037108001693433826 -0.05949724138630389 0.001270709464816577 0.0030311777176578692 0.3068493786285313 0.19652154323453758
46954000.0 0.9188727195934986 -0.39119543488753505 0.03994277734524074 -0.0666463035448968 -0.0019728704870973232 0.0015566568490326862 0.3297556555533978 0.1686342085359576
47953000.0 0.9157650769374064 -0.4002846286104754 0.040314347808804434 -0.07453548869398217 -0.0017458523024122925 -0.0038202844730022 0.33795096092672317 0.17132386524271637
48952000.0 0.9101109663466534 -0.4112158951895714 0.04037835870790907 -0.07946607669147523 -0.00048425292754313633 0.003139993072342979 0.3268699515333606 0.15960346027131894
49951000.0 0.9065745721830345 -0.41754156443179163 0.0414037283673313 -0.08720411312647039 -0.0016611191523255727 -0.0003627846706700418 0.34787272482630377 0.144042646195225
50950000.0 0.9038915420741745 -0.424751822815124 0.0421887741150511 -0.09660053343853334 0.0019375542059314472 -0.00242377122061414 0.34658103135759877 0.14249094924627018
51949000.0 0.900335046893432 -0.43308428397299464 0.04706956354522069 -0.10543774758909842 0.0012661753483569778 0.0010794004513678351 0.3596827142762941 0.1337115397556912
52948000.0 0.8969951442436354 -0.44001656885660556 0.04850240368454886 -0.11482078565099205 0.00030061247988600595 -0.00010641151827591639 0.3663215835672259 0.13126741306508619
53947000.0 0.8930471879739611 -0.44724067858905725 0.04985983524499263 -0.1213286695159153 0.0004144390251508477 0.0034204255476376058 0.37174860192195347 0.12836164502713807
54946000.0 0.8869865311796874 -0.45833058438841434 0.051550236757178694 -0.13313514121857092 -0.0019048356933440839 -0.0016194756069056319 0.3881703715726981 0.1249725766642966
55945000.0 0.8849256246058923 -0.4645998901429825 0.05384007759116531 -0.14376033680743552 -9.975287907886976e-05 -0.0011707157454478336 0.3924482431225 0.10681433530080649
56944000.0 0.8800614305181358 -0.4718767884462771 0.05464306999922069 -0.1567043512368124 0.0018016967734911784 -0.0012249352011398308 0.3971710621669583 0.09732638120330048
57943000.0 0.875794514454854 -0.48231229845898227 0.055383681810331827 -0.16956210172291425 -0.0009487463764294932 0.0015076724364108094 0.4008599352460112 0.0955439590741545
58942000.0 0.8714775440341459 -0.48681435105100707 0.05882811298315239 -0.17821687094192698 -0.0007560732367374342 -0.0012455397565226008 0.42244156215791145 0.08351951525256501
59941000.0 0.8671288448950196 -0.49796181022948827 0.05755815286424476 -0.190736789776766 0.0018600964701635178 0.002459135540568112 0.42221247677949125 0.08874782632119814
60940000.0 0.8608584065346806 -0.5026511028900369 0.05886892235736976 -0.19363844145151543 -0.0022151157832063393 0.0009172724534674343 0.4100433931826384 0.06480207552816686
61939000.0 0.857768465507252 -0.510278114292916 0.05932346669078647 -0.20026082642031404 0.0001258955383055403 0.0021479791460011334 0.42338677012880505 0.059642642866563206
62938000.0 0.8514138536757725 -0.521666952222364 0.06312480212733157 -0.22343749397177107 -0.0006320610427888331 -0.0015776300123871542 0.43909325182627096 0.054387616817075296
63937000.0 0.8466715108592601 -0.529356725908246 0.06112101448974665 -0.24000298859469266 -0.0024425179977118506 -0.0047968186265955155 0.42867463476992246 0.043018838349188106
64936000.0 0.8424363493953282 -0.5339589052852968 0.06284502285909507 -0.25508313594363663 -0.0002443876050920199 0.0019259535052919597 0.43476208075290723 0.03848563126794957
65935000.0 0.8394406558988705 -0.5435363686176612 0.06172688198372941 -0.27289841961800865 -0.0024817501973863993 0.002492729286439378 0.44075150921722495 0.01525701313331239
66934000.0 0.8348145356478354 -0.5498809874182676 0.06263378974761541 -0.28465710698301827 0.0004621501382889321 -0.0027459451884224713 0.42230731644824465 0.01320271227597559
67933000.0 0.8297923110470103 -0.5594157944849802 0.06307846110592254 -0.3028443942302195 -0.000593973756782724 -0.0009094261852038446 0.44614252825090556 0.0070924267814271415
68932000.0 0.8275684654824067 -0.5548388238029983 0.059819512806585 -0.31495796905116213 -0.0042201332199989965 -0.00027941828324092716 0.45216223846593906 -0.009072994175645539
69931000.0 0.8171683417093418 -0.5744266581775295 0.057326481706769496 -0.33386015315871914 -0.0018339847191646932 -0.002148491951013641 0.45157337885502064 -0.026535036711299417
70930000.0 0.8106229476010506 -0.5822461765804775 0.05809490513113049 -0.34880646399091425 0.0006436060182767797 -0.002471081899942191 0.4488881573669129 -0.02373389649820703
71929000.0 0.8077126661995457 -0.5884843625329573 0.05342447119731094 -0.36652156909825606 0.002480031947207842 -0.002314754440071015 0.44813380679113635 -0.04154101219968589
72928000.0 0.8012204800734505 -0.5979764289634414 0.04385883218576605 -0.3844565373237797 -0.0005230934918558007 -0.003884202556510423 0.4660658574415111 -0.058084371806442825
73927000.0 0.7958746391783511 -0.6052624319505792 0.04150213683921482 -0.4080914073050535 0.0032094424059687307 0.002427964508239288 0.4519368987705732 -0.06309602420538633
74926000.0 0.7893336921936036 -0.6141773795354347 0.034118940670947534 -0.4251930740463278 0.0033349154415890305 0.002735105094187615 0.4557739388370472 -0.07024573820989827
75925000.0 0.7839577297311732 -0.6186171775070144 0.023012614244193867 -0.4465811134422234 0.001258488501976496 0.001428800283592131 0.4686175294662371 -0.08030126050044548
76924000.0 0.7784135200182485 -0.625920264612674 0.012243030186127699 -0.4721162609271805 0.0018428359158937382 -0.00247531299141989 0.46728453358212985 -0.07942105924710016
77923000.0 0.7716068772171693 -0.6323649822382389 0.002111945721876702 -0.4975696134055192 0.0012828755655323607 0.003870531278811738 0.46487758243261473 -0.09522882199002314
78922000.0 0.7667247575741628 -0.6432641893093703 -0.012348423827544515 -0.525848959038178 -0.0002814443817954979 0.0025638000972298424 0.4631600742972772 -0.1156652113383308
79921000.0 0.7573037398173109 -0.6460275591425761 -0.03273326536394314 -0.5510423567685642 0.0027372113831357174 0.00013555201846177553 0.4597884422844148 -0.11981842498827688
80920000.0 0.7534742902965429 -0.6575562066759928 -0.04719795751083252 -0.5802885019436932 -0.002433213682947455 -0.0002224176820377415 0.4742247135314919 -0.1381387557819107
81919000.0 0.7482773479551998 -0.6618500115359467 -0.06586663752336058 -0.6102171549328699 -0.0021591158469368744 0.001099641222402136 0.46214750521585507 -0.14006346578519746
82918000.0 0.7372185666891178 -0.6706268571104522 -0.07393479340413409 -0.6366309538298369 0.0037833045363978154 0.001199421053575729 0.4772484434120408 -0.1418590830852366
83917000.0 0.728937934069005 -0.6793052524014598 -0.09705852637905237 -0.670353908843774 -0.0012156997785059969 0.0024416274905358663 0.4732874415589743 -0.15421121857556436
84916000.0 0.7249175212203588 -0.6868061035930961 -0.11240418365054591 -0.7054062644057354 -0.0033157219234048905 0.003739052589353642 0.4625080573346574 -0.17497553371977828
85915000.0 0.7197413277981932 -0.6907753475163209 -0.13168715828619867 -0.7389077406513656 -0.002584756324877084 0.0020693170015751356 0.4568307151435988 -0.18266501599755783
86914000.0 0.7115325390413193 -0.702649581603386 -0.15402176950275082 -0.7774409506845144 -0.004157999574069892 0.002586864740131303 0.4610560421173456 -0.18260881430283837
87913000.0 0.7059408534878993 -0.7092500538045636 -0.17021304363593168 -0.8100626016760634 0.0010928128538826214 0.004355468361736648 0.46274756570770914 -0.18851657741851086
88912000.0 0.7003158545933003 -0.7149764289808829 -0.18592287803408186 -0.8439134527008819 0.0005966718652140567 -0.0023645519470559275 0.4530390136542373 -0.2120604619140395
89911000.0 0.6890234114849206 -0.7245258281460238 -0.20076736978152154 -0.8797979292701307 -0.0021758407144523554 -0.0006436506260825537 0.4681897188755522 -0.2200909699265996
90910000.0 0.6835015149577414 -0.7294255085993855 -0.21791585622264728 -0.9181312231531779 -0.0015117531440963043 0.005308741670698899 0.4654797627191368 -0.21302744489838887
91909000.0 0.6752665632905481 -0.7332036815365647 -0.2439526840898305 -0.9466507989070561 -0.0028061770944836683 0.0015045188252046557 0.46356484634408845 -0.23897460175085897
92908000.0 0.6672002638479272 -0.7422571019978564 -0.2637388461307569 -0.9858786965025753 -0.004049329794061286 0.0017755304200794712 0.45858128687752914 -0.2434314861531871
93907000.0 0.6615133428158788 -0.748859896790155 -0.2876311721112934 -1.0195817703249128 -0.001059945206773601 0.0033702099020591677 0.4642597279537326 -0.25270775724208827
94906000.0 0.6479927656002697 -0.7563919364130701 -0.3039621918616161 -1.0536913187944001 0.00036887242342142066 -0.002689872055931324 0.44740212669802415 -0.24995582351904735
95905000.0 0.6430243773173211 -0.7612823289954074 -0.3258637368210645 -1.0959549881660342 -0.0025601274482883905 0.000951621036610885 0.46029527403875764 -0.27064024864492164
96904000.0 0.6349906244543955 -0.7708151831613185 -0.34527637504007475 -1.1392428300582742 -0.0007578452657702146 0.00494249605542692 0.4522458193639959 -0.2780139982676915
97903000.0 0.6273983235837038 -0.7739475316094484 -0.37116760385115977 -1.1692670082728704 -0.0032819701008768914 0.0009498501506291018 0.4512686779010482 -0.29417705246235654
98902000.0 0.6212367040505717 -0.7839075830947053 -0.39678623623632464 -1.2109770731658844 -0.006179412324913062 -0.0009020313962837154 0.4444869891109518 -0.300633842863841
99901000.0 0.6111506918147825 -0.7878882551163665 -0.42900898539581356 -1.244491116615002 -0.0011636375573406922 0.0019966336099222584 0.4573632463807766 -0.32134141972213465
100900000.0 0.6025437571970863 -0.7921823237663277 -0.4599742809000658 -1.2778375779317444 0.0002847574525038823 -0.0006913429388751282 0.4581871482903511 -0.3177076108099329
101899000.0 0.5923465373259512 -0.801044422892985 -0.49556450472182134 -1.317971473268225 -0.0008332090297128028 0.002406920596136285 0.4517951190138884 -0.32632696435971453
102898000.0 0.5825876138780954 -0.8077570902788951 -0.532093379159648 -1.3606118571052759 -0.00030247858882390577 0.0005614101631099124 0.44518613224837106 -0.3350079485306817
103897000.0 0.5759022899149112 -0.8139751350936721 -0.5733369510566934 -1.3986235774421276 0.0005355062320112204 0.002065112066954514 0.4573947222311574 -0.33067760039059546
104896000.0 0.5686255486494174 -0.8243705860182963 -0.6199466830487463 -1.4345848164001518 -0.0035211073556568728 0.001543769508682907 0.43301693640120453 -0.33616220043264117
105895000.0 0.5581228942259222 -0.8260950982579911 -0.6709545868312815 -1.4831304995040269 -0.0021004483180249167 -0.005731142743825728 0.45058948397956655 -0.3615063404146987
106894000.0 0.5513475582906925 -0.8330307734747207 -0.7257060718253432 -1.5211729297107643 0.0010556289690933278 -0.0005103919455780607 0.4225400727484576 -0.36731658638799336
107893000.0 0.5438785769197775 -0.8392503336863905 -0.7774916892785664 -1.559436165300382 -4.4761452748445173e-05 -0.0004491054106871668 0.4340954355045894 -0.38523149537399043
108892000.0 0.5314257284492946 -0.8415954593176799 -0.8361704800046644 -1.595171611317343 -0.0011686377368473801 -0.002841554614030185 0.42110828412603246 -0.37548316250589553
109891000.0 0.519831783006596 -0.8512936143899961 -0.9008183978180526 -1.6334926371895642 -0.0019491935657656304 -0.0027705897565821376 0.4304260659017654 -0.38496029359185746
110890000.0 0.5113349077461872 -0.8527314223653296 -0.9603434594355235 -1.642294488336185 0.002001990334383425 0.0012003096968430038 0.42035339576495195 -0.39149698650037357
111889000.0 0.5009813350367519 -0.856640574916221 -1.0303652160551147 -1.702208366576694 -0.0012685969632020156 -0.00032402556126118193 0.412483843169584 -0.4095522523256953
