! Created with skrf 1.9.0 (http://scikit-rf.org).
# Hz S RI R 50.0 
!freq ReS11 ImS11 ReS21 ImS21 ReS12 ImS12 ReS22 ImS22
1000000.0 0.9674302159583764 0.014101101321852666 0.0010472410856317718 -0.03306432283490265 -0.005629111398794717 0.01565206632767889 0.4027344223239308 0.2749116391232093
1999000.0 0.9986093711239892 -0.01053391065847519 0.00806036333367766 -0.01901900482679114 -0.007076507845814201 0.0011227793796779726 0.25963961834914806 -0.042261015232821365
2998000.0 0.9987710835055824 -0.02247817906158958 0.009288973240406215 -0.014755007547860396 -0.00046780075282400375 0.0012619619603404437 0.20455727940332297 -0.13284352286848936
3997000.0 0.9978369726887494 -0.03117686553779904 0.01118430915166049 -0.007035669252671239 -0.007719265079296232 0.0015395462116018946 0.08610905514603134 -0.19532183629360986
4996000.0 0.998015265066044 -0.043183175721155355 0.00978982073440079 -0.0040269364689297475 -0.002652093371634928 -0.001411050779430025 -0.050470500513368086 -0.20577250903113883
5995000.0 0.9979739382251755 -0.0495710647149485 0.007479281342135284 6.044038750306123e-05 -0.0031520186694804927 -0.0016954713691615152 -0.13116190750516826 -0.1253447913142213
6994000.0 0.9947913950310275 -0.05903752051214719 0.0054607811248776165 0.003948627214992617 0.004759891849684962 -0.004856086514931821 -0.15149171198850223 -0.018345488039370524
7993000.0 0.9963236967611437 -0.0695080984425452 0.00418773347703537 0.004875681295964416 0.00043955130998266567 -9.988234605535926e-05 -0.15311608066609936 0.04485961875063764
8992000.0 0.9948967436769011 -0.07320027401935551 0.001753119732101446 0.0018918058173387022 -0.005170063732939814 0.0008150675603313157 -0.15287623494822056 0.06600124787810056
9991000.0 0.9937084798472126 -0.08100220083153306 0.005483808645743507 0.0027516080402864 0.0003330526833334325 0.001948866572504234 -0.15451808959655575 0.10051165024727615
10990000.0 0.9933119759813849 -0.09244349490340895 0.005533789130508252 0.003881314873025472 0.0013927225201225335 -0.0035620507753320336 -0.14979611584973446 0.10701057929631506
11989000.0 0.9914167083090489 -0.09932700006871344 0.0037300851375566845 -0.0045150035805499355 0.0015805182012495064 0.001627854317719809 -0.1335452001132768 0.13244723148373033
12988000.0 0.9896440823968902 -0.10970670113906986 0.0011078651546517508 -0.004380212974674685 0.0016428618729410103 0.0024106116450471147 -0.11428402716089059 0.1686869035251072
13987000.0 0.9882115222611633 -0.11983843133266793 0.0007312586406221656 -5.014728667059135e-05 -0.0034965302983703344 0.001156215455690791 -0.10221214203588738 0.18101634212281933
14986000.0 0.9886631846662749 -0.12718687215093855 -0.00019445180744589248 -0.003074478104260465 -0.0010274752633942358 -0.0017071969240872436 -0.09758454253980339 0.19665765099936314
15985000.0 0.9896354754873411 -0.1322105447343151 -0.0015820523070574127 -0.005604086338256604 0.0001732244553689569 0.006479654447742034 -0.06458105007195747 0.22067535515343192
16984000.0 0.9846116786446674 -0.14449665008411183 -0.0005298594939738733 -0.007593126204560725 -0.0025146720336743367 -0.0026831254025028676 -0.06922261539005897 0.2194884935321211
17983000.0 0.9845476489773987 -0.15345509832546167 -0.0005001087170418763 -0.004308767501565584 -0.0035386246712578923 0.000654124431583145 -0.05117567762692672 0.2267058052354083
18982000.0 0.983062160775773 -0.16478929240963475 -0.004551906121824412 -0.0031010056657635177 0.000609589896989102 0.0031349952466563353 -0.017024973870636482 0.23483884615240758
19981000.0 0.9823741287033809 -0.1679913814285518 -0.0007817943273634945 -0.0017999514634431842 0.000977322986535185 0.001971148234123945 -0.020330276565981024 0.2372729231257556
20980000.0 0.9810349174745314 -0.18098135621311734 -0.006836793454699408 -0.004259841097632554 -0.0024404914439095635 -0.0018114997524714743 -0.007657741644486549 0.25365222350496336
21979000.0 0.9785837457082409 -0.18608401168727273 -0.0010199898279856503 -0.0009143481208543078 -0.00032291719346228996 -0.00028639253874784864 0.01332599773862455 0.24204305933672252
22978000.0 0.974396732137414 -0.19806473404402097 -0.00519467156758771 -0.002001267615161911 0.00032274601044732687 -0.000638087176386843 0.028100912157625675 0.24951799321561843
23977000.0 0.9782655407428149 -0.20319760431699926 -0.00933445289707097 -0.00360487481126091 -0.001012887212446508 0.0032040489285888474 0.024974986115930638 0.26264488860916196
24976000.0 0.9733107634635941 -0.214689793515937 -0.002025425833962257 -0.0035932602334952436 0.0019968544536817234 -0.006093535572499062 0.06254190790083058 0.26112102533065784
25975000.0 0.9688114960740244 -0.2204220784762964 -0.003970699789154751 -0.004426947894611638 -0.026944469664599978 0.006789618289679592 0.07804521724126924 0.2631809159379211
26974000.0 0.9703095994156775 -0.23022660656793636 -0.0027912532302783975 -0.0004258450358010669 0.002535007563287499 0.0008726187881997384 0.08147365079353562 0.27312200837900824
27973000.0 0.9670532437109094 -0.2390538055777578 -0.001350997509514715 0.0017576766969738882 -0.00319900127441694 -0.0012436888660669091 0.10419346026284196 0.267141256835135
28972000.0 0.9643240422091859 -0.24969573422534927 -0.0007565947015713667 0.0006337411078753963 0.0023539999977383857 0.0016201787766933877 0.11114263116423871 0.2590364306229724
29971000.0 0.9643098651894382 -0.25765086669236625 0.0030386526637216165 0.0005916638653674285 0.0024738544075053304 0.000394473772626837 0.1490720204855957 0.27310818165947015
30970000.0 0.9596973753697436 -0.26505023756530655 0.0032331012651530184 -0.0014935496276541843 -0.0012066578851236812 -0.004695951482252435 0.15676673213787315 0.2500376518363031
31969000.0 0.9605760617770781 -0.2724434253947764 0.004648403480201492 -0.00405131517797007 -9.09143223909551e-05 0.0002485119916318596 0.14150315782130699 0.24968676057932723
32968000.0 0.9582052113210058 -0.2804071568955873 0.006739377690000863 -0.009009490732040219 0.0001876379959760383 0.0007885683232029399 0.17150751395949212 0.24458325781098472
33967000.0 0.9559740549684788 -0.2890392878055234 0.012668818055472755 -0.011515217090325632 -0.0027364369097789124 0.0011192198804969634 0.18350424020275258 0.2532118557801164
34966000.0 0.9519886649547903 -0.298759545391601 0.01228481518560892 -0.012546652362500223 0.0034581163508815627 -0.0019573455213031713 0.1837194358934251 0.2583150567795104
35965000.0 0.9475970298292028 -0.3075622085609236 0.016621122758384798 -0.015921978077509804 0.002008927771586337 0.0023723564658476503 0.20198242530187094 0.24987792901569786
36964000.0 0.9478551034524566 -0.31589505056447603 0.016084545733147992 -0.013168379899147455 0.0011443910920793323 0.00334035000258498 0.20507685525824812 0.263523877266155
37963000.0 0.9431428583897219 -0.3250861993202186 0.023481079169703246 -0.021717581219512644 -0.000877143227671181 0.00014066376509457877 0.22811479077539282 0.24511791125598872
38962000.0 0.941655825030524 -0.33386724572962073 0.024373147635004384 -0.02530353889996971 0.0013865482063865637 0.0011528184847434586 0.23379805326094566 0.23563751415339623
39961000.0 0.9375639265245733 -0.3420241346817861 0.02822100565372514 -0.028694487857120112 0.003924612869323286 -0.002142541080059387 0.24521201665456016 0.236090926136952
40960000.0 0.9342190424026775 -0.3503008957642331 0.0229898369592473 -0.024263392309551993 0.00026194547974173573 0.00013623158924372825 0.2707037418536745 0.23650903312858712
41959000.0 0.9293988082046656 -0.3608245481903184 0.02970712599300806 -0.03258131568085527 -0.0019803379051871726 0.002649301355580162 0.27134773550611974 0.22368648637926447
42958000.0 0.9246867876864855 -0.3703438756278393 0.03541590534751857 -0.042747059329801926 -0.0011900608418019122 0.0005912186401144034 0.28341207051108497 0.2076747102625156
43957000.0 0.9250148907865723 -0.37348691581781795 0.03578532552637023 -0.04840752212674921 -0.0003298465629958766 -0.0015569615741706047 0.2853292117737121 0.21466607303109675
44956000.0 0.919929146158266 -0.38401536219990395 0.0359097198814406 -0.05415317492055724 -0.0018626247429138266 -0.0007583737693315882 0.2980440091978163 0.20226098304243453
45955000.0 0.9166096563423276 -0.39433177549495074 0.03840007586571224 -0.05829005832110262 -0.0012570259844520346 -0.002258592498396378 0.30438431141869565 0.20013364403859363
46954000.0 0.9139645154182917 -0.40274380511338376 0.03723141735555815 -0.06349675460585559 -0.0006512776568281454 -0.0026963538480363515 0.3238509939939314 0.1753102686699858
47953000.0 0.9101844732159204 -0.40942485860247624 0.03796396809350669 -0.07533321880906992 0.0071320222573881846 0.0008023228331136654 0.3317953088418222 0.17937135010519334
48952000.0 0.9028515989323264 -0.4221379379223592 0.03891960307867058 -0.07921671805830342 -0.0017197974866512342 0.0014106409945510933 0.3371073619498581 0.17350288567977012
49951000.0 0.901259338302335 -0.42472521190981494 0.0400493990298801 -0.08757159350654435 -0.0011684934390332696 0.002608974406435641 0.350076824297674 0.16147684476622481
50950000.0 0.896771986584599 -0.43622223850591546 0.04283792487633889 -0.09499903083826249 0.002925530252595661 -0.0013726691479185977 0.35235154755723014 0.16130328162819552
51949000.0 0.8917250214929586 -0.44409812325248843 0.04302391776375752 -0.10634492337209817 0.0008953648968704615 -0.002689810115461898 0.3546079242352729 0.15561611784950483
52948000.0 0.8921059283954114 -0.4512900225284859 0.0448852573041757 -0.11297753609624321 0.0004599246595085057 0.003991800393448047 0.37724347553335336 0.15270994005799426
53947000.0 0.8851074352195546 -0.45874461691017354 0.04461367477455799 -0.1234258799626317 -0.0006321718638861163 -0.0013995133865064506 0.37679669663501575 0.13451609490666872
54946000.0 0.8786909250875194 -0.4706557815748569 0.048603318569428476 -0.13335460365161245 0.0030163092006909027 0.0022101497983456706 0.38549134291368564 0.12511849120974575
55945000.0 0.8749080915629824 -0.47755613510415706 0.04919083257032777 -0.1446904443598401 0.0021836972363145227 0.004080660703380313 0.39510303490740545 0.12166362379921761
56944000.0 0.8719199541895278 -0.4855889435480711 0.051486436934226894 -0.15460551286683757 -0.003655436097438453 0.002668420416078384 0.4008256515792307 0.11168415660282847
57943000.0 0.8658356860528726 -0.49702588228114575 0.052269296461175174 -0.1616880637994462 0.003092395238909998 0.001972266206769962 0.3979905938945988 0.1060851181112343
58942000.0 0.8620087013409544 -0.4993043795907275 0.05431703477336596 -0.17671992444452592 -0.0004182200929163655 0.0024216830070934196 0.4248720652155996 0.09280951755526627
59941000.0 0.8582974522967205 -0.510837010827288 0.05723894080957885 -0.18602625579244864 0.0008781280856427319 0.0009311108278574743 0.41293851736658593 0.0924743428637686
60940000.0 0.8503426952887727 -0.5176972507721338 0.054697782215093804 -0.19155624224626605 0.002371949712002991 -0.001588137193767884 0.4026348564257706 0.08900967176660671
61939000.0 0.8471259937207081 -0.5229572979581633 0.05410092001558442 -0.20139624870256975 0.00032251047804839777 0.0012680144802162134 0.4170998377198476 0.08323126781664919
62938000.0 0.8419843707064264 -0.5334031379886167 0.06088492753290505 -0.2182684036694338 0.0003421749684271104 9.509842809908034e-05 0.444805898177486 0.06219790406701828
63937000.0 0.8351516636984496 -0.5445911067458884 0.059473031874056066 -0.23842628632547525 0.0021998597293101086 -0.0017780120776472968 0.4347795120751811 0.05051277352974623
64936000.0 0.8302491846913372 -0.5474174647966301 0.060905623443482215 -0.25115330486967663 0.0006131926912469315 0.002161128239554827 0.4443292600566007 0.05874318285081071
65935000.0 0.8260962427163402 -0.5608072732462959 0.059383063600019784 -0.2656193430549929 0.000556377091258287 0.0037838684236569282 0.44040940871842876 0.027786558568704496
66934000.0 0.8233338410778704 -0.5642285972236429 0.058450628735004444 -0.2793082480543184 -0.002617736911578347 0.0021478901164306 0.43965134305399783 0.019192445163487764
67933000.0 0.8185071364437878 -0.5715241720527579 0.0620071549501446 -0.2941568126514814 0.0010886842283810197 -0.0003306034847039934 0.4540890842958364 0.02144383879218361
68932000.0 0.8005059497358026 -0.5717301874902013 0.05578468785083455 -0.3064782912204141 0.0012698728152154117 -0.0005364998179877467 0.45282393872030646 0.0010992317263388805
69931000.0 0.803489089095777 -0.5899898981889762 0.05366196206929392 -0.326561593809244 0.004219603065071061 0.00015982041724357316 0.45410563720028574 -0.005431568816878332
70930000.0 0.798578624211171 -0.5950507944058167 0.053234495750769495 -0.33851054146274573 -0.001043607319712616 9.664854767273878e-05 0.44741952934737506 -0.01673203971377599
71929000.0 0.7944468266645716 -0.6029140079485565 0.05172711070399799 -0.36038858871599466 0.0005818551342232437 -0.0011896343017495131 0.45015949165512725 -0.02167357372002728
72928000.0 0.78702099170798 -0.6153415536342295 0.04186745833112847 -0.37534001310530596 0.004088212202589103 -0.0008763164870647792 0.466549586672645 -0.03811267863577823
73927000.0 0.7800116193654348 -0.6188921892219292 0.03322411970885112 -0.398081322576999 0.0022124838485720684 -0.0008911446001114125 0.46544732698436847 -0.031029910298071693
74926000.0 0.7760486435819648 -0.6297570598211603 0.026115138854162324 -0.41518809318392247 -0.0026140013530739116 0.0004933312938865324 0.46111331365335234 -0.05455007708395207
75925000.0 0.7663345723302463 -0.6359057617795413 0.019327104697308226 -0.43631929070444425 0.0013827454637524376 0.0019256090311826168 0.47960807069453876 -0.06745509715434679
76924000.0 0.7621924249453259 -0.6433586466357344 0.0075537553933927625 -0.46272860614781186 -0.0003619572458165 -0.0031105246075060927 0.47605630082248696 -0.06856145436183317
77923000.0 0.7581258247018948 -0.6470280040315658 -0.006090560617801575 -0.4860791735224323 0.0026994232805139734 -0.0019919439099079016 0.4682845965716796 -0.07954037655618268
78922000.0 0.750536106737162 -0.6603703968598407 -0.01890726005775522 -0.5150856113753796 0.0013737492161545119 0.0007419770948377479 0.46793248890936595 -0.08519753283450228
79921000.0 0.7422041041821649 -0.6627206086399835 -0.03762044392248615 -0.5380362867025931 0.0026983771364374365 -0.003301719390976722 0.4607432465846091 -0.10711329194677044
80920000.0 0.7369219805981087 -0.6734622903892695 -0.0536182516033668 -0.5682721360290315 0.0011708679698059588 -0.00033240793131854155 0.46861911504966813 -0.11621512801725022
81919000.0 0.731311347350814 -0.6792133311154435 -0.0688996653443808 -0.5976868587248948 0.0006988899357660655 0.004496831965349039 0.4682868787050421 -0.11631641804014253
82918000.0 0.7225343475122371 -0.6857631970156067 -0.08111958951625142 -0.6271243902366698 0.0011357735559839334 -0.0005801010519070028 0.47743706929280194 -0.12638524528243095
83917000.0 0.713761765614996 -0.6948379189099885 -0.10556250612061534 -0.658596699841819 -0.0018465352868086693 -0.0011308639153494223 0.4752340205459126 -0.13432371706354435
84916000.0 0.7063130291218112 -0.7037604797079555 -0.11807397613810403 -0.6978280340964659 -0.004486823571363429 -0.0017378714151390863 0.47059294438548854 -0.15054807742577264
85915000.0 0.701587799630038 -0.7071909401875011 -0.1384285430480018 -0.7264121334990263 -0.0009770131186601601 -0.0013808386557690032 0.4672440275361346 -0.15596065241531898
86914000.0 0.6933711392374592 -0.7192948305233036 -0.1532065242162661 -0.7640748824863769 0.0020471292765703846 0.00382716031839645 0.46502956304985754 -0.15756396673941217
87913000.0 0.6856241120813896 -0.7252954418653172 -0.17587587500184731 -0.7949643599566805 0.0002225693226553102 0.002125576189700514 0.46365935755450666 -0.17602216733168047
88912000.0 0.6783069248175461 -0.731685851243253 -0.19257504685189633 -0.8296777154172517 -0.0033974910737448547 -0.0006937754566918869 0.47998237713159303 -0.18829515630548005
89911000.0 0.6713042758453175 -0.7401381885160324 -0.20632010506342258 -0.8649335420918871 0.0027255511005010707 -0.005966642343618177 0.47149751202078 -0.19266536676635593
90910000.0 0.6632441760134565 -0.7470139268047357 -0.2261922062958882 -0.8991257549130701 -0.0004321600951754395 0.00010406054565951081 0.46245346337014887 -0.19549859965471467
91909000.0 0.6536854074809356 -0.7508128640183804 -0.24542283569882056 -0.9320922920089779 -0.001130135108493054 -0.00020486106847003225 0.4800880060666943 -0.20820906597913966
92908000.0 0.6454284973206826 -0.7574403853415566 -0.25813671022478574 -0.9674705014605485 0.0003007774982375452 0.0015305578192573986 0.46259309765197887 -0.21819827022629382
93907000.0 0.6391970922854792 -0.7645838900073612 -0.27843809974417383 -0.9991894030607279 0.0014917142949432375 -0.0011322552625455094 0.47095276715260853 -0.23539440651659688
94906000.0 0.6241199531145036 -0.7734160443599226 -0.2977445080238566 -1.0340944133717345 0.00013400390272217378 0.0018544034825313035 0.46647117571525887 -0.22739126451080774
95905000.0 0.6191535052905837 -0.7790483916935989 -0.32181000653139535 -1.074790584836071 -0.0015434630560912579 -0.0025728525223730632 0.47368840696527714 -0.2539553723229694
96904000.0 0.6121623545725564 -0.7889945691854817 -0.34546440554789465 -1.113125996787174 -0.002303158622252348 0.0026054466115513985 0.4709204317269711 -0.25671977929657686
97903000.0 0.6009502237596377 -0.7921796510945237 -0.3660761223373202 -1.1467765970229211 -0.00025646579862314124 0.0014271504777598732 0.4578928319822664 -0.27096640134758404
98902000.0 0.595737027904609 -0.8000337903009992 -0.38479985580080384 -1.1879892064647224 -0.003927104964277961 0.0013195882047227442 0.45609169937027516 -0.269410170139389
99901000.0 0.5876955714912331 -0.8052514551359675 -0.4152359795939649 -1.2179495327802545 -0.0002137625965269164 -0.0012007062401562137 0.4727924727660168 -0.29419391684362756
100900000.0 0.5794681984261136 -0.8069422012962231 -0.4477113065326731 -1.246252329166051 -0.002297879144448443 0.0015909736332224025 0.467361280568824 -0.3005322275132387
101899000.0 0.5703213019374133 -0.8151105035002395 -0.4771677634797915 -1.28998140427554 0.00019582890467886792 -0.0004523888667256025 0.4637910871506844 -0.3063808391799106
102898000.0 0.5572141651498104 -0.8233268274709623 -0.5183468253100865 -1.3275153535518731 -0.0025029582346704476 -0.0018159925010845712 0.46289803501327087 -0.3145337595344141
103897000.0 0.5499075020983268 -0.8299483366216109 -0.5607590469841639 -1.3645372732503178 0.0017200477021860898 0.0008986796933687511 0.47110104366088484 -0.3173981387069324
104896000.0 0.5440674713712857 -0.839165918091086 -0.6059219633112668 -1.399693319329995 -0.0032254760173296235 0.0017618929382432489 0.45088373148159067 -0.32138574630377886
105895000.0 0.5326756224124581 -0.8408452271824465 -0.6556763343423647 -1.4437538490658162 -0.0053805565300102335 0.001280866782364285 0.4447614596161107 -0.34972644108809786
106894000.0 0.5199615305230438 -0.8485225106655296 -0.7164114724655356 -1.481081285400556 -0.0017292822788134436 0.003732137703285047 0.44584986244072533 -0.3534987310678587
107893000.0 0.512607618923163 -0.8536234687137679 -0.7708356538879193 -1.5208297796664108 -0.00252854636128636 -0.0013001591144708039 0.44483768369512955 -0.3676764573504155
108892000.0 0.5028761198952157 -0.8588641851323947 -0.8338133799105404 -1.5595100425076334 -0.001716047229104275 0.0016103058798823098 0.44922922885107647 -0.35820567061657077
109891000.0 0.49044419033436926 -0.866464262928521 -0.8894844269609494 -1.5942482263104298 0.001261379239479814 -0.00123827443614464 0.44460021453715887 -0.36477053780906193
110890000.0 0.4720583128521867 -0.8779870240112589 -0.976361799651954 -1.5933889451983774 -0.0016626367880361458 -0.00295931243691315 0.4330261568841541 -0.3711084488638598
111889000.0 0.46797754037299716 -0.8721525956204224 -1.0261856584258298 -1.6631337612294288 -0.0011870825812799084 -0.0010373940851083692 0.43412575530818404 -0.39266440426284976
