! Created with skrf 1.9.0 (http://scikit-rf.org).
# Hz S RI R 50.0 
!freq ReS11 ImS11 ReS21 ImS21 ReS12 ImS12 ReS22 ImS22
1000000.0 0.9854994990058588 0.002476853587897185 -0.01695516193074558 -0.06023074889458204 -0.024406495175326115 -0.003949171934682375 0.3211120320075034 0.3606840096164676
1999000.0 0.9941419709118662 -0.011469610174731608 0.0026816722399456714 -0.019601514705083502 -0.007465603425589494 0.0028509035156992625 0.2393926926460462 -0.03951114207518763
2998000.0 1.003032871493573 -0.02241870044845742 0.007810199625878788 -0.01610849060467252 -0.0005258304784181297 -0.004684972217676702 0.18621051822912224 -0.1329574896041653
3997000.0 0.9992160908947059 -0.03047894146313218 0.01164744159473236 -0.0070417002289005805 -0.0069235206702378815 -0.001836238155275288 0.11334980957161502 -0.1956259079546434
4996000.0 0.9980212869386766 -0.0391809358299132 0.011312459781246679 -0.0013419443662374077 0.0004824353681445092 -0.004042646998120448 -0.008258311717470518 -0.2268469735439349
5995000.0 0.9964569941926855 -0.05113384454662441 0.011541992301033498 0.005009597509359756 0.002947479633068652 -0.002341667396076028 -0.12496529191625232 -0.1346248523723827
6994000.0 0.9954650486797638 -0.055626764619160385 0.004280866610324778 0.0071619334536426995 -0.0001730346629847701 0.0017994723071750082 -0.1630264305402386 -0.048139284136750074
7993000.0 0.9976987086698573 -0.06762380236949944 0.0009551724361841138 0.0030428370746279046 0.005095746959803761 -0.002023379304147081 -0.17078192833776903 0.001490347212574387
8992000.0 0.9953735969827265 -0.07151654105812817 -4.9437116991693346e-05 0.004082907429942878 -0.0029926636157078935 -0.003780565023011528 -0.1784628889517052 0.04786674692781348
9991000.0 0.9932671552363778 -0.08484484585779709 0.004429640930439227 0.007437188027546264 -0.0026739426450427544 0.003580302404256065 -0.16522277240562402 0.07816685607397399
10990000.0 0.9905562578196796 -0.09488915951926444 0.0054877903931470386 0.0012355568086021252 0.002859781779044511 0.002787217996685048 -0.15127064737243426 0.09939178846124389
11989000.0 0.990480269222571 -0.10246815078736997 0.001135140981137554 -0.0020441638573857213 -0.00216903589393084 0.00048321369075766274 -0.15486434804773597 0.12981754493422565
12988000.0 0.9894981079531939 -0.11240579959258867 0.003229003724932103 -0.003395118121034172 0.0010636509653617072 -0.0015411765378064606 -0.13193879004958994 0.16631561751456247
13987000.0 0.9872482870799316 -0.12009133049367442 0.0009555009620022799 -0.0043937747362163115 -0.005250856961646904 -0.0029127645464617014 -0.10753439853992755 0.18921970818774672
14986000.0 0.987455745683113 -0.12694013524259112 -0.001189092782444342 0.0015126044109544216 -0.0024769851347191947 0.0042263607216706115 -0.10162634481387398 0.2069226438696635
15985000.0 0.9897689027107927 -0.1327646992037927 -0.0019212985243348215 -0.007019040694609829 -0.0005606340266427254 0.0024158160737039486 -0.08439173035787868 0.2201183927049557
16984000.0 0.9865551289396325 -0.14268295607711942 -0.000870049917103242 -0.007212227932771442 -0.0013235928353445864 -0.0006387109768811544 -0.07083594986859254 0.21705782328085813
17983000.0 0.9871524990748702 -0.15071369175771168 -0.0020193466018144264 -0.004982913244873979 0.0007566351667345649 -0.000446588594509037 -0.06587411141508577 0.23078802847956145
18982000.0 0.984052350230172 -0.1622981166140721 0.0030659817978480556 -0.006738693374777072 0.002746527512561347 -0.0027107535460169697 -0.04568459659964231 0.23677584018209702
19981000.0 0.9832930595463161 -0.1662590156744737 -0.0038786013739511606 -0.005341775849704306 0.00019266478563791857 -0.0012331360775259537 -0.02392853014388612 0.23819406691425613
20980000.0 0.9824113930952494 -0.1756966764815187 -0.002616744094515755 -0.008266673997831106 -0.0012559280412053676 0.0017062915181803044 -0.021884358736714946 0.26397532562141635
21979000.0 0.9790798241407768 -0.1879976624361746 -0.006137126475603053 0.00024342431182619763 -0.0030212131308305166 -0.003019462825818074 -0.0032690319549113136 0.25172922617124804
22978000.0 0.9771186745651341 -0.19325974919282976 -0.011325610091985629 -0.0035895071536930067 0.0024761487957867343 -0.0014962222808205692 0.02322067953505777 0.26265991996589455
23977000.0 0.9759295928942929 -0.2018371953163729 -0.005960147906603789 -0.0014373531408482974 0.0013740186796408049 -0.004499345841119367 0.02460470038611477 0.25935123505599417
24976000.0 0.9738759668723522 -0.2135123258489804 -0.003175849729361331 -0.002996363906990531 0.0012301688460302058 -0.0030484085667043894 0.05288455615884028 0.2509137923588149
25975000.0 0.9761580325954294 -0.22478900544381747 -0.005473880253154798 -0.0025125519715464514 0.021073231047150136 0.01639676627245225 0.06184965547551249 0.2578540193318701
26974000.0 0.9700847937159718 -0.22716190684408416 -0.008006666694138602 -0.0017315800699568183 0.0017464605418923299 -0.00015573171463176592 0.07823430839662814 0.26884099421463103
27973000.0 0.9670922221166184 -0.2388991618456236 0.00026267267648473757 0.001413514554528656 0.0016059007910340492 0.0003408382827092865 0.08833799982489111 0.255046704210479
28972000.0 0.9659138628174674 -0.24543980478121086 -0.0015278910960843041 -0.003879087550572467 -0.0025903825248617084 -0.001614674108602439 0.09823199006419711 0.2533885974645021
29971000.0 0.9635762366339609 -0.2554807159735017 0.003163981801107732 -0.00269046057381614 -0.000903896716896945 0.0022668480546386258 0.13637922435642688 0.27191913732751394
30970000.0 0.9624415803345758 -0.2607943587945954 0.0031173730279391615 0.0008476645206108508 0.0032199836158408636 -0.003976815046770015 0.16098079867770626 0.24849723656831235
31969000.0 0.9600801023426563 -0.2685867457037199 0.003744637175373077 -0.004141202698554364 0.0002452793350977024 -0.0007102011649342945 0.13535849172144204 0.251871791361987
32968000.0 0.9591963237085271 -0.2770689008785476 0.007615030206590069 -0.009795551059681164 0.0009109987571244662 -0.002834765503141076 0.16181050234905833 0.25388070099860954
33967000.0 0.9557322378053031 -0.2889646925000831 0.007222247770492006 -0.010358572511872631 0.003025003083850323 -0.0004619173330153732 0.16913078644819313 0.25668087223518565
34966000.0 0.9515286448196938 -0.29701195233962757 0.014319132513062513 -0.013863300383507386 0.002959154533411209 -0.001595442429983573 0.1859243378046148 0.2494523867212248
35965000.0 0.9491528666312641 -0.3039613863151926 0.014383953033854074 -0.01163682722909815 -0.00012473997126668482 -0.0008539918899968469 0.19586476882119513 0.2519871715774829
36964000.0 0.9458496892222057 -0.31452689934289746 0.01931210131425471 -0.013269238319058166 -0.0004469678226962809 -0.00023311627466812788 0.19929953211732182 0.25805883954210246
37963000.0 0.9433671558001221 -0.3222042250539061 0.01791238987851359 -0.020195372903220283 -0.0026187951606042033 -0.006016352616560636 0.2189498707746168 0.23013367442592708
38962000.0 0.9407381536101143 -0.3338982967225693 0.021572291946295608 -0.025752767384182033 0.0015203606113068685 -0.0013880420943496652 0.22741635498499013 0.2358353249586265
39961000.0 0.9384135491710053 -0.34133156962443045 0.0265992260701248 -0.029372760480935275 -0.000545441344564895 -0.0018480059908399214 0.23243166351936148 0.23292135712214612
40960000.0 0.9350813223126176 -0.3472434820930212 0.022360169374927272 -0.0237220109437325 0.00015920211479405696 0.0009562861332645683 0.2506441168530264 0.22631295874511126
41959000.0 0.932585017986525 -0.3579055586004119 0.028902287490045402 -0.031643878112721346 0.0037434929494422403 -0.0015105015756285184 0.25069805463870437 0.22275667775707467
42958000.0 0.9265766537867887 -0.3678378191394647 0.029389505939370876 -0.0417011309032463 -0.0005802011686504653 -0.001777759735324387 0.26664357652529325 0.20475145292720168
43957000.0 0.9260684611702353 -0.37170678816883657 0.03254588152144861 -0.046927488154511636 -0.00016502966561153575 0.0005355971882199762 0.27753008071647 0.2120629603266672
44956000.0 0.9216010470695737 -0.38140008757899535 0.033380267113789434 -0.05350963973408967 -0.001949074480846232 0.0001631782837573398 0.29523729772807533 0.2030973536096022
45955000.0 0.9181580572142708 -0.3916737838208167 0.033756975057111976 -0.05803184815248882 0.0003917271482841853 -0.0008430562154839616 0.29583360208905607 0.18476806682977995
46954000.0 0.9127557826494325 -0.4000002435424534 0.034603452147702315 -0.06531026046917647 -0.0018896956791936035 0.0015061317581596325 0.3240207468592857 0.18491575277880115
47953000.0 0.9107578690168989 -0.40629436882363645 0.0364531520727453 -0.07224135494217496 -0.001193528434434051 7.583129895632321e-05 0.3265531381471542 0.17242129957243
48952000.0 0.9051383720795326 -0.41774612536110195 0.033387277777261776 -0.08215839294846242 -0.001213488139108827 -0.0001722360274222442 0.3200706480783278 0.17133461875441064
49951000.0 0.9020848260642743 -0.42445991404912176 0.038841555911146214 -0.08857125594983568 -0.0009140773956732492 -0.0021255638359784 0.34222126697539357 0.16149465365069024
50950000.0 0.8980509499765857 -0.43099585920070255 0.03657515777232781 -0.0952131640933087 0.00034498461516042943 -0.0019546939690722968 0.3434854141104141 0.14998963598661516
51949000.0 0.8938775726689717 -0.44010324197332057 0.03904303348209388 -0.1044832307078801 -0.0018622795364944943 -0.0005024511982420301 0.3489249141595761 0.14962298106819158
52948000.0 0.8930894996642424 -0.4473704658495832 0.0411752738488273 -0.11248937247506574 -0.0023594244244932363 -0.00024347160226350758 0.37022529340392285 0.1494286059393556
53947000.0 0.8864187928720562 -0.4554643806218514 0.042091489697339085 -0.12076246346567628 -0.0031813585163626493 0.00023922132624588715 0.3608823267999688 0.12424724868358471
54946000.0 0.8802348938196568 -0.46646882354375807 0.0428001429974562 -0.13200871818439608 0.0018118427810016344 0.000504950374691676 0.3771368208243118 0.12774713585255412
55945000.0 0.8782976250159348 -0.4740031868957932 0.044984876815970014 -0.14419460612776747 -0.00014214289858589598 -0.0020942804420462893 0.3749866340611038 0.11562666554270182
56944000.0 0.872581023484103 -0.4833271494841101 0.04770019528167647 -0.15160277313311235 -5.4378306025001286e-05 0.0015868079894496188 0.3898042701589202 0.10249217142670713
57943000.0 0.8695309672039058 -0.4917552928250394 0.04646925072678656 -0.16275183977163224 -0.002961426046245176 -0.003930140809795581 0.391220806352612 0.09585986508764804
58942000.0 0.8617903640450447 -0.49707579128751517 0.04926077197599757 -0.17493777611064673 0.0001349670608860615 0.0011927740022635378 0.40940402306591206 0.08878179923523821
59941000.0 0.85956526024757 -0.506914009935144 0.053321305814338464 -0.17945840738874227 -0.0005783425176757341 0.0006598615383650522 0.40437787828894306 0.09358903460247227
60940000.0 0.8524266843969991 -0.5131933980439917 0.05088257448600177 -0.18591345448276864 -0.00028237030699450376 -0.0026707085087975865 0.40196539238510876 0.08119917926048006
61939000.0 0.8495184740169711 -0.5206525532798978 0.05399425206347781 -0.19463080619243095 -0.00026118060949513775 -0.0004661797870454578 0.41398726510794326 0.07836563069232286
62938000.0 0.8418265137030307 -0.5314333884699015 0.05048778741839981 -0.21221214012832645 -0.002069938191402451 -0.0008318557108985602 0.42952500160846285 0.05796432101163638
63937000.0 0.8382563751894955 -0.5394682275205535 0.056054134774346544 -0.23308700359166187 -2.871415875255629e-05 -0.002172967527623948 0.42564928044703726 0.04108109375271599
64936000.0 0.8323224685773113 -0.5425763699898574 0.055663681327293504 -0.2458539739628048 0.001698695516664851 0.0022569299452270854 0.4210228845998567 0.034900295435078436
65935000.0 0.8276728386242341 -0.5561713056727238 0.051972701620911464 -0.26006733218517414 -0.00037470632626432034 -0.0009109643599897291 0.4314928454464591 0.025727500776376734
66934000.0 0.8252246142071589 -0.5589195013520694 0.05133732113739001 -0.2714316454064936 0.005223867874733551 -0.003587701077002761 0.4226132554345531 0.014723220000025534
67933000.0 0.8210605909190233 -0.5684258289079624 0.05527126543357444 -0.288348556208231 -0.003153739726880645 -0.0035665969572261443 0.4306580462123575 0.009435237801187192
68932000.0 0.8043018422200584 -0.5694691166713258 0.043768351573848396 -0.2960360220647954 0.003913490058060821 0.0008699670900948553 0.4417703629358528 -0.007954297990701938
69931000.0 0.805685397972816 -0.5877666932239227 0.04942385484347976 -0.31350970747881257 -0.0015824306640636776 0.0012337773139148682 0.44125659635866 -0.018480653106982138
70930000.0 0.8007461513149065 -0.5925868958172842 0.04421909699073077 -0.32845362791049265 -0.0009026349265906935 -0.00342480452566254 0.4373425632235081 -0.023785882138188247
71929000.0 0.7960826607460262 -0.6011778570743663 0.04126449080090162 -0.3470037668474253 0.002918705023906927 -0.0016421869163772032 0.443047083208992 -0.030724448536051698
72928000.0 0.7902391506081802 -0.6108202045774697 0.03853951932228759 -0.3642438758180183 0.004392730943404082 -0.001101628164064573 0.4454882824600856 -0.046868636897215224
73927000.0 0.7826114790956565 -0.6151245911298855 0.026742522054608576 -0.3847585128052499 -0.0003512406872164007 0.0011869184331253562 0.4538396383067373 -0.045451514007895114
74926000.0 0.7802086444397972 -0.6243500305200714 0.02164423120623567 -0.401650333492182 0.0005791562768547177 -0.003785883122204882 0.45103546285171287 -0.04863223278219026
75925000.0 0.7704775954645976 -0.6305743803161464 0.009536678918742403 -0.42387116801528363 -0.0004900774742915737 0.0028179053121034766 0.46604591934198386 -0.07337480219179537
76924000.0 0.7652377520505435 -0.6384782458507344 -0.001582450520771055 -0.44344035452294966 0.0012254679716532167 -0.0028361653768426746 0.4535396581573778 -0.07145699422372105
77923000.0 0.7599132462118828 -0.6437087882588822 -0.016976560339551108 -0.4688705238325796 -0.0033400973584903427 -0.0001917571741313333 0.4471218989420203 -0.08369825943519861
78922000.0 0.7546835914385708 -0.6544381740343241 -0.03202862450961995 -0.49469228969078527 0.0029961632962415556 0.0012258086922725482 0.4521310417671963 -0.09993417961093073
79921000.0 0.7459701769099222 -0.6585049916970861 -0.04939869614237862 -0.5168678400036831 0.004192588052807944 0.00012824175059663454 0.4548293369736003 -0.11101056511051165
80920000.0 0.7412805341236689 -0.6675026705889109 -0.06282543881043606 -0.5498970270025799 -0.004316305598389488 0.00034215821781825823 0.45834378684934995 -0.13161364224349115
81919000.0 0.7328661082651513 -0.6769275044598878 -0.08095695678910211 -0.5733027573468031 0.0005433951072306086 0.00022237931414552793 0.46522596065404603 -0.12797142493353758
82918000.0 0.7265008333668754 -0.6833256330749164 -0.09486207134521725 -0.6043383017136138 -0.000635478432856027 0.0018236599667700796 0.46853802796576216 -0.1376963513494625
83917000.0 0.7196050906593406 -0.6899134505705496 -0.11474006310030353 -0.6301005934957834 -0.0002847340602526807 -0.0008518331202958846 0.4698556310427257 -0.14711381711600713
84916000.0 0.7111085554699766 -0.6983337539875923 -0.1302765297934262 -0.6690715909003927 -0.003737273073612949 0.0003523748712786191 0.4581816764869198 -0.15394010899254146
85915000.0 0.704594442295337 -0.7047890232690369 -0.14923675134192382 -0.6982432930991237 -0.00235352612465399 -0.00030284810725388723 0.46032028183417684 -0.17082114401064055
86914000.0 0.6972490200679582 -0.7149774940452827 -0.16881011394384796 -0.7372410920419895 -0.0010082221038805398 -0.0006685146614455797 0.45490161491189746 -0.1703891998177929
87913000.0 0.691270164052555 -0.7199442157311589 -0.18471169260719844 -0.7633812794823985 0.0013889267907573576 0.0022310522676119594 0.45321458930797714 -0.17880028274978094
88912000.0 0.6840901605472036 -0.727128986477297 -0.19877954693368835 -0.798494750536807 0.0011747245177457888 -0.0034985968111704334 0.45463513216141344 -0.19645391738922935
89911000.0 0.6754085430006276 -0.7366939743650477 -0.21802353210158076 -0.8325084001251585 0.003995424187449408 0.0007843791408038889 0.46018062901182366 -0.20806553621222879
90910000.0 0.6687907532563176 -0.7411317379358726 -0.23535507658248467 -0.8680394208720321 -0.0009715979204425834 0.00022610622104808926 0.4542299837777831 -0.2137862724808001
91909000.0 0.6604992790341444 -0.7465134762181962 -0.256005999472743 -0.8985874499479514 -0.00018326334844356726 0.0022540482613201836 0.4575834945659996 -0.21575560174829247
92908000.0 0.6499888252630329 -0.7552870284138227 -0.2709688151583706 -0.9334112551392708 0.00011872833132764436 0.0015149439628660043 0.4429364104312007 -0.23840631202911322
93907000.0 0.6452363458569819 -0.7591053827928828 -0.28502039720693356 -0.9629494407937531 0.00016615563393041643 -0.002570661971115063 0.44917083973466654 -0.2409887878907533
94906000.0 0.6315752732829555 -0.7689879091783954 -0.3054684426902337 -0.994609118105401 0.002270375513940621 -0.002036791704347517 0.4502265856331574 -0.24479119000100716
95905000.0 0.6261092145793401 -0.7746623269095004 -0.3289655637231675 -1.0296357388583104 -0.0022953286597862887 0.00031341086247876047 0.4485046529401386 -0.25875138057998043
96904000.0 0.6181129148647171 -0.7828023416210781 -0.34825784871250093 -1.0644259043818602 -0.00038997556470205154 0.001879691898991778 0.4482398684433767 -0.2654102735367723
97903000.0 0.6088128043144325 -0.7873022116003463 -0.36720054836289506 -1.0972918968105019 -0.00020490688859390736 0.002217555656677596 0.43270029543658484 -0.2892908879814436
98902000.0 0.603934180553637 -0.795668268745843 -0.3822078600969556 -1.1347958104152949 -0.0010719691053247627 -0.00041012095456490394 0.44169755700869373 -0.2819494592609671
99901000.0 0.5952673708369156 -0.8003849855050419 -0.41419339097816804 -1.169775881289235 0.0013487890939808227 0.0012388764261855947 0.4508215008742365 -0.307004980778001
100900000.0 0.5858467598156178 -0.8039155138990303 -0.44584167688454973 -1.194773838658084 -0.0022675057865613763 0.0027232991811240053 0.4482443367234989 -0.30719998410857796
101899000.0 0.5758448120761349 -0.8110110078303505 -0.4722965852491885 -1.2378703389280947 -0.0008306825916040794 -0.0024476825645916448 0.4424211465952902 -0.31183316461580657
102898000.0 0.5642253500975198 -0.8199650470455013 -0.5147584673287057 -1.2672661500467857 -0.002064908727232117 0.00034632204590761786 0.44283803290836693 -0.3226025953582024
103897000.0 0.5558156948372198 -0.8247081529835986 -0.5498486727594736 -1.3039949870094 0.000365195257773782 0.0014761811811659642 0.4501411407771107 -0.32513610078378163
104896000.0 0.5495876038880616 -0.8353627022153784 -0.5958662150130587 -1.3348417362331801 -0.0026723578436230744 0.000913291029916658 0.426750245355925 -0.3319240351792227
105895000.0 0.5363771034275361 -0.8381623674591255 -0.6472324330685344 -1.3688732400920784 -0.002487493934504445 -0.0006360108323170256 0.4328107064278684 -0.35728294710832414
106894000.0 0.5263692401968877 -0.8438060014971162 -0.7076544691105879 -1.4096381735125552 -0.0014868783912515995 -0.001789582709384804 0.42684961397177995 -0.3617152667805748
107893000.0 0.5189437111563839 -0.8509440582912837 -0.7553936605347672 -1.4454330223735326 0.0036449630089196855 0.00013598873163667274 0.4275829728319535 -0.37745531019868944
108892000.0 0.5095898916682149 -0.8551086620556343 -0.815026668497302 -1.4787979929098463 -0.002947148080162504 -0.0026048857323488243 0.4095862980537485 -0.37742487431491034
109891000.0 0.4963986822076109 -0.8600020203973636 -0.8753933264814675 -1.5122321682042448 0.0014148802123520885 0.001595810017982877 0.4352344858737241 -0.3774971722268063
110890000.0 0.49380103865577596 -0.8734220110178567 -0.9382143143332936 -1.5379433153988826 0.0006462423959819367 -0.0012708104777206261 0.4096199027242921 -0.3848130567095424
111889000.0 0.4785240018124414 -0.8679355804311784 -0.9932060971315331 -1.5809277089167448 -0.0009215894768710783 -0.0001540914725982667 0.40602976797030504 -0.3945979493256145
