! Created with skrf 1.9.0 (http://scikit-rf.org).
# Hz S RI R 50.0 
!freq ReS11 ImS11 ReS21 ImS21 ReS12 ImS12 ReS22 ImS22
1000000.0 0.9775021383306502 -0.005846934956913969 -0.012452684712432183 -0.042213082875961074 -0.009787907452199726 0.015515205454223706 0.3981441437521623 0.329140574163772
1999000.0 0.994257903021902 -0.011802687201652746 -0.002455252904396157 -0.017726064901482062 -0.0057074301923166915 0.002515015960253901 0.2500192825043931 -0.04376663785623113
2998000.0 1.0003867184625668 -0.020957488134487615 0.010420550301429946 -0.015643829259659167 -0.0051491539411351326 -0.007146473756377513 0.20373730121709901 -0.13060470336390287
3997000.0 0.9996803655629345 -0.031241956792231903 0.014473655738179622 -0.012327304066285547 -0.009179580435754163 -0.001496137315495939 0.07194325789978923 -0.238458515268913
4996000.0 0.9956115747961928 -0.040661017459542356 0.014522050793835773 -0.0009465217878389114 -0.000935176667355647 -0.008138041502600585 -0.0484496089975462 -0.19830144697201504
5995000.0 0.9987535131496124 -0.04784816465191836 0.010591043860753659 0.002273956989037442 0.0015811975590225905 -0.0028706262729657098 -0.11998723464629923 -0.09621093758806182
6994000.0 0.9942845493111074 -0.05946450109273463 0.008830580766056919 0.007152149521377862 -0.003918700620046409 -0.004169837944206931 -0.15129162723912654 -0.020125176748967587
7993000.0 0.9968031308077364 -0.06847127157417816 0.005016933243148494 0.009129836444531277 0.0038665535328667334 0.0004949061597159428 -0.16295887991175778 0.04563960080790919
8992000.0 0.9948330395577979 -0.07266783338866575 0.0010965876099334792 0.008825105175188586 -0.0009795768127492206 0.0021250393892408392 -0.15062694913240118 0.06534993243320938
9991000.0 0.9938778617503834 -0.08102833549966215 0.004683824478314672 0.00518073753225738 0.005246429702595181 0.0006350847186218869 -0.14435222296988434 0.1079923640988232
10990000.0 0.9943527892354201 -0.09281353378004853 -0.002696798539109988 -0.0014120987662179423 8.538580470838391e-05 -0.008361577518817803 -0.13565370030780902 0.11920052616410355
11989000.0 0.9909071980958778 -0.09769131692620868 0.002057810832021407 -0.0014315834577890898 -0.0028314731882536043 0.0031336760269372087 -0.13403935154189292 0.14117245442446924
12988000.0 0.98666739986998 -0.11145708427826766 -0.0009149142319989552 0.0003752560117183494 4.779560390237421e-05 -0.0034807741196244846 -0.10486041285347064 0.16557465299133103
13987000.0 0.989924356534086 -0.11674731878966642 -0.0027484924426910244 -0.0031159853770148416 0.0014495734008837862 0.0033447377788176783 -0.09534779999258604 0.18739230750482747
14986000.0 0.9885849215570744 -0.12622130087664635 -0.000765731981745911 -0.0030116888295971876 -0.0008251110736158428 0.002480860772659464 -0.08042887194279247 0.2158062243803452
15985000.0 0.9909457338989622 -0.13193917249038398 -0.0018044610098651437 -0.0058499370926084725 0.004159386070991358 -0.0030533534953134838 -0.05994433438532651 0.22441771455511297
16984000.0 0.9849398311366375 -0.146098304523126 -0.004718426057515067 -0.00432924018574424 0.00011170074583900669 -0.0016937585187180076 -0.061860741891038566 0.2220790957062152
17983000.0 0.9848398673508054 -0.1508369171968452 -0.0014355374376171031 -0.002469163141005414 0.002227132922657289 0.0017381429237309576 -0.03902692971070139 0.22340186507886628
18982000.0 0.9816179111631232 -0.1610713369155008 -0.0021199284375307387 -0.007179786697775113 0.0015067545053879573 0.00012892191993967494 -0.007767754765427024 0.24057409098887664
19981000.0 0.9823152943486646 -0.166388399669858 -0.009213947790200036 -0.004605009272951343 0.0013722550088815177 -0.001952495522427538 -0.009367119301929341 0.23851412055310986
20980000.0 0.9813417708443094 -0.17562304061869255 -0.008222276304349591 -0.009698071198301817 0.0030615286727766213 0.0018682100439636389 0.0029298863047071276 0.2585948216534631
21979000.0 0.9785472000677489 -0.18486355832226406 -0.0029979034140046232 -0.0034810424978157658 0.003309702050601413 -0.0017912720578529668 0.019092193851185983 0.23988146311367778
22978000.0 0.9765300453391963 -0.1953027275662767 -0.0034644308183767385 -0.004891730373107402 0.0016291541815202266 -0.0013938837255076768 0.03667664731216025 0.25394533189808666
23977000.0 0.9772045757594873 -0.1999073415153142 -0.00606220452309599 -0.003919178822081805 0.002027382339325869 0.0041513736451432035 0.04616961104839426 0.25101160939725475
24976000.0 0.9738507003344566 -0.21184519070087068 -0.003339136082570269 -0.0016482308528168244 -0.0008814914488199196 -0.001306373466810452 0.06415888951982512 0.24986819389124515
25975000.0 0.9731397884900546 -0.22624064056338766 -0.0041515366399912206 -0.003441868814192431 0.02661002804437795 0.003146090663397852 0.0817221333508411 0.26628476310122845
26974000.0 0.970931334591148 -0.2268687540739184 -0.0041092790150897805 -0.0009487034841992333 -0.001297965970907739 0.0012479019974202825 0.09544058678927685 0.267665795727281
27973000.0 0.9694435045133989 -0.233979384300796 -0.0028063606754620382 0.0030250505957124508 -0.002004336718062191 -0.002833864947351529 0.10387727594203994 0.25674315982292756
28972000.0 0.965380055263494 -0.24466580316924808 -0.003250587764186401 -0.002940015123009005 -0.0030326421927038784 0.0012326565590756466 0.12469270210949075 0.25847168786858227
29971000.0 0.9643149391344873 -0.2543847823004557 -0.0009745577715795889 -0.00026049816406037435 0.0005494429272529791 0.0008088433274229797 0.15762096448359228 0.269475959403176
30970000.0 0.9630557796615635 -0.26007007073951804 0.0007967918970253307 -0.0003735650541254827 -0.0002876558182643172 -0.004325003891564456 0.16010344409103386 0.2543382702036585
31969000.0 0.961187251386543 -0.26711176062087305 0.0018323413917681018 -0.003630238349008689 -0.002171582092123317 0.0001232098546923826 0.1462977735957172 0.25493432235369223
32968000.0 0.958493608541128 -0.27689612242645634 0.008715516961716867 -0.005276030155526557 -0.0029293163038851973 0.0015676797333295993 0.16450678315061962 0.24907175289750344
33967000.0 0.9573052339719973 -0.28515966121774583 0.008062920809548152 -0.011445613900139012 -0.0009482904898899808 0.004512397022710349 0.1914324770809261 0.24545201196702524
34966000.0 0.9525273317638182 -0.29712424386929637 0.01358145192291353 -0.011019742246785463 -0.0011570726441942779 -0.001586442910998458 0.19803983213182402 0.25254895856882675
35965000.0 0.9504513297654327 -0.30405719074726867 0.014986426634708594 -0.012068395532236124 0.001956713298452016 0.00028292075639131366 0.2161013672382234 0.2571656397397804
36964000.0 0.9469292898632489 -0.3124022434987997 0.018715604135086217 -0.011556237952670573 -0.0009399938680593804 -0.003105473358976175 0.20946597182264856 0.2584255229449936
37963000.0 0.9440350828516983 -0.32075371533185226 0.01787029127028657 -0.01970143550112833 -0.0022584561317132265 -0.0033147170996824047 0.23563696153724203 0.23751574235299924
38962000.0 0.942556728625485 -0.32932640806322194 0.021734982496907175 -0.02093362088768063 -0.00039054076179216693 -0.001783426645499835 0.239005545412062 0.23770334509905988
39961000.0 0.9385048893350668 -0.33902686292412576 0.023039020786081547 -0.02682339965997044 -0.0012602357473244085 0.0006034924727340761 0.2561462889123396 0.22885525131059645
40960000.0 0.935342884167274 -0.3467046143947977 0.023435106472847186 -0.021916141888259345 9.465984377878075e-07 -0.0014632538749634108 0.2703237548415902 0.2237466965529186
41959000.0 0.9318922838186975 -0.35503325771562905 0.027232326094779477 -0.03110163446054874 0.0034139077071210196 0.0005696177680556514 0.2770010395242462 0.21837490321803696
42958000.0 0.9269193003297843 -0.36410950177816437 0.030562343285084708 -0.03816790712594336 0.00012375676712110556 -0.0014223860956015329 0.27447651187603855 0.21146784509793176
43957000.0 0.9256063770168644 -0.3712803855009234 0.03186725073094597 -0.04604730820689765 -0.0009769785495772143 0.0024773050806339947 0.29311941872541036 0.21031451231685735
44956000.0 0.9219579310417262 -0.3791281589202517 0.032666497527044265 -0.051133610799704056 0.005309500230319215 -0.0001687520096152952 0.30836344871417914 0.19733292733372657
45955000.0 0.9176158735564549 -0.38975866583980423 0.03368967730679432 -0.05928882579461384 -1.977318775254374e-05 0.0024012021667702416 0.3101260273660384 0.18668822742251104
46954000.0 0.9151188784521063 -0.3968472950450329 0.03457862801342293 -0.06418436810648932 -0.0010115878667141473 -0.0019600480376043648 0.3366437016769945 0.18128006691914791
47953000.0 0.9127907792862073 -0.40370423681214734 0.03882519480153075 -0.07317761916920493 -0.0009863426140853497 -0.001726788409892561 0.3389129121186212 0.17437755629746554
48952000.0 0.904835683231778 -0.41476585365177 0.038292612964806926 -0.07752758339312209 0.006094156322563818 0.00359052070957061 0.34367914891284146 0.17218193295042591
49951000.0 0.9037417390384421 -0.41947502795252595 0.0397130150004961 -0.08469611823543256 0.00361216453704038 0.0026724140714993734 0.3647247408031163 0.16108461135409435
50950000.0 0.8992097552312107 -0.4281300353432658 0.038983566614603254 -0.09450146296330439 -0.0003345698436102427 -0.001411653149242978 0.35470745371094675 0.15538201358875664
51949000.0 0.8955785141328367 -0.4378788348306185 0.0413065502722842 -0.10190414257822523 0.0015142024330865012 -0.0008184883574803737 0.3601813176003925 0.1488795763482862
52948000.0 0.8925473272033313 -0.4459426808438384 0.04285705987401303 -0.10987770205644666 -0.0012482425175868502 -0.003232508536181837 0.3802832219346957 0.14429782630367985
53947000.0 0.8877936915215129 -0.4525734610962121 0.04448400222439455 -0.11951242273918665 0.0017254871594066642 0.0011815636375255973 0.37596838524590387 0.12917016596562697
54946000.0 0.8821694451018915 -0.46404507431242176 0.047237774897985176 -0.1305348629115122 -0.002363566505605143 -0.00438651349603321 0.3926772684397137 0.12339378852975161
55945000.0 0.8787980275039963 -0.470114144552241 0.04986473123225451 -0.13958284443879562 0.0015176278061304605 -0.0008532370528666963 0.3912572761993227 0.10471014492439058
56944000.0 0.8751928715005497 -0.4796656417428941 0.046600672937549395 -0.14762695235561682 0.0022199581014703744 0.0022701207541045145 0.40434555562990837 0.11250547267111344
57943000.0 0.8696408721579231 -0.49032970876891274 0.051556937540264004 -0.16297511041002338 0.0033289910395926975 -0.003101920206212844 0.40884544702665 0.1014417212843845
58942000.0 0.8655904525459255 -0.49356981576200526 0.05202430749008529 -0.1723696071866124 0.0005416044281556744 -0.0036814005879890555 0.4208214799005515 0.08874858133125134
59941000.0 0.8626652985090333 -0.5048028835112973 0.056241364881111 -0.17963761915331028 0.0010406142919234275 -0.002007906786272885 0.42170156360512595 0.09019498903620929
60940000.0 0.8545182294699007 -0.5110675419322049 0.05302734501810188 -0.18672192068777352 0.0003464441694684641 -0.0008758325732389188 0.4182250370907422 0.0791572479671781
61939000.0 0.8527125209306607 -0.5167253348860279 0.05040774964145284 -0.1916864949679153 0.0015056802183521054 -0.0012034234311177245 0.4184701305990289 0.0714697123895271
62938000.0 0.8456606711177975 -0.527400534279779 0.05586311298837576 -0.21383440064278236 -0.00019798295266274432 0.00017121819957861234 0.4487713591549489 0.052140189056330284
63937000.0 0.8411632091984298 -0.5351502467373052 0.056939296529660226 -0.23001003665863673 0.002810613849682236 0.0013601221242867867 0.4452800334498245 0.04916775460770176
64936000.0 0.8341372150606595 -0.5410253060965329 0.05953543460781543 -0.24480453195165428 0.005492042983659166 -0.001091817114786228 0.4399615981069117 0.05049355435352433
65935000.0 0.8330767608673889 -0.5500162679482301 0.06003324237873085 -0.2600314047369982 0.003460502492920746 0.001868517851530807 0.45037983058372866 0.01719662771964089
66934000.0 0.8251827348694105 -0.5570301374059039 0.05569668034968942 -0.2723626778163163 0.005281783503841001 5.125825839878892e-05 0.44560567096650683 0.017030300274652528
67933000.0 0.8242615855831145 -0.5652707697705676 0.05934376698956345 -0.28827896140621917 -0.0013919020440160397 0.002427342030671403 0.4493257540857721 0.018045781860290287
68932000.0 0.8072774219884176 -0.5696222670618963 0.049697439612698784 -0.29882231369123385 -0.0021754410750600456 -0.0026801157841857496 0.4610677769818038 -0.007189395945252557
69931000.0 0.809066205497589 -0.5814883695240456 0.05160803400733408 -0.32027470827853055 0.0007643762720866206 0.0007642011192447709 0.45324164587479576 -0.013993508699257681
70930000.0 0.8048043496786688 -0.5867962853105796 0.05236011279437687 -0.3339203376453134 0.0038880251306890154 -0.0029567416636613127 0.4557256010474119 -0.0254561906021918
71929000.0 0.7987750725795576 -0.5982696121536866 0.04401385531291405 -0.35168048288970183 0.0022159529678276793 -0.0008612407868161489 0.4559933651303856 -0.030783031996164046
72928000.0 0.7922647104239825 -0.607620217478651 0.040888040915984775 -0.3663985428857664 0.00042328112351843204 -0.001439808231535705 0.472964532992405 -0.050218996354828835
73927000.0 0.7864912865648916 -0.612074663425551 0.034868750024021886 -0.38964009734508176 -0.0006395683581031504 0.002007292923589938 0.46884531200516805 -0.04796329964688258
74926000.0 0.7812952572944363 -0.6233146322855099 0.028152677679272778 -0.4057699220274256 -0.002733162050769841 0.0033963651438312105 0.47825601468541323 -0.04998281394555316
75925000.0 0.7741936224881668 -0.627481900217568 0.01700044756698875 -0.42648614039094174 0.0010641247298817423 0.0005768285928203534 0.4825191509737301 -0.06752073264857728
76924000.0 0.7687507688141786 -0.6344354490195274 0.006718827614339421 -0.45325231639423397 -0.0008343914858564218 0.0005112794451249852 0.4720479735248526 -0.07356045048856091
77923000.0 0.76373372207163 -0.6389558238991285 -0.006406326839857431 -0.474435007277784 -0.0037347065519499054 0.006393928409242822 0.4704673148334134 -0.09046836584927286
78922000.0 0.7571580866317744 -0.6507489918026077 -0.01932557483258127 -0.5036738108711136 -0.0014077915627379953 -0.000704475555681468 0.47078882002843325 -0.10052883863466973
79921000.0 0.7483891926919999 -0.6547495775193877 -0.03484447856041971 -0.5272917323466133 0.000984109236506054 0.0006060127315885957 0.46647754274985725 -0.1099518289800361
80920000.0 0.7436035259085513 -0.6655919688415498 -0.04959374612105676 -0.5579506136305257 0.0013235130511035141 0.0018897280262404606 0.4761314998753767 -0.12550852084390213
81919000.0 0.7371617819709706 -0.6716596157544261 -0.06561681577570047 -0.5876101793259352 0.0018523497545141546 -0.0033592770696016356 0.47607355601995094 -0.13391082446359098
82918000.0 0.7291465983569569 -0.6787385088540937 -0.08015023097561633 -0.6155393656782281 0.002642522847948492 -0.004274910836973116 0.4791224520789699 -0.13727059180259688
83917000.0 0.723324546859172 -0.6865233639083039 -0.10086879578016641 -0.6457633266204106 0.0024328887421923343 -0.0005414264607218618 0.4730094436255559 -0.13821761325186477
84916000.0 0.7148242495425723 -0.6941115245339889 -0.11474838415181599 -0.6847002946512784 -0.0010264191014875666 -0.002103006909665647 0.4809253624089937 -0.1577101906465718
85915000.0 0.7079721019816608 -0.7005221507558977 -0.13764459576633026 -0.7079398867851164 0.0016400336134015717 -0.003210093603201157 0.4811612346982521 -0.1698137331126478
86914000.0 0.7007295358696408 -0.7105989118827285 -0.14931591244129613 -0.7473768442478154 -0.0029907923559088757 0.003812828692616158 0.4691206501521169 -0.16281444636719158
87913000.0 0.694765502220052 -0.7159420837874519 -0.16696890026337224 -0.7767985731306669 -0.001900260719604023 0.0012676171803939868 0.46769600400195394 -0.18334197323472948
88912000.0 0.689288703246209 -0.7226915999934962 -0.18182111128350736 -0.8098785794312815 0.0034125523360970453 0.0032387588953021185 0.4778260383127948 -0.18916036778167755
89911000.0 0.6796229137483178 -0.7339051243868289 -0.19949791793764768 -0.8466267200623564 0.0023283058467549055 -0.001254710569401136 0.47946300062725716 -0.20025677613880327
90910000.0 0.6736530327383753 -0.7340768868929122 -0.21327277758409433 -0.8806386435443118 -0.00028303620204108446 -0.002707902864666707 0.46524719503976986 -0.209446398633699
91909000.0 0.6654233499856047 -0.742157993091724 -0.23589499893196827 -0.9171440286802759 -0.0005106665990518838 -0.0007389458413366858 0.4840021147104387 -0.21059514928132445
92908000.0 0.6556097149447542 -0.7491888959795507 -0.2563712649925166 -0.9475796952141475 -0.0009581049021779449 0.0003859420930186168 0.46072258289201956 -0.21761581376201997
93907000.0 0.6519266941260552 -0.7557599559085364 -0.2745589686380245 -0.9777876555885866 0.0040196155902872685 0.003362356778231533 0.4691646515903094 -0.23471333990027834
94906000.0 0.635937983795143 -0.7641113127231977 -0.29368386739724395 -1.0100946166496474 -0.002585515866804624 -0.0010727476106832084 0.46263260307593757 -0.2386975267177731
95905000.0 0.632173005057114 -0.7689839766172362 -0.3087646340040261 -1.0532314453211886 0.0026121305216863797 -0.0015526950694113898 0.470199923570143 -0.26127551573699304
96904000.0 0.6234377007772116 -0.7797020861499757 -0.33572738282121967 -1.0875005663630772 -0.001461356598025406 0.0019916644560536824 0.4706792429530219 -0.2667789680300344
97903000.0 0.613706360961169 -0.7832873142983994 -0.35797205075909816 -1.1237457467378134 0.0019086737873673057 -0.0006410868547848605 0.45991765147419117 -0.2661659256393733
98902000.0 0.6076881027596304 -0.7904636618374059 -0.37659488306870287 -1.1618549177339095 -0.0019229373840467447 0.001981087003550188 0.4579941145073318 -0.28095359998698183
99901000.0 0.5976514175099229 -0.7961131402994048 -0.4060464656578146 -1.193863559318148 0.0012615686690147353 0.0004919010972638591 0.46416907425903847 -0.2989415992455837
100900000.0 0.5929092054717908 -0.7995391630957235 -0.4412096203626673 -1.2242161842911699 0.0013587361597121445 0.00150576596996037 0.4703015628246345 -0.3033016361606155
101899000.0 0.5828311608912194 -0.8068762842320956 -0.4649276268924563 -1.2651581475930782 0.0016778096944358313 0.00034723090538882383 0.46082903887664645 -0.306558903837462
102898000.0 0.5714803619452354 -0.8119289138902142 -0.503179026241928 -1.3026404572218786 0.001282553139618099 -0.004395482512307921 0.4658605927424355 -0.3227341388367005
103897000.0 0.5633159721254647 -0.8211197525600895 -0.5476031680429992 -1.3390260237849267 -0.0006277781168768135 -0.00016830058473933405 0.4688625058515181 -0.3217725916414187
104896000.0 0.5559446809992471 -0.8312992849832397 -0.5988621805078741 -1.3744155952281516 0.0004215842550560097 -0.0017411053848718832 0.45362272094558875 -0.33196041763276624
105895000.0 0.5432184306812239 -0.8334436537140517 -0.6470321020823381 -1.4175462042148435 0.0010975973079036198 0.005558056955167222 0.4520583451688389 -0.353566619499368
106894000.0 0.5347368467541915 -0.8397740806766926 -0.7053444225172247 -1.4581690950547685 -0.0007854094612974222 -0.0015784413161788729 0.45220288055184216 -0.3664044726536732
107893000.0 0.5272163967497295 -0.8478628181069339 -0.7538932865932427 -1.4973738529217204 0.0031497492790289743 0.0010544485710481354 0.4493785554788763 -0.37681007374500813
108892000.0 0.5179972676503402 -0.8486780924778146 -0.8149294157140572 -1.5335507431868518 0.0006590507323284282 -0.00127874126484538 0.4383839309686298 -0.36303705125164787
109891000.0 0.5061876860501746 -0.8579029601861564 -0.8720168808381197 -1.5682612866590047 0.0004212452496012184 -0.00020256058608823 0.4587547171790323 -0.36240370279977274
110890000.0 0.49912969337310653 -0.8713749152937951 -0.9483086624734496 -1.5881552854421437 0.001632068298585811 0.0019311395096033883 0.43207956304265616 -0.38714984497203064
111889000.0 0.48819402934530515 -0.8644258725354045 -0.9913690224052012 -1.6384845369778 -0.002361863186795295 0.00319055319966008 0.4249367212601012 -0.39701375194533883
