! Created with skrf 1.9.0 (http://scikit-rf.org).
# Hz S RI R 50.0 
!freq ReS11 ImS11 ReS21 ImS21 ReS12 ImS12 ReS22 ImS22
1000000.0 0.9899450162825504 0.01140090276386186 0.01065498419374495 -0.056149539492421886 -0.006243589779485205 0.004661005701617184 0.3543123402775673 0.3221605505846942
1999000.0 0.9962748903013144 -0.00893523422824794 0.00029342714916038025 -0.021053283658140756 -0.01099617620007406 -0.0036063425940729486 0.25886138550754634 -0.036511591063023784
2998000.0 0.9938730136438012 -0.02437884306111966 0.005706263665246749 -0.02282665078465925 -0.0003246551510815599 -0.0024547986589250467 0.18505957719388805 -0.1266115387901884
3997000.0 0.9967957833071033 -0.03347032459161872 0.0074183343858884 -0.004156160526296569 -0.00591252390938086 0.00259903414165718 0.09988536274683188 -0.2223349873296909
4996000.0 0.9924412161639468 -0.04376785625531915 0.012006952958877373 -0.0046084858825546915 -0.0005401527199513232 0.0014071838027937883 -0.04212936795687856 -0.19730732708595475
5995000.0 0.9949825039054017 -0.04988946948953518 0.011078981626670911 -0.00016330682200490777 -0.004237136506019158 -0.0017155387089365733 -0.12221968929074693 -0.1026897443841072
6994000.0 0.9936570548411531 -0.05992796412273442 0.0020831632690374185 0.003280353570734919 -0.002476554358092393 -0.002292571518887377 -0.13406453251892242 -0.01623214027455393
7993000.0 0.990949220825333 -0.06958501174042789 0.005181245794211286 0.00027225509593733853 -0.002004073962705038 -0.0010426306514810147 -0.16338566279877695 0.02593256506893141
8992000.0 0.9903568833648829 -0.07276305915528657 -7.221545531042748e-05 -0.00042959210297591324 -0.0042332166740948985 -0.004205367058113349 -0.16349131904309253 0.063345889569172
9991000.0 0.9904702892546995 -0.08229879603689207 -0.000825755251409463 0.0007327337979857996 0.005088074161431495 -0.0029510809365846254 -0.1366432580914912 0.08037233720249849
10990000.0 0.9878468496982346 -0.09312761456342383 0.00492997334641532 0.0012723521150351939 0.0003972055984986435 4.6964453196267595e-05 -0.1333647054296245 0.12595824415523377
11989000.0 0.9877909836724316 -0.09937382804566852 0.00402884769074353 0.0020898986710820517 -0.0009918235486678602 -0.0009253769226060765 -0.12505116062149527 0.13127082036849236
12988000.0 0.9839343550632702 -0.11235989992086377 0.0046867587742260375 -0.0031095234187758177 -0.003750038631730939 0.0035180252322894938 -0.10941688297715119 0.16558897123167474
13987000.0 0.9859763568658295 -0.11888099065278097 3.9926488777073066e-05 -0.006666975334674051 0.002398581007987768 0.0025111854392139946 -0.10356270088917927 0.19280243937652444
14986000.0 0.9823333858693069 -0.1265474535166293 -0.0016979804828407856 -0.003059237983484085 -0.0019184464211646922 -0.0016902885054393478 -0.07989894335546854 0.20311716479925976
15985000.0 0.9849164334005956 -0.13530186092382485 -0.006848213730389526 -0.0030311148433875535 0.006583790141975728 0.0011297581449244878 -0.08296356386254701 0.2116558586742051
16984000.0 0.9828342805417346 -0.14382769718316077 -0.0025231552802136644 -0.0011713045954532513 -0.0026039420697194834 0.00010492801660669068 -0.064105886414294 0.22031894959872977
17983000.0 0.9798261662114366 -0.15043493599692317 -0.004474364346723572 -0.0022251444685837674 0.0002126584270262553 -0.000707391397516056 -0.06116426326784791 0.22974829284491186
18982000.0 0.979856902383685 -0.16101908676007806 0.0001403817719182794 -0.002337741685550731 0.002300483353176119 0.0023591617337858713 -0.035861641133959114 0.22948178439610223
19981000.0 0.9793031877773265 -0.16835837302066803 -0.0022899056163047664 -0.010515523718033062 0.0006954597275530618 -0.0031150788004921832 -0.020943390885281472 0.2434019873146403
20980000.0 0.9789546751106911 -0.17647247334618854 -0.008524800448389935 -0.006258204155700801 0.001816638848852787 0.006142317175434594 0.000945591891742325 0.25022630309040333
21979000.0 0.9740177801366621 -0.18674072349557028 -0.0065195445894995745 -0.007130144289004734 0.0014660248639969452 -0.0035698979093445713 0.010016939764565648 0.24315853003751087
22978000.0 0.9716164043979125 -0.19669940673492656 -0.006075250910501942 -0.0042869284598702284 0.0010122431607522638 0.0002044407797364961 0.019632046884360592 0.2603270281856463
23977000.0 0.974243133163752 -0.19952646522022072 -0.005610545967789062 -0.00282818245617674 0.0015618581307618909 0.0005728037671392986 0.030821263177396897 0.2511920605841467
24976000.0 0.9699730409286941 -0.2122089014828125 -0.006746529082602466 -0.003971268789190569 -0.004346420851566234 -0.002801777962842568 0.07084627165062883 0.25264655986544776
25975000.0 0.971465619479616 -0.21770784083970454 -0.0043473754919521245 -0.0007563360662285128 -0.013667929561818703 0.019329890134792863 0.08297067074589112 0.2602600209836634
26974000.0 0.9683537176708221 -0.22838509968493503 -0.004751161426058918 -0.0030907788387928683 0.0003167309272119222 -0.00027145978197419237 0.07748795586355346 0.2598924936197619
27973000.0 0.9670096337148649 -0.23500140824182877 -0.00227623587130065 0.004283988822955094 -0.00010478209761364696 0.0005001736503594869 0.10480013808932463 0.2586477297106211
28972000.0 0.9612770235176136 -0.2461052747710163 -0.003542053670772079 -0.0013080425530807636 -0.0014541763262890777 0.0005743919154866318 0.10310737511087437 0.25952437032915704
29971000.0 0.9625104606661321 -0.2572019119490951 -0.0006302446206343158 -0.0036971047975270467 -0.00038110291658988404 -0.0013765829472892955 0.14472465441148524 0.26193122352151177
30970000.0 0.9599906100049979 -0.2610097408818916 0.0031540130719173616 -0.000711264368813319 0.003951879647007211 -0.00021825978734333644 0.16543046385637092 0.24679325393994456
31969000.0 0.9568632332669533 -0.2699139255520397 0.007034110768700339 -0.0017615128401899107 -0.0029874784293143506 -0.002007521152113088 0.14256670964608636 0.2481714116043355
32968000.0 0.956180325148999 -0.2792853400698911 0.010006578460976034 -0.008480598768933152 -0.001926862110116784 -0.0010317714865958909 0.16227852807043722 0.25647655325251917
33967000.0 0.9533808966337018 -0.28819253468283795 0.012506259202977757 -0.011318787918674604 -0.00048518354912754875 -0.0010442002889469986 0.18446475650081662 0.24692502212229203
34966000.0 0.949042622969297 -0.2995055203373669 0.009557826004871272 -0.012425580401502637 0.00044890424586474276 0.0012067302273501754 0.19032692143036214 0.25461090777074097
35965000.0 0.9473160767053913 -0.30659611832589345 0.016337736796181085 -0.014020931098493802 0.004213576504607748 -0.000177017019640909 0.21396204753957654 0.2503626691954533
36964000.0 0.9439559171163739 -0.3146770066750756 0.017482122922141855 -0.015686613814176797 0.001558262764811185 -0.003585602034247945 0.2135410896059072 0.254598526073742
37963000.0 0.9416238500964125 -0.32390218124398107 0.01924401871771692 -0.021377837395119295 0.0010823644176866278 -0.001433610780276811 0.21601035418357822 0.2361958106179809
38962000.0 0.9368503379727927 -0.3354574643114443 0.023602528407623113 -0.023292798823184475 0.0024041450080156588 -0.0028906211133480275 0.2368325862289818 0.23535757904323348
39961000.0 0.936134352621755 -0.34162440420211165 0.02505958646646399 -0.027519929006990816 -0.00331628317052657 0.00040376365045808937 0.2446969747368812 0.23397426819977044
40960000.0 0.9299003836973273 -0.3488769407134317 0.022066639308265173 -0.0238669285063857 2.2927501057491053e-05 -0.0027057692231007542 0.2624920361310526 0.23390993826208872
41959000.0 0.9286971677552066 -0.35884030005067385 0.029718270601236788 -0.02776672770910655 0.00033158614239872745 0.0015209750260912014 0.2624098052599608 0.2201972664213374
42958000.0 0.9233777879440852 -0.3697173800776588 0.031461998246775244 -0.038897565429470156 0.0038648664134656925 -0.004515876412188982 0.2623211716563829 0.21040732723178274
43957000.0 0.9224123933131264 -0.37370530057165396 0.031147707987322356 -0.045255397801549545 0.0003710075377803374 -5.1769377929153086e-05 0.2833049349187748 0.20987921401765536
44956000.0 0.9184364471313554 -0.38301722462669074 0.0346593850960781 -0.05095766232090871 -0.0018365448920638423 0.001311673433875296 0.2886307088880997 0.2019801231501581
45955000.0 0.9146317306583557 -0.3922956664633209 0.03426189793658603 -0.057621530268667474 0.001474283887626411 -0.0013469114447450343 0.3042666316503299 0.19354631912842582
46954000.0 0.9092877814087305 -0.40241413860945385 0.033437134312980045 -0.06271306969289363 -0.00022704957748065257 -0.0002936883309255871 0.31799120034718165 0.1835105617389871
47953000.0 0.9098038247840532 -0.4086225751293091 0.03569206268590564 -0.07048176288853296 -0.00030431716980230006 0.002181739507452601 0.3299590856232379 0.17840010127428957
48952000.0 0.9021485085355307 -0.4204220358581569 0.036688855034493435 -0.07964082466447672 -0.0019057312140411957 -0.0020957569007709525 0.3274859520704773 0.1662098025914628
49951000.0 0.898727963468237 -0.4271709687352772 0.039168066827390983 -0.08636789455379258 -0.0004998946122663012 0.0013810180334199568 0.34257641817287054 0.17378158775269184
50950000.0 0.8957805952933955 -0.43546593611419254 0.03768055405321015 -0.09631480159821287 -0.002237012587025858 0.0017655723124493877 0.34868552674988657 0.14417243747386022
51949000.0 0.8908631228863377 -0.4421756428775808 0.04068824613469814 -0.10311202584801746 -0.0009255738034871527 0.002969979958373343 0.3548595971027492 0.15035112347460025
52948000.0 0.8871638484113225 -0.4511073358270869 0.042016763935045144 -0.1114434784437236 0.0001283328386355668 0.0037091250735735155 0.36727792088804795 0.14858178821831702
53947000.0 0.8832902643456819 -0.4573125795450364 0.04516342137079066 -0.12072480242951077 -0.0003115533133818853 0.004204637230125844 0.36878544513414535 0.13418311233985547
54946000.0 0.876957135622524 -0.4700742327023876 0.044274298646481934 -0.1276885124066066 0.001000276535962875 -0.00296392583295637 0.3778428236430835 0.12261051234874476
55945000.0 0.8749698170130001 -0.4769364101903283 0.04446872604407571 -0.1404649935016798 0.0035373513726441887 -0.004420353932532131 0.3816944345651126 0.10689928405405245
56944000.0 0.8685055514776407 -0.48553153169337926 0.044414125786085085 -0.15000944537017596 -0.003364281513352883 -0.0011693777187295113 0.3951187949275723 0.10109697725621203
57943000.0 0.865138741801198 -0.4941408495759485 0.049802968406437886 -0.16100002309104602 -0.004937337793408678 -0.002186874000663578 0.3876403297406222 0.10196367343334453
58942000.0 0.8581144445691882 -0.5004330319710256 0.04994017434145442 -0.1716073906696187 -0.0012823324451438722 -0.0015279050775265255 0.4167370847148545 0.09463576409188104
59941000.0 0.8562893256259784 -0.507088062671571 0.05247655929873691 -0.17729022401679725 -0.0014494406120435087 0.0007238484335376702 0.40379604944833936 0.08856434969192895
60940000.0 0.8473683828370202 -0.5163175531823154 0.05149303869454605 -0.183533112603944 0.00013890713364193141 -0.0006044106620181287 0.403935030520676 0.08889420331664254
61939000.0 0.8444622547474279 -0.5224519756033948 0.052548651706039944 -0.1889639812563159 -0.0003286297478823291 3.662915845056807e-05 0.41466889056714934 0.07383691386596221
62938000.0 0.837428552893979 -0.5335945774301836 0.05540597667066545 -0.21017882418659517 0.0026380623934628496 -0.00028350393979812647 0.43708296647389633 0.0564267587680598
63937000.0 0.834776848237552 -0.5397411985642553 0.05436801545429853 -0.22863438260638133 0.002075896798392748 0.0006246847561000191 0.43362926141673164 0.04623050246958009
64936000.0 0.8274664279660839 -0.5480646347959789 0.05518003719329421 -0.24167435030012321 0.0022587861790205914 -0.00324932991283827 0.42780411638392757 0.05366393452083969
65935000.0 0.8247486494398489 -0.5571508757896241 0.05638661734425426 -0.25481252840698915 -0.0001549023550279871 4.7360246042682675e-05 0.42798769729435654 0.03421838510466411
66934000.0 0.8200930359716461 -0.561912530889647 0.054846373166991834 -0.26878827935852606 0.000240925366104258 -0.004112764903797529 0.4326360701477561 0.027148882296969747
67933000.0 0.8160840649915905 -0.5716386698149466 0.058766308007505014 -0.2816046514071226 0.004162865821158574 -0.003420663514514362 0.4281666715187792 0.014561330896927622
68932000.0 0.8122915762120985 -0.5680942796859202 0.05600518234356699 -0.2966633682238402 0.0037212398152094723 -0.000928731776456352 0.4350341693155342 0.013545256733747102
69931000.0 0.8015469295128922 -0.587329914325377 0.0537654952675002 -0.31347139209663205 0.0010846655789928017 -0.0020033974015167856 0.44481229687377355 -0.008094313816990646
70930000.0 0.796909586737303 -0.5923478722998682 0.055402080475381366 -0.3232634989340574 0.0010505645757311547 -0.0018663799563443184 0.4393663083440147 -0.0176326149916046
71929000.0 0.7920678269463022 -0.6012224839787368 0.04866633157375564 -0.34489383337375473 -0.0007529521530899621 0.003919621387901922 0.4409552158832681 -0.025667744161504115
72928000.0 0.7847063368994427 -0.6120371538222646 0.044511529905783956 -0.3562299743542176 0.003980121407188577 -0.0004137247884949911 0.45714069398993157 -0.03794204752729836
73927000.0 0.7785397790756953 -0.6177400107802374 0.03876779347473477 -0.37780115352354715 0.0031275314141169155 0.003572957812836844 0.45047177029448837 -0.043359573936556955
74926000.0 0.7728226480667045 -0.6276520995043086 0.029534635059270842 -0.39999329901501873 0.002257609426635482 0.0029771257157981436 0.46605134613824495 -0.04700426399402298
75925000.0 0.7667412555443716 -0.6311659139166506 0.021332359779323726 -0.4195449038156172 0.001968651813550644 0.003934291378012533 0.4655959016933411 -0.059486884252956965
76924000.0 0.7594027771464645 -0.6405148783332335 0.008528101139039802 -0.4419152724319474 -0.0024649830121186386 -0.0006046729457115838 0.4596257529079096 -0.06788867544065963
77923000.0 0.7544087487280241 -0.6472669102986937 -0.0045545889645899 -0.46280079030880406 0.0009657941627111476 0.0005227162278656299 0.4638505663757842 -0.06867157826833652
78922000.0 0.7487239633300776 -0.6557781362757534 -0.018473061649084577 -0.4890161141038188 -0.0019943753662815915 0.00020051895289266035 0.46663847501601335 -0.09433090855456387
79921000.0 0.7389950149399552 -0.6608832577656174 -0.03825145867719126 -0.5150477937117653 0.0006035055199445484 0.0004312129407432717 0.45465572761643175 -0.10639422740719062
80920000.0 0.7333724423892036 -0.671171672240489 -0.05179004744148442 -0.54359522612235 -0.002020989829001847 0.0009744245498093141 0.47891398202896845 -0.12745730355753213
81919000.0 0.7290147276361044 -0.6766642797456184 -0.06547994636850336 -0.5708145659472768 -0.0014987912339003626 0.0017227334063584616 0.46128494200943077 -0.11865882588478677
82918000.0 0.7191054903540598 -0.6839076594684746 -0.08556368737230868 -0.6018749307524396 0.0006873666024270539 0.002931362926774658 0.4636805228447208 -0.13133326365565723
83917000.0 0.7120073843486066 -0.6916343889238417 -0.10149472715433415 -0.6316985164220883 -0.002762642137925335 -0.00041228949185655406 0.4728885658584482 -0.1427121714687999
84916000.0 0.7064127172013998 -0.6983444757117616 -0.11996035475665631 -0.6667684854727742 -0.0007615749499139017 0.0002526473560234468 0.46609961847040443 -0.1620081595468062
85915000.0 0.698815732020421 -0.7034715447839829 -0.135638950391977 -0.6952908191660254 -0.00039469602160800704 -0.0009359383026080359 0.4689271838472714 -0.15765198645455558
86914000.0 0.6909561046980974 -0.7147925585220035 -0.15469401776377398 -0.7292202617461347 -0.00015546795137818677 0.0033875203364688855 0.4679081812915793 -0.1702423903803238
87913000.0 0.683873610119675 -0.7212264867313753 -0.17155151703380772 -0.7610281879249934 0.0015884311113577962 -0.0006286934764816927 0.4688341306248754 -0.17364229912730725
88912000.0 0.6769390258082753 -0.7264853996955088 -0.19247136647827057 -0.7928113855703558 -0.00023531692226218346 0.0022380428875915835 0.46101684031879114 -0.19719663873270832
89911000.0 0.6710501329548203 -0.7351083240654523 -0.20483052578773783 -0.8334056455781416 -0.0007553879708365967 -0.0001929909625872902 0.46343351761052665 -0.20863426616961483
90910000.0 0.6611437470858808 -0.7414847204131997 -0.2163652126678364 -0.8689647308217991 0.003614836885272937 0.0025073805545569364 0.46294835214332386 -0.21108761688166597
91909000.0 0.6531521380608749 -0.7462213383758921 -0.23560416433286965 -0.9003777719651959 -0.0021070239528458603 0.0007269415070243309 0.46727037110762165 -0.2078083078775858
92908000.0 0.6450911669012861 -0.7556701779559235 -0.2533766328699311 -0.9302911071731773 0.0028203481972992606 -0.0018589770218565942 0.46106457166477605 -0.21952609035961218
93907000.0 0.6384542529050179 -0.7596577524072899 -0.266391572733431 -0.9607339057036601 0.0016120257032308698 0.002312820284657461 0.4620477565326532 -0.24834121210170096
94906000.0 0.6252825046184322 -0.7695591539024796 -0.28676285279740094 -0.9934037622404579 0.0045034497768510215 0.0018224847907130752 0.4648509497902368 -0.24716352239785458
95905000.0 0.6188036319078691 -0.7747677158572305 -0.3035450283479139 -1.030187813341948 -0.003292471083214084 -0.002659849687613771 0.4665226482283658 -0.25870874499133656
96904000.0 0.6103429318081584 -0.7844175048638461 -0.3271386267995071 -1.0683319400690652 -0.006323904147284091 -0.0004492711059305646 0.45515142794649305 -0.2685655012995309
97903000.0 0.6027166808077401 -0.7870019081019439 -0.34365490575615315 -1.1038094404609564 -0.0022704339931462077 0.006586547077776501 0.45754413122045834 -0.2732022414086605
98902000.0 0.5965349736267481 -0.7951429556457977 -0.36343867983536127 -1.1418505022092558 -0.0029598625028032385 -0.0034222852492741375 0.45977182413497214 -0.2681918472280622
99901000.0 0.5844902274381844 -0.8008370044904641 -0.39483518881473334 -1.168397864598628 -0.0024826326220047674 -0.0027290966730143026 0.4666154638828176 -0.29756487312588314
100900000.0 0.5786674204650331 -0.8052237858467326 -0.4215872852188466 -1.2017047347709018 0.0032438485939930224 -0.000501990646002985 0.4630299087512348 -0.297880078539709
101899000.0 0.571248280884017 -0.8117577561145045 -0.44522362257763715 -1.237053914905428 0.0034096225087101996 0.0007138275472393635 0.4503225669097363 -0.3102428344568591
102898000.0 0.5582887846218031 -0.8195738024256936 -0.48383799290755525 -1.2731732987304551 9.824477594824105e-05 0.000836110610754271 0.46057699007055397 -0.3193512775026098
103897000.0 0.5520505403694425 -0.8259062401397671 -0.5205565299816434 -1.3094578928737917 0.0025746351529671004 0.0029449304712346053 0.45947869517911 -0.3109379817608369
104896000.0 0.542022703281513 -0.8349486203236706 -0.5644120087839972 -1.3392052136881085 0.0024251575069950885 -0.005199739868345854 0.4311522295356549 -0.3166721111930035
105895000.0 0.5335260248888332 -0.8369510074110192 -0.6045845918225211 -1.3862132280117643 0.002654721617533683 -9.699911388948577e-05 0.4316848796208434 -0.34321947769282835
106894000.0 0.5208698049386709 -0.8438661749188381 -0.6606795188978326 -1.4184099157288517 -0.006296800254440995 -0.0017183428901988154 0.4375043410960744 -0.3555429525543851
107893000.0 0.5166256021484438 -0.8493101113437646 -0.7102424656892316 -1.4609386572531649 0.000639261523146275 0.0011506402587401958 0.4446052492974346 -0.3703420350084041
108892000.0 0.5054265973758122 -0.8549962626123627 -0.7698369874646872 -1.4965572859467475 -5.2159524168219734e-05 0.0016629784357214455 0.4369881222713159 -0.35310552054986266
109891000.0 0.49112501146454424 -0.8624344407750373 -0.8271748777339062 -1.533651638327915 0.003650774460082295 0.0008864085611250746 0.44844036955670175 -0.359792655284747
110890000.0 0.47340605839335514 -0.8759846846403578 -0.911790289573218 -1.5392182724487087 -0.0017849356325188863 0.0029091737260370687 0.43797441540709786 -0.37945037086002553
111889000.0 0.473145478735452 -0.8678795312537333 -0.9512404525584034 -1.6010621588859328 0.0006556951587034211 -0.0016765787182261667 0.4192474761530541 -0.38750035407118577
