! Created with skrf 1.9.0 (http://scikit-rf.org).
# Hz S RI R 50.0 
!freq ReS11 ImS11 ReS21 ImS21 ReS12 ImS12 ReS22 ImS22
1000000.0 0.9825486214591693 -0.004759352544417214 -0.02064623828993654 -0.04121006179314899 -0.0037628212190547513 -0.007670882517568061 0.38001442263555335 0.3142164284517393
1999000.0 0.9966681443679037 -0.01367315278380702 0.002157401923033717 -0.026327332031654677 -0.0027474679827636356 -0.0013193806358245215 0.2480528630228667 -0.04915194580124909
2998000.0 0.9976712494285501 -0.026334126765202595 0.007469424572985984 -0.019356479257627745 -0.0003274741357587129 -0.005522446399480404 0.19663875224309751 -0.12553763088921868
3997000.0 0.9983382941643296 -0.029623737446454967 0.010287332877242312 -0.00979667231678234 0.0032089675531769726 -0.006146571541506485 0.08782699676459925 -0.21716686166862814
4996000.0 0.9936798006290479 -0.04341798919083598 0.011094925270433832 -0.003522174133740231 -0.001911649366500372 0.00014304634244791548 -0.051245948130506695 -0.18379674057397055
5995000.0 0.9945424716707746 -0.047980093509669246 0.009881178475210728 0.005310456882748618 0.0032346553372315213 -0.0012195101622453316 -0.12244430469142814 -0.09508013477442441
6994000.0 0.9910334368469701 -0.059468917599384316 0.007372418013794639 0.004842220995986894 0.005111324737442043 -0.00036982304845565786 -0.1319507207881075 -0.01073461249251688
7993000.0 0.99103492060672 -0.06544469431811953 -0.0006565697700115157 0.0045425026285020485 -0.001753835573530972 -0.0038326077949507546 -0.16136839443744525 0.03939345997968568
8992000.0 0.9905769059731876 -0.07180971540729489 -0.002673270793094031 0.0051721569232661925 0.0003462371642645686 0.001192527141878972 -0.14651420448882171 0.06514844829808103
9991000.0 0.9898198562566045 -0.0853482868017558 0.0008994623997217791 -0.0004431748742886248 -0.0009465681258335548 -0.0003219199121349152 -0.14664109627438557 0.09515069829426571
10990000.0 0.9874973835128613 -0.09309998513562061 -0.002902847340375171 0.0020235809318326753 0.001148192333020275 0.00011037194368143758 -0.12670372401761618 0.1243573357790676
11989000.0 0.9847397541809266 -0.10039915657359033 0.006063202282857454 -0.004145389104638087 -0.0010148379020075197 0.002408289187832304 -0.11941577516405336 0.14269561689823643
12988000.0 0.9841880028190986 -0.11255832324601282 -0.003882977725105034 -0.0049256144865730345 0.0010504595761847103 0.0014223348876062343 -0.11523878511698132 0.17679040611628846
13987000.0 0.9835024047506741 -0.11645494182146734 -0.0022067702722426467 -0.0022592420732506988 -0.005800390474415183 0.001366375417706865 -0.09717054094090605 0.17985902771476803
14986000.0 0.9852562502609837 -0.1259380335072207 0.0009577366976090407 -0.0029297317107880253 -0.0009563839669326357 0.00023254903257419738 -0.07640856237561225 0.20413881997859243
15985000.0 0.9830751046183566 -0.13481592130237183 -0.0006101518301986815 -0.006141022572413669 0.0018117241781691335 0.006282122348819495 -0.05874852779276781 0.21704698458901103
16984000.0 0.9824034039247648 -0.14379592705649036 -0.003040599166353416 -0.002457947510133386 0.000967692872633504 0.0018753975786628063 -0.06904149835941198 0.2176500217452259
17983000.0 0.9818408170596197 -0.1509123979953218 -0.0007408720635459737 -0.001125789092049719 -0.003530484419979301 -0.0007687124828304927 -0.050311269513784375 0.2317532899182908
18982000.0 0.978512709171331 -0.16133089536781905 -0.003030944196027944 -0.006518855168590917 -0.0012027124117773764 0.0025068393407948275 -0.023142698646077587 0.24158243332704643
19981000.0 0.9792331635032274 -0.16306426151815534 -0.001093585292853851 -0.007536563111429091 0.0017127266050086126 0.0035407484274649717 -0.010860517496454022 0.24795205064485615
20980000.0 0.9760186705854803 -0.17855955107064952 -0.008743567202820218 -0.00459780890005953 -0.006476028327449502 -0.004117056303412863 0.008922483515756079 0.26735026735148604
21979000.0 0.9727859024857332 -0.18656852171526095 -0.0065891372642913025 -0.005742876007483336 -0.004605895643631019 0.001959145783876435 0.020830871462884613 0.24620669169235992
22978000.0 0.9729918002208775 -0.19245900070128183 -0.00123555001487079 -0.0023108356545528705 0.0006041480385487027 -0.0015713838654249177 0.028402335756280737 0.2591021638408824
23977000.0 0.9719242846273107 -0.20082197726765402 -0.00668129686613495 -0.007003281012880698 -0.0008800978738324724 -0.0018562227916003407 0.040061202624198634 0.2628379276613307
24976000.0 0.9692282988704259 -0.21268721546613997 0.00028218015617484377 -0.0030648758278705424 0.0011551614096429732 0.0012005537303143325 0.05919985967707369 0.2636093373046843
25975000.0 0.9729634405611847 -0.22166602742040137 -0.00870298120686455 -0.0023092749591944305 0.015428261986343814 0.02132011477855451 0.07869604812429118 0.2497193654877796
26974000.0 0.9663894174966168 -0.22984526194496532 -0.0017411382048565143 0.00017258106647322224 -0.0011162913762441985 0.0014989906408389728 0.09173063600311124 0.263379480246098
27973000.0 0.9660444172448385 -0.23350703406981244 -0.0017461690510654113 -0.002162505104109889 -0.0008825938556403782 0.0012137245433416312 0.11051299232154325 0.2509335885710371
28972000.0 0.9622285063317142 -0.24518495664424098 0.0031515418689356733 -0.005403217413767971 -0.002154626163708671 -0.0003648632742796351 0.1057146824560927 0.25372968333091717
29971000.0 0.9611127864670944 -0.253064871964596 -0.0023029893533339308 -0.0029366867686102583 -0.002237933333870933 0.0023381991295330965 0.15074936208346587 0.2589488904637903
30970000.0 0.9589032268607712 -0.26042429840166675 0.00014411429074991358 -0.0002025850986786772 0.0026107268491287468 -0.0014722966471938618 0.1649402656150683 0.2534682773619427
31969000.0 0.9570593285882947 -0.26816740941270745 0.005916900362070276 -0.006088507007521025 1.8289533103785936e-05 -0.003223259040764657 0.1579552663177962 0.24190477426349832
32968000.0 0.9547475823556926 -0.27704702907983 0.008342289439323292 -0.006484533015981571 0.0038054526565231717 -0.0007933196694786622 0.16420943963757562 0.25013548539924
33967000.0 0.9526882310446503 -0.2885948981773847 0.016699613345997417 -0.010047614826125893 -0.0002432493349452445 0.0014129119260055441 0.19668484555448343 0.24584999490382137
34966000.0 0.9492759596289401 -0.2971552960920519 0.013478226034476808 -0.014542194443190187 5.687403535689688e-06 -0.0005291282342157071 0.20341218419320176 0.25483827185638924
35965000.0 0.9467613021526314 -0.3042290285101893 0.018644454352402227 -0.017494331523987695 0.0003449993484213601 -0.0002576814183421788 0.21558195000316188 0.25079774850830344
36964000.0 0.9447062759995364 -0.3131171276584659 0.019731682691718634 -0.01685549937448699 0.00015268087601877074 0.001523282229274057 0.21645402889308252 0.2542531773959818
37963000.0 0.940471700242547 -0.3234967830271157 0.024264633556797376 -0.024562926550481375 -0.0007180379211713384 0.0015958519418169542 0.22201075694848002 0.23184607882636904
38962000.0 0.9380349916523532 -0.3325926549531268 0.02719335854520561 -0.02357447463511951 -0.0002899002126096536 -0.0011807500276488998 0.2367518148987477 0.23563794664516388
39961000.0 0.9349061016964775 -0.33848714398584734 0.025508431659105765 -0.03188857377545648 -0.001165720575819682 -0.002934847993356833 0.25642233509439466 0.23006783677371764
40960000.0 0.9322412470553133 -0.3482488191175299 0.02544474310784082 -0.02504228248255312 0.00313758762973922 -0.001283055778135706 0.2705563633344612 0.22126552721386808
41959000.0 0.9281913926861716 -0.3575637783784949 0.03142956495197432 -0.03355503731080667 0.0008044932134385685 -2.5812329988708738e-05 0.26370793983992075 0.21745983557977955
42958000.0 0.923669483995358 -0.3663076989468678 0.03326048538944155 -0.04241110584444534 0.0009961006116807401 -0.0005330827428103965 0.27242108312400376 0.20479638066759048
43957000.0 0.9238669587003472 -0.37059500902032 0.0321505293633172 -0.048610403996454075 0.0025463090970752546 0.0014070767605755563 0.29254242009595854 0.20179141378512544
44956000.0 0.9192034928674587 -0.38118037219964995 0.03624267830775258 -0.0569761848277924 -0.0010270572080956577 0.0012672151866671077 0.2918077959723455 0.19481850666649198
45955000.0 0.9147106937165359 -0.39153000998980103 0.037194678745050634 -0.05994783484449192 -0.0002180931391713812 -0.0029068193203476496 0.3023429228319655 0.19445339926939859
46954000.0 0.9095535483137099 -0.4001628327767831 0.036789751576657745 -0.06928313978485537 0.004195767610426097 -0.0015286811923351706 0.3265695088091818 0.1798057972483917
47953000.0 0.9097698508128846 -0.4067746947843508 0.04023210661888416 -0.0766604728652696 -0.0005016969875119196 0.0003449321334675341 0.33544712372676444 0.17378310628033083
48952000.0 0.9031818333666661 -0.4166364347442836 0.039385417828823426 -0.08581899211415266 -0.0033817841862863515 0.0015368336755431798 0.3277970132634349 0.1651363348768874
49951000.0 0.8993610020900915 -0.423383511263141 0.040912443584571814 -0.09361765202070188 0.0011740456880685514 -0.00022741464075041844 0.3489441849595722 0.1548299238903768
50950000.0 0.8956076740586392 -0.43105103880546947 0.04261569715861791 -0.10098356116999918 -0.0037980778815030355 0.0010469627741889473 0.3571606520620598 0.14436191291543715
51949000.0 0.8917406312567789 -0.44106297443648723 0.04162764083166754 -0.11374799585377181 -0.0013151681790478675 0.001278625083525236 0.3587498550233048 0.14913767495424415
52948000.0 0.8896652214491955 -0.44865545717482813 0.04379481369590271 -0.11962479665584043 -0.003405125142751955 0.0007959055860455297 0.36645486802369465 0.14009558105713601
53947000.0 0.8824472174172405 -0.4586830600726054 0.04448262683480584 -0.13013074920800008 -0.0009768465579019629 -0.0034699824536033445 0.3780362413897439 0.12743143339033458
54946000.0 0.8776266126330665 -0.4679585615246392 0.04744145949114998 -0.14222918545822294 0.002179667884895876 0.0011271826040130043 0.38007527794258134 0.11987439689053514
55945000.0 0.8740836487215893 -0.47438589930830904 0.04701895731078749 -0.1513510975970982 -0.0036527752681119506 -0.0023850746348216584 0.3895935011585479 0.10731564653131676
56944000.0 0.8719415453153 -0.48307023379439007 0.05184890699745534 -0.16047436623127453 0.00019062526313829223 0.00012044123560249974 0.3962008150923584 0.09676263736148799
57943000.0 0.8657895878800135 -0.4924826914466706 0.054364078058917006 -0.1748391380258264 -0.0020197055928629377 -0.0011974025910520528 0.39784518796353224 0.084095572277925
58942000.0 0.8602893366064477 -0.49592353192930655 0.053386400158614566 -0.183733630039561 -0.00021051707916440462 -0.0022554559219211284 0.41842311388687903 0.08350657585009617
59941000.0 0.8561011088516233 -0.5076066534985737 0.05336965518603899 -0.19571534914598118 0.0005592564103661105 3.9753762915027875e-05 0.4171583984564901 0.09165174585607334
60940000.0 0.8493915275135 -0.5141664307734248 0.051903728052148754 -0.20075136598521212 -0.00160918052151922 -0.001711560249293939 0.4089027882168504 0.06205308840924534
61939000.0 0.8464756499394143 -0.521306395487957 0.0553584996813591 -0.2081591481158562 0.0025105752732913055 0.0005650763643741334 0.417190425904436 0.060977738211869345
62938000.0 0.8391073040849416 -0.5317668431938019 0.05941331167563893 -0.226547819180727 -0.000411301167869887 0.0031842732162661335 0.4369499288924264 0.05222731854799277
63937000.0 0.8350068642811387 -0.5373470729159876 0.05915216941041867 -0.2484335426687208 0.0021251368835737455 0.005430894342249209 0.42653326850286283 0.028661078770709822
64936000.0 0.8266787384390638 -0.5465829957680699 0.05452679798186921 -0.2642572296668616 0.001198251116483651 -0.00015366172825295016 0.4284934769512015 0.03387716043786224
65935000.0 0.8235303381744501 -0.5569432350888873 0.05710500819030698 -0.27692631869794354 0.0038716143034437495 0.0024480187155064338 0.43861627088072 0.003786421678947448
66934000.0 0.8198814987005513 -0.559361132060977 0.05480503666535271 -0.28980109700356443 -0.0011583451564039836 -0.002022442785800239 0.43850161807679294 0.0033690533380164884
67933000.0 0.8146866251170946 -0.5679918416318306 0.05632828574632957 -0.305643709202594 0.003488111065960289 -0.001840297549290705 0.44062990272804076 0.009689599886856373
68932000.0 0.8111152887048962 -0.5733710883521881 0.050814024098334215 -0.32377293620403774 0.0017401639864054834 0.000889924047758221 0.45901437405163337 -0.017779459733840753
69931000.0 0.8021250420747055 -0.5843753013446511 0.05103952716872127 -0.3383620969121739 0.0010628793487686234 -0.00042048520864138223 0.44353308760449806 -0.022934248527271536
70930000.0 0.7945834482277423 -0.5914931556015766 0.04789300561345658 -0.3526473551901381 0.0011359043947424398 0.00042052640702435314 0.44279698504625986 -0.027344385045239124
71929000.0 0.7916480040096522 -0.6012055812611304 0.0425282610247871 -0.3725252937214433 -0.002101520988765834 0.0026989288073375837 0.4521849651209876 -0.04794821239307273
72928000.0 0.7849993381193318 -0.6095091553481465 0.036109550240757765 -0.3894272131793215 -0.0003256280062241454 0.0013601438198909289 0.4588561236039896 -0.06475885143453557
73927000.0 0.7791876612735206 -0.6159234005695039 0.02865989826923733 -0.41331263254195305 -0.0004347132020111952 8.006252268180037e-05 0.4591694804596428 -0.06461518254800275
74926000.0 0.7747907449695478 -0.6255526120475663 0.018256581985861983 -0.43372244262223 0.0009734674542441859 -0.002805098386745703 0.4504436442446996 -0.07138447461846638
75925000.0 0.7662720316198254 -0.6293403775821359 0.006112317945217715 -0.4545311561974895 -0.001374096052687401 0.0021822178021427886 0.4712489770980152 -0.08234988163363886
76924000.0 0.7596455349132435 -0.6372881250630456 -0.00451836161983312 -0.4829737322145713 -0.0011590957973579689 0.0019102348034543016 0.4621823412144362 -0.09012535544197574
77923000.0 0.754243749665763 -0.6454380045303577 -0.01810695363096661 -0.5034075396093766 -0.0002675578010774088 0.00048785349362244165 0.4711454066510316 -0.09390863858364719
78922000.0 0.7481559369871301 -0.6551378370693525 -0.0314802494031819 -0.5383056875770156 0.0002182131050225643 0.004844053992376367 0.45542065366233975 -0.10415766331272609
79921000.0 0.7396670389916365 -0.6566880562598537 -0.054727855645763664 -0.5602220413205967 -0.0024458646642554756 -0.003912944131398563 0.46366689406868866 -0.11818747103096604
80920000.0 0.7339484450474935 -0.6677315630943071 -0.06957288631159089 -0.5886262185022635 -0.0024498186112869385 0.0005064310709189712 0.4722519832519375 -0.14056279783645348
81919000.0 0.7288664916892995 -0.6741789244180898 -0.08532822179002986 -0.6207073678007629 -0.0005745344333813359 -0.0002569320019697569 0.47777610409261445 -0.1261431249933315
82918000.0 0.7205576449729645 -0.681060409749396 -0.09978987224139707 -0.6514524359445175 -0.002291533270038065 0.0020206994398991288 0.47041295659259075 -0.1522838005659739
83917000.0 0.7127713976741656 -0.6887983540794914 -0.12496931640846856 -0.6848973925789178 0.0008503599404156927 -0.001984606801113314 0.46744424516809674 -0.1603156178705876
84916000.0 0.7073702730567157 -0.6962169661855903 -0.13893820898778905 -0.7143369422249317 -0.0005319779574989692 0.000788829092440324 0.458199390869439 -0.16815637260857827
85915000.0 0.7000363096370652 -0.7017769323558014 -0.16320159993538205 -0.7501986190413386 0.0023892760370768785 -0.0038969225698043076 0.46139408827475126 -0.18853688686066467
86914000.0 0.6907014271363263 -0.7134011781500239 -0.17556997007925795 -0.7868890896856866 -0.0015282359469970521 0.0010243349940844664 0.4606118463377739 -0.1798481154566456
87913000.0 0.6858257130032572 -0.7172196794822168 -0.20003071067709477 -0.8186670949360408 0.002572095763745033 0.00054343773429332 0.4660469265960177 -0.19700171732857072
88912000.0 0.6777787297464962 -0.7262856566201937 -0.21358443942158847 -0.8516973636626838 -0.00348596628723689 -0.0010188796272611656 0.46274933699252363 -0.20698630064083903
89911000.0 0.6708266625011595 -0.7331740771948743 -0.23324432444264162 -0.8884995609499735 -0.0023825343389021173 0.00043472641585398376 0.46353187491603104 -0.21197409488385363
90910000.0 0.6629957939074076 -0.7394674629752725 -0.25420648603357426 -0.9238104736835702 -0.0023952981326795107 0.0008281432676669237 0.45027183872610643 -0.22454547917785206
91909000.0 0.6556756905812634 -0.7423204773585215 -0.2726147499944635 -0.9551876688177335 -0.0020765904081422844 0.0017592771857247115 0.4660495884219971 -0.2378867087432316
92908000.0 0.6469848772381365 -0.7539864757375649 -0.2913642503228909 -0.9938770182325275 -0.0010960280823992048 0.0004791523927909801 0.46393474769114856 -0.24969409854009428
93907000.0 0.6411692675662541 -0.7560065483060006 -0.31177024990101687 -1.0278702778019497 0.000681324593455218 -0.0017144855150085351 0.4702260677157467 -0.25755949758179364
94906000.0 0.6297533272193699 -0.7646913196539719 -0.32864908814246513 -1.0632342064508302 -0.00134806122288929 0.0017079495157182583 0.45792353516869816 -0.255355338232045
95905000.0 0.6206321644506834 -0.7714199706847495 -0.3541081087991748 -1.1008965608932892 -0.004329794760453458 -0.0004674139724304471 0.4664910992939327 -0.2807617640287549
96904000.0 0.6126145696424808 -0.7793559684815136 -0.37634093862885687 -1.143027931739619 -0.0012353465173465434 -0.00114663507145027 0.4489595943230766 -0.2824255370274765
97903000.0 0.6042918020266965 -0.7860892531038239 -0.40580277710594803 -1.1711022420276123 -0.002691816963078132 0.004823397974849766 0.4525154555593686 -0.2833394503980995
98902000.0 0.5992917727122264 -0.7929496905450163 -0.42572630343287293 -1.2124595972507213 -0.00027758453971896206 -0.0025246743035696726 0.44279959808230557 -0.2931599786723089
99901000.0 0.5894536863492926 -0.7970908906857673 -0.45671041655491834 -1.244646680170414 -0.0023956994953694853 0.004163346172297759 0.4631178889328266 -0.31998412811950844
100900000.0 0.5828226275201147 -0.8011010562498029 -0.4938894939889551 -1.2741703313734527 -0.00240576575092089 -0.0021443599149154153 0.46111199192246116 -0.31914786683651847
101899000.0 0.5704050306984761 -0.8109998919283963 -0.5265597689513427 -1.3134694926502515 -0.0019194274904314659 0.002534471918699429 0.4539204989496105 -0.3275641178110579
102898000.0 0.5606535006937654 -0.8149617804288898 -0.5659896455693755 -1.3522457243283312 -0.0002180687457818097 -0.0009241494332266555 0.44938902083166876 -0.3468660677854696
103897000.0 0.5549826017382539 -0.8213443566329769 -0.6096725920369258 -1.3884299482652973 -0.0013084686129511192 0.0008152548313446383 0.4544396460535898 -0.34540572624623367
104896000.0 0.5430532371840128 -0.8326269405706042 -0.6597191511226721 -1.42298548504262 -0.0014463510114298324 -0.001089510898642552 0.43820641151445994 -0.34123535205429667
105895000.0 0.5348937574080289 -0.8351068770588113 -0.7112790263690106 -1.4696980924232543 -0.002838453095520067 0.00038885487401927807 0.4354335234227988 -0.3611622805576559
106894000.0 0.5254824823568411 -0.8415924273435997 -0.7730821512561779 -1.5035868980651301 -0.00014022011146426253 -0.0032989131534324986 0.4326488610249567 -0.3694612816667096
107893000.0 0.5182469610827176 -0.8473347946080865 -0.8259941343940185 -1.5445860978419674 0.003117023941629348 0.0008232416393006625 0.4252412401699149 -0.3807822242552201
108892000.0 0.5086237049245919 -0.8505626409188107 -0.8934940078237875 -1.5841413529047799 -0.0006822546274722147 -0.0016157529012484396 0.42150687636311057 -0.38632689755518373
109891000.0 0.49645783550341666 -0.8590517483902018 -0.9488521471062724 -1.6254232211740474 0.0009716237442587878 -0.0035534638693714804 0.4437506073126594 -0.3773989040360954
110890000.0 0.48509292260333164 -0.8603608686552162 -1.0135020509926993 -1.6258420549160337 -0.0021751826151231576 -0.002162146936696482 0.41275455891364043 -0.3855577355494325
111889000.0 0.47612481247430555 -0.8644540881477207 -1.093061907154536 -1.687415109132216 -0.0003754328927960348 -0.0013117816419399996 0.41376088887089496 -0.4113391226005215
