! Created with skrf 1.9.0 (http://scikit-rf.org).
# Hz S RI R 50.0 
!freq ReS11 ImS11 ReS21 ImS21 ReS12 ImS12 ReS22 ImS22
1000000.0 0.9817086593607965 0.008076904695514416 0.0012099655805694212 -0.03591593842441455 0.0023828580879103316 0.00959464406461127 0.3658524549546287 0.3141738208884874
1999000.0 1.0008609005608757 -0.00964750939221168 0.010287173366446323 -0.016975703745608823 -0.006771065811811213 0.00021765996953358884 0.23970640280779185 -0.01181353994189065
2998000.0 0.9971995534453921 -0.02068645582405592 0.011839505403098723 -0.01373434822297717 -0.004847934166626697 -0.0011755348194560276 0.18560820638692596 -0.12272506069189087
3997000.0 1.0007366468620953 -0.026998082827675095 0.01845824411957805 -0.005627932243814083 0.0005527033920909557 -0.0038724516129207023 0.09143524263854032 -0.2402181684461882
4996000.0 0.992334293563786 -0.03705603971152306 0.015386966675117152 -0.0032898335333621694 -0.0020697153594319696 -0.0024336668003306027 -0.03162687296618811 -0.2182828234038139
5995000.0 0.9933466454681735 -0.04967478429360977 0.009428109998530367 -0.0022947114948968454 0.0014896118813033877 -0.0014260807831535285 -0.12200262502489859 -0.1251859063035212
6994000.0 0.9911118524750882 -0.06073721093661621 0.006508491204645 0.00452111384606257 0.00017767091697840206 -0.0021292257568383995 -0.14853085024824692 -0.04481456589930158
7993000.0 0.9975098973112881 -0.06630053128583015 -0.002739374977634505 0.005178251855241299 -0.0006733771394541048 -0.000960019497132015 -0.15509466502224895 0.03594041408006302
8992000.0 0.9951149260730068 -0.07162380410145998 0.0035551452287182267 0.002855525873393906 -0.0026247997277985165 -0.0018195445545379843 -0.17712807916593615 0.04777092894507982
9991000.0 0.9919286778942513 -0.08288866603615133 0.005953937527956556 0.005425559770686391 -0.002489447810959239 0.0023384712425450634 -0.15454033234079972 0.09199401550103771
10990000.0 0.9947550324377927 -0.09308638063479494 0.00558396191698639 -0.0020038996696056647 -0.0004260402280762449 -0.002497797459074843 -0.1436912191758776 0.11706778838241502
11989000.0 0.9892639199434041 -0.10275559544477408 0.002917465401217965 -0.0033241538099185635 9.828348351412454e-05 -0.001546906843978841 -0.12317746958103452 0.13552606041870072
12988000.0 0.9891915707357539 -0.11045304770504018 0.0002494326161097316 -0.004047428917105358 -0.002881200462834786 0.0014670959787146222 -0.11197078475339615 0.1669495335115035
13987000.0 0.9888848872483066 -0.11739778600937956 0.0018990336169827985 0.0004428100823978947 0.002875001977694277 -0.0027420899937919616 -0.10180469140757328 0.18747991655153035
14986000.0 0.9882429204935674 -0.1261294516928716 -0.0007515193964843932 -0.005254525048899922 -0.001959992705678708 -0.001300873905375251 -0.0934431196312658 0.197702993666932
15985000.0 0.9890899324031666 -0.1361717368204565 -0.0007205356570595396 -0.0035379065443573794 0.0018305031375928725 -0.005903254102040894 -0.06830356639565169 0.21521783114891946
16984000.0 0.9868445435052107 -0.1439594392181092 -0.003977524514380425 -0.005885290245697552 -0.0012974305175764804 0.00017413027623657492 -0.05787719610315575 0.2243615848553331
17983000.0 0.9863307296905504 -0.1520447890790953 0.0005527610345193493 -0.0022656216880066493 0.0036181441856314813 -0.0022894570572476575 -0.06594475707533064 0.223081910053876
18982000.0 0.9817086217637301 -0.16392093295475577 -0.004188294763847558 -0.004091689017218577 0.0035113231301896813 0.0012074689065955017 -0.03012148650370055 0.23375839057164854
19981000.0 0.9828974065103455 -0.16684930685273008 -0.0028842126970186678 -0.008300446852095151 -0.002064330892131728 0.000779620065346335 -0.01700055354660379 0.23706511584910392
20980000.0 0.9800695269418285 -0.17750719572180906 -0.0038606514916019507 -0.005399719084081284 -0.0003140344226663398 0.0020430878095129973 -0.010017714875990194 0.25723977402031317
21979000.0 0.9800707310964586 -0.18371916931298493 0.00018464571641469546 -0.0031505618942953184 0.0007877607848563467 -0.002188204238928239 0.0027706468228109985 0.23948805130025097
22978000.0 0.9773269054161815 -0.19478784503821123 -0.005104974418585644 -0.006288401544684162 -0.00033647646107784403 -0.0013168652302971364 0.024315576055596044 0.25019970866554686
23977000.0 0.9764721289986465 -0.20229125211400156 -0.004538483629805963 -0.0034584979351856334 -0.003988928103355936 -0.0012368489848228106 0.03071714494063954 0.25843048724694956
24976000.0 0.9760700353712781 -0.2097553691787457 -0.0066118403546432504 -0.0014695959470585828 0.0010907711688901475 0.0006787827313264687 0.06210314767743362 0.2522490775018907
25975000.0 0.9762446539444225 -0.2215297052517672 -0.006802598747101343 -0.002547831056631355 0.012497879635661267 0.02177039203626162 0.06140063221772267 0.24380688158769015
26974000.0 0.9715346907670266 -0.22880136301652143 -0.005297161878224497 -0.0029518195957214453 0.0046603300526652115 -0.0011867245521710024 0.08002945952088139 0.26103484706760055
27973000.0 0.9694374711043554 -0.23359532623490584 -0.0028162677881578917 6.883885984862174e-05 -0.002625949783064337 0.0028882966374360448 0.10212595424740928 0.25111180569430835
28972000.0 0.966787366074923 -0.24501505419649772 0.00026800210986020707 -0.0014484997233480846 -6.92703704542671e-05 -0.004950799583640821 0.09930252255580295 0.2650920981452564
29971000.0 0.9646706789602529 -0.25539675768373543 -0.001118881852782269 0.0024742555677242633 0.0007560003709502649 0.0012132767954177075 0.14625568908238068 0.27117135760260147
30970000.0 0.9620989496407402 -0.2600254802556559 0.0015044396030215006 -0.0010171735614242583 -0.002154565809767884 0.0028672720926656513 0.1631403530684475 0.25460108927241903
31969000.0 0.9613571611068136 -0.2689620134919578 0.006997085709816791 -0.005830011705989761 0.0020400594087701617 0.0014552868724716573 0.14354562007059704 0.24868047386063066
32968000.0 0.9583606409523545 -0.2767480966843174 0.007578841831508792 -0.008173481455284062 0.0007298346036505173 -0.001853292158823938 0.15864522769257458 0.2517649041394991
33967000.0 0.9548189338360835 -0.2873172238782855 0.013998210705583694 -0.007239546462291824 -0.0005396332444882032 -0.000698890952083467 0.17498226412332557 0.24808785844388825
34966000.0 0.9515115235848594 -0.2992795031909466 0.014327256044810577 -0.007983675800565722 -0.0018619905019817045 -0.0017760332331997395 0.18293384485784123 0.24903611164955028
35965000.0 0.9491249798634076 -0.3067673414695346 0.018468070981989004 -0.013722795329458776 -0.000732524300455728 -7.219368656701376e-05 0.2018343127280714 0.25172213281828654
36964000.0 0.9457092884736055 -0.3156446527279483 0.015425320586257922 -0.013160459311557767 0.0027549237120489743 -7.133723946369926e-05 0.2056771637126265 0.25686802459654146
37963000.0 0.9423516576358588 -0.32659133133007245 0.02197709316741283 -0.02077463083645186 0.0016186717903469016 0.0018321422081364637 0.22261154691967958 0.22765998895508033
38962000.0 0.9419925220285479 -0.33172371403367557 0.023808713014241794 -0.025335537163744398 0.00018206557207273364 -0.0016491022668718362 0.2331921028842469 0.2324535855830639
39961000.0 0.938744015781666 -0.3419390503395468 0.027689186573516773 -0.03031570365581143 0.005048342439115778 0.0018250570873050921 0.24270255690051928 0.22498164219320257
40960000.0 0.9349830898078844 -0.34862137155702544 0.02407849671143219 -0.022656098299741488 -0.0005202896590041839 -0.0011771507095874809 0.25772151808076493 0.22516921320452749
41959000.0 0.9320364516384912 -0.3575711711577574 0.030874148537340888 -0.033326441496418606 -0.0009923291320315568 -0.0002764887048280584 0.2601641401564933 0.2232525335525501
42958000.0 0.9272902248051227 -0.3660447141782887 0.030523901822904282 -0.04003144961646656 -0.002631916068452369 0.0013067342421174337 0.28016298202070755 0.2023315791597167
43957000.0 0.9244337097050863 -0.3730788685772651 0.03391564858137672 -0.04500165315079613 0.0003133873796948821 0.0009738506137745029 0.2861137924919865 0.20735617138357015
44956000.0 0.9206861755879232 -0.38133547200763246 0.03580269884004074 -0.05176441756437858 -0.0018596198548851096 0.0033123151897603413 0.29577089432342896 0.19696979661897154
45955000.0 0.9173932289672363 -0.39140537601068787 0.035602485550697616 -0.05985673071804346 0.0005703615091322006 0.00019786992053982995 0.29706642636139585 0.18951646196008765
46954000.0 0.9132301866563854 -0.39924446656596696 0.036635723411595836 -0.06293214269035378 0.0023662762327816647 0.0002862960666820534 0.3191226598403955 0.1836189380058365
47953000.0 0.9100673826840334 -0.407637687707642 0.03527495517717829 -0.07089587196373327 0.0030626952890601233 0.0006801594117513376 0.32738805015533295 0.17368308043240488
48952000.0 0.9049838888266858 -0.41580113771985855 0.03770129658099792 -0.07922396496996117 0.0009390648890108725 -0.00108347511174738 0.32450588992395196 0.17135686219893256
49951000.0 0.9018796781279307 -0.42563912027545114 0.03792244062835503 -0.09001283979649174 -0.0028681374469907627 -0.0030122381222554948 0.3460414625933051 0.16420715700384755
50950000.0 0.8987389008590235 -0.4317006453976112 0.0401545413336558 -0.09370004176484517 -0.003372268904671566 0.0005607051815965672 0.34209603425297613 0.14381328620606146
51949000.0 0.8930148406180829 -0.4411847549914435 0.0404282895251685 -0.10342502931630793 0.0007781211541256661 0.0009902370301615375 0.3552634335297618 0.14238227273310577
52948000.0 0.8909047859759462 -0.4488873403006077 0.0424149371565893 -0.1122448306107795 0.0001913929921056437 -0.0008058010813456687 0.36467965775841743 0.1432204057744689
53947000.0 0.8865036592798956 -0.45626826972665396 0.04167477370935943 -0.12217988377926083 0.0005592126021097751 -0.00017378757678158206 0.3689599827738103 0.13478017985056107
54946000.0 0.8803568037933533 -0.46750451942494786 0.04423633765932625 -0.1305746058654977 -0.00014061054287493486 -0.0023951048656767446 0.3766411736440788 0.1241896457439625
55945000.0 0.8764811001751677 -0.4753463557246734 0.0462064201337483 -0.13934047695635154 -0.000946458381209241 0.000599257829818504 0.38689590412557273 0.1052919403130915
56944000.0 0.8737284844837061 -0.48195546502535497 0.04738383181408346 -0.14912211254238808 -0.001082893085196475 0.003827388761500282 0.3839100691971059 0.11057608488874687
57943000.0 0.8681260671634541 -0.4931717266838337 0.04707402263938634 -0.16213239228900725 0.0022948180768921867 0.0021586413135509207 0.40635132689920417 0.09210901011989056
58942000.0 0.8638752931017304 -0.4968432405864039 0.050546110925705906 -0.17121965448886478 0.0022770424024291 -0.0014820079374753398 0.4096522397337966 0.08485651518235945
59941000.0 0.8600544675145837 -0.5082567467857223 0.05116707982690248 -0.1821995596656243 -0.00071732439088189 0.003572494606209354 0.4209108963123485 0.09796718056255062
60940000.0 0.8527975385401273 -0.512283507278831 0.05138940767870482 -0.1829308713129686 0.0013273868362587294 0.000797534748037376 0.4054210694551704 0.07189357124824089
61939000.0 0.8485820262160211 -0.5216353012211807 0.05272639817835313 -0.1942727279663766 0.0031155779352572974 0.002398190010286482 0.41595341145386655 0.06925414203533532
62938000.0 0.8446560000934208 -0.5320760172636831 0.057386815294172326 -0.2118124697900304 -0.002876654538994892 -0.0007952730889707554 0.43984092561791427 0.060736869853626835
63937000.0 0.8363056239714901 -0.53982695260394 0.05745182409701346 -0.22899884997819492 8.621622325308452e-05 0.0009383399479857896 0.4272591887249333 0.05091961220504213
64936000.0 0.8332820146266272 -0.5428142846368265 0.05749227994221484 -0.2436019500407499 0.0027248109410601784 0.0015145864881144111 0.4306912162396815 0.03719913715698167
65935000.0 0.8299070275159888 -0.5544963474654957 0.0588620865164101 -0.2575035212772335 -0.001758352589920513 0.0035576864809760606 0.4402868689833574 0.029292222967210565
66934000.0 0.8238920783008679 -0.560270040895528 0.05775045952179106 -0.269686613752763 9.577699126561335e-05 0.0011200979816574559 0.43488953978620537 0.0212637761731868
67933000.0 0.8212132531786903 -0.5690682393954807 0.058105683767744984 -0.2837655046792911 0.0014333541316038853 -0.002025437032152338 0.4456581541605483 0.015132056087092146
68932000.0 0.8112072546153235 -0.5600231896309915 0.057572697887323845 -0.2942332419596143 0.003552046764886743 0.0024153370498871626 0.44638122533083713 0.0065386548272892905
69931000.0 0.8079216130516177 -0.5844453364045881 0.05635186673606189 -0.311753061838326 0.00033520275442305657 0.00031528524750009475 0.4469713169099195 -0.014344197567391175
70930000.0 0.8010085442048935 -0.5923457092271008 0.0534863354544126 -0.3269791229266909 0.0003798160600059047 0.000958639522088773 0.44468782870632445 -0.020626378842265387
71929000.0 0.7958734107770452 -0.5993546553711855 0.04942977135429604 -0.34364581376193426 0.0029735781596941305 -0.0018963849688262314 0.4419833803619316 -0.028637838746667123
72928000.0 0.7892850861076851 -0.6101418647445723 0.04346238992561033 -0.35886363194623694 -0.0009547832335835913 -0.0019041486928461394 0.4587327754763894 -0.03826152984367628
73927000.0 0.783547324655189 -0.6149681204019408 0.03719501339857511 -0.3808018347888826 -0.0012356261292877644 -0.0009387052278140018 0.4525182562097498 -0.055342427672150855
74926000.0 0.7796611301678027 -0.6247082945595204 0.03324332235881025 -0.39914446847413615 0.0016808284548721665 -0.0007397236874110803 0.4592624408463251 -0.04699213562465198
75925000.0 0.7729181012726498 -0.6294120376812649 0.024150860567876534 -0.4171552211180761 -0.0033242398324914188 0.005188381503106476 0.46931885346581875 -0.06914709451256339
76924000.0 0.7653928689902573 -0.6380893310335651 0.008089136259738765 -0.43907185992674524 0.0028952910460035798 -0.0007273035676906145 0.4625828070954355 -0.07500751802790902
77923000.0 0.7590233305696436 -0.6451733247554222 -0.003264498152756207 -0.46304282596159574 -0.0034045521440272475 -0.0036027056566280114 0.46288982572930093 -0.08965664368186799
78922000.0 0.7524496279113706 -0.654634571486291 -0.015783679012315404 -0.4905447037423564 0.0015836174467462833 0.0024015033250363786 0.45806956907301205 -0.08687005317867048
79921000.0 0.744958690350457 -0.657903111360124 -0.03888128189377482 -0.5177295514479996 -0.0036680308916185035 -0.001456510297159744 0.4587327019297207 -0.10232410253824838
80920000.0 0.7390158960893879 -0.6697318183125237 -0.051771078377927236 -0.5460048022623853 0.006048546185915396 0.0009731406329392014 0.46745956040799547 -0.11786085643742632
81919000.0 0.7340363457093437 -0.6760056084114042 -0.0690250916332291 -0.5739161592558831 0.0030006132152483405 -0.00043506282386112353 0.4618635761518737 -0.11533884026295052
82918000.0 0.7243836704989599 -0.6815467642234495 -0.0802536907983735 -0.6011162447931673 0.00298775223211226 0.0004250705680992383 0.4706797270527193 -0.13820979951717463
83917000.0 0.7162842905802196 -0.6902981385408711 -0.10621233240363812 -0.6311474713134634 -0.0028220615190347135 0.00419334195654057 0.47714514856426893 -0.14230634186353677
84916000.0 0.7114230651408521 -0.6970202104340983 -0.1229220225918667 -0.6656486423436352 0.0008394620989800949 -0.0008322121405422619 0.46177314896906757 -0.15530677113439478
85915000.0 0.7042023804532315 -0.7034362792016078 -0.13699300803121564 -0.694165338864279 0.0038508446838297346 0.0003466126715463847 0.4560207054277496 -0.1624321507620264
86914000.0 0.6986947538605497 -0.7140794707711082 -0.1525073519883633 -0.7345343394447243 -0.002356435688428824 0.00016019060341972003 0.4679634116551074 -0.16631035698690705
87913000.0 0.6889976772526917 -0.7196075129773144 -0.17115878044131994 -0.7641012793601645 0.0010518201023380458 -0.0009589269832232185 0.46986868364535583 -0.17302051053959044
88912000.0 0.6831097661027313 -0.7267033543200909 -0.18957495256680285 -0.7961322779885857 0.0010768629650319554 -0.0005964174516658492 0.4635686067952005 -0.1934882587832057
89911000.0 0.673864512238604 -0.7352130104877282 -0.1989198418384104 -0.8359206678943774 -0.001863576620102934 0.0007225162685377571 0.48079327378533787 -0.19726784199351172
90910000.0 0.6681437529765005 -0.7390762105977143 -0.21453197167077212 -0.8657237562080938 0.00042080630318117095 -0.001985498179961895 0.45940286641915395 -0.19794021208148935
91909000.0 0.659296144235684 -0.7447653424542257 -0.23570704732092948 -0.8973277104755258 -0.001031334106640721 0.00044096889586521396 0.4670481302470074 -0.2090747082881485
92908000.0 0.6509935625506527 -0.7526585977065628 -0.2530063523308123 -0.9300856386297215 -0.002278140762378328 0.0009757147556997842 0.45810188820568787 -0.21806686737416905
93907000.0 0.6441135235130929 -0.7592416728661225 -0.2691720855585469 -0.9572531427945601 -0.005093263409301725 0.00027217172225852364 0.46393206792313896 -0.24256569700920186
94906000.0 0.6329703985110408 -0.7679369293508251 -0.2849302418846837 -0.9979579029105063 0.00042194100531323336 0.0017933646539673013 0.4676224861165608 -0.23919621624132553
95905000.0 0.6256898795429748 -0.7734697087278193 -0.30740808996732116 -1.034059386139231 -0.0022037492117292145 0.0013760667402066174 0.46473184952705154 -0.26022999612490094
96904000.0 0.6182498533603594 -0.7824818890529636 -0.32333715461156404 -1.0690555512936162 -0.0012650588009409018 0.003373921400439845 0.4605082368059064 -0.26041665053125007
97903000.0 0.6083907479651954 -0.7861591401073641 -0.34712853634412394 -1.1001449412402833 -0.003929782392769115 6.820280790298508e-05 0.4527774569531995 -0.28590136848219794
98902000.0 0.6044754674094898 -0.7941177754244511 -0.3663981007175957 -1.1403150162790714 0.00017527375362687397 0.0032950276541986027 0.4539075850708279 -0.2848349747646331
99901000.0 0.5928359905532545 -0.7985357181051713 -0.38996834046999823 -1.1693185095841405 -0.0022293521855460997 0.0027336997925889424 0.4572397202805197 -0.3013626234999823
100900000.0 0.5851958247482609 -0.803876725523387 -0.42594176935892275 -1.196008628304742 0.0037437345929545135 0.0003633980277531959 0.4661976394577873 -0.306262714173611
101899000.0 0.5753283615772985 -0.8114528798505687 -0.4430697380194413 -1.2396508843526808 0.0008953861678188368 0.002749665271588289 0.4534320537637162 -0.3092570923481276
102898000.0 0.5645082546453 -0.8174837800270519 -0.48669519152603496 -1.2755354462818491 -0.0028262229331495756 -0.0018280361391229145 0.4609772458799629 -0.31771781514092695
103897000.0 0.5579156346543607 -0.8242096815557446 -0.5223644224885436 -1.307569066337687 -0.0028915103291851157 -0.0012998669283956663 0.45620064396889015 -0.3217429324901636
104896000.0 0.5491875454501259 -0.834933597046176 -0.5636266074470282 -1.3404803112294315 -0.000933701907817672 0.0007763862286508175 0.44932549476899464 -0.3287270329994146
105895000.0 0.5367163028246104 -0.8352665586310044 -0.608856774693716 -1.3783420861304951 -0.0021702313278741956 0.0007317238910698523 0.4468349585481106 -0.34111401586758094
106894000.0 0.525914508580167 -0.8457342932688028 -0.6662940029906684 -1.4176193182514378 0.000911535484292226 -0.002269083383940999 0.44244639241502265 -0.35615011707976707
107893000.0 0.5208592159557566 -0.8496988067650527 -0.7098466518261867 -1.4587129393047669 0.000738244514710141 -0.0003742122854509033 0.44080874755056904 -0.3567866499350819
108892000.0 0.5102405231499215 -0.8538311082700689 -0.7708037589891047 -1.4897748594768494 -0.0006603435517003447 -0.0003180947700195248 0.43678644737498823 -0.3444192582791163
109891000.0 0.49747637575291176 -0.8607396630089423 -0.8267113169308032 -1.5299844989275337 -0.0028511171992304596 -0.0002428752725603424 0.4393763982170827 -0.3586906949612488
110890000.0 0.4796804766797741 -0.8624352413614976 -0.8926568130118707 -1.5247596219350412 -0.004836289510052888 -0.00038834261954155675 0.4318993956525527 -0.37391617073878974
111889000.0 0.47558610814649444 -0.8673009034995126 -0.9562291855242967 -1.5960684885529006 -0.001896927313143634 -0.0023669433968833463 0.4363910846252515 -0.38892459476432784
