! Created with skrf 1.9.0 (http://scikit-rf.org).
# Hz S RI R 50.0 
!freq ReS11 ImS11 ReS21 ImS21 ReS12 ImS12 ReS22 ImS22
1000000.0 0.9894650290811872 0.014964734625289603 -0.006904828584341845 -0.06498004688252354 -0.023305392961618727 -0.014083688087803288 0.2702268082456825 0.36091270965892996
1999000.0 0.9964548137696247 -0.009265132251205347 0.0015593105148140067 -0.025615098812116467 -0.008759215435805635 -0.005325878136602856 0.26107047283134227 -0.06521700525069654
2998000.0 0.9975269590208059 -0.024834918868267348 0.010680902092496409 -0.014085026563713177 -0.0017471645751751651 -0.004558833039644355 0.1784420577146413 -0.14928128126648907
3997000.0 0.9997527845046599 -0.032031864120264354 0.012041428195181524 -0.0078902264047293 -0.00016043640243796934 -0.00359569172454227 0.05970606574979822 -0.23047300808563415
4996000.0 0.9956840171563331 -0.04286976501063489 0.011079137126668557 -0.003279500459608802 -0.0018471719658721673 -0.0018216440334477954 -0.053825005848147305 -0.17522312645277996
5995000.0 0.9944613605361842 -0.04605980634524684 0.009116646465613444 -0.0013044056635180185 0.0016540864310263333 -0.0031456125321460944 -0.11497604584374715 -0.08349161191626708
6994000.0 0.9937250275872558 -0.058698640054074235 0.007261991244623126 0.002875423848325158 -0.00025773241169701143 -0.0014610803122843186 -0.1231740854457714 0.00027269680949498684
7993000.0 0.9932545987119685 -0.0698741463281407 0.0022377731746776905 0.005212153507638942 0.00392766126541947 0.0028725178161542395 -0.14846523313742804 0.05065955928094069
8992000.0 0.9934590148535547 -0.07354879086330864 0.00612554437615364 0.00992771873813277 -0.0052681729238610465 -0.0028597090030451277 -0.15199749792007572 0.08052864758504631
9991000.0 0.9913214330167833 -0.0835907236611287 -0.00014089772520613268 0.002100865964299659 0.0041816967793884925 -0.00057299159727862 -0.14146137519087643 0.09306888578180189
10990000.0 0.9934444721278084 -0.09169436889853198 0.00042990375733696455 0.0002491371110945945 -0.0019690559937991328 -0.0025968671760957874 -0.1225813936874518 0.12332161735738773
11989000.0 0.9887203897519972 -0.09939023960459475 0.0004038862600377555 -0.004496450538944437 -0.00025967448470824337 0.00019273038212100412 -0.11565985896131303 0.13148006454991257
12988000.0 0.9892868252475808 -0.11085138246121475 0.005042974927057399 -0.0018145342528512437 -0.0025629196124978388 -0.0022790460386692343 -0.10882991635853305 0.163000584825315
13987000.0 0.985441886988886 -0.11957758375541695 0.002733517362002707 -0.003560500202686382 -0.0020296938341946985 -0.002491816724466714 -0.09280881808470302 0.17961931896299602
14986000.0 0.9876166120096862 -0.12488130960039244 -0.005457179390590331 -0.0046701518006930075 -0.000653464029019841 -0.0018404105904384913 -0.08445509558764752 0.19503266291001448
15985000.0 0.987842424471309 -0.13397208753933174 0.0008593037763423373 -0.0035622229990421423 -3.4644074859138666e-05 0.0009851160162265124 -0.0706324700213166 0.21893306701523602
16984000.0 0.9844967329460665 -0.14395322806912425 0.0006069909694597864 -0.004757378491056105 -0.0006092290840345884 -0.000308728506779624 -0.06246495406509538 0.22179092752837187
17983000.0 0.9848682364251985 -0.15204358541786453 -0.004514697566239382 -0.004654889538957096 -0.0029351485876514026 -0.001740297598403209 -0.04723437942118916 0.22342047850988309
18982000.0 0.9819298716468347 -0.16249655467310928 -0.004211736470130493 -0.0069421112843408616 0.0043916488914546225 0.0024386972473403453 -0.018051519134230243 0.2323591458253936
19981000.0 0.98161813958277 -0.16768039356782746 -0.008645050482668762 -0.003988886702691443 -0.0018789937224625076 0.0026650121458534643 -0.02060471967609795 0.24504827168317148
20980000.0 0.9793587828821608 -0.17483490627610015 -0.002010912680887134 -0.0023767766276929178 -0.0009360403269476381 -0.0009393725047592988 -0.008197784851006388 0.2599302325544226
21979000.0 0.9791579958911549 -0.18331904627565848 -0.00459571092596864 -0.003933713128309241 0.00076388992569554 0.002097671736655157 0.01815747879612029 0.25013613804640156
22978000.0 0.9761049652420185 -0.192351867367795 -0.010350526887817138 -0.006766030304851914 -0.0009311904126772485 0.0037157941289391932 0.026401404669480703 0.24560941289691715
23977000.0 0.9769706834520071 -0.19922880530515177 -0.006841360834530794 -0.0017572378507897325 0.005151579487478184 0.0006209290758130254 0.03696073665456044 0.25445884359855175
24976000.0 0.970483294905457 -0.21243621157761158 -0.006699316570202274 0.0012141201788592594 0.00030992503314679484 -0.0013152776075920087 0.06742747392444576 0.25109716744664445
25975000.0 0.9735851897714749 -0.223601712807933 -0.0070612565902856885 0.0015373147484971745 0.022294566630686446 0.010039807121727114 0.07949343711411294 0.2534528007756761
26974000.0 0.9681662139018429 -0.22781877174405749 -0.007009559077786645 0.0027754327385686823 -0.002925366090138197 -0.0024201402694202586 0.08962331358700314 0.2779400791913532
27973000.0 0.9693468527297071 -0.23399017469973268 0.0026536382563874315 -0.0030748958082408378 -0.001815693846194855 -0.0006480066255480221 0.11140652633988177 0.27088302309831314
28972000.0 0.9665196875653123 -0.24214154184825684 -0.0057184211420085555 -0.004903057124879291 -0.0016748048966197385 0.0012332422748018927 0.11258022991732441 0.26496447674502027
29971000.0 0.964129680901977 -0.2539531697574414 0.001369588454136193 -0.004809620059754912 0.0005959716489355141 0.003104840594006411 0.14528276754647712 0.26676983517451197
30970000.0 0.9612649560607758 -0.2573891351134983 0.0034724770740180017 -0.002739557809742181 -0.0035943489301591106 0.003546014769338117 0.16902156139514637 0.26323549942123453
31969000.0 0.9593718704060669 -0.266428257222399 0.004201164599692415 -0.006085310838304916 -0.002927478548530886 0.0029098967428401127 0.1541676414156146 0.2529424625450351
32968000.0 0.9566339855799875 -0.2797879544482721 0.006462894715990094 -0.011059622608842822 0.001218468891750758 0.0018907106006831609 0.16281004973316796 0.25295663496908594
33967000.0 0.9539229348534383 -0.2884540773530564 0.010748955734873377 -0.010311039512082804 0.0031965682056296733 0.0012331653562103876 0.19853827666788787 0.24381310067292364
34966000.0 0.9510735990087257 -0.29726751311502225 0.010577314529748662 -0.010696598976720022 0.0007937411596085585 0.002231810527658712 0.1949338375761346 0.2510545664449089
35965000.0 0.9494264120860553 -0.3029713727374256 0.014702222331569464 -0.015954186026341178 0.002545470995500967 -0.0006004459400414956 0.20897194489330598 0.2596887057372905
36964000.0 0.9451111312762611 -0.3142837570790225 0.016464072406990476 -0.015983545117006268 -0.0012462250481080391 0.0019530905286668401 0.21256366704368948 0.2594279825788643
37963000.0 0.94322292704856 -0.32003782710633905 0.02025764637963789 -0.019952354973975978 0.0013413369256866608 0.00011807038108051256 0.22897569985547012 0.24318189561663028
38962000.0 0.9409689698175093 -0.3316864330562454 0.021716922825936968 -0.02326744709121089 0.0012056221599424837 -6.152412030756858e-05 0.23826113768046323 0.23669292235132702
39961000.0 0.9391516356583877 -0.33655285176948824 0.023492254497666943 -0.025447033672057875 -0.00036606345490915887 -0.00048016118812849726 0.2550659814951473 0.2308971195444351
40960000.0 0.9344320469610723 -0.34495291305501435 0.02302333540140102 -0.024992223225727528 -0.0008421585516053916 0.0021192257181949516 0.2675531006405418 0.23320497653916414
41959000.0 0.9311683908192767 -0.3556357723838237 0.028065073085747405 -0.0312075730230926 0.0022760012083998553 -0.0006209879980051133 0.2671788246951141 0.21600143806127195
42958000.0 0.9250329638440392 -0.3654923176236574 0.030587867076468787 -0.040676084618879886 -0.0023234971134486093 0.0008230512755211427 0.28417909352670656 0.2029285660702784
43957000.0 0.9274613891802788 -0.36826265408915326 0.03174789207527081 -0.045832439802250935 -0.0012774496222953157 0.0011782174620152068 0.28282200374070454 0.2146990105358963
44956000.0 0.9219406103339907 -0.37724652612050474 0.03318689551431175 -0.04911787242758133 1.0794560107627417e-05 -0.0019379104152885713 0.30897564554524115 0.19811504819397624
45955000.0 0.9165455706235202 -0.3901151789976979 0.03150577793400382 -0.054639429131655814 -0.003503782034110677 -0.001580274723218481 0.3085833463675218 0.19491301443110987
46954000.0 0.9142061436149987 -0.3972621144239562 0.033615689449952114 -0.0624673219501555 0.0010270005299178647 0.001168412785854565 0.3196440553394974 0.1827349539938113
47953000.0 0.9097967976233575 -0.40804073699115334 0.03654164274489276 -0.0707278199009741 -0.0035111227454798187 -0.00079494703717308 0.330353134906475 0.1800944616734905
48952000.0 0.9041141939959614 -0.41685814098447566 0.03552052612899163 -0.07612894840689462 0.0011754232018320358 0.0005649475095298009 0.33682918455605043 0.17049391005049455
49951000.0 0.901364039053242 -0.4220253076980401 0.03915760101814947 -0.08268377129759759 0.001848969893456452 -0.0010811478812778744 0.3494289340348956 0.1593229143570897
50950000.0 0.8984316181569365 -0.43131455299805127 0.038190239033528556 -0.0955757343206002 -0.002927163242102049 0.0032472014566679755 0.3535729992451793 0.1555427402670033
51949000.0 0.895011707267544 -0.4389347884174096 0.03725786574991691 -0.1004381790731053 -0.00039586696410484113 0.0010869636658395793 0.35703645143481383 0.15496869786132883
52948000.0 0.8913494615830755 -0.4481774779164627 0.037622627075906 -0.10975355064847471 0.0011978902519632698 -0.0024619085645798005 0.37303549616954196 0.15125204511193766
53947000.0 0.8850945251647524 -0.45417156778180356 0.04107358383798235 -0.11753212722598122 -0.0011259428189851822 0.0004166859368117684 0.361080845038798 0.1437382524419562
54946000.0 0.8801372929803077 -0.46403011587858817 0.03879171723419254 -0.12555291335537558 -0.00513787286428777 0.00028178779495285336 0.3845181091795478 0.1275127681567041
55945000.0 0.8773517966189969 -0.47328796200560413 0.046641410725040335 -0.13756700213400774 0.0002970065381453443 -0.002230143708732448 0.38044933217610183 0.11645174294173576
56944000.0 0.874925097264671 -0.4809229443948438 0.04637858543425631 -0.14729972425339904 -0.0029460059305984197 -0.0004442870059994321 0.39228639593337716 0.11393955192399895
57943000.0 0.8668628884869123 -0.49022033453247016 0.046091154720132 -0.15674769721005424 -0.0014526721337590816 -0.0011968975596515505 0.40703105166599557 0.10563064227734145
58942000.0 0.8618914639736256 -0.49652659568989893 0.04692017269647669 -0.16602129620977185 0.0013074793102794396 0.002164639436324489 0.40343786268656373 0.08876175583497291
59941000.0 0.8614416869468335 -0.5022805245469841 0.049752833997754826 -0.17798861611640182 -0.0028294627448565697 0.001482480307177376 0.41819539357270363 0.09445434483183658
60940000.0 0.8523050228098691 -0.5118288015988047 0.050297056389006944 -0.17945054789841422 -0.0008480504962793567 0.0016312246900155529 0.40939613376668293 0.08109205069211309
61939000.0 0.8488841166953504 -0.5183307488547779 0.05122993708900659 -0.18840500147240366 -0.0013421828015348326 0.000340746821919307 0.42049460618668894 0.07060967943378153
62938000.0 0.8437990834492479 -0.5284423036171584 0.05409310717616205 -0.20381281671484314 -0.0013195364523204212 0.00033260774673274927 0.4412895959305843 0.07165823478367055
63937000.0 0.837603622389381 -0.5356723671724977 0.05531916190728899 -0.22345295609672552 -0.002715860506610388 -0.0010419021538297009 0.4221072149672853 0.050948270371544195
64936000.0 0.8320747102850579 -0.5445520007318281 0.05336219548659393 -0.2392436434442105 0.0014420675622754653 -0.0007905941511381784 0.4316999537930132 0.04934851336271744
65935000.0 0.8277509523480789 -0.5545190822477152 0.05499003142817492 -0.25000916532067047 0.0013723444035478778 -0.0010224059438651654 0.4367032499039204 0.023828031993608407
66934000.0 0.824657356557849 -0.5575746579562424 0.05486902954262657 -0.264415715582131 -0.0037058236298981016 -0.0011272641049660274 0.43898355285200263 0.017321897035874056
67933000.0 0.8209062517248625 -0.5657956037439992 0.055740848139691455 -0.2771121156111328 -0.0031821704334148698 0.00014304689741906427 0.4437322334003706 0.024453725277018192
68932000.0 0.8030836883032562 -0.5649263149989018 0.052779852127292345 -0.286190024150146 -0.000692072177747539 -0.0052571538105031495 0.45370638601073476 0.008244699953797154
69931000.0 0.8055609691084689 -0.5852196652582896 0.05564232290094267 -0.30751422751317903 -0.0005215577798348117 -0.0006910200212032804 0.4474145228198535 -0.008836654012284279
70930000.0 0.8021906772493954 -0.5891900458316962 0.052085754341885115 -0.3212378054265668 -0.002093933037414832 -0.0012014330088784377 0.4526177288073089 -0.017965577384357286
71929000.0 0.7973037589791669 -0.5979126397607682 0.049294216634160594 -0.33767974929045486 -0.0015690836684150618 0.00013006404861502907 0.45332441918931876 -0.01666408216964852
72928000.0 0.7898742770716305 -0.6085626294840729 0.04384652306672349 -0.35469508185179177 0.0017625661963634296 0.002169301117580718 0.46507997882403423 -0.03197018266253564
73927000.0 0.7834466403190462 -0.6107539904010444 0.0391348409482685 -0.3742995966874708 0.0019569893368317137 -0.0026155621517996793 0.45645011646934663 -0.04152583661252247
74926000.0 0.7805589258660572 -0.6227194205353057 0.033983431271101684 -0.39334775650141135 -0.0011023743286140092 -0.0005781508687477797 0.45943521549869193 -0.04350225908249472
75925000.0 0.7748559271102997 -0.6266479682134445 0.02494328570551706 -0.41261328936041664 0.0014210177224296384 0.0006609726008435469 0.46711815840458937 -0.0560042185907006
76924000.0 0.7665870502330586 -0.6364907900865322 0.00987505874753553 -0.43433142928411556 0.002085547906115483 0.0026819352186615774 0.47836138156631525 -0.06380718039786851
77923000.0 0.759461255832266 -0.6407101662925894 -0.00614207228122554 -0.4596456654730165 0.0019028462543499694 -0.0021703154922513663 0.46136480070094044 -0.08357772941508694
78922000.0 0.7553419190253134 -0.6527624130762714 -0.017379872206843405 -0.48308228240302276 0.00012047879363626654 -0.00013652181660434314 0.46828794829028403 -0.0899493024657573
79921000.0 0.7448520257719936 -0.6545249129249072 -0.03400044799211437 -0.505525588379209 -0.00085793436046589 0.002718516900547242 0.4656869595429676 -0.10472480619522025
80920000.0 0.7392288793491769 -0.6643472743085203 -0.050601229372991906 -0.5368463243153873 -0.001233020988030839 0.0018459789971382267 0.46795510510373034 -0.11876754075654135
81919000.0 0.7333149426238382 -0.6727910237433291 -0.06044154156035144 -0.5604371760543801 -0.0002108636379612618 -0.0023312382098307203 0.47316148547677944 -0.11799971415815996
82918000.0 0.7265223824625726 -0.6788631360568251 -0.07593998327351378 -0.5923830874952614 0.00347580518510684 0.0023208070136235812 0.48242683729340524 -0.13006226381653646
83917000.0 0.7183546339940599 -0.6855529175608989 -0.09847346690864697 -0.6216202612889895 0.0017271915756988951 0.000841272710373258 0.47331980557319725 -0.14335578028510298
84916000.0 0.7122603388330063 -0.6935645950381917 -0.10968890008326936 -0.6565985816437031 0.006047027328642126 0.0013930334591388265 0.4686614694690864 -0.15109150142902344
85915000.0 0.7067994891208813 -0.7000372805890136 -0.13227177369665186 -0.6839855530434409 0.0015021138026667011 0.0007950207339196775 0.468309891154584 -0.14522582555379643
86914000.0 0.699338907111917 -0.7103981342490346 -0.14680751115737245 -0.7209700872905741 -0.0008602376231376433 0.0005153114043648735 0.4681919028094989 -0.1565274257394554
87913000.0 0.6910324080487003 -0.7177115175691516 -0.16005074247448176 -0.7509014814250715 0.0016811049451354442 -0.00021388682930501978 0.46986521522441826 -0.16370326126901405
88912000.0 0.685554579514147 -0.7216579801631663 -0.17864843711640666 -0.7840264220043003 4.4761635113738755e-05 -0.0004212671244623599 0.4584673737913203 -0.1897920424962275
89911000.0 0.6763526477362962 -0.7309450740138425 -0.1899850698582192 -0.8180752320728012 -0.0016712168464074629 0.000850292304083657 0.4774554076039692 -0.19196274224371668
90910000.0 0.669283301445763 -0.7371319332805084 -0.20775492343653534 -0.8508643518381055 -0.0017329474192966593 0.0005943463619448243 0.47262924609645546 -0.19796603129652346
91909000.0 0.6602754881126519 -0.74128197474888 -0.22418941506425996 -0.8823774701028722 -2.45249800353711e-05 0.002002367048486182 0.47110178599504837 -0.20162447929325353
92908000.0 0.6531360756796488 -0.750247503454552 -0.2428178843176388 -0.9150219528740858 -0.003721491103183931 -0.0016093023896778533 0.4603830081367372 -0.2195474715954819
93907000.0 0.6477644071077018 -0.7548867825140452 -0.2622752513046733 -0.9448294428112782 0.0012912509202591415 0.004674415824670493 0.4713616447029557 -0.24183074267537716
94906000.0 0.6351433404031868 -0.7630037785794258 -0.27416051551022436 -0.9781684632312412 -0.00025601095635830476 -0.00022635285580373441 0.46730857617753535 -0.23242053726795456
95905000.0 0.6276438518328747 -0.7698103791047457 -0.30142454954114656 -1.0104164440006491 0.0036719820758679533 -0.004354368104938358 0.4746672947606044 -0.2614291212272449
96904000.0 0.6206381170565907 -0.7798064891730832 -0.3155382080813659 -1.0494718081881953 0.0002942472741750425 0.0016165906379914357 0.4652392727032658 -0.2565104944491283
97903000.0 0.6106119304537749 -0.7824127076239971 -0.3339447965722518 -1.0817349709625355 -0.0010590102757483226 -0.0011091171240768315 0.4574605090152256 -0.2656970323291749
98902000.0 0.6075695971508482 -0.7916715577024073 -0.3552371141201255 -1.122147775372123 0.000992290646703519 0.004803589603855091 0.459789419587104 -0.2873374622717233
99901000.0 0.5957858355058907 -0.7968926810528177 -0.37952298565469356 -1.1502419512262398 0.0026294647338992046 0.0017542441583144532 0.4711924668069243 -0.29196823089748236
100900000.0 0.58557715288515 -0.8000217082922948 -0.41063658336722303 -1.1856154727319874 -0.0029085890554431193 -0.001902336960571524 0.4704042233883804 -0.2938734165084939
101899000.0 0.5769328701618336 -0.8086888289823405 -0.4385552160890801 -1.216759901504837 0.0009090775946248999 0.003665693869958457 0.46098205614948307 -0.29518226414402815
102898000.0 0.5685358750612207 -0.8141938375069981 -0.47178416092850783 -1.2563702912728334 0.0014915219902412432 -0.0007791539774318046 0.4618049356105795 -0.3202236075724407
103897000.0 0.5606186019785503 -0.8221281514348088 -0.5099984920185373 -1.2889401698429674 -0.0005114445394686857 0.0002459918862415264 0.47053204281599953 -0.31745694379616646
104896000.0 0.5517767270504138 -0.8297188569145173 -0.5513559638005545 -1.3204562016237271 0.0020745095821009113 0.0002707104830419263 0.44708453968752027 -0.31419367353496813
105895000.0 0.5409733213895052 -0.8338940416226794 -0.5948885689124493 -1.360965437539579 0.0037316960790412927 -0.0011875028758987665 0.44231776252011445 -0.34295038430682606
106894000.0 0.5330821956366718 -0.8396118380211091 -0.645279250879678 -1.4028941113356208 0.0006484496424708842 -0.0015820085202309698 0.44940471800309867 -0.34236156751825314
107893000.0 0.5250804102580231 -0.8457105851485284 -0.698757924565262 -1.438714500572385 -0.00250647024281082 0.0003128863564744677 0.45416899228831736 -0.3566788652076463
108892000.0 0.514208837929359 -0.8486811337253458 -0.7525142233947772 -1.4802167276644171 0.001669449839328326 -0.002024795549917726 0.4504950623088193 -0.3450624453405109
109891000.0 0.5031754681478412 -0.8581401126874333 -0.8084696939539698 -1.5143825017422032 -0.0004918383787012026 0.0023915894860490946 0.45217533610705357 -0.35741849651420265
110890000.0 0.4948794853286336 -0.8708433660687017 -0.8792100601272675 -1.5339108861570174 0.0016501323778611984 -0.0009527984414524127 0.4474410617268007 -0.36336403291574326
111889000.0 0.48389223535331954 -0.8639821953436122 -0.9288664885843003 -1.5845489479296853 0.0006308389015605182 -0.0005758267294090462 0.4353048623859313 -0.37808588731155435
