! Created with skrf 1.9.0 (http://scikit-rf.org).
# Hz S RI R 50.0 
!freq ReS11 ImS11 ReS21 ImS21 ReS12 ImS12 ReS22 ImS22
1000000.0 0.9801943911020966 0.0011209310291038083 -0.007378843004827446 -0.05340188192443229 -0.013750805682035402 -0.003584473590055159 0.2548465088192543 0.3297900051724396
1999000.0 0.9936072452908044 -0.013713514644663442 0.0031195853091680196 -0.022705020730517358 -0.0025918188465852833 0.0006913528092872201 0.2539695191259285 -0.05063921894297579
2998000.0 0.998668661868694 -0.01880217637275799 0.009063946106850131 -0.014872780524656994 -0.0009125267106877127 -0.0004052101378315497 0.17577248870532988 -0.1516944147697425
3997000.0 0.9996275410525199 -0.03377669187328071 0.01582377805773139 -0.009619038160609342 -0.0014251383679316754 0.004325914487510016 0.09099357390654464 -0.22907066945622742
4996000.0 0.9978482366388163 -0.03917434540365652 0.008666296805537158 -0.0010867139777956452 0.0007002123154788289 -0.0012127452190698494 -0.041595838593855704 -0.20322601268824794
5995000.0 0.9973803540457634 -0.04998075839558281 0.010300171003198416 -0.00020814564241067082 0.006835304470184372 -0.0033461199701710557 -0.12590971020955055 -0.10663049401061125
6994000.0 0.9937694669902845 -0.06027608069620898 0.007767972076375256 0.0035368260817651605 0.006599122378134066 -0.00442037711668475 -0.1497266722720324 -0.013688708112287425
7993000.0 0.9961853973684358 -0.06876679882836975 0.003242212605342523 0.006739237917855256 0.0007851473765188831 0.00027776261982224163 -0.16847629989615723 0.031484882558302466
8992000.0 0.9951176367081384 -0.07136234930143291 0.0014383027057713578 0.005577690547553781 0.005071244920791982 -0.0012742370697172193 -0.16925753871705024 0.055854891249077214
9991000.0 0.9927537122168988 -0.08309995306001601 0.0012974840809479688 0.005793568190483875 -0.0026433167057778426 0.0012777720768023433 -0.1479336718148921 0.10397935099510767
10990000.0 0.9911973708604361 -0.09411120896237031 0.004048589193122763 0.000388792957974524 -0.002957060345131455 0.004355663461121742 -0.12854649403109092 0.1028602780344031
11989000.0 0.9912774266347919 -0.09871525043429087 0.004690782686341982 0.0016743739240427465 -0.004542298830888972 0.0027580213018221366 -0.11192861084625437 0.14412560797452947
12988000.0 0.988458680011967 -0.10650371406669219 -0.0010628956466228131 -0.004476337330328254 0.0025298734986567667 -9.240838335978787e-05 -0.11758257218491171 0.17745035094746936
13987000.0 0.9881321488805481 -0.11741852123796404 0.0004314736555541885 -0.004136941986550779 -0.004225387499811177 -0.0012131779532448847 -0.09440389671074827 0.1992599804930141
14986000.0 0.9887039935034697 -0.1251265635238618 0.0013134415547993428 -0.005785590042080953 9.162253586990104e-05 0.002321093271886498 -0.09123142372572539 0.19469723183647772
15985000.0 0.9875005021555864 -0.13661739643055995 -0.0019478249303768263 -0.004692426550325803 0.0030601253048505124 -0.000646141556814416 -0.0727879292083651 0.20431191440735422
16984000.0 0.9863449371775805 -0.14301404431787335 -0.0005096815574978658 -0.00882345645128498 -0.004210309338770351 0.0024568207786615543 -0.06223182318176074 0.21772298731848244
17983000.0 0.9846178478925031 -0.14897091254515346 -0.0015426991287756102 -0.0027281438955954968 0.004446350995695807 0.0035133607790938447 -0.04936032743308699 0.22343144667780862
18982000.0 0.982122643824282 -0.16101691320045375 -0.002242748073737689 -0.001783021249521689 0.0021481739390047587 0.003227327319002641 -0.0250827968265726 0.23887326326777739
19981000.0 0.9829383934973513 -0.16405807019724994 -0.004710405597968841 -0.005972845344852301 0.0016474870458745147 -0.002696225162291841 -0.018964236639282143 0.23447177766029606
20980000.0 0.9803871860498908 -0.1774568500063512 -0.001202844369707599 -0.005115751117564529 0.0017737592891919765 0.0004527356165425621 -0.0023234658192636125 0.26120916526012083
21979000.0 0.9787751946784844 -0.18586802258617569 -0.0032425308703025795 -0.0007069537702422962 4.913958619324635e-05 -0.002609229597316228 0.01897758254678533 0.2434228986049586
22978000.0 0.9753875193869397 -0.1948692319510507 -0.0013338683832256428 -0.001897378502547926 0.0014457060479259568 -0.00045762172048462835 0.032664658301330356 0.25684687569699444
23977000.0 0.9779194370765356 -0.2026338967224186 -0.005409268861701509 -0.0027593626366113006 -0.005837081530718512 -0.0023712474419479795 0.040113271133376115 0.24920593360028623
24976000.0 0.9728258901891951 -0.21284160686200468 -0.0049337383742127944 -0.002469201918316948 -0.0034711286224855843 -0.0028117297019381736 0.07388681835111065 0.24382197847468548
25975000.0 0.9741108606002779 -0.22355558060935565 -0.0016875476236422825 -0.001581820909376054 0.02566935254375875 0.011795777483244847 0.07682997090241347 0.2668017851396319
26974000.0 0.9710261701032126 -0.22749862408086544 -0.005401201176844718 -0.0030894872899805293 -0.0009988107232619778 0.0027557067720519334 0.08714896722208997 0.27720845667499594
27973000.0 0.9684537297503572 -0.23518003534020984 -0.003718314565907585 -0.00048667443860191513 0.0019209902946270253 0.002077498713176202 0.10236380193597314 0.2643738400962033
28972000.0 0.9655972573079546 -0.24348202773789204 -0.00044098336816248074 -0.00197140698881486 0.0030652738260273696 0.00023286943375103853 0.11416505680334083 0.26863656943739056
29971000.0 0.9638599520480599 -0.25365521616144954 0.00019740396196874706 -0.003474113072457189 -0.001451693985384152 0.001010117592807628 0.15094609228961706 0.2760542271230318
30970000.0 0.9619930224484288 -0.25875988101816844 -0.0009302424883917348 -0.004944550015935803 0.0014479850493631548 0.0026210616065481525 0.16907837974418558 0.26063107593892365
31969000.0 0.9607462739900431 -0.26721158013688145 0.003972962468076828 -0.005032535466050178 6.957525080260417e-05 -0.0017698394015406458 0.15450403876375418 0.2528630029693714
32968000.0 0.9591494739149359 -0.2763142585150134 0.005019889407655666 -0.0067049280396889 -0.0018944918380408818 -0.003362926073971368 0.17069092401729583 0.25273580580939015
33967000.0 0.9557235100440037 -0.28764461643175115 0.012521800906444351 -0.008736852123606614 0.001280105638397582 0.0007095230758183407 0.1890124358746679 0.24984885407927038
34966000.0 0.9519129744262134 -0.29506682824241615 0.014278238701454445 -0.012579808756665915 9.98313064367115e-05 -0.002730462150198234 0.19543431190027535 0.26251769596746405
35965000.0 0.9494339398839834 -0.302663604428046 0.018098178889927676 -0.015100887641399633 0.0007740683667356744 -0.00037972964926664 0.21006524554138983 0.2609463490463808
36964000.0 0.9484725901319129 -0.31165245334099434 0.016736601981866918 -0.013070809316969186 -0.004064814020059406 0.0005684252960455633 0.2152474254088515 0.2589019958514435
37963000.0 0.9432625080683162 -0.3221006352270509 0.021372119897384988 -0.01939811394496385 0.0006501392758391369 0.00045885119978089043 0.22545382965885474 0.24590044492061439
38962000.0 0.9427641822669639 -0.3306320435355637 0.02463879433689017 -0.024708803051229113 -0.0015428965554339915 -0.002161793006795499 0.24476430515415326 0.23256195820125986
39961000.0 0.9380036610447937 -0.33955570146378594 0.026644934257689063 -0.028473129133332494 -0.0012195330023652782 -0.0007112005637553516 0.2468700808149307 0.23218242613821913
40960000.0 0.9346206781241261 -0.34762950272926874 0.026175172596846374 -0.0230757845772425 0.001002378709858528 0.0017042864643370117 0.26866330626981844 0.22562140920836776
41959000.0 0.9331293821488944 -0.35632789809867904 0.02904571266319585 -0.029881058541776338 0.00042310111979157987 0.002982764983721499 0.27226420257867434 0.23017123526452773
42958000.0 0.9270943021148103 -0.36442055060911815 0.033796012065931795 -0.040061040281792394 0.0012834002254861697 0.00045307003304902936 0.2785767636904601 0.20942111598582788
43957000.0 0.9257562269135962 -0.3705087152290783 0.03535238190043134 -0.045300165361464785 0.00014732503103939338 0.0007058937413416001 0.28837774473274985 0.20745281636037854
44956000.0 0.9222285246915028 -0.38014716386464625 0.03444072030592871 -0.05215369407615141 -0.000687300415807314 -0.0014899978962065999 0.30146399965913206 0.20492895647643067
45955000.0 0.9165643402366033 -0.38931732393465396 0.03729830021470178 -0.058045654608282066 -0.00011592205978655752 -0.0016769053831384886 0.3096968438992528 0.20607289387700126
46954000.0 0.9153681486428887 -0.39789418824492834 0.040486709288967575 -0.06448308935039192 -0.000307226819379143 0.0023892549195921255 0.32450286171272785 0.18549740754590144
47953000.0 0.9114124760407348 -0.40565503976568207 0.03845789154356221 -0.0751560520077632 -0.0009478746069698406 -0.00041017957749109123 0.3378629020640844 0.17688603071140158
48952000.0 0.9068983902947576 -0.41518766471413554 0.0392004132763622 -0.08045884006634947 0.001114167836241013 -0.0012499692031750298 0.34096435545451714 0.17565295779600676
49951000.0 0.903068874193481 -0.4204884937390306 0.04249879305976527 -0.08803687038794171 0.0013246606808980281 0.0005540542926634293 0.356528172131487 0.1609601203453227
50950000.0 0.8989800893676946 -0.43055756136601725 0.04211189966964489 -0.09421692237440026 -0.00024546068035419835 -0.0016158259793644409 0.3563826834351832 0.14368193878681476
51949000.0 0.8942952433640142 -0.43841745634326484 0.044729985127231565 -0.10500816258523735 0.0027738464328635314 0.0026228762685628656 0.363005925715886 0.15083525065498665
52948000.0 0.8928629865445422 -0.44598041915734465 0.04418339561274068 -0.1127386127275746 -0.00012731733771979175 -4.4382269344801375e-05 0.37789643458962613 0.1489485289569803
53947000.0 0.8889403489641358 -0.45361294688701337 0.04757501935846521 -0.12126599842528679 -0.00106634725972971 0.0005013964559816299 0.37470791851084223 0.13462794725565713
54946000.0 0.8812710735540864 -0.46244735670217435 0.047184658010269324 -0.13376258461671534 0.001823675995725024 0.00052054402372935 0.386880310566573 0.13364059898066913
55945000.0 0.8795708566420211 -0.4725752449409734 0.05003119568052373 -0.14553639595007548 -0.0013914004780906288 -0.0016437985510606734 0.3982595933672483 0.1157049808958717
56944000.0 0.8744046964748337 -0.4808130170645903 0.05379792792296614 -0.15025770681677308 0.0008155840944678009 0.0010020969328229366 0.40459137923710076 0.11515963876315571
57943000.0 0.8704732230611093 -0.4903373228325622 0.053985962162594506 -0.16444434152666645 -0.0023469356837824864 -2.8444351239447586e-05 0.4086111729309714 0.1099746918889333
58942000.0 0.8638824902052891 -0.49676036597207374 0.05535553257381184 -0.1752906538023909 -0.0007660713399718431 -0.0010944510296649846 0.426412456153212 0.10167020421315692
59941000.0 0.862143820591547 -0.502372025065897 0.05910204522304693 -0.18695269466496844 -3.850288580963994e-05 -0.0008437795295409458 0.4091993282806362 0.09556540727421274
60940000.0 0.8534835877094296 -0.5106110012138795 0.05498053542001268 -0.1890394113272117 -0.0012117420959224788 0.00030793908096472263 0.41619519570980845 0.07124303693775458
61939000.0 0.850727422970919 -0.5183121216045976 0.05833173459018197 -0.19667164384656616 0.0024191318619072866 -0.0012204524471297452 0.42141664647760113 0.08035991444950985
62938000.0 0.8448558247000366 -0.5278470533094042 0.06149152777617443 -0.217194952024102 0.0004080823512596599 -0.0027095633588125204 0.43440713643886725 0.0587237152029179
63937000.0 0.8392813321568793 -0.5359074117130439 0.05959712853927423 -0.2381153791565619 0.004013681131450946 0.00022132620286105257 0.44087331873068814 0.05587522556732184
64936000.0 0.8346640597033476 -0.5411098503007744 0.06341473547099234 -0.2502334200489496 -0.002856433983131089 -0.0031254001939773827 0.44798912702215904 0.055095443495481976
65935000.0 0.8289965888284149 -0.5526232595347864 0.060600263120308945 -0.2632327620239345 0.0017515784440177357 0.0011770534403128892 0.4418210787582909 0.02449258016061564
66934000.0 0.826984312360262 -0.5584488694258628 0.06267373376330393 -0.27994986123993076 0.0009671615137259912 -0.0011877910038252727 0.4415643828650543 0.017972595634483
67933000.0 0.8211569374693534 -0.5658962648462635 0.06378663999996786 -0.2941826461076086 -0.0009164785947190096 -0.0009325798982108015 0.4433313794117721 0.032314788991696035
68932000.0 0.8163697059827384 -0.5703078265170988 0.06057512201590091 -0.30908177189062563 0.0008425719919435112 0.0014765028865844942 0.46022686994859546 0.005012701368385813
69931000.0 0.8066191049093553 -0.5842275439819922 0.05802131093252642 -0.32324636776285837 0.0024112093695462136 -0.0024774544372626814 0.45271844031741915 -0.013315346252103476
70930000.0 0.8030378893668776 -0.5881509848960473 0.05409618662028683 -0.34317903264142335 0.001898631807148506 -0.0008086309952660721 0.4444661650354512 -0.009434761930173775
71929000.0 0.7995227329103721 -0.596835230046392 0.05544215656160648 -0.36285137865544664 -0.0010858967848681711 -5.4254699629238264e-05 0.4527604247686006 -0.0301686496908022
72928000.0 0.7923145746524027 -0.60779303691831 0.048427035123091114 -0.3790088044526498 0.0040851623050865956 -0.0028642744651481244 0.4765017175787975 -0.03737535276697624
73927000.0 0.7853794566206426 -0.6118723884269205 0.039502314217771575 -0.39815490893576894 0.0011169131642335959 0.0009900274487036691 0.4697954787389046 -0.044710970786189
74926000.0 0.7817385081566827 -0.622882875788028 0.0324698958702627 -0.4210763496021861 0.0001057835877082324 0.0011901773509778173 0.4702566279622448 -0.04484276411182624
75925000.0 0.7736187941958422 -0.6257883059821199 0.021657425868853077 -0.44147245719481204 0.0007618638804563582 0.0038026482534749355 0.46679789259776844 -0.06334010034158653
76924000.0 0.7662193486210644 -0.6350891804673668 0.0071760186317387665 -0.46332814925626625 -7.313417450614419e-05 -0.0023408618595814885 0.4707609112979398 -0.07259525837086922
77923000.0 0.7617963593374426 -0.6425318813142411 -0.0031749869608901963 -0.48873600538409095 -0.0003443171560191295 0.0023102220016498194 0.46301937409971083 -0.08589461587498988
78922000.0 0.7549924372460318 -0.6535939943927702 -0.015500151780887086 -0.5200645173987642 0.0024791813679419694 0.0025619784182832972 0.47437749165666926 -0.08894532906525622
79921000.0 0.7460926708559843 -0.6550437007192604 -0.036831932397366124 -0.5425963179014726 0.0007815447699063039 -0.0005765758614936134 0.47076647089217205 -0.10142836956556947
80920000.0 0.7423487730439606 -0.665753775049099 -0.04554355806258529 -0.5719118251342247 0.0024641447555406146 0.0015711213875260193 0.47784097472350523 -0.1184511756813346
81919000.0 0.7375631203416101 -0.6724176873290497 -0.06306360127095655 -0.6048357840378972 0.0011323549609481732 0.0026217626629647583 0.4810491647688664 -0.12049362361625639
82918000.0 0.7260959810987704 -0.6792299641868093 -0.08042170810659502 -0.6349715710385919 -0.001644198138452482 0.0025658566080764126 0.48535136816684527 -0.12834791141102128
83917000.0 0.7189874151872155 -0.6880660916419342 -0.10105970568169358 -0.6627569890393684 0.0003369653345259825 0.004434074246826704 0.4768024997495104 -0.14789751104267496
84916000.0 0.7135135286985764 -0.6963345719624335 -0.11205016333793606 -0.6994701474751742 -0.004070013741519706 -0.0003885498973572119 0.4826796586384358 -0.16604249679429375
85915000.0 0.7078651976128993 -0.70123813920269 -0.13008810905540005 -0.7318313519680544 0.0011425053207536641 0.003410698269423663 0.477995918517632 -0.1657166180939176
86914000.0 0.6996786863869862 -0.7113318098052284 -0.14467253828444196 -0.7683714436828953 3.223716023241431e-05 0.002994169906698875 0.47171432637607297 -0.17164939592252496
87913000.0 0.6923731406346579 -0.7169421918039837 -0.16327516941557466 -0.7970640074814038 0.0052692629664741674 -0.004820424396777098 0.4669889381161672 -0.17316209333204122
88912000.0 0.6857001837948434 -0.7236442642298202 -0.179322142412508 -0.8321609868322284 -0.00029379208218566905 0.002431693640946947 0.4636559441417815 -0.1957022850224116
89911000.0 0.6778391520521276 -0.7348322738953785 -0.20147518141161352 -0.8722846583886235 -0.0031998581327791005 -0.00021603267256701934 0.48179504975021376 -0.20316562589224832
90910000.0 0.6698047644219007 -0.7369210746441724 -0.21224008144890272 -0.9042531274618646 -0.0022946136407096317 0.0028277309423580758 0.47193883406538506 -0.2076495424483399
91909000.0 0.6611402513741574 -0.7420665475635697 -0.23527542489397044 -0.9391033919909786 0.00011206371131156395 0.0005198967171131959 0.47509441079951903 -0.20781888613900767
92908000.0 0.6546248233943449 -0.751575715125178 -0.25319971773729144 -0.9744045908152095 -6.171136699046087e-05 -0.0006699787687480616 0.46441027079090835 -0.2194203200547186
93907000.0 0.6488290478523338 -0.7559817295834826 -0.27074036321935707 -1.0095563323261614 -0.001184730051166493 0.0016050518303977101 0.47824080517675116 -0.2306111325584537
94906000.0 0.635681600506704 -0.7630983410506376 -0.29095038872208906 -1.0428563862039997 -0.0019574831448708877 0.0008787408771909839 0.4854634212422488 -0.2282977686986251
95905000.0 0.6279611079209888 -0.7723396725979084 -0.318359058909187 -1.0772472658305783 -0.0024308684678240123 -0.0011790673943481511 0.47047343964155847 -0.24934372987071643
96904000.0 0.6205994864284095 -0.7806625690026354 -0.33593794325976584 -1.11828308174603 -0.0021614238576993217 -0.0011044035447299973 0.47178109475687147 -0.2580134346405394
97903000.0 0.6115816542158979 -0.783222868611193 -0.3563496582704026 -1.15377268062412 -0.0004205509710038634 -0.0008646228971220388 0.4679492140104659 -0.26792447851771056
98902000.0 0.6077300297657935 -0.7911706371737186 -0.3797927370603049 -1.1944247224439228 -0.00032158072318298666 -0.0007916001219012712 0.46092195211995307 -0.2811298297067241
99901000.0 0.5969317337548447 -0.7967112500658161 -0.4099749394623414 -1.225921254409454 0.003247527356092815 -0.001242754026277449 0.4653639143807954 -0.2971865388239914
100900000.0 0.588186068011446 -0.8020467391226241 -0.44566117361718893 -1.259202344263681 -0.0017631997524012902 -0.0027719971828867413 0.47639826310434 -0.3039272572116033
101899000.0 0.5798344833488599 -0.809203732772261 -0.4723044316815712 -1.3039805222770577 -0.0025968068631728233 -0.0015753842762889704 0.4624736581477303 -0.29896268376079355
102898000.0 0.5687902663286456 -0.8150633333856875 -0.5112588675573957 -1.3385589008033711 -0.0017848703468261139 -0.0031642855910806833 0.46461189990480206 -0.331245047789171
103897000.0 0.5604403089522866 -0.8228708146133666 -0.5535877863513038 -1.3808415431491996 -0.006191785082688786 -0.0005096012984418579 0.4659873271888457 -0.3174105016999212
104896000.0 0.5523352823860188 -0.8334149093948086 -0.603125311836104 -1.415733810766559 -0.0001602697865819289 -0.0007109967718365414 0.4508969091030568 -0.316915038714337
105895000.0 0.5425870382840627 -0.8345580798627074 -0.6489051593298285 -1.4635301629020598 -0.002733099302092331 -0.004291175726872813 0.44562233595320067 -0.3371596040981374
106894000.0 0.532665088290954 -0.841098593368215 -0.7050317755381932 -1.4986838821931272 -0.000240173076827315 -0.0009350246142857955 0.44832569997326244 -0.3441913721775784
107893000.0 0.5257631663366633 -0.8474658655070694 -0.7569776127226261 -1.5430014110015433 0.0012347457812490366 0.00036064403084995857 0.44348503884771334 -0.3647838471248997
108892000.0 0.5145790797494286 -0.8506376055484679 -0.8170855472273917 -1.5819342395662703 0.0012404971842797923 0.0016716437758966193 0.44033758539232815 -0.35953953965155794
109891000.0 0.5041290031049624 -0.8594869594068294 -0.8807607387611385 -1.6236964005185617 -0.0031190006228482016 0.0009379725879110385 0.4581026240458647 -0.3635096831547862
110890000.0 0.4857656013452742 -0.8590511769700709 -0.940369664543803 -1.6210549208789242 -0.003194213643375454 0.0004619420305613103 0.43828572748929745 -0.3743548798348665
111889000.0 0.48322841681020345 -0.8637275859529463 -1.0071932129356638 -1.6917622752373735 -0.0002453333337831753 -0.0018158626331206426 0.43541008679978677 -0.38384496994880907
