! Created with skrf 1.9.0 (http://scikit-rf.org).
# Hz S RI R 50.0 
!freq ReS11 ImS11 ReS21 ImS21 ReS12 ImS12 ReS22 ImS22
1000000.0 0.9853850553047779 0.017087127754239272 0.012866997431357195 -0.046463400942585414 -0.021526385187973666 0.01866876989249661 0.2895021733999559 0.3672508718664966
1999000.0 0.9981125701373158 -0.012393307544468157 -0.0016706200237729745 -0.02187788025377616 -0.005038238543771512 0.001335174218952389 0.22399000898648777 -0.030149837690991357
2998000.0 0.9995986907354479 -0.02357471691915508 0.007334077048737313 -0.0147478166231339 -0.0018396091939585782 -0.0013408213540599175 0.19320797670194617 -0.1297478024042805
3997000.0 0.9993438333715294 -0.031505343075375176 0.012956754005370939 -0.0019054256349708713 -0.002952270830114566 -0.003057570277108059 0.10982446258516912 -0.21942260278029424
4996000.0 0.9952765637562744 -0.03665526152549783 0.010745338489237515 -0.00022079447849944096 0.0014947186848455907 -0.002770386797502014 -0.04780738377584402 -0.21912579656388967
5995000.0 0.9966686522495312 -0.04894639209526179 0.002589469870840982 0.0029727408286136865 0.0012143973815262775 0.002681327219408724 -0.1139319019878248 -0.11668071202832404
6994000.0 0.9920876219611859 -0.06081106532037706 0.009507206064891006 0.002615271376014282 0.002839161149336022 0.0014638280960211681 -0.14945269502327743 -0.02444501074410123
7993000.0 0.9969728058818539 -0.0660271210511491 0.004967169316996914 0.005860044234917038 0.002792549030711155 -0.001969661005369754 -0.16765099800461009 0.04437468142204773
8992000.0 0.9962845934388578 -0.07524607426577175 0.0017014682294688886 0.006784133335644871 0.0017925013487303972 0.0006638821350327983 -0.17483846619956378 0.06331885534297028
9991000.0 0.9923038429735461 -0.0825401873376952 0.0025028391205853973 0.0025788835284803603 0.0017832180309224296 0.0008646181343125605 -0.1561111617565838 0.097252152106006
10990000.0 0.9911421399341196 -0.0925358720000736 0.007900651089989618 0.003194166750303724 -0.0011703562767726905 0.0026385051621550344 -0.14104702126612945 0.113687496321944
11989000.0 0.9897706644372987 -0.10243805014421416 0.002283330482248381 0.00030709431641822544 0.002690758380655914 0.0024056444889945738 -0.13237377829082872 0.13550590814429653
12988000.0 0.9900532565619723 -0.10883212095256359 -0.0018406721410972047 -0.005232314458582228 0.003033595425917965 -0.0023985331994261826 -0.1244612994306186 0.1757437038019909
13987000.0 0.9860139017720714 -0.11936834922715435 -0.0037965673605941438 -0.002738707685436914 0.00029495623524397027 -0.0006201649669851592 -0.09814195925142397 0.1844482879063447
14986000.0 0.988163771008101 -0.1249308477720744 -0.0025628829669224816 -4.905723464327609e-06 0.00031416047991155734 0.004405387473759571 -0.09613706198544951 0.1979130731812475
15985000.0 0.9860823568015811 -0.13448057922852488 -0.001867508861795915 -0.005606339947988681 0.0031131092435707107 -2.6672555333846157e-05 -0.07489679565264062 0.21281176585371542
16984000.0 0.9860575552276916 -0.14388511929448441 -0.003580508769624069 -0.00659001496650388 -0.0019710591250101744 -0.0007382973341128391 -0.065513197381091 0.21307984465386726
17983000.0 0.9832070522468916 -0.150984045835903 0.0008904429794943309 -0.0053941935391454265 0.0001522177533795304 -0.003322940740950536 -0.05691089190454615 0.23090853161596056
18982000.0 0.9825391510686231 -0.1619341752760959 -0.0035704714446645382 -0.007514813114278699 -0.0015129262041873853 -0.0016108730769316215 -0.021784740662222087 0.23809888236228607
19981000.0 0.9827232048212484 -0.16866888778566927 -0.0042227503499277 -0.00407385530900221 0.0028289779029024753 -0.005030673615023093 -0.013931397964430648 0.24620215223014758
20980000.0 0.9798556589282199 -0.1766631095456664 -0.004251298249129708 -0.0010584323059141193 -0.0005678421237045566 0.002738853381505242 -0.007469117936288072 0.2642866010578202
21979000.0 0.9782385590871064 -0.1853352719483849 -0.005034592622010053 -0.0054206150522705405 0.0024796457233656304 0.0008323099179335425 0.020862620911212073 0.24308671565678996
22978000.0 0.975796843187605 -0.19397060910123615 -0.0038959731413497414 -0.004823936936971857 -0.001262739262304337 -0.0024933438958024017 0.028194497529486745 0.25478500939825677
23977000.0 0.9777853165736956 -0.20120158960077253 -0.00920519815989993 -0.00013806569027446014 -2.0540008711962864e-06 -0.0023568941280136834 0.037824981811016914 0.2520577427781901
24976000.0 0.9729385575885962 -0.21214324373503401 -0.004729210320995993 -0.0026687465477794954 -0.0008730642623863056 0.0017660731633326677 0.06572664023124834 0.25304983581277435
25975000.0 0.9719044770622557 -0.22658475635254793 -0.008119575732250707 0.0004933138713541385 0.026875466802767253 -0.0015535051589729131 0.06817786684695326 0.25762827937446836
26974000.0 0.968909785417047 -0.22880041241241694 -0.0032666814070489154 -0.00010156996492197808 0.003114690981915745 -0.004075851249613108 0.08649056116051182 0.26871719959090773
27973000.0 0.9670701216889933 -0.23708263533299057 -0.0021542809263638465 -0.0034633083500469506 -0.0012590042256799474 -0.0005878574581725031 0.10162575064242406 0.26131451397954125
28972000.0 0.965733446419923 -0.24429817878137683 -0.0012279379809060436 -0.0022031995893128675 0.003105655017343215 0.001127662534826317 0.12178890255378474 0.2564101156189918
29971000.0 0.9637347696084968 -0.2557763293967165 0.001243167647006591 -0.0009158501099312571 0.0006385385127616349 -0.0010306430137545974 0.14498268449384294 0.2662816557387287
30970000.0 0.9600703042857986 -0.2607470417733898 0.0027724021833092083 0.0006096673003428472 -0.004183795824178178 0.0006248118746032658 0.17293220343698443 0.2549591596009632
31969000.0 0.9596873050682092 -0.26947219660647337 0.00463727990353568 -0.004404538682343943 0.0012946928994228958 -0.003212660428520875 0.1538536798563314 0.2476653913744621
32968000.0 0.9569318841794093 -0.27982225349290135 0.007290972339995281 -0.009378200962163463 0.0030064855873932236 0.0010994951826965053 0.16051920755067522 0.25005516015532103
33967000.0 0.9554312309110777 -0.2901082850191338 0.009708128013435327 -0.010078724995992907 0.0004405613602623482 0.00012009713923649238 0.1871235924805975 0.24740062724487033
34966000.0 0.9513037324900359 -0.2989412608800036 0.017291120643203872 -0.01461817597213034 -0.0020554348147017103 -0.0003896267353264482 0.192438799291895 0.24764326054244595
35965000.0 0.9484968336401294 -0.3038182056092899 0.01702298632188436 -0.013203834275881305 -0.0018201315182869882 0.00022301458992474689 0.2196403849055728 0.2502243732883186
36964000.0 0.9481993383258795 -0.31445933389607666 0.013880595759348859 -0.014904064917516512 0.0011446354708530505 -0.0002836956432675964 0.2096926908343923 0.2485596410031845
37963000.0 0.9422941160018699 -0.3238705487293566 0.022944306093911408 -0.02145365186323531 0.0013451105043633094 -0.0018465057474731793 0.22862962228514103 0.23400396080996955
38962000.0 0.9412175099152642 -0.3323869306078529 0.01969831769533371 -0.024243120923340356 -0.0035789812168157574 0.0012243916452998203 0.2503175987507626 0.23475485747616004
39961000.0 0.9371299051026817 -0.34130226252874296 0.024250893974966943 -0.026786342622032444 0.0027520770638978643 -0.0002433446542423108 0.2468474327436979 0.22972606642008553
40960000.0 0.935180871425141 -0.34784376533799466 0.020979068187285007 -0.025166733532845417 -0.0012873603254065769 -0.0001144525022474911 0.26343385643774064 0.2207655357077727
41959000.0 0.9327428352894576 -0.357199080929926 0.029341583356239414 -0.03002121421593161 0.00017088544001770986 0.0023942463035590044 0.26563493578627084 0.22250331717712382
42958000.0 0.9265280285813687 -0.3650156432786442 0.03176757011425347 -0.04098076301102738 0.0008573007186849581 0.0004195930516324767 0.28320296081565666 0.20288721476536076
43957000.0 0.9247125982818466 -0.373426382838487 0.03353594626461206 -0.04719412681327045 -0.0012539540454202646 0.00022916797349139493 0.28581193308406705 0.20312912585532578
44956000.0 0.9205975104715505 -0.38089818091792377 0.03427401553183687 -0.05381416786946914 -0.0017752844813393477 0.002646622116588555 0.304333327761767 0.19323139407055187
45955000.0 0.9172321569335993 -0.39156505631623617 0.03561061094979374 -0.057654757185530064 0.00045220036365107257 -0.0017806554701184723 0.30204501144217344 0.19598549678712782
46954000.0 0.9137742119642493 -0.39989715750692106 0.037580570766557866 -0.06624686818816221 -0.0007279842429958553 0.0008326307299582159 0.31992112169899795 0.1842228317550649
47953000.0 0.9100762891241143 -0.40724821412018697 0.03819327830045139 -0.07358470351631695 0.0027917935217012415 -0.0017318022271572983 0.33962409754451506 0.17818437561153813
48952000.0 0.9050296500845337 -0.41721331720819566 0.03847022593057312 -0.07947789697929016 0.00015898635796434633 -0.00021967723969322067 0.3309048883118695 0.16084565652919944
49951000.0 0.8999105221995577 -0.4239445038203932 0.03952034361246491 -0.08619818445775239 -0.0008446875495802229 -0.0010534158533476506 0.3556055555756425 0.1495708476867689
50950000.0 0.8981824677562701 -0.4312792107025989 0.04167546922740494 -0.09681267665381235 -0.0021841150742138394 -0.0024068290360953924 0.360605822072731 0.14505383603079883
51949000.0 0.893565051119045 -0.4402864229789721 0.04115556060104774 -0.10429634523042255 -0.0016008828799321951 2.2090802248923424e-05 0.363277654540401 0.14349296242542717
52948000.0 0.891878913414002 -0.447772175857834 0.039549574231231684 -0.11444043233148979 -0.00042698101083868623 -0.00034218782128119885 0.3739071473506697 0.14054121973671851
53947000.0 0.8865273408205759 -0.4540752386770263 0.04638770429311225 -0.12184037041762791 -0.0005504747823519962 0.000591549219345713 0.37282725990648413 0.13028465401045092
54946000.0 0.88045755834074 -0.46659910597177795 0.047019243693115505 -0.12878012932703328 0.0005265969661995194 -0.001744258470099676 0.3784629382037766 0.11910564103418608
55945000.0 0.87810031659844 -0.4746847038716534 0.04861140647191014 -0.1413226230037595 0.0008243046100565272 0.0016653189250037234 0.38902760674834014 0.1064959577083506
56944000.0 0.8736442200536522 -0.48151577706119436 0.04812897493722124 -0.15201371499881952 0.002116614783782046 -0.002239148319691057 0.3910179909870477 0.10414669871912922
57943000.0 0.8676016166814415 -0.49249598139756307 0.0470281105547477 -0.16177164211162115 0.001223836975425725 -0.004836838486520385 0.3976396778795238 0.09996508441930387
58942000.0 0.8620951868709092 -0.49812926034013694 0.05224868893323216 -0.1734118504058138 -0.0006031340947618828 -0.003942014990456627 0.4238540044086164 0.08637766927088605
59941000.0 0.8598976319168389 -0.5070596776167601 0.05185476645102965 -0.18408785298685293 -0.0010753405312171516 -0.002238066038887507 0.423436474532673 0.09069293196815804
60940000.0 0.8508972331083958 -0.512959809183406 0.05371897877033561 -0.1889090304250229 0.0026738365740512403 0.00031500173303479733 0.4101706167439425 0.08211845681443271
61939000.0 0.8490125242160094 -0.5205017825967171 0.05502647730231237 -0.19605124698891385 -0.0024253756771290273 -0.00021043777630730328 0.4231244865004194 0.07531126478187988
62938000.0 0.8428590039740532 -0.5314616875908057 0.05897485848820596 -0.21439384992939065 -0.0008707354855568107 0.0025376528108260092 0.4342039117831945 0.0637219780990976
63937000.0 0.837745168918603 -0.5395783417730378 0.05832121642100266 -0.2341059476810971 -0.0030745883692757064 -0.003036423700855095 0.4291282475432381 0.044239321734282876
64936000.0 0.8316802826858213 -0.5429451616393984 0.05454632451636807 -0.2505037978215202 -0.003800983529596304 -0.003484360451766955 0.43527679290184146 0.04701427108961112
65935000.0 0.8289684095048176 -0.5566821178626566 0.06016929046270941 -0.26245504627997557 -0.0027068576583800337 0.0009174247451804216 0.4459534754721254 0.018504611506231245
66934000.0 0.8233349435544479 -0.5607010337891255 0.05740218935136922 -0.2749767949149156 0.0030842646823601924 -0.006000632726466899 0.4385555236554781 0.022918169273339152
67933000.0 0.8193083175941129 -0.5692227399411448 0.05854462865605009 -0.28845758470791716 -0.0007778712932705533 0.0004075063393195212 0.4451182628841689 0.00862813497981468
68932000.0 0.8049346413355264 -0.5623340108361289 0.051983111720564835 -0.2980707999818957 0.003414128432564526 -0.0015108120835016163 0.45642518382797737 -0.007093934916325967
69931000.0 0.8073738030341961 -0.5842489154667717 0.053724037906839994 -0.31886698716365164 0.00031116632717309854 -0.0024016179876538654 0.4512642859636424 -0.009371977444168806
70930000.0 0.8011424344452746 -0.5912580900825789 0.04988747744553697 -0.33579205480387864 0.0015763816500325943 -0.005477118222280812 0.44209556696158997 -0.03129000995398273
71929000.0 0.7965597180075452 -0.6021297406645348 0.042185836687297876 -0.35272336671084414 0.004316405388721719 -0.0012608371437319364 0.45708201996498615 -0.03840017982793815
72928000.0 0.7899544539069749 -0.6078829261112151 0.040290137340810606 -0.36804613877641856 0.00017848068839761703 -0.0009164818731945073 0.4632573870112768 -0.03847854013920129
73927000.0 0.7847694665605905 -0.6158456140845743 0.032263845165652415 -0.39125807258527184 -0.002025837430201224 0.0010091134515482886 0.461778165635965 -0.05239045663938474
74926000.0 0.7786378103417202 -0.6239753596827773 0.02294964014878346 -0.410078486697524 0.00029696728608984683 -0.0022102650810010165 0.4752614754667162 -0.05574582350893978
75925000.0 0.7715960884107845 -0.6301423403534926 0.014406458858766893 -0.42974862875745246 0.0002561654542736047 0.004024678801175667 0.470967686354373 -0.07190202302445292
76924000.0 0.7666756857484838 -0.6361754430627546 0.002974906731469484 -0.4543528398436935 -7.312325618175513e-05 -0.001510694272415626 0.46663011398077225 -0.08565853661656551
77923000.0 0.758204135190533 -0.6449773045247221 -0.008566152804290593 -0.4799282541467459 -0.0007524271172788375 0.0015605753502322336 0.4616454111254334 -0.09503182779905703
78922000.0 0.754011662478482 -0.6547209486311215 -0.025814054514848073 -0.5020576305430527 -0.0037201138031124716 0.00114285060690016 0.46206939627551497 -0.0928379824133479
79921000.0 0.7434028973139128 -0.6584400881077032 -0.04216992730490983 -0.5280993780931185 0.0017169545500523161 0.0012988566280597133 0.46151975524655103 -0.11572989094509506
80920000.0 0.7403375733807741 -0.667122779765964 -0.05523579610870668 -0.5605034528218692 -0.0028427239314598868 0.0023857744910207343 0.4781963272330385 -0.11938802870821151
81919000.0 0.7347693829249987 -0.6744163376854216 -0.06884348838836124 -0.589655309114165 -0.0013126072957545683 0.0004900704611307229 0.4707486817577474 -0.12282534481263666
82918000.0 0.7258609309547928 -0.6801674776159483 -0.08726476888592827 -0.6190896489518182 0.000296691616697723 0.0040460031694334216 0.4811092942241038 -0.1412900082142566
83917000.0 0.7161275378470238 -0.6900789934276798 -0.106202317750325 -0.6466710839634466 0.0009713044377036972 -0.0003653926908438435 0.47057996275319314 -0.15561245986489428
84916000.0 0.7120136119619531 -0.6979598318749392 -0.12445393016314833 -0.6834563904660972 0.005894927380298438 -0.001013735770064266 0.46198635498541 -0.15968417084136644
85915000.0 0.7045950989886324 -0.7028016004230493 -0.14115961980129713 -0.7119825733959738 0.004145614356380368 -0.00374009494868419 0.4748193227299641 -0.1744679279502632
86914000.0 0.697682119416491 -0.7119102977760002 -0.1551246933365529 -0.7516851418827171 0.0018017921925248088 -0.0027041098160867365 0.4697711280868906 -0.17595247393819222
87913000.0 0.6903751457509529 -0.7197465436800308 -0.17695993317883357 -0.7756093417477272 -0.0016186375216134892 0.0003417739291021795 0.4575527506351945 -0.17441167519167833
88912000.0 0.6841496810005655 -0.7246312956806547 -0.19127174419825116 -0.8106096078238642 -0.0003936114988455535 0.0025823309433195348 0.45898187306719185 -0.20065437040027861
89911000.0 0.6744126500973016 -0.7354027310397582 -0.2074863082732674 -0.8498374715080118 0.002253363905699279 -0.0003557258247030877 0.4769806959100926 -0.19877651423929277
90910000.0 0.6680457368259733 -0.7391532679415294 -0.22430872095351545 -0.8815027494098915 2.1588445318214925e-05 0.0004989611819670868 0.46245681540838685 -0.21153381486262
91909000.0 0.6590338956528772 -0.7446399403776246 -0.24841242174366468 -0.9154281058518182 2.7469831672649325e-05 9.399994955347749e-05 0.4696793189047558 -0.2352632749966826
92908000.0 0.651957495221481 -0.753413002641667 -0.2618558285758029 -0.9453040565563441 0.0009175862260537087 -0.0014457518775130513 0.4619333700521636 -0.22902578884756805
93907000.0 0.6478261998857335 -0.7587277982198948 -0.28180501783450884 -0.9793420802545412 0.0013167320338043564 0.0008867190135716294 0.4615657095936051 -0.24370226300211453
94906000.0 0.6304101669721747 -0.7673124267748533 -0.29698533755072903 -1.0143738253178065 -0.000270435821676747 0.0022329217540610737 0.4656228678691914 -0.25105225271498677
95905000.0 0.6264579175276979 -0.7748160547658134 -0.3228071528189131 -1.049215864499745 -0.0016516301240344768 0.0029450167021566886 0.4695435585685533 -0.26262440045582114
96904000.0 0.6181236179492207 -0.782562695123123 -0.34267976377401976 -1.084884137673596 -0.004716268712722488 0.0004288935096500922 0.46060285657052513 -0.2684744630818213
97903000.0 0.6067987255435512 -0.7860485163803326 -0.36052759204139906 -1.1174822629025618 0.0007187780372361034 0.008379479177639086 0.44757231024419913 -0.27823435780411854
98902000.0 0.6021206706042973 -0.7942317052548528 -0.3863869488135251 -1.1538499396921484 -0.0018510834572143162 0.003695923753126882 0.44975895987956693 -0.28687567979536027
99901000.0 0.5935931510433275 -0.8016920084898275 -0.4170994675900552 -1.1887212559154028 3.2473427691390835e-06 0.002342894773472539 0.4629541632514884 -0.31233845287782647
100900000.0 0.583538789332822 -0.8022880913200596 -0.4508458161788662 -1.2125892692148532 -0.0006003448337818501 0.0022956577720950576 0.4597286907738243 -0.29756895820025564
101899000.0 0.5770596302316936 -0.8093747771470651 -0.47595468514919037 -1.2605602812180525 -0.0005542541384091151 0.0038001382536108305 0.45439175893873174 -0.3196749881998363
102898000.0 0.5655915875385964 -0.8166901265495808 -0.5106158776351887 -1.2947497598284565 0.0016283894674444755 0.000697364308295813 0.4593940532026129 -0.32837030174952614
103897000.0 0.5562666383405477 -0.822824960227451 -0.5556820845578244 -1.3303130821492626 0.0010637814711848294 -0.0010639020041563225 0.45432842441239385 -0.330369728183367
104896000.0 0.5496405191614685 -0.8343531077552905 -0.6015383153095621 -1.365058795640515 0.0007546087145188933 -0.002601487456628062 0.4403872514376359 -0.3313619772397015
105895000.0 0.5392439501063017 -0.8365464184746428 -0.6498704872318349 -1.408503077225626 -0.001972382813569916 -0.0015645150293730071 0.438525493313717 -0.3479706511589177
106894000.0 0.5278918767996242 -0.8420252222362288 -0.7065226030792366 -1.4434931666492707 -0.0021800958541266127 -0.0007453256691111315 0.4306764836290339 -0.3578481498148768
107893000.0 0.5194582601599006 -0.8505896400031269 -0.7547984611136911 -1.4855855674192597 0.0005861348266221315 0.0008633275453399155 0.4409389168268937 -0.365885103977363
108892000.0 0.5118247649586 -0.8510038978266043 -0.8169523547074217 -1.520511080084259 0.00026118152899837996 -0.0004036539408442192 0.4231862642281201 -0.3665776296852383
109891000.0 0.49871774327780094 -0.8606464338925116 -0.8763168436586513 -1.5581710527795525 -0.0017735069768944425 0.001087961891523198 0.4434322481728094 -0.3686059559833616
110890000.0 0.48941338333597784 -0.8624350943077579 -0.9329755753182607 -1.5722763390573429 0.000379911134126931 -0.00029312048217821463 0.4223946565729018 -0.3734345982855101
111889000.0 0.47916708717877715 -0.8679434042157392 -1.0053881860462297 -1.6273339338189539 0.0019914470169022157 -0.0013556473826815242 0.414633852639531 -0.39627162581908343
