! Created with skrf 1.9.0 (http://scikit-rf.org).
# Hz S RI R 50.0 
!freq ReS11 ImS11 ReS21 ImS21 ReS12 ImS12 ReS22 ImS22
1000000.0 0.9731403612014944 0.008998656311135033 0.009891856218156934 -0.029953895919444435 0.002559316070802135 0.024211045642033593 0.3729571654223495 0.27968013211546894
1999000.0 0.9988278129018567 -0.012836608658579001 0.014104094844454101 -0.02086997947168715 -0.0041914989201711295 -0.006319848183485443 0.24916453894598206 -0.03885415116929193
2998000.0 0.9996061703641818 -0.02202037186571489 0.009343129937559744 -0.012166506440316993 -0.0003884511770518777 -0.006613462095186077 0.1878301697585496 -0.12533113969590493
3997000.0 1.000618303889461 -0.030870705266130467 0.010937178634206027 -0.000997506804521744 -0.0005537878973090629 -0.005066906925566129 0.0939863057333831 -0.23362704931996003
4996000.0 0.9972665118001393 -0.043936328399433185 0.010014285931037268 -0.0013502289442272554 -0.0035548976523162384 -0.0030862114429436776 -0.04422159821694283 -0.20081266720909138
5995000.0 0.9972005006639428 -0.04618423351471509 0.011569185749426739 0.0011054921936229378 -0.0010476749261829144 -0.0035641438380132227 -0.11496014762557882 -0.10689406035839935
6994000.0 0.9930400645594742 -0.05931887299464771 0.003671476212531573 0.005438399249753075 0.0017154158675776968 -0.0029340499031650195 -0.14269996965812365 -0.029358761514420035
7993000.0 0.9971809349833054 -0.06961401765923933 0.0016534901312875217 0.006370485885545526 0.0017420551950920466 0.0002882806373896984 -0.15500299484476143 0.04722995218126802
8992000.0 0.9942252416264268 -0.07070072489277109 0.005240042437714715 0.007549987928722062 0.00010262557681403576 -0.0033700121707520626 -0.1595508371600029 0.06442576753405616
9991000.0 0.9935551273340831 -0.08176491916533456 0.0017877277238617314 0.002326598330983703 0.0010450273186358593 0.0004608770738816876 -0.1421376347583363 0.09354478977150886
10990000.0 0.9923232431046196 -0.09311877876846372 0.0024277660511683712 -0.001295970100656005 0.0008104312156680708 0.0033430301711690805 -0.13362956061443276 0.12175145158474966
11989000.0 0.9896847705497397 -0.10238548361417822 0.0017682920888684684 -0.002510608429633181 0.002236015257844971 -0.004230161348185727 -0.12711512107836387 0.14737170901578395
12988000.0 0.9897880548625418 -0.11030918427504478 0.0008304894960429535 -0.0038579991315296222 0.000323720885868949 0.0035046902750219206 -0.11165601473937638 0.175014712048788
13987000.0 0.9884525014294313 -0.1202437929495741 -0.0019272966122008102 -0.006549297349845958 -0.000997463049833719 0.0008702292235752691 -0.09188132593764829 0.1925398692301925
14986000.0 0.989403182044805 -0.12622514460128184 8.862692031392839e-05 -0.005522022210331848 -0.0015091421610314317 0.0009181376838897203 -0.08600645619525518 0.19563402012928033
15985000.0 0.9874331272283623 -0.13727206704940698 -0.004561737014193336 -0.002982689198397726 -0.00112525197709272 -0.0010802605135100162 -0.07950940301979147 0.2290127688114494
16984000.0 0.9843956937912718 -0.1444577715154184 -0.003335667048708674 -0.005673171662444135 7.344796742471937e-05 -0.006810569268540044 -0.05996665342270192 0.2247530385560372
17983000.0 0.9869642308265971 -0.15293113061068875 -0.007462946126392047 -0.005930898419082048 -0.0013635310635822398 0.003144688573904622 -0.048688205047829614 0.22604654145797165
18982000.0 0.9812328772021727 -0.16533006464205421 -0.003817315099849241 -0.007230599423378602 -0.0006742818511045709 -0.00226893641115281 -0.02687070185679467 0.23346127902787916
19981000.0 0.9810760947822202 -0.16736442294546366 -0.0011311694528734124 -0.006099636835270282 -0.0038752032686116436 -0.001866989190097691 -0.019632591543009552 0.23970871815381548
20980000.0 0.9814040930056964 -0.1769617881483635 -0.0031546717684116385 -0.0068099519892937995 -0.00514993036602278 -0.001610057646053851 0.0015430153162086166 0.268639672214928
21979000.0 0.979170989529531 -0.18634307672612715 -0.005874381813701969 -0.002825660995120888 0.0017093795112677966 -0.0020851757099241944 0.013417153984022125 0.23984842274290455
22978000.0 0.9751566583078564 -0.19705478294843431 -0.005108051751638149 -0.004557053552361047 -0.0024255143117084257 0.004094332791542183 0.029613533922830212 0.26088931219827954
23977000.0 0.9783137019252538 -0.20445369567534313 -0.002263897457217839 -0.0007934368088585261 0.002307369678349937 0.004884063663490814 0.03778315711970141 0.2652848632488442
24976000.0 0.9727457124095176 -0.21143554977794085 -0.0039048529821492143 -0.00343448327465725 -0.0022599865671300468 0.0010837958130532456 0.06715821025000462 0.25089913201136466
25975000.0 0.976060389804702 -0.2238099069373234 -0.005739307038129808 -0.004058456614018887 0.00845128733661681 0.022813545874108228 0.08029498643282514 0.2597440160739847
26974000.0 0.9697164034326152 -0.22893407009816896 -0.00411643490844233 0.0015065490143229305 -0.00012593441313872485 -0.005973505637838756 0.08708368564236092 0.27076403123005915
27973000.0 0.9686926529345345 -0.23719222710842247 -0.0059893919151629655 0.0004594913611119363 0.00144570199063964 0.00213042871405278 0.10310162943272776 0.25198036941261215
28972000.0 0.9653357765535043 -0.2463870118712484 -0.002084589213387847 -0.003831681388623934 -3.9988338739000605e-05 -0.0016950381546039415 0.12363293793575751 0.2583713240500446
29971000.0 0.9634024925543346 -0.25682618317666756 0.0015827885236224695 -0.00029464364864188644 9.952210089929027e-05 0.00013335634732771997 0.15212560769356676 0.2645806107179115
30970000.0 0.9619802899892306 -0.26068223735466867 -0.00019094663292198148 -0.0010638967409221432 0.0013677081047911448 0.0019255290846124902 0.1630282933025341 0.25797528245136764
31969000.0 0.9602039453413428 -0.2699445659833137 0.002520993632799688 -0.005968717482959253 -0.00029284963529157724 -0.0003549065279007843 0.15621831886844242 0.2490822538739315
32968000.0 0.9584453930595029 -0.2779334494083341 0.00803532583841149 -0.007376500263258768 0.0003429210470090212 0.0004483861013983782 0.16780307843348602 0.25098430705573077
33967000.0 0.9564862815430798 -0.2882110161494392 0.008349386157187591 -0.0060229289738684645 0.0029200449052364285 0.002373627853287616 0.18263030042481956 0.25031911049845984
34966000.0 0.9524290284183915 -0.2989402247205935 0.015088415236386937 -0.010863713621702594 0.00128980130182118 -0.0028565144843008213 0.19348664825724754 0.24779294536401997
35965000.0 0.9488656923079325 -0.3041440633745596 0.020386355362801045 -0.01239281299712027 0.001887007388896936 -0.0005891332744399756 0.2128756510903603 0.2546060662726935
36964000.0 0.9467489528797812 -0.3137543749910717 0.018159749289526145 -0.014233247956512058 0.0019899860593466756 -0.0025378214040798633 0.20730726891711518 0.255767060463475
37963000.0 0.9448318890348066 -0.3234221727339033 0.02084015000660291 -0.020791440627871097 0.00047496335601498465 -9.911303567131322e-05 0.22509118163283667 0.24390104940965984
38962000.0 0.9422973162279429 -0.33213371463857166 0.020278292045367977 -0.025469881618546363 0.0011883273894151634 0.00010192200416314906 0.24530447481528078 0.22838517825287888
39961000.0 0.9385892545337416 -0.3383510918732124 0.027368270540869544 -0.02677137110369531 0.0011536848523517077 0.00011091458358420832 0.2599017245260522 0.23093413763535284
40960000.0 0.9341459098555236 -0.34750749825751365 0.024776746150886337 -0.02221408427247315 0.0009125892853498936 0.0004337304194561069 0.26400596281795624 0.23484475160531884
41959000.0 0.9319436524524077 -0.3593156221633928 0.028253458779296636 -0.028665996537824843 0.0012780755826107475 -0.0013394291365108491 0.2740676268369075 0.2165370732460971
42958000.0 0.9273571079967686 -0.3661739296521115 0.03327863882885399 -0.04019433361829366 -0.00019544217564921708 -1.5073428358111541e-06 0.2802295566074627 0.2087257998178109
43957000.0 0.9260997164265783 -0.37218176512506806 0.03291800790388703 -0.046972327484271326 -0.0024678564904180166 -0.0023497138721984144 0.29268684317443927 0.21021851547991957
44956000.0 0.9215785935357836 -0.38191852449783925 0.03492886647471777 -0.05145385694660156 -0.0007720918538425854 -0.0005244943494632899 0.3103774020288547 0.20189816314869902
45955000.0 0.9172597420622735 -0.39236694100911673 0.03612264908950129 -0.05565847108542196 0.0018235369741384639 0.0011470634860154584 0.3074597391508907 0.19884134637008022
46954000.0 0.9120587154268928 -0.40078369889361304 0.03947075369271594 -0.06613245334795127 -0.001444872983892279 0.0026750479138546697 0.32880886619610245 0.18819570448826295
47953000.0 0.9115520711264218 -0.40710594507343034 0.03937120097661903 -0.07294220702685568 0.002777352961463495 0.0011890752144208343 0.33473329352334746 0.17802851019994667
48952000.0 0.9047901564624913 -0.4200633922607164 0.039853943639889956 -0.07719691653199934 -0.001467937017712353 0.0021379389710957054 0.3387831788668116 0.16495878112394613
49951000.0 0.9028520563462581 -0.4230188138810532 0.04176060342479027 -0.08727601458503588 0.0003753755920676782 -0.0015112972613489511 0.35052275495691365 0.15993614497484748
50950000.0 0.898446283056337 -0.43210952780313977 0.04079526375034357 -0.09547100416838562 -0.0016612303011003325 -0.003082147370990897 0.3539171338662436 0.1505412000679661
51949000.0 0.894226138097489 -0.4410484229835206 0.03947264172186889 -0.10508976974233494 0.002104724648042715 0.0017381740223928878 0.37297156033751616 0.146466296479424
52948000.0 0.8926047305300361 -0.44870200138666844 0.04530222032958351 -0.11031138247624253 -0.00019533219812032165 -0.0008948966313169825 0.3769838700809495 0.15133718297493765
53947000.0 0.8837328071819738 -0.457369367202558 0.04648144642950607 -0.12112522169053379 -0.0036645578529099177 -0.0011733929532941009 0.3749075418529985 0.13314081594966348
54946000.0 0.881732893160836 -0.46477074875923696 0.044742796281645035 -0.13087937357028115 -0.0028874304228781148 -6.50597773352511e-05 0.38915988244861754 0.13116910387960337
55945000.0 0.87839842169152 -0.4747766731789236 0.047789657595092246 -0.14133724433914738 -0.0016852944284945718 -0.004608495358984877 0.3919210137213399 0.11276667834465681
56944000.0 0.8740331803368244 -0.4822912781238078 0.051694428519091624 -0.14929468451801803 0.0008856926380732213 -0.001197158156864371 0.4001999122122069 0.10718336710157911
57943000.0 0.869610443022289 -0.4917949865813785 0.051760278163200966 -0.16272909164841443 -0.0018934468651928286 -0.0030305050316393554 0.40824589814805273 0.10818627941610616
58942000.0 0.8618577290123955 -0.49705316472847866 0.04873976871848373 -0.17288924212370388 9.48091911169991e-05 0.0005622667305769924 0.4259202372599311 0.097009272948796
59941000.0 0.859590384558964 -0.5056133328926093 0.05640834420638352 -0.18326470590646787 -0.0006000481040284026 0.00014379388370135707 0.4216893780882451 0.10017254121663802
60940000.0 0.8513816927379069 -0.513414199838431 0.055342918753000424 -0.18744126435963562 -0.0013345606652681139 -0.0006465204815380014 0.41254248541542354 0.08386343774419866
61939000.0 0.8496479965270224 -0.5198673947485234 0.057585210028637625 -0.19351760651022867 0.0021934395440628886 -0.0005436932075400496 0.41952274062161815 0.07061672808114589
62938000.0 0.8429339523092613 -0.5320262836827594 0.05985695275770153 -0.2117184104403117 -0.0006835951864956568 0.00229102445100439 0.4479303391046707 0.0651882673196237
63937000.0 0.837842171248699 -0.5384100025466333 0.06119317526980085 -0.23241941569776275 -0.0019993927523285857 0.0024531390855057366 0.44514419549061085 0.058442346854201695
64936000.0 0.8301104625053697 -0.5468647721558971 0.05787634803292595 -0.2448919890098115 0.001342702219784585 0.002844002626226908 0.4449797190488699 0.04733070003157388
65935000.0 0.8281755916703982 -0.5551576763644592 0.060783223509402275 -0.2590851563850119 0.001043168363910703 -0.0017901040718228836 0.43895403310116227 0.021409066515431042
66934000.0 0.8239778492424841 -0.5607340531212013 0.0622211980710522 -0.2757040442529143 0.0025078951502243573 0.0013173891689175024 0.443124827257007 0.023166791963283365
67933000.0 0.82074010151252 -0.5699109519804111 0.062001374981730105 -0.2904269891178588 -0.003113388762815087 0.0015450165508746954 0.4502182437460328 0.021903205735265347
68932000.0 0.8090466134219193 -0.5774512759181707 0.05248260402648882 -0.30022914223379243 0.0027889407774191184 0.002156056037873052 0.4663834921608643 0.0023705984132764324
69931000.0 0.8063855722608183 -0.5834044215718566 0.05651537732420626 -0.3177853049242406 0.0009716126847713424 0.0031384892558030887 0.4506635843524555 -0.004364549603019473
70930000.0 0.7979915539738905 -0.5929094271938468 0.04953658578697326 -0.3342664886650468 -0.0023862371249416233 -0.0011721998882764562 0.456266507007022 -0.02757698461219332
71929000.0 0.796549431986606 -0.5990421488524953 0.05093612324682439 -0.35517498151055676 0.001013488940020246 0.001534325625105909 0.4518634323223591 -0.017758113368733536
72928000.0 0.7881775443727255 -0.6112042146423569 0.041281700964090486 -0.36961592206244503 -0.003079594591774663 -0.0006944812437217061 0.4766142925207261 -0.03435949538930572
73927000.0 0.7833143777399206 -0.6166270419596606 0.035957822210216275 -0.3909176133212471 -0.003203609933733142 0.004918721616943404 0.46205555725683695 -0.04419146408610906
74926000.0 0.7758921652407129 -0.6261295170538425 0.029416387015001117 -0.41026017124932784 -0.00032255653758852615 -0.0033054033660883057 0.47284572373362693 -0.05077408382809606
75925000.0 0.7711889106529899 -0.6309450428348374 0.02197736921087973 -0.4310553623379005 -0.0009287928247756571 0.0011692289313587204 0.47710062739461534 -0.06661533234342087
76924000.0 0.7654425720274 -0.6377208590426368 0.007026269247834465 -0.4542933119427326 -0.0013096144436405845 -0.0007831013590570266 0.47071199120117857 -0.0646334441885278
77923000.0 0.7587347377273186 -0.6449906442382379 -0.004676038852297073 -0.47692376105630535 -0.0022520089066601304 0.0004067518822727717 0.4684090703808106 -0.07942747717248014
78922000.0 0.752310449163612 -0.6562648408738991 -0.02060410365005016 -0.5046290596936209 -0.0034746818708589473 -0.0012621965556632484 0.47151549646435864 -0.08921691610322217
79921000.0 0.7433674932945719 -0.6600782720276018 -0.040028495619012255 -0.5326688431968953 0.0010957697433618796 0.0029604531387496477 0.46691352082818294 -0.10535019360603923
80920000.0 0.7395840675801091 -0.6698604462921071 -0.0506817101967727 -0.5585960182864986 0.0016422162641877701 0.0016252242996697914 0.4785955737817807 -0.11038794969781847
81919000.0 0.7335807109213859 -0.6758688241286723 -0.06877813260648995 -0.5873279632821548 -0.0005735002861242417 0.0015757613708123487 0.48449083369132523 -0.11970475668946771
82918000.0 0.7234873659912073 -0.6836607366048637 -0.0789025149434574 -0.619180500488022 -0.0016099086792413988 0.0039106300767271784 0.475512731112334 -0.12773985392229456
83917000.0 0.7148725265772351 -0.6915098738254432 -0.09896197504031166 -0.6479113349225499 0.0018730429030180565 0.0003434549993953953 0.48344573520758416 -0.13300815166597268
84916000.0 0.7110556517113115 -0.7017289640241466 -0.1149391241345194 -0.6870820509904109 -0.0001833655155896544 -0.0025700796769821243 0.47306977839839925 -0.15531162256279912
85915000.0 0.7025268145656381 -0.7053167993308097 -0.1381126698783982 -0.7142151741590629 0.0014592019948025594 -0.0026491792944918304 0.48623214332751497 -0.16806113912838683
86914000.0 0.6957114775904878 -0.7166987354955081 -0.15255000604927862 -0.7503759213616634 -0.0012964858922101783 0.00047421427087338696 0.47391771153853607 -0.16077955913323333
87913000.0 0.6891955793904456 -0.7210370320376532 -0.1690156192232195 -0.7822095827868588 -0.005108756645935552 -0.0024906521717432415 0.46727151720742327 -0.17631765953435496
88912000.0 0.6820546315846127 -0.7272192740315525 -0.18160201054040484 -0.8148188850761148 -0.005202943643232396 -0.0058056687603020895 0.46816638366501445 -0.18944605482306168
89911000.0 0.6757955739315867 -0.7374907077322923 -0.20151773668718603 -0.8530783877707101 -0.0023818043818709545 -0.004389164453572038 0.47056620762916324 -0.2020538900330979
90910000.0 0.6662013794877172 -0.7415617105937053 -0.21490287693165505 -0.8879616003321866 -0.0013004787790718332 -0.0017027783164533879 0.4737695652241631 -0.20310667029250287
91909000.0 0.6571184941509332 -0.7462650117872404 -0.23621879651268743 -0.918991248246738 -0.0008303553434027024 -0.0017285112699321867 0.4767773490001166 -0.20314871601223825
92908000.0 0.6516254035273641 -0.7564577468192127 -0.25666290006646236 -0.9526855045509369 -0.002078256470430196 -0.0009633621058127742 0.4659360608489913 -0.21769637176702109
93907000.0 0.6455750500143329 -0.7609125840804523 -0.27148570923206566 -0.9842793898425195 0.0044459786719416375 0.002105316267984473 0.4704553941699613 -0.22486014825527958
94906000.0 0.6317153290529006 -0.7682993016114134 -0.29436267156871215 -1.0160080848280344 -0.0018868454739770376 0.0005826866137954163 0.4759999862508087 -0.22923772782687843
95905000.0 0.6263446997798171 -0.7748444579621968 -0.3115045440020939 -1.0552538246630747 0.0007381822502605246 -0.0021198825730123134 0.4686453332266861 -0.2577231434501922
96904000.0 0.6166711455284694 -0.7824802823391815 -0.3319388472276269 -1.092200047510617 0.0015416059173351969 -9.069621677394274e-05 0.4737100194726241 -0.26715623675154226
97903000.0 0.6075465173623984 -0.7877604335499601 -0.3572772600979152 -1.1248046848555204 0.0020345812599947737 0.0041982566162489495 0.46104374925707325 -0.2649231852065442
98902000.0 0.6022040193282767 -0.7955477899748503 -0.3755853353895067 -1.168573879668869 -0.0008237613663878109 0.0023755434078744776 0.4659547858920721 -0.2655308545730104
99901000.0 0.5909440989090274 -0.8015971834416571 -0.40696441976680564 -1.2027060703446486 -0.0031950881462556495 -0.0011308367202017442 0.4718988589186841 -0.28753898489116886
100900000.0 0.5830795837071714 -0.8064763833577967 -0.44285597015311584 -1.228403827586329 0.003907936246390101 -0.0013861015399855988 0.4749624546261894 -0.3036037513939263
101899000.0 0.5732724970668464 -0.8147181550479544 -0.4690897501486485 -1.2716466490379623 0.00047985639505697164 -0.0006725838385903482 0.46446221806943305 -0.30121881638938564
102898000.0 0.563873745049976 -0.8204252588342918 -0.5070047383011544 -1.3091652701111416 0.000850645798508475 0.001043119517759053 0.46778774699424186 -0.3285944212095683
103897000.0 0.5564988912920541 -0.8262474176145511 -0.5446910065739803 -1.3445595706202176 -5.758379105969248e-05 -0.003758867450061015 0.4612517640677197 -0.3221059555571997
104896000.0 0.548173416049047 -0.8378927318112496 -0.5930396052760726 -1.3767750912908758 -0.0017064092940998192 -0.002626385552848202 0.4522924694797025 -0.3222822920375124
105895000.0 0.5348709408160232 -0.8384559440039662 -0.6364300455381383 -1.4232459605283703 0.0013166510915632386 0.0014796668941303417 0.4440302868419395 -0.3399006385064096
106894000.0 0.5270277884886371 -0.843538885141507 -0.6987940324999756 -1.4649804745495494 0.00267290530733001 -0.0007855744143918277 0.457513971019048 -0.3488925937410849
107893000.0 0.5178306474496094 -0.8520783625646869 -0.7532216309726141 -1.5013312535493142 0.0031903495757104063 -0.0001246486600988043 0.4442445763807728 -0.36359552783452614
108892000.0 0.5087856557658231 -0.8556692230365314 -0.814157673766769 -1.5401762000289718 0.0031319406799640366 0.001152087629734565 0.4384144596327052 -0.3639192383070221
109891000.0 0.49590235386823905 -0.8614875661487749 -0.8666104461886642 -1.574109172121389 0.0028684667617071883 -0.0014695567763720718 0.455652856536257 -0.3617686354389352
110890000.0 0.4928410309266627 -0.8662299688767091 -0.9234017905989469 -1.592708694431803 -0.00036376537420911655 0.0013841341128165657 0.4396382768248061 -0.3735225221623392
111889000.0 0.47705189929746195 -0.8685314027078608 -0.9935778164125932 -1.642549980254112 0.00034037262155874065 2.2598342167520544e-05 0.4320732085432084 -0.39732662613418834
