! Created with skrf 1.9.0 (http://scikit-rf.org).
# Hz S RI R 50.0 
!freq ReS11 ImS11 ReS21 ImS21 ReS12 ImS12 ReS22 ImS22
1000000.0 0.9751238895019803 -0.011185660648340956 -0.01290975623604733 -0.058174960564626406 -0.012503135298361489 0.0028950223956416927 0.38206721006074407 0.3385140508300937
1999000.0 0.996779985990574 -0.00794508358723193 0.004528712776181763 -0.027492337200653715 -0.006484691497412621 0.00025758568823686 0.27211524028597417 -0.07251609475658854
2998000.0 0.9980491556713645 -0.016393699465540205 0.00700035635097305 -0.015490126689120113 -0.0011561127683383991 -0.003917162759623977 0.19213658217656754 -0.16013717144844014
3997000.0 1.0006071415431268 -0.02974067135982295 0.01225185461266888 -0.0070274899953628005 0.0001709787639261183 0.002221326348237759 0.08334687909367335 -0.23972383522744373
4996000.0 1.00005150095445 -0.03649638863999834 0.011504148976660382 -0.005565578763875676 -0.0024895867815414733 -0.0033742635729406157 -0.059045058735366536 -0.21810578992382829
5995000.0 0.9973095406876513 -0.048629674046573174 0.007319958730447874 0.0020231032598312815 0.002608935089518713 -0.0030497556334365527 -0.11714197204683077 -0.11507612237983827
6994000.0 0.9965458790336733 -0.057726925487965576 0.006127149337283795 0.0010244584813386812 0.005632846440662685 -0.004192172361105126 -0.15583496359317867 -0.014635496811269593
7993000.0 0.9988338519019662 -0.06819715545476165 0.0012736424417240815 0.0014059797271437167 0.0010381633092085608 -0.003680235246748926 -0.15767746449199965 0.05083945038672419
8992000.0 0.9990150474279578 -0.07210542053358644 8.048596227505311e-05 0.007681036636448277 -0.0018993980571472017 0.0010521289151550943 -0.1497381861914225 0.0726308288052868
9991000.0 0.9969046248263242 -0.0825986417617478 0.0023828360469633444 0.004188487334097132 -0.00025547906956823325 -0.00018868688929162466 -0.13056598809669506 0.09411443284822835
10990000.0 0.9968275144857117 -0.09102743635431132 -0.001463914747963378 0.0027072563436245406 -0.002187830971051036 -0.0012258613824612798 -0.1255587545932611 0.12231702137474258
11989000.0 0.9945577187978345 -0.09998000578439493 0.007899758046346706 0.0009498839993922803 0.00011518015431510254 -0.0050169947265551506 -0.12709958555356934 0.13721872111745873
12988000.0 0.9925029021151193 -0.10902630224888901 0.0019838466788616696 -0.00219509561497205 0.0014226161647346296 0.003915297230509547 -0.11021834559351619 0.16369072861841696
13987000.0 0.9924224866299654 -0.1158226553019593 0.0019312710068597851 -0.007349745411703918 -0.0016510868669136491 7.773935750493536e-05 -0.08198305201445828 0.19784903935294867
14986000.0 0.99198097999758 -0.12619228020382556 0.0002561113113682333 -0.0036158035891677306 -0.0016347628289212208 -0.0035298598521439186 -0.0836987823098302 0.20113826885966196
15985000.0 0.9931130468945503 -0.13106203125551888 -7.043318591873427e-05 -0.002872934131752821 0.00017724468443517814 -0.0007122492018222795 -0.06200323505269036 0.22419204066436174
16984000.0 0.9890926287532573 -0.14304741302788762 -0.0013003911251342132 -0.00406090734603391 0.003371638787391056 0.0013887229195776137 -0.0453761901313117 0.22448488540206232
17983000.0 0.9891094258010895 -0.14875142680471604 0.00016284156850752534 -0.0023412881048275563 -0.0005861178590216252 0.0015207933561072347 -0.05865984084972041 0.22256934910028714
18982000.0 0.9845908120402235 -0.16049685579466438 -0.0013047114167170676 -0.0016924396220805466 0.0032857876912237003 -0.00018448415108844395 -0.015765502583155493 0.2451847518165445
19981000.0 0.986609616015564 -0.1678904551623507 -0.008153115199164323 -0.006899524627135966 -0.0011016540967914927 -0.0001812587946101394 -0.013599008025997226 0.23716469216980268
20980000.0 0.9856767573040892 -0.174861683325695 -0.003919665612122657 -0.004474031339870466 0.003326257782567389 -6.424206009989183e-05 -0.0039616830109587605 0.2575320280178442
21979000.0 0.9828811318259008 -0.18540937842147107 -0.006461407048062521 -0.0017466579817605884 -0.003348801331800081 -0.002720723000478734 0.02058508522954511 0.24751298401114713
22978000.0 0.9804303679278714 -0.1922408510770248 -0.004724360236515684 -0.004276642880312719 0.0034480158698710598 -0.0007683685880626041 0.0283652712701704 0.26660305266823114
23977000.0 0.9812031108126396 -0.1993450540058593 -0.006973694199594148 -0.0016277417465454778 -0.0020553766924486312 0.0017872441131918505 0.052083548546796685 0.2521441409741925
24976000.0 0.9765224910931168 -0.21222875483377227 -0.010133226529130146 0.0005387727017342582 -0.0032957148714547807 0.0008225987688854131 0.06837279683735173 0.25878518559393665
25975000.0 0.9699610620512228 -0.2173067907118045 -0.008527731092100565 -0.0036323247456169576 -0.018752803886220682 -0.013368658521517649 0.08603343249211248 0.25622887143433914
26974000.0 0.9742728336495255 -0.22804886519674633 -0.002997819451933048 0.00021991505636458823 0.0011206528454679914 -0.0006387177516716551 0.09374844536147064 0.2694129076835729
27973000.0 0.972377269928512 -0.23288852543518215 -0.002583332681151351 -0.0023043282766340763 -0.002982964112536211 0.000334719853485056 0.10425083058715708 0.25275784245773236
28972000.0 0.9677398414896521 -0.24688429708384232 -0.001259795922027661 -0.0005092269529065361 -0.0026253143148522303 -0.0023195465655666335 0.12176665519956735 0.24789404877388582
29971000.0 0.9689587960032027 -0.2521953084496696 0.001714701922095226 -0.002543337650875899 0.00036511406479439835 -0.00030482601949687933 0.14800629214941727 0.26109589109976694
30970000.0 0.9654571783629742 -0.2574032506096306 -0.0011655645365813588 0.00020615576056196537 0.004861655831052551 -0.00035466841981451886 0.17008474370356924 0.2593873455072378
31969000.0 0.9631975209108754 -0.2666882660807252 0.004767060602541364 -0.0058353320593174446 0.0007852750806876911 -0.001699975283863545 0.15833100054475763 0.2474735350688957
32968000.0 0.9615603969457445 -0.2761473476797165 0.0074653871523791 -0.006442673846369461 -0.0021705279735555853 0.00206569336224249 0.15956669702202295 0.24174732568217155
33967000.0 0.9606881755143934 -0.28428919209288617 0.008931164293744182 -0.01205370761932813 8.688897618486527e-06 0.00021151681130932704 0.1903641228004915 0.2538803156359299
34966000.0 0.9545846361836566 -0.2961387014949512 0.014601522655121608 -0.013143121916879963 0.0008848906354986055 -0.0015309729571951539 0.19259274633807616 0.2520521495642468
35965000.0 0.9533611993403615 -0.3024182286855535 0.015193308140189259 -0.016469255199226797 0.002312362117918605 -0.003449232124925051 0.2117639854410587 0.24420888089936257
36964000.0 0.9496232219177695 -0.3119162244265512 0.015763954585192468 -0.01658438597253421 0.0009157759605955606 -0.00014870941343532397 0.21708557201486695 0.24586222401169727
37963000.0 0.9477724738351491 -0.3186818473437133 0.01975928684222083 -0.020421119124495575 -0.0010514889268966809 -0.0017882908644886789 0.23179876288703777 0.23890413168055263
38962000.0 0.9444052140833478 -0.3301522003776231 0.024565731931323605 -0.02378148654012923 -0.0014886401984405312 -0.001919500196636337 0.24311174877824504 0.2252361219497962
39961000.0 0.9424757493588196 -0.33592492205183494 0.02547823539939442 -0.029736191118955455 0.0005690517833158159 -0.0004079650159095627 0.2517528439108447 0.22896543737385758
40960000.0 0.9394921021581126 -0.3441918506291662 0.022686695303333757 -0.025134248297168028 -0.0006138192013706868 0.0023265588155567127 0.27141460824826086 0.23187210495107657
41959000.0 0.9363392652428367 -0.35244066129563545 0.02781970037427382 -0.032004017246365014 0.0004956785714976911 0.003065112357676144 0.27417680714881704 0.2146251883998716
42958000.0 0.9310318344341885 -0.36291099243080216 0.031120570974013106 -0.03855537455428767 0.0008693577287500875 -0.001293709779908728 0.28259902291489764 0.20102129740787453
43957000.0 0.9280027593247047 -0.3698204455823585 0.03058759146319406 -0.045018836550279016 0.0009867904379492478 -0.0005071444509771668 0.286212710878574 0.2042720334175431
44956000.0 0.92400205634382 -0.3763607435485164 0.03361972929588754 -0.051176360412999694 -0.00021096519922432378 0.0012603160865898846 0.3089786430566316 0.19528141804299415
45955000.0 0.921671560298933 -0.38753271672096307 0.03262059739763751 -0.05618799258089975 0.0005911575326757367 -0.0017937596686247394 0.3167181354203572 0.19116160252742248
46954000.0 0.9181548630517247 -0.3930876756188989 0.036829841694231785 -0.06217562908429497 0.002797203260641424 -0.0006697646501256881 0.33148527283417034 0.17820956362399754
47953000.0 0.9174856838797435 -0.4012431147866829 0.03713648671841538 -0.06982579381849488 -0.0011327224587422376 0.0011965028867332247 0.34235688061169295 0.1729267865538218
48952000.0 0.909215465858891 -0.41426690877138606 0.03861904157345475 -0.07681032810578127 0.003900966834284408 0.0004328807868664101 0.3390082584125196 0.16629114956638652
49951000.0 0.9069843032499875 -0.4170566835672758 0.034768419941977775 -0.08657037779493794 -0.0021098866065634935 -6.055202432616039e-05 0.3522555038483947 0.15365582465208927
50950000.0 0.9038565666529947 -0.4275399707164939 0.03854158867635612 -0.09269934895997155 0.0016662286895702952 -0.0008967812488460366 0.36506400858711474 0.14340323578743608
51949000.0 0.8994417589284197 -0.4352209240015356 0.03869316503892212 -0.10401065701605167 -0.0008639395894501296 0.00010568999967235111 0.36224745592678176 0.1422255341335525
52948000.0 0.8980968066034284 -0.44228917617970714 0.04180973361764651 -0.11132078084733973 0.003522506992430193 -0.00229535138006807 0.38115782400681086 0.14892770838025074
53947000.0 0.8911080649826307 -0.45024099374325255 0.04135017637685177 -0.11871332705308722 0.005812835769441361 0.0021771441810782923 0.3779551777820667 0.13709811554403786
54946000.0 0.8860290490651538 -0.45941059966624526 0.04183837797433629 -0.13040915779563406 0.0003289365693871007 0.0004419160259244341 0.396185179043405 0.12187841406231512
55945000.0 0.8833731813953242 -0.46892781921795146 0.04224412638107998 -0.1383138580097791 -0.0011676727533223932 0.0027510325679730697 0.3927863297202002 0.10919892130522224
56944000.0 0.878723704167233 -0.47613972009129574 0.04610568194392749 -0.14791436230375127 0.00018312755220230035 0.002525619398480379 0.40426848262711995 0.0999277412652062
57943000.0 0.8755375649056826 -0.4858843414219351 0.04850419922705531 -0.15782879631154806 0.0007781527091542291 -0.0019907508004280527 0.4017838680111952 0.09402246499088653
58942000.0 0.8690169966998612 -0.4907478935785189 0.04980534392773307 -0.1703716405735715 -0.0016322627092986899 -0.0018154846610018219 0.4287324626687184 0.09050981188526439
59941000.0 0.8665440748757709 -0.5003307688666511 0.050227772770136 -0.1804585652376788 0.0028198432195922483 0.003932175763596996 0.4272871763530126 0.08163381794838169
60940000.0 0.8592601489979066 -0.5068667792113578 0.049075033478268644 -0.18187898475556985 0.0024494076403124886 -0.000238165069235197 0.41426196427291906 0.07504186573335407
61939000.0 0.8557087373874499 -0.5136725475405284 0.050527269113150565 -0.18839205236967208 -0.00023232693358049507 0.00014915305513158036 0.42053443272329843 0.0703974191178456
62938000.0 0.8498465463733667 -0.525600660373692 0.05338382992261034 -0.20814168808038866 0.0007690934665597793 -0.001611333670290254 0.4499706828623083 0.05539292804562684
63937000.0 0.845855100318159 -0.5319780932667784 0.05419450090787009 -0.23102373374308727 -0.0004982318405423499 -0.001004643989364781 0.44337452918625037 0.03953028716011089
64936000.0 0.8421095485332876 -0.5356886353788575 0.05437498314159048 -0.24510390911266952 0.0005880179341278951 -0.002197129203406109 0.4424087704225279 0.0372248150813004
65935000.0 0.8359753108136798 -0.5489145330294792 0.05433750061273975 -0.2583390102648079 0.0008406737388541252 -0.0027160019729466373 0.4434045136379514 0.023219863957167495
66934000.0 0.8334130893452936 -0.5544022652532488 0.054298062127920814 -0.27061017435342755 -0.0009932668709677435 -0.00148328737806871 0.43446770345869246 0.014707310472349305
67933000.0 0.8292247063895013 -0.5617715947636062 0.0564513364544112 -0.2853978373852908 -0.0021771865873578306 0.0004570257068975054 0.459547119785359 0.002008307045970504
68932000.0 0.8157919378253924 -0.5543926564088771 0.05170766566073382 -0.29473335838068576 0.0014096186892544112 0.0003474922077697211 0.45890456763029447 -0.0034977310563405924
69931000.0 0.8150160171091717 -0.5789669528613032 0.055458538154418494 -0.31412075419179947 -0.003039546471348859 -0.004236149494235383 0.451924940549233 -0.01681046384792065
70930000.0 0.8086127775578735 -0.5859614351714122 0.049242461935288445 -0.32526865583139375 -0.003260414308802866 -0.0007248707461185951 0.45369483689013856 -0.036603663874543044
71929000.0 0.8058765878919554 -0.5927007962687578 0.050846084940176076 -0.34460023146664653 0.00197738414162833 -0.0007208122242670353 0.4573125106015423 -0.043096646671803046
72928000.0 0.7993619530191988 -0.6023072605450911 0.04226318803614965 -0.3616133713471075 -0.0021191255404736436 0.0014777237738198188 0.4681178424784478 -0.04919504316710298
73927000.0 0.7945503941137207 -0.6088729964505989 0.039440309592103824 -0.3813137383382993 0.002434465053180845 0.0001523944258588845 0.46521300084280093 -0.05350904101108635
74926000.0 0.7879834400762064 -0.6158459646304971 0.030153240855474737 -0.3961349175359165 -0.0003514414018208368 -0.0008813876963693134 0.47002097205767013 -0.046079630658816165
75925000.0 0.7820934545922873 -0.6238837802266556 0.02392430794042683 -0.4156461851979176 -0.0019093052219951827 0.00026207154473907574 0.471624213928299 -0.08044089053158239
76924000.0 0.7788055123127514 -0.6297377831838208 0.011669054794266179 -0.4377817110421225 -0.005221416000744042 0.0015971058013713726 0.47595077801913693 -0.08331805916473457
77923000.0 0.7704931372001707 -0.6385074548002074 -0.0015297917373998638 -0.46209982525676224 0.0009870099810123658 -0.0013777137004856884 0.4599652175075236 -0.09176294016244525
78922000.0 0.7664015181355406 -0.6455771519691034 -0.016933158842199553 -0.48951180333763644 0.00213179382821065 -0.0005257351296070878 0.46564078041475654 -0.10593471797166638
79921000.0 0.7560851923023525 -0.6523040734581647 -0.03578337542375488 -0.5155930973428297 -0.0012869700070943357 0.0013391931840252196 0.47052045593303105 -0.1261114271371653
80920000.0 0.7509108822912115 -0.6599455732025439 -0.045937211800895564 -0.5400811255987378 0.0015000720084924267 -0.005422826394034527 0.46955690329225885 -0.11915437779445713
81919000.0 0.7461842236089813 -0.6687719298012303 -0.06769698596440486 -0.5689984834042487 -2.6146996369000316e-05 -0.0021422330826632477 0.4823584655999774 -0.12445663617917438
82918000.0 0.7380475568526641 -0.6749160202349723 -0.08014551861018317 -0.6029133320807434 0.0001208626927451092 0.0018292401131156624 0.48307913083024673 -0.1480621865207095
83917000.0 0.7283295117005902 -0.6847496630418884 -0.10343666361060594 -0.6300399223073935 0.0018116462322685172 -0.00127392214707465 0.4721544549902873 -0.1408666598554277
84916000.0 0.7262323937805565 -0.6885956940910701 -0.11758661565937141 -0.6632643908893159 -0.0004792059399162065 0.002556887359390324 0.4761450822993277 -0.1674131217293509
85915000.0 0.7185432403782359 -0.6950955961820969 -0.13568342387528393 -0.6934174635545893 0.004574685782650372 0.0030074590260910556 0.480663726783307 -0.17367557206695025
86914000.0 0.7097596261496593 -0.7066207105207828 -0.151852431982836 -0.7294750951649399 0.0006222170960209789 -0.004247757855038847 0.46914165466538105 -0.17867805372464857
87913000.0 0.704215289117493 -0.7118716070852704 -0.1723331832596964 -0.7583571527371387 0.0019212372968830647 0.00043165009332265267 0.46794927495131766 -0.1863821287906545
88912000.0 0.6960776879067074 -0.7189647949541426 -0.188239701706559 -0.79648815340746 0.0003087994126295458 -0.004800058153713071 0.4716047978051782 -0.21024478879900196
89911000.0 0.6899979521849101 -0.7278650110436896 -0.20129809239279864 -0.8311373491409348 0.0036498068574538113 0.0004929368077067617 0.4717882587625897 -0.22214534639682132
90910000.0 0.6817538408192094 -0.7318741602907265 -0.21744579865279434 -0.8684557149033267 0.0010533907213687587 -0.0051831912973807175 0.46638650087662964 -0.21329610437383426
91909000.0 0.6730914813823122 -0.7380919152351991 -0.2415960929162747 -0.9001587305723312 0.0010532815649071615 -0.002026686923987699 0.4842653975797646 -0.21947958934924333
92908000.0 0.6656209456140647 -0.7472577273503689 -0.25389696285346663 -0.9313317781793904 -0.0004655848925240537 0.0010708421146692752 0.4681554401042523 -0.22895495894562706
93907000.0 0.6606347721346364 -0.7511264103149462 -0.27747277756726213 -0.9612072117031315 -0.0025337495936075217 -8.217904230227072e-05 0.4764875621438104 -0.24229179986794525
94906000.0 0.6458436769747298 -0.7603014007087983 -0.29367923536285334 -0.9966898297467923 -0.0007398226980831903 -0.0007326206056465437 0.4666563209147765 -0.2426588707945479
95905000.0 0.6426343031328522 -0.7657792032576711 -0.3085284358011874 -1.0299465776447208 0.003927428738263812 8.690153020657599e-06 0.4794716056932402 -0.2620701316517126
96904000.0 0.6339957431682793 -0.7753055845049107 -0.32485974952555563 -1.0735560669579365 0.0008385079930688475 -0.0009639164810831141 0.4672555049481914 -0.2764214356586889
97903000.0 0.6224593229908559 -0.7822391082474497 -0.3545324188713076 -1.100448610146453 0.004276250922440136 -0.004848220403243843 0.4516958163647365 -0.2900931346457449
98902000.0 0.6170244565229609 -0.7866711083372419 -0.3709027299972926 -1.142373591258812 -0.000831978575178709 0.0022958893200891906 0.45865443872420364 -0.2917357362418696
99901000.0 0.6092279352605257 -0.7935222175082415 -0.3973647627738058 -1.1744434522810012 -0.0013703139588592357 0.0007109210112808096 0.4743938501923422 -0.31968749595923457
100900000.0 0.6010329281980477 -0.7959510452651473 -0.42744183612750325 -1.200798273923205 0.0010039323990261035 0.0001819686095521214 0.4720188562804446 -0.31765471395951456
101899000.0 0.5914966901020667 -0.8040685528002569 -0.44952098353107617 -1.239489574206356 0.0008734260688435366 0.0002475730467650418 0.4597411154099534 -0.3150130761565492
102898000.0 0.5826759605704431 -0.8091155735735849 -0.483315674742542 -1.2781349784010143 0.000985468977090602 -4.6688219113634366e-05 0.45766828039610336 -0.3390909276658309
103897000.0 0.572788712128817 -0.8160737602078695 -0.521516571369908 -1.3123303163314395 0.000329237572644559 -0.002910070707756499 0.4659610792631229 -0.3320616448988737
104896000.0 0.5655171870045316 -0.8265548874820605 -0.5680184274705602 -1.346344880466321 0.0024501765735970822 -0.0015222908649453503 0.4549834432377329 -0.34308725908948695
105895000.0 0.5556141936645365 -0.8299278568589603 -0.6111935505783265 -1.3914414498035694 -0.0005629483132070192 0.0008524404174811115 0.4505594712694272 -0.3639202136999458
106894000.0 0.5474214561638282 -0.8367143136318834 -0.6689619710748749 -1.4193467082399627 -0.0007702926938801583 -0.00018047462070842164 0.4436240860750852 -0.3833650136019789
107893000.0 0.5378255269325557 -0.8409002415178146 -0.7160898426192199 -1.45453082459829 -0.0030087552954106483 -0.0031070891687137634 0.43582996506165916 -0.38375708558846566
108892000.0 0.5270619682511645 -0.8470654926752762 -0.7698260293454825 -1.4923242815963855 -0.0015324421370570445 -0.00025944549753857427 0.42243001076745057 -0.37593212874668164
109891000.0 0.5156638885872072 -0.8541841506912431 -0.8250666598008819 -1.5232336366119337 0.001878865049007398 0.0027426908367000516 0.4404900513215691 -0.3764910953139814
110890000.0 0.5040986291368429 -0.8721410892323305 -0.9128236104199673 -1.5456475533121568 0.002865156165621315 0.000993090126550035 0.4356341235273096 -0.3931627653130352
111889000.0 0.4964514290777202 -0.8601338587584431 -0.9480084200711139 -1.5947985571771348 -0.0003701500007478121 0.002453244364067794 0.4197070560480282 -0.40973970021892836
