! Created with skrf 1.9.0 (http://scikit-rf.org).
# Hz S RI R 50.0 
!freq ReS11 ImS11 ReS21 ImS21 ReS12 ImS12 ReS22 ImS22
1000000.0 1.0034627994904648 0.012994619232945119 -0.018392222660480302 -0.06140149473764718 -0.010199269967654452 0.012459732544758012 0.35306443795951686 0.3265434413892437
1999000.0 0.9938066029257524 -0.012411051922207296 -0.0012865688901402452 -0.02076359849104493 -0.00409576400743356 -0.00011218385459940653 0.23823807012353254 -0.03579079093712228
2998000.0 0.9954832756780922 -0.021577363403702757 0.011722128809764363 -0.006660859397239391 -0.0010029855585630798 -0.0063871298172038056 0.19729660513318606 -0.12285886558128256
3997000.0 0.9970726695972235 -0.02862160018283413 0.013561994102603486 -0.0027433050978424335 -0.003186193089984772 -0.006296564506191714 0.0903559193126979 -0.21857387195846906
4996000.0 0.9957466338763471 -0.039953756026359526 0.012462921625198034 0.0006088671945269959 -0.0008760305454035349 -0.002038903489488648 -0.039707383063640994 -0.20417862297078818
5995000.0 0.99399145886945 -0.046907977945573415 0.011061565783994726 0.004851526751070961 0.0017132055675508201 -0.004440687311105441 -0.11387282007298632 -0.11238633555119269
6994000.0 0.9920258823661217 -0.059407402304407324 0.0034664583941449094 0.003666201014751141 0.0029797601304936525 -0.0013482663564817051 -0.15699002881675847 -0.021042074464114668
7993000.0 0.9934162689101708 -0.06841314682197608 0.0022294283569716158 0.007486992380464323 -0.0035044901195192364 0.002745769329166608 -0.1712486846552445 0.04403677307079421
8992000.0 0.9903524692451061 -0.07201485546941848 -0.0017620052305860722 0.005304543973188206 0.0006535227052668019 -0.007329741337980541 -0.16355954487372257 0.056128312172563435
9991000.0 0.9890038424081835 -0.08313547808901421 -0.0016419120882424868 0.0012262617275619408 -0.0023711057379438277 -0.0021517389626741104 -0.1542999307180512 0.1030806922289747
10990000.0 0.9911283046428202 -0.0936522167428456 -0.00026092599690482384 0.0018827064184676334 -0.0014658032191422166 0.0008558672249550833 -0.14407144263324723 0.10145032097817608
11989000.0 0.9872749933096412 -0.10152478642404487 0.004286635188274384 0.0036358621392522344 -0.0017349299270464137 -6.145924156395281e-05 -0.12055717678944558 0.12782958813028525
12988000.0 0.9881018703509171 -0.10877357306358634 -0.001585653701833875 -0.000850282645510614 -0.0023948871799310944 0.006221801752563456 -0.11576285102692375 0.17540925445117841
13987000.0 0.9842197480425429 -0.11845828692444155 0.0013483178879697987 -0.007385888905607819 -0.0014857039777494835 0.003285473619464835 -0.09649553070991894 0.18906614633831487
14986000.0 0.985294759371057 -0.12486499014908393 -0.0010094594981815688 -0.006354001639921964 0.0007726640865850103 0.0007315682317718229 -0.08787393580910519 0.2024937170272383
15985000.0 0.9848159939183858 -0.13367370002562914 0.00034896355168495546 -0.004169902849434315 0.0012226751418300654 -0.0015985753433450766 -0.0837059239449114 0.22284242754576317
16984000.0 0.982707597688055 -0.14274840275874098 0.0018845892962847898 -0.003940756078626131 0.002051959838111692 0.0007693950202110995 -0.07134767909156597 0.21814721083464927
17983000.0 0.9822217095122319 -0.14637237740731304 -0.0014538564599384668 -0.006006509742445707 -0.0012434626048742014 -0.0009624120993230839 -0.06440427302502522 0.23092857639702802
18982000.0 0.9800862814080038 -0.15907230832810315 8.265642929134511e-05 -0.005692217862667564 -0.0005638886875953178 -0.0029829063480314006 -0.032426917134912296 0.24318578004300648
19981000.0 0.9799502803584262 -0.1644177434781348 -0.0029231374471548246 -0.0057765569071239285 0.0012294915668726286 -0.0015609082715807127 -0.026624976810427328 0.2361037746824142
20980000.0 0.97943023147415 -0.17464472715342166 -0.005567411832271395 0.002572032797532814 0.004352243838772839 -0.004441833758163836 -0.019235531560655043 0.2687426269913075
21979000.0 0.9760832920240156 -0.1843190648401852 -0.0072746885203699265 -0.002258700213972191 0.0021995413651994225 -0.003300969113817435 0.016230020978914825 0.24353716351978805
22978000.0 0.9747640504709478 -0.19234496977948612 -0.00710649538706274 -0.004505256798303065 0.004681848018649052 -0.0039807695627946055 0.014286617442837116 0.2581422329811262
23977000.0 0.9756681176537497 -0.19738546096911197 -0.004083457876546298 -0.003607686292206128 0.0005749036420913817 -0.0021605660130794577 0.03125240313630999 0.251232271849091
24976000.0 0.970626011997602 -0.2099356980640289 -0.002366590494856177 -0.0034528058396261427 -0.0017614172669154218 0.0036399733305358443 0.055012535496073656 0.25961025287906725
25975000.0 0.9734970027421694 -0.21847953445806442 -0.006239609445411822 -0.002050713342017255 -0.006600520077899592 0.021062273683753716 0.07272145132085667 0.25849456736844256
26974000.0 0.9686100381472814 -0.2266662032909229 -0.003760642550787236 -0.0013804726473959819 0.0014405509877072915 -0.0005867236989218581 0.08125644759273304 0.2665308928490268
27973000.0 0.9667747641630584 -0.2341149200616288 -0.0040922704283969085 0.003024129614181274 0.00120167641936013 0.00017770874595758284 0.09487968972591146 0.2621968099110185
28972000.0 0.9629257551370772 -0.24377053623169756 -0.002601319652689717 -0.003802239792218562 -0.00014667998693636695 -7.797663716368656e-05 0.11912344358404602 0.26034868559813895
29971000.0 0.9620001886552683 -0.25336593235127014 0.0008919328082144306 -0.00355765809864744 0.0004997788118340514 0.00018261918208869487 0.14802781935304002 0.27242708181747227
30970000.0 0.9594699304371613 -0.25911251638604577 0.000241426864588579 -0.002051491638573243 0.0018230466653438354 -0.0005027741305076486 0.1617289333862606 0.25158603446682504
31969000.0 0.9585785430711866 -0.2666399450579773 0.003835198183725133 -0.005742541441065224 -0.0005754885103462283 0.002512306000865237 0.1434487533688707 0.24765530224470644
32968000.0 0.9559662533062167 -0.2769467239735368 0.008399895074661505 -0.006630423371993478 -0.0017468507842932734 -0.00012491269504327996 0.15704422437681656 0.243767478154663
33967000.0 0.9543620171118367 -0.2865510671664415 0.01251600433408462 -0.01072295871292877 0.0004215367727669051 -0.0015345531348575918 0.18353071194181095 0.24988913712711083
34966000.0 0.9512391952118581 -0.2932476038004347 0.011548429336299576 -0.010437630769216513 -0.00044737341880600115 0.0018801435788337627 0.194945356995733 0.25267671079821785
35965000.0 0.9466854072616209 -0.3024836365870046 0.01613225297468431 -0.014567351714048413 -0.0019117523888305254 -0.00040835548940816265 0.20709807256002094 0.24981465872106928
36964000.0 0.9459594387543063 -0.31140505052525697 0.01704226941996565 -0.015169857907947053 -0.000681441836409593 0.001019406187283421 0.20746749699186648 0.2511428286392623
37963000.0 0.9409762409529566 -0.32306037877468535 0.02067405667950992 -0.021653770643987418 0.0009243984963481488 0.0007369468189729036 0.21898518046696436 0.2368727157691469
38962000.0 0.9384920594421873 -0.3319758324215213 0.022025106907118917 -0.025917941992565356 0.00023916169404645732 0.0003648183102104783 0.2302490015116817 0.23367425724686405
39961000.0 0.9369191131031511 -0.33703537434964403 0.028005617831242575 -0.02764784248454819 -0.0006796356805680777 0.001729229659357821 0.2483950144260911 0.2182098232854378
40960000.0 0.9327431607244857 -0.34502076789911684 0.02506194613366396 -0.026785841192938593 0.0006570377450660889 0.00019195752662364942 0.2564352754354197 0.22674336817062682
41959000.0 0.9304640593890084 -0.35607686107823366 0.029611582475100755 -0.03179960153477251 -0.0012487603977105134 -0.0023511798598384345 0.2662347603001697 0.2133613404459936
42958000.0 0.923953738757066 -0.3661202843517951 0.03390868889998501 -0.03904267038285206 0.0005242435107631607 0.0001304255874731481 0.27405212760814873 0.20778192431837508
43957000.0 0.9233115429957511 -0.37148383037193583 0.03482245377303061 -0.04514792729201581 -0.00038665543170305727 -0.003371645960367061 0.28269998591655876 0.20644091477170282
44956000.0 0.9206887728909695 -0.3782111291560848 0.03583193166545776 -0.05461418675712351 -0.002496328879581904 -0.0010570644050715908 0.2978593214152297 0.20122476374954174
45955000.0 0.9151318858372366 -0.38968312769862506 0.035709635704254734 -0.057818076131166934 0.00020340941774999688 0.002456774604336875 0.2917142173704609 0.19501115657556486
46954000.0 0.9131750412745294 -0.3968679596783565 0.03626839386313844 -0.06395775858962117 -3.922351526080377e-05 -0.002775055055487474 0.31746715964068906 0.18163402387953992
47953000.0 0.9088502672763094 -0.4066029649987578 0.03691139163082688 -0.07323921595324273 0.001332606385370025 0.0016990449584902208 0.3248031692715128 0.1793659436910502
48952000.0 0.9038907079050444 -0.4165226503479943 0.038479490990620355 -0.08133208859793759 -0.0004037037693422263 0.002711124828405154 0.32378387245876106 0.1713874363703733
49951000.0 0.9002899532576975 -0.42154614936950013 0.038210050640009686 -0.08796455505769296 0.0013084832647874977 -0.00013306428709481503 0.33851197048195025 0.16112639759340255
50950000.0 0.8971025058658557 -0.43121998811187107 0.0391096963703436 -0.09878018625123934 0.001824856368386671 0.0033304176241514536 0.34622643055426783 0.14557437859269995
51949000.0 0.8917735648830067 -0.438293268427492 0.04121334351455784 -0.10315188788088686 0.0015126465177551726 -0.0011685736907970977 0.349846053195583 0.1453800292800676
52948000.0 0.8891256773983814 -0.44701990765945687 0.04252926336575312 -0.11427563457175116 -0.0001266109996661783 -0.0028300464674002315 0.3606525305440474 0.137843679688896
53947000.0 0.8851416179797237 -0.453454975661572 0.04258153340948054 -0.12115797357956798 -0.0029969992944631684 0.004158622861174991 0.37090153051019853 0.14168935472078442
54946000.0 0.8786898857404283 -0.464796552622191 0.0453730603935168 -0.12866036829780286 -0.0007984582444097717 -0.003688483542708855 0.376793189146259 0.13036947036017105
55945000.0 0.8766993504739423 -0.4733973193455658 0.04717066855867543 -0.14213850183383664 0.0006323230821045847 0.0016743808171481656 0.377016148425723 0.10212836493841077
56944000.0 0.8722718343288228 -0.48025902512772267 0.04738984293979193 -0.15233053534282567 0.0023046237970529566 -0.0023228089999948794 0.3902544124953307 0.10759233304345722
57943000.0 0.8687161904478695 -0.4896302999220341 0.04889949167268212 -0.16456073721065206 9.693328271064138e-05 -0.001029158268555706 0.38489784159333457 0.10102962754475724
58942000.0 0.862791928848486 -0.49365465157325206 0.0502823703334281 -0.17713990813123393 0.00015969542995517005 -0.00028669928540446933 0.41078266648620354 0.08306674091797783
59941000.0 0.8570172896114228 -0.5045742407932559 0.051497339496238505 -0.18365634403910244 0.0031183985370014343 -0.0012477474219277378 0.3996578456972588 0.09745719032496307
60940000.0 0.8506862470606826 -0.510479767472533 0.05334189614185306 -0.19102846995029762 -0.0009115554015589331 0.0014850425481327907 0.3973582481748926 0.07635573281437663
61939000.0 0.8481153798056222 -0.5181245169601272 0.053828246298897604 -0.19565714579320945 -0.0006883145617562397 -0.00013461661364246865 0.4070114849659113 0.07499395265015563
62938000.0 0.8416105823316382 -0.5303521902258923 0.05503793812203959 -0.21444237899763316 0.003093152923032621 -0.0003142024338475949 0.433876775222821 0.05575104975411374
63937000.0 0.8357456582508436 -0.5371773865278248 0.05553889727664504 -0.235752818431624 0.004766068446941336 0.0007466764640533396 0.4265519775620212 0.042483217559160964
64936000.0 0.830030291586053 -0.5435051878626107 0.057394571159670026 -0.2503217641188188 -3.5730114250080525e-05 0.0003887139059774686 0.43010241498521395 0.04290765413451073
65935000.0 0.828090367934844 -0.5524239013344141 0.05661728080214663 -0.26155332704358947 0.0024256544833717027 -0.0006582656939373015 0.4311753780131608 0.01783377997280134
66934000.0 0.8225645230634911 -0.5602621610659883 0.05661186452387012 -0.2735240299968925 0.0011616559199589139 0.003496802115422663 0.43920029363762825 0.01721516496784208
67933000.0 0.8178582384450427 -0.5653820326545331 0.05790648511856456 -0.28934684840084823 5.7405949726972776e-05 0.0008676700941486599 0.43566616826987337 0.010676697307986698
68932000.0 0.8154760830962714 -0.5617882869088346 0.055978605122414475 -0.30151957467963636 4.1017335214730774e-05 -0.0025931961259304864 0.4415966556553819 0.0026018187854005073
69931000.0 0.8052129452397275 -0.5825137213588737 0.05353693692151084 -0.32163681987002385 0.0014132603805719459 0.00399316413761138 0.4429161302615166 -0.023002364582216862
70930000.0 0.7995122872866115 -0.5885924981706196 0.05145464152396903 -0.3349240856159047 -0.0027910156910112113 0.0021488661891865698 0.44452681951978607 -0.04191406457960776
71929000.0 0.7952160593992124 -0.5979013497715054 0.0499949452352276 -0.35368935787366657 0.000534384970741925 0.005805210524412113 0.44576501271424873 -0.036168384620766054
72928000.0 0.7864916045439084 -0.6089251023384965 0.039793833490364215 -0.36788897692057526 0.0008105429263524809 0.0003681613301800676 0.45557789160949214 -0.0513748387238328
73927000.0 0.7828029836444949 -0.6142963894589296 0.033425669183419035 -0.3919302727557193 0.0019515568633393834 -0.0001604529697355183 0.4505935451363217 -0.04657572796394689
74926000.0 0.7766221837366699 -0.6232342238052128 0.027528615237061193 -0.41036929112292353 -0.0046465276077704626 -0.0005783316159807506 0.45642888228106665 -0.05780554628490392
75925000.0 0.7700868524367174 -0.6259577858043701 0.018743691315836388 -0.4283980336207283 -0.002252907862886574 8.966798073364159e-05 0.4666924764501916 -0.07330196740734435
76924000.0 0.7638529209426971 -0.6355943270233849 0.0006740117693483672 -0.4551683519915403 0.0023725488294614734 0.004189707650495556 0.4512170994444006 -0.07998992092121317
77923000.0 0.7581378889197724 -0.6427915333949807 -0.011006590915068198 -0.4778343333107389 0.0035349770224177525 0.004334975878811613 0.4506967122930384 -0.0853604707651391
78922000.0 0.7504456313067881 -0.6526493353268323 -0.027644323397648836 -0.502369033219103 -0.0006427359545118921 -0.004032616397288204 0.45049856803433835 -0.10672253018463632
79921000.0 0.7420936040221793 -0.657014295669716 -0.04590682241130058 -0.5268837042043503 0.00036755096101679117 0.0034429093387977313 0.4570885970009354 -0.11270624701726346
80920000.0 0.7398654603138322 -0.6663431296828993 -0.06134887986549976 -0.5587102297508508 -0.00047446363632512427 -0.0011357476625880152 0.462039396121154 -0.12433376606939618
81919000.0 0.7322022203758769 -0.6732070215785303 -0.07296221405295557 -0.5850778718508253 -0.000641884769836128 -0.0037767902952366072 0.4584140734678742 -0.13486407993454175
82918000.0 0.7221225998651114 -0.6800534747040502 -0.08644574834535583 -0.617183442941409 0.0032972684433351333 -0.00048825249621001123 0.4694676582595868 -0.1380637918436974
83917000.0 0.7138272233287399 -0.6882055799343546 -0.11127344927059667 -0.6449847132734418 -0.0037790253167813265 0.002850522259819382 0.46564289602206627 -0.1443003948857492
84916000.0 0.7098476074988392 -0.6959121530266402 -0.12420581895061629 -0.6824666375543985 -0.0012638897155292411 -0.0013361241220333588 0.46504957616387366 -0.16578123841617742
85915000.0 0.7051826998993935 -0.7014121018913219 -0.14913523125576658 -0.7127253101779737 0.0022667474543987464 -4.5453429142410694e-05 0.4556703522588063 -0.17928418914487526
86914000.0 0.6957992595676814 -0.710056022772194 -0.15960980089281745 -0.7469743538160832 -0.002630872143875495 0.008309317382624156 0.4518039722688203 -0.17620604209309917
87913000.0 0.6890234376508921 -0.716678216576831 -0.17724899152916834 -0.778071842767037 -0.0013649805390337157 -0.002290225824445971 0.452056702325493 -0.1777215085677605
88912000.0 0.6817587623655563 -0.7241845327896645 -0.1972022218836475 -0.8127080425793464 0.0026686240138066894 0.0005412746345528076 0.4664183996052174 -0.2046538837518304
89911000.0 0.6732655917001051 -0.7314897344855275 -0.2089019057167172 -0.8494860559732125 -0.00022340999493677274 -0.002264990772613953 0.46615306517555366 -0.212934587790326
90910000.0 0.6675158236841571 -0.7364446092214004 -0.22746220916930845 -0.8837897118216628 0.0015594169648417088 -0.0008090948310351961 0.45338846889638595 -0.21063498866235605
91909000.0 0.6589805858097965 -0.7409684575626533 -0.24728286607352024 -0.9146692850639873 0.0007859946267741295 -0.0005846305919528989 0.4739642773768015 -0.218361521836349
92908000.0 0.6505824276659444 -0.7498996143600063 -0.26620114503607983 -0.9515989076157454 0.0005029273537946416 -0.00014349199738703007 0.45662338945716624 -0.22355678280617888
93907000.0 0.6448051851286407 -0.7558124878011868 -0.28639656224969734 -0.9790621054639769 0.00030423987852751526 0.0014503752616873203 0.4613628504822915 -0.2569695371826294
94906000.0 0.6327446582441878 -0.7636339324496036 -0.300830851757488 -1.0155004372676875 -0.0003024269535885994 0.0026319254481056886 0.46091453125315235 -0.2540201695450321
95905000.0 0.626434395523829 -0.771442874261403 -0.3268261925987269 -1.0506045791026326 0.00453172796980424 -0.0027450292623201564 0.4517304140367418 -0.258387980872164
96904000.0 0.6175199570717562 -0.7795435855615106 -0.3430804883023814 -1.0849992065762997 -0.0004189020209519965 -0.00022877108937174095 0.45887914255944884 -0.26645145665374964
97903000.0 0.6076127712929736 -0.7838255205373659 -0.367529739005556 -1.1187231685767967 0.000318753696209528 -0.0006832159146585827 0.4430808412908803 -0.2787924443936127
98902000.0 0.6038663798546261 -0.7921368593862228 -0.3885300009896787 -1.1568210762373585 0.001301239639427834 -0.0019498642868881213 0.4474453673880904 -0.28855161230694387
99901000.0 0.5916799437443636 -0.7946115151573546 -0.4177895521258488 -1.1889615730672218 0.002122327839705104 -0.000780846230260905 0.46105071130925623 -0.3105153095198832
100900000.0 0.5853773691014574 -0.7997602194019506 -0.44773576849608043 -1.217312311498255 -0.0014934597141918811 -0.0006167679958516857 0.4536260606648812 -0.3037221985460752
101899000.0 0.577196254573953 -0.8071245276522085 -0.47067921825182957 -1.2574551966757488 0.0015257401212754446 -0.0014661006493520124 0.4488066309848816 -0.3200816179320522
102898000.0 0.5657670557334106 -0.8135514727119286 -0.5140171519339463 -1.2916379151754234 0.0011712019902729621 0.0018620934957409236 0.4595200362267189 -0.33187346507395693
103897000.0 0.5579439365498416 -0.8220214985189053 -0.5511353842968585 -1.325640579849966 -0.0009496306578220585 0.0003839581658442031 0.45658117587011576 -0.3326122463816726
104896000.0 0.5506202611729869 -0.8323169261349861 -0.5990264173169144 -1.3631038141893161 -0.0032101172099620384 0.0006656689735187747 0.43792547539779014 -0.3350827416409558
105895000.0 0.5378808496912156 -0.8321899196213901 -0.6448797978950638 -1.4016895682952848 -0.0011703276428922116 -0.00038462041789062647 0.42998199157601563 -0.36668295972995973
106894000.0 0.528088575840966 -0.8400690702771174 -0.7016592491434006 -1.4405273599302164 -0.0016206764690927886 -0.00036434110098221333 0.43734353262304426 -0.3561630377380508
107893000.0 0.520486043448502 -0.847086214320788 -0.7513233715594605 -1.4789670291674946 0.0008324684385104525 -0.002964727071217175 0.41136538969327596 -0.3788751701002577
108892000.0 0.5125261264867927 -0.8474937785968958 -0.8127764115335173 -1.5186574958244203 -0.0010099058694224014 -0.000753631873428389 0.41786133757888255 -0.3706491356941052
109891000.0 0.500626304974995 -0.856983903312707 -0.8690203042941895 -1.5552928392185292 0.0007768957785785302 0.0022396723637235112 0.43574014215403256 -0.3716126463558304
110890000.0 0.4802581274847224 -0.864484590416086 -0.9421666982740989 -1.5511297918495675 -0.0027838575135332943 0.0015855190056395488 0.42732344289196805 -0.37325997463022337
111889000.0 0.48183516911615276 -0.8632773184069003 -0.9930992370649375 -1.6225449743353926 0.0007224930950714233 -0.0003491262163331699 0.41684809006004175 -0.40479166646720305
