! Created with skrf 1.9.0 (http://scikit-rf.org).
# Hz S RI R 50.0 
!freq ReS11 ImS11 ReS21 ImS21 ReS12 ImS12 ReS22 ImS22
1000000.0 0.974574930331156 0.005019609752633638 0.001173792815177728 -0.03393057853234362 0.0004895043822416489 0.00407332302932817 0.3726502302885723 0.30544286907844814
1999000.0 0.9940258627589946 -0.016436254372460775 0.0024150909273794236 -0.0153012134782634 -0.005459359919997829 -0.0035634222820655555 0.27289742387320887 -0.06911246431264163
2998000.0 0.9989249937842931 -0.021741326928453503 0.018183727343105353 -0.014749681112200451 -0.0015999084020657777 0.0012788567162506242 0.18243200666544074 -0.14363661224430413
3997000.0 0.9990979449721406 -0.02866517386473894 0.012477589130181866 -0.005804438893576828 0.0020431577960831515 -0.0007401091712069509 0.08465672010829321 -0.2495823476172065
4996000.0 0.9957947660241007 -0.03653933612008662 0.009724128111564312 -0.0011800856158282265 0.0033231869714258656 -0.002775349606201961 -0.05950204575299364 -0.19370855862405423
5995000.0 0.994577055462662 -0.04912244359669978 0.003064524192467503 0.0032564276770997683 0.0009077531568921778 -0.0024199973261200694 -0.12306466798140463 -0.07871231252470379
6994000.0 0.9923308096103082 -0.059194107987200234 0.008014883898152012 0.0035912946779182017 0.002059925581237482 -0.005681719720081537 -0.14247355873131345 -0.008705481478233995
7993000.0 0.9943448645630895 -0.06908710349964946 0.0022162208976864916 0.005011207895453717 9.934918158123696e-05 0.00024229617432419028 -0.1566184326114115 0.047426262298380095
8992000.0 0.9927439201625626 -0.07108189279631943 0.0025870598179264796 0.00410429712494968 -0.0019203109481018903 0.00141344832158803 -0.14545639267148291 0.07404570109931685
9991000.0 0.9918971069799386 -0.08327724535542792 -4.2905846525241455e-05 0.004309521148154887 -0.0015551064185583608 -0.005503675645453553 -0.14304394628760442 0.08885364323554182
10990000.0 0.9920832014091361 -0.09188232376142569 0.0026944085474079286 -0.0031243103004271354 -0.001224501654532123 0.0005567952463734702 -0.1281885405423632 0.11421232341397711
11989000.0 0.9900180190044059 -0.10233788668714947 0.0018810127689383072 0.002963744112721448 0.002889418404282883 3.378874890656292e-05 -0.11732508818497403 0.1273700576602997
12988000.0 0.9876921480165406 -0.11302972162874632 0.003771121659595167 -0.000586168731572401 0.0040375178439541835 -0.0005778781767081743 -0.11028153739382955 0.1635648386422136
13987000.0 0.9874370609579299 -0.11701204641730445 0.0020943140844701343 -0.001666711698551979 -0.0006083291192500035 -0.0006078878447777313 -0.0947433068798289 0.17983124817649063
14986000.0 0.9862112003720996 -0.12497179788105098 -0.0037158804608053916 -0.003282326659643234 0.00014833363982451613 0.001355173983914025 -0.08205710365349325 0.19909701558709983
15985000.0 0.9867517111397197 -0.13319228664917232 0.00041045850689591234 -0.003986856980484474 0.003766498146090387 -6.271579764045955e-05 -0.06259087528539174 0.2073673278886974
16984000.0 0.9855785932442045 -0.1427561819984515 -0.004070530383749391 -0.0005703828843803375 0.00198778471943624 0.00352709157776996 -0.052815946193813905 0.20998446385545325
17983000.0 0.9848657631903747 -0.15011703775868002 -0.002866718447259693 -0.007571144462143155 -0.005680050922110357 0.0014106373261520062 -0.043605870015699745 0.23045146648130468
18982000.0 0.9823752466872946 -0.1606220653897749 0.0010569978300448474 -0.0030114345444051216 0.0040531154291237725 -0.006179993088394097 -0.016580611441135863 0.23637757456289732
19981000.0 0.9813458542393634 -0.16427567468196244 -0.004451886210249794 -0.00776600173506855 0.002284516064112218 0.00461196618948071 -0.009607222968354725 0.2284452569461794
20980000.0 0.9788163505194944 -0.17714482318627947 -0.0037840683090825463 -0.0024632131101464116 -0.00418975725886498 -0.0031739505227851624 0.0017937363568207995 0.25282659668920265
21979000.0 0.978968864654564 -0.18435835343687004 -0.008580753311600298 -0.0030122864753307477 0.0008783759702410607 0.0019509655224537097 0.010772822568947888 0.2444905741156251
22978000.0 0.9777948838551296 -0.19210441417815918 -0.0067930451413209005 -0.004351339483018592 0.001237707351909033 -0.0024641294204709157 0.03921910140076864 0.25834425685963336
23977000.0 0.9765395800123745 -0.20093222475565037 -0.005444995492072421 -0.0018526816126660875 -0.0012001568091701343 0.001779052711473879 0.04490496957518049 0.24757983555502278
24976000.0 0.9717448931353834 -0.21294644182587857 -0.009290071233063298 -0.0024995505476004595 -0.002055561460711676 -0.004412386512221802 0.0677615205948535 0.2479008041644142
25975000.0 0.9742474587217614 -0.2249455349083192 -0.0073366962029058685 -0.0007758687558283352 0.02521075221809869 0.009797749830432082 0.0692569656959867 0.26150726724813006
26974000.0 0.9675669217458458 -0.22848486026051779 -0.004376899019405874 -0.0002600105749001364 0.003632272779259374 -0.0032665858571375994 0.08940802038378855 0.2712069685843121
27973000.0 0.9697543688975283 -0.23279431200988723 -0.001659597292454106 -0.0027892846946446686 0.0026930888389772177 0.004338737970179387 0.10634850069695312 0.2629496179280551
28972000.0 0.96476791120925 -0.24667326167613032 0.0017346724446773844 -0.0013310908986530511 0.0009991268579049506 0.0014488274418345964 0.11844994621194893 0.25675312078996504
29971000.0 0.964430819665814 -0.2516365076230518 0.001188216296189369 -0.005712863160156299 0.0004331009476339109 0.0021580565173756703 0.15475721463361833 0.27175236991026264
30970000.0 0.9616096475344472 -0.25836712069006795 0.0032527901542570487 -0.0015021971790908158 0.0015651181107043635 0.00048371135887655565 0.16456898036771916 0.24465869398557916
31969000.0 0.957844467188416 -0.2681753074250862 0.004778795135044425 -0.005798164012571198 3.661744339390005e-05 0.000794019430814092 0.15075162203560866 0.24509307679865824
32968000.0 0.9561252141511266 -0.2792408341386739 0.009083692335338725 -0.006952712385753383 0.0006334419661924315 0.0031411972821219405 0.16081916648420408 0.24842526057614564
33967000.0 0.9551080482824038 -0.2879441958369318 0.008613033931283091 -0.009654885258078737 -0.0004355924790426483 -0.0022662161826934074 0.18858093689809158 0.24929655557916958
34966000.0 0.9515482790955344 -0.29608388149361836 0.01311457228776727 -0.016994611009050094 0.0025817600033841703 -5.302904700037589e-05 0.20023838641185926 0.2536899371302988
35965000.0 0.9487500906808382 -0.3041548922162873 0.016155361173629458 -0.015602077427047518 0.0007075038705773757 -0.00010987372225892755 0.21300436432041606 0.25196183142979306
36964000.0 0.9472565548419709 -0.3123021903444165 0.01858595607855733 -0.015047047036742383 -0.0013220202048578622 -0.0016238775966333102 0.21474353238695035 0.2438452659002729
37963000.0 0.9438037268917515 -0.32135584855614496 0.022236620803733682 -0.018833823361202005 -0.003117826459858673 -0.00020111317548074088 0.23120442167314872 0.22819364471602807
38962000.0 0.9400657473021979 -0.33231258087252735 0.0242067137988367 -0.024801860767918384 -0.0004844833387921477 0.0005723535478642664 0.24121573322159234 0.23491031129213888
39961000.0 0.9384825151319142 -0.33658730058734626 0.023764150707872866 -0.024233630626538518 -0.002848984543208749 0.0011606117179563692 0.249844880450122 0.22973868574070025
40960000.0 0.9340863772361744 -0.3461556887786175 0.022531833808637304 -0.024493812998795203 -0.00025187253306653204 -0.0037385647305921625 0.2684090204377444 0.2254600316522875
41959000.0 0.9312743247808887 -0.35564857846742476 0.031821108450167036 -0.03007672600371769 -0.0011198820277372767 0.0015258096228727377 0.2621347153875731 0.2147051621286178
42958000.0 0.924828777003223 -0.36717662571128196 0.032710869465253097 -0.04079887393932794 -0.0013744706319981424 0.001612385215844721 0.28544860255430543 0.20343647534253578
43957000.0 0.9249069696816292 -0.36979857499366575 0.036788311495851135 -0.046815358041290535 0.00028098410890954926 0.0028847845867553622 0.28378020950211325 0.20234103684605526
44956000.0 0.9207367364630586 -0.37935437519073895 0.03334665493785337 -0.049933333920595964 0.001821474712208609 -0.0015754679049680973 0.30247413297250464 0.19047479857327992
45955000.0 0.9163763997981871 -0.3893865438133593 0.03650758842866313 -0.05756797157381301 0.0007626079147858506 -0.0016412204863500142 0.30274784949791106 0.1927275164821832
46954000.0 0.9139891666608446 -0.39748283597108297 0.037260745892998444 -0.06465425061314531 0.001680864108265495 0.00038052155545887604 0.3293292895376874 0.17895938403336675
47953000.0 0.9090459588048379 -0.4063382484982101 0.03821757854820121 -0.07046557186344314 -0.0010877661333832881 0.0012907221260846078 0.33855372035314596 0.16786028951793178
48952000.0 0.9045584595036165 -0.41616009717588764 0.037161019309149716 -0.08107673340382555 -0.0024836395074690795 -0.0024867484281564847 0.33989611213936055 0.163722092185347
49951000.0 0.9014880509376629 -0.42265117513809625 0.03843737316612502 -0.08486660017113949 0.0005893202235378289 -0.0019979957305936175 0.35272026186824906 0.15432728766032852
50950000.0 0.8970167232665427 -0.43129629240831036 0.04215911455419913 -0.09381608853765923 -0.0015512094482331923 0.003467573262573132 0.36139466821485006 0.1440385598299235
51949000.0 0.8945839409707353 -0.4386781778266018 0.04019920257070454 -0.10377025505013207 -0.0003564788307097211 -0.0031948645117620923 0.3585038003995627 0.14664563520292895
52948000.0 0.8913592591432289 -0.44898496785931946 0.04149301266634936 -0.10955674002556927 0.0010905754976289176 -0.0005451543200750028 0.37116442739208144 0.14401484381378296
53947000.0 0.8871213335778254 -0.45397315241773994 0.0443950754951624 -0.12218500570830625 -0.004316898519489355 0.001865612002462091 0.3718204396430959 0.12740299668224017
54946000.0 0.8802822838765377 -0.4663939624556762 0.046710451326989685 -0.13047789676829913 -0.0040391395416251915 0.0018383030209624968 0.3857402890608611 0.13201791602749735
55945000.0 0.8777967929159731 -0.4723753677388694 0.04759822641247333 -0.1398444354591091 0.0008203899849159968 -0.0019689921538405203 0.38689743060583315 0.1057032262961471
56944000.0 0.8717724808280495 -0.48045037841686433 0.048692756310910655 -0.15054587243141632 -0.001922382305982839 -0.001390849024353148 0.3995980657723885 0.10878332567069204
57943000.0 0.8689439513738798 -0.48944524598237604 0.051045757076213005 -0.16289882454519505 -0.0022475658271127645 0.001313686457338628 0.4025867702952916 0.10439655233409834
58942000.0 0.8630676584964938 -0.4941255370807903 0.05350844766949885 -0.17295788104957954 -0.0025399853708865596 0.00013742601368832896 0.42074101331591607 0.08961335122478205
59941000.0 0.8595304591101439 -0.5048647215511352 0.05479935634050191 -0.1803972762198939 0.0008640418807942461 0.003430554860985835 0.41631636847754944 0.09134860339028344
60940000.0 0.8527412044017668 -0.512152830330385 0.052819922245998 -0.18329003154568096 0.0008638685040730283 0.0036756960238396525 0.4003290267593889 0.08237868330411985
61939000.0 0.8497696364006679 -0.5196962230769785 0.05374514533720401 -0.19126599953395484 0.00025088326789412624 -0.0023244567257246934 0.4090426962621225 0.06245373872533983
62938000.0 0.8438150822191559 -0.5294648592583641 0.057332779648306964 -0.21132910558058177 -0.0024913927522957195 -0.0006437475207970592 0.4369511557556759 0.05690182278960027
63937000.0 0.8377548465207079 -0.5370112104277387 0.05816999228379718 -0.2280367569392991 0.00048133943043002626 -0.0021574875999120593 0.44217761578438747 0.037590613845009786
64936000.0 0.8321789310973817 -0.5441749887661314 0.055437407631828105 -0.24534838240359874 0.00070271372010613 -0.0022024437944452987 0.4321498272413098 0.04128082875556294
65935000.0 0.8278464067971951 -0.5532930739083699 0.05549706966277345 -0.2580799098482004 0.0013262106311817128 -0.00019924607666301183 0.4357304146111929 0.02064312618405552
66934000.0 0.8261465565257448 -0.5572931522624824 0.057785107210420225 -0.27254033461291605 -0.0018627088821479806 -0.0007441947830319829 0.43717433613893286 0.018614979417646102
67933000.0 0.8205790570609366 -0.5657142916790984 0.05770021140397752 -0.2845513801479379 0.0010197300473429318 -0.0014522081990496342 0.4518531954094165 0.011893863255461849
68932000.0 0.8170500825731961 -0.5635087004191979 0.05555336912864447 -0.29876151275146967 0.0010958218658671174 0.0012581566460451216 0.454162387431246 0.0018015373992365572
69931000.0 0.8059096369334985 -0.5830803682364178 0.05870827467767822 -0.31655199334676487 0.0013404063420135576 -0.0006022851342228473 0.4458032006383706 -0.015728854516293227
70930000.0 0.7989330218752165 -0.5908590498649697 0.050212327628931394 -0.32894414519595094 -0.0024716311199183506 -0.0025140820941152975 0.45224802430293 -0.029170036854561182
71929000.0 0.7975471874747427 -0.5983624570209326 0.0492155951767046 -0.3491882073833719 -0.0024014418957064056 -0.0013217915652424276 0.4533598454617896 -0.04476761285921168
72928000.0 0.7905149903026303 -0.6066815756423071 0.039828926210469476 -0.36509431739549975 0.001900906043768942 -0.0019357300689049365 0.46414280794212287 -0.05602776840899194
73927000.0 0.7838102461882555 -0.6138690966226485 0.035829292376383486 -0.38596073784084467 0.0025723370880809896 -0.0030635318470162856 0.45972851749359883 -0.05372534215226391
74926000.0 0.777893740359985 -0.6231537144659831 0.03044541210053921 -0.40396788706218767 0.0005975175949315315 0.0032990850810506902 0.463101398152924 -0.05691552615602336
75925000.0 0.7728870224638179 -0.6269233016350676 0.02242040908954941 -0.4223781496041991 -0.004109567389570604 0.002172144972827056 0.4677379970332127 -0.06572324743953453
76924000.0 0.7670698355643286 -0.6359135844698663 0.0071121287437968354 -0.4490323766278904 0.0019147741127573243 0.003814143445403489 0.4653806207963531 -0.07919087654648681
77923000.0 0.7584815082367025 -0.6430909190409838 -0.004085212276657029 -0.46983695133700865 0.004836839787181736 -0.005413296905365134 0.4595892407936798 -0.09023882241967172
78922000.0 0.7535016263629316 -0.6520539126057115 -0.01701298540407369 -0.49831329929336704 0.0007585995545064312 0.002790905752332501 0.4582302014864018 -0.1032832709383838
79921000.0 0.7452981191988645 -0.656176446350092 -0.038755018944502624 -0.5270499963036726 0.0014769449662482266 -0.0023464668177653877 0.45641604828803356 -0.10806631865264686
80920000.0 0.7412845687596623 -0.6676974620715594 -0.05156247784664904 -0.5539907454013233 -0.0017627750127347653 -0.0019219582956136036 0.473234089985524 -0.1234537352273026
81919000.0 0.7360219226910936 -0.6727229655661429 -0.06762181996504561 -0.5827917554964337 0.0032489951424389068 -5.1149629415946515e-05 0.4681382280333124 -0.13525258217065728
82918000.0 0.7256619812620448 -0.6803004024810242 -0.08110359371565326 -0.6113076742332016 -0.0016409065562754811 0.0007858357001130337 0.4737368129292344 -0.13807096168511152
83917000.0 0.7178356303708372 -0.6887416778590525 -0.10075247860117796 -0.6379521556893739 0.0051364775507214 0.0019043122782346083 0.4780109150369555 -0.1499480381683353
84916000.0 0.7114175466999425 -0.6951265125841735 -0.1127968977977997 -0.6714734506584701 0.0010570885228203075 0.00429698115012407 0.47606675507854507 -0.15767402701137737
85915000.0 0.7050800898680014 -0.7014798970346414 -0.13154560082632002 -0.7059694874038412 0.0006757180677594398 -0.002896858689858283 0.4648621419248038 -0.17065862349756486
86914000.0 0.6974476604752559 -0.7129181856690096 -0.1486231556174322 -0.7421552083946569 -0.0025143822415261254 -0.0017854757084872527 0.46307134637770814 -0.16812894059006206
87913000.0 0.6915005553980438 -0.7169422613964089 -0.16643644122553264 -0.7689131793311778 0.00014030037435019794 0.0011644476399212608 0.4603800961828331 -0.17585303467294874
88912000.0 0.6841166593580124 -0.7241254838864831 -0.18238988282337135 -0.8025775852568255 -0.0007932720004315251 -0.0011701172745906142 0.47086490801609227 -0.20160073734983464
89911000.0 0.6745019236308342 -0.7329924797590385 -0.19468396399302298 -0.8401005774482979 -0.001407765728761869 -0.002008529039601759 0.4699263531103936 -0.20572079106732422
90910000.0 0.6677975736682561 -0.7390337855279621 -0.21674528632233664 -0.873585211751005 -0.00041918004674466023 0.0006154235720974169 0.47253700314860214 -0.20656363004492825
91909000.0 0.6599077340288645 -0.7437948915668144 -0.23449581760994084 -0.9056646096345189 -0.003953871771474456 -0.0014458564777105136 0.4603127300200962 -0.21472910779502155
92908000.0 0.6516665031347386 -0.7510407074228013 -0.2497963375773248 -0.9378748893178425 -0.002657784399370928 0.0009924679312504328 0.4509453399693777 -0.22061984119725572
93907000.0 0.646738398423244 -0.757373651263983 -0.2661366569285697 -0.9754826934481642 -0.0014059750036294867 -0.001613626301492717 0.45724784574404415 -0.24461500271126216
94906000.0 0.6327876244130007 -0.7658285665667943 -0.2858904388210675 -1.0032743626200649 0.007613675750551798 0.0018535802729743095 0.46499930290688013 -0.25606074018504976
95905000.0 0.626521151995163 -0.769910489415915 -0.3063663235747773 -1.0413471193796402 -0.0031730300895797233 -0.002722842158907066 0.4627252439017608 -0.27497883197267387
96904000.0 0.6179527020906933 -0.7798821955858531 -0.32719048720195837 -1.0813979920549812 -5.1349676807563646e-05 -0.0016719512870944412 0.45971345551933374 -0.2811241357167214
97903000.0 0.6101804458442217 -0.7858730518311128 -0.35110410835352635 -1.1132115464305403 -0.0011215577860931856 0.0015227583645180715 0.4518234894776306 -0.28910255936303536
98902000.0 0.6024650134818379 -0.7924632966531188 -0.3693354190483426 -1.1504718916363776 0.0004261941325446616 -0.0017779330292745853 0.4514273804965948 -0.2858971806156588
99901000.0 0.5938917044794075 -0.7970602300143598 -0.39843499995555537 -1.1796823608545717 0.0006289057913888525 0.002480368302385466 0.4625869486980236 -0.3084005048751576
100900000.0 0.5861447716677219 -0.8016773081587093 -0.43519305353027904 -1.2127060873084592 -0.0007633982107419306 0.0011257606749203043 0.4643706148287717 -0.2982513078672894
101899000.0 0.5783295607118911 -0.8093258223161985 -0.45901200996732533 -1.252574142809421 -0.0027236371781365846 -0.001817440330347102 0.4476600429255662 -0.31928822532921597
102898000.0 0.5675879710572577 -0.8153013062421192 -0.49425183667612205 -1.2919472317750753 2.9220510931446804e-05 0.0006929095392747204 0.4530685187476798 -0.3338579433977621
103897000.0 0.5583815206493155 -0.8248307413271877 -0.537839700022994 -1.3291276020308118 0.0003834239104683777 0.001382744025869263 0.46256868198994844 -0.33355325406759556
104896000.0 0.5517131644961116 -0.8321401881189772 -0.578221956200321 -1.3565645296987807 0.003622839182122486 0.00048090747365613594 0.43770433665260416 -0.34646997618914077
105895000.0 0.5382288819703372 -0.8346434235510161 -0.6275937868361108 -1.4009135330707283 -0.0033973741564826566 0.0014943128657894102 0.44622817852971447 -0.3472533942570659
106894000.0 0.528825682007206 -0.840289693257994 -0.6784196985832636 -1.4374778954259415 0.0010604053878070401 -0.0002717983478809257 0.4361584345836151 -0.3641537966279774
107893000.0 0.5230145389374833 -0.8476695697546371 -0.7312050298683405 -1.4799661245580045 0.0002530555440817027 0.0010632350852161122 0.4391691063424849 -0.3769207007373609
108892000.0 0.5146309755752058 -0.8477735469207045 -0.7924131354579574 -1.5153298767851469 -0.0014902855079388095 0.0025392733182010093 0.43773572530753946 -0.3748653237130401
109891000.0 0.5006839232128324 -0.8583350199393047 -0.8486363571771123 -1.556192450205681 0.00021909371083783793 0.002009740066789809 0.4427559293666659 -0.3740108577283017
110890000.0 0.48978999319056626 -0.8734552867751073 -0.928339025435833 -1.5747190026010507 0.00022769607341296142 0.00012023644769606793 0.4334711906790296 -0.392211331366528
111889000.0 0.4821709215744553 -0.8641536855027816 -0.9750276530398053 -1.6247647830709802 -0.0006829633281796182 0.00274924253197091 0.4213309147484704 -0.3985027060751497
