! Created with skrf 1.9.0 (http://scikit-rf.org).
# Hz S RI R 50.0 
!freq ReS11 ImS11 ReS21 ImS21 ReS12 ImS12 ReS22 ImS22
1000000.0 0.9730512583454873 0.004804038348848924 -0.0041679885359982355 -0.04827191679138283 -0.016172307394857973 0.005242112294898133 0.3292199781067694 0.27346932870137075
1999000.0 0.9971996559049974 -0.01420624754130851 -0.00043415837268881777 -0.018335954572959903 0.002974273897499944 -0.0026807614026709823 0.25116917054771315 -0.02046434732953377
2998000.0 0.9966146663695814 -0.020508278940173052 0.013119280098086964 -0.01332291631017546 -0.003132351402471476 0.0027018333159421542 0.18010267402710872 -0.14929797107892998
3997000.0 0.999964013189174 -0.03087806924989573 0.010202428129317223 -0.0052352981716628786 -0.004940241045435022 -0.0035059901462353095 0.07034556634328584 -0.2294847506235052
4996000.0 0.9964667391480595 -0.03679475821191275 0.010860263076540196 0.004513078801520939 -0.0009548382183339492 -0.007334920112673952 -0.05127822706245084 -0.19282648763510613
5995000.0 0.9987401955645336 -0.04542762099997123 0.00900779280063584 0.0043766293946155815 0.0008759519590158221 0.001976444458540726 -0.12479460344127298 -0.09419030216633462
6994000.0 0.9985812231124842 -0.05727538275371992 0.00980448468787376 0.004201551098743054 -0.002215632651722171 -0.0035768233916595015 -0.14982667751431417 -0.01363013182554392
7993000.0 0.9986560652044677 -0.06470668579435886 0.005066163392533228 0.00549216529156363 0.0032305822543545826 -0.0015241722503212235 -0.15617387099411628 0.04213059807696931
8992000.0 0.9944738654448828 -0.07105539851639076 0.004324442831266786 0.0041892803656123695 0.0033927928256502833 0.0029275401394030396 -0.154785442806657 0.05785269138205341
9991000.0 0.993913779597539 -0.08227730228790087 0.0033488275221558294 0.005657352859717312 -0.0026748399616133094 -0.0006704101964211975 -0.14326941233202306 0.0959289446440789
10990000.0 0.9924232724135967 -0.09038176818860014 0.003284867378880811 0.0025707220378066373 -0.0027223146159976994 0.0021617706710068247 -0.12780530279927518 0.12071653952290706
11989000.0 0.9909813047936766 -0.10259969295481497 0.003617054848479731 0.0013249991160711276 0.0005963635495239933 0.003301430727884979 -0.13547881288132568 0.14658111239265018
12988000.0 0.9913378543758861 -0.11038328410776094 0.0021530011014222338 -0.006313585809488507 -0.0016322984135224683 0.003417652140960521 -0.12306136206215863 0.16492686978599427
13987000.0 0.9870678895156552 -0.11580449646326473 0.0026723052603564797 -0.003964548996376648 -0.0015112592586656217 0.002262797335511388 -0.10512847516358685 0.18956379147869748
14986000.0 0.987322172347028 -0.12529772094074737 -0.0033065295692454666 0.00022870269890490547 0.0014759761599743737 -0.0031358959076454216 -0.0838567846736924 0.21055503395936648
15985000.0 0.988464881200259 -0.13680590030681297 -0.0035073199034983235 -0.006064431072295612 0.001437727855240666 -0.0006085848183236865 -0.06160062570183096 0.22044903527823143
16984000.0 0.9873824417937159 -0.14546442555648867 -0.004522500658687949 -0.0030096297650486947 0.0012547474401595111 -0.0013828171232354459 -0.07377432451796342 0.22601821961144689
17983000.0 0.9893785784535838 -0.14732413326460056 -0.00364871086736188 -0.0036693615955497375 -0.001291847096631489 -0.0009364738532632889 -0.04562559109571099 0.23012100033429583
18982000.0 0.9823741956820513 -0.16257799416600907 -0.004324167531996735 -0.006304489901500776 -0.0032023027384131433 0.0018293236717573204 -0.01615037837710679 0.2425743893391804
19981000.0 0.9844047977235837 -0.16551266263579392 -0.007467146896956032 -0.0052175495175206445 0.0006189939567257557 0.0009052451732331928 -0.017027843399671453 0.2459862459470372
20980000.0 0.9835484813519096 -0.17397060169566653 -0.0063433942160808785 -0.002406965948656454 0.0040730365278374946 0.000767245887695388 -0.002954346707705243 0.2664118392412086
21979000.0 0.9813847806197249 -0.184497252296543 -0.001729824367475529 -0.00884782937865485 0.003429579792836063 -0.0019516219668190215 0.022676835246990046 0.24492657158763087
22978000.0 0.9766348607421343 -0.1934264185373653 -0.004799508915550726 -0.004734597958174389 0.0012387869377668912 -0.001140642439249973 0.024173985642268407 0.26034128965488246
23977000.0 0.9795391821998746 -0.1996591265637533 -0.005916739782353021 -0.002559122281490496 -0.0008327173183719995 -0.003944063272347992 0.038746138046834445 0.25122053837269287
24976000.0 0.9735822502357847 -0.21027590750208583 -0.0035299445542449825 -0.00019940983782198703 -0.0009170125335201743 0.0035913597174841603 0.07781964313225416 0.24162261634453552
25975000.0 0.9690067068399522 -0.216894819680395 -0.005942201191669518 -0.004147019482016134 -0.02455116240716963 0.0025733971060022446 0.0913482604157304 0.26637435995842373
26974000.0 0.9698431249051293 -0.22867787905972423 -0.002807795371885265 -8.940459566095575e-05 0.0012094934237471713 -0.003358999450865145 0.09456883468546122 0.25833444926341886
27973000.0 0.9714263154830655 -0.23265013155378966 -0.003752266434034141 -0.0011061215702718734 -0.0055459309424097285 0.002650968427145511 0.10747975493159959 0.25725172669943985
28972000.0 0.9660218403305978 -0.2451641979537084 0.0024492626575901575 -0.0014728980072749099 -0.002035786790838265 -0.0036109485446691758 0.12313702622408074 0.25307136161503946
29971000.0 0.9647993966530607 -0.2536420364980736 0.004356656259553362 -0.001632798836444498 -0.0008108460080132877 -0.0030468383991857717 0.1518809495568646 0.2621262245287662
30970000.0 0.9630126516848971 -0.2585141665921288 0.0016275716680828822 -0.00303482607273529 0.001428947480174057 -0.001505823720062947 0.16775027697488176 0.2503936186883573
31969000.0 0.9612348278688568 -0.2670198697942328 0.0042488812721008 -0.0038963716953841925 -0.002150565371079296 0.0011810732787234538 0.15406810502313137 0.2604653958198312
32968000.0 0.9591714092692213 -0.276003421026798 0.009196739360053862 -0.0058465133065987345 0.000491879337318047 -0.0018213030724622847 0.16427353858377128 0.250181759659185
33967000.0 0.956353585951126 -0.2857823090735718 0.011490458470580616 -0.012661870224649367 -0.0013393953099204734 0.003367773457325038 0.19088827095749794 0.2362210704167959
34966000.0 0.9530760598587658 -0.2951352148373523 0.016085742256126877 -0.015404325679478937 -0.0031091080072602724 0.002236612916373788 0.20524818630767214 0.24820740754742013
35965000.0 0.9497537008216488 -0.3004999097763297 0.0169572294569079 -0.012111407515056826 0.002467618323576887 -0.0007386513349183055 0.216638810695072 0.2438836921190606
36964000.0 0.9485838969598896 -0.31103352989732375 0.016753983546631636 -0.013476465583349235 0.001207661308808845 1.4834112585425797e-05 0.21987734417614202 0.2563504427927644
37963000.0 0.9447368819401849 -0.3205670536579473 0.025908648344533658 -0.02034699298961135 0.0025361758689869487 0.00042020683265779396 0.23183715226661172 0.23519650990163074
38962000.0 0.9421828585427087 -0.3300579461947406 0.027130517669963133 -0.023754378517861045 0.001496331279274128 0.0005878802105079329 0.2416172515371553 0.23137416585615392
39961000.0 0.9400798823759707 -0.3348538994561376 0.024014742701285043 -0.02808575954734137 0.002914770238855025 -0.0008101649321101365 0.2577449680634899 0.21952625302671794
40960000.0 0.9369921668837373 -0.3446383935990282 0.024631395280445976 -0.025443960048672137 -4.386762946146022e-05 0.0041744702872315576 0.27397768569785624 0.22562331642950093
41959000.0 0.9340717751977468 -0.3538936767447679 0.029246918912163546 -0.029742340159532345 -0.0014279103034370011 -0.002253406321425067 0.27455507462323575 0.2101846376775178
42958000.0 0.9277839254603705 -0.3649122443634164 0.03553887772943224 -0.03944361437270254 -0.0023053401433766733 0.002262714083868313 0.29061965575729637 0.20120226372362357
43957000.0 0.9279962116987454 -0.3667095071180692 0.033901570595830224 -0.04673481477812808 0.0012992042555457744 -0.0006156778612007665 0.2929724632854897 0.20192513580639834
44956000.0 0.9231340494442933 -0.37663820349584953 0.03541833559666627 -0.0522713616845967 -0.0013327138242082005 0.00039201209229480923 0.3063073421494129 0.1894280924529477
45955000.0 0.9206435548138566 -0.3862249744976435 0.03613468721145466 -0.0615167931730055 -0.0007584276569968508 0.00018585981209305895 0.3047469098834412 0.18585997031231266
46954000.0 0.9173338642697867 -0.3953033026182055 0.03738582260964218 -0.06869958435864344 0.0003141827799620019 -0.0005070421718243447 0.33980459343615366 0.1670791058292159
47953000.0 0.9116692846312232 -0.4049248840328213 0.036568272262771956 -0.07307379948850193 -0.0017384302322781932 -0.0026218042968728975 0.3376353481803464 0.16376541212092455
48952000.0 0.9084288616496178 -0.41239909753414766 0.03813648818139383 -0.08162032015086934 -0.0017705768001966462 -0.003194475493333046 0.33173064310714007 0.1632431434202468
49951000.0 0.9044943890652248 -0.419907257606398 0.03906863190869724 -0.08966669073314083 -0.002058641902355018 -0.0003500698292228469 0.35966566295389313 0.15441045769615652
50950000.0 0.9016250852949189 -0.42884408840618304 0.044172274911794325 -0.10036464599388006 0.00014412555425192142 -6.436213997270806e-05 0.3565926688450844 0.13620504733650643
51949000.0 0.8974464301068912 -0.4364774879250897 0.04007916166873121 -0.104711885332763 0.0008481005193229164 0.0023668442439755515 0.36236549117814854 0.134868816340988
52948000.0 0.8928619303875402 -0.44515829660316936 0.045566044295683936 -0.1140094895894801 0.005749623357644328 -0.0011889345420294478 0.37715585845037514 0.12777427339476666
53947000.0 0.8895541130848929 -0.45223553892938323 0.04359607375228046 -0.126786908537103 -6.594400557994213e-05 -0.0010258584353740397 0.37401537801969537 0.11879721581663596
54946000.0 0.883126526722187 -0.4624788653080336 0.04595204130384793 -0.13500332167728116 0.0016181544389707793 0.0015983612091886997 0.38643078439370154 0.11459805843516083
55945000.0 0.8815551107235322 -0.4708156370143422 0.04715576446070533 -0.1461658764524965 0.0005414439540176164 0.0020763259729295325 0.378030628780034 0.10340184221188763
56944000.0 0.8779361584337847 -0.47781690962075485 0.04900936944693218 -0.15857976577689256 0.000937717975560879 -0.0007179659382136501 0.40646015852048595 0.09922142089282658
57943000.0 0.8710464384285758 -0.4874509942126421 0.05034287308825613 -0.16837685564405735 -0.0014823810087818794 0.00128853013794898 0.401755893225673 0.08681805707271761
58942000.0 0.8679123982671118 -0.49221722516205196 0.050534322249244576 -0.17832531568428386 0.0001749999988737869 0.0008047610608865061 0.4223399517750033 0.07689990366501055
59941000.0 0.8639571825416295 -0.502768073946357 0.05371179315001041 -0.18775151966524928 0.0028933677496610507 0.0018617829416237939 0.42237241592593094 0.08116403668609906
60940000.0 0.8546949976653778 -0.5075217076892176 0.055535001088315696 -0.1944350066163004 4.141264318236436e-05 -0.0012352987221944094 0.4117959571616091 0.06594680628236811
61939000.0 0.8538353436088123 -0.5149461914272417 0.05711454310914445 -0.2022683728582491 0.003125253236984684 0.002003687041660138 0.4166003002537572 0.05574719731501606
62938000.0 0.8470771277467352 -0.5257604022607076 0.059843557007382246 -0.2207480649203163 0.001618466017549744 0.001714656336219206 0.4390350563026193 0.0508143513020279
63937000.0 0.8420103076853324 -0.5336470206500284 0.05647109940054493 -0.2397641626680972 -0.0019056430546395041 -2.520564867682639e-05 0.44092086279725734 0.026175090701487533
64936000.0 0.8360092623412637 -0.539340735921751 0.05815098746459066 -0.2541645883318387 -0.004654387477509258 -0.0027353017817427407 0.4445229610249479 0.029117118986413847
65935000.0 0.8320625084694753 -0.551733793183347 0.05765932688428957 -0.2692999882440596 -0.0004955087100467278 -0.0005600065109914598 0.4507241014045698 0.01353625544540004
66934000.0 0.827071676145866 -0.5538219518602235 0.059819931657667746 -0.28162338111378815 -0.003951680406453926 0.0013189628074165446 0.4457044414071433 0.0026586978366038684
67933000.0 0.8253881516827785 -0.5630307539998917 0.05630125612275068 -0.29779655952848155 -0.0032572096714123186 -0.0032560025657480765 0.44267694385742334 0.0002728948728829556
68932000.0 0.8213371712513071 -0.5648079764352668 0.052578715443623546 -0.3098502846650112 -0.001320908559531318 4.955243869779135e-05 0.45638039880250153 -0.006778961182192532
69931000.0 0.8105583209693561 -0.5809680850720961 0.054568025877637795 -0.32868511640148457 0.00021486064358556165 0.0019141683604278381 0.4528939086049527 -0.02818437433275369
70930000.0 0.8034369391590465 -0.5877755125868572 0.04788073081170571 -0.34249525466683034 0.0026629041042980834 0.0023427386014262075 0.4541041593070993 -0.047020382119699417
71929000.0 0.8010003605702568 -0.595066043635762 0.04499598792151032 -0.361670472030628 -0.0021681383344617218 -0.0021905843442190376 0.4545784459532696 -0.050932125489913986
72928000.0 0.7964987857564143 -0.6025706504183203 0.03913145046331199 -0.37650493901525034 0.001156618224116546 0.0003045804742108192 0.46729334368354786 -0.06125776180542031
73927000.0 0.7895472593690309 -0.6076947415009053 0.03584826424474601 -0.3987421390082554 -0.00014428900174062175 0.0007583315853181277 0.46412476117546975 -0.057761467897753174
74926000.0 0.782563944639144 -0.6179070784574511 0.025983415736067914 -0.41360765259742566 -0.0006724502568419856 0.0005449275826549319 0.4651667745774779 -0.061263022753907964
75925000.0 0.7748901807982661 -0.6235870452466364 0.015060700138579432 -0.43778886424596936 -0.0003685184631819661 -0.0023689907577073826 0.4729245506840834 -0.0871154552605783
76924000.0 0.7708103251059959 -0.6330798650991744 0.006277854126628751 -0.45897789524992894 -0.0011395867792811196 0.003039561964358793 0.4717842904955024 -0.09716090300967474
77923000.0 0.7657358427204484 -0.639354094766902 -0.011613098889367757 -0.4858789915610941 -0.001063556542285461 0.003146102807028212 0.4672409215161334 -0.11741268162662181
78922000.0 0.758897854990613 -0.6501038355683242 -0.021895730382692727 -0.5144982735244293 -0.0007311739640582125 -0.000122393197408556 0.46103268046911045 -0.11534526837485408
79921000.0 0.7496685952053002 -0.6524111374301576 -0.04057093331525872 -0.5398337029401635 0.0005849598662932704 0.0005711326044196384 0.46544293678596 -0.13010245561503
80920000.0 0.7439771298410718 -0.6651067597870592 -0.052357660426724066 -0.5665731697428408 0.004017276315151522 0.0015358152351512239 0.4661883493527158 -0.1363982010467521
81919000.0 0.7403305810530061 -0.6696264506183416 -0.07568777456665549 -0.5968475596818229 -0.002593076161641004 -0.0023080540403615244 0.48110807271388534 -0.13623829322011777
82918000.0 0.7301332987809852 -0.6775284844308737 -0.08937845799632725 -0.6279884041502668 0.0009390846069511084 -0.0015565907984719306 0.4866486339823683 -0.15912763329194263
83917000.0 0.7239958761844911 -0.6846020276341948 -0.10893121349695047 -0.6563460456733794 0.00202688592480082 -0.0008119608125675296 0.48349471955874784 -0.16861515070659505
84916000.0 0.7178740493088644 -0.6912441333847933 -0.1273617984274008 -0.6935507481290306 -0.00023970779371650498 -0.0005737540869297276 0.4692094549011322 -0.18043281057330565
85915000.0 0.7112151925816628 -0.6982743305986754 -0.14883896223234397 -0.7221594541004077 -0.002651412718168345 -0.0005088022780964626 0.4610860569199816 -0.1873788448410959
86914000.0 0.7044744756418331 -0.7078412764180713 -0.1614219941476906 -0.764747751670695 0.005197772875294362 -0.0009089632028053581 0.46122851229528655 -0.19663263257881874
87913000.0 0.6977997141924301 -0.7137873261097893 -0.18314284490156393 -0.7889025702197716 2.7598758506001053e-05 -0.0006149673254512124 0.46256329339306185 -0.1941919513017061
88912000.0 0.6902793813948858 -0.7194843366704335 -0.20029578846909046 -0.8275318706458049 0.00044725038175535444 -0.0008389864442150956 0.4666372102885527 -0.2276406835522093
89911000.0 0.682343194063358 -0.7295721440497946 -0.22141868533206518 -0.8629004164640436 -0.003033972861037407 0.0007123736303720761 0.47295551086953214 -0.21818770991543013
90910000.0 0.6779943914571801 -0.7348170441644696 -0.2309165525589385 -0.9016767537672771 4.465040737156664e-05 0.0013269092122920666 0.4570463517991394 -0.2323794795525142
91909000.0 0.6650940381155492 -0.7403417577174425 -0.259242104263009 -0.9341353236556721 0.0012554150012965594 -0.0009434587705456766 0.4629109108672773 -0.23572086092034278
92908000.0 0.6581640448683902 -0.749096455516564 -0.27726173685427485 -0.96698111085044 0.00010300460705473911 -0.00017893668598336336 0.4559733878449904 -0.259089832510197
93907000.0 0.6541169752094074 -0.7537409818365295 -0.29260842537715026 -1.0021285986954491 -0.0027902446635662834 0.0012368252151536518 0.45196264118469526 -0.2682665846398958
94906000.0 0.6399297597581697 -0.7606283994177782 -0.3112013991768565 -1.0374962082221635 -0.0015977537100702848 -0.000736084312158356 0.4617043711716383 -0.2629054108876461
95905000.0 0.6346498112896446 -0.7670916250670572 -0.33783366411772175 -1.0720604423132096 -0.0030398497505937185 -0.002873254447280176 0.46370132958628774 -0.28594351298973186
96904000.0 0.6255213726130587 -0.7771541235747739 -0.36089857575332984 -1.107949041954646 -0.004047855270182214 -0.0016017432652451124 0.4583260096120078 -0.2880043652553443
97903000.0 0.6177096429222441 -0.7804738999747998 -0.3802814087836099 -1.1453245282707225 0.00047295530787943674 0.0027558432965532832 0.4503151027249307 -0.2972010710442261
98902000.0 0.6119662504875444 -0.7885326672815882 -0.4046912056206719 -1.1834579546474335 -0.0002094296763377262 0.0002840114907799952 0.44822636347661104 -0.30283572577477214
99901000.0 0.6000369246752785 -0.7937608478120058 -0.4320574163529945 -1.2116610947188886 0.00211921536162218 -0.0035140949147631985 0.4594277551884563 -0.32883662648265916
100900000.0 0.5937937531032805 -0.7974595110245537 -0.46413773225372706 -1.2450623373098102 -0.000659695465257519 -3.3723936479382636e-05 0.4605499584565966 -0.324770266763488
101899000.0 0.5842611417953014 -0.806278601826968 -0.4929266883143081 -1.286671547811441 -0.001059201943129534 0.003143411923114694 0.4487944314192299 -0.335962693494516
102898000.0 0.5741188201733508 -0.8121378227731791 -0.5313695383633327 -1.321132123842479 -0.0003836026692608964 0.0035770106684551105 0.446320292686585 -0.35788331950254554
103897000.0 0.5663026530151857 -0.8201705168731452 -0.5676213049503899 -1.362538343154576 0.0008075613400095622 0.002153572524764829 0.4622438887995418 -0.3468682197917199
104896000.0 0.5588730310543512 -0.8299859141082591 -0.6137372608446482 -1.3931178588931048 -0.0037858597070095502 0.00022854511968222087 0.44259908672827014 -0.340469283565054
105895000.0 0.5484634652968928 -0.8314075020232402 -0.6608762523731282 -1.437776360436577 -0.0026001133751315814 0.0021715067508441825 0.42505565175822635 -0.3733868892695476
106894000.0 0.5367570758921065 -0.8386909262444392 -0.7162157598421617 -1.4737714426089665 -0.0015331640925904321 -0.001116373932873908 0.4251698328440082 -0.37747208710631586
107893000.0 0.5328385541137293 -0.8428394596861198 -0.7667200030006369 -1.5169975936499385 0.00177309770384736 -0.0011759072651409295 0.42252127048005717 -0.39161614078191204
108892000.0 0.5198057679409908 -0.8488567936155526 -0.8307089361841631 -1.5532879771854207 -0.0011986876328079657 -0.0017401676546681458 0.4247334397996636 -0.3791359787265587
109891000.0 0.5087244734830462 -0.8541842608830938 -0.8853011737308458 -1.589334990551327 -0.0019723323406171953 -0.003719769774912891 0.43085401800995643 -0.3836179206954181
110890000.0 0.4985888385181982 -0.8572747739074527 -0.9460571096487327 -1.596417448220573 4.464942863715236e-05 -0.0006210789924434217 0.4252969191931851 -0.38983433496908076
111889000.0 0.48892603422926567 -0.8604258679618151 -1.0138327982672393 -1.6547681972885566 -0.0019771017733188033 -0.0007759875579438399 0.4085901312915181 -0.4175070164837712
