! Created with skrf 1.9.0 (http://scikit-rf.org).
# Hz S RI R 50.0 
!freq ReS11 ImS11 ReS21 ImS21 ReS12 ImS12 ReS22 ImS22
1000000.0 0.9932802789266303 0.01621817438325448 -0.002597392300628067 -0.0518623073476705 -0.022574132063820668 0.007702353298264342 0.292299872270254 0.29457633369093517
1999000.0 0.9947848513489609 -0.013213518782887672 0.005051574986796625 -0.02634720918912799 8.27290709082586e-05 0.005683754195159459 0.2365532504572766 -0.06455193476524908
2998000.0 0.9967730093400375 -0.02389497339704617 0.010189179545657713 -0.01262240552019901 -0.0007732231016869426 0.004014779976127911 0.1773226454279771 -0.12927019763435
3997000.0 0.9993489345468911 -0.0318810204209923 0.016643490017516506 -0.0019267170029167392 0.0015485133713937671 -0.0020100657366152754 0.09776982760671411 -0.21923749538927734
4996000.0 0.9950362158453218 -0.041756066352356104 0.009268098459704185 -0.0004610629556252733 -0.0009636959176039806 -0.0021536167364000548 -0.04112076333209151 -0.20045387231379722
5995000.0 0.9952210000305928 -0.04923234575060251 0.0013298439067334128 -0.0014152669724557321 -0.0012399462827465248 -0.0029351185310142205 -0.12378352539856946 -0.10853317373919232
6994000.0 0.9945804890914929 -0.058945980113038136 0.009812880479622378 0.002402361873458303 -0.004266152134442006 0.0023925405847750876 -0.14807276805101718 -0.03872319567080774
7993000.0 0.994451998030372 -0.06748900536117736 0.005210942972058251 0.0032585358294726042 0.0012905637316785446 0.0001268097921769041 -0.15973654466735376 0.03197198372911043
8992000.0 0.992232182958514 -0.0719007962057594 0.0053321670543981506 0.004603470103355832 0.0006969638569370686 -0.0014824944010391424 -0.15395767022157836 0.04731289226398786
9991000.0 0.9927575024281756 -0.07972287006957905 0.0031755862169474654 0.008104559108781505 0.0030907751050458804 0.000853989910861731 -0.15284205758719147 0.08601178378776742
10990000.0 0.9913694914295259 -0.09366250916328833 0.0022769075530085824 0.0017823356361955141 -0.00022078566552120228 -0.0037372033417324723 -0.1496922743911348 0.11704407544429239
11989000.0 0.9892541880426097 -0.10140056803172781 0.001856531709005201 0.0006173961598837723 -0.0031042048320841847 0.005543760039446621 -0.1395154218758036 0.12053683362697291
12988000.0 0.9880004893614145 -0.11133983920235052 -0.0011139376879673308 -0.0001954220398189461 -0.003950813329444052 0.005186264605058944 -0.12089273638653665 0.14587696774328482
13987000.0 0.9861938989594662 -0.11900875777490613 -0.002342172417652409 0.0010862688494513082 0.002768156577655104 0.00035714658109070976 -0.08739657912448341 0.17986672843630058
14986000.0 0.9855356770243581 -0.12824468165635616 -0.0013209576917640336 -0.004710553373168532 0.0010258332265461005 0.0025846278676463306 -0.0945904222173989 0.2059934255818477
15985000.0 0.9867363359996268 -0.13527715201774343 -0.003964656881507928 -0.004428225944541654 0.0023745123797706356 0.000757749259974559 -0.07116359864121548 0.21451106131769054
16984000.0 0.9833298424078548 -0.14531834215660258 -0.0032047222482467666 -0.003515388117917023 0.0032059944812428873 -0.0009731154683490282 -0.06850172613351228 0.21440181142196368
17983000.0 0.9849367599485072 -0.151864804751255 -0.0015745737210892295 -0.007763566953369772 -0.00017237726065966316 0.00020518915988051252 -0.06302613770198948 0.22337267002972827
18982000.0 0.9793682628397047 -0.16115211080323816 -0.006954860798154847 -0.002961213938892108 -0.0009995188400425614 -0.005316982725625499 -0.029352892968769945 0.24303870307005415
19981000.0 0.9798657319105186 -0.17033742054364745 -0.00284696134391778 -0.00820082880808628 0.0029639728723845067 -0.004001856989032559 -0.023969451691573048 0.23125724163773842
20980000.0 0.9780830664030767 -0.17867900779205853 -0.0043200922542739415 -0.007565977082218944 0.0024084489827770864 -0.0012082005880895844 -0.008479511485418707 0.2559292731615441
21979000.0 0.9757721790126538 -0.1870519237268022 -0.0035157463346516746 0.0012959616627367173 0.00044436507982670975 0.0009162782669514768 0.01831177363806997 0.24495016418012072
22978000.0 0.9729877683958014 -0.1965642520631824 -0.007577191423736138 -0.001109833010673463 -0.005028875145811788 0.00014240857176611957 0.03447869474594418 0.2477360747954484
23977000.0 0.9752338302942314 -0.204240886520408 -0.00841774176579215 -0.0057261153644018094 -0.001462689946405849 0.0029648843487871924 0.038697725637532876 0.2575186143224839
24976000.0 0.9701674102617196 -0.21516391443750138 -0.0068602864532784375 -0.0013022299718038882 0.0010066750173528599 0.003437403098086929 0.04991437263666131 0.25472569909096043
25975000.0 0.9678931619322884 -0.21800785429364022 -0.003879065457088219 -0.002766829703853305 -0.027630777859265945 0.011138846565596404 0.07601503170459015 0.2537674574886231
26974000.0 0.9694982286341878 -0.2293045667342281 -0.007036691142463997 0.003384015187269221 -0.001771736878644348 0.003970132680257876 0.0758367923451616 0.2734357521008488
27973000.0 0.9675291482680868 -0.23623102063156412 -0.005451328791725004 0.0035888866627144978 -0.0003380370450932804 -0.0019974068089251636 0.09179787801839911 0.2575886436857788
28972000.0 0.9626235855486334 -0.24895404146848657 -0.0015417892082545174 -0.002575681622291449 -6.852720198296278e-06 -0.00032456772390694345 0.11190537153942 0.2546746503533957
29971000.0 0.9626242052486218 -0.256811800208751 0.0013650397976376464 -0.00240671196192344 0.0010381297413664102 0.002056730943290957 0.15246842307707528 0.26249301338776615
30970000.0 0.9586896157971385 -0.26256155887093424 7.20319935428756e-05 -0.0005794509104584091 -0.0015612730296814504 -0.0034192787471905976 0.16146511875999003 0.2404755393004085
31969000.0 0.9558684721820581 -0.2719094055404079 0.0062066596834237635 -0.002106238745765074 -0.0028826681518901573 0.00014753266253337294 0.14677604146067957 0.2401019255194195
32968000.0 0.9552420763000368 -0.28071112374823126 0.00821024301125327 -0.004579678885704414 -0.0024199337549448635 0.000799354234768574 0.15565265241282256 0.2585560110592153
33967000.0 0.9523398216778368 -0.29112030327619887 0.01142506582986807 -0.01173613363860437 -8.009358468655047e-05 -3.506605969450187e-05 0.1823072078460929 0.24538908826873596
34966000.0 0.9503022212512817 -0.2981783288786764 0.014154675070015778 -0.00901467773559731 -0.0024979307984965755 -0.0014384010046305793 0.18529343848255292 0.25011407172590744
35965000.0 0.9468346439479538 -0.3066393907197045 0.018066253635978944 -0.014374486107700599 0.0003429265620733026 0.001233840188932337 0.20643227896300034 0.2545457701006678
36964000.0 0.9447681156712388 -0.31564631287410433 0.018483805255279685 -0.014511388732126745 0.000893248317707942 0.0012236614696295425 0.2078526828715266 0.24567254008763081
37963000.0 0.9415438734110776 -0.3246204407582256 0.021616621289056243 -0.019068280290721565 -0.0018795683066294882 0.0005488312892993248 0.22191982311629982 0.23770235033972678
38962000.0 0.9385546646897606 -0.3363529242166492 0.02283591878562909 -0.024222504226775406 -0.0016907492406910548 -0.0038231375110637364 0.24171810869035443 0.2308422861092785
39961000.0 0.9374073769704543 -0.33933468041797993 0.025819625302588564 -0.03075075274987473 0.0018399820680410851 0.0007514374397029017 0.24602053726934833 0.2214424146966908
40960000.0 0.932828828670992 -0.3508083637733069 0.021536037862247386 -0.022774197750213884 0.00394466994506824 0.004188777653656891 0.25953906955727185 0.22074353216877177
41959000.0 0.9299258646077101 -0.3602305982361895 0.029487536132379536 -0.032611794248885044 -0.0008834369614889137 0.003297405585106454 0.2575544948568579 0.213233087439611
42958000.0 0.9249263087772963 -0.368647422962111 0.02914589559359346 -0.04096641770789032 0.00022603557199095257 -0.0019812140096980243 0.2794564629999824 0.2015469927251197
43957000.0 0.9236939930415762 -0.3725693744578431 0.03448142841814631 -0.04792149108744689 -0.0006127505346832682 0.0016441406324808011 0.2848862218096877 0.19645780255057682
44956000.0 0.9198550541266687 -0.38058022561297566 0.03223402541145027 -0.053773552617099596 -0.0011061383557799372 0.004063919892124038 0.30961930177665253 0.18668965250473357
45955000.0 0.9151798327292593 -0.3929487959450251 0.034936358512623944 -0.05978816265589208 0.0012019312915660684 -0.0015409709632417878 0.3014017293086431 0.18852194179659681
46954000.0 0.9116590182978604 -0.40153255615974814 0.03412236362463545 -0.06460679086572986 0.0010372111993431792 -0.0002790751353544127 0.3291337673397389 0.17621581699935623
47953000.0 0.9078667821041533 -0.40935810599626576 0.035730635730045736 -0.07184169499355357 0.001441536328425942 0.0011805906283840534 0.32885079480909535 0.16854182153230177
48952000.0 0.9038725535168914 -0.4190778848613396 0.03369455259468094 -0.07982111409548404 -0.00274178092047695 0.0022628188925781414 0.32891997423872554 0.15682937016960866
49951000.0 0.8992566428451135 -0.4251862009613385 0.033202346594350514 -0.0887971075191564 -0.0011982483607753899 0.00011163421797590243 0.3467779935469473 0.15476356302939448
50950000.0 0.8953623028526287 -0.4355329020308771 0.03608370719599968 -0.09603120273605534 -0.0014809225828374465 0.00139855221141081 0.3457007766264754 0.14257746201925375
51949000.0 0.8917410243630589 -0.4429960507012701 0.03446520010610989 -0.10366987006110215 0.00024322236766154593 -0.0013999892328747075 0.3494583483680265 0.13911340515166407
52948000.0 0.8877726177180346 -0.4522975395622536 0.037481617718148674 -0.11263838991800514 -0.000868185817595595 0.0016744243566954192 0.370264109345363 0.14293922705361548
53947000.0 0.882337538323345 -0.45993790488227804 0.04014102033788754 -0.12121370003095071 -0.0012769555728187642 -0.0002064058522816187 0.3591482577491512 0.12120749581089975
54946000.0 0.8778268770909434 -0.4701025130508895 0.03994682147101439 -0.13099406579232095 0.0015623586228039337 0.003545307664540582 0.3883134093413351 0.12127988650517746
55945000.0 0.8747820904563489 -0.47609050018333693 0.0419685360133285 -0.14060929977372744 -0.0029476344988133584 -0.0029757871067341694 0.379143945098225 0.10154266866004703
56944000.0 0.871019072447584 -0.4855886485355176 0.04494327089661133 -0.1513438106357634 0.0034328840293716208 -0.0012074345881186543 0.38310550012096384 0.10316639677373717
57943000.0 0.8668862028731542 -0.4954215321291198 0.04333725393492214 -0.16393603783604166 -0.0015453999660808547 -0.0008232811143578441 0.3928724566394379 0.08469907951762531
58942000.0 0.8583108660780444 -0.5009034494354747 0.04684660599633633 -0.17156988208282367 0.00015867571163106996 0.0036142325324547636 0.4100726679001204 0.08209476480316846
59941000.0 0.8559935319924028 -0.509036692735574 0.04932477391694621 -0.1811163257923817 -0.0023722703403516727 -3.809921851900516e-05 0.41876810594876085 0.08416314276675639
60940000.0 0.8485249834291516 -0.516991496852277 0.046759484924307086 -0.18582363407170116 0.00042867995701270916 -0.0011115527122024316 0.4068502207153514 0.07816289006574596
61939000.0 0.8448654275990471 -0.5237188318113826 0.044591762372749255 -0.19286549288999902 -0.0005334543152351693 0.00145563481291771 0.4169019663056722 0.0632280606109671
62938000.0 0.8385740167146337 -0.5365964639429571 0.04823314366345845 -0.20788220953439035 0.0038651898396222617 -0.00222435119027568 0.4440873082692553 0.05375982100842084
63937000.0 0.8334071037218942 -0.5424915783492713 0.05396512115510552 -0.23083172792145537 0.0022739267966748414 -0.0015896916084146933 0.4349994717581438 0.03513878909831561
64936000.0 0.8298328913519046 -0.5464743477012787 0.05185007309893368 -0.2431788117919101 0.0009483392191298672 -0.00023607053946893454 0.4252648790452459 0.050115699311916125
65935000.0 0.8241698791896187 -0.560165016628644 0.05013574875159497 -0.25642548312653507 -0.001104311890026885 0.0037529520088903684 0.4399166066802615 0.023081024683843165
66934000.0 0.8202938383648619 -0.5630879029153812 0.049670040244934606 -0.2705486813836404 0.0007959102825916582 -0.0009249386758557924 0.42866274941270904 0.01813607695276392
67933000.0 0.8164954829350143 -0.5720344074500395 0.05314520684287003 -0.28321220193414787 0.0010990309470877775 0.0011882226475889701 0.44376926802495686 0.0010260041101295616
68932000.0 0.8062633634703007 -0.5787875261592615 0.04485990755363754 -0.294992730301679 0.0015162747579925994 3.290132513583136e-05 0.4523307416814937 -0.020387559469437804
69931000.0 0.8017915192454258 -0.5891869021720628 0.046823594112784965 -0.31231381541745984 0.003169570966927224 0.002052066421174524 0.44184456097036906 -0.029246929650679956
70930000.0 0.7970737167775085 -0.5943695583115679 0.046159616710267456 -0.32493765226949495 0.0031576324701796566 -0.0016015574370802693 0.43443221373907615 -0.034695876457089915
71929000.0 0.7921292539268048 -0.6020695989213901 0.03689919232568659 -0.3427353410795473 -0.0004020119830602193 -0.0032026654942125927 0.4465773394729508 -0.041554542402255236
72928000.0 0.7841064568594662 -0.6126775942470021 0.03325822118714466 -0.3577175398380188 0.0019942629968434126 -0.0004232937623886418 0.45648506638889563 -0.053182291121439476
73927000.0 0.7788277528839823 -0.6189547684045149 0.026015261505331462 -0.3774006535723028 -0.0002389492127311861 0.0011063216547348002 0.4537591869077454 -0.049066230335962954
74926000.0 0.7721800467101803 -0.6274793989061822 0.022234401165683225 -0.39541686067047455 -0.0007494256804856422 0.004664657230910395 0.4594238286028739 -0.05970023848668595
75925000.0 0.7681688482539205 -0.6327836540242212 0.013547913186271427 -0.4141562983810065 0.005982969061408371 0.0036920932036759633 0.46597869933331243 -0.08354556649298898
76924000.0 0.7599188322160902 -0.6403665807772401 -0.006629520839726777 -0.4387179214598438 -0.002472895669447866 5.3601773804508605e-05 0.4564582250559098 -0.08267658210647295
77923000.0 0.7530080080172985 -0.6480992800850963 -0.01605015117323756 -0.4593842791121135 0.005324442406577966 0.001346109472327654 0.4598590280952255 -0.10238834359591255
78922000.0 0.7470982521391909 -0.6569776095450787 -0.034618487824714106 -0.4874735141014537 0.0017922279826915017 0.0003992487796569335 0.45888515344797215 -0.11323083465660319
79921000.0 0.738987346586979 -0.6608418549110946 -0.04671452911161863 -0.5119450205228386 0.0034620446814208083 -0.0002681148496351737 0.45419951920323237 -0.11411619541306357
80920000.0 0.7355334004384746 -0.6717834306154139 -0.06679612494812638 -0.5402358976381654 -0.0012042083563720645 0.0012951827100620558 0.4547218804104475 -0.1346492054116425
81919000.0 0.7279172330953754 -0.6779119939488998 -0.08229414783676685 -0.5657598288636445 0.00036961164725833834 -0.003645638068565966 0.46134686178381107 -0.1461042651951993
82918000.0 0.7200406774948943 -0.684779258580233 -0.09998804611079946 -0.5991166254786664 0.0049453171353591235 -0.0011686837945840765 0.4737012170335415 -0.14464047718720222
83917000.0 0.7122341603344707 -0.6942055265421413 -0.11795427598861918 -0.6252485181141981 -0.003043670568283987 0.0020818909594793457 0.4623859262998758 -0.162590499675737
84916000.0 0.7049293682304224 -0.7007412111644765 -0.1374802093393374 -0.6579472238622275 0.005728918732345602 0.004561422334259311 0.45188631733862533 -0.18004611577630647
85915000.0 0.6998380361653437 -0.7062892784895118 -0.15798691839892953 -0.6873679402094703 0.004391336954229486 0.000812326210353634 0.45731728947024464 -0.18103947767431414
86914000.0 0.6913538943869382 -0.7163739807816963 -0.17242106283337508 -0.7261257994179862 0.00039190052784398617 0.002417061445490496 0.458484165471312 -0.16920975016255593
87913000.0 0.6834023884103803 -0.7223457651152858 -0.18573239600083083 -0.7560004830089665 0.0006821188344602491 -0.0027708483007791297 0.4500922841407087 -0.17510709138695552
88912000.0 0.6785644356872488 -0.7297398558290794 -0.20383298575520387 -0.7873213866262739 -0.0006009176976616766 -0.0016302240426205195 0.4514010578498209 -0.2209643782446906
89911000.0 0.6669938511400468 -0.7385414293418949 -0.21888096215112043 -0.8213263184446239 -0.0014954920478822285 0.002604410077775967 0.4707509440754249 -0.21222367948251242
90910000.0 0.6634561244052125 -0.7420025467673376 -0.2327099965638147 -0.8574000836419771 -0.000652259924582569 0.0007606355193471717 0.4554388592715927 -0.22371805142721582
91909000.0 0.6525085374969077 -0.7470144299935889 -0.25170929272421577 -0.8880650279778363 0.002475166695017192 0.00145040969190697 0.4653215721906906 -0.23212894690663613
92908000.0 0.6456315079115905 -0.7558304826426397 -0.27081941386596253 -0.916724104146551 -0.0035744090383281486 0.004641954139068809 0.44873280981161906 -0.2365009222467627
93907000.0 0.6389793295803682 -0.762020322297262 -0.2920551739385164 -0.9450157004884855 -0.0004940226131570124 -0.002847955288440905 0.4560597078992215 -0.262351157268034
94906000.0 0.6264529551318341 -0.7693261247290334 -0.3019812759146095 -0.9800984504130106 -0.002987845220734532 -0.0008542912243830062 0.45799875116593713 -0.25484517104987886
95905000.0 0.6210600040147509 -0.7754933513823298 -0.32642292146774693 -1.0175000857913776 -0.00017812552530309871 0.0005188802965670358 0.4445023459673336 -0.27656757231377793
96904000.0 0.6112328965963196 -0.7853850815666623 -0.34572723181074294 -1.0546255177519084 0.001277109117903614 -0.0019465439721381723 0.44660864501663555 -0.27597009053954513
97903000.0 0.6005987516452285 -0.7904282409904098 -0.36678175350417785 -1.0850079922656795 0.0003571655526578727 0.0020306251088013753 0.43979117857146 -0.3032255418475267
98902000.0 0.5984039589532868 -0.7978187138279178 -0.3869141347512217 -1.1190567417364115 0.001116292663520583 -0.0018657504081120075 0.4462212992223331 -0.305015020524126
99901000.0 0.5870742561230652 -0.8033979448950251 -0.41437858338758377 -1.1511453158718492 -0.0026615552701120715 -0.00041687314524643766 0.45178838576631414 -0.319367964180298
100900000.0 0.5784142135822299 -0.8057092467354775 -0.4450866475098896 -1.1768473725634125 -0.0015371545162882066 0.00026579001059251576 0.452611292969829 -0.3187417802488084
101899000.0 0.5694665546452679 -0.8130551059555854 -0.4684350066579524 -1.2109882257897324 -0.0032898601876077426 -0.001955387423630813 0.43801539235907566 -0.3231849583775906
102898000.0 0.5578003086879033 -0.8185533318175914 -0.5032446998949317 -1.2458143975663711 0.0015358482443741475 -0.0033080699287428685 0.44659676911416574 -0.3472099330877338
103897000.0 0.5508903081856743 -0.8279357290605913 -0.5462575915602498 -1.2813388277625068 -0.0016485695472369733 -0.0009262652647616022 0.44252370414894787 -0.34334850614979306
104896000.0 0.5424713326335094 -0.837477196346757 -0.5866227690591939 -1.3122014198065493 -0.002053596700237308 -0.0016962074852076444 0.4320941057045894 -0.3506332523882342
105895000.0 0.5326558599142831 -0.8390939546612022 -0.6326047731316917 -1.3522624663060057 -0.002600483924812047 0.0009327974556108806 0.42052672706176597 -0.36221818123986954
106894000.0 0.5202636330179314 -0.8448029633701478 -0.6894245139117012 -1.3831650388578416 0.0003217489955904158 -0.001211878552288784 0.42237643631540855 -0.3757869642849464
107893000.0 0.5140712181598593 -0.8509236377423289 -0.7351307979566014 -1.4180581678325788 0.002422943581129225 0.0008002137344020573 0.4144112745134643 -0.38642285018503514
108892000.0 0.5032392541351363 -0.8539157379493083 -0.7994138039456432 -1.4559696889760985 0.001601808777394111 -0.0019834849321492673 0.41622097107410794 -0.3847038910007625
109891000.0 0.4916512971545359 -0.8634012413607374 -0.852639469249897 -1.4905056410752875 0.0008655116456536816 0.0016169901601858485 0.42778518826539813 -0.37795093994556733
110890000.0 0.4831646016988604 -0.8764137319041627 -0.9284706042483126 -1.5104182810886437 0.0036715798670705173 0.00014117270545839166 0.42785901002246723 -0.3887224727740786
111889000.0 0.4732890241150161 -0.8702896266302705 -0.9780180952951295 -1.5606011597699416 0.0011773156274173073 0.001188933867437122 0.41011432082233595 -0.39911616324252525
