! Created with skrf 1.9.0 (http://scikit-rf.org).
# Hz S RI R 50.0 
!freq ReS11 ImS11 ReS21 ImS21 ReS12 ImS12 ReS22 ImS22
1000000.0 0.9931093106534388 0.010616678928059215 -0.011005357769766426 -0.04745395770101206 -0.014248788272474316 0.00879293868602519 0.3552715514625882 0.3259968889596427
1999000.0 0.9971074649189553 -0.005878502547962915 0.009921947327289656 -0.01839917174703768 0.002271972364349299 0.004027859221737157 0.2591224808943226 -0.05512844792900865
2998000.0 0.9999254089879531 -0.021185920087756 0.0066508569326106095 -0.016626910105679453 -0.0035305727133855564 -0.005795156072143127 0.18406850101892938 -0.1447861256393181
3997000.0 0.9954866192604429 -0.025780695184069093 0.010681819384827386 -0.00469556620249634 -0.008599204743409734 -0.0015117391014058963 0.08640933032865077 -0.2367086968900892
4996000.0 0.9944862500521229 -0.03457087259640195 0.015611042230986381 -0.00202736910501265 -0.0003084614947221011 -0.0031149314128965677 -0.04512071467121564 -0.21026919838520985
5995000.0 0.9982331276953511 -0.048937858162335424 0.009226954434188661 0.003093546366406394 -0.00011778998234517319 -0.003306114826230348 -0.12936152601917963 -0.10127752887481561
6994000.0 0.9960279928865898 -0.05741210752682148 0.006642301322186469 0.0029702293600124352 0.0011452184010035686 -0.007103846994896697 -0.1387659321993373 -0.030845051286209933
7993000.0 0.9955142486944146 -0.06797316861494089 0.0035783808611830497 0.004407315594181889 0.0012902139311743628 -0.0041771347984358356 -0.13715591675497343 0.04462115054537251
8992000.0 0.997004100705479 -0.07225053900019843 -0.0001853904618191817 0.0033315352040204334 -0.004037293850400389 -0.00030213649753745687 -0.15031484367898648 0.06074751256645701
9991000.0 0.9938472296788734 -0.079747277316023 0.003593425849192897 0.003979025769752228 0.0015889970753941928 -0.0009966647542622856 -0.13951363999111688 0.09016197637961931
10990000.0 0.9939031968004716 -0.09047350786994572 0.001826899335968289 0.0033169297589847485 0.0002043285253306409 -0.0023620450394023404 -0.128250812863899 0.10162370249478789
11989000.0 0.992142067593565 -0.09738455779622177 -0.00014983566661079244 0.0002625549461280428 -0.002867475146752375 -3.08094587830659e-05 -0.12736081159169668 0.1508578016567401
12988000.0 0.9905710999544821 -0.1081516363628743 0.0017380013051747699 -0.010781487300257362 0.0021650784813437266 -0.0009389474845439129 -0.10906206785385322 0.1724236503396257
13987000.0 0.9895090933938118 -0.11371024131518137 0.002003049758479609 -0.0038709424960279093 -0.0086627899251578 0.0031268270108825223 -0.09860788733117999 0.17794742987276135
14986000.0 0.9896605966098283 -0.12328068426107422 -0.0011834659080669752 -0.0012785228965267732 -0.0013648039674110475 -0.00018867240840956108 -0.07383405844729284 0.19223182624344948
15985000.0 0.990423548305028 -0.13141071067412202 0.0013663873968372102 -0.00208795859907816 0.0012313740727535832 -0.0029156252849003505 -0.05721566065824857 0.21212826784207744
16984000.0 0.9864454744387221 -0.1418126077658978 -0.0029166999918504334 -0.0035500949900023355 0.0008592911189519271 0.0011461805880363465 -0.05417704453413904 0.21630948193677482
17983000.0 0.988238810342849 -0.14552139294670888 -0.000552628673085357 -0.004739354648336936 -0.0016411736314383399 0.0023680792580636936 -0.04692389696684693 0.22011158817048854
18982000.0 0.9851960866185907 -0.15655354593050425 -0.0029189208097628195 -0.003276418283680148 -0.0009371646453095118 0.00325443673469894 -0.01789734621550597 0.23831544471267974
19981000.0 0.9851251117486128 -0.1646442683098415 0.001381600216598385 -0.00558899770470478 0.00045233786294358874 -0.0016604548906057723 -0.014757582742742947 0.24441554019814513
20980000.0 0.9807341850940943 -0.1735318608003231 -0.0027252493713837435 -0.0017236742615333413 -0.002349617668124631 -0.004255720184755639 0.0002888872442917431 0.25440529510793636
21979000.0 0.9810738538053072 -0.18028733857817822 -0.0024914866335950243 -0.003626676164357293 0.0023104211062019817 -0.004264469085984375 0.020087967893619163 0.2528908377507278
22978000.0 0.9773504522381831 -0.19212215253275478 -0.0057694606910287565 -0.0012410309519403566 -0.0011487408578824741 -0.00013595391383640842 0.029600953251886684 0.2510417211673582
23977000.0 0.9807065525912737 -0.1966806460166816 -0.006311148296445847 -0.004549095661465989 -0.001422629973846432 -0.0014573252114794763 0.0438332096201978 0.2475196648139937
24976000.0 0.9752802307939611 -0.20433841324743135 -0.0028723336141703963 -0.004244957160137994 -0.0035005447285761855 0.0003316574674290935 0.07242456661572574 0.24274243910765644
25975000.0 0.9718065595917099 -0.211798580128679 -0.005944275255586767 0.0004934419876620563 -0.02097065318250805 0.01555625212154152 0.08244575825832685 0.2604447902288881
26974000.0 0.9715505218699968 -0.22236895493556796 -0.005280752596867689 -0.00045796771948594943 -0.0001337584815277783 -0.0018820920420692456 0.09248141157768204 0.2591640993879349
27973000.0 0.9718087927601718 -0.23006527718023256 -0.003573676923645925 -0.0023362164900968835 -0.0004638947367259852 -0.0005885254600974617 0.10927795809870355 0.2525510600052552
28972000.0 0.9676296264593827 -0.23873753437420717 0.002528616018710545 -0.001303107513492433 -0.0005818780282294364 0.0005477890226956207 0.11705441010443547 0.2495176331306119
29971000.0 0.9663411777494567 -0.24825089078952556 0.0014842461773084251 -0.005112040070035184 0.0005735495804799588 -0.0004419504981208452 0.13976328741565697 0.2708806278340488
30970000.0 0.9644651106654293 -0.25373916168010285 0.003114989688043221 -0.0005467470760309519 0.0011724176501144038 -0.001658385576336281 0.17269154662209557 0.2502511010630495
31969000.0 0.9622628706807572 -0.2626402308848135 0.0025121741852940117 -0.008235659082644349 0.0016624730981990685 2.1767037021175777e-07 0.15939061611965463 0.24803173828765726
32968000.0 0.9617960965666893 -0.2697632035954491 0.007888233793930673 -0.006360468370709039 -0.00047284999740551084 -0.0022930065600260735 0.1633789523449251 0.2458987834204852
33967000.0 0.9571458079378727 -0.2810463882208004 0.009821685230146074 -0.009714400751828722 -0.0013461483682684374 -0.00015110427665762327 0.18596236472325844 0.23639780120494736
34966000.0 0.9548681217266323 -0.28977542647756244 0.016128262458234514 -0.013006243928909804 0.0004007249071898021 0.0006756978990279047 0.19594523138750167 0.2560617448048389
35965000.0 0.9514359325955144 -0.2962733572498613 0.01446427191853942 -0.014210438146536932 -0.0007440374910544461 0.002015343083378462 0.21049980232784632 0.2550250727456766
36964000.0 0.9495547591927243 -0.3063796329791642 0.020148257785801014 -0.013616298659948265 0.0019305601327339861 -0.0012219375948051248 0.22168048152189435 0.23978381043394287
37963000.0 0.9480962152766699 -0.31508348834563626 0.020238488694217828 -0.02477795967758478 0.0011860354740001076 8.932963774151282e-05 0.22952867027650883 0.23447469836018062
38962000.0 0.9448324156466278 -0.3248510906990434 0.026783436582285457 -0.024723650119929566 0.004038725795322 -0.0012532849051595104 0.24357249942874673 0.23496801430627354
39961000.0 0.9430841976455016 -0.3293213684113749 0.02502294971827773 -0.030912727373632765 0.0007642068899353354 -0.002074980284026902 0.2550431655636728 0.2210798386381286
40960000.0 0.9382786448361458 -0.3367806942870179 0.02408945611515833 -0.024524451646792452 -0.0003048489098835194 0.00027503897095653524 0.27235525478790434 0.23077633029930883
41959000.0 0.9376287107412247 -0.34750839565936975 0.029376631430063724 -0.03256512284027487 0.0006357929883319896 -0.0019107100657148061 0.27788591173117766 0.21690622767991735
42958000.0 0.9306320197001361 -0.3550023280569376 0.036072763717076364 -0.04429451621794711 -0.0008403716385725683 -8.1108091051797e-05 0.2832585139468709 0.20718560795965132
43957000.0 0.9299060281125862 -0.36042254773650617 0.03440012979887886 -0.048637713283318396 -0.0007450207096155281 0.0005974916295631052 0.29177409222627315 0.20130817891614405
44956000.0 0.9271280735292996 -0.36977614086072363 0.03592522632817203 -0.05271995137051642 -0.001963179961549309 0.001213084438392997 0.3036154580223986 0.19534813602092324
45955000.0 0.9222284265848236 -0.3792455494160489 0.03705728924337369 -0.05769375524346583 -8.791816510202355e-05 0.002760493224626857 0.3048610160340679 0.19333470166443423
46954000.0 0.9192848950540898 -0.38749297619233175 0.03645290963133285 -0.06537637362579757 -0.006207602911735361 0.0009810429062557195 0.337142092348907 0.17940604595888351
47953000.0 0.9165781351306281 -0.3954243419548928 0.03586054340573818 -0.07268737538868196 0.0013058593557692937 -0.00021490677246379533 0.34380761496298545 0.17149917496729697
48952000.0 0.9103727145759065 -0.4070813766124596 0.037362912771011565 -0.07847565208977737 -0.00012132743257528183 0.0011143455946819776 0.3343331416174439 0.16224564379424863
49951000.0 0.9086015883361656 -0.41073310744691277 0.03983048213552456 -0.08701421316831899 -0.0021752679352474782 -0.0008873045035838441 0.35199477437503546 0.153910275318667
50950000.0 0.903761189778467 -0.4199329381641904 0.039330317914160556 -0.09894943490253526 -0.00282784646155428 -0.003945673367674388 0.3575222197150707 0.1578884401563607
51949000.0 0.9010439580918139 -0.42877467588027796 0.03905505826773415 -0.10288580606995258 -0.00012179444857340538 0.0033254722163305376 0.36225860986502845 0.14906832571226225
52948000.0 0.897691530100702 -0.4371282062169639 0.04072219765306498 -0.11412288497205418 0.004675278367558672 -0.001003009764826807 0.3697070703139654 0.14659227954044746
53947000.0 0.8934609988094405 -0.44387709930614455 0.043345191828803475 -0.12442784925415301 0.0006531967465744346 0.00039386553415800903 0.377874357987187 0.13520863170955935
54946000.0 0.8871834635720716 -0.45441607054467453 0.04324597047077516 -0.1312871730141633 -0.002213529668294566 -0.0016406052621150977 0.3866075712582951 0.12537300790346492
55945000.0 0.8855730938565425 -0.4624966325340666 0.04354379019466373 -0.1422882119864225 0.002523536921812786 0.0019689037663755044 0.3989857058490161 0.10020889310596344
56944000.0 0.8818540135665772 -0.4674555994642904 0.047517625797304446 -0.15490086124921107 0.0009210028986902362 -0.0013134704655778076 0.40639668308726584 0.09884761876685946
57943000.0 0.8774162630806409 -0.4800594796924682 0.04997495543802772 -0.16284820675281367 0.00023899180928713847 0.0009858257899373803 0.401404664623546 0.08879790702386238
58942000.0 0.8723597108446927 -0.4835699506875547 0.04899973220937404 -0.175125316814045 0.0015017274882900668 0.0004123807000066896 0.4293621313083819 0.09178400276744189
59941000.0 0.8685235619190419 -0.49314328696785487 0.049353122654193865 -0.1831569860100348 0.0022943127333220218 -0.0002869675723447415 0.41349068806240813 0.08786131209990153
60940000.0 0.8605156978885855 -0.501779722500143 0.04976679159258348 -0.18774928654264006 -0.0006583829615476224 -0.0011981330397133625 0.4060586626065398 0.08236535728659414
61939000.0 0.8592160446167323 -0.5071433492743227 0.05092190757971282 -0.19634629229820763 0.001822980039268709 -0.0005256292709665783 0.4306480307737744 0.07070339185095932
62938000.0 0.8529252254914399 -0.5169340937589398 0.0560192828489038 -0.21235335513314715 -0.0006757196434120918 0.00137521632236388 0.4425610721572024 0.05911411438317838
63937000.0 0.8495805874287874 -0.5231660582130271 0.05677095947529265 -0.23239245093095146 0.001315568174731716 0.00039558238883582905 0.43527964218953563 0.039333033135010936
64936000.0 0.8415053524876479 -0.5315627438220624 0.05327789552346501 -0.24616527598993476 0.00034160370411427665 0.0036221599068704032 0.44143525534476796 0.04611447875341838
65935000.0 0.8396893592388404 -0.5392696595053958 0.05323858075975083 -0.26018164337986543 0.00019168362698168722 -0.0016149874965696006 0.44558216909925413 0.016018883466278597
66934000.0 0.8342094962304389 -0.5473022944734995 0.05216455885136681 -0.2771233048425958 0.0005498084733032804 -0.00010893632968810734 0.4452187599836523 0.016630785766060786
67933000.0 0.8323902892135203 -0.5524808061326946 0.05698082848266598 -0.2850651093401628 -0.0043534606830954135 0.0003993963748038016 0.45252932787054645 0.01252968975359937
68932000.0 0.8195037342793992 -0.5613466751091698 0.04943686073772439 -0.299571823593089 -0.0019519388334327023 0.00018704154368049162 0.45894602082375663 -0.00483854708874466
69931000.0 0.8183690819235769 -0.5704420433984174 0.05271294759186938 -0.3149683424307701 -0.0011642701382142662 -0.0013075798427868695 0.4559378790628123 -0.01451319857455067
70930000.0 0.8105505759631259 -0.5789655547878862 0.04935443990157624 -0.33304678178660085 -0.0006808732452304156 -0.00016689271011761494 0.45686983123917846 -0.033354461336447754
71929000.0 0.8095381361861627 -0.5847805421636683 0.048404138209449506 -0.3487321628279223 0.0017290564123427455 0.00018598699093601352 0.45776261958228937 -0.03935046598402905
72928000.0 0.8032971690209815 -0.5923054547071779 0.040570832742146505 -0.36627066929751384 0.00436760802178866 0.00100066194472027 0.46691282167652526 -0.04179762081692356
73927000.0 0.7969932502458902 -0.5992029565376759 0.035402824892226396 -0.3849421927390402 0.001029897686311724 0.00014452990333023736 0.4618977408286173 -0.0568471150858119
74926000.0 0.7930990172521306 -0.6099103488109581 0.028786358655555747 -0.40474589274645123 0.0020454622038894427 -0.0004234838563165576 0.4701015003384391 -0.05887689898006334
75925000.0 0.7872313072023269 -0.6132632424550779 0.01992756841762954 -0.4219917064325373 0.0027619826112774194 0.0020455099763142604 0.4761632126352607 -0.07473586505064016
76924000.0 0.7795692623254835 -0.6213306685826004 0.00429893843476882 -0.4457380183349229 -0.0002451143108632172 0.0013616080740675896 0.4728116130109318 -0.07872732011189568
77923000.0 0.7728449846437548 -0.6305778596906129 -0.006721276170042252 -0.47028878630353926 0.0024221364819808845 -0.0020606612374326027 0.4647861604865394 -0.09533392683185168
78922000.0 0.7667377654407334 -0.6401252137128727 -0.020663914303026675 -0.49753246187553146 0.0005315588831044298 -0.0009547184098056198 0.4603863461044861 -0.10315546985768796
79921000.0 0.7582986219960884 -0.6436122284301578 -0.0398927154778746 -0.5176362590421592 0.0005459029820582484 0.0017514894043084907 0.45717367075298787 -0.11008084588264497
80920000.0 0.7557730582392478 -0.6535562503080317 -0.05110015585634873 -0.5465465806237351 -0.001308173996808271 -0.0009745196456119673 0.47055256017821956 -0.1280146327211192
81919000.0 0.7492608484721477 -0.6591427895773398 -0.06755446319633837 -0.5767851014288204 0.004110014349601945 -0.0034607867398997734 0.4641376102933835 -0.12835590917502487
82918000.0 0.740467338018207 -0.6670113862073349 -0.08284665381156536 -0.60457226475685 -0.003245578312539197 -0.001536261451633549 0.472684528994876 -0.1437391836657362
83917000.0 0.7324969420784578 -0.6749387083459566 -0.10708717886507708 -0.6342944949506648 0.0004454241875982725 0.0032117300925799197 0.4805030205628186 -0.15111346315602567
84916000.0 0.7283092464827413 -0.6811349511754198 -0.12070576540811573 -0.6680617946501962 3.366829356332473e-05 -0.0007201141667664814 0.4667354714884161 -0.16898918561992635
85915000.0 0.7215674470690918 -0.6873345014854074 -0.13859941110746832 -0.6984758004810638 0.0008847546788605146 -0.000273277009670458 0.46970038309267476 -0.170932877749117
86914000.0 0.7145814798854951 -0.6967537182460212 -0.15380603104783336 -0.7369714964144224 -4.6081314098589106e-05 -0.00035224164021976044 0.4748762128320813 -0.17011014711727176
87913000.0 0.7070744149679382 -0.7036855643067775 -0.17543079214610893 -0.7622191242785691 -0.001445713645952413 -0.0016278069803594593 0.463588091943398 -0.17914477542278356
88912000.0 0.700564964009103 -0.709963173701231 -0.1875075252185596 -0.8034750040993256 -0.0003187353118093729 0.00016088926204001867 0.4728751358466661 -0.1957041928600334
89911000.0 0.692973227316195 -0.7189259527099972 -0.20393626128458908 -0.8314071006903079 -0.00015354769179028093 0.00024826489057431557 0.47596981213976014 -0.21079638920446772
90910000.0 0.6868621415172336 -0.7219278306169943 -0.22405044732434817 -0.8691714773816266 -0.0014544208609704797 0.00014260748556050096 0.4680655175067793 -0.20563035410685576
91909000.0 0.6778685309514412 -0.7290894107273366 -0.2420640824519739 -0.9001899041906013 -0.002901652159497514 -0.0003637528700689739 0.4822520588591047 -0.22680861303564873
92908000.0 0.6697407816254405 -0.7364499015172342 -0.2582290630328655 -0.93327029127856 -0.0009693427885306598 0.001544432740421092 0.46594380533971935 -0.22728578050450435
93907000.0 0.6655253116611994 -0.745009748223648 -0.2773935821832099 -0.9688617576133174 -0.001746109812299604 0.00339537885561995 0.45964889660752994 -0.23878648961672902
94906000.0 0.6499308419118816 -0.7538148830161903 -0.29658998512641965 -0.9990450182347691 0.003339208289309519 -0.00045060402597247066 0.4691040274491254 -0.24693413379484463
95905000.0 0.6450397275722827 -0.7587673492042706 -0.32051256995411065 -1.0341943767930726 -0.0017642159734834499 0.0033700937593790837 0.46800650774965014 -0.26739615560433305
96904000.0 0.6374595706519797 -0.7669312219522646 -0.3356875325211066 -1.0740979261659018 -0.0037241082727033055 0.0055833528420191035 0.45828853689402627 -0.27093459194708364
97903000.0 0.6298286884161522 -0.7696038167498843 -0.3515354227472603 -1.1069745518587613 0.0029527308424275368 -0.001137790186799469 0.459098825093385 -0.2830664500958626
98902000.0 0.6251713029852072 -0.7791292821180438 -0.3733772422994587 -1.1415660704439543 0.00022100887462128346 0.002246986680408817 0.4572598128446515 -0.2854687191957716
99901000.0 0.6148757250064129 -0.7843204831615952 -0.40624138231678675 -1.1763840165002863 0.0018437899146965175 -0.0026764063040695834 0.45861863824835203 -0.3174525690874579
100900000.0 0.6048976108297095 -0.7872368310632508 -0.43574821689188786 -1.2033202252702895 0.001139729140909833 -0.0013287395161433763 0.46020201716886655 -0.3169259757273081
101899000.0 0.5979127498288566 -0.7958599820000345 -0.4579722904739597 -1.2492675774256832 -0.0005980716824445067 -0.004086459333418479 0.4572989380285312 -0.3164446929480371
102898000.0 0.5867208043437265 -0.8023953977686129 -0.4961978800348064 -1.2854338606995552 0.00350289521636778 -0.00148050427072931 0.4594092040481005 -0.33454452800918866
103897000.0 0.5798258711009407 -0.8104161403371944 -0.5370101405469285 -1.3194272539214764 0.0005379003311738084 0.0015574199046265935 0.4653911578760943 -0.32973295973067096
104896000.0 0.5722873409550548 -0.8202290440216029 -0.5780677092013814 -1.3532757344320732 -0.00025872759505609933 0.004220632048922588 0.45171451654965383 -0.3418909513080341
105895000.0 0.5618088698726318 -0.8205371870917468 -0.6272315430574963 -1.3931122359173767 -0.001274837709728889 0.0014301835411768661 0.43874352973075886 -0.36443854810433374
106894000.0 0.552189918405807 -0.8271828610748583 -0.6808994370776972 -1.4296281247975906 -0.0029956969277500707 0.0019365825971718294 0.44194165047535694 -0.3713927937805437
107893000.0 0.5444704307295435 -0.833200405251453 -0.7287157335314157 -1.4665222865472487 0.0005018513177407731 -0.0005951835070915941 0.4362452740917438 -0.39008324259011595
108892000.0 0.5355197771983246 -0.8372522772076866 -0.782287375170605 -1.5027255383102016 0.0005573881695701743 0.0023814613250773588 0.42947545792711506 -0.38908687904155137
109891000.0 0.523520052812662 -0.8433728874134072 -0.8381360833274759 -1.5408930094683662 0.00011296872330096404 0.00015950174662601735 0.44282354253492756 -0.3843577995004358
110890000.0 0.5050177287093682 -0.852286698836859 -0.9130576270287903 -1.5380865589181107 0.0005057896108238526 0.0017862949561420858 0.42967373017610455 -0.3872507067799259
111889000.0 0.505405845706617 -0.8517831280217866 -0.9641127734595002 -1.6033972723103376 -0.001826297740520834 0.0005846061914934671 0.4280796929786523 -0.40116547793186647
