! Created with skrf 1.9.0 (http://scikit-rf.org).
# Hz S RI R 50.0 
!freq ReS11 ImS11 ReS21 ImS21 ReS12 ImS12 ReS22 ImS22
1000000.0 0.37561189585834 0.2853432936722074 0.024384585097714455 -0.035699937351938334 0.007359724318013631 -0.005170692014047907 0.9432142168940247 0.06059377373486252
1999000.0 0.26244366854549017 -0.07352359092750357 0.011943539013667195 -0.015741374723924513 0.0018925880827657055 -0.0015939155012651173 0.9960528229766593 0.010004781012985315
2998000.0 0.18561568667555503 -0.18628624152352793 0.008183839535794142 -0.012546338112583795 0.0015957877425796735 0.0012264110524748502 1.0128137847749767 0.007796263396469909
3997000.0 -0.09753707709141342 -0.3329062639078809 0.006910237215212764 -0.003274036352530092 -0.0009534952828955218 -0.003588020321642561 1.0081725735822218 0.0008874290209527837
4996000.0 -0.21868243631297066 -0.04262841638054985 0.007681051032873311 -0.0035478790065750334 0.0028347980028411964 -0.002806432641822634 0.9873888372237839 -0.03737658880936001
5995000.0 -0.15348203361816176 0.05244772870576435 0.00716907906575149 0.0011902932014859788 0.006644226710061925 -0.003296185673759854 1.0167435029862903 -0.02441039318256509
6994000.0 -0.11884914488848948 0.0889019021589799 0.008799729552102394 0.0005282411449061795 0.0019976102477877664 -0.002393419938170754 0.9952356024628348 -0.05013651766614977
7993000.0 -0.09597100548522437 0.11494376267773311 0.0048113768471315975 -0.0039169266258363864 0.007911674651921514 -0.0030151886438733165 1.0016158979782932 -0.061127712859123697
8992000.0 -0.07692263497578442 0.13297528315665372 0.0046976735644926135 0.008530802130636207 0.0014123974379989836 -0.0010750765827762724 0.9970763522120162 -0.06721659224350454
9991000.0 -0.06039337656632401 0.15255717966889723 0.0009413342390730527 0.008459614673237118 -0.0010816083602225523 -0.0022624133762857487 0.9884008040186255 -0.07348157308042999
10990000.0 -0.04600771951626499 0.1687823935757598 0.007031849312919753 0.00024275086547937127 0.005166360512834652 0.005178775402614296 1.0042624123526445 -0.08813569030878969
11989000.0 -0.03341137282792237 0.18307810233808294 0.006323331377671428 0.0034031878218305786 -0.0045698017808834274 -0.003371473875552745 0.9872940095347945 -0.10041623791852079
12988000.0 -0.020796430969453827 0.19540073078464354 0.001297546874050571 0.0030736932344236296 -0.00029317945044334015 -0.00044646883074156587 1.0123714209941876 -0.08967060777205248
13987000.0 -0.007870724990088531 0.20639782882487015 0.0004277889565599473 0.0031610621022848243 0.005591040569031132 -0.002305365985857351 0.9874570042770752 -0.12441566055824546
14986000.0 0.003997316253112879 0.21897293100252163 -0.00017036286684553602 0.004709599167046404 0.0024586843000331 0.0028792858360313497 0.9909499868830974 -0.11305107212843671
15985000.0 0.017968149009871984 0.2289170857901372 -0.0033817002180618603 0.00036623823721229035 -0.00041537406931250597 0.00090484040745469 0.9758963741316058 -0.13808088997679904
16984000.0 0.030661008680617868 0.23995904320930914 -0.0037688736097081952 0.0015890150606413763 0.0025888680703393166 -0.0021306777670913974 0.9949058416381438 -0.13505808559392826
17983000.0 0.04380397315597477 0.2466224479001063 0.0008204089603275982 0.0035037571044686 -2.9904498166331503e-05 -0.002341798509566111 0.9863502266825597 -0.14897166805558418
18982000.0 0.0568088628155169 0.25770393154945814 -0.002469879148951235 -0.0020557363523992867 0.001817091476388638 0.0014110402541868748 0.9894882325369536 -0.1697491430196202
19981000.0 0.06721450385546997 0.263019947115638 0.0003348626585198675 0.0016055739105793315 -0.003601747457901934 -0.000919687409841494 0.9782142789345555 -0.17333286306568563
20980000.0 0.08053716414625763 0.2698484352118588 0.0009681976931326437 -0.0008461529454570416 0.0006308751846648223 0.00024090660296290423 0.9861884662540413 -0.19213281297191678
21979000.0 0.09568870221693554 0.27660126388727624 -0.0006719960493586511 0.0009565056926554935 0.0014136403239688928 0.0034539658883881758 0.9718582658860825 -0.2007719458263446
22978000.0 0.10889188581353537 0.2811657278705425 -0.0014098318325559758 0.0015409469845234322 -0.0014994822400834409 -0.0012184162274749735 0.9919523825407727 -0.20254787226896434
23977000.0 0.1210218869026268 0.28503095021160035 0.0029550485369358045 -0.0013962930172258113 -0.0009585483206537638 -0.0007343139622565059 0.9995471133546558 -0.22252419669414608
24976000.0 0.13118020694371546 0.29233297087089577 0.0035344373049279536 0.0002703786582454706 0.0014991794836166472 -0.0033041883541201043 0.9891092395937554 -0.22072555079841336
25975000.0 0.1439548158806076 0.2807730663182998 -0.0020908892849898914 0.0006709164828527169 0.02468259936325852 -0.011661672190250855 0.984989738012499 -0.21811536051839306
26974000.0 0.15939552561273734 0.29556494430097624 -0.0008018805019041357 -0.0011984580427595167 -0.0013250159499620178 0.0041455248808017365 0.9775968716215615 -0.25219217776476777
27973000.0 0.17134527039492542 0.29720893075964233 -0.0010921878681381275 -0.0025510050025807267 -0.0028823151208224526 -0.0019683875709011803 0.9815834248372025 -0.24794920221058958
28972000.0 0.18400520726401332 0.2996563263836215 -0.0037845590434698053 -3.250904021270878e-05 0.0036512895116310325 -6.532946335472267e-05 0.9742510931852838 -0.2610117737062437
29971000.0 0.19746766236021818 0.3017219711654935 0.0016812226744419613 -0.0015963802497344479 -0.0007187858014515001 0.0014222732814381084 0.9681942171565664 -0.25971314995891803
30970000.0 0.2108560103576688 0.3032306922889678 0.0011956190683954783 0.0028211422683354927 0.004640053874489282 0.0010055003823156914 0.9569911476360403 -0.26326603781584645
31969000.0 0.2182852289205163 0.3041929113377197 0.0018774174563617701 -8.275100900956571e-05 -0.003961633498596434 -0.004305203222009221 0.9656093233946582 -0.2767793325833963
32968000.0 0.22936191443966422 0.30415313753530826 3.7197327686203517e-06 -0.0019613885227636896 -0.000637962513124552 0.0003346970592831757 0.9726635159528713 -0.29264969720674305
33967000.0 0.24067777385056205 0.3034120663130221 0.0012888670872499227 0.00035722258605510974 -0.0007489167694317399 -0.0001341568162000211 0.9601814990405 -0.30792576349720757
34966000.0 0.2539536674252094 0.30082002985387474 0.002018226669443365 0.00047871440856584005 -0.003292367682131093 0.0020499627000164504 0.9647799504830815 -0.3112345880567624
35965000.0 0.2644772015975907 0.3005553999516684 -0.0018960321153293862 0.0033425843671236743 -0.0006803752533447419 -0.0006329291674595811 0.9474208340110463 -0.3204557398562452
36964000.0 0.27344563176371417 0.29992670957976253 0.0016691683474482075 -0.0016303460523388953 0.0039336536541607885 -1.7370570873714862e-05 0.9485805226670848 -0.3303686173256172
37963000.0 0.2838343453629662 0.2974194349288164 -0.0007226046108727126 0.0014072045015879873 0.0001323478223210478 0.0015873945334906117 0.9483696597680346 -0.34888558172481465
38962000.0 0.2935909537649395 0.29629168623569774 -0.0010270823978679455 -0.00015185687468742144 0.001628460374194357 -0.0033399506897825266 0.9550730574363817 -0.33876352488590294
39961000.0 0.3036418386794868 0.29497560291715746 0.0010695923500016573 0.0007460837976922784 -0.0021063456474297044 -0.0034717281953738745 0.9480399620827292 -0.3622002600857398
40960000.0 0.3158819197648431 0.29372221957263844 0.0005870972795968091 -0.0012977792784853771 0.00354444989991125 0.0005021231466922515 0.9345141224229861 -0.36724047398400406
41959000.0 0.32493990296319236 0.29107511694452887 -0.0022263797559094168 -0.0005561960004402455 0.0013465085984435611 -0.0036009541771199415 0.9392094596593578 -0.37040736782139927
42958000.0 0.3338697756192682 0.2865795437011153 0.0014114119332962443 -0.0005463704749288326 0.0023501100775811237 0.0026971768007773692 0.9535228706366383 -0.38500258967033535
43957000.0 0.34267652013983746 0.28487343348380445 0.0009672557726580098 -0.00027082935607639823 -0.002105808189531113 -0.002138293661825639 0.9365978367044184 -0.4013206782232927
44956000.0 0.3525227827297582 0.28180923085212756 -0.0004515501866172014 0.0009780824275852065 0.0017894579526397377 -0.0013853633797074323 0.9355803836717526 -0.40372915675439675
45955000.0 0.3609990509113878 0.27867006811115763 0.001088800794986388 0.0006138155698269713 0.0025024417691342274 0.0016628968035907574 0.9256064875357717 -0.4232593915752978
46954000.0 0.36904377952548284 0.2722664305483634 -0.0035253221110797656 0.0010486204619556613 0.001229802912597018 -0.0008711469516699761 0.9309877121249109 -0.42479002665484483
47953000.0 0.37667750615697054 0.2700809615640566 -0.00040209024259849914 -0.00020980790550186637 -0.00027938796632047424 -0.0035027956856304525 0.9316844852182383 -0.4196796729466728
48952000.0 0.38453686009270027 0.264997405466633 -0.002014989583764396 -0.002421185846092981 -0.0016004365477090225 0.00018214404270583818 0.9209741600212484 -0.43557397235275186
49951000.0 0.39239748008786185 0.2624564014111603 -0.0017661568892016093 0.0010430013898484003 -0.0007250523131927231 -0.00026656826934554946 0.9200041977642647 -0.4550261612040915
50950000.0 0.398673561765941 0.2558901727965699 0.0022299005748991746 1.1919377585285306e-05 -0.0010186571892351344 -0.0007588479055703954 0.9220764382333433 -0.46963117990601044
51949000.0 0.4064897184650462 0.25244955321847456 -0.0002481703102381425 0.00017376340513843556 0.002594098616400592 -0.002731027795993394 0.9054838529225321 -0.4684371070064435
52948000.0 0.41308527064310907 0.2486567108660237 -0.0016329824531888543 0.002701982553251836 -6.30827579754084e-05 -0.00046987099945506965 0.9107960359749658 -0.4693979939297663
53947000.0 0.42088214113196726 0.24345470157335386 -0.004046829948949775 9.360663719610423e-05 -0.002448602537144376 0.00023277744803593806 0.8956425982443418 -0.4825613230648772
54946000.0 0.42663926196551516 0.2397538549919907 -0.002484620107614069 -0.003614298386871213 -0.002519644517574415 7.509223300179373e-05 0.8990789484945746 -0.4872789296479892
55945000.0 0.4326394408383922 0.2364366905559359 -0.001714935593209729 -0.0006247261380624268 -0.002915615232344446 0.001754712544270725 0.8879418939004905 -0.49248404699584947
56944000.0 0.4379091247072814 0.2295559776854062 -0.003694937612228633 -0.0026549093631870312 -0.0011748985202594288 -0.0023933614124265067 0.8835713434449082 -0.5219226667083546
57943000.0 0.4436370575165347 0.22635692724339335 0.0005518308350366998 -0.003278111217363392 0.0025220713256183525 0.00028546011238469776 0.8836354995909613 -0.510789209103552
58942000.0 0.4499016461117426 0.21965903709600537 0.0003937869709324346 4.506007797838276e-05 0.002699175242348779 -0.0011095145008477405 0.8756751628831142 -0.4894920284893629
59941000.0 0.4551628297124182 0.21568968587807855 -0.0032020379349727065 0.000847208395553139 0.005283741530071285 0.004150260610889387 0.8594029175401943 -0.5188857053614043
60940000.0 0.46102802852886443 0.21068704735409943 -0.0018925796738471499 -0.00030788316238731785 0.0002981031002101484 -0.003048402761395072 0.8550461555732867 -0.5020741798941099
61939000.0 0.46676027880392973 0.20589535529457148 0.00038452269661821964 -0.001881444420096021 0.0019047237277872936 -0.0006032116911168714 0.8425263041140537 -0.5002083290399243
62938000.0 0.4709002680096269 0.20147626330032406 -0.003220382566318006 -0.0015518473156387054 -0.001020176712887267 0.0012543823161008491 0.8580755628652621 -0.5257102331755239
63937000.0 0.4755201417742428 0.1957551451456744 -0.0015326591366513966 0.003654081005032455 0.0022530848809770754 0.0018018984766108542 0.8444574495498107 -0.5487219476755316
64936000.0 0.47961869821773784 0.19160704274353424 0.0011613418381022 -0.0009258236186198773 0.0007846690910230191 0.0011396669283005932 0.8274937054764042 -0.5588375178859505
65935000.0 0.4853287013682824 0.18540992886352273 0.0006575115933112134 0.00043004296908838034 0.00031768484239971443 0.0005226782570133071 0.835259218792986 -0.5707474209624875
66934000.0 0.48865800585405855 0.18239145537753368 0.0010190088818781845 -0.0028839724135057833 -0.0015664071092836662 0.0022797891343906323 0.8240304557340867 -0.6048177061327433
67933000.0 0.49513842909596273 0.17598616202526346 -0.003112206365807591 -0.0030174077169694367 -0.002987774929902019 -0.0018974321691298964 0.8414026785773042 -0.5890376391198935
68932000.0 0.4925282684467906 0.16732961262671397 0.0002048327196664642 -0.0005877199505377027 -0.00029310399307607825 -0.0011856811898870027 0.8088728015526389 -0.6048851584932344
69931000.0 0.5009416572467021 0.16531741552821236 -0.0016846255089501435 -0.0021716966665707416 -0.0024105144025396933 -0.003213892326782076 0.8315299407334712 -0.603813489214004
70930000.0 0.5044520288623704 0.1591465403791056 -0.0026296273362975864 -0.003443279207542784 -0.0030439584770240663 -0.00018377199715886942 0.8022302239627052 -0.6217040616971612
71929000.0 0.5099339128813515 0.15634423058915287 0.0011171930423078656 0.0011645678635523544 0.0018822339124471654 -0.0021265847819529407 0.7964581492730571 -0.6463715602612298
72928000.0 0.5126924530096725 0.1486293538400967 -0.0005847378650412001 -0.0021194873730661997 8.085343034576194e-05 -0.0007357670240283762 0.8076710214624901 -0.626296486628927
73927000.0 0.5152243289378603 0.1457257102660049 0.001686348180923098 0.0009654172495985132 0.0002152840314539599 -6.869313299690441e-05 0.7944230827518487 -0.6335788652220412
74926000.0 0.521064869052927 0.1389313904013629 -0.0037896152728823405 0.0013013326453819964 0.003949608896977411 -0.0008996788328158448 0.7727869056574957 -0.6397415200393928
75925000.0 0.5231863346506717 0.13562910842734077 0.0004814567046917636 -0.00018431507860006436 -0.00029537746647283057 -0.0008355207181088281 0.7941165711303958 -0.6463941587739659
76924000.0 0.526215428174202 0.1285658328691231 -0.00019912298784877534 -0.0010166026396218814 0.0011765754011722606 -0.0011370371279585967 0.779199746560069 -0.6634158169615225
77923000.0 0.5286940008785771 0.12534481696206298 0.000493631421692928 0.000466505662634891 0.0010305280592157393 0.0013097623361392867 0.7613704470216281 -0.687295111188117
78922000.0 0.5323430942904449 0.11829003114072865 -0.0014406646466041328 -0.0010567333356003251 -0.0002466785315055587 -0.002107240613431285 0.7484640265921212 -0.6852055155108638
79921000.0 0.5342651214109212 0.11578688579914258 0.00232256555570461 0.0023384694809970336 -0.0013894727306232337 -0.000784471563101821 0.758551147459727 -0.6950891311965189
80920000.0 0.537663961925026 0.1077787718466591 -0.0006051649158608386 -0.0009861389415651044 -0.0031196280845744145 -0.001708979349914612 0.7620998120167035 -0.7044537269005715
81919000.0 0.5408320151286009 0.10456642930184061 -0.0009330485395848652 0.0010850060255604807 0.00029395905894320974 -0.0031242339613107907 0.7413430849635103 -0.702782891728865
82918000.0 0.5415609812885146 0.09951658826136016 -0.0022369532294550186 -0.000925802087205879 0.0024677710748532452 0.00127296279781369 0.7633807773655557 -0.7138465885950286
83917000.0 0.5445053420855251 0.09273654051820804 0.001923828480574908 -0.001689856093230675 0.0018989426208661643 0.0014771608225098386 0.7362956007924566 -0.7344887760828449
84916000.0 0.5474797942819823 0.08879461694949864 0.0012721015724185697 -0.002359418275836271 0.0009482353073610816 -0.000560484138656782 0.7168672259784492 -0.7432089229119648
85915000.0 0.550026332104524 0.08331155310840092 0.0002944761604475395 0.0029972012359639907 0.00010804505612040104 0.0014380982745097568 0.7334067842256696 -0.7466832523686078
86914000.0 0.5516201194819058 0.07804693741209816 7.626001027656061e-05 -0.00044604479582837736 0.003028543065398376 -0.0024609640875533734 0.7005773869782719 -0.7442441051366794
87913000.0 0.5533507640816623 0.07295692865417576 0.001973342196020686 0.0024509522186089753 -0.002484515487056536 0.00017191790902994005 0.6960387630765545 -0.7605229283196268
88912000.0 0.5571633529710466 0.06746151467837665 0.0010774888227108534 -0.0019055600928226271 0.0011577052456031214 -0.0007729148128817405 0.6947819761743843 -0.763858699085909
89911000.0 0.5576904668592338 0.06324677755688222 0.00016098402083256072 -0.0031020339730418395 0.001590619526305188 -0.002245664739945983 0.6906493521124043 -0.7778074357980361
90910000.0 0.5583716745662055 0.05857997361531875 0.004186986278448878 -0.001851968777296425 0.0012668260940127724 -0.0003147991208570029 0.6698027801647971 -0.7672613552457263
91909000.0 0.5602486052062462 0.052090788086230154 -0.0006006895518740053 0.0008637973701849334 -0.002763214212159339 0.0008681169427102796 0.685494070132565 -0.7798022895985174
92908000.0 0.5630668869246584 0.04786757981688626 -0.00020483694399846115 -0.0008794134349089576 0.002727871031718048 -0.0006299485189993788 0.671456646983506 -0.7825312791458673
93907000.0 0.5639844333603422 0.04494003579437179 0.0010751766684183846 -0.002807180678899159 -0.00027545505258914156 0.0013681735562373338 0.6759607763285563 -0.8117708407612924
94906000.0 0.5661456831500677 0.03858327323987869 0.0004144813277075917 0.00016614360140177517 0.00107756042780296 -0.004016084917934144 0.6591445099673828 -0.7984337533470505
95905000.0 0.5679914697742251 0.033486686720630314 -0.002364704979160051 0.002580249267810315 -0.005038918671460498 0.0006798502574146534 0.667293240748137 -0.820759533032574
96904000.0 0.569056401552872 0.028069090757390214 0.0005056980915166568 0.0003622118087285545 0.0010132647574690485 0.0005331998143399811 0.6528048239705109 -0.8217379035810812
97903000.0 0.5694457187213354 0.023083611717878656 0.000653313103520435 0.0030620774858211046 0.0038577337553409893 0.0006972478613747824 0.6172057580145809 -0.8407751931959261
98902000.0 0.570580116172269 0.019077790040775772 -0.00044404260333624876 -0.00325461006117144 -0.0022041544296229395 0.004294825575034867 0.6310312792304119 -0.8231922685435219
99901000.0 0.5730428770582486 0.01445856248231492 0.0025643528544742255 0.0013604116630821317 0.001919950958574144 7.520369287844538e-06 0.6411856217530902 -0.8619267814676043
100900000.0 0.5723855989630076 0.008327400542732937 0.00244621094039841 0.003080904993678826 0.0010663283410459632 -0.002251882086126661 0.6420236692404758 -0.8467553608268424
101899000.0 0.5747615420561275 0.004938882735220989 0.0012240996806321938 0.001624753012853388 -0.00021822612948450585 -0.0003723132090581956 0.6196019399190054 -0.8639053366160004
102898000.0 0.5767158699305257 0.00046033774228666156 -0.0005407580767193422 -6.626309158979875e-05 -0.0005879941243864918 0.000733432610916615 0.6163792652443595 -0.8679130612064918
103897000.0 0.5781065617879333 -0.004213415353895828 -0.0021256546898508447 0.00039229855953228966 0.0029641176699830517 -0.0031306837599786802 0.6176899509262009 -0.8466681427512126
104896000.0 0.5778616273306819 -0.011466719526351511 -0.0005204192992948177 -0.001364347601313716 -0.0006422773896053878 -0.002633637207292927 0.5726331389919024 -0.8558539251725616
105895000.0 0.5794344390576961 -0.014057237817332107 -0.00012788211188978016 -0.00108490202744193 0.002881073018512856 -0.001384347585686927 0.5701733663145155 -0.8985639740199767
106894000.0 0.57992393221055 -0.01780300405952068 0.003398974373323374 -0.0006371535682164687 0.00014503183390694076 -0.003355808461528993 0.566074141027663 -0.9093479731768217
107893000.0 0.5785659419398962 -0.024297770216435425 0.0016087019880290875 -0.0005245261243258167 -0.0021426880615852033 0.0012618422281490834 0.5646005649367686 -0.9087708132269003
108892000.0 0.5793364813662983 -0.02809701002965834 -0.0011613823187147443 -0.00033851742805616895 0.0021802358275176746 0.0018826751883711432 0.549262644608553 -0.8912085478509608
109891000.0 0.5809355139410637 -0.0332954399286479 0.0012043527651722054 -0.0014295195225046992 -0.0010664356393346053 -0.002108815090911717 0.5766303333762507 -0.8736602906138026
110890000.0 0.5880482437749568 -0.04353262183637618 -0.0016339870458131909 0.003884151205799626 0.0035029082129975713 8.190871051457152e-05 0.5459527892584473 -0.897142438649472
