! Created with skrf 1.9.0 (http://scikit-rf.org).
# Hz S RI R 50.0 
!freq ReS11 ImS11 ReS21 ImS21 ReS12 ImS12 ReS22 ImS22
1000000.0 0.9953839358352307 0.0057448976956558095 -0.01184829850715718 -0.04394779214119063 -0.014730643844014166 0.009202173117894898 0.31287174896754905 0.3317926623404847
1999000.0 0.9943814650383188 -0.01986867313755042 0.006962797939278755 -0.013651602392333859 -0.006138099568512748 -0.00848054835358679 0.26130942827648657 -0.04889585416429225
2998000.0 0.9989567391967035 -0.02144219112519535 0.013418614719494617 -0.005954532972640458 -5.953544496253999e-05 -0.003385884263100439 0.18932296738465892 -0.13949120594742656
3997000.0 0.9978655890329416 -0.029677782046179886 0.015797812558318337 -0.003310460929589637 0.0022020580280144616 -0.0028619443259709056 0.07776963065651014 -0.2246416959261793
4996000.0 0.9920695778800414 -0.03695458776831998 0.013915254372659579 0.0024782038658226722 -0.0007279009594315577 -0.006263865411998218 -0.031352265485583126 -0.2021404423932072
5995000.0 0.99523361216129 -0.05061658865708941 0.005419318798361767 0.0005083722756836542 -0.001512880623026278 0.0011212739183052555 -0.1315375933472598 -0.1158486610945975
6994000.0 0.9952898081123869 -0.05979257905976447 0.008612886428770084 0.0006544373371753144 0.0025778950069134878 0.0005754988488359549 -0.16457018054092623 -0.041599269214337674
7993000.0 0.9941073191979856 -0.07011262436219573 0.0026761797880100985 0.0065282099602223444 -0.001315937227069167 -0.00882394002584523 -0.17244533862405315 0.022903523109679986
8992000.0 0.9948895186967966 -0.07191076285241568 0.0005230942240186853 0.0012163588678787561 0.001253236406801547 -0.0009287501192291433 -0.17199993868110747 0.05964155979638089
9991000.0 0.9904624742922072 -0.08374274638796417 0.001824768443931726 0.004185633552585675 -0.0019906284151743983 0.0031239275897018267 -0.15813728118398263 0.09219713130427658
10990000.0 0.9926996603243764 -0.0930779856725949 0.002779152079731652 0.0010625871537540987 0.0002883017313043901 0.00350901466790934 -0.14268180999056201 0.10507208989935034
11989000.0 0.9888104284038728 -0.10135900623402762 -0.000483678708444453 -0.0010064017808924554 -0.0029192678241133974 0.005061422686567111 -0.1234177410831714 0.13667456144406415
12988000.0 0.9891651073203156 -0.10965739722421125 -0.00033943514968823443 -0.0019953870876729973 0.0017137661041159433 -0.0019005706901831518 -0.13192697440504217 0.16313154129208537
13987000.0 0.9890687599116019 -0.11779826427806919 -0.0018461908019968677 -0.001202043340118052 -0.0014677990528642944 0.0008057554355508128 -0.11491319389345078 0.18192926621686295
14986000.0 0.986318261721376 -0.12587975265277207 -0.0009623035763844948 -0.0015958025519614294 0.0019476339370208945 0.0006612097732705482 -0.09114207053312942 0.2038762407288894
15985000.0 0.9869638509510507 -0.1371755384238469 -0.002464478188323053 -0.0030268313257728655 -0.0016652773689798037 -0.003764461186991267 -0.07640737554208088 0.21929292652427582
16984000.0 0.9845824835537933 -0.14541460304950213 -0.0004891869524263041 -0.005336058898544118 -0.0005145085551082904 0.0025297954525141707 -0.06805142568979608 0.2196832233089868
17983000.0 0.985185548739678 -0.14839544686579728 0.0005072901367953479 -0.004205748772572032 -0.0014935601831197977 -0.0020066595182041107 -0.05589752405669648 0.22431590930803602
18982000.0 0.9816554109826092 -0.1639513568396573 -0.0015811943471679335 -0.004401195142115852 0.00045890092655986685 -0.004800342287908592 -0.023306022038225953 0.23249837654003896
19981000.0 0.9825489954127952 -0.16601672129730427 -0.001980404547168873 -0.002632713036480211 -0.0007325336631743513 0.0017873535638718394 -0.026377420276460173 0.22459435716446438
20980000.0 0.9797521008912052 -0.17886009582986795 -0.007343906317624016 -0.004162541130230673 -5.457031294697907e-05 0.0014917397224221386 -0.0004063815910205463 0.25784338196437495
21979000.0 0.978072027073706 -0.1874343853537332 -0.005664515150349489 -0.0009407696236518854 0.0015650172680840763 -0.0036156519576140975 0.004348522697294663 0.24905375402914773
22978000.0 0.9758747133237687 -0.1915078329762313 -0.006198944008198521 -0.0065043187853163886 0.0007841105279905911 0.0008147477771478218 0.026359069574650708 0.26026761367292456
23977000.0 0.9775765066276457 -0.1997797937622533 -0.005360320874380013 -0.006819578633998284 -0.00018457590797059755 0.006003065593698195 0.03743791940715136 0.2522205185304194
24976000.0 0.9716511952798029 -0.2104381841214432 -0.005328407110069179 -0.0009007684471545516 0.001439424570725702 0.0014168384709948864 0.06069392900895386 0.2474035489131392
25975000.0 0.9699249149976918 -0.22531184864476228 -0.00882953471108178 -0.008500974498656139 0.022762996256420795 -0.010000965237424476 0.06464421801349281 0.2505096714900724
26974000.0 0.9686868655647318 -0.22721669629535435 -0.004182354958978022 -0.003031029252962095 0.000505103846313986 0.0035324983270505336 0.07805464368072915 0.265967851936591
27973000.0 0.9683769916515901 -0.23360383095492293 -0.004598277948581619 -0.0028185163607273994 0.0011788781143416817 -0.00227643332951488 0.08789615930016544 0.2582636997825477
28972000.0 0.9648529411218625 -0.24499443621946093 0.0012556300567045271 0.0020108920924803964 -0.0012529013455126806 0.0004237782937970218 0.11599780636031722 0.2536248416866817
29971000.0 0.9640818592427406 -0.2548409552545678 0.0015312424501493244 -0.0016471437686069463 6.7508830018281e-05 -0.00048242418211989833 0.1443125430136175 0.267852336609078
30970000.0 0.9603060606668408 -0.25905123638101785 0.001114098653317257 -0.0016354278974252195 -0.0022327451218624233 0.003505722182774835 0.16039275816449972 0.2579946353887699
31969000.0 0.9597166766353391 -0.26849590653121685 0.00834224328537879 -0.006103237532199816 0.001641479654612326 -0.0023073058612792965 0.1403956464123008 0.25004038817853447
32968000.0 0.9574203141531124 -0.27626394432128787 0.006708863076504166 -0.0072628483447831306 0.0012741743142068163 -0.0010226821208545642 0.15897190006050055 0.24721453073020247
33967000.0 0.9548683181655102 -0.28797662223133697 0.012893682525941107 -0.00900954173595089 0.0002644845964702869 -0.001311589840397504 0.18245166557647433 0.24279627050342095
34966000.0 0.9520200192623441 -0.29494244414754184 0.013036159349350922 -0.011828010450550446 0.0026982722461048655 0.0005412503949940396 0.18887669691245593 0.24514918864324284
35965000.0 0.9494038539825672 -0.30341807300826384 0.01768408151716973 -0.013773206529130964 0.0018394599125413826 7.4560340095366e-05 0.19498648926874418 0.2441410348193231
36964000.0 0.9470932892170824 -0.3130556386410698 0.016286498833927524 -0.01277058081030293 0.0002821976160732517 0.002733184055196169 0.20848611484869012 0.25810110914968726
37963000.0 0.9442553674642695 -0.3222411173250822 0.02475679123757587 -0.019910852717527867 -0.003160577505551633 -0.0009169534391587269 0.2259467748845565 0.2393403553629591
38962000.0 0.9419500458164377 -0.3292203091979758 0.02275772494810295 -0.02409206092961938 0.003169838350170096 0.0021531848861607136 0.23987743835983424 0.23198314049715751
39961000.0 0.9382675891681201 -0.33995858103104815 0.026393259970328858 -0.03184926996319753 -0.001326438356406453 -0.0012809973706271796 0.24946430680428583 0.22432172232010242
40960000.0 0.9323388740113504 -0.3468429183466876 0.023818907626212093 -0.02487270195101399 -0.005075375947591025 -0.0013782769052387476 0.26014784632703997 0.2184291873706506
41959000.0 0.9325981491156355 -0.3557600913847574 0.03210969427675821 -0.03597817620520976 -0.0020564770451892405 -0.0031714577327484174 0.2600125234878639 0.21841950009665578
42958000.0 0.9266586830006571 -0.36440669465788844 0.03514121433429681 -0.0431608623955895 0.001142184086837067 -0.001545542776203938 0.27158688994515423 0.1999729597093534
43957000.0 0.9255037885057023 -0.36933801849199394 0.03331328236044397 -0.05297794750255366 -0.00038455364683870043 -0.0021084913748327396 0.2889629062414573 0.19605998721179888
44956000.0 0.9204996394470936 -0.3793602916948092 0.03363989382830041 -0.05427329539543989 0.00012915288317682776 -0.0027857745092988422 0.2915159827705802 0.20055642563204695
45955000.0 0.917209639452467 -0.39143323081398623 0.03484743530880988 -0.05807847324730834 0.0006711770442585531 -0.0005707672764414163 0.3052139218727777 0.18817957232664217
46954000.0 0.9138463587845781 -0.39777985265491783 0.03810888851828494 -0.06575277086656446 -0.0007733065375948323 0.0016087877403738171 0.32285652178857593 0.17664087380779916
47953000.0 0.9110238434838941 -0.4064789510083311 0.0391219080879371 -0.0750251224129558 -0.0036136405132454236 -7.07670056972338e-05 0.3382907302334807 0.1758213189863459
48952000.0 0.903996486270385 -0.41787458079643675 0.03930102896156269 -0.08393255745610524 -0.0019059398489063599 -0.002353783612898773 0.32493040674351353 0.15436822710161208
49951000.0 0.9013587245653784 -0.42114753565689345 0.04257750015419037 -0.09167602012974778 0.0011202039912259973 -0.004067558090902003 0.3416346426558986 0.1469411891178796
50950000.0 0.8981106470529149 -0.4315229457771564 0.04279007359934899 -0.09675450523434191 0.001376832355185227 0.0005396769730274776 0.342489558010315 0.1413626089420363
51949000.0 0.8950378095102731 -0.4394171665604929 0.04322449112536973 -0.10965986252185816 0.0008543704654138733 0.0036649269568612797 0.3480138111316542 0.14361243373267285
52948000.0 0.8909225965822206 -0.4496811997228634 0.042293899027802624 -0.11613230131309736 0.0017426297986505152 -0.00018406393740019974 0.37566434828750517 0.13809530050919186
53947000.0 0.8872828715573589 -0.45515433380989295 0.050699235891806894 -0.12687487446802426 -0.0012358354607932278 0.0011116876073546877 0.3624942721698521 0.1309944134306849
54946000.0 0.8801567615472522 -0.4659753670127354 0.04653556985831663 -0.1366340634101238 0.0026078890371033217 -0.0015555995227423773 0.3736249530167047 0.12420218077499776
55945000.0 0.878081750142223 -0.4732076323477576 0.050725254983683556 -0.14951513327285731 0.001281279189130462 0.0008607515735083995 0.3802089769380127 0.10016247866217043
56944000.0 0.8740191740623877 -0.4802438971567486 0.05217408293130282 -0.1584538928159467 0.0008954969120213463 -0.0007393702055622968 0.39208649499359 0.10063132602366677
57943000.0 0.8693745098133931 -0.4909904516095221 0.05406406538920684 -0.1683176823748223 0.0011777778756376373 0.00021291127857042647 0.3935664027349828 0.09362022574815408
58942000.0 0.8642941614217454 -0.4958654096549604 0.05229430212048648 -0.1817266954703444 0.0034313175685719813 0.0005326156991999634 0.4146466935242934 0.08612290952244167
59941000.0 0.8598230069330248 -0.5043815147927723 0.05519497441399293 -0.19126873453191107 0.001953944650934822 -0.00020005516464014763 0.4167008547531762 0.08143159462433719
60940000.0 0.8524690401618138 -0.5107770110739087 0.05524490098570122 -0.19469072965904172 -0.0015478376802161463 0.0012034057539762302 0.4098987492259541 0.07301682425193806
61939000.0 0.8492248514014071 -0.5199071716597666 0.0553051682547968 -0.20450474402641278 0.0001043790009039287 0.00017123602598547317 0.4114308296275427 0.07226086044320214
62938000.0 0.8414616140915209 -0.5295632349271355 0.05504309352095046 -0.22213195739842095 -0.003915951193958583 0.0003846833266147033 0.4342672064454081 0.06293278418393146
63937000.0 0.8371567561039762 -0.5358841395100881 0.05841749173684486 -0.24303180489223147 -0.003297490576502657 0.0015827633240242131 0.4365738835535863 0.04299868389776245
64936000.0 0.831528843828706 -0.5421867743553834 0.05911308821925226 -0.25784691641800356 -0.0012640076173585776 0.0003341576441449332 0.4244955151799079 0.04056299087227912
65935000.0 0.829931785372559 -0.5519201098893902 0.0557225769076254 -0.2732410717443916 -0.0003806817378580063 -0.0027618096740982005 0.43308976992854603 0.016655977917824517
66934000.0 0.8250558030766576 -0.5598383156979625 0.05667025494022509 -0.288530590889025 -0.0002927142746121232 -0.0024895110723839524 0.4411127472722864 0.007541957521488894
67933000.0 0.8178639722895051 -0.5676336532093842 0.05359610294926334 -0.3038013990214857 0.0020049312261388678 -0.00036996405417053245 0.44693371884751165 0.007302236836983483
68932000.0 0.8027037858280279 -0.5665343756660768 0.04921044039480159 -0.31411529122217163 -0.0004242029895240092 -0.00088719686904818 0.44487080139201207 -0.020095709649548227
69931000.0 0.8059171375013477 -0.5825119161790886 0.0516589026253703 -0.33842577056214634 0.0038493749005774195 -0.0009289579153570848 0.44370435685525045 -0.023447587444310487
70930000.0 0.8008159212697693 -0.5896947497017848 0.04948266266178254 -0.3505725856225216 -0.00376124736719918 3.890200532408402e-05 0.43987188852622644 -0.03974848764834944
71929000.0 0.7963139426388949 -0.5990789967440845 0.0428882742584798 -0.3703743960108196 0.0003467695677695301 0.0030988602279596175 0.44167719881456596 -0.04125609225894261
72928000.0 0.7895840945932912 -0.6094297004899685 0.03659743496311049 -0.3869368563132891 -0.0034264495212728333 -0.0011728877810639746 0.4545408973098311 -0.045705572723505186
73927000.0 0.7844831995802337 -0.6141340244094601 0.03496264833923045 -0.40625261346399455 0.0015855805956443458 -0.0011773290561334678 0.44496314776560886 -0.05806799187746148
74926000.0 0.7791824512165869 -0.6234655643145907 0.023708603964079054 -0.4309381517611599 0.002531729848320002 -0.0011848613562883976 0.45783783274410056 -0.05888303205869244
75925000.0 0.7688449274490955 -0.6278823292112904 0.009276300618309937 -0.45076227754670056 0.0020226772545704984 -0.0019200575962306835 0.4659878356734181 -0.08233318102322722
76924000.0 0.765911419829068 -0.635469461756756 -0.005012031440604757 -0.47443707126850704 0.0029838154442764025 -0.001176918395598274 0.4613747480850474 -0.09368095079822258
77923000.0 0.7574736941438712 -0.6429638334230293 -0.01839023720807694 -0.5019891362623206 -0.0010254298336209945 -0.001211968216877002 0.4555544614188071 -0.09295001208402612
78922000.0 0.7535196435030093 -0.6554194279277185 -0.030702777216324844 -0.5287405307937388 -0.0009260180630807594 -0.0015383924965197142 0.4634956905303899 -0.10609656547106983
79921000.0 0.743943722614981 -0.6580050157071482 -0.05276518902360638 -0.5534955963657733 0.002107164964476631 0.0003323890328187737 0.44622552833598056 -0.11559580064723379
80920000.0 0.7395263514300792 -0.6678571393146256 -0.06421384038385318 -0.5865837455539976 6.798329988097067e-05 0.003204557700103603 0.46249388214928266 -0.12550509200620275
81919000.0 0.7327335234834885 -0.6728207185784872 -0.0824292574737317 -0.6114401920231686 0.002887516323832927 -0.0005536029993003819 0.46104944409978876 -0.13808060875182945
82918000.0 0.7262910569309899 -0.6800831174085014 -0.09848350873641179 -0.6457389016274032 0.0021991205671029923 -0.0008655079601278163 0.47194955394110244 -0.14024870232837955
83917000.0 0.716001530324966 -0.689164457969436 -0.11884844573158235 -0.6719345343232384 -0.0007349098943383355 0.0007229372921904197 0.4699575901794253 -0.14925317434060603
84916000.0 0.7121630772520364 -0.6948673095828511 -0.13080621724142888 -0.7171971978493699 0.0051968573901590735 -0.0003654984048570249 0.45632662939761026 -0.1685348913923049
85915000.0 0.7052197044991911 -0.7017017545446738 -0.1565097234020123 -0.7401931729012539 -0.0026655958978221107 -0.0024074665583791468 0.4565403034460204 -0.18174992451832161
86914000.0 0.6982637793343462 -0.7120699121236028 -0.16938361140831462 -0.7805140658900883 -0.00011156159518822191 -0.002353299821974255 0.452762423412681 -0.17310868960995615
87913000.0 0.6902792810661701 -0.7181643505937699 -0.1909517384771526 -0.8123570150005188 0.0005252362706306908 0.0010257257382916564 0.4547128761577497 -0.18847876721356963
88912000.0 0.6824572083139574 -0.7242977372823416 -0.21192466473991806 -0.84173918305546 0.0038517088650816145 -0.005770747102512091 0.4639658339220745 -0.212724076535765
89911000.0 0.6768862692633228 -0.7325820544858987 -0.22273997524444225 -0.8832706291353207 0.00045177927960084 0.0011834808197767068 0.4715021723555836 -0.21517305654743474
90910000.0 0.6684467287090724 -0.7388438967895313 -0.24003073877354486 -0.9181603060205915 -0.006333424087336454 0.0022126955602717706 0.4655926182878824 -0.211985785327305
91909000.0 0.6595639347761775 -0.742984289892839 -0.2606551357858624 -0.9547351812693683 -0.00011691509064097983 0.0009049941188642176 0.4647913779956667 -0.2351092500985217
92908000.0 0.6506942916615944 -0.7517194694219487 -0.28437462383327783 -0.9863233445212993 0.0025578833110567393 -0.00042192517629718613 0.44868460751229927 -0.23639153057276374
93907000.0 0.6465906707578435 -0.7563703579186072 -0.3013397906514526 -1.0199876576891207 -0.0007435855652755954 -0.0003867984800975482 0.4535646840820015 -0.2617965608819072
94906000.0 0.6318583505989328 -0.7665075887891757 -0.32624981477600445 -1.055045774591616 0.0019383159778932119 -0.00025968627548039996 0.4577306542874035 -0.24724769455674503
95905000.0 0.62628704918323 -0.7723769867042665 -0.3449742700952789 -1.0905635839973886 0.00039163540772088704 0.003149824035903481 0.45484974831477165 -0.2671358447063757
96904000.0 0.6186458341290918 -0.7826176065197615 -0.3761836455041033 -1.1278371482551208 -0.0006095518363091485 0.0008801452845849627 0.4389622678565938 -0.29394876719625135
97903000.0 0.6081855424345546 -0.7844582283841419 -0.3962085889474473 -1.1620625142341838 0.002823931686965808 -0.0018086986992449697 0.4423163059450715 -0.2936162627514114
98902000.0 0.6053099103416103 -0.7931352719928876 -0.42377620433630914 -1.2039145739907424 0.0007760180821895958 0.004153523970523679 0.4402421600803459 -0.2978620753180759
99901000.0 0.5943706016962753 -0.7978441505815581 -0.4573782664502689 -1.236580198563339 -0.0010677389732552415 -0.0009636592916460892 0.4485391816051009 -0.32081627813754443
100900000.0 0.5843960558117961 -0.8035227443822709 -0.4937658452897044 -1.2648238020176343 0.001195405513076767 -0.0019234677870644654 0.4502543908087449 -0.31579432198734353
101899000.0 0.5768499937258287 -0.8099201004781346 -0.5166579219668078 -1.3092383160650853 0.0019523151715724874 -0.001493047006509805 0.4414069510867668 -0.3248254617749117
102898000.0 0.5646565291883082 -0.8148684430201069 -0.5604948723196451 -1.3442445321712806 -0.000759700535720716 -0.0005755243858826983 0.44199725080846813 -0.3338486580229972
103897000.0 0.5579421551354012 -0.8248809204581373 -0.608634712725548 -1.3805209238289327 -0.0015580418834926508 0.0008159302476631644 0.4501606950842218 -0.33204884290460995
104896000.0 0.5493827816865298 -0.8319054841334868 -0.6553223230511476 -1.4131781611003076 -0.00210556555567194 0.0005043229295480378 0.42041650440013756 -0.34528485003105647
105895000.0 0.538075843767417 -0.8345055057912932 -0.70616899063915 -1.4597874226255287 -0.0002745600314358575 -0.0031255285179090818 0.42679093009897356 -0.37139024372922486
106894000.0 0.5321288808420183 -0.8421037190179255 -0.7610064814318873 -1.5017794041385233 0.0002667637287327259 0.0012073798548379929 0.4206592281747388 -0.3813181549525711
107893000.0 0.523861793996518 -0.8469954771312239 -0.8219898313787342 -1.545509817150949 0.0021543792773726 0.003039869589329041 0.43179346330566587 -0.38398360239273055
108892000.0 0.5118680709966786 -0.8527353852181455 -0.8869206532616922 -1.5783692900325492 0.004969322388048744 -0.003642307777198068 0.4051425446517653 -0.3707516465574932
109891000.0 0.4995539436100829 -0.8591142831152409 -0.9477161779959444 -1.6158349275729742 -0.0006616713085907789 -0.0012820281651444972 0.43959660747015195 -0.38221968968870923
110890000.0 0.4928007465252729 -0.8745784921693043 -1.0236458796682018 -1.6386997273260018 -0.0013185941028666488 -0.0028956037563322256 0.4262202191936113 -0.3857515246730076
111889000.0 0.4776543731308147 -0.8661655264896015 -1.0820151988202293 -1.6824534123481756 8.338852772919236e-05 0.00011690730711601273 0.41077516599886255 -0.403365509621989
