! Created with skrf 1.9.0 (http://scikit-rf.org).
# Hz S RI R 50.0 
!freq ReS11 ImS11 ReS21 ImS21 ReS12 ImS12 ReS22 ImS22
1000000.0 0.9834546256816196 0.01728155122277927 0.002260086053203467 -0.05945752321294351 -0.017462752237550214 0.007795929635267056 0.34173883576202657 0.33774070264037565
1999000.0 0.9931535002441993 -0.00942363542881263 0.003990589486266011 -0.017070925769770165 -0.0015557349817666211 0.006435907736404213 0.24860298915769533 -0.058469441129096036
2998000.0 0.9991955074435029 -0.016921171525952003 0.0048410604772392 -0.010660047102138553 -0.004226770896255114 -0.0003664544500203813 0.19164183192369055 -0.1558013846470305
3997000.0 0.998859584379594 -0.029580124761649174 0.017600828291145287 -0.009483711643049866 0.002446505037705552 -0.0016957486084267785 0.08861243933683548 -0.21725330901274126
4996000.0 0.9965802572560334 -0.042316724836147464 0.011656299996610369 -0.0021924608057206133 0.0026831174773922673 -0.004015199581765788 -0.029734510132304368 -0.22614176988880647
5995000.0 0.9964283795212271 -0.0503614997562755 0.013851706530680602 0.0027352721689075862 -0.0012136505487324433 -0.004377324804039727 -0.11944145403150813 -0.13233273365210563
6994000.0 0.9958223968277389 -0.05915776431456211 0.0036298756892308402 0.003137731223022605 -0.001903143391418002 0.00036279369536692065 -0.15276394051022807 -0.028636270079699613
7993000.0 0.995594681881027 -0.06627528116505166 0.00047034838404790225 0.0018143776109863477 -0.0028126416075241177 -0.003287151100455248 -0.17396735346875888 0.028981805880170918
8992000.0 0.9946651671387149 -0.07318139461750126 0.004006770989132284 0.004878361481240183 0.002499049421982594 0.0013909082848586616 -0.15640370060109246 0.05774685589297331
9991000.0 0.9963473996206778 -0.07975658441535381 -0.004360750458773128 0.004666391264661586 0.0018133156608276593 0.0007853187926174628 -0.14848013321577738 0.0900635957813422
10990000.0 0.9949731249816484 -0.0908878026648971 0.0038210498481099954 0.005301596177233662 8.276310274746591e-06 0.004214495819859197 -0.13808455747962325 0.11530590220217099
11989000.0 0.9911862391790601 -0.09985245508784978 0.0033266379268784077 -0.004107519708760278 7.176181495517335e-05 0.001974562461078833 -0.1362027725884039 0.13567939957573344
12988000.0 0.991188868079687 -0.11083696139785257 0.0023298333879286973 -0.0025505235790505227 -0.0008037004739508306 0.0014897638036303641 -0.11729845817092782 0.17018106465680338
13987000.0 0.9894434917496816 -0.11626020473144588 0.0011826321728750555 -0.003919391089720548 0.0009792732786198023 0.004743078021325522 -0.09217352043302167 0.18634840992451035
14986000.0 0.9906375967510519 -0.12405726698303561 0.0008368898163334027 -0.002041670967763034 0.001244646714731438 0.0034714663572197038 -0.08955766043568703 0.20523198140408375
15985000.0 0.9903844773579714 -0.1336074469944609 0.00022051568286293594 -0.003041514238095967 -0.005551424804586467 0.0019918789017463146 -0.06648760473255899 0.21112462575305374
16984000.0 0.9874703644212114 -0.14304089866132652 -0.0025047699775482147 -0.003650940862089267 0.0005942168895863262 0.0010800737394786302 -0.05649845059580864 0.21714096263218735
17983000.0 0.986991934224273 -0.1471046923324616 -0.0030483027080271384 -0.0008354517313258825 0.0004639009949327638 -0.0011813800614113952 -0.06457863626078261 0.23566578592264414
18982000.0 0.9847535612777478 -0.1607272525951744 -0.004733386953427337 -0.01177643713648249 0.00028203106521188697 -0.0019609740374967864 -0.026593112684302773 0.2385699894241729
19981000.0 0.9848893325456322 -0.16524637143011392 -0.0041307744963097895 -0.0015716225705418613 -0.002339884234814731 0.0009998848414019895 -0.01813829979173283 0.2471970645508462
20980000.0 0.9820204883311744 -0.17381690287138862 -0.00521177533218234 -0.004566606946416088 -0.002769038186749806 -0.00013689451181605715 -0.00426637200898504 0.2533351108019604
21979000.0 0.9822407522501985 -0.18368707357069017 -0.010241002752440576 -0.003101788424023237 0.0013799425110090952 -0.0008684990720771744 0.013542870060635374 0.24804408896760824
22978000.0 0.9784425965570264 -0.1909445355377949 -0.0024300547376210437 -0.002921146646809352 -0.001829790597470843 0.0010273191379543633 0.02695947492263373 0.26331574972672234
23977000.0 0.9817533079536696 -0.19709833993726883 -0.007002515266196182 -0.004158324814500356 0.0031362449572599057 0.002040601290468525 0.03978997068357826 0.26213437795491457
24976000.0 0.97487504484033 -0.20917213483053684 -0.004833707926339876 -0.0005400500506694319 -0.004793783013272381 0.002420035111927339 0.06276151460317328 0.25031049723987936
25975000.0 0.970947683892824 -0.22373752273402994 -0.0008558451138129279 -0.0037993787362234025 0.025417050520215822 -0.01657142233644405 0.07295336996379936 0.2545175518571068
26974000.0 0.9702729013974539 -0.2255751774681036 -0.004631957453376066 -0.0022788571195697886 0.0017899290521705212 0.001250908402200553 0.08854484170889766 0.25271169619856587
27973000.0 0.9699370796985896 -0.23228053477588645 0.0021572520888156273 0.0027962369524417298 -0.003633562452700697 -0.0010257014825102361 0.10393179887590503 0.25660349230752577
28972000.0 0.9684883277351664 -0.24102302603224648 0.002659545315740617 3.2132701103914816e-05 0.00133038455233029 0.002281996554449838 0.11483913218914524 0.24983665782875825
29971000.0 0.966536538632242 -0.24896713385265243 0.004194618136241763 -0.0017116112186801285 0.0006029666472948413 -0.0012261755886050817 0.15432014466388733 0.26925085758808065
30970000.0 0.963105941722252 -0.2574253245609184 0.0006172471433802164 -0.002066208976255297 -0.0038056723896042702 -0.0025034413080804833 0.1638771137498503 0.2513657589211757
31969000.0 0.9622210734044444 -0.2648501903839204 0.006264472345308859 -0.006522438339322229 0.0005667922065973448 -0.00211426872902678 0.14222619512339685 0.2517553424372985
32968000.0 0.9606526925528394 -0.27264747200548173 0.006516983300201053 -0.008308329535845373 -0.0019489168665266393 0.0009126105508336978 0.16250148521677976 0.24120812233285327
33967000.0 0.9589310420465696 -0.2837228256247284 0.012250689661955944 -0.008661593369660445 0.002674103704086295 0.001630712045179025 0.18531780942883302 0.24523918686967366
34966000.0 0.9537371795965383 -0.29439118144272014 0.016646503655901028 -0.011831624194254722 -0.0001460315951871485 -0.0004952423455441756 0.1890590793232272 0.25195495168274357
35965000.0 0.9518378588744532 -0.30089720967682065 0.0171518760937493 -0.01601801150532335 -0.003422592451230089 0.0016487083323871487 0.2061342739422594 0.2539017651677466
36964000.0 0.9500273006725277 -0.3094682788879509 0.01685825273427124 -0.015001264204974064 -0.0022255702755493967 0.002483760306851485 0.20544180519394017 0.2492759718377508
37963000.0 0.946692310762951 -0.31770528565213424 0.020314529075553433 -0.02565968410188431 1.607509458828119e-05 -0.0028235520877232328 0.22456877625671046 0.23305532374001567
38962000.0 0.942658114867167 -0.3289435497544814 0.025404670042381512 -0.023609953290248658 0.0012447679873142672 -0.0020859801655475035 0.2336188395094658 0.23501440623768255
39961000.0 0.9404102332751912 -0.3341832592520161 0.02680296850933809 -0.028147054272293415 -0.0017887166342078495 -0.0008095898240986865 0.2488881368809763 0.2294540595520515
40960000.0 0.9374662286818133 -0.3409365881730766 0.02402131795531432 -0.024152274577142703 0.0029550712190553096 0.0002529010942640787 0.2543099087793516 0.23532385538792672
41959000.0 0.934456592290825 -0.35116917297254174 0.029704850951162563 -0.03014966236327062 0.00029883591637019783 -0.001384292631277139 0.26722677681486223 0.2126028792353006
42958000.0 0.9291083860084535 -0.3606669079507664 0.030060188129760638 -0.03912678697418685 0.004530325460575252 -0.0010392483022664168 0.2789624996560646 0.21060119007887904
43957000.0 0.9279862981782251 -0.3663115991863678 0.030498778952948377 -0.048434640323627806 0.0007530645995957799 0.0023630886199938945 0.27706540485011505 0.21173654655784363
44956000.0 0.9246557191749148 -0.37610451142085644 0.035460435791932685 -0.05165583433869034 0.002523500964720142 -0.0005676583123292684 0.3029872957373817 0.1860043341638801
45955000.0 0.9215963175247633 -0.38323836886302987 0.0333424887022698 -0.05896040733058932 -0.000924735681173624 -0.0004702614207590854 0.30610477282158793 0.19373324156644886
46954000.0 0.9174025531239609 -0.3924202448939633 0.03450784189312966 -0.06624261377367868 -0.0040620084902810195 -0.0026623174507531796 0.3169809370123758 0.18656684783411076
47953000.0 0.9154489303152711 -0.4005077346689149 0.038855949575555215 -0.0720086473667011 0.00032785630653683 0.0036440712516447905 0.32794916937141433 0.16546976832823404
48952000.0 0.9093153530362865 -0.41011512752091145 0.03613403167506642 -0.08051877550798506 -0.0012903646860338445 -0.0015736533896118221 0.32800268439835406 0.16408096730722224
49951000.0 0.9062670918258243 -0.41647969069639273 0.03807238937522162 -0.08800760459478212 0.0008336648674963942 0.0007231560075904919 0.35155735823988804 0.1519255201386227
50950000.0 0.9027721550871842 -0.4252739174170465 0.036147950166193654 -0.0968718393892796 -0.0029541669618895414 0.0006180678840421305 0.3553255076224594 0.13682322484812862
51949000.0 0.8980280125155615 -0.43308942005358464 0.03714465410266164 -0.10209035579741908 -0.0015737175226608186 -0.0019930304101719817 0.3474622181707431 0.1389095388836453
52948000.0 0.8958180047060211 -0.4418795789234022 0.03883849870602167 -0.11179330342874905 0.0007487932175135279 0.0011277542879465094 0.3675165548307965 0.13501831064823086
53947000.0 0.8917477778805287 -0.4485668156140611 0.040552131588992235 -0.12042421968752406 0.00016081797944892456 -0.0010074711791956956 0.36743043322943575 0.12474848392597472
54946000.0 0.8838742274255472 -0.4595075981274868 0.04191165788871681 -0.1306650503788567 -0.003428389447358065 0.002238502451382143 0.383266568723397 0.11767932042204199
55945000.0 0.8836239011459666 -0.46541287048338387 0.04480981589191075 -0.13905619575906375 -0.0016217595009362302 0.0008188157424885465 0.37606440004365166 0.10260446092528483
56944000.0 0.8792984709673056 -0.47498747353541704 0.043491365046867556 -0.15170064484098314 0.0012181560522673714 0.00029784999936272185 0.3899398157391981 0.09824482333049521
57943000.0 0.8747867184758497 -0.4842654388186858 0.045461890844174214 -0.16074220460141259 -0.0017838976245108265 -0.000667087108768885 0.399556564459147 0.08568652095454408
58942000.0 0.8691701321635567 -0.4885764621313489 0.04767696842839544 -0.17173060000409884 -0.000958100007341468 -0.004349174858123353 0.4165508203446241 0.09041079952323537
59941000.0 0.8651496507782681 -0.49996651286285226 0.04873332164810369 -0.18268757374682731 -0.0015600604276892192 0.001368015775661279 0.41940899964074396 0.0821485217955287
60940000.0 0.8577652423901935 -0.504923780952425 0.04990620759205015 -0.18337242684771118 -0.002334450445393598 -0.0005991490924391296 0.4112325593840845 0.0809492717858872
61939000.0 0.8555523675004313 -0.5116990497679345 0.05169411633998233 -0.19326398089431557 0.00013215025194451206 -0.0011438267427786614 0.411499699754773 0.0626601344295689
62938000.0 0.8497916495295591 -0.5230679599696688 0.05365515812921442 -0.21355691596241735 -0.00267460661795401 -0.00012224651996969353 0.43416336381055187 0.04595274057895127
63937000.0 0.8449845478319105 -0.529531885105422 0.0546673695970919 -0.23059674403272684 -0.000247233702279468 0.00041951466928128676 0.4286501733470526 0.03437907332930526
64936000.0 0.8399820511369522 -0.5353047541099917 0.05409508710088088 -0.2439464428425799 -0.0013268890734672255 -0.0020938751467347067 0.4334829234078337 0.04337312267935321
65935000.0 0.8376789431736568 -0.5444988556429348 0.052918551633235736 -0.25679616524551246 -0.002491358063096503 -0.0015850303566632535 0.4287764695760063 0.02328055162345759
66934000.0 0.8326427096016392 -0.5522607125337092 0.051996763045605715 -0.27318851757800716 0.0006961004183988917 -0.0007760469494462872 0.4294876756694907 0.007610467086083954
67933000.0 0.8272216545197844 -0.558977842411084 0.05357331282115349 -0.286610889410725 0.003578221043579434 0.00016626183966523135 0.4410334666279448 0.007715862281530215
68932000.0 0.8118364858757725 -0.5553015177152648 0.04815971111053296 -0.29409353066191374 -0.0014082228117557511 -0.0006996802413072176 0.44580996747537777 -0.018236563540389456
69931000.0 0.8133770395270604 -0.5765152437665414 0.051802073804441705 -0.3137056215655836 0.0002609608623158634 0.0009755651081651912 0.44727187591408274 -0.01780905410479011
70930000.0 0.8096299449085248 -0.5823423568936226 0.053497890356288956 -0.3273179924957173 0.002006284313017261 0.0012232695407557797 0.44517535859915397 -0.02862284431140032
71929000.0 0.8055181503978927 -0.5901098914918796 0.047136406678503065 -0.3470486141338109 0.0036448302980777994 0.0030053639847303186 0.4408954697982228 -0.05147415116312637
72928000.0 0.7976753295681296 -0.6012229513943855 0.0401453333867534 -0.3586053414729156 -0.0013910197977653521 -0.0023274899881041036 0.4548778983169678 -0.048533389813079614
73927000.0 0.7909316031807426 -0.606418024926651 0.03287899362729321 -0.38143901168910194 -0.0005128223052869534 -0.0004075659825699082 0.4537940053442486 -0.06639653325915543
74926000.0 0.7854113064135289 -0.6161297152627797 0.02953192760807517 -0.3984525662341893 -0.003120939666664692 0.004056715147658125 0.4561742794106172 -0.06644345462432057
75925000.0 0.7813513078096894 -0.6195917937223572 0.019434410036805606 -0.4158316109867327 -0.0011544527487210817 0.0031048980476315706 0.46137699019731826 -0.07693391123206766
76924000.0 0.7748790333237041 -0.6271885941463873 0.0032869725421082086 -0.43679168144253555 0.0024241843248923333 0.001395903743904393 0.46042115866615285 -0.09083442096758979
77923000.0 0.7693723428217636 -0.6358209245172344 -0.006217677144664947 -0.4629080658758548 0.0024688733313052197 0.005348117905335472 0.4600562218133585 -0.09556497043801113
78922000.0 0.7629780365236825 -0.6448075587952317 -0.02440523207773527 -0.4888190886757512 -0.003225643546066805 0.001107256084299187 0.46417243648954604 -0.10588537106398764
79921000.0 0.754676271585252 -0.6495034900523499 -0.036079341129045615 -0.5133949964099125 0.004755621523733295 -0.0005011672003479571 0.457734873389787 -0.1135784195559862
80920000.0 0.7502953780956747 -0.6604963068816272 -0.05812616665235127 -0.5455332705554659 0.00048496964479794076 0.0007357054572222223 0.47069977888763115 -0.13979815921583202
81919000.0 0.7434886874340847 -0.6651321398718767 -0.07056946456543829 -0.5674171736032911 -0.0028677543416197986 0.0015953777742656425 0.47037659064504 -0.1417212588962871
82918000.0 0.7344843371703355 -0.6737928664184959 -0.0872295886185513 -0.6001835450713708 0.00048453395841786454 0.0014837931545417357 0.465143741769585 -0.14471611356234526
83917000.0 0.7288091004601183 -0.6820404560321282 -0.10870699508177536 -0.6268831468665359 0.0025909322803291295 0.0014741429264994953 0.46105312416607336 -0.16051567120285581
84916000.0 0.7250601183316142 -0.6870995589795889 -0.12099401114203887 -0.6642787172789446 0.000541764767503568 -0.0014289244835584576 0.4682581810290233 -0.17943609596006732
85915000.0 0.7174636776318241 -0.6943074779951732 -0.13795263247122308 -0.6943705036104715 -0.0006717304531874247 -0.0007312824200530305 0.46002108491305466 -0.1683424205018335
86914000.0 0.7084538511680526 -0.7050239861559 -0.1619873774210763 -0.7281315096768177 -0.006362096629694809 0.002972108161730651 0.4617520510739828 -0.18754156926657625
87913000.0 0.7008979336478922 -0.7100679190057207 -0.18066107224695846 -0.7592898890427682 -0.0026336572686754883 0.00524902827784846 0.46442950247110887 -0.19467768752334783
88912000.0 0.6954616937671478 -0.7174430695452635 -0.19724344483990608 -0.794173278553671 -0.004217659660080376 -0.0008943631660498354 0.4560420333975547 -0.21448241513845273
89911000.0 0.6869581921931456 -0.7258297891411767 -0.2085467559052946 -0.8299306402768714 -0.00322669719997188 -0.003170764675104986 0.45927287848713083 -0.2183515057885911
90910000.0 0.6816430187402894 -0.7292328124403243 -0.22618233990598188 -0.863458420842402 0.0009702277263093859 0.0032356934130261038 0.4562529719146081 -0.2142027293105479
91909000.0 0.6717657400728948 -0.7356812829570397 -0.24976939021166425 -0.8948671213349464 -0.0022881865417007105 -0.00031043950921837057 0.4669478859109886 -0.23177395092688557
92908000.0 0.6630060877313386 -0.7441779519927907 -0.2656059760452342 -0.9265276950124364 -0.0015461659893055044 0.0030777823282218857 0.4498407037674589 -0.24166211539047097
93907000.0 0.6590732922648354 -0.748831927014461 -0.2779201372620907 -0.9586685621992725 -0.00012152026640636279 -9.867095245494803e-05 0.46249056076099687 -0.25914239013325985
94906000.0 0.646256916901682 -0.7593719649860222 -0.3002052133444181 -0.9905939928572313 0.0024248609231918043 -0.002128039375382277 0.45471801404136586 -0.25900412083840707
95905000.0 0.6381483939397501 -0.7647882266125164 -0.32165062967441116 -1.0271039468291683 5.513732075540665e-06 -0.0017271336618454286 0.46286430782822746 -0.27139710423786007
96904000.0 0.6313697172346298 -0.7722869694589334 -0.33852338805732185 -1.0641755915929436 0.0013290129859968047 -0.005164928308870885 0.45018764067392014 -0.2834662404192947
97903000.0 0.622034530917774 -0.7782526440629064 -0.3588201541245961 -1.0941494227069726 0.004787587740750234 0.004570204809876476 0.44998161785656887 -0.28627726155107885
98902000.0 0.617836417373394 -0.7847719883891175 -0.374491894118199 -1.1330090410339908 -0.0011868748056068248 -0.0030559838733566253 0.44452277666445356 -0.2962352174818591
99901000.0 0.607228848322945 -0.7899382669762176 -0.40427291349883526 -1.165159617428944 -0.0020057992123771293 0.00010188139403879588 0.4629031094374936 -0.31232454757527445
100900000.0 0.5980685735865399 -0.7928151086048761 -0.43222527999258537 -1.1903957472690883 -0.0010965961666642753 -0.00036547344816445585 0.4612010719985802 -0.31416109789144875
101899000.0 0.5927253924213605 -0.8015795731678449 -0.4563441748978804 -1.2308510697309292 -0.003380794324505036 -0.00032815395361163337 0.4409639305692769 -0.32368014402631173
102898000.0 0.5813073537101844 -0.8077532299084063 -0.49293785764156367 -1.2684090334465241 -0.00281347599238279 -0.0016739199375375385 0.4426773356840131 -0.3458955465118099
103897000.0 0.5720339946681667 -0.8151268042666612 -0.5326552972599685 -1.296671277103374 -0.001775337478088292 -0.0028195270659802335 0.4512160446794271 -0.33990882656655635
104896000.0 0.5655697864897498 -0.8251706601545761 -0.577499905987276 -1.3345933662601832 -0.00038945566946280055 -0.0012765168909373201 0.437529267554647 -0.3453779402597887
105895000.0 0.5530195148443166 -0.8281073484629614 -0.6182692613241553 -1.3701155281718707 -0.00021094541317290128 0.0014653769942480892 0.4233473774207638 -0.36728390116633397
106894000.0 0.546552775891662 -0.8332078123008201 -0.6658967437932912 -1.4082673536688592 -0.001135556469128245 -0.0016856424344210705 0.4215996639373023 -0.3763026842768382
107893000.0 0.535988817871785 -0.8408246119859996 -0.7199609801456195 -1.4476528464613878 -0.002162344382453 -0.0018350865229121909 0.4283475617872436 -0.3688002765290768
108892000.0 0.5288101535359852 -0.8435232004499034 -0.7740328313526426 -1.4841843901430212 0.0022539771361070045 -0.003272385489701185 0.42970691414373147 -0.3810746065786486
109891000.0 0.5155974263282141 -0.8521404068794777 -0.8324891957033261 -1.5191100239025577 -0.0028076074695932217 0.0026171844029957746 0.44536097113982936 -0.38901877108102134
110890000.0 0.5024541529183008 -0.8516920130681941 -0.8921974367355787 -1.5199082844969505 0.00010371386378593541 -0.0010109160194230373 0.42006703055333666 -0.3806616877058974
111889000.0 0.4968855434873445 -0.8596523271609787 -0.9536165211557595 -1.5878339536547224 0.0022336488983564396 0.001216911484238301 0.4146390850367593 -0.40485503863096367
