! Created with skrf 1.9.0 (http://scikit-rf.org).
# Hz S RI R 50.0 
!freq ReS11 ImS11 ReS21 ImS21 ReS12 ImS12 ReS22 ImS22
1000000.0 0.9909405158587897 0.010375030053236228 -0.008058812813184055 -0.041646881500785396 -0.013782495205233109 0.006419529386000692 0.36061909701920214 0.3289673119126812
1999000.0 0.9959675338340767 -0.012375144474206599 0.003615247814260672 -0.022312963172236522 -0.0021143409604474895 -0.004326445055131752 0.25997345395613203 -0.040592321418205485
2998000.0 1.0003341374459112 -0.01990527134291794 0.007928796233578462 -0.013836384235051874 -0.0035028823293818605 -0.004595602564735589 0.1930975082994016 -0.14034072840969058
3997000.0 0.9984755377465905 -0.03514346559101409 0.013907615455632183 -0.007221614036402168 0.0008849723509256692 -0.0069222388486111985 0.09669814193750283 -0.22988765354119076
4996000.0 0.995117922122132 -0.03731020725941234 0.014021498392742665 -0.001495822606198635 -0.0016466310897080272 -0.002723081621712239 -0.03350412532469589 -0.22043329432160894
5995000.0 0.9980137662143822 -0.051411511491051304 0.013231629424223025 -0.00019106228720353996 -0.0017754369825002765 -0.007575803281274555 -0.11667408350528667 -0.12634894142889125
6994000.0 0.9946489147403269 -0.060086777118845885 0.009455602447869643 0.00550695473425573 -0.004627241806836674 0.002799743948357218 -0.15244611758211696 -0.031198374838753564
7993000.0 0.9973148207225991 -0.06408831010769513 0.0018581421851005947 0.0023973249291761823 -0.000308573707998137 0.0015861947301240415 -0.1613514869755938 0.045686554595031445
8992000.0 0.9963573006961646 -0.07110496316335872 0.003960489987175021 0.001604288720020934 0.0009475658922436924 -6.064409705532194e-05 -0.15424025079369766 0.06899155307968687
9991000.0 0.9935486737861404 -0.08402767527286234 0.002460126920920984 0.004073081676944355 -0.0028036459241009724 -0.004262980188139747 -0.1563582989075229 0.0884775556988083
10990000.0 0.994085779079549 -0.0924561843945878 0.001049407747459113 0.0014030136166740472 0.0009416220266496644 -0.0015434564801928101 -0.14677388195453844 0.11783304132965088
11989000.0 0.9923503549848219 -0.10191266560883439 0.006419821629207734 0.0012490300115115527 -0.0020025956998287893 -0.00020322092222072277 -0.13222106537321873 0.1446053114984751
12988000.0 0.9920155760927827 -0.10818664615979441 -0.0017726572515793892 0.0008630325358826317 0.0009570069135713585 -0.0030947573584170734 -0.120703914180222 0.15391055272973844
13987000.0 0.9888686036203196 -0.11937628057113892 -0.0025117259442064715 -0.0030540091564368486 -0.0008799140403801052 0.0016117871619472464 -0.10435807335197632 0.18616147417299728
14986000.0 0.9893665676394406 -0.12531560636390093 -0.0012828181441186446 -0.0033253651054162454 0.001135343035782096 -0.0010357658617665933 -0.09941831704857643 0.19834026142626396
15985000.0 0.9900459580686 -0.13518620621952454 -0.004183575942508354 -0.0081844686627884 0.0032352192326773168 0.00128537848687256 -0.08642625761793851 0.2173746272415613
16984000.0 0.9850216740629874 -0.14660272284698486 -0.0004036250565231628 -0.0045385774676208485 -0.0012593924855856435 0.005121401051055309 -0.07097856684168824 0.2196038500262461
17983000.0 0.9889894652105744 -0.14771114345066133 -0.0013449225587569696 -0.0060440065297736574 0.004895705873095846 0.0005452042891750174 -0.0639289837093123 0.2323650811778407
18982000.0 0.9832690046080329 -0.16058125432667503 -0.0038273292297017385 -0.005196780531326169 -0.004843677496051415 -0.002312552858692122 -0.03692983747042243 0.2399749197626664
19981000.0 0.9834358225135895 -0.16675534644208442 -0.0008069768829526377 -0.007114249797273361 0.00017405476162596126 6.644484191786302e-05 -0.011366053669529428 0.23911185022048362
20980000.0 0.9804876606661945 -0.17685980171122412 -0.0042291475274373125 -0.0031908539328478927 -0.0012001769438119655 -0.0022127751418845455 -0.015350389239732823 0.2597277906057584
21979000.0 0.9802385328136005 -0.1839076236278413 -0.0010061476764513947 -0.004798004792408138 -0.002387995364341687 0.003489095467994909 0.01436961224652691 0.2439444368155266
22978000.0 0.976779511394602 -0.19386666981645562 -0.006449942526782401 -0.005013641642060575 3.4799679890443854e-05 0.0022429788664307857 0.03750996151397368 0.2514690662272802
23977000.0 0.9782710554713772 -0.20137840333044052 -0.002789372442931386 -0.005152728889347371 -9.462216675956955e-05 -0.0039702195111300485 0.035293795035954166 0.258295484428687
24976000.0 0.9753064236506035 -0.21087633737778502 -0.004860694490008075 0.0015071612165940087 -0.0018827853909374676 -0.003254538245538443 0.06882315427147465 0.2516059550514947
25975000.0 0.9730875565243755 -0.21643635501093678 -0.00480311957726699 -0.003272639347846715 -0.015867500786164092 0.018695393117051106 0.07940477687546829 0.26777716938364465
26974000.0 0.9719676718332516 -0.22676352555260856 -0.0032913666950245162 -0.0012741983017503168 0.00019494433119801238 -0.0015133331368124996 0.09478593816433027 0.2750114397317096
27973000.0 0.9700037574739476 -0.2377184909245027 -0.005435615743138394 -0.001802489124612418 0.00021849932277485812 -0.0027026537789444894 0.10463335450341273 0.2597005471506812
28972000.0 0.9670339553836356 -0.24665465866081013 -0.0013743620193521055 -0.003376170054034957 0.001260873844434233 -0.002043214072685884 0.11531281693184449 0.25227670511611433
29971000.0 0.966320320649246 -0.2531890351759698 2.1801922736036305e-05 -0.0018044127535259279 -0.0009665784368893532 0.0005734672091484697 0.1469197946142627 0.27498423182521364
30970000.0 0.96278332640225 -0.259565586543784 0.0003061300601683261 -0.0025559842215900582 0.0011133833680202904 0.0023768637663980226 0.16890894750153504 0.25729455113337263
31969000.0 0.9623071773531982 -0.2681190579416548 0.005959551276994012 -0.004522802159489075 -2.9288546846412362e-05 -0.0008150337518316867 0.15512951698214658 0.248622313549862
32968000.0 0.9605483364750462 -0.275127383658954 0.00845600030161195 -0.006241207458187768 -0.00011425699887100124 0.00030529344784811877 0.16791467336334243 0.24142175540593275
33967000.0 0.9581756938271484 -0.28562148964645984 0.01036223643771646 -0.009577339824886726 -0.0007353117593565945 0.0007129897057552162 0.182301324192738 0.25087569525877595
34966000.0 0.9534395800652252 -0.2969591912789478 0.014329923493823551 -0.010456036904160382 0.0005415580835224291 0.0018198423039580967 0.1915514635495281 0.25007522008794436
35965000.0 0.9508258609736034 -0.30378358738056555 0.015534787051265247 -0.017884189569892222 -0.0009153232531049991 -0.0021942782093085375 0.21901436408724562 0.24329506993044353
36964000.0 0.9481480985725732 -0.3107611243804699 0.013279709064270421 -0.014304581348936222 0.0023703264210478935 0.0034110610664252676 0.21567240728447168 0.2491835875035131
37963000.0 0.9445615650437791 -0.32235266111364264 0.02289968883746324 -0.021048849160639673 -0.0008666931953077996 -0.000839503170574213 0.22891102723980442 0.2349315375870543
38962000.0 0.9426622424642292 -0.33268147417358657 0.02453107011518812 -0.026479664134080785 0.003431694338913972 0.0028114543152371867 0.24453570504940236 0.22479476207641422
39961000.0 0.9400077484308854 -0.3361431041311083 0.026519400664048596 -0.02815277066257705 0.0019404273365671112 0.0015841394270717042 0.25793056431513983 0.22156950020495497
40960000.0 0.9355432941296539 -0.34492514740018 0.024392367225273933 -0.02364131331710195 -0.0004634563328422972 0.0014743652880831026 0.2790450768304583 0.22652443412948542
41959000.0 0.9334818817050217 -0.355165585022609 0.02878917186245709 -0.03235518571533641 0.0005315101100471741 0.002651077572820841 0.2676255996585858 0.20976100373849849
42958000.0 0.9271138671703101 -0.3645405268794029 0.03303908169674507 -0.03916438320509855 -0.0035540313619821682 0.0017264035079167252 0.285775254196172 0.201662505523742
43957000.0 0.9257904325935187 -0.3704137409847338 0.03092845428053216 -0.04458065979398502 0.0018800370582604795 -0.0037225293536206376 0.2881454321379937 0.20582829738403047
44956000.0 0.9233740085768953 -0.37934699872891553 0.03427474096770825 -0.05186913401943879 -0.0016788348812403777 -5.249416495399291e-05 0.3156977669201102 0.19510702048787415
45955000.0 0.9180916568273843 -0.38883091706543693 0.035885124869715096 -0.05766545381018826 0.0004523402672754725 0.001594707442158954 0.3057677052408341 0.18701658685997447
46954000.0 0.9171020903906285 -0.39701294640243073 0.034040828824814545 -0.06479269485042026 0.0006902468104201658 -0.001511017401060884 0.3323137747206621 0.17991300737830224
47953000.0 0.9115999775902927 -0.40714557143407293 0.03501717751189641 -0.07317471947565181 0.002098370583847725 0.00035325970611938917 0.3345992316366557 0.17374790005395643
48952000.0 0.9062863432156807 -0.4157393847613543 0.03830318858570903 -0.08026142223520343 -0.0011121154523082112 0.00430551714392607 0.3432111679528069 0.1627953686241417
49951000.0 0.9050673555568532 -0.4186257060469706 0.034869731335738556 -0.08677601060237451 -0.0006980570039502022 -0.0026191633820920883 0.3558508976117906 0.1497489577889707
50950000.0 0.9001281623210357 -0.43060574405081414 0.03750462670179957 -0.09636995698498918 0.0016015941436442 0.0026921913165383698 0.35326121478219114 0.14151143997433788
51949000.0 0.8973263939376125 -0.4376539552293804 0.04060042725285895 -0.1040805541353682 -0.00043185590671392235 -0.0032133584235963 0.3626220710002444 0.1316939059808529
52948000.0 0.892272595081707 -0.446383134917927 0.04138691826744674 -0.1135978228187657 -0.0001509907060480771 -0.0021382636712209053 0.37578203666199744 0.14042026132350433
53947000.0 0.8879519511918755 -0.4537698137641385 0.04029659639628857 -0.12114252784235031 -0.0037718365427958688 0.002438402343119303 0.37263176216917043 0.12487956504848513
54946000.0 0.8838523398307035 -0.46213750723869035 0.04148734099161344 -0.13263671825424359 0.0008519371854447421 0.0012690923789860577 0.38584340700117165 0.11551772900593317
55945000.0 0.8804878929807407 -0.471717539054184 0.04471360923777841 -0.14395411669449143 -0.00103733326850858 -0.0029255791024249034 0.38767715011150733 0.10186219809345282
56944000.0 0.8762930738403611 -0.479957157741617 0.045031048534258426 -0.1529104360496865 0.0009083934641809783 -0.0013629296795056162 0.40003371447615743 0.11316488230651846
57943000.0 0.871700130599286 -0.4892919644856103 0.05036167978920913 -0.16379952440544251 -0.0025678742838121027 0.0017344855938682454 0.4089374592626572 0.09286616141180068
58942000.0 0.8651620503931166 -0.49349396968309367 0.04614556900389768 -0.1769006924493698 -0.00220344069649043 0.001658762124914169 0.42386394570610153 0.08430574806912652
59941000.0 0.8651160775824144 -0.501620386147152 0.048314773961466655 -0.1838380878249727 -0.0021122176686717295 -0.0007385639091642398 0.41953715271198344 0.08729539224565001
60940000.0 0.8550462569868048 -0.5087501257325199 0.04958618069207075 -0.18957391263930096 0.0005148691909554483 -0.003219209234688681 0.4069006436393484 0.07581565413451233
61939000.0 0.8525234815959896 -0.5157034807110115 0.053878590531515155 -0.19616133767533633 0.0011398171328310964 0.00028765888281208926 0.41190584461238566 0.07048088301551865
62938000.0 0.8459807930174567 -0.5279653666961074 0.05482925551305189 -0.21554767577295855 0.0006503036572115714 0.0038428461520188728 0.4465532394010209 0.04766168272621651
63937000.0 0.8416784226176598 -0.5323732089285186 0.056950708462927734 -0.23316191408240458 -0.0015473870535552062 -0.0007208686410891636 0.44020645857042023 0.04115093339328879
64936000.0 0.8353444432046423 -0.5417301778054515 0.05142372971428778 -0.25219829100666386 0.0005516163538962817 0.0029162762190771937 0.44017344912733425 0.04268591551502746
65935000.0 0.8316324593038805 -0.5526884594680618 0.05377383442402478 -0.2658747476187567 -0.0014415243047829767 -0.001222611467523496 0.4422252369699853 0.017155565552168385
66934000.0 0.8280230577372025 -0.5554673752305651 0.055838201150587546 -0.27708488274769977 0.004287107697635672 -0.0037980250619858965 0.4394489857272369 0.003054150800591398
67933000.0 0.8240844325107791 -0.5645938295964515 0.0550221491528849 -0.2891854772173176 0.0006782686531012156 0.002364674813225756 0.4492905233739124 -0.0032206968804672094
68932000.0 0.8082578029271236 -0.5691365621442881 0.048810003182756655 -0.30628232391763854 -7.236792267175713e-05 0.0017580677305244 0.4526647785012837 -0.00992825364672771
69931000.0 0.810707963354258 -0.5818807910250956 0.05002395712779284 -0.322686450396723 -0.0029775352047334293 -0.00025110948387469645 0.4583171127099707 -0.02656032887608843
70930000.0 0.8051006444901724 -0.5873231525851073 0.049895889415137104 -0.33568422935466063 0.0036491046498200726 0.0010635423549447964 0.4511805343217788 -0.03326040100651435
71929000.0 0.8007224963593387 -0.5984875001209874 0.04471772335060456 -0.35302149802681815 -0.0005189054504443194 0.003588521736985186 0.4579428072198192 -0.04599320158807663
72928000.0 0.794483810191328 -0.605675834063792 0.04455627512747428 -0.36648917822921434 0.0017587121209408237 0.0001894561621124788 0.46412788937578975 -0.05311583817304108
73927000.0 0.7892881648091343 -0.611893393071235 0.032548302299954104 -0.3881925336758969 0.00019226141655287617 -0.0007848797431015031 0.44911996691244493 -0.05210178241494612
74926000.0 0.783907692735767 -0.6205236460665188 0.03179568960198707 -0.40835983901064093 0.001062926542035086 -0.0016465689405054788 0.46237492155803134 -0.05676515691244416
75925000.0 0.7786603305563907 -0.6256164522539447 0.019975633233192455 -0.4287884519240211 0.00256098333039772 0.002048350185081887 0.4747190879329549 -0.07900287909376097
76924000.0 0.7684704947776974 -0.6335712427897284 0.004862960055799332 -0.44810755386346224 0.0029633194533727914 -0.0012541330541303742 0.4606264715993814 -0.08682125381439904
77923000.0 0.7657484386069665 -0.641517028733449 -0.007603869377449313 -0.4714449674832161 0.0037953876400933294 -0.006441306750646703 0.4576189347327094 -0.09563906285666048
78922000.0 0.7582741565374781 -0.6504565624308639 -0.01951561454690304 -0.5012636105404986 -0.0034744990338597616 0.0005765949014486518 0.46432567565490146 -0.10635938663145478
79921000.0 0.749461278259013 -0.653662152891206 -0.04326382803156987 -0.5244837309435487 -0.001657937179444639 0.0015940807175344525 0.4573471324676616 -0.12146925125976177
80920000.0 0.7467267976212109 -0.6642091027819259 -0.05405113251619054 -0.5514502512043377 0.0024819865400607655 0.000698297788759345 0.47468609901640557 -0.12006245335485691
81919000.0 0.7403697248499058 -0.6701860833221431 -0.07577926611446877 -0.5815667118226013 -0.0002516276910417899 0.004634154123636496 0.4667637022519615 -0.14435685208552526
82918000.0 0.7307950319785678 -0.6793703490228611 -0.09166987268982156 -0.6135728879367406 0.0009376697162242875 -0.0029635179465521823 0.4619990575229632 -0.1470179708535448
83917000.0 0.7242981877424743 -0.6865263417254777 -0.11212513272569576 -0.6425687251806184 -0.0011003589138890144 -0.00037045114717866405 0.4760458836359983 -0.15259306459410785
84916000.0 0.7179238539595324 -0.6931615526130196 -0.1287239529424286 -0.6765566096372686 0.002470301236436245 -0.0008140496809541536 0.4605855625376858 -0.1653296463186307
85915000.0 0.7103060325849 -0.7012027064455035 -0.15043869828304693 -0.7064879986297732 0.00012715739210935248 -0.00022157300515168447 0.46771740622860836 -0.17699091957437516
86914000.0 0.7023288008751415 -0.7098165224269479 -0.16336551894308396 -0.7409070035203182 0.002933845968351483 -0.0002738321192131245 0.4582672209865899 -0.17729435499820065
87913000.0 0.6966546885691481 -0.7157264984389102 -0.18527144568326778 -0.7728378079522457 -0.0016147070055633434 -0.003780663548133404 0.45725011183016934 -0.18372621679906656
88912000.0 0.6893144167717695 -0.7238399086507978 -0.20162959192168486 -0.8110133429768555 0.0016231525003899156 0.0004543467211799429 0.4711899155729772 -0.21445463745820623
89911000.0 0.6821663467720757 -0.7324671842974537 -0.2192629679554632 -0.8476212994871952 0.0021824842466416513 0.0031436981016727773 0.47588476088786613 -0.21326251963178725
90910000.0 0.6746924472674246 -0.7367153735794397 -0.23788119375621766 -0.8817929813386568 -0.003925450743105331 -0.00345707680874374 0.45540006709025244 -0.21158639631175152
91909000.0 0.6666111422404094 -0.7403219568504884 -0.25514436231043014 -0.9141158109770359 0.0032751959166675278 0.0005215799299899833 0.4732923053680481 -0.2322626468987174
92908000.0 0.6570105293901748 -0.7497929008062441 -0.2748900905866517 -0.9480988495986388 0.00187922037386569 0.000532954812989897 0.45860151057317866 -0.23737506930804392
93907000.0 0.6516515557578674 -0.7554726757840756 -0.2895741668055452 -0.9775993728633803 0.00046381594875091823 -0.00031845567632762583 0.46137983978037306 -0.25173824184306454
94906000.0 0.637334786802772 -0.7621320284813289 -0.3115454499122561 -1.0096722943693017 -0.002665685835043804 -0.0005498815014235477 0.45517935432264794 -0.25105649080519166
95905000.0 0.6345948224917725 -0.7684777452754477 -0.32792488301873407 -1.0464603924473923 0.0023359282075332928 -0.0003228153739822492 0.4601609808709507 -0.2695815601425375
96904000.0 0.6234577244549485 -0.778334423655062 -0.3541480134919218 -1.0841817301765997 -0.0013409754320666527 1.6716779284709463e-05 0.44538773222421546 -0.2728533957076043
97903000.0 0.6150541823094154 -0.7849458251680153 -0.3729661169996865 -1.1200986457268736 -0.004113358311670386 -0.0011006928399845048 0.45410283924875916 -0.286582985669449
98902000.0 0.6089639685876436 -0.7897959738134827 -0.39377539514631127 -1.1540210325649904 0.00446040480573609 0.0015746398000388519 0.4474716614724705 -0.30545312713584505
99901000.0 0.60037150382396 -0.7967160990353821 -0.42236495115358574 -1.1891799474537186 0.003691539110574022 0.00416071123396017 0.4539658367448629 -0.3171625067335931
100900000.0 0.5903002745962236 -0.800095366278685 -0.4565395544944065 -1.2151520765497004 -0.0034298365174790595 0.0003484189632714008 0.4630224339987112 -0.3150373566799803
101899000.0 0.5811624482313087 -0.8080420762941689 -0.47957323342528246 -1.2566405257920896 0.002201771609008864 -0.000658884052433748 0.4461986502567896 -0.31755083551774677
102898000.0 0.5715004104401381 -0.814325614003854 -0.5195033997940249 -1.2924611983001462 -0.0026887605055746547 -0.0018075361796273755 0.4459001910156988 -0.3476981744576226
103897000.0 0.5647528502446215 -0.8206936491435621 -0.5513719338650764 -1.3305007030989824 0.00042803604637805826 0.0015194129369717243 0.4574009461376359 -0.3289085415269654
104896000.0 0.5565687839052288 -0.8300750380431006 -0.5924129223892391 -1.3605558346096058 -0.0032972535531597823 -0.0005702038631710512 0.44132450653722277 -0.3416029635624914
105895000.0 0.5467423826281209 -0.8337250896585309 -0.6410018546778632 -1.4043293639757521 -0.001524920665353799 -0.0012199636511703645 0.42867040570845816 -0.3592526111175059
106894000.0 0.5353883134995845 -0.8393823461695336 -0.6944680085170039 -1.4386205587893655 -0.0025357421445154436 -0.0008489346919270172 0.42550080079211977 -0.37401336751413694
107893000.0 0.527006634593367 -0.8466582248933587 -0.7463002956819289 -1.477548408892604 -0.0017142953575933334 0.0007033703515182776 0.4352326840618819 -0.37479064106416804
108892000.0 0.5193909788151428 -0.8488783338355668 -0.8093244164412796 -1.5143226538277708 -0.0007910155428700231 0.00025584343286284025 0.4106998488109196 -0.3829644204409697
109891000.0 0.5063142611391336 -0.8577694299805357 -0.8615916995632956 -1.547211142974233 -0.0006078480720298835 0.001524968912776111 0.42730428988961006 -0.3797269872249483
110890000.0 0.49016321583262434 -0.8730183326652541 -0.9481418087712816 -1.557422359689215 7.678954276662338e-05 -0.004154968774523546 0.4178506674886337 -0.38839311550194
111889000.0 0.4885510281972336 -0.8631107851813845 -0.9891916377328466 -1.6189787057090679 -0.0018993511420482964 -0.0017770001637590902 0.4158614142711176 -0.39367529032239995
