! Created with skrf 1.9.0 (http://scikit-rf.org).
# Hz S RI R 50.0 
!freq ReS11 ImS11 ReS21 ImS21 ReS12 ImS12 ReS22 ImS22
1000000.0 0.985601871113789 0.013475280257119155 0.0029514326624379256 -0.04837753879741294 -0.00880246058236137 0.0015213892916588847 0.2861171996591993 0.29616069435220116
1999000.0 0.9932682222040994 -0.01336824566455414 0.006917911665818501 -0.02448702265249763 -0.0020849098620370167 -0.003898125051108646 0.26604429367567173 -0.05924421185080397
2998000.0 0.9972627771123529 -0.018985617630129303 0.004121539499217647 -0.017759280887152746 -0.0006509070164249054 -0.0010956120364608213 0.17705356657409635 -0.147241523720016
3997000.0 0.998048097876349 -0.02709077523515613 0.0116801385360302 -0.009675473698147408 8.581695910607641e-05 -0.007050541690621511 0.08646579868525546 -0.23793951697633345
4996000.0 0.992538207651022 -0.039965617888212644 0.009293831654032976 -0.001632856498714657 -0.002117443495254772 -0.0011621229570502663 -0.06416536248496602 -0.18768868350865728
5995000.0 1.0003816925426898 -0.04669474882331967 0.005161332389743437 0.0031631814877248663 0.00025526108948872866 -0.002630558381132992 -0.1322808510566698 -0.1092880992868077
6994000.0 0.9955095772600857 -0.05835031499225559 0.009302458367272535 0.0019074832967974373 0.0002672547548590253 0.002437531536540654 -0.1450243450375412 -0.006930266087864437
7993000.0 0.9960439016734084 -0.06703983812050548 0.008531030918541566 0.006344508973544593 0.0004819030543600773 0.002819157790328067 -0.15491634547046576 0.04977147651582486
8992000.0 0.9948605153497927 -0.07466114071613732 0.0018296046237070655 0.007360943928886412 0.002750760625802428 0.0012804456379069888 -0.1473625745962638 0.07175046833993895
9991000.0 0.9927144141615034 -0.0843529922240048 -3.47817603662823e-05 0.007138269402729025 -0.0004981472857040644 0.0013383680694598454 -0.13914372642016393 0.10143091702193457
10990000.0 0.9928905121372973 -0.0915793435100711 0.0017418165396960352 0.004321397388118955 -0.00328118733414207 0.005566528392594945 -0.13074356094827888 0.1121484839646247
11989000.0 0.989605873307342 -0.09865054339745462 0.002368599436466364 0.0035453937405274497 0.002142181613709514 -0.0007363915127470584 -0.11571198104747875 0.1436699309739791
12988000.0 0.9892449896835532 -0.11022644540212033 0.0036331646965754296 -0.005863867081300357 -0.00016538103819396831 0.003783141403067282 -0.10659058246304146 0.16931901429606055
13987000.0 0.9879506244779522 -0.12080932742807644 -0.0002100226925886022 -0.00427132115530802 -0.0032796877313665445 0.0023876669452676546 -0.09074538092271416 0.18292069813687437
14986000.0 0.9887213820382125 -0.12577488573418427 0.00036648028541264797 0.0009587243623679666 0.0014089453508855493 0.0036323464810942797 -0.08309782374004795 0.20585007756624216
15985000.0 0.990511451551914 -0.13265062801781347 0.00012954797680059192 -0.0032834169851110543 0.000976670405616007 0.0003684709375498485 -0.062443003314749446 0.21515343831025383
16984000.0 0.9862224988182643 -0.14596027058641267 -0.0021276189589535446 -0.006483400476995188 -0.0002441131456329139 0.0032262468626143913 -0.052983589380208154 0.219717578654234
17983000.0 0.9866023554524986 -0.14785275207645449 -0.0036906421281603283 -0.0033179246671147015 -0.0018715341132226955 0.0014371948342322062 -0.05128315379511481 0.23526144200328836
18982000.0 0.9836473580099785 -0.16177428856894818 -0.0060954294056280375 -0.01086042918274895 0.0011192131119826647 0.0013815336363860562 0.006152043125830564 0.23607364194561728
19981000.0 0.9837068556915338 -0.1622340743847478 -0.005554229379980964 -0.0021590663352144307 -0.00041332509698405656 -0.000962163708690013 -0.0020008357898657304 0.23258168853267466
20980000.0 0.9798044285435858 -0.17741210857034842 -0.0048005929377478666 -0.0036173664465388787 0.0033679450614282416 -4.668999166971827e-05 0.002715817636957799 0.2560386425538748
21979000.0 0.9779169958674034 -0.1845412285579372 -0.0058448273003189905 -0.0024817046284249505 -0.003070726879344352 0.0042854017644174385 0.026762907111217888 0.24702317669359755
22978000.0 0.9766362203494101 -0.1930363170743226 -0.002691041476505109 0.00019751261191428433 0.0013942699626631235 0.0020312876682822088 0.030262802493361444 0.2597508681073035
23977000.0 0.9783455421311018 -0.20174395734494877 -0.009041726025233891 0.0005386354339524509 0.002164691389679059 0.0029017668542371464 0.04672891255139583 0.2599615190075716
24976000.0 0.9737841283704668 -0.20834217142424655 -0.0067495840643432715 -0.00041058907465660235 0.0002766959980532199 0.001844267953514709 0.06772263310810782 0.26328971943498786
25975000.0 0.9766626596592192 -0.21604010310213273 -0.004232935326513974 -0.0021803644403745976 -0.0021566990587642233 0.028311598393017754 0.08725641925503823 0.2709325295379442
26974000.0 0.9722744214623907 -0.22587923902380527 -0.001905577416993251 -0.005066826299602674 0.0014254878448106006 -0.0007410162157451273 0.09787404683112705 0.26853970465817223
27973000.0 0.9702399680148196 -0.23164313171040019 -0.004098428665441775 -0.003125318576447073 0.00025922851770262715 0.001604090761699817 0.11147111305982563 0.26203832364217944
28972000.0 0.9657654231127414 -0.2461628346295754 0.002975360110067233 -0.0025533504916522335 0.0022685243355784162 -0.0011064059879124408 0.11917169380975255 0.24903021266407532
29971000.0 0.9662007324493159 -0.2500750739266223 0.0005154579220479411 -0.0008711351808841258 -0.0003862196029698066 -0.0007094712422401946 0.15575377319323214 0.2665395514010467
30970000.0 0.9609728264642974 -0.25642628487387814 0.0033059572545825412 0.000584976095974928 -0.001984943135641354 0.002537195467592173 0.17656979524007518 0.2536105113769497
31969000.0 0.9597038777700487 -0.26645537639749617 0.006255981867021195 -0.00384151036774626 -0.00012894822258642814 0.0009232605904368501 0.15856404790478315 0.2495934357571321
32968000.0 0.9576418463333206 -0.27504402266057115 0.007741636342543347 -0.0069764120352163875 -0.005041092588085268 -0.0010888696775793567 0.16547253763797468 0.25005139375866126
33967000.0 0.955161561410644 -0.2859368842814451 0.011934392782687486 -0.010268737011363027 -0.0029827598726217502 0.0020288142006791754 0.1943861619076894 0.24912839608482523
34966000.0 0.9533275570193568 -0.293940188821646 0.01528358547281452 -0.012348356742302715 0.0032482566558141154 0.00040037042226330705 0.20545029264833234 0.24301808138431716
35965000.0 0.9500532531388338 -0.30139414766932515 0.013309828426918684 -0.015657155611923497 -0.0037213901839579185 0.0013347931575122976 0.2150325333031946 0.25725384099408605
36964000.0 0.9495635285223247 -0.30970500740903795 0.015402553909748144 -0.013763942863413163 -0.002243256103930824 2.821738264013593e-05 0.22135629818277813 0.2520226197781005
37963000.0 0.9463468617089561 -0.31812968517038787 0.023006628950416316 -0.019379192614447743 0.0018835181554797532 -0.0017238454752030847 0.2367668657872938 0.23276604048112687
38962000.0 0.943392426010424 -0.3284588981838776 0.021796059509315475 -0.02771638744418865 0.0027222018900188213 -0.0013829274539822964 0.23956257158866529 0.2367327603835718
39961000.0 0.9391568013729831 -0.3351314989192557 0.024009148691556455 -0.025343703720583793 0.0005106084467207677 -0.0012617102516371992 0.25570364134673873 0.2271299623343834
40960000.0 0.9377001229981763 -0.3437081123834657 0.023300490498531334 -0.022480072380173757 -0.0005335523225068436 -0.0008847432208706395 0.2664053214566012 0.22101724600040829
41959000.0 0.9347177911372568 -0.3538825679240043 0.03126247797729809 -0.03309532326491089 0.00038733539993871804 0.0008352341560271067 0.2725988955350549 0.21972652194504924
42958000.0 0.9298465158764225 -0.36166755489050684 0.033580213271979346 -0.0387173775359125 -0.00021086277788894328 -0.002768295109536185 0.2860778333345985 0.20784615257584557
43957000.0 0.9277998377823542 -0.36886537707819234 0.03200317505623672 -0.04613856215108863 -0.0005674301929347744 0.0005818943470734225 0.2893992190783816 0.2088288425525144
44956000.0 0.92392353843721 -0.37731445206705944 0.03673321972944845 -0.0496652818379002 0.0006017879163058023 0.0010346883820031617 0.3061053529138561 0.1950474677161526
45955000.0 0.9194617936944677 -0.3863563581218151 0.034394227990208054 -0.05607938880058866 -0.0003679865982404562 0.0007418410810789715 0.31165474792346837 0.18999639565465282
46954000.0 0.9149337678767469 -0.39412439876117683 0.03673766459461828 -0.06668126374794746 -0.0004168338978616388 -0.00010838289144123667 0.32790870661131805 0.17735608892984916
47953000.0 0.9149487439338044 -0.40207948833402773 0.03528362680684684 -0.07132729635865333 7.113053653574463e-05 -0.0006777140007555821 0.342128541401737 0.17525156207098397
48952000.0 0.9070294145339526 -0.41390378812375606 0.03595630757119104 -0.08086497103496613 -0.001908128369371837 0.0029449878784297864 0.33987052502876447 0.16086559924568083
49951000.0 0.9042632956552696 -0.41741984010306743 0.0381991690145685 -0.08610131212691495 -0.001323827420284749 0.00022592490484058393 0.35763388727870876 0.15663946029950385
50950000.0 0.9016607164225741 -0.4281669027427627 0.03455695628317113 -0.09281657345050506 -0.001374461794976346 -0.0043467811224687175 0.35941862976065114 0.15257660065021766
51949000.0 0.8972650057299403 -0.43565871677547097 0.03811009386297103 -0.09980908617959357 -0.0010479932478607535 0.0012446344219176446 0.36122299351903925 0.1433786034181674
52948000.0 0.8941693175047116 -0.4432313446250821 0.040006247231096276 -0.11182243197464631 0.000500345506382313 0.0007040414093439581 0.3838473635659767 0.1380990500164606
53947000.0 0.8894653967015554 -0.45048176317309974 0.0408326132788269 -0.12000008364606156 0.0012273004090699487 -0.0008800592785834011 0.36888047306112337 0.132045406940953
54946000.0 0.8832541232872069 -0.46135666028371985 0.04153337842506461 -0.12937111997602238 0.0022650471212313453 0.0030997640069207843 0.39231151014586163 0.11365889033631946
55945000.0 0.881403003716504 -0.46599240444080675 0.04237116276729089 -0.13818174681957 -0.0012229001539254857 -0.0017082901939743794 0.39159212900005913 0.10495895931482487
56944000.0 0.8779226339847769 -0.4771057281465311 0.04462504910131716 -0.14760177409958536 0.004331905742521753 -0.0026781209443389703 0.39695391644687916 0.10359160458209962
57943000.0 0.8715547928234633 -0.4859670852500712 0.046461593559808716 -0.15733555344223102 -0.0024947633269286167 -0.002667637956622311 0.4038561912295306 0.09490052724309202
58942000.0 0.8675862657697808 -0.4898135713612345 0.04656988623638177 -0.17004830981803512 -0.0025680288838253614 0.0019650301752488866 0.4263349240198089 0.0908729340093286
59941000.0 0.8634260241922348 -0.5015646318796715 0.048515443296303036 -0.18014131074512918 -0.0004052025276080088 -8.900023658575782e-05 0.42142624087401914 0.09002484020559658
60940000.0 0.8555143623063856 -0.5083933381069213 0.048914713284465144 -0.18417018372673297 0.003203078701057035 -0.0018197516399044063 0.4237385807270825 0.07896108328162552
61939000.0 0.853513723815864 -0.513919734555871 0.05192132872953495 -0.19016898422710674 0.0002108568032996334 -0.00032875904556264266 0.4202425547068337 0.06452767895038464
62938000.0 0.8466976245902565 -0.5232251053640459 0.052260176075351036 -0.20689630431562403 0.0010314252476531294 -1.221542246220801e-05 0.4417584721343793 0.060508050050045545
63937000.0 0.8419030141736938 -0.5322127357751307 0.053192472124529024 -0.22891446441999075 0.0038585746432432573 0.0030932208531917293 0.438142850183687 0.0335575707576573
64936000.0 0.8378842146985654 -0.5381131213006876 0.0538221403574243 -0.2408006428989668 -0.00016434647317493982 -0.0010995507114412498 0.4386149276091409 0.031902977615742865
65935000.0 0.833475462683223 -0.5469047924181936 0.0543726197613878 -0.2527525072185903 -0.0026298992009824457 -0.0013188588367493675 0.4440413453271888 0.009385909410401516
66934000.0 0.8300502691057051 -0.5540454557295336 0.05667564084015547 -0.2670359737956624 -0.001167488140081672 0.004244129469872195 0.451741367107039 0.007545144100908797
67933000.0 0.8254159725750082 -0.5624221235718357 0.05660521071799465 -0.28254442392050744 2.1024598415272935e-05 0.0010715314268287825 0.4456673586202631 0.01988824215826871
68932000.0 0.8102845201992419 -0.566330695950241 0.050650899232081284 -0.29194682430494345 -0.0007429957697239316 -0.0016599309326741105 0.4595690405181063 -0.009367409137919088
69931000.0 0.8103568049546132 -0.578179136830231 0.051112416207007925 -0.3089128343557962 -0.002046947335618294 0.0004087766061141075 0.45783974818764145 -0.013296647715761131
70930000.0 0.8064716258473742 -0.5849149069335582 0.04804113309768259 -0.3219993661250605 0.0009559473947569503 0.002323420719748664 0.4560988589854199 -0.03197868928267778
71929000.0 0.8025970834314111 -0.5932337573304409 0.047195928104478826 -0.34093888112492665 -0.0010096968952480285 -0.005666017107892147 0.4582846317900265 -0.04981564164165531
72928000.0 0.7971204805158756 -0.6021922952596949 0.04048088843224684 -0.35605502603920086 -0.001293493573049747 -0.0006725867269490227 0.4657588485922737 -0.05135694568224868
73927000.0 0.7875961777668584 -0.6092316662165839 0.036808274241330194 -0.3745890650412329 0.00027437154497451276 0.004345520290475273 0.4636387889116408 -0.04915057292633534
74926000.0 0.785532300190715 -0.6181781694374885 0.029706807870533713 -0.3912022268739798 0.0032534341438511783 0.0019934448582851127 0.46637907910476617 -0.05745114605297489
75925000.0 0.7769903348437383 -0.621093993705796 0.020357755467517488 -0.41129256399005115 -0.002294628216650103 0.003363182761753094 0.4724101202055998 -0.0751391356972564
76924000.0 0.7715978735126717 -0.6314447453766029 0.010930348901618264 -0.43213361398522204 0.002677769767458277 -0.003902386735138695 0.4761342504939122 -0.08003175031573696
77923000.0 0.7672094362808267 -0.637039177485699 -0.0023859868757303837 -0.4548462853006374 -7.266953971221487e-05 -0.002599624080375279 0.46576025541327887 -0.09808391102702452
78922000.0 0.762122648856639 -0.6458123363522412 -0.01861450100288897 -0.481638861877884 -0.0046750807735172996 -0.0006544936879671878 0.46144545821051497 -0.10947084376165146
79921000.0 0.7527212052860504 -0.6522720054967218 -0.03353353518354333 -0.506907678312436 -0.001114034755767836 0.003935153060424245 0.46713754452777834 -0.10885616453631769
80920000.0 0.7462782193726194 -0.6612419648419424 -0.045717810873320254 -0.5351027418406313 -0.0026391773653057556 0.0024204793829648227 0.4736925529541378 -0.1323363529072466
81919000.0 0.7423984801702441 -0.6663281240364327 -0.06365948762174144 -0.5638618330236028 0.0018585293153439415 -0.002248958888465323 0.47228661107250436 -0.14313421429780157
82918000.0 0.7323804670956304 -0.6749593640433372 -0.08198301175112017 -0.5923044600880663 0.0010045098214347468 -1.8917888569899414e-05 0.4789658284139056 -0.13742700752683623
83917000.0 0.7237121518024439 -0.6835806944490725 -0.10261542214417954 -0.6238216720347024 0.004747231964680342 0.0010053019588666958 0.4825882914853421 -0.15467946065738178
84916000.0 0.7191153493480544 -0.6901524996491901 -0.11604918894686692 -0.6522248110466009 -0.00039676034063291333 0.0024091355074262336 0.47760154787247766 -0.17817244963746065
85915000.0 0.7129134813523511 -0.6959337878728629 -0.13835432308029177 -0.680695888674226 -0.0020855286360606635 0.0007035952926505045 0.4752410939967379 -0.16780167611434552
86914000.0 0.7058489621514702 -0.7063243727181531 -0.15287499240187372 -0.7150632932238427 0.0015483323506805574 0.0002266892788753342 0.4604569462392967 -0.17162748555223156
87913000.0 0.6980283107573481 -0.7124243853148509 -0.17033931086985363 -0.7466752872228888 0.0003970730427586482 -0.0027822221910585054 0.47556184964857423 -0.19415373779257225
88912000.0 0.6922245506654432 -0.7183959229123069 -0.18323630728587312 -0.7851654185668374 -0.0023630361159726367 -0.001672734263237576 0.4840688849625115 -0.2155325119701221
89911000.0 0.6847437730657011 -0.7279335222345152 -0.20186515643212802 -0.8181250542482075 0.002387154902128843 0.00030460717467458706 0.4751470272480376 -0.20961825083315763
90910000.0 0.6780306434241478 -0.7304401009623146 -0.21716177987597834 -0.8512148478040648 -0.0009002718398946608 -0.00022792551097383147 0.4703649952212694 -0.21002406407003762
91909000.0 0.667253891316825 -0.7372271567560127 -0.2351980231156883 -0.8817797512800303 -0.0033102096722298466 -0.0001901874326808526 0.4760195444977099 -0.22541881926137575
92908000.0 0.6598489681186519 -0.7462101025165435 -0.25488040071234636 -0.913567391475152 0.0005940784988524622 1.5530751407933933e-05 0.46215407150530435 -0.239799558289981
93907000.0 0.6544650357818171 -0.751451818269212 -0.2665962686510074 -0.9458678055935511 0.0005597831827368906 0.0021352287385713402 0.47231885171865545 -0.24975367191128695
94906000.0 0.6433242422696949 -0.7602989992372231 -0.28410958853453394 -0.9836666951171712 0.0028411786122554982 0.0019616311856620557 0.4802938948030528 -0.2510595662087267
95905000.0 0.6383341513523351 -0.7652184941846965 -0.3059342704634526 -1.0201601814131913 -0.0019468357418196984 0.000774796681465109 0.47189194598316786 -0.2774720128251117
96904000.0 0.62807795136144 -0.7752496816346439 -0.325756192417165 -1.0545660988130952 -0.0007030875006624922 -0.0006605644541618704 0.4663976394936695 -0.27520821067463275
97903000.0 0.6184729464024291 -0.77768656920915 -0.3401210658947971 -1.0832371029089556 0.00559134708077217 -0.0009623689097433097 0.4499203917204006 -0.2858688752630501
98902000.0 0.613982971156718 -0.7855823619173032 -0.3620848154143934 -1.1251527916720132 0.003744095426356352 -0.0017097174606458953 0.4519541431888976 -0.3007341722026106
99901000.0 0.6061294131732182 -0.7945063368477876 -0.3877196709602728 -1.1566025907572823 0.00293629017397675 3.0370197094970572e-05 0.47019927264497524 -0.3138185982604222
100900000.0 0.5940185888628565 -0.7963420653295797 -0.41951857227170486 -1.1838269141995 0.0008628032665258308 -0.0013468485862922217 0.4675262447438363 -0.3164669894202656
101899000.0 0.5857771834439373 -0.8043919652112941 -0.4449468179950625 -1.2185018966157044 0.0009338757050051481 0.0020006360820002066 0.45450089290288215 -0.31808299343171875
102898000.0 0.5767462850241813 -0.8096420542627499 -0.48001818248861616 -1.256861067480939 -0.0012255039584998116 -0.0017292942321656232 0.4538144724795038 -0.33295022701020904
103897000.0 0.5681738771443711 -0.8169132380612603 -0.5111754270298283 -1.2916004611043126 -0.000547865316974131 -0.0019372325814266175 0.45932987785579854 -0.33401084291228816
104896000.0 0.5606052554177544 -0.8270665642226112 -0.5535002929733788 -1.321140085055095 -0.0001184407167768587 0.0025353394571751894 0.4357767376726361 -0.33471266707938396
105895000.0 0.550369074305382 -0.8285882371710552 -0.5930899297547246 -1.366093696410512 -0.00415071329838796 0.0015795537746735133 0.4533845058149783 -0.3555410497311216
106894000.0 0.5410040035408561 -0.8361117741461157 -0.6431440997577804 -1.4039505153126848 -0.0020485725668864157 4.9777159824560285e-06 0.43675067016171537 -0.35942230325661834
107893000.0 0.5340091332362867 -0.8409409251149749 -0.6903639265373044 -1.436198176596808 0.0006693405086088756 -0.00044664332294148495 0.4450361082629208 -0.37264060991683906
108892000.0 0.5230043365252718 -0.845564137694924 -0.7498149773286414 -1.4758683921588838 -0.002487174058797825 -0.0014486879499889377 0.43948831945150113 -0.37664609992232134
109891000.0 0.5118365327033407 -0.8524033520113715 -0.8072312051630945 -1.5126150631736874 -0.002728374637262235 -0.0029936542688233335 0.4493937061991308 -0.3756637200537327
110890000.0 0.5039419300702336 -0.8550837278477984 -0.8630218275266703 -1.5256002637036106 -0.0008191122146263402 -0.0009478308750441358 0.4268386458422429 -0.381002057180221
111889000.0 0.49284878873446175 -0.8598265599508856 -0.9264322971581632 -1.5825504258892509 -0.0007094132234676979 -0.0016586167340061327 0.4313376821018204 -0.40211854816711556
