! Created with skrf 1.9.0 (http://scikit-rf.org).
# Hz S RI R 50.0 
!freq ReS11 ImS11 ReS21 ImS21 ReS12 ImS12 ReS22 ImS22
1000000.0 0.9817489319809023 0.0004982381078742646 -0.02081759243075731 -0.0559914998419124 -0.0269801686186633 -0.004931516429871867 0.3307604215123622 0.3551676304408449
1999000.0 0.9947411414523916 -0.009211729709092072 -0.0005473835185274889 -0.020419347558364675 -0.0030606629853676586 0.0034308074535887804 0.25100942479337707 -0.04300194217867354
2998000.0 0.9992683293530156 -0.021155599247556767 0.013685311010302318 -0.015161797235199333 -0.0017224783845378258 -0.0003364931582305377 0.17080184206089602 -0.14695702132802207
3997000.0 1.0005207725268725 -0.027871554789613576 0.0109273923920851 -0.010378084016300923 0.0009185095248818126 0.007141022913318679 0.10940885347729962 -0.23123165004121468
4996000.0 0.9967795792746835 -0.03534771275817822 0.015562426455737587 0.0005507666359610405 0.00017645234209087224 -0.0029918261033306474 -0.03705512453907671 -0.2013908018148632
5995000.0 0.9980480724838456 -0.049123206290717335 0.007667207481018408 0.0036035312843952613 0.0014273718100648208 -0.0013178215108019288 -0.11983049482965032 -0.11417043907632635
6994000.0 0.9983224832749862 -0.05882935297753101 0.0038805314795515543 0.0013801929377842157 -0.0020922018868124274 6.399256182876628e-05 -0.15385315022583343 -0.03154261799339317
7993000.0 0.9965574020641272 -0.0690194853008716 0.0020280151181262976 0.004897641345857328 0.004283210282212661 0.003898704607128853 -0.16759552545351195 0.027818494699052874
8992000.0 0.9945718565073451 -0.07470675466879188 0.004569823620390587 0.004647036118529775 0.0007939322881957538 -0.0018839792534381197 -0.16586973428512874 0.05502639595158653
9991000.0 0.9964844369560564 -0.08304803668125595 0.00646212227563554 0.0012140843669345828 -0.000589170438567086 0.002116391841777809 -0.15278015268522677 0.0944057190882459
10990000.0 0.9932629342368995 -0.09439797824691229 0.0017746959720936716 0.001928878928143106 -0.0020199730489294794 -0.0016832518734873109 -0.13506109437301186 0.12055059483787041
11989000.0 0.9932666584578426 -0.10154628200476606 0.00678726205051261 -0.00446501059468747 0.0038235668765533104 0.005007264604484604 -0.12356695334169812 0.1256731750647313
12988000.0 0.9897571948452382 -0.11042278661619236 0.004596128106656123 -0.005619600918588936 -0.0015544715622938835 -0.0018871945794007603 -0.11404487175632096 0.17107505875224568
13987000.0 0.9914113956151671 -0.11665976996542811 0.0014685864198669086 -0.0024986647663467173 -0.0027499053781792973 0.0018984251408893048 -0.08841350504563915 0.18880706169461658
14986000.0 0.9901944384468917 -0.12553504867105783 0.0009194418379768687 -0.004541490118706273 -0.004194917282083567 0.0019633603568822047 -0.09331285925915542 0.20052808673729733
15985000.0 0.9902399537130558 -0.13268933103443173 -0.0015062629164428448 -0.006819671168593768 0.0014693611063572257 0.0018589990327121393 -0.0745950954395101 0.2081121996549226
16984000.0 0.988249174101324 -0.14461078798295499 0.0016060094029308751 -0.0034890520841336856 -0.004169001530758859 -0.0004601763949392568 -0.06441897863425178 0.22073308276968776
17983000.0 0.9882490231518153 -0.14840557527425563 -0.0048361766609569526 -0.0059561822980845084 -0.0048811890673105506 0.0002472022416907952 -0.05948980713367736 0.2182165264382097
18982000.0 0.9839068327642914 -0.16223415034369607 -0.0012292962388439125 -0.000722789480961926 0.004884944178733511 0.0013882631688759822 -0.028727717168139225 0.24015268015441218
19981000.0 0.9839434209752256 -0.16608160331466523 -0.004264797660910425 -0.006242088383986002 -0.004343192803563336 -0.003452881050959568 -0.021578933436722042 0.23625172535459615
20980000.0 0.9834306029686225 -0.1768861760278957 -0.006215871395878878 -0.005402784411652456 0.0011099171008655945 0.0006048696714021242 -0.004146138491253786 0.25021772746465487
21979000.0 0.9795455356658873 -0.18498179538005852 -0.0012839444993930514 -0.002831006360338727 -0.00036966599395419806 0.0032879680076439086 0.010810531664966719 0.2429425898691515
22978000.0 0.977734330575319 -0.19481815094193045 -0.005492028213743133 -0.00278671615166479 0.001283859365001259 -0.0012574746043553181 0.01620716899294738 0.24528720600837306
23977000.0 0.980587118510291 -0.1994006551159862 -0.006783437323382715 -0.004741662637697703 -0.002279066423771014 -0.0012589864816746836 0.036791801168242724 0.25563165961507295
24976000.0 0.9745686564127402 -0.21098906937295686 -0.005371259594029314 -0.0003300644930510479 -0.000973552831345346 -0.00025484873395302575 0.055253693299370105 0.2584561871597179
25975000.0 0.9766454153189007 -0.21901021297092998 -0.001948365475122086 -0.0029289784341733015 0.007125323216817696 0.028989090646627375 0.07716460234779829 0.26437627194685265
26974000.0 0.9723824754524216 -0.2260978124330718 -0.0033533211911110222 -0.0018654930818005613 0.00032785685867624026 0.0012728616391104526 0.07965087137588367 0.2641341733692792
27973000.0 0.9703383744193982 -0.23648216107376815 -0.004894411466721837 -0.00179418600541354 0.0009703034474543507 0.0020694795780239533 0.10564306623353821 0.2622755897177171
28972000.0 0.9679531034997123 -0.24401715629290358 -0.0013264341685928665 -0.0027452775431255306 0.0009385178769748274 0.00020587317064557696 0.10791880891060505 0.2587424375094204
29971000.0 0.9663552002816945 -0.253262168008817 0.0005610880924377215 -0.002436732714878798 -1.9543282344602957e-06 0.00043001498584984034 0.14799706160403248 0.2573925250907108
30970000.0 0.9633670700534401 -0.25867686760638303 -0.0013388590999094748 -0.0014331074822181312 0.00029191769677454213 -0.0041112696245726625 0.16074569305671854 0.2390015196221882
31969000.0 0.9623971079540183 -0.2667941154949667 0.006348246537916457 -0.005442130595596885 7.327444019759036e-05 -0.0002512898105387876 0.14607942197854487 0.2433232463276253
32968000.0 0.9612856288025354 -0.2742733286116498 0.006201817913897155 -0.007088465628650838 0.00026478326100042244 -0.0005320569103422886 0.1619399763179285 0.2433836249774186
33967000.0 0.9580711522543266 -0.2858806248612646 0.010474133333410943 -0.01083451010262715 -0.0010089158440465553 -0.0011654057631708481 0.18064593201188403 0.24545406683849783
34966000.0 0.9533618845835795 -0.2952257368053225 0.014796827956075013 -0.013995455871043177 0.0008441889110960731 0.00014804182530429172 0.19805352818552516 0.254144893842598
35965000.0 0.9511387275524845 -0.30090364354364457 0.016478189702408316 -0.014084571551220313 -5.0730663216659756e-05 -0.001389375281984892 0.20864269074779218 0.24568572091703078
36964000.0 0.9486060602511498 -0.3107526922422265 0.01635467765296275 -0.014130172064333854 -0.0017845387802422545 0.001502574230183483 0.19968643098504169 0.2420997290383783
37963000.0 0.9461191802127975 -0.3198739652901814 0.0223587048295002 -0.023847312730730996 0.0009433256296004571 0.0002265231435061351 0.22833888048231035 0.23403513807350634
38962000.0 0.9417153628753582 -0.3302615826379636 0.021069913748695993 -0.024853107333138676 0.0016193390578053686 -0.000430530193819227 0.23578626396516608 0.2295413841082889
39961000.0 0.9410627748839561 -0.3350395316670983 0.02576689345471193 -0.030785297718448713 0.00011070694789165833 0.0005494603013335118 0.2545562893375305 0.22006920144288125
40960000.0 0.9373758801756297 -0.34250369734203406 0.0239977964831786 -0.020438387041103335 0.0009443111272446613 -0.003989347714964304 0.2698753488449523 0.22237453260392775
41959000.0 0.9321043033107616 -0.3537199229709289 0.029331746752223026 -0.03131722946915091 -0.0023931761705502344 -0.0005822315319110741 0.25996675768641064 0.21331346157009182
42958000.0 0.929710452029263 -0.36270623271808194 0.03148216045784797 -0.04169027371457657 -0.0028488596401574006 0.0006393370854113234 0.27802551567323947 0.19580157677258186
43957000.0 0.9269598718427761 -0.36832146236029206 0.03243047539104487 -0.04864820345491531 0.0014100360878172692 -0.0016784108259460704 0.2774355356127981 0.19798091123196657
44956000.0 0.9239783372055079 -0.37801286533654466 0.032429349356590725 -0.051827348715597917 0.0012182068501180815 0.0005379219330175915 0.3002049111318561 0.19772101905795036
45955000.0 0.9196207304417865 -0.38543242462293564 0.03306580208724092 -0.0574030219938586 -0.001499406906296354 3.890159593586349e-05 0.30209483448530466 0.18699603416729563
46954000.0 0.9179782546469739 -0.3950002744977471 0.03593611417102094 -0.06554397393069289 0.0025637508207627525 0.0011168409662249646 0.31836104200038084 0.16853182700733918
47953000.0 0.912535202494308 -0.40426894939096225 0.033720234876666845 -0.07104099750666808 -0.002714299779072563 0.0007107259072037818 0.3260584558752292 0.16600523679167845
48952000.0 0.9073513548088487 -0.4154777279127569 0.03610630584832265 -0.07802190584808462 -0.0013481403226259187 -0.00015059674524877355 0.3317488833087 0.16457197008127036
49951000.0 0.9052423497016728 -0.4182929553155231 0.034943388148417895 -0.0842382902801274 0.0005048453979576396 0.001728158302805907 0.35463867440975083 0.1567038331946438
50950000.0 0.9023081204759581 -0.4296592006324824 0.03593057573659207 -0.09619902056719197 0.0021094903658969845 -0.00422319421318601 0.3539050263138394 0.14041358219132735
51949000.0 0.896004813973266 -0.43593077143249803 0.03879757572676107 -0.1037838883051037 -0.0015235304472927822 0.004715819697854431 0.36126518476947955 0.13601662373207846
52948000.0 0.8963636970210568 -0.44256966000364634 0.039371583527493405 -0.11405584637267663 -0.0017711115700992553 -0.00011629194392046782 0.37258601055909846 0.1349361180768715
53947000.0 0.8909774689414861 -0.45136218269879813 0.04168978012457609 -0.12278012054483617 -0.00010596226120761967 -0.002002562460829816 0.37202816247678405 0.12828803866747515
54946000.0 0.8836500918459229 -0.462777678897429 0.04129173403259859 -0.1321662391286865 0.0006859953505121781 0.001719568393930487 0.3768352642833301 0.11388509646460668
55945000.0 0.8818452595229815 -0.46860929645264776 0.043745416024761924 -0.14261410343251646 -0.0019238568173345408 0.0012301154081204783 0.38559713804045054 0.0945486834777391
56944000.0 0.8782573252106791 -0.4767821067886079 0.04409644402641898 -0.15312935707180678 0.001954984112182644 -0.0017099529335959625 0.3951827576601222 0.10487045335818443
57943000.0 0.8720650176359758 -0.48877431745291733 0.04424605473609991 -0.16484018535396655 -0.0034184835976234893 0.0004068797352967634 0.4026430985056685 0.08806688324202545
58942000.0 0.8670860903701741 -0.49155488970364863 0.04784294962674522 -0.1762559298099577 0.001782777328933981 0.0024008577364639954 0.41689865437158913 0.08986850214200873
59941000.0 0.8658163741406519 -0.4995328944153071 0.04633728895681851 -0.1859672713460417 -0.0015583755781341903 -0.000821265853941906 0.4175143487402435 0.08098442068083424
60940000.0 0.8571119008115963 -0.5082081362592814 0.04533865126196375 -0.18695073068214 -0.0004275166309787779 0.0018722440749679395 0.41473380658561654 0.0773995255141427
61939000.0 0.8544523957542672 -0.5145140240409324 0.046195637546746576 -0.19577922287081342 0.0014621753515027848 -0.00018136336801490073 0.4150610897766621 0.06309533254765848
62938000.0 0.8485974614265037 -0.5251850454130368 0.051687673277750285 -0.2108660880007559 -0.00024867535799436875 -0.003766053668376935 0.4383353603547745 0.05465415176306355
63937000.0 0.8441566684450147 -0.5325855191242187 0.05281477364343643 -0.23390592361118728 -0.0004086039864454672 -0.0018256663985199686 0.43090616286271854 0.03470384604245313
64936000.0 0.837730632990573 -0.5372392799770079 0.05256668719932541 -0.24691114418182564 0.0013198553799645544 4.781999138260286e-05 0.43725998106693703 0.040026515488509246
65935000.0 0.8360748040325753 -0.546926804904359 0.05146709181612648 -0.2605001585013537 0.0002956784752841767 -0.0018853270558326543 0.4343191232607131 0.008666124511884369
66934000.0 0.8284636131379483 -0.5559730746856505 0.05205652097843509 -0.2738892672333506 0.0011708557798767304 -0.00042523634607739423 0.42885014596994103 0.004384759236294685
67933000.0 0.8266046093250614 -0.5607745669942267 0.05509751930141964 -0.2897300660353352 -0.0030286791048325015 -0.0026845143080920612 0.43265440043570286 0.0004640814825795831
68932000.0 0.821399194540766 -0.5672755929191567 0.05050641684428432 -0.30112354996552726 -0.0024307216377841617 -0.003670951001553668 0.451216584706935 -0.015214542209983589
69931000.0 0.8133320076290914 -0.5777581344005738 0.0507644985312222 -0.31641518252492806 0.0028339871155339215 0.001916768603558532 0.44884928950763714 -0.02085047213013125
70930000.0 0.8070807708688241 -0.5837239214832511 0.04727740855207179 -0.3289601675665923 -0.0003273042277937865 -0.000671151220544456 0.4441905721550308 -0.03546203211036236
71929000.0 0.8043810097171167 -0.5919049458286962 0.04493001228713331 -0.34772502675176836 -0.0003115335729264991 0.0005291454732308022 0.45100945879717314 -0.035780385949860556
72928000.0 0.7964624522761995 -0.6041760089073238 0.03817553466886686 -0.36414627461192867 0.0019000245030308522 0.0004891803676338243 0.4671753181868698 -0.04929773420753686
73927000.0 0.78957130357104 -0.6077423217105492 0.03487912980310531 -0.38575324233902186 -6.42720030071918e-06 0.002246788677628872 0.4492754654030074 -0.060518604474336046
74926000.0 0.7854357028592068 -0.6186262486219475 0.029648656468653264 -0.39902035053575824 -0.0011474178831071388 -0.0022372670934928474 0.4616135555231314 -0.06429284227853783
75925000.0 0.7789139218501495 -0.6241640096713515 0.016056455360062213 -0.42039007933497946 -0.003874969381553866 -0.00015119677119349842 0.46770349406920164 -0.08370832144691626
76924000.0 0.7736802321407201 -0.6299931753492901 0.008207115067918318 -0.4434610105606489 -0.003476936074641986 0.0012223044748969777 0.4640276134939819 -0.08935818637416351
77923000.0 0.7653549896233848 -0.6381787825026687 -0.008434063492523639 -0.4701615022591855 0.0008946327047004185 -0.00029833701391784065 0.44580440197989685 -0.09963009139987065
78922000.0 0.76235673645671 -0.6488254158393263 -0.02227667940418767 -0.4945677527602088 0.00031360533647198445 -0.0006643991937083408 0.4627557820758087 -0.11280649172989418
79921000.0 0.7524145798692151 -0.6519060302875198 -0.04358769808415307 -0.5160023582038892 0.0019181284549953839 0.002569118039782723 0.4548318269841314 -0.12469740744007934
80920000.0 0.7492780429866214 -0.660831223700983 -0.059049852225242214 -0.5458697602617469 -0.0020060695519095633 -9.97053462827559e-05 0.4552061784777488 -0.12653343263218567
81919000.0 0.7433136641531448 -0.6681045967430742 -0.07652160799531395 -0.5728431044534021 -0.0017794534373438975 -0.0034188794359153686 0.467748672799709 -0.1409694126366096
82918000.0 0.7346341033354508 -0.6754975458885977 -0.08741586345309092 -0.6073588883862248 0.0016496767036583652 -0.0016615303591589504 0.47474353821521037 -0.15378371854947162
83917000.0 0.7277703738256416 -0.683536524205317 -0.11235477711321225 -0.6342302011232518 0.0019869174459329966 0.0033446890010802345 0.4674306076972083 -0.15500822680367182
84916000.0 0.7201383088458793 -0.6893544258018489 -0.12815649883538305 -0.6684295328665965 -0.0016942031496019502 0.00415413724000289 0.4745076826532457 -0.16793528875149097
85915000.0 0.7146988397551677 -0.6975815655804108 -0.14836842433541347 -0.7005623635767387 0.001560274984712106 -0.002771376167282536 0.45526771064275107 -0.17774756005669473
86914000.0 0.7081052247002994 -0.7085274034285043 -0.16763878150758288 -0.7385633505906266 -0.002295121474293568 -0.004674582139821326 0.45794122206726434 -0.18988125798124605
87913000.0 0.7010092805812962 -0.7126327813529865 -0.18997337718379764 -0.767914174622648 0.0014848035137166179 -0.0018853777638061786 0.4477634340314752 -0.2046725777561341
88912000.0 0.6943626232884771 -0.7193327166241951 -0.1998645696296399 -0.8012545090143073 0.0027485518466977164 0.0011865739661291966 0.46105921326961435 -0.21439563880873197
89911000.0 0.6846952065931823 -0.7280716464458147 -0.21572123892517756 -0.8377921672530643 -0.001689589396783713 -0.004804703018457649 0.4652010739108284 -0.21002916957701853
90910000.0 0.6790677093486578 -0.7328420217079303 -0.23419891521776012 -0.8733555958570509 -0.0013943444917959593 -0.0016803577178679152 0.45660625357740403 -0.22672255586951962
91909000.0 0.6707777344500281 -0.7389907640174453 -0.25684929841000254 -0.9046490801317876 0.0003433182842170195 -0.0003524681136646006 0.4649635687484449 -0.23379444725166193
92908000.0 0.6628050537272636 -0.7460687841718077 -0.27190664291267724 -0.9374920779419726 0.00019529023236447004 0.0034347564131453384 0.4587563641353697 -0.23883950379762572
93907000.0 0.6559016998596445 -0.7515151375196835 -0.28986173214949584 -0.9700626062375015 0.0010754518637986301 0.000247933823332059 0.4654815335663324 -0.2525675536578984
94906000.0 0.6423075236695974 -0.7609994557228207 -0.3087564717529493 -1.0044607346385772 -0.001644405253017032 -0.0039234766328665694 0.45314884295183494 -0.2663978980930841
95905000.0 0.6358855620573326 -0.7673074306280567 -0.3318882730304563 -1.0409714289190946 -0.0038310637866139563 -6.615555090948224e-05 0.46264125180274135 -0.27323555331507
96904000.0 0.6272351688274643 -0.7750083983977092 -0.35048293577442835 -1.0758763590635954 -0.002337995406555173 0.00015539126314857807 0.449848064349413 -0.2823357945250414
97903000.0 0.6195904957484337 -0.7803336229409894 -0.37204446405803565 -1.109948687113404 0.00018580608134323388 -0.0008870482665316874 0.45057245641844196 -0.29431380277189045
98902000.0 0.6156539644800199 -0.7881718466756056 -0.38809894239529913 -1.1457014957289926 0.005472563764759662 0.004563158388598796 0.44611669191881154 -0.29738083659915987
99901000.0 0.6038485604960523 -0.7928182230882723 -0.4168737778435079 -1.1700224986496977 0.001858410305616024 -0.0022277537299441688 0.45183361478854656 -0.32033827743202237
100900000.0 0.5969938443711469 -0.7981260677568167 -0.4509511782734856 -1.2085856218583586 -0.001086722451736591 -0.002091593335759036 0.4546417131096473 -0.31864233343158466
101899000.0 0.5869758906112315 -0.8034604599096036 -0.4719335065879651 -1.2446437619429853 -0.002240648265920174 -0.00033523499840845385 0.43843352000422703 -0.32322348729277556
102898000.0 0.5776445177019878 -0.8101874633353926 -0.5095748336990933 -1.280670441059893 -0.002375880830998755 0.0011471050432687784 0.4380367224195581 -0.3439207836071135
103897000.0 0.5685832833534237 -0.818425954675828 -0.5485724387297551 -1.3121469849201686 -0.00020410849025007525 0.0034064910418044954 0.4537396044082742 -0.34642632388492484
104896000.0 0.5615194613051364 -0.8257737612231267 -0.5893828278731017 -1.3439850560152466 -0.0019637597196979183 -0.0017274187256400668 0.42915014795798606 -0.3454631504989189
105895000.0 0.5509926767878991 -0.8313954507261306 -0.6360692119998953 -1.3869326142732503 0.0011660662088407204 0.002098748830517799 0.42303889787721927 -0.3648334903086992
106894000.0 0.5425770344075671 -0.8360513846406151 -0.6863478057635667 -1.4229295313136687 0.0010156967018182847 0.00036248638618775574 0.42331178253105695 -0.3841692553164284
107893000.0 0.5361533334993601 -0.8414541631024973 -0.7363993218043978 -1.4623101597387005 0.0007675112889355401 0.00011403848978895651 0.43123186465048313 -0.3869354149623259
108892000.0 0.5239874697432026 -0.845983816233571 -0.7930610890295661 -1.5005602090776762 -5.371148105544404e-05 -0.002796234699039376 0.4224819707572189 -0.38388065755140166
109891000.0 0.5120326777651606 -0.8553890954890874 -0.8560921785423214 -1.5339178525787038 -0.0005093360936029572 0.0022300857114714847 0.4379247645603455 -0.39005986459614883
110890000.0 0.4920834895709692 -0.8576635322832946 -0.9265509203329221 -1.5311510895173652 -0.002320499532290987 -0.00036344678862429094 0.41581226619661643 -0.3967056892413244
111889000.0 0.49370696920707474 -0.8604175170359821 -0.9766160677091463 -1.599472933779226 -0.001687298666892973 -0.0010019167123395019 0.4103769036663467 -0.40970456427433416
