! Created with skrf 1.9.0 (http://scikit-rf.org).
# Hz S RI R 50.0 
!freq ReS11 ImS11 ReS21 ImS21 ReS12 ImS12 ReS22 ImS22
1000000.0 0.9827802442041791 -0.0037749174799796537 -0.005752439317207619 -0.06423622719698552 -0.009682400769633863 0.0002746672470364375 0.3088196795227608 0.3633210675208077
1999000.0 0.9946821612140586 -0.0158270162434171 0.010057618711990776 -0.03263147003937477 -0.010859504553656791 0.002567836324906124 0.2747803624658899 -0.05502809115455639
2998000.0 0.9992853634120629 -0.025881151613314095 0.011905062171329998 -0.018034048556737542 0.0006630926433369676 -0.004097878428391622 0.1924767136878242 -0.12552873907171755
3997000.0 0.9962033020756772 -0.03338593691237794 0.014445923679746717 -0.010244109149112631 0.0006401984032044063 -0.00789100334066781 0.08694484395245894 -0.22325203913983085
4996000.0 0.9972360769766244 -0.03972583827576378 0.013373825773199037 0.0058388023186709435 0.0007065023412357378 -0.004372120915313804 -0.04485594094215341 -0.190439385927502
5995000.0 0.9936330278288368 -0.05174575484711868 0.0132520018432483 0.0017500660795934603 -0.0003490826483788689 -0.0003279413814537515 -0.10699580907920651 -0.11368165164830245
6994000.0 0.9925016822347078 -0.05928244000988045 0.006275177672507536 0.011456408150396133 0.0007201309695706934 -0.0008755464767361999 -0.146391400351919 -0.028337425662260978
7993000.0 0.994602040095529 -0.06749192746374794 0.0017590906269752094 0.0060572490034410805 0.0009770679485965306 0.0028473592327322114 -0.14760200389696745 0.044025233741112696
8992000.0 0.9944895481315111 -0.07557168499129069 -0.0036553593729925006 0.005196109145146575 -0.0072189017584123 -0.005216993553656341 -0.15343647588255802 0.05840881991430053
9991000.0 0.9920229786707216 -0.08491244551365305 0.0014448047849727277 0.0013211305749697526 -0.0016095489559907943 -0.0019390051582110204 -0.16151480409412985 0.07829934098237899
10990000.0 0.9913752479112982 -0.09306134956474764 0.0021630993322385916 -0.0013018702015826923 0.003961531168196395 0.0017290547911238978 -0.1301283460736366 0.11684047095565761
11989000.0 0.9886820455229007 -0.10270834971730877 -8.568922647408876e-05 0.0009924344681016839 -0.0035174008716732873 -0.002311310434461801 -0.12299602501322586 0.13529798396482454
12988000.0 0.9862736497315998 -0.11097916082359571 0.0031657902655642905 -1.4821631477960672e-05 0.003525330405705372 -0.0020952288187234343 -0.10899017555772705 0.1801468780104053
13987000.0 0.984744189889949 -0.11980428125900956 0.0013666535348713436 -0.005064557778505806 -0.0022484982147077176 0.00019236807867265132 -0.10874145341163731 0.18319321139967143
14986000.0 0.9846680231357933 -0.1269825969802515 -0.00023011529338053715 -0.002016834260144692 -0.0033827574708391963 0.001091831509154047 -0.08806613752120844 0.20468134759519638
15985000.0 0.988211830117455 -0.13581928770947993 -0.0010935618398246131 -0.006458761116884522 -9.941712722392889e-05 0.0015580317276615875 -0.07672703993660834 0.22645610298202634
16984000.0 0.9823928667741267 -0.1471821336314731 -0.00439450506193173 -0.00494956000536981 0.002289137351645263 -0.0018458052278890404 -0.07730609752955013 0.22809726128717914
17983000.0 0.9834806061231539 -0.1537450371935102 -0.0019236136319346446 -0.0020939904998913453 -0.001533852995003959 -0.00027068810274259296 -0.051532495751076185 0.23313191658180418
18982000.0 0.9811504567603547 -0.16060858819175072 -0.0006906648454070511 -0.0018873022839227037 0.004053193659298727 0.0022263131699562393 -0.025131013038095198 0.24732465518609156
19981000.0 0.9802167257195723 -0.16718437624551175 -0.0018355228535366045 -0.0064009251035022155 0.0010504490148153189 -0.000730358945603137 -0.017576412848510622 0.24627232965483292
20980000.0 0.9805394117784217 -0.17688313463478328 -0.006091349047809017 -0.0022910117840718707 -9.355764156251854e-05 0.000306953777018217 -0.003307081184857063 0.25388451759144975
21979000.0 0.9780842991506122 -0.1872479198176993 -0.003154419124970373 -0.001265979006666836 -0.0011739674152968125 -0.003620510383788634 0.015041636239537708 0.24218565367105754
22978000.0 0.9756402719281038 -0.19439085955120394 -0.008131057789602367 0.0006625208375256308 0.001080903811534868 0.005437810018997482 0.032147041171887575 0.26391176617790835
23977000.0 0.9773649719822679 -0.20406029829954847 -0.006683731826689692 -0.0009796479519175636 -0.0001610852123410343 -0.003448499787780339 0.037452280223724946 0.2573950038001779
24976000.0 0.970459058229906 -0.21234400212279148 -0.011885510460833611 -0.003891476288957032 -0.0031396342826900295 -0.0008188536461312628 0.07276385194245596 0.26451612695209403
25975000.0 0.9648838806814319 -0.22669594294150996 -0.004423752725985565 -0.000636140668686007 0.004949486500920226 -0.027167658651148213 0.07468577283869424 0.2619849193885918
26974000.0 0.9665055613204167 -0.2320464469922053 -0.0038520750486113332 -0.0007884162625383856 0.002107623522278026 -0.0029199320165614073 0.09047545541840118 0.2710725600396376
27973000.0 0.9688364479395191 -0.23567643919563866 -0.0025130833677391795 0.0006872988684274867 -0.0008929093151794988 0.004531004927300531 0.09751594895323487 0.25848430196000316
28972000.0 0.9646123012717694 -0.24885736276064016 -0.0011973420166993974 0.002222688899586764 0.001021146200576917 0.00038104638828274847 0.1279343295793952 0.25961366656643997
29971000.0 0.9634138944705812 -0.2548319517466911 0.00033581099098877056 -0.001622045397379537 9.647083074918597e-05 0.0008411592278894419 0.1579658872285521 0.26922107060387446
30970000.0 0.9589145038507809 -0.26206935427594463 0.002492711509754509 -0.0010005533218861438 -0.00029908676697284467 0.005333760396868492 0.16617207903653627 0.25338320272006026
31969000.0 0.9560564281451145 -0.27228437561381585 0.0056903708122998135 -0.004753441422772175 -0.001952486961041441 -0.00018777504089776613 0.1569119145146809 0.24074261376901573
32968000.0 0.956198233419222 -0.2812996571486694 0.010786043627232421 -0.004136185078733645 0.000431871295079496 -0.0014554213534531363 0.17285095575273815 0.2373635721427468
33967000.0 0.953206894693082 -0.2909749437693421 0.009192203093576733 -0.009970299079031601 0.0003240105252992163 -2.9289870454065334e-05 0.18641862645292231 0.25039868376532215
34966000.0 0.9506391697883724 -0.29690132156336746 0.0158818112606353 -0.009600752941908134 -0.0001116032883890652 -0.0005877077381537078 0.1921554104007211 0.2513142189644877
35965000.0 0.948714247668975 -0.30664384626939883 0.01972456708047111 -0.017547720049567558 -0.0004592851351341657 0.003222767118214686 0.2089930474453877 0.24922101641813826
36964000.0 0.945018015760573 -0.31548317506318735 0.016922480463186455 -0.01329094334473941 -0.00024622831980496157 -0.0020581582499190933 0.21624343910755434 0.2528694997087182
37963000.0 0.9432679553232823 -0.3242183331109365 0.020515940806144363 -0.0204553083706597 -0.0011909941124043223 -0.000181849831493572 0.22363547049083318 0.23377607957903582
38962000.0 0.9413759981894507 -0.3329421192847415 0.02505282630251493 -0.02489092372946445 -1.6597934975756777e-05 0.0005797845405024844 0.24567747658657774 0.2310156956313825
39961000.0 0.9360253252879396 -0.3424858437185498 0.02815459011022879 -0.028081183401256562 0.0029186715788279915 -0.0008171596713725665 0.2562968239520473 0.22473800038287536
40960000.0 0.9322807959578686 -0.35002046267205966 0.023591143124780247 -0.024021141746514332 -0.00021088947938530936 -0.001426812963674494 0.26788077720286146 0.22477131611971954
41959000.0 0.9301816454649494 -0.35917977895911574 0.030725993799899032 -0.03174182741287222 0.0018354768076597045 0.0005181834626774 0.2759154274815299 0.21100722173111655
42958000.0 0.9244134536272747 -0.3688816548879798 0.03366396126431733 -0.04336903047007787 -0.0007726808442932928 0.0010733854256748617 0.2788488516972125 0.20432379187247376
43957000.0 0.9234662513030262 -0.37448399392408754 0.034778397335898374 -0.0478935185671963 -0.0015094110709364642 0.0034434474018103477 0.28996204457519653 0.2078851287580998
44956000.0 0.9201583082008362 -0.3834698773162957 0.03833789218212868 -0.0545897460352352 0.0006274333593335622 0.003451495215786254 0.3049773177231365 0.19171995041309872
45955000.0 0.9144382903064383 -0.3941469227476452 0.03874491223934711 -0.05842050633917247 -0.00031621622507676226 0.0023934035854254088 0.3132007687363248 0.18707530687927573
46954000.0 0.9119608523743418 -0.4014896470666013 0.037795701520061405 -0.06689684905626295 -0.004115997785673514 0.007925274876168696 0.3357473222937902 0.17303840974347226
47953000.0 0.9100468895838522 -0.40800388578634394 0.041852539461707784 -0.0754246035146105 0.0031936038075741453 0.001964521573372998 0.3462080400514292 0.16909407473281854
48952000.0 0.9031925434371788 -0.4195685775263441 0.04203280336557449 -0.08258073286112777 0.0013731410620478517 -0.001617711746423972 0.3359733156214495 0.16119879900399356
49951000.0 0.9001185814780569 -0.4261002369524461 0.04223659715500697 -0.08856762242753081 0.0004404552131418652 0.002436814904915052 0.36297002257076166 0.15159122286920435
50950000.0 0.896333732580195 -0.4323877156636802 0.04504781425943249 -0.0965589645434212 -0.0011931335278293285 0.00265138835936374 0.35955799147375184 0.13322716156010156
51949000.0 0.8921649753427625 -0.44157550940767526 0.04171865008163637 -0.10781109194631128 -0.0004253316760896569 -0.0005109432113696817 0.3535703861087395 0.13325924777259132
52948000.0 0.8897781536082899 -0.45027153122246394 0.04944122975511619 -0.11707007273215393 -0.0005998773438784133 -0.001097252614881997 0.3703163936849216 0.1289061038321855
53947000.0 0.8834169858272196 -0.45843120846747537 0.04761419028324646 -0.1256359112389081 -0.0031149955284087614 -0.0018071719886312485 0.37824050304605683 0.11030849642917745
54946000.0 0.878772675577159 -0.46510309926290677 0.04832539507828816 -0.13545021748604674 -0.0026790696503888327 0.000957582661113628 0.39084315516930135 0.1165408115473521
55945000.0 0.8763704759834079 -0.4769027731777359 0.0519477789501282 -0.1479607059180194 -0.0026770240013756527 0.0033520041121333204 0.38810627153584526 0.10340645912990507
56944000.0 0.8724637279323338 -0.4837929635602554 0.05072763217151794 -0.15637870789900132 -0.003158785895711514 -0.001683791188109146 0.39940943021505254 0.09339800225431535
57943000.0 0.8653817654229325 -0.4940448520797363 0.05268580179253408 -0.17065116742257527 -0.000217976049772256 -0.0032853624827957235 0.40575891072914716 0.0850033135620959
58942000.0 0.860322564242746 -0.4987774956509026 0.05385717692407509 -0.18056267348244728 0.00011687856496732646 0.0023608423663006766 0.4200989358394492 0.08117065501597447
59941000.0 0.856869504226647 -0.5079133594614147 0.05605947986909032 -0.19066303549929928 -0.0010592778858415342 -0.0017237243466015934 0.4168902443593537 0.07944196395834113
60940000.0 0.850069869848056 -0.5135544343051759 0.05720181449029577 -0.1951534493858046 -0.0003879335638061916 0.00025490427807635456 0.4080560312994373 0.06479190279010673
61939000.0 0.8468759679016535 -0.5225172887652976 0.0580505852551685 -0.20628070652153202 -0.0002522481338326296 0.0005045261165291205 0.412447088813331 0.06742141389661224
62938000.0 0.8387545232485939 -0.5341611501251509 0.060955145466870565 -0.22132227178737038 -0.0009256598349158044 0.001046249793391925 0.4351831963779864 0.051655182626711274
63937000.0 0.834150529861003 -0.5410975817295877 0.06292607323542278 -0.24223196623932647 0.0008375926130708232 0.00022693387435592405 0.4388283980173953 0.03486236344607939
64936000.0 0.8297982676715281 -0.5462816946432776 0.06066107512021961 -0.2580194283434855 0.0036950904135364623 0.0004351052127829938 0.43148694884725913 0.04730008489604249
65935000.0 0.8257547715321046 -0.5552822350174383 0.062209986618123714 -0.27063043946692855 0.0006330117176116407 7.62204401687653e-05 0.44279494688591026 0.012096772974389033
66934000.0 0.819518846989894 -0.5626645255792787 0.05972187169155314 -0.2865692415975896 0.00365721017860607 0.0005575653070126903 0.43557924954918475 0.009232526762433534
67933000.0 0.8165777794810147 -0.5716016427581845 0.05752601173559719 -0.2998230686755873 0.002282887442773101 -0.003553546869766725 0.44617322750203514 0.002241020193383308
68932000.0 0.8007890548919387 -0.5664634430051736 0.05334556411434499 -0.31353752945113655 0.0005422802498596283 0.00038249314932973523 0.451317346554083 -0.015194333239458947
69931000.0 0.8007606045143886 -0.587354854187612 0.05499147837206049 -0.33719031421626744 0.002325420555260314 0.0008457971600294072 0.45325567281680823 -0.02106573660882746
70930000.0 0.7963274054493855 -0.5942117311861573 0.05069339845876651 -0.3506767284086452 0.0028676380501143285 -0.003314471801469504 0.440883093711973 -0.03750119904375959
71929000.0 0.7930946549775504 -0.6044235100945696 0.04937581703046114 -0.3726013552699244 -0.0007105715575292347 -0.00010840319958136657 0.45226823110355224 -0.04934053772005186
72928000.0 0.7871513387561199 -0.6105674399314528 0.04391143452694948 -0.3894567368541408 0.002431769568033247 0.0020107320088433955 0.46384396831180136 -0.04662224105081849
73927000.0 0.780563110721026 -0.6172414187094992 0.035544684975818246 -0.40879150185174823 -0.0013187339258689738 0.0003397071155601602 0.45111174630060724 -0.06921806623351023
74926000.0 0.7733755077568586 -0.6256532680549356 0.02739861531702469 -0.4295649936269553 0.0013079449648551477 0.0015950606696329978 0.4584745730645966 -0.060028138064376894
75925000.0 0.7690264325662697 -0.6329416070147362 0.018498770241321124 -0.452633778038989 -0.0020608562438537174 0.0003542047369998708 0.470381406329885 -0.0853763881943927
76924000.0 0.7613078774827811 -0.6382722364294586 0.007081814995090968 -0.47872709987911205 -0.0018012292305763487 0.006083572665787541 0.4679220128670522 -0.0912392159898702
77923000.0 0.7552683925391951 -0.6479886509154774 -0.0068226517961999834 -0.5007206040794685 -0.0010122028253838553 0.0005882124340694786 0.4596864482619797 -0.1002651994177756
78922000.0 0.7497930616321652 -0.6581879924582824 -0.021435712615209802 -0.5306532277296805 -0.0030928949741637225 0.0012547867954727557 0.45936778210721274 -0.10949072575748281
79921000.0 0.7398576775540039 -0.6616115360189812 -0.04072227553062637 -0.559691242970495 0.002766458862760527 -0.000402342365200001 0.45909080648107936 -0.1309671124731399
80920000.0 0.7348401644683406 -0.6727499459488216 -0.054786949026010834 -0.5898969555273372 -0.0016717004478427175 -0.002137568228895269 0.46826334762935434 -0.1393778101275466
81919000.0 0.7299361103385795 -0.6782060138068559 -0.07238233043265273 -0.6158377253125519 0.0015630409099536933 -0.001330242565666552 0.46240631158392276 -0.13608042685247637
82918000.0 0.7197737203254241 -0.684648281980535 -0.08123321291624937 -0.6527304264336873 -0.002185693059825225 -0.0023889093748260624 0.4786471945631186 -0.15182026411140256
83917000.0 0.7118261138031736 -0.6933413795475295 -0.10541080478889288 -0.6816584779108655 0.002368556725153715 -0.0042219724914107516 0.47547314460696116 -0.16032238548489677
84916000.0 0.7072916516705109 -0.7012779699079392 -0.12048996817346715 -0.7175325412074054 0.0023886320081409006 -0.0038519068332820267 0.4652881156696587 -0.17463751646647485
85915000.0 0.6998770454033123 -0.7067539539454519 -0.14339340166054082 -0.7514255261709032 -0.000346151501141368 -0.002652377423951308 0.4747433009495125 -0.1796007428396681
86914000.0 0.6931829713802894 -0.7166259457641714 -0.1588542795401314 -0.7882584792577786 0.001350620101896509 0.0022008224033876664 0.462684031792428 -0.17335351027684293
87913000.0 0.6872530948088137 -0.72249741679864 -0.17855277110148085 -0.8150268157453362 0.0022010653820200483 0.0008260437261724948 0.46108146545095974 -0.19496470048599937
88912000.0 0.6796745409625253 -0.7274312590089735 -0.19318961058359474 -0.8542885280088683 -0.003996358439727975 -0.004191900166239052 0.4579299709386987 -0.21034689163636944
89911000.0 0.6699867413767091 -0.7378101092811202 -0.21027616335475588 -0.8921942720673587 -0.0011920631290599304 -0.002968205655802146 0.4652877048265457 -0.21779233227376327
90910000.0 0.6635526046650839 -0.7421263068556342 -0.22635505596685868 -0.928823345538989 1.2155258966764343e-05 -0.0038673810729845915 0.4591326797410999 -0.2235910146646251
91909000.0 0.65530309738595 -0.7469636065092997 -0.2516803636823855 -0.96498232505145 6.76735615191156e-05 0.0007980912655256407 0.4714896040529966 -0.22534313317904414
92908000.0 0.6475643687921556 -0.7560275760630806 -0.2701360533247794 -0.9997386367981943 0.0022176308214687866 0.0019439292611027992 0.4464165799715533 -0.2336284605276115
93907000.0 0.641265056586796 -0.7614862361131245 -0.29184121080577335 -1.0348231639465848 0.0016591922476945373 -0.0022253459681789594 0.45717614832194137 -0.26193849059562485
94906000.0 0.6277742532056634 -0.7700939342106724 -0.30964676911275657 -1.0703658304238937 8.35169381999073e-05 0.003308190595742288 0.45801771660835267 -0.259489135984285
95905000.0 0.6212594455820796 -0.7762605652125111 -0.3371947611373059 -1.1051087777524686 0.0024515655823113287 -0.0011663717834920883 0.4585936117948398 -0.2775284429494818
96904000.0 0.6130258837129103 -0.7845530706293905 -0.35246231930689537 -1.147904457477975 -0.0026682359070290987 -0.001612725855885185 0.45177058955080274 -0.2886063241803965
97903000.0 0.6054078871248901 -0.7898137298527903 -0.3822353750790465 -1.1835445225943892 0.002247330533327466 -0.00359997386920712 0.45083362980719704 -0.29089352162753157
98902000.0 0.6004939984134531 -0.7981525881380226 -0.40818211248823166 -1.2234076102712637 8.71531117984844e-05 -0.0011602822638548782 0.44805162792774156 -0.30423304556918307
99901000.0 0.5891641011159706 -0.8024323420234323 -0.4336032321846717 -1.258389630162298 -0.0028615454439828263 -7.454640878090053e-05 0.45907677849433437 -0.3258371865015775
100900000.0 0.579450298340388 -0.805466032069159 -0.467841183049129 -1.2898125269093146 -0.001341259468839607 0.00035967625208247454 0.4626185460574341 -0.3196437212893534
101899000.0 0.5693341537485465 -0.8146591982230524 -0.5056411063247072 -1.3282352272379039 -0.00415796248327356 0.002878438451259566 0.4387258387910991 -0.3200999139910014
102898000.0 0.5598171261155103 -0.8186226676935906 -0.5421777101480255 -1.3673318771675893 0.0003538917295074509 -0.001285619250942994 0.4453871823280693 -0.3441105864135295
103897000.0 0.5504501399186983 -0.8264963108111768 -0.5881318075591869 -1.4067232401528609 -0.0008362822404733728 -0.0034436175540075347 0.4556080979580448 -0.3415021205864653
104896000.0 0.5456441944741517 -0.8376874241760194 -0.6362393081625481 -1.4518002946995987 0.0020015631948613237 0.001143904228502338 0.4415219209085894 -0.34073199784755964
105895000.0 0.5315200528739105 -0.838075477186223 -0.6874940820105057 -1.4888121271324102 -0.002210494230484627 -0.002689212718769971 0.4334038247244802 -0.37019545099743195
106894000.0 0.5256194567622192 -0.8437025761564259 -0.7426453063662193 -1.5339588271633058 0.000711180672080646 0.0010779715504742786 0.4306581520392497 -0.3719376384128642
107893000.0 0.5162115188062032 -0.8503249315178245 -0.8000442517698088 -1.5741745523604065 0.0020389191552779517 -0.0009039779405719169 0.42687371273526115 -0.38608912639520654
108892000.0 0.5060242221183588 -0.8559364480552921 -0.8624828358017502 -1.613181010440977 -0.0020742979196687276 0.0013944390197344562 0.4241210972234269 -0.38408434291962035
109891000.0 0.4920098393304305 -0.8610789262425622 -0.9244392367207318 -1.6506092471906217 0.0018253354590510302 0.0002130337512091803 0.43657449793968206 -0.37430904477278465
110890000.0 0.49020911642384873 -0.8691528255358487 -0.9864538972055665 -1.6727652941127003 0.0003032010980658711 -0.0008804407549089546 0.41901477671665366 -0.3960970514218617
111889000.0 0.47464985422902506 -0.8662631951580104 -1.0568660005301937 -1.7229527348779226 -0.0019935202801899046 -0.0012568199343165928 0.41384113600585754 -0.40563587279034047
