! Created with skrf 1.9.0 (http://scikit-rf.org).
# Hz S RI R 50.0 
!freq ReS11 ImS11 ReS21 ImS21 ReS12 ImS12 ReS22 ImS22
1000000.0 0.9829251546278457 -0.003281717595658028 -0.0204509005665052 -0.03144848328614462 -0.017480472856581167 0.010440525687930139 0.37001721961446116 0.34817208987766907
1999000.0 0.9949201248902779 -0.013309730663089322 0.003087082599349168 -0.02750535702191294 0.0008797508139292246 -0.0014033652989250043 0.25459619557812696 -0.04770001969374973
2998000.0 0.9995934457507444 -0.019635563403266297 0.011049347116328207 -0.01843684327299252 -0.003142473818694278 0.004661184042506904 0.18224292619872307 -0.15222067421847396
3997000.0 0.999962027766164 -0.03000187092868331 0.009099983353070282 -0.009651443060513994 0.005999862175546222 -0.0022192958061623405 0.09864791130141837 -0.22609318853047627
4996000.0 0.9974221037353449 -0.039930817923614845 0.009054144250070957 -0.003128605155034277 0.002930437409442375 0.0030222398554450745 -0.022747902935510003 -0.21939984907662677
5995000.0 0.999387508140376 -0.04646552652031323 0.011431656730500048 7.709950481815459e-05 0.0008823573308819517 -0.0019327428268985708 -0.11581586956533131 -0.11650556605083795
6994000.0 0.9953810515053181 -0.06061072143587617 0.008430554646146199 0.003366558042102163 0.0006094732095664599 -0.0072933765257171355 -0.15122354651762723 -0.026625027767704566
7993000.0 0.9975735416621191 -0.06727532127263539 0.0038468559636905793 0.007065577337395595 -0.0040656143776576165 0.002020829111697392 -0.15833370450488102 0.027270998210022095
8992000.0 0.9952665762720115 -0.07075371340811906 0.006660490061943798 0.0050103516880602205 0.0030578224174940974 0.001490630045709047 -0.16294853888861976 0.05366607890934427
9991000.0 0.9942545794993085 -0.08366134998829053 0.0008007607536691091 0.0018706835218334713 -0.0017333119315263582 0.0031422695794804697 -0.15949963562982675 0.08209008536329164
10990000.0 0.9931872836335446 -0.09155356214053616 0.0024967026715880533 0.0018707990944206374 0.00227634840866093 0.0029517417018748186 -0.1401704084079251 0.1057065504060911
11989000.0 0.9930159159158426 -0.09775664664267232 0.003032722615305904 -0.002443584166672414 -0.0027094271871849845 -0.003631769144087061 -0.13204149568757476 0.13224248416295034
12988000.0 0.9916329281939861 -0.10831089021617762 0.002313097850957765 -0.0004906035915019058 -0.0019308438547501372 -0.0016478748911776134 -0.11067551450053915 0.17310836189809245
13987000.0 0.9900278692416439 -0.11763033463291071 -0.002077520694168248 -0.006276441949504726 -0.005791521208938934 -0.003871504524459517 -0.11261344621718425 0.18709705733679874
14986000.0 0.9886313248334077 -0.12436192087267398 0.0016916322160813735 -0.008256967722203813 -0.00017685169819791282 -0.0006818113226967666 -0.08264366435102397 0.20358853175433358
15985000.0 0.9913510725985089 -0.13225015018058026 -0.0019540836441970274 -0.006840503638291676 -0.0025658434673014392 -0.00040885925544437417 -0.06705166843550973 0.22038597914761837
16984000.0 0.9872644417721008 -0.1421497865120528 0.002351097370625974 -0.007745679506036616 0.0026624781920574544 -0.0029442907748417906 -0.0683154384153029 0.21669396343316757
17983000.0 0.9898870254464057 -0.14676227326825783 -0.004060393355850181 -0.0052723704933329285 -0.0032158891546770377 0.006061343066427655 -0.06076005781207958 0.23211117430938724
18982000.0 0.9849451846940322 -0.1592809626981166 -0.003761940726619409 -0.009260634551854545 -0.001032426094172807 -0.0018499699151259413 -0.026906056835338418 0.2471841386710999
19981000.0 0.9843875304631284 -0.16215046903016733 -0.006311217644412947 -0.004879379072899614 -0.001297538237877374 0.0006744783242996614 -0.02114670177829618 0.23654390645161377
20980000.0 0.9828033486298375 -0.17514411489392953 -0.008309701140404635 -0.0032481640802856497 6.821951101349404e-05 0.003696905359546154 -0.012098641631886327 0.2684835185262322
21979000.0 0.9811344692280735 -0.18389583629475267 -0.0022392789916948733 -0.000924032611683696 -0.000606044405081336 -0.0023965622270647616 0.0033700461358174764 0.25688567184660976
22978000.0 0.9772060703602878 -0.19200195738586665 -0.00777695921637203 -0.002023447165182761 -0.003627101079178254 -0.0034361770724780686 0.02645338623151158 0.2600155385324624
23977000.0 0.9797285823462645 -0.19757281987859232 -0.0028494965126529843 -0.000562844090404688 -0.0011689748269949063 0.00140018038882575 0.02919540884836238 0.2631875422724772
24976000.0 0.9754650233723386 -0.2070510939700702 -0.009263155282679838 -0.00202675680755255 -0.0017596480035614148 0.0002995215229300334 0.06200052400445844 0.2516870752684225
25975000.0 0.9733120887839676 -0.21397378008529444 -0.007072741666785063 -0.0023238417467896654 -0.02413204318018007 0.0042782231358268925 0.08535656739194634 0.25594526876126095
26974000.0 0.9731525320897317 -0.22443866874570334 -0.003242968563635662 -0.0015702881451729966 -3.327795803670676e-06 0.0008394779505848436 0.0900191104807469 0.2590111441067837
27973000.0 0.9698477626799258 -0.2320586012944624 -0.0023444246132653247 -0.003263281751782358 0.0030285796001913645 4.4102474590035835e-05 0.10010792863833616 0.2629957596991666
28972000.0 0.9678257854715125 -0.24412733396621056 -0.002559834397937802 -0.0009859501800879237 -0.0016654094172965559 0.0020804548472341203 0.1128716221078964 0.24824807038068236
29971000.0 0.9665723642293697 -0.250251637852876 0.0001932325432418457 -0.00414940151591803 -8.679383320443174e-05 -0.000986459386294074 0.14806484913966703 0.26535164909087644
30970000.0 0.9631275093703526 -0.25680253821187454 -0.0014752763711516704 0.001055596853737997 -0.002036501651294759 -0.003993813338148607 0.1636780459606682 0.25511489082273775
31969000.0 0.9620519680356197 -0.2651789203251102 0.001971008836507568 -0.004737944100863695 0.0025620221432897197 0.0003044236037122445 0.14374457553090328 0.25187451851753573
32968000.0 0.9602218410146475 -0.27376201897714225 0.006064214165720753 -0.0073897397946322664 0.0015586803308325597 0.0014992171466054213 0.16644220332675885 0.24156567201846763
33967000.0 0.9575668336521426 -0.2836662972550845 0.01062672628507335 -0.01121781442180834 0.0014976675434698928 -0.0016522622137048516 0.19260609779419643 0.24518885096490917
34966000.0 0.9544490159404541 -0.2929993488308445 0.011931565060495032 -0.013425622983950286 -0.0008416106428918513 -0.0020619650015245568 0.1848030533177903 0.2507874232500943
35965000.0 0.9519208606475972 -0.29942797494211865 0.01759054463263784 -0.014672352572684998 -0.0017261488916669426 0.0011800778924702326 0.20813333545414378 0.24363866982220383
36964000.0 0.9515459679924594 -0.3079736917973566 0.015331729451830613 -0.014721301853636104 0.0033305709399823495 -0.0017022825105560734 0.2124454489105344 0.2444537586849536
37963000.0 0.9471947010696813 -0.3157930291369921 0.020632962678928207 -0.02161127851817092 -0.0012206156622196168 -0.0001375666605648933 0.23297803120999921 0.23212780655387374
38962000.0 0.9439249043595681 -0.32653715631575575 0.022946973502570456 -0.026731914529309894 -0.0010861913705786932 0.0005148354371072174 0.24416024181468948 0.23104290999074686
39961000.0 0.9422269172484911 -0.33238134101270667 0.023883284262393226 -0.030148931086221287 -0.0017928511098008275 0.0023811135097021184 0.2507509050756121 0.21995741763750856
40960000.0 0.9379868274183278 -0.34111652414930016 0.023984436800081544 -0.02364744423892134 0.003245794133024896 -0.0007012812589148261 0.27310750560328595 0.22325148852617116
41959000.0 0.9350158803652177 -0.35119518931052723 0.02873024912947573 -0.032591207730279945 -0.0003911265918314844 -1.5504296692320634e-05 0.2645480884374136 0.2111060564079354
42958000.0 0.9318649409629651 -0.35891080949602155 0.030390711881218606 -0.03929617743945024 -0.00032387024332328646 0.000204906514290579 0.2811641584758647 0.20065410666507394
43957000.0 0.9304539908507837 -0.3628136982624135 0.03184746369384042 -0.048986547851828835 0.002730576630178249 -0.0021177202254368723 0.293192247920431 0.19885309369824883
44956000.0 0.926253854846778 -0.3737805752396504 0.0329484247554518 -0.05384129370747262 -0.00021884699212921965 -0.001433820659094084 0.31244010012213264 0.1831987186763918
45955000.0 0.9217831751428343 -0.38318000594184837 0.03344674469919166 -0.059162035446450746 0.00017655930245979987 0.0014929826686505472 0.30700219971222364 0.1817626941697772
46954000.0 0.9191505217400113 -0.3917097304906593 0.03497603947187706 -0.06706039476346451 -0.0008924161478753458 -0.0065013378570499885 0.3262984210319589 0.17429227344047846
47953000.0 0.9139120211742762 -0.4009328973346403 0.036171932606325646 -0.07446698307178448 -0.0006755195837627951 -0.00024320267179029934 0.33184365658304366 0.1722194609403798
48952000.0 0.9107929740843862 -0.4089965118415054 0.035434028845398875 -0.08256266668866406 0.0002885864911561762 0.002126895198472686 0.3287176301051008 0.16081022035332862
49951000.0 0.9064525626553458 -0.41648680205326594 0.035003315602850416 -0.08942483891194464 0.0033219359285558726 -8.690097734210561e-06 0.3415379595033949 0.1490643464355491
50950000.0 0.9027494715670633 -0.42343917207833737 0.03828919289481017 -0.10000692998719649 0.0009797937060112044 0.0010155296307724504 0.3569044709762661 0.14151088830952763
51949000.0 0.8994000475431928 -0.4318174338575302 0.036770819807177224 -0.10262516619327886 0.0013250566016391224 0.0010721711905533461 0.34881573826854734 0.13999766817046735
52948000.0 0.8979523341309441 -0.4395559111532792 0.03431042055380508 -0.11296771301974308 0.003013512195939931 0.00274826036237859 0.377344331617864 0.13640379266672711
53947000.0 0.89308792082856 -0.4476472358845966 0.04285505372361892 -0.12543407620561384 -0.0002078871772714459 0.0004497066109221772 0.36442636040030385 0.12414491832285297
54946000.0 0.8867876779805671 -0.4551133665833536 0.03859266721013609 -0.1325501303865737 0.00020406968672962938 0.002771761326720263 0.3792155160956312 0.11010270345620085
55945000.0 0.8832564963605432 -0.4657487673777547 0.04353153099587066 -0.1440377176514733 0.0003161161726414988 -0.002195007080294615 0.37933033276853817 0.08471195121321494
56944000.0 0.8805465087872689 -0.4737214239313566 0.04280621000239197 -0.1531260219191732 -0.0013231508679224532 -0.0006099060336683499 0.39826503579063255 0.09705527421204979
57943000.0 0.8740056196763929 -0.4835130867299088 0.04731800107789597 -0.1628644452310947 0.0019343434773537351 -0.00047054126717968023 0.39843603742856587 0.0869860443532319
58942000.0 0.8704352016669012 -0.4868337260206002 0.046229795544772696 -0.1760825237321652 -0.0011117461527037058 -1.82967159607529e-05 0.4133869878148629 0.08612256378768814
59941000.0 0.866759613142737 -0.49831913489013524 0.045657531016716484 -0.18648412447108617 -0.002959828902028677 -0.0009727547810788273 0.41926385481449485 0.08210748011655333
60940000.0 0.8593944385852215 -0.5022275478842155 0.04738208952731545 -0.1890439532564728 0.0035263156275012176 0.0005660069232347722 0.4055782532740427 0.06784893161381747
61939000.0 0.8567362956829233 -0.5101884624454993 0.0458918621864763 -0.19804207450768505 0.0007034761200434141 -0.00011124088283389343 0.41543189708511363 0.0549438267370736
62938000.0 0.8509546656041915 -0.5213401062113471 0.050915356269598484 -0.21443386525402153 0.000986783249979286 0.00061931964352854 0.43754829492237524 0.04415829693865205
63937000.0 0.8451507980798858 -0.528522329334279 0.051177763265048054 -0.23823400270370032 -0.000371128804313633 -0.0008932760821094076 0.435313047190328 0.02857794034811123
64936000.0 0.8396962756844856 -0.5341057285094445 0.050932394916475936 -0.24680905880472082 0.0004156077427089334 -0.0020681536091261173 0.42580147276923225 0.028548929979569166
65935000.0 0.8362405662690807 -0.5440519531027962 0.05096927854832066 -0.26217627364966445 0.002407308198763931 -0.0015638954398117407 0.43453077358517234 0.0114491940223631
66934000.0 0.8312529323382546 -0.5517080678393721 0.048942334748879594 -0.27568603910747574 -0.0008524902496463344 -0.001870931541355517 0.4351772590954885 0.005660529566928252
67933000.0 0.8306219277936592 -0.5578992365224611 0.052425426759598895 -0.2895871723407719 -7.7771308297924e-05 -0.001862853661136491 0.4393923969036849 0.000404091171182344
68932000.0 0.813151371821811 -0.5519234678416083 0.04636325572091816 -0.30031587295345674 0.0011600917712102385 0.0014074865497297983 0.4382731543630609 -0.02633608779246806
69931000.0 0.8164531137979791 -0.5732692135633869 0.050453147678317094 -0.32081804276418113 0.00019249120406001095 0.006408211081309708 0.4456653568838241 -0.03532227516247725
70930000.0 0.81008249325177 -0.5807821594711705 0.04460174063359123 -0.33398133498363924 7.488101758502064e-06 0.0006262320765563628 0.44473339812184687 -0.03911088663332574
71929000.0 0.8066019223835063 -0.5895343992823762 0.043040361479909695 -0.35306782906111495 -0.0011280892057516912 -0.0006717579912048076 0.45047478081644965 -0.04384292653623465
72928000.0 0.8011101905279537 -0.5972508793675114 0.038547685827992964 -0.3699463711425703 -0.0001217483654513661 0.004609949903405776 0.45377632906658955 -0.06380564127763522
73927000.0 0.7956272364392358 -0.6056608034915785 0.024976829324144613 -0.3880158907445057 -0.0008298871357581085 0.002150229259173124 0.4552920884571614 -0.06684314525720893
74926000.0 0.7902365862699481 -0.6142408798260002 0.022606198604609988 -0.40653900133033405 -0.004105404341903941 -0.0011058581882376546 0.4588157005028571 -0.06641685361926235
75925000.0 0.7834628872842814 -0.6191613217459384 0.01547040970879306 -0.4226620315031882 -0.0017805558031802479 0.0017441449554899792 0.4678273036575023 -0.08333481751675643
76924000.0 0.778346271866556 -0.6264528157239243 -0.0036643040011064176 -0.45038370624496116 -0.0011412523368077247 0.002781827001999928 0.4615724638713519 -0.09962802076087587
77923000.0 0.7707601521158484 -0.6323972561099187 -0.015539601590967388 -0.4749022326271314 -0.001752380929285481 0.0008164299043865029 0.4626141725504707 -0.11205247761849499
78922000.0 0.7654421809610408 -0.6424806395461309 -0.03161894455290345 -0.4971340369964326 -0.00143161730858769 0.002143361991113993 0.4532047182966458 -0.11738010110175384
79921000.0 0.7572607590214003 -0.6488349979488874 -0.04705081497470683 -0.5229572414733884 -0.0012749576318870027 0.0016157411873481116 0.4524568959557509 -0.12760860145807876
80920000.0 0.7532651079585517 -0.6584748092829303 -0.06607729193960478 -0.5512984120373723 -0.0004124247142491968 -0.00486688173865366 0.46164222644421 -0.14463961454813395
81919000.0 0.7479025762174065 -0.6621960045193315 -0.08402510337675449 -0.578302741717974 -0.00011347451189559307 -0.004586455337714525 0.46023574076975693 -0.1447706647084038
82918000.0 0.7370927444551842 -0.6715400234509664 -0.09679419212332521 -0.6130711625702131 0.0002562896233769194 0.00022036353362186951 0.4808808665697336 -0.14606109200996026
83917000.0 0.7308936149093774 -0.6787691008831372 -0.1164468593471206 -0.6408216613553196 -0.0012101595723125087 -0.0014951115362876462 0.46231723481056936 -0.1695307186946038
84916000.0 0.7245378120358501 -0.687501386222823 -0.13632465474466188 -0.6756528009664052 -0.0002892265145483373 0.0005222018529297081 0.4548860948015634 -0.18061719456957334
85915000.0 0.717855084802755 -0.694257704241609 -0.16021406770401525 -0.7042828569827135 -0.000889898158222992 -0.001882759658185645 0.4564864808876828 -0.18551965218752212
86914000.0 0.711083113258014 -0.7046734011272814 -0.17677366167967956 -0.747127217371552 -0.0038051348200391095 0.0006826582073592414 0.45470179715903 -0.1903260233844767
87913000.0 0.7038018691399784 -0.7078211916840812 -0.19201344472419724 -0.7742799695007921 8.92980284391108e-05 -0.000624596121010952 0.45926241092759257 -0.19906356827650587
88912000.0 0.6970926364555682 -0.7156504273759814 -0.21093154236887715 -0.8064544600130168 -0.00029251810266712336 -0.0012382075426571372 0.4515288784876983 -0.21342106611026337
89911000.0 0.6912623679267061 -0.7230681127925384 -0.22197626812384133 -0.8460625091881879 0.003586012195976138 0.00225619074444303 0.45457059282474416 -0.22398836285164606
90910000.0 0.6823476590844899 -0.7305441960551851 -0.24895504861238393 -0.8823882196309091 0.0014009353415437142 0.0005245705508792856 0.4589904626733807 -0.22800712116044966
91909000.0 0.6740014482562111 -0.7332006898991092 -0.2639227858276495 -0.9101818965712144 0.001853572033008601 -0.004065565120305953 0.4581975716791768 -0.2473934266493467
92908000.0 0.6667546655625406 -0.7442516082445403 -0.2830383710806388 -0.9454107004228471 -0.001622329989637378 -0.0010197659802735062 0.4543605802981213 -0.2430372667085327
93907000.0 0.6617385383742308 -0.7468524603750977 -0.29933599078925827 -0.9727562642014767 0.0004130117101174281 0.00025055950797141496 0.4517917485238515 -0.27225786910714067
94906000.0 0.6485353101659654 -0.7559436246975928 -0.3220849616644837 -1.0109904893566448 0.001693908525089591 0.0009227572698265812 0.4499774423607029 -0.28343095569559834
95905000.0 0.6435683590018783 -0.7638926241754331 -0.3398202713971205 -1.0424844014605628 0.0002690114731020238 -0.0010483976475343117 0.4558022066460679 -0.2906480811713286
96904000.0 0.6339112555398618 -0.7707098847931535 -0.363210680374916 -1.0836565930822322 0.0031891460933319454 0.0008108589350032405 0.4421283062188667 -0.2955160158587619
97903000.0 0.6234675742462366 -0.777497556770768 -0.38527169020557933 -1.1142894945776596 0.0006385493391127243 0.0012532866900891843 0.44749057624898725 -0.29901542883327836
98902000.0 0.6208682680669421 -0.7826591745373944 -0.4034038313701388 -1.1555248995417158 0.0009071753837122657 -0.001086212750981825 0.4366266093958452 -0.315211696777718
99901000.0 0.6105663175960034 -0.7882261852458698 -0.43487967122378207 -1.1843615690372156 -0.0013604171478366317 -0.0001345854980275888 0.44573674460606205 -0.3298628424603023
100900000.0 0.6010989028179826 -0.7918271325175827 -0.4656635471421446 -1.2102566105694261 -0.003600797782489658 -0.002124237356633566 0.4459098397801886 -0.3274918187362953
101899000.0 0.5924713450782034 -0.8008408276450598 -0.4878613328869335 -1.253085807334352 -0.002248774176804763 -0.0017640493666947249 0.43590891638594975 -0.3339570433936482
102898000.0 0.5816058332309464 -0.8063757866334633 -0.5278769496967233 -1.2858290446509142 0.0005669674685578149 0.0024640273198538493 0.43807443586619005 -0.35796538836110864
103897000.0 0.575515703145597 -0.8149692254667222 -0.5672124691541911 -1.322119006268727 -0.0015305028010025917 -0.00030480721995914225 0.45204653931145344 -0.3532226689745982
104896000.0 0.5682051871450451 -0.8246653014838591 -0.6096576801194503 -1.354941007201188 -0.0015845238439905318 -0.0019995239765567877 0.4311695350337109 -0.3516595046558724
105895000.0 0.55810581494713 -0.8283357609497493 -0.6586039869131439 -1.394694382410036 0.006746582207560929 -0.001965403038621419 0.42426070528151055 -0.3913060662065377
106894000.0 0.5491866793127461 -0.832504219543324 -0.7133334475611022 -1.4318543487221707 0.001083103462496813 -0.0034527836240384963 0.42210443009991216 -0.37948354329934836
107893000.0 0.5433485161046749 -0.8393393928369189 -0.7632706495197575 -1.4742903839358403 -0.0014749489386153753 0.0009799777783589677 0.42220391947400737 -0.39464546501991615
108892000.0 0.5300902770900104 -0.8421596735207855 -0.8205277652986984 -1.5041531180281893 0.0026562244082026436 -0.0005053148474609809 0.4127743957221236 -0.3779505603398885
109891000.0 0.5201871355473457 -0.8506927403834168 -0.8804714188434362 -1.5425509391264287 -0.0013469570914055398 -0.0004889508404669412 0.42686822256852586 -0.39157042216973875
110890000.0 0.5141647141808346 -0.8659553620408736 -0.9572454459760594 -1.562862358737357 0.0032596693909383453 -0.0013818296613836445 0.4089498153263388 -0.39965847234426727
111889000.0 0.5012676211909233 -0.857217934628991 -1.009206930343245 -1.6020617892725502 -0.004685051692478222 -0.0010607305289431171 0.40000553377813186 -0.41289743314759386
