! Created with skrf 1.9.0 (http://scikit-rf.org).
# Hz S RI R 50.0 
!freq ReS11 ImS11 ReS21 ImS21 ReS12 ImS12 ReS22 ImS22
1000000.0 0.9777172314513709 0.0024913950128432386 -0.0006001865390361903 -0.04706162055493381 -0.0024174085923392716 -0.015413335281832556 0.3304245707665658 0.28484632868044973
1999000.0 0.9963834565724947 -0.01056893310073259 0.008691425120957804 -0.020388740004053305 -0.01041160198960526 0.0005882107620944891 0.2560791061399242 -0.06095388656178904
2998000.0 1.000986476289226 -0.02081960718575841 0.01695121007277154 -0.02334050171780308 -0.00039133930130327355 -0.006703436380657644 0.1935576714222929 -0.14645660642517871
3997000.0 0.9988075212211891 -0.02868119693499294 0.012831220180549654 -0.0044538310380115775 -0.00010826966468500683 -0.006212678363838659 0.07320703089594982 -0.23751733692082236
4996000.0 0.9970212039299745 -0.03619829143528901 0.009995855551830737 -0.004209174159373148 0.0014810237438898882 0.0022048223342787457 -0.05855025229212226 -0.19167352020320602
5995000.0 0.9991974223020917 -0.04742761050005917 0.008367208806508658 0.002196567164983578 -7.59966517362909e-05 0.003441911052509788 -0.13807856227128978 -0.09947631974220572
6994000.0 0.9964163881679867 -0.05647087518813532 0.008447821598043784 0.003251337458558395 -0.00013631222814401202 -0.003061823317900531 -0.13739441360247687 -0.01675218359264004
7993000.0 1.0014061039169562 -0.06646418900056222 0.0027260225084038423 0.0037292497128344226 0.0016484872952531506 -0.004002106301922646 -0.16604793851307548 0.0337867537477027
8992000.0 0.996355509105892 -0.0695666317035607 0.0022942395966647823 0.006650811832791198 -0.0003236437140740731 0.004921176658201201 -0.1559613530755846 0.0743785047311576
9991000.0 0.9960272187309981 -0.08173278297771638 0.0018142097911436953 0.006268110230006996 0.0012908218460341498 0.001142379083973875 -0.15606821397725892 0.08713700650417436
10990000.0 0.9962840441054913 -0.09001908348659923 -0.0011654087678233903 0.00041711843043117504 0.0010399413875710412 0.0001986239806212166 -0.14075290017890976 0.1189628043391121
11989000.0 0.9938101797578397 -0.09895259185433378 0.004647093827319195 -0.0026461729650368356 0.004477714331408829 -0.000504377538734606 -0.13251116649233932 0.13079475686295503
12988000.0 0.9950953212343538 -0.10643044148408926 -0.0005215672791733542 -0.0009152904030545194 3.622112207830705e-05 0.00338258616378915 -0.11358133461156389 0.16711680872029588
13987000.0 0.9906462664620174 -0.11765996363617405 0.0007071325700001292 -0.005580720089362037 0.0007439255424451479 0.003079509289250268 -0.08430077773337012 0.18177315792324492
14986000.0 0.9909657820766373 -0.1253221778067977 -0.0024690377180832607 -0.0016250168131998525 0.0019036593503967197 -0.0019509205103353496 -0.08917319655334001 0.20296157126202335
15985000.0 0.9928994286441218 -0.13175200606888812 -0.004699155815026644 -0.001793152997516184 0.00010776219347218587 -0.0009319925809396892 -0.054283468783225604 0.20611849987167713
16984000.0 0.9934706008953257 -0.1411488319989945 -6.776459921783064e-06 -0.0018413438791766135 -0.0017449306935652395 0.004799454230769779 -0.05183988368875546 0.21214889418589084
17983000.0 0.9929596274425382 -0.14997455080504743 -0.0029298642910025067 -0.00593598585635178 0.002278979070797767 -0.002097387930490148 -0.04980791409937441 0.2278385577976637
18982000.0 0.9851931991439803 -0.1604541032833053 -0.0034501196907072785 -0.007210294276372769 0.001852191378079522 -0.0003749571765787157 -0.015417915027835441 0.23668916092883183
19981000.0 0.9862113621992351 -0.16523685328984242 -0.0029039738937076134 -0.0035545898077787596 0.0003343169225561338 0.0034345621689050258 -0.009840413449317865 0.2289856742880117
20980000.0 0.9853365417256531 -0.17418165879658642 -0.004311485249012777 -0.008072051754674596 0.003957343025720622 0.003469149125128574 -0.006667792789277773 0.25898130133313263
21979000.0 0.9850891338068382 -0.18149232426660203 -0.007484779230846699 -0.003911582240690574 -0.002891119303965593 0.002606820437532571 0.018035804265766134 0.24002741799529273
22978000.0 0.9804916903286486 -0.19440106439129792 -0.003360796428848658 -0.0015595899855532882 0.0024509157028453723 -0.0032721536203769493 0.03193772919307076 0.2544547350320683
23977000.0 0.980775068756176 -0.1996898742458372 -0.005348143104483771 -0.002629729810239578 0.001395178983262916 0.00010599071414730793 0.037260271063201435 0.24908566069072854
24976000.0 0.9777160789407523 -0.20895560252292927 -0.005962572870017542 -0.00357831380119614 3.690861306376625e-05 0.00029059688710319863 0.06996591566006077 0.2525977662274535
25975000.0 0.97972232308951 -0.21987530057988292 -0.0035758291994085747 -0.0014072797757223086 0.013189160609233926 0.0244888661965766 0.0763890668944695 0.25185872816220256
26974000.0 0.9743267017637015 -0.22534591214012933 -0.004584890204256735 -0.00119773386384899 0.002788641160551164 -0.0007659054787014234 0.08739639972536298 0.2591706889079947
27973000.0 0.972609961844006 -0.23396328283686119 -0.002713700982821764 -0.002474967200738667 0.000109990226106168 0.0001947149617623516 0.10258593294867295 0.2620298152711832
28972000.0 0.970673599795712 -0.24100705664281688 -0.0015091712651472773 -0.005027597904850164 0.00037429134857096903 -0.0018550043200351112 0.10775952708864063 0.2591697445432868
29971000.0 0.967953850859836 -0.25123166626564913 0.0006853597022403919 -0.000853847404120292 0.0023145571539454446 0.0003054337902802566 0.14814692367630433 0.2605071952753844
30970000.0 0.9666499139876562 -0.2546878193861203 0.00041965742676997535 -0.002313040148255279 0.003928836126990943 -0.003684638432702835 0.17470776914912053 0.25175222188480806
31969000.0 0.961969654527281 -0.2663796090800941 0.004483041096699755 -0.0017658391622967988 0.0013409502017058363 0.003227694604225294 0.14770162454218885 0.2510548264276118
32968000.0 0.9612713143675021 -0.2734794173464888 0.0038784633608659417 -0.005400747172329072 -0.0004370104999236233 0.002915821138796497 0.16266771182846088 0.24270621001839407
33967000.0 0.9607548949053546 -0.2819642859608306 0.01005497226537837 -0.010310250319079154 -0.0005231250183561396 0.0013634162799860097 0.18107661542563736 0.24557821109780043
34966000.0 0.9561514096179914 -0.29419514470250513 0.01419480929992197 -0.011390906229042916 0.0033995033309336263 0.0015397794851767512 0.19413177930459383 0.24747272847332585
35965000.0 0.9529720277991117 -0.30046123851912915 0.01666645383710649 -0.015246316719312846 0.002181583405492785 -0.0021596229137000986 0.21350078759387262 0.24955488943676518
36964000.0 0.9523568576044297 -0.3079891526252444 0.015431717329741744 -0.012776262133149443 -0.0024084486106729416 -0.003226295119459405 0.21161775324241575 0.24662347684199096
37963000.0 0.94845926807011 -0.3163464027010757 0.023113986144123855 -0.022410210815145194 0.0008183789101799878 -0.0026841707702189173 0.23435410747161967 0.2405581507415214
38962000.0 0.9465957343516301 -0.32456037581365077 0.02500682885598495 -0.02527525769497669 0.001231574569848539 -0.0043065299513067815 0.2409976906731159 0.2253590866932708
39961000.0 0.9421714039665811 -0.33500975655738974 0.027020906729042216 -0.025303842415538416 5.125410487940986e-05 -0.0016299780302911483 0.25149379011959216 0.22091148200191532
40960000.0 0.9389984938869576 -0.34117524344979283 0.02321307277174519 -0.023943844029388057 0.003159700411053181 -0.0010120775218284222 0.2634432095099896 0.22664016275381493
41959000.0 0.9363967859243055 -0.3501611463535472 0.028889259350368953 -0.029318275485388293 0.00048590345873897794 0.0023869271583872222 0.26889096327963935 0.20985895733217497
42958000.0 0.9319047759808863 -0.3590694574438407 0.03501058919533294 -0.04047943990083901 -0.003088250183728059 0.001111420997283932 0.2822993662102086 0.19824690488709906
43957000.0 0.9305022973125416 -0.3658640297994357 0.032279096549047044 -0.04701477703900444 -0.00298869244985346 0.003491380972722531 0.28831493067854497 0.21473333911581086
44956000.0 0.9277281358057927 -0.3748558801517041 0.03422117180963892 -0.05107869259510442 -0.0019089543676450587 -0.003028790996478439 0.30301122192072233 0.2036304011539307
45955000.0 0.9228240281310173 -0.3838197324904537 0.03455161505596036 -0.05843747250595916 0.0019188036469568385 -0.000871620431696123 0.30491421023151616 0.193514852649327
46954000.0 0.9201469633047942 -0.39167583052055405 0.03636116802975441 -0.06571455252599659 -0.00022205943117848824 -0.0008115754045464205 0.3339212482812689 0.18199297222222388
47953000.0 0.9159697632435954 -0.40149627604932003 0.03460330670901347 -0.07138272707652703 -0.0009638004307235906 0.001712370847117534 0.33720325171155374 0.16731607383976754
48952000.0 0.9112036140619276 -0.4094347626930103 0.037777081283417814 -0.07914289649277466 -0.0024726506321624928 -0.0009044951716523566 0.3352567222463125 0.16296660968940507
49951000.0 0.9100345312515873 -0.412839019031273 0.039563960148275144 -0.0830102672208426 -0.00011812083572144632 -0.0018455059395917604 0.35080288282631417 0.16189887197490682
50950000.0 0.9055796301353282 -0.4231049753122293 0.039878655581260594 -0.09464104109360376 0.0013029207455107032 0.00264309254214033 0.350178831346072 0.14418598766558177
51949000.0 0.9017618207140644 -0.4291622765195649 0.040728718155641636 -0.10210307877414034 -0.001363526113744439 -0.0009611120761170294 0.3619228290222451 0.14095241890983903
52948000.0 0.8982188619614206 -0.43945077830597884 0.04106804333266281 -0.11156698834349044 -0.0017377106469876559 -0.002005784059126441 0.37487717660088654 0.1383867074713021
53947000.0 0.8943940443084708 -0.4454228405835708 0.04212893328651108 -0.12338085072583467 -0.0009756187747675426 -0.0017077604509184183 0.3708990504426383 0.12487929534854555
54946000.0 0.8875937721644225 -0.45759534606891644 0.0417029485198092 -0.1296505966887702 -9.243203014829486e-05 -0.0006338445155877463 0.39009132302172433 0.1190947598476134
55945000.0 0.8858852962337945 -0.46412960579644363 0.04637794951166207 -0.14237622093978236 -0.0022225265975600187 -0.0013815407877215515 0.39044535549363035 0.10652770516261317
56944000.0 0.8814547357844463 -0.47145768770078605 0.04700198604472757 -0.15356498023446372 0.0009980086685745784 -0.0009615776798127115 0.39176489567236866 0.09945457102631368
57943000.0 0.8766262485850367 -0.4824483989244086 0.04825988954040484 -0.16541765843883754 -0.00027474079001408886 -0.000319575010430156 0.4131835529073216 0.08699459092335893
58942000.0 0.8727036584731838 -0.48592965427674883 0.04856454983187751 -0.17496665195241376 -0.001005842915942877 0.0012991595715186534 0.4153240518373611 0.08680474849342622
59941000.0 0.8686208726267346 -0.49676904904308383 0.049069743476327865 -0.1860148618788493 0.0013643620555771774 0.0012581142398849234 0.4248136128791597 0.08118020689161516
60940000.0 0.8616625499583881 -0.5030759209147346 0.051257533918783856 -0.18952436184157098 0.000870329288328603 0.0008625383547196191 0.4124506093611291 0.07343488686804985
61939000.0 0.8589570305132335 -0.5090636949968916 0.052296530686963445 -0.19570696740974117 -0.0011451301400828054 0.0003955286958615451 0.4245603743447869 0.06565751383394311
62938000.0 0.854531531242137 -0.5193954961712401 0.054704008061379775 -0.21139849900089283 0.0030247779877715752 0.0041433529110121116 0.4415331161959726 0.04637999772352068
63937000.0 0.8484807093922556 -0.527530456029995 0.05563744364283936 -0.23171630211776184 0.0011791173267105134 0.003416675053008561 0.4391516700797133 0.035442115630400214
64936000.0 0.8424189812413102 -0.5332297493710878 0.05798689035711108 -0.249484576197312 -0.0004404344958925119 0.0015022996506612483 0.4422614526895454 0.0373385724351238
65935000.0 0.8392349987238971 -0.5442780930451826 0.05558186100627115 -0.2597332886806956 -0.0004311272237324169 0.0036956356377600024 0.4402897852950165 0.01890939869812622
66934000.0 0.8364135479921021 -0.5477313024360243 0.05707511224375609 -0.27638629804446285 -0.0020374273163358565 0.0008347395675834891 0.44356950141475054 0.007876883452206466
67933000.0 0.8325233707956646 -0.557177977546694 0.057484280000957594 -0.2905383089463101 -0.0010296984635825312 -0.002664858418189562 0.45115550612819855 0.00750082424930796
68932000.0 0.820844585895655 -0.548704110419077 0.05440544075365039 -0.29780443912010623 0.0037390754726567364 0.000249031240257447 0.44971883422843795 -0.01385736440506567
69931000.0 0.8194993167955553 -0.5724432618108262 0.0544816342898478 -0.3189443982219272 0.000619961137010555 -6.857922685901234e-05 0.445685564451872 -0.014510119889796017
70930000.0 0.8139722443268731 -0.5801970427531264 0.050520975963530376 -0.33074125787517406 0.00014193137488850425 0.0010028563640179279 0.4553734478393952 -0.031412939373952044
71929000.0 0.811288242744318 -0.5873070480581996 0.04436859444019138 -0.34830497171565294 -0.00034270045200062734 0.0014487860604570177 0.4435465444338369 -0.044347859667095355
72928000.0 0.8013174968685047 -0.5981507382904362 0.0401399165322039 -0.36617085336687805 0.0002512460616756016 0.0024164049077521135 0.4716190141162891 -0.0516641216434532
73927000.0 0.7970740790695666 -0.6039613116842851 0.03152853189160633 -0.3873221188148346 0.0012278785329395208 0.002539793327447391 0.46788939284769154 -0.05816412778215277
74926000.0 0.7931259413948686 -0.6119137152503639 0.02968993220546712 -0.4034535261260604 -0.0003037705508970428 0.00037637486617029457 0.47312420055540405 -0.06593308006038998
75925000.0 0.7847959360813485 -0.6175727781032776 0.016129687927721355 -0.42501080078092646 -0.0043471654954259295 0.0008699516326085205 0.46718660653165583 -0.07782916876361826
76924000.0 0.7806578138353057 -0.6267820553429087 0.00707350272044144 -0.4490438232572785 0.0015079675222528436 -0.00023259084575842515 0.47992655388084327 -0.0884266652659596
77923000.0 0.7743641226181638 -0.6307403829649735 -0.009046412053952827 -0.47078186731245303 -0.0014732543289834954 0.00336830072223835 0.4647579463015948 -0.0973970249777885
78922000.0 0.7684972571134434 -0.6434053501511424 -0.021576131308055586 -0.49822839709215444 -0.0016527763550082581 -0.0032139726572616664 0.4691363527542123 -0.10878882974586718
79921000.0 0.7607991735982637 -0.6465317740600219 -0.0441791524077268 -0.5259203441296265 0.003530969055965686 -0.0012477500177170058 0.46370245708304686 -0.12112780429011784
80920000.0 0.7570406735110232 -0.656103938185846 -0.058351510679691174 -0.5511946337931801 -0.00307770798706516 -0.000691274848634985 0.47408562207459776 -0.12985652132696923
81919000.0 0.7514921896598339 -0.6618787659120575 -0.07593718839227531 -0.5813841342933914 -0.0007482411538896343 -0.002573323121437708 0.47475958051077644 -0.13483579232989873
82918000.0 0.7402585478673219 -0.6700376886827814 -0.08623179305299258 -0.6106103923901606 0.0014313924146623729 -0.0009588335266077327 0.487147414055523 -0.1270691327743167
83917000.0 0.7358333437124995 -0.6782667540392072 -0.11015650268153307 -0.6382614349942924 0.0005997799997733461 0.002468122251504549 0.47539287485627846 -0.15097143901043916
84916000.0 0.7275265944373804 -0.6859521703707535 -0.1262671913802484 -0.6725915104422177 0.0020073103177477053 -0.0009121031439829633 0.46642066551185374 -0.17098418867684648
85915000.0 0.7230237249547298 -0.6912755063978379 -0.144322796480469 -0.7030472239871637 -0.0010603250270321129 -0.0008794982508824842 0.4705165611970516 -0.17320266767374345
86914000.0 0.7165631868319455 -0.7003508968040566 -0.16194900548778535 -0.7423846515267657 -0.003057846810897936 -0.0007828651903778338 0.4668391460553588 -0.1754811397281867
87913000.0 0.7102544134577009 -0.7074129358478379 -0.1825761894606137 -0.7696774212837753 -0.0012651729048205355 -0.0016661662568327234 0.4645860922732823 -0.1798932654638335
88912000.0 0.7010157126041178 -0.7137990553083837 -0.19937089390418136 -0.80489181863518 -0.00024991418805037817 -0.004342627410777963 0.46818924382244204 -0.19771583421408087
89911000.0 0.6957675150551449 -0.7219047403882237 -0.2136584167488376 -0.8427898152667602 0.0031242937679576577 0.00016607004728409755 0.47278537029567363 -0.2154457731573835
90910000.0 0.6884662376185086 -0.7269948515068146 -0.22444416600953654 -0.8764547124867796 -0.00020596750143913147 -0.00269269878439957 0.46438845146913676 -0.2146088726569739
91909000.0 0.6786691062288904 -0.7328472793020924 -0.25122874788318883 -0.9067479969418434 0.0006811385948643634 -0.0012924829068046513 0.46582206951683974 -0.2278811941342429
92908000.0 0.6715502837114261 -0.7420091661449358 -0.2705400191359129 -0.9393201316755326 -0.00014326156208226346 -0.002757020307725489 0.45641541867790486 -0.2540049071673081
93907000.0 0.6636522536455679 -0.7469848532006247 -0.29020537600627916 -0.9711851630956139 -0.002293594498070848 0.0024016457159662693 0.4636436905581899 -0.25313082098113115
94906000.0 0.6512990774943166 -0.756385718754031 -0.30812779201589235 -1.008979027102353 -0.001822207883023057 0.0005679813269753062 0.46607755561258135 -0.2526720642773972
95905000.0 0.6434402816088098 -0.7627703349162024 -0.3297295135503291 -1.0436163445145268 -0.0001259641078035167 -0.0016295638625746657 0.4545810566726263 -0.2748782585425745
96904000.0 0.6360245084349171 -0.7721163122536151 -0.3476693853500615 -1.0801116906928239 0.001546523895895266 -0.00031160877162546 0.45366959586545647 -0.27471845726902555
97903000.0 0.6291382100068902 -0.7747372424643896 -0.367469285282148 -1.1148896844994252 0.0004862902900662849 0.001718354585260926 0.46236496587335985 -0.2783729497597185
98902000.0 0.6247315031574241 -0.7849690595206064 -0.39035520723816597 -1.150083756898622 0.001824322505186176 -0.0023959486767398076 0.4406381642019848 -0.2969007834188126
99901000.0 0.6145388462918342 -0.7894386854565092 -0.41996646708675117 -1.1819836829240382 0.0008136925277585035 0.0011560413821027243 0.46283719086746317 -0.3169698281633687
100900000.0 0.6058583870151487 -0.7908014721561932 -0.4500865907533814 -1.2112620585604084 0.002091962944715356 0.0005678255283816102 0.46361765810976185 -0.32589853439041416
101899000.0 0.5998405371947286 -0.7994623195566751 -0.4755897443422536 -1.2533279861733997 -0.00020541676672754407 -0.0018341342340450991 0.4575564439148224 -0.3222857441991841
102898000.0 0.5863166760462694 -0.8067836713835091 -0.5154352005013527 -1.28877639226521 8.738267436414562e-05 -0.0019671674842894823 0.4500214024644821 -0.34543073136144187
103897000.0 0.5798016104225707 -0.8136589965503938 -0.5521859228846182 -1.3264963971820891 2.1643778861450347e-05 -0.0018485743365503583 0.46896311169781185 -0.3385058150751707
104896000.0 0.5724523757052553 -0.8231560002104152 -0.5971089300273801 -1.3570453113918333 -0.0021633069378753905 -0.00017039711626965021 0.44994268901697015 -0.34859565258358877
105895000.0 0.5611811871853077 -0.8233201020103229 -0.642184580394315 -1.3965135136778224 0.00218672573338936 0.0013002496046270373 0.43869561916912686 -0.36956437726439006
106894000.0 0.5537754057509268 -0.8309622682874334 -0.6970764598443668 -1.4347387445649624 0.0008721453322416593 -0.003579362650359011 0.4309630910324196 -0.3796090203206221
107893000.0 0.5463124979006777 -0.8377002418637123 -0.7479263439547349 -1.4667010354310464 -0.003102371825916458 -0.0007045400304707895 0.4395677181796748 -0.392622313144979
108892000.0 0.535213471717806 -0.840629207315433 -0.8107384812798484 -1.5074430302456026 -0.0022534480022636913 -0.0003605979361973387 0.4219243661900173 -0.3896039850054825
109891000.0 0.52348238803168 -0.8488946202360158 -0.8658278613350764 -1.541045242111966 0.001972803271421939 0.0008179664503699992 0.44068843653704914 -0.3895228597496317
110890000.0 0.5201870162179103 -0.859846660773482 -0.933025269040479 -1.5650699885091217 0.0006561637424032515 0.0016735178502174273 0.4252701693678811 -0.3946871718143545
111889000.0 0.5028654001374789 -0.8563518333427991 -0.9911657405001232 -1.6039978339632641 0.0014038932706209825 -0.0005735031482338361 0.4155287805678182 -0.4082091855958437
