! Created with skrf 1.9.0 (http://scikit-rf.org).
# Hz S RI R 50.0 
!freq ReS11 ImS11 ReS21 ImS21 ReS12 ImS12 ReS22 ImS22
1000000.0 0.9732889860132649 0.00043124741078235925 -0.004137624692690728 -0.030495885028890966 0.00032681091713236227 0.001752095034056973 0.3792278327498931 0.2845496844714805
1999000.0 0.9966195477241946 -0.00827486746006556 0.006221641219311055 -0.027924896198298924 -0.0091043879361825 0.0039350836598469625 0.2542172214104188 -0.07070457756366345
2998000.0 0.9988180430575261 -0.02104414965314588 0.011951032905146042 -0.015808265079701712 -0.004647772074840764 -0.004382633985496665 0.20259368858469323 -0.14846921166237914
3997000.0 0.999981911124871 -0.03348952342600102 0.007450214213122414 -0.0036804363745877706 0.00874979957067635 -0.00465417019993811 0.08123767089181835 -0.23013375410102838
4996000.0 0.9976528301590102 -0.037048409160544866 0.011752038869558713 0.00461607073074939 -0.0018901374966696462 -0.0023144395418077794 -0.06319323187532667 -0.17222653546649308
5995000.0 0.9962092192681404 -0.04935230657681629 0.007858863331740238 0.004737170415725903 -0.0027271638493997553 -0.00011933266541944367 -0.12392867308878126 -0.10325162082724891
6994000.0 0.9967918920600551 -0.0550447110892177 0.0075223914956984075 0.0026492523169272244 0.0022859566597797543 0.0010732332095628556 -0.138097702141335 -0.03589727115371196
7993000.0 0.9948582152897882 -0.06782373507782699 0.001779641623977312 0.005007586861474037 -0.004393953984673272 0.0029151456000642375 -0.14630269334062593 0.042136341180016745
8992000.0 0.9935170560604463 -0.07108393343980167 0.005636121417177451 0.004922864876942455 -0.0029365095927059368 -0.0028719434674356 -0.14526504705503931 0.06348343598402037
9991000.0 0.9936329509748334 -0.08006771388852209 0.0021745319754801094 0.0016181093920420134 -0.000677377126271672 0.0037266385272795013 -0.15303427503365152 0.08255731528680364
10990000.0 0.9930267798683433 -0.09128705408933278 0.0042799971121454715 0.0020790241060715054 -0.002688060392723495 0.0043613104200424906 -0.13615543716982914 0.12465481934964533
11989000.0 0.9921179184327376 -0.0962937476303215 0.0024325888926646807 -0.0033442411983713766 0.0028255303334393605 -0.0031775071076103126 -0.13023368909110894 0.1341875017232245
12988000.0 0.9928517454116321 -0.10964247783626493 0.0009965889839099284 -0.009547139399491263 0.0005037921087961437 -0.003429829836840121 -0.11040073557360063 0.1756444592032664
13987000.0 0.990243845054596 -0.11653668183232921 -0.0027673150155007134 0.0010076492422883508 -0.006186426574019562 -0.0014057923694360368 -0.0915101985958331 0.18660109862688695
14986000.0 0.9895951187260928 -0.12347853684948673 -0.001548109149496463 -0.004028688972326524 0.00025723305694502974 -0.0006015758365233057 -0.07496756197417263 0.19789821521655665
15985000.0 0.9892026900810957 -0.134291613518207 -0.0006706041128583492 -0.004736767439279394 -0.0009427470811743564 -0.0008433874022210858 -0.06956907966955257 0.21629234697450914
16984000.0 0.9874058544288116 -0.14162468417867194 -0.002605350421446209 -0.006425697362307851 0.0008138228979870361 0.002736123860572285 -0.060698990495276765 0.21828208373135966
17983000.0 0.985629254859138 -0.14928883746221722 -0.0023876729315067324 -0.00037413903910985593 7.634651281285917e-05 -0.0007356730831432369 -0.05525382656749452 0.23783268328614815
18982000.0 0.9849390671995403 -0.1579758908317961 -0.006192107373836199 -0.0086778828210505 0.0001394057476978117 -0.0009263978052876713 -0.017709892036373454 0.2413397595013097
19981000.0 0.9846013023146111 -0.1655993283481903 -0.003009595118036336 -0.0021618157783427922 0.0010543619928910192 -0.0008668851349232366 -0.01436869189370053 0.24344483285422985
20980000.0 0.9840722771967853 -0.17350716031545638 -0.003640575988405298 -0.00360811065710945 0.003106543636641156 0.002582284202357352 -0.0009663502999376393 0.26980783744126746
21979000.0 0.9801304732315576 -0.18262442289267605 -0.006544722807453144 -0.0026233348063300324 -0.0004624731317683829 -0.0010032164452287173 0.025244190919335826 0.24633346216677127
22978000.0 0.9778161934753704 -0.19281916408214492 -0.007668750452235839 -0.0032445467769524634 -0.0009621412700017012 0.0015557070070111253 0.03125569806884448 0.2604868655707409
23977000.0 0.9790263600266009 -0.19874341622822195 -0.0037539409018973254 -0.00039737850103810634 -0.004396009781954994 -0.00032740121556280806 0.04465894719041083 0.25984845865058365
24976000.0 0.976772889844136 -0.20782942699130724 -0.0029946937651516804 -0.004366879899821112 -0.0027004694731446186 0.00211802610756195 0.05796837302138708 0.2641264584448391
25975000.0 0.9760512681086316 -0.21878431234558884 -0.004900190478688946 -0.0006641769564409794 0.008649757476124901 0.02269113902427821 0.07786765109613568 0.264586420031453
26974000.0 0.9702797735049551 -0.22561302947120113 -0.007618800868123388 -8.977881327393644e-05 -0.0005079646255988643 -5.102805656543762e-05 0.08793227324130176 0.2664234447169901
27973000.0 0.9719478673457135 -0.23111525968468516 -0.002184961189032718 -0.005037065841104396 0.00013294154499603214 -0.001296075216736694 0.10991029368796469 0.25617565497608347
28972000.0 0.9667965312977435 -0.2441297517707569 -0.002208606021747015 -0.0012636277844772271 -0.002285111198702215 -0.000877497504483475 0.11970754714470042 0.2544696098920249
29971000.0 0.9672614072379287 -0.2509882759813732 0.0010662218817267994 -0.0035568065117062473 -0.0014868336474517083 -0.000458489936167032 0.15410975765065404 0.2648652972698701
30970000.0 0.963442498252948 -0.2558508917418861 0.0024424259245315904 0.00172871230980635 0.0017688069607717618 0.0017406809548062973 0.17147028635856953 0.2543851843191937
31969000.0 0.9630940878870726 -0.2646553296307625 0.00428029438634116 -0.0036594832080030573 -0.00046875031205194926 0.0019179394897806865 0.15395188696451362 0.24745777907567507
32968000.0 0.9614596567571864 -0.2740583535642606 0.0063407889608179035 -0.008621316339032563 0.0019842995889251605 -0.0008377945270174777 0.16367730041825732 0.25722612478671664
33967000.0 0.9585987074767787 -0.2828870967609683 0.0076376446034003105 -0.006143882031513149 -0.00021760714297118554 0.0029238735434688207 0.1835993809189547 0.25498677136309755
34966000.0 0.9546414776399941 -0.29398505086199295 0.011245954960502517 -0.012076168175226314 -0.0013639438352730348 0.0013150968259488288 0.2016669797534342 0.25525382114696726
35965000.0 0.9517361454548937 -0.3009733633391194 0.01629110647298165 -0.014462192611633114 -0.0009078825933455224 -0.00020859315476354651 0.21256773927079228 0.25334281985148993
36964000.0 0.9493276000641525 -0.30653686761372834 0.017850257602383884 -0.012765802706392436 0.00248967857803112 6.994325638646955e-05 0.21536602679913142 0.24686814262224238
37963000.0 0.9468487962050735 -0.3184286011478923 0.020233644785449457 -0.021959082011465184 -0.003884187697169636 0.0012881300755964208 0.23068539286356715 0.24141542381625428
38962000.0 0.9440872515994345 -0.327117085081819 0.024213600464769256 -0.022615380682900872 0.003300113184047679 0.002122691765889407 0.24305355422268715 0.22750742606719293
39961000.0 0.939977659934391 -0.33555378699884536 0.023686674595762153 -0.02831279341736657 0.002312405821259147 -0.0004046178540250153 0.2545541929313056 0.2259743558528083
40960000.0 0.9366685940940364 -0.3428516002002926 0.02206694367012983 -0.024715911981339413 0.0012140036992480568 -0.000917097034512725 0.2727526178985498 0.22728778568037414
41959000.0 0.9323688323123479 -0.35347830880056685 0.02586613110954368 -0.028771725460665316 0.0033417616566326037 -0.003857160739852581 0.2671154365817135 0.2145421840985138
42958000.0 0.9297688489386263 -0.360230434907077 0.033355301597078474 -0.041640990324654084 0.00210572421017565 -0.0011359098885387587 0.2871376331689267 0.20629381198462277
43957000.0 0.928853080015747 -0.36599590590778514 0.03078325465034632 -0.04437197573279707 0.0012224795847935058 0.00189187976012301 0.28031106175247666 0.2093008864271702
44956000.0 0.9236993755140919 -0.3755657565578586 0.034105783028724294 -0.05085859052960063 0.00046421461246826844 -0.0007643922445681507 0.29874366940298697 0.19761964051085312
45955000.0 0.9208349745031542 -0.38447013134153263 0.03663233583416331 -0.057625398166286666 -0.0014139352248270566 0.0023016467101823553 0.3079663925620661 0.18172329685625718
46954000.0 0.9182797487613672 -0.3927824338138867 0.03559602053270363 -0.062486102772979384 0.00258193895316029 -0.0004034515727042673 0.3355599200234046 0.1738924754521779
47953000.0 0.9132045516687963 -0.4016944450342731 0.037968437014017115 -0.06981029170095635 0.0019913600632925467 0.0033791196308540932 0.33645398774965624 0.1685943760401105
48952000.0 0.9093488872544403 -0.4108463651404393 0.036390954513745424 -0.07915856902918668 3.2788275018594004e-05 0.0020867699398214234 0.3368632167914174 0.15997216812601664
49951000.0 0.9058095668546206 -0.4192256555360666 0.03905852136083733 -0.08692640467018646 -0.00022135176777939936 -0.00015561225421198313 0.3595569937824011 0.14795846730472167
50950000.0 0.9024719162589125 -0.4276471914522136 0.03880433197961819 -0.09341957079148663 -0.0018367273876174672 0.001107278859220167 0.35986399798772234 0.14583437600679947
51949000.0 0.8991890485735302 -0.43423914883555736 0.04232697134990355 -0.10037474022598734 0.0019537988270961954 -0.003123382359388221 0.3650190585575839 0.1411765899706292
52948000.0 0.8953323214420794 -0.4423629853436397 0.04232918534215672 -0.110014403066641 0.0009146831968068754 0.001276994691494117 0.3752605781885804 0.1452400564499077
53947000.0 0.891226744820271 -0.4483605498871011 0.04387312738273952 -0.11819354783852591 0.0005275119048278483 -0.0005486596453147389 0.3754734722724277 0.12154096838386008
54946000.0 0.884880308734101 -0.460233287730953 0.04433490837849127 -0.13013972945427077 0.0010105118120952087 -9.857842541376773e-05 0.396633627853534 0.12540141827245935
55945000.0 0.8821174712350411 -0.46724376696420106 0.04807690577054861 -0.1378484454682743 0.002822841592627402 -0.004661075256368727 0.3896414932408899 0.10594390598599575
56944000.0 0.8797948414867744 -0.47481818884206783 0.05030689247874978 -0.15171189940720375 0.0028763601310485376 -0.0010365347395598665 0.3969206029176893 0.09917854501205381
57943000.0 0.8734936888260459 -0.4852284545634836 0.051039658770162345 -0.1607949959247345 -0.0025795863074135395 -0.0027276242524043853 0.40899764468812916 0.08716379976029515
58942000.0 0.8668032179234751 -0.49146498320277965 0.051328379708551766 -0.1720042918438512 0.0015529279750225219 -0.001052842463235811 0.4297036123816864 0.0891757424436677
59941000.0 0.866798799457195 -0.49571773825894655 0.052767134339433405 -0.18095043288285936 -0.0014160809937494498 -0.001963869951611249 0.42987134852600084 0.08280448981545342
60940000.0 0.8569553255974531 -0.5047345805590924 0.05209728403575945 -0.18391807243581967 -0.0025843485435129046 -0.0008093048888315992 0.4082592063324897 0.07877694476847663
61939000.0 0.8547830118010639 -0.5121863318298355 0.050227444872169714 -0.1922408430465627 0.0019215212913862424 0.0018418015832465094 0.4242319028655067 0.06136106338184902
62938000.0 0.849755712559045 -0.5228836218722763 0.05548074508077274 -0.2096370100589166 0.0018929284710433045 -0.000371157733064606 0.4432116994034365 0.04449015974749732
63937000.0 0.8445799704038701 -0.52978930714162 0.05487095981311696 -0.2321620745134685 0.0037102269731815398 0.0012021557920985737 0.43476537318190167 0.040346372267674444
64936000.0 0.8382405122979376 -0.5368614915548435 0.05821282469116938 -0.24460000396254122 0.004225880756838138 0.002378959269488473 0.4404264291633058 0.04450040827924556
65935000.0 0.8359229427564011 -0.5452246479924385 0.05512925238522978 -0.254575431307119 -0.0018234426796460816 -0.0004872275355376762 0.4341136231958286 0.02067073424499242
66934000.0 0.8304146190001995 -0.5514985332426129 0.05682320361411078 -0.2712733754426322 0.000554283963557108 0.0024329476555033864 0.4373009614786395 0.005471623776125476
67933000.0 0.8265360008510044 -0.5610770448897622 0.05549368186722499 -0.28619773524229575 0.002723921857075963 -0.0009175688234916422 0.45282681461860547 0.01345555255376432
68932000.0 0.8227402123256354 -0.5640011872783322 0.053500270109737055 -0.30066959992979864 0.0016122488257251807 0.005105425806742056 0.4568950645245736 0.0008596649903940027
69931000.0 0.8126819463393237 -0.5766518982957818 0.05302458659682056 -0.3157453928670952 0.0009643405812910997 0.0026740919856046734 0.4533211960537985 -0.01670529229297112
70930000.0 0.8063209981738103 -0.5835024277995683 0.05134455883904701 -0.3298125889313864 0.001664551177079018 0.0026260356884446286 0.45498802412495576 -0.04173788710846129
71929000.0 0.8027008923017431 -0.5911875509091725 0.04557125481243085 -0.3476732265225214 0.0007855910929484047 0.00016744906407959085 0.4480672533870313 -0.047270199546457
72928000.0 0.7971320234999612 -0.5999472411936381 0.04133223745173505 -0.3625871687846571 -0.0027085236026380393 0.004298300600697054 0.4628414466333783 -0.045166319393234546
73927000.0 0.7918237157277219 -0.6066933886924629 0.03882082035670532 -0.38406546835543864 -0.0008308644780627544 -0.002163319408767348 0.45857538208314136 -0.05247421940258781
74926000.0 0.7859823347408353 -0.615453890100912 0.029512002944775316 -0.4011471499678655 -0.001857610107171991 0.0019723298261275835 0.45569380213725175 -0.0539662642518938
75925000.0 0.7799845965070727 -0.6219751787553093 0.024427925808899995 -0.42368242568801334 -0.0017560644106675832 -0.0026104912100573547 0.46780532450454637 -0.08669882434148724
76924000.0 0.7731001280085299 -0.6295833068388922 0.01091741042536924 -0.44231367766851165 0.002588204256963618 0.0016131436847148506 0.47678130392786644 -0.08915206428256993
77923000.0 0.7685657588428718 -0.635176040585821 -0.00780918385320919 -0.4673556413509489 -0.0014839847684983791 -0.004475745574646173 0.4618670573598484 -0.09407527797861943
78922000.0 0.7622161483447193 -0.6466198775869337 -0.01372766713770362 -0.49382700532855267 -0.0005520567177058732 -0.002851586806740559 0.46082615964044327 -0.10433429683972939
79921000.0 0.7519758959411605 -0.6502069524755092 -0.034126653321525376 -0.5184875164703896 0.004810423069487882 -0.0024846569707987426 0.46147632276085776 -0.11865541961544204
80920000.0 0.750830803731847 -0.6602808901038927 -0.04664812240261888 -0.5473752237175157 0.003751098732958761 0.0021018894327949744 0.4847066320130844 -0.13443661181587543
81919000.0 0.744970144504848 -0.6654595691733839 -0.06296892521855231 -0.574612793565215 -0.0022732549909576447 -0.005144088926339256 0.468634667200692 -0.1357685135872695
82918000.0 0.7343825223402022 -0.6740256382818405 -0.07724169534382656 -0.6045202111794208 -0.0042539632062928 0.0008037663620151548 0.482538737568609 -0.1434042651900324
83917000.0 0.7274812888951483 -0.6824403828353461 -0.10275736917691239 -0.6349061722056573 0.00015819594347970373 0.0035950189005049143 0.4786811391019306 -0.1427556711065384
84916000.0 0.722607236766898 -0.6875080293328276 -0.11556735532317368 -0.6677579529167791 -0.0028691974478777618 0.0019676227328661706 0.4709720225215068 -0.17135678278667968
85915000.0 0.7147600834627905 -0.693359766768497 -0.1307115636812282 -0.6996874076700311 -0.00031167475031850997 -0.00010091673822778097 0.46887737530706136 -0.17268070731312482
86914000.0 0.7080827008857165 -0.7034280812502364 -0.15154130059876403 -0.7336896274357673 0.0015098882613090623 -0.0007824049359616137 0.4720492387989395 -0.16675849456726866
87913000.0 0.7004916774565256 -0.7091848573391447 -0.16869834673748055 -0.761285051037416 -0.002210725739684933 0.0008572698377375158 0.4595165741531615 -0.192103725530095
88912000.0 0.6954430182428188 -0.7158368724139029 -0.1842873808488213 -0.7951516337340202 0.0006277574257818069 0.001623275093960293 0.4719434387172332 -0.19576980885660886
89911000.0 0.687083915066077 -0.724489227035483 -0.20059407043066424 -0.8344256151090147 0.0003503201220393064 0.0015736453297647362 0.46476113837794497 -0.20427094044586136
90910000.0 0.680300076897367 -0.7311585609198844 -0.21848785464075302 -0.8694651228079716 0.002413866074284249 -0.0036430949370582625 0.4636029362300162 -0.21152916978021624
91909000.0 0.6717406367142869 -0.7353743060501126 -0.23758637999982052 -0.9021144126343293 -0.00018909430891877026 0.003088022622210092 0.4681908447871685 -0.23553242578141445
92908000.0 0.6638076307379374 -0.743950824696825 -0.2533582155450889 -0.9343228888991258 0.0025172674087001164 -0.0004742641580387449 0.4634803658680971 -0.21981782362396107
93907000.0 0.6576545602347665 -0.7494423313287126 -0.27087731486134714 -0.9683288146613767 -0.0007345649987358513 0.0021726591126304644 0.47106814067718616 -0.25190718482992636
94906000.0 0.6465807992149266 -0.7598523619543383 -0.29076256220346614 -1.0010414545791175 -4.498956969782011e-05 -0.0018074977596786684 0.466582049839995 -0.252033547578707
95905000.0 0.6375443345124362 -0.7654367219542677 -0.3115231414639775 -1.036398387777796 0.003467654528247566 -0.0013288598696341728 0.466879575947428 -0.2715946287450284
96904000.0 0.6317743662358585 -0.7728113692928432 -0.3326659474710291 -1.0769718447077445 0.00042225793381825226 0.0030983717020705475 0.452605799714006 -0.27195273444340484
97903000.0 0.6225891636565963 -0.7779011863484847 -0.3531828671977614 -1.1108729965207405 0.0013217461999447384 -0.0023164281874108773 0.4613847366901435 -0.27964639027594645
98902000.0 0.6194568679069231 -0.7852552482243877 -0.3711532370006292 -1.1480439127877273 0.0016092025220239919 0.002026427997045941 0.45760126319710215 -0.29368629162665477
99901000.0 0.6071229285667327 -0.7898379125779884 -0.40260567627499577 -1.1772424118507425 0.0028444310185603942 0.0007947674684808605 0.46083059130001097 -0.3134825106877292
100900000.0 0.5982853715323674 -0.7936997546644305 -0.43189802043842096 -1.2056527792931817 0.0018475729380240404 -0.002905094351511017 0.4592756238383287 -0.31205222559038737
101899000.0 0.5920846359260155 -0.8012298431095521 -0.45443368862913003 -1.246876427705618 -0.001502480854809583 0.00040726866932611517 0.45084786986236786 -0.3131750248432423
102898000.0 0.5794612290003802 -0.807262067454782 -0.4982038297593767 -1.2814420714137218 0.0017133802664007155 0.002262514027361734 0.4504601374262256 -0.3363014180448039
103897000.0 0.5713758799584824 -0.8156068969961386 -0.5365030732656096 -1.319302599309785 0.001664434293255843 -0.0012691953379736006 0.459777854971899 -0.3331522361900629
104896000.0 0.56394861232583 -0.8248381013924919 -0.5748757773464269 -1.3554533971776166 -0.0001283812709680673 0.0027978526537622787 0.44484538829279446 -0.336796878184215
105895000.0 0.5540032122773892 -0.8287362310912526 -0.6196894782393342 -1.398272882609279 -0.0012319833687851661 0.000462679828764723 0.4347636191006285 -0.35871367182827535
106894000.0 0.5453898774482594 -0.8340641838383738 -0.6724066689645614 -1.433371935526848 0.0009397354596057528 0.0024381589792422404 0.4255366646564097 -0.36754193708623006
107893000.0 0.5368412912627759 -0.839712617778437 -0.7233403620158766 -1.4666364358789608 0.004510048156165665 -0.00022794524722110406 0.42530989230895844 -0.3853818807379794
108892000.0 0.5260698810397366 -0.8447263806717754 -0.7819263887418194 -1.5098824737436278 -0.0007165708247967414 0.000420838980175456 0.435232636927932 -0.36746659229616907
109891000.0 0.5155434008620285 -0.8498976270755283 -0.8347889239046813 -1.5429433167132436 -0.00018953259935447446 -0.0018151559280466614 0.4476934831976908 -0.36895030827242703
110890000.0 0.5110034250533395 -0.8596285018359711 -0.8985258426967527 -1.5657151101672648 -0.002388660187984588 -0.0009340639985640353 0.43079923493565214 -0.38529342421569673
111889000.0 0.49317675528064187 -0.8589915306432643 -0.9645229845505995 -1.6149266012960477 0.002188975602331955 -0.0016683438207082664 0.43150624305773805 -0.39812288486746933
