! Created with skrf 1.9.0 (http://scikit-rf.org).
# Hz S RI R 50.0 
!freq ReS11 ImS11 ReS21 ImS21 ReS12 ImS12 ReS22 ImS22
1000000.0 0.9840047587895646 0.0015754871735745113 0.0011819585892923153 -0.06021208640492453 -0.008215075285312193 -0.0031623462834346272 0.3462436251180702 0.3117273633595506
1999000.0 0.9936998097973883 -0.012127649526779555 0.0019717340996006053 -0.029168964345702642 -0.0051522809982097375 -3.1678629448855286e-05 0.24344217022250522 -0.042585540539563295
2998000.0 1.0001189182326595 -0.0238662371434022 0.012273596069276206 -0.018422086049854607 0.0008535629192992313 -0.00010107720491967457 0.19325673580817557 -0.14464472532646683
3997000.0 0.996784484086835 -0.03073484500338902 0.009062343716781496 -0.010617045906833546 -0.0037773103743970514 -0.00021399952282285048 0.0813704480113807 -0.23163792749659365
4996000.0 0.9955755887210509 -0.0410922795635996 0.012056992845994393 -0.004300584661710546 0.0027227926158384145 -0.006390482471115603 -0.05668485418653636 -0.17904088374226462
5995000.0 0.9973846457871008 -0.046677606176723334 0.011462873126509166 0.006367266507541047 0.00014430968128532548 -0.005824256796268801 -0.13539898820637686 -0.0953613774410239
6994000.0 0.9964324757523382 -0.060877048526650566 0.008203610890575343 -0.0001271444964386743 -0.0016543914039799218 -0.002985351238989701 -0.15215336241918495 -0.008124709556418388
7993000.0 0.9970327920027673 -0.06852910664569153 5.7967389503630374e-05 0.003645883013691556 0.0006615798083189131 0.005484002931119267 -0.1622347308675199 0.04702658869600676
8992000.0 0.9944791169820751 -0.0727556933362744 0.006182535618367542 -0.0009674218367478917 -0.0013818203708440932 -0.0009649697757677661 -0.15948057587288506 0.06052080485670154
9991000.0 0.9938892137207805 -0.08255562604921982 -0.0011895362809894326 0.0020484893064670433 0.005234005617453394 -0.0014945666630385925 -0.1427826755302056 0.09006111480925619
10990000.0 0.9926035490155585 -0.09300645514542424 0.0006639116488387314 0.0026389211635629126 -0.0025322394428562824 -0.00025920729724084745 -0.13366754076994558 0.10243115532646763
11989000.0 0.9920794209900843 -0.1016292070321281 0.0015830817099081007 -0.0022349642945144435 0.006662312687826386 0.0014620211744798915 -0.12246225209560041 0.14028796507424865
12988000.0 0.989819804036742 -0.10886436871936384 0.003781448377506869 -0.0026218591981360616 0.001867035232417892 0.0022667686382624648 -0.11571411665860286 0.1584806863498491
13987000.0 0.9901900385047567 -0.11826140930560672 -0.0023760253437378 -0.004468145151448829 0.0012655074430926174 0.001343754216170943 -0.09801712292580846 0.1843658359093597
14986000.0 0.9899555057391127 -0.12551940843478177 -0.0014127370631260385 -0.0031741617164961866 0.002415020850133222 -0.0004835779405088798 -0.0865946882104643 0.1976863553202964
15985000.0 0.9883525088846434 -0.13508795845089505 -0.0036810066576897656 -0.0019510310342594807 0.0002486331156291466 0.0036347779750918133 -0.07911078741491175 0.22188871979143654
16984000.0 0.9854932735796098 -0.14480578819351275 -0.0009138592138561539 -0.005258080308225636 -0.0035578646891896255 0.005946244595172453 -0.06416538078236772 0.21809579597602005
17983000.0 0.9853628815495098 -0.14773077471010157 -0.002382472886581833 -0.0033997225988016177 -0.003618632132788831 -0.0008639761530697215 -0.04920506107679184 0.21525788486433933
18982000.0 0.9836768803912784 -0.16179591107837857 -0.008280952315384836 -0.0013159387707726026 -0.0018578301144738128 0.0008096262995717338 -0.01952043933406228 0.23203427802685794
19981000.0 0.9821627649554807 -0.16665776890383796 -0.004510149256091637 -0.0030435789855162362 -0.002970346138386231 0.0008394439949597621 -0.008458947355014356 0.23203024840717448
20980000.0 0.9806937436267481 -0.17716472597092872 -0.003703340739475977 -0.006388926614059479 0.0037451363603281896 0.002617732738563607 -0.0028241502288559946 0.2532234215759302
21979000.0 0.977533102486719 -0.18646950075465363 -0.007841390328218595 -0.0005287236454669836 0.0021263839106891442 0.008382248236747844 0.016107222570841805 0.24752252380349826
22978000.0 0.9769630553819284 -0.1952027560558692 -0.004857224947106576 -0.0026506670633645265 0.002891724878727638 -0.001830897969043504 0.03818840995854662 0.25785907306875583
23977000.0 0.9784810530371723 -0.20130130807142452 -0.008675953296615996 0.0034143911169398893 0.001978299732749432 -0.0029596218468418436 0.04512844617644273 0.25569345366094126
24976000.0 0.9730054431399796 -0.21342669039267748 -0.007766238758170095 -0.002242433055856207 0.000707437094221845 0.0017594128641805346 0.07092887100783354 0.2528004343148843
25975000.0 0.9735347259567522 -0.21698517675019072 -0.008531147628254328 -0.0025954327537099807 -0.01636270061137074 0.020963895505192915 0.07454949169177087 0.254958889916764
26974000.0 0.9700815044478162 -0.22829383713377296 -0.008415147958083154 0.001484971983765655 -0.004849031987180342 -0.003953201574964508 0.09048373052574944 0.25516017109383193
27973000.0 0.9666937609973846 -0.23677412661380773 -0.001984784428749102 -0.0031987460101413337 0.0005269683590198133 -0.0007655457116077167 0.09020678122728865 0.2419181664868765
28972000.0 0.9664566193347918 -0.2467058479727733 -0.0006427080294823763 0.0003543338937568363 -0.0002720280775814631 -0.00037906081033962544 0.11448915612389099 0.2553755171175172
29971000.0 0.9641224698416889 -0.25561793580725434 0.0012841457089970616 -0.0019975160242322047 0.0017751414928591379 0.0021352085423981025 0.1493891320711192 0.25927671864060164
30970000.0 0.9618940601619207 -0.26111738148812574 -0.0015107489421680674 -0.0008712077148757725 0.0010538244075552633 -0.0011025995247780577 0.1652974603755329 0.25179748925356493
31969000.0 0.9608004232522456 -0.26987482287035564 0.0017526911553270123 -0.00542679555720855 -0.0014111842298221349 -0.0002856281779119636 0.14823607653501422 0.24922316636602107
32968000.0 0.9595241175494493 -0.27751225648960215 0.010810143778747418 -0.006597888668180789 0.000384340382049266 -0.0011279715823881487 0.16619280379748963 0.24442722930747532
33967000.0 0.9575778392942017 -0.2858605009557072 0.010804086369241933 -0.009932610320351878 -0.0004514021496486872 -0.0019350504462541912 0.18464437475448756 0.24313672088256094
34966000.0 0.9522646279117803 -0.2973003026268872 0.0123374055929937 -0.012145526572939014 0.0008668706977564813 0.0005889209938694588 0.19148312128284117 0.24215585855762556
35965000.0 0.949159511691963 -0.30478909993907966 0.015732928718361575 -0.01282811379521376 -0.00379086816280177 -0.0012965282768439463 0.21619760912518493 0.2452266016922996
36964000.0 0.9480867774890894 -0.31358097858185524 0.015179926253741143 -0.015962348015908578 -0.002386273500410813 -0.0003421242423639783 0.20563043993684385 0.24886515474324658
37963000.0 0.9443377809741361 -0.3228305730175574 0.021019264105904236 -0.02327610502159341 0.0006550932798555276 -0.0015512844611766496 0.22381281152012128 0.23874090698382353
38962000.0 0.9403732835077466 -0.33411249711565555 0.021579696547757 -0.024007801876821725 0.0015024767148267835 -0.001319050872105893 0.23411946053373497 0.22634607145782962
39961000.0 0.9387313313264675 -0.33759697305965 0.028800989618735933 -0.029909836942910016 -0.0014727366763240314 -0.0026672977705366986 0.24995819689059448 0.2256831500936718
40960000.0 0.9342395345468805 -0.3475331773768198 0.023314205703277174 -0.025102110383696388 0.0017465326133131072 -0.0006859778041618318 0.2654531971640584 0.22619676347237938
41959000.0 0.9326500903037358 -0.3577174161184127 0.027146070614431368 -0.03572410724057784 7.809727847408232e-05 -0.0009592115274912993 0.2722667158286209 0.22030344571044955
42958000.0 0.9255353384009338 -0.36801369201168177 0.03086927548635604 -0.03904187599485273 0.0012272844933112258 -0.00023070903787846689 0.27812286202839487 0.2055389231414197
43957000.0 0.9264395693145627 -0.37093251254270987 0.03048585344574533 -0.04755930436775266 0.0011598547238087622 0.0010267366566761409 0.2846945773254264 0.2056213202916876
44956000.0 0.9219422901828902 -0.37980247588098676 0.036599360662648184 -0.04986722493567695 0.0008442035803345177 -0.0011080505794499552 0.2924799976006699 0.20647373510573236
45955000.0 0.9179976162335034 -0.3919366368057539 0.034184971331790034 -0.057339685368989375 -0.00261398392181654 -0.000147621438454968 0.3055502384951391 0.1954404029354309
46954000.0 0.9126980437608261 -0.40076769010133706 0.033984831762670566 -0.0639621487270634 0.0007736731938907406 -0.00019579136829773818 0.33040493834661605 0.18794017818755218
47953000.0 0.9116864260420089 -0.406077622771495 0.03502517130725534 -0.07235928111989103 -0.0002938349122955328 0.0030275086244807427 0.33097586223731734 0.17463106010748586
48952000.0 0.9043193200394101 -0.41850396093401415 0.03771493948100298 -0.08123475720967155 0.0016005014057937019 0.0007434747436923355 0.3332909042868677 0.16314678859126225
49951000.0 0.9015374985346465 -0.42365818056765087 0.03488638377326082 -0.08753700478126245 -0.0005990268373456862 0.0008448562883328885 0.3553316230306774 0.15714415700045792
50950000.0 0.8992622696082191 -0.4325013988879973 0.03842577894452924 -0.09674809774562068 0.0015297183343104895 -0.00026825582747508266 0.35457969725990013 0.14253801096927637
51949000.0 0.89534686564432 -0.43961323875640046 0.03901286158561624 -0.10501796921094765 -0.005001259454855654 -0.0028043302284532974 0.36169650607761944 0.14752617733894757
52948000.0 0.8925532554349515 -0.44804902028848403 0.037953506373993744 -0.1136556732887946 -0.0017541870954673206 -0.0005801755671311273 0.3732378165661503 0.14023534181843303
53947000.0 0.8875089736994668 -0.45521345082380754 0.041329558390464226 -0.1216361527946737 -0.0017793912420310527 0.0019650980268381495 0.3729174134689328 0.12336800703845807
54946000.0 0.8820041607877485 -0.4667557771909198 0.043339442567769594 -0.13110402984941005 -0.002994306742910026 0.00045476214838589086 0.39476711475699144 0.11383574041258036
55945000.0 0.8779611320321962 -0.4742913838282797 0.04428747829573271 -0.1421310086587899 -0.0015491771799702307 -0.0022440667351617425 0.3856504052167757 0.10032958128656135
56944000.0 0.8746003126727783 -0.47974505859016275 0.044270848975122144 -0.15313541774936304 0.001700819348460271 0.000619936956139235 0.402601550018574 0.10040345329261159
57943000.0 0.8681122853477661 -0.4927675150294292 0.047545652472913986 -0.16558572592335635 -0.004585128922137413 0.0014513215534398326 0.4074560641791379 0.09307355365562375
58942000.0 0.8629847358031797 -0.4955622520236142 0.04752139491998114 -0.17618188058656656 0.0019362999498046833 -0.003102128301084012 0.41836133254257846 0.09516938782086448
59941000.0 0.8600838425498709 -0.5064097933192533 0.05163251718867624 -0.18276898758227847 0.0009733152468989312 0.001250446688449401 0.4135988174432228 0.08406809548108984
60940000.0 0.8522338242944965 -0.5132972006492703 0.04976431663202196 -0.18962142109157357 0.0034519076075228004 -0.0028992582909989615 0.41194788874416677 0.07353089435892655
61939000.0 0.8490336145316186 -0.5199358327768677 0.053342089233171734 -0.19688467213404487 0.0018487922676283478 0.0017820961255660796 0.4182650334359749 0.07654632466482518
62938000.0 0.8433067002071615 -0.5303811238107071 0.05349262559908328 -0.21304900496084533 0.0038967991377015427 0.003286340943664932 0.4477974716470872 0.06002151866319427
63937000.0 0.8381401759100946 -0.540109172703441 0.0544266762789065 -0.2326398168234989 -0.00254685988894069 0.0007939805565056464 0.4370632175861298 0.03982508185992048
64936000.0 0.834218897930536 -0.5415691377881146 0.05664666796379405 -0.24766597444913516 0.0003115786235135779 0.0017087088321391633 0.43971082347053714 0.037224399997207905
65935000.0 0.8297531681642357 -0.5536800507670594 0.05532472329008987 -0.26282140603483 -0.002199323639849434 -0.001261788038380234 0.43724140495891434 0.021727464801827936
66934000.0 0.8241666387131387 -0.5603487084238588 0.05327611333294705 -0.2745905035091072 0.003130030087416147 0.005692047851869278 0.43825704128591225 0.010776735431854107
67933000.0 0.8197758804004389 -0.5684267688222338 0.054946036482149775 -0.2879656653893868 0.00021805523787510125 0.003970018778343023 0.4486751703478005 0.014594320895888841
68932000.0 0.8131046946777237 -0.5738607758803922 0.04972394950906126 -0.30192688469467294 0.0007063631596717725 0.0037394776739191143 0.4564012088798313 -0.013323931982285262
69931000.0 0.8072350589214016 -0.5842685641604906 0.05344800089302948 -0.3202093603669773 0.004350422783640193 -0.0003872823181521593 0.44726503526000466 -0.00470264584109612
70930000.0 0.8022578538636611 -0.5898747591311843 0.05016790829936263 -0.33215131455274527 -0.001493642754926847 0.00042698242825500325 0.45004933621636967 -0.027421996355025225
71929000.0 0.7970730328722142 -0.5998677166041609 0.0429605104023372 -0.35219385750863214 0.0015457219831450514 0.0022545909228997903 0.45190276474264984 -0.03399888160674229
72928000.0 0.7917507279855566 -0.6078527858621207 0.03505532053818799 -0.3676352256160307 0.00032609231388672704 -0.0014721953552636962 0.4751587910502217 -0.043477635096469645
73927000.0 0.7843553061309232 -0.6128342827945137 0.028118720265801728 -0.389700874670149 0.0018425169248167887 -0.000951091335027128 0.4637145063396008 -0.04716199369895539
74926000.0 0.7771797962148814 -0.6244435100923024 0.023203235156155324 -0.40691111845681754 -0.0004055879071006751 -0.004121707207873298 0.46354989694011445 -0.06188909254221837
75925000.0 0.7728267945982958 -0.6303570477823847 0.019942429387001127 -0.4284511767928225 -0.0015170809858412028 0.0024769584510037877 0.47072578681706573 -0.07154153777669575
76924000.0 0.7671156590043265 -0.6362445772376827 0.004087650076536592 -0.4554140915848035 0.00014950783174754042 -0.0032946773206992738 0.4745729930668596 -0.08184809558909958
77923000.0 0.7576417300212606 -0.6460518860365562 -0.013294973974648515 -0.47326803686584773 -0.00029366269294233446 -0.0006595098379189321 0.46620892963270233 -0.0982713010330588
78922000.0 0.7541834028132248 -0.6551264917945732 -0.0275334184489828 -0.5008156918360318 -0.0027925708741124754 0.00011972070175071677 0.46121357216708475 -0.10929466440260169
79921000.0 0.7434997486204945 -0.6580659426488059 -0.041758363409526184 -0.5269067890607958 0.0015148216881161272 0.0028733342269240117 0.4609318141437337 -0.1166941265281441
80920000.0 0.7392052518752344 -0.6701048121279769 -0.05844471102679792 -0.5552477467752517 0.0002122532708925253 0.0011244847036649384 0.4720158598395174 -0.12689835252264334
81919000.0 0.7343236657674764 -0.6748028531644006 -0.07577640850521286 -0.5853787133122036 -0.002584827717400698 0.006500470092751531 0.47222161059394596 -0.13067588993023802
82918000.0 0.724938690543367 -0.6812555551056213 -0.09001848278518787 -0.6094743565089945 0.0019214973505498603 -0.0019847187230007854 0.4629304212009509 -0.13714942231271035
83917000.0 0.7140151483649465 -0.6922655209660405 -0.11565576557649081 -0.6425126514224571 -0.004365901412198588 0.00010459083832907273 0.4757928251868322 -0.1552684289826252
84916000.0 0.7116148717381872 -0.6989390025617711 -0.13389197979338885 -0.6798553968286247 -0.002195331732049249 -0.0018248722390232267 0.4635499766950335 -0.15817677535603608
85915000.0 0.7062387959299958 -0.7034672792982981 -0.15075480106816266 -0.709285718105827 -0.0012185100032875774 -0.0017759814679461348 0.4691739441082811 -0.18615646563544197
86914000.0 0.6971172825807972 -0.7137594795812977 -0.1606591367161909 -0.7502347093687471 -0.002486382623516385 0.003632470142035001 0.46642955507566686 -0.17101599849404575
87913000.0 0.6913709920680399 -0.7193987217245068 -0.18166783447251597 -0.778913054418185 0.0005880502992894696 -0.0015174171584602454 0.46195473703977724 -0.18288544977529034
88912000.0 0.6837713685043145 -0.7267234107958385 -0.20113892041368 -0.8061993518750925 -0.003111826022472271 0.003946613472480476 0.457477847971146 -0.20358446826732407
89911000.0 0.6770531576646971 -0.7339892354484927 -0.2113854529467358 -0.8486548266689486 -0.0033297742000871805 0.0018357506177402692 0.47717880592333883 -0.2124022993697963
90910000.0 0.6691036008356211 -0.7397942419948981 -0.22815699193849057 -0.880795688290752 -0.0024286776901268864 0.0005006448758760367 0.4689805520233157 -0.2099552469739827
91909000.0 0.6591295108190702 -0.7453949123903469 -0.25069815144310814 -0.9118755055729968 -0.00024068883257251307 0.002774575900313394 0.45738973287934853 -0.21526479587140618
92908000.0 0.6525242183109126 -0.7541376494107244 -0.2637535862133444 -0.9491753901701202 -0.0015312216358320566 0.001700791843601033 0.4539774937344898 -0.22525317569248884
93907000.0 0.6459534259222514 -0.7585092903671692 -0.285810535584502 -0.975051074829878 -0.0018720078385295001 0.004669742769252297 0.46159197029621707 -0.2493568182786591
94906000.0 0.6339993720712891 -0.7679891444090932 -0.2997955522919919 -1.0120991257534706 -0.0010141173659217748 -0.0008968154146896012 0.4616053535926641 -0.24764914604050545
95905000.0 0.6260346700598826 -0.7725704932367103 -0.3219492640632022 -1.0508014142097273 0.0008133962912181412 0.0009251774138253553 0.4559280245990119 -0.2790191803178463
96904000.0 0.6184384279663129 -0.78386408463174 -0.34726237502013274 -1.0891979640686889 -0.0007242569499561254 -0.00021893349744671407 0.4526287145056132 -0.2795527192319833
97903000.0 0.6101442541548863 -0.7861011311191313 -0.3645857058512946 -1.1210082438023874 0.0024044881259756017 -0.0022637944607544072 0.4469862792795409 -0.29255071169428426
98902000.0 0.6061452985698146 -0.7951896727590911 -0.3877973026569505 -1.1582373661629095 0.001593727247162692 -0.003382774046999183 0.44193267984225265 -0.2881156696249702
99901000.0 0.5927374840211815 -0.7988404154355484 -0.41893437684144746 -1.1894755695366204 0.00048487591963866194 -0.0025222855602826896 0.4509794964199658 -0.316083829130492
100900000.0 0.584683738502885 -0.8030808658138294 -0.44847400499446555 -1.2197737939524789 -0.0012232270049522063 -0.0007019929133229588 0.4634553906831691 -0.3148443034004445
101899000.0 0.5765026999628572 -0.8118288204791302 -0.475716241608686 -1.2610055560522746 8.158343071456275e-05 -0.0008548503186772537 0.4444942247212667 -0.31663008780506
102898000.0 0.5657428883148741 -0.8184445712124578 -0.5166374927246487 -1.2954824996966143 0.0007104979240125163 -0.0010841144323985843 0.44781923902583687 -0.34391228054159456
103897000.0 0.557346477526622 -0.825609904810781 -0.5578046621121359 -1.334353482318297 -0.0014073471952457779 0.001240181221690541 0.45043909965251683 -0.3319537224738263
104896000.0 0.5498030798112966 -0.833497129347194 -0.6009844825098927 -1.3665935025278424 0.0029232725705945917 0.003064641157739236 0.4381644271102234 -0.34962381540045256
105895000.0 0.5399766183070968 -0.8350741191478945 -0.6453382076014577 -1.4096030760220193 0.0008856169597172748 -0.002150234893812797 0.43954668819071213 -0.36630292464103653
106894000.0 0.5319908986467986 -0.842718140627085 -0.7008888847194169 -1.4492082391284462 -0.0032472009703258457 0.00262858595585438 0.4342194512884209 -0.362593977157347
107893000.0 0.5209315547856604 -0.8492700503147361 -0.7605133221658228 -1.485095889816312 0.0007297747213644149 0.0009933903062495073 0.43691897972552 -0.37629762272649375
108892000.0 0.511805145316105 -0.8521015931712372 -0.8188533749574444 -1.522785081625376 -0.002076788840117003 0.0004183525925035881 0.4297688383675837 -0.3820099688047129
109891000.0 0.49971898852617974 -0.8610083523261385 -0.8787363825031057 -1.5558563321095413 -0.001409894779267318 0.0008728531442887518 0.4331299091443245 -0.3839726958959832
110890000.0 0.4941193447812064 -0.8740463196038247 -0.9541506898347923 -1.5771362284811639 -0.0008095325118865324 0.0008952933214336412 0.4335363768154133 -0.38832398024171
111889000.0 0.4779368260048988 -0.8673519970429325 -1.0071844962147687 -1.6229373704134744 5.8385805533826746e-05 -0.0018140320491866087 0.4178649897217126 -0.4134685519152249
