! Created with skrf 1.9.0 (http://scikit-rf.org).
# Hz S RI R 50.0 
!freq ReS11 ImS11 ReS21 ImS21 ReS12 ImS12 ReS22 ImS22
1000000.0 0.972864071569717 0.008490789212602098 0.005523685920796182 -0.0516115105751459 -0.0008358906425723287 0.00854080870995417 0.3697987999793439 0.2958153268068394
1999000.0 0.993600428529568 -0.013779033968272944 0.012116671428613252 -0.02038132612199283 -0.005842653834488548 0.00518212350384823 0.26260466937784205 -0.0462205449318185
2998000.0 0.9992492274393698 -0.021557965163312487 0.013243668743621156 -0.010224708527348447 -0.002050524207249694 -0.002307100895687706 0.1936782254748332 -0.12496953032207354
3997000.0 0.9933358059485605 -0.0311596394814466 0.009484918047685571 -0.010905515415379895 -0.0033056476800230826 -0.004464361897657716 0.07504753349900051 -0.2344554440412003
4996000.0 0.9980222546942987 -0.03760279050281273 0.01203816813772372 -0.00557273312818705 -0.0004030215815149685 0.00115786399796443 -0.04528670095418992 -0.19463134324742193
5995000.0 0.9953987004642466 -0.04859983286071075 0.006425606118332517 0.0021252772267513057 -0.0049084342112188754 -0.0036765818218470444 -0.12350117491623425 -0.10129056369825232
6994000.0 0.9955548596997665 -0.060614024527234765 0.0024383219397277763 0.0016157537259874023 0.0072313823302062406 -0.002533074563328322 -0.1477885136345011 -0.013386934710936578
7993000.0 0.9944123324222627 -0.06903914593529743 0.0026298095957911884 0.0046700678957467615 -0.0012222630828644869 -0.008156194967677428 -0.15628623177840908 0.04262100446382507
8992000.0 0.9946700677028217 -0.07449912882755201 0.0032796331499889623 0.005789195334491096 0.005231168238619281 -0.002145167053019614 -0.16217255209442796 0.06850211144037867
9991000.0 0.9927873346939494 -0.08436030619268833 0.004834652435790449 0.003969043295065635 -0.0033936157110581507 0.0039314445017778485 -0.15001113841413366 0.096264768299392
10990000.0 0.9901864367791109 -0.0926925866436346 0.004065369295663168 0.004021502542716984 0.003923128967718761 -0.0003377058849086407 -0.13622511245669286 0.12322612837447008
11989000.0 0.9878118314501451 -0.10073566994918169 0.004785987166796559 -0.003060075373542071 -0.0008989428751265541 0.0005849040061550309 -0.11634141660522332 0.142678428188321
12988000.0 0.9902967754285283 -0.11249029967450039 -0.0026096393341731297 -0.0030246630537692004 0.004316091237288529 0.0029215322855483165 -0.11525061811980547 0.16717562660867397
13987000.0 0.990065180448993 -0.1170946293495264 -0.003215020515445599 -0.008038975977608338 0.0037621563063468004 0.0032387808330319296 -0.09505977528347179 0.18707086891514094
14986000.0 0.9864245862486166 -0.12508334817331013 -0.0016412459181735868 -0.004802011181055135 -0.0006985791713564022 0.004908968640458299 -0.07503523087305078 0.2095426221283822
15985000.0 0.9885977132996981 -0.13612273320650023 -0.0014346079424657381 -0.004667891691054348 -0.005472050167056309 0.0021288898321000587 -0.05957465231972678 0.2166211857210501
16984000.0 0.9866896929103669 -0.14489338262821316 -0.003700279656711191 -0.005670409654912888 -0.0006739178883906357 0.0031298197439878395 -0.06666648027802517 0.22508778040984295
17983000.0 0.985019467013088 -0.14819556224884822 0.0007262197730252961 -0.0025859089737001744 -0.0035669248180393593 0.0005566802374351742 -0.05059390175383227 0.2359633048893907
18982000.0 0.9824205515808039 -0.1607459058784049 -0.008088204143282237 -0.006667234080830822 -0.0035021016029458435 0.000878353878766498 -0.019615973682487457 0.23973476316406003
19981000.0 0.9821731895583712 -0.16745979092825786 -0.004814047346414337 -0.008470098999125162 0.0010877773590431364 -0.004093511938264519 -0.014869264369492763 0.24714261923454267
20980000.0 0.9805298735352813 -0.17904534623911755 -0.007408794430345522 0.0007432073847353599 -0.0007345918447077486 -0.00136217373992926 -0.0031260986394336266 0.2588517640073881
21979000.0 0.9798797491892941 -0.1858040278000617 -0.005095518170931734 -0.007533426528287411 0.001472449100582546 0.0016689418455996757 0.017304318953800933 0.2538721608372118
22978000.0 0.9772313733761341 -0.1937773938373488 -0.007375199535156419 -0.003863792095846843 -0.0029585060421132197 -0.002243537925103914 0.026527457670557135 0.25851969227619165
23977000.0 0.9772467825744329 -0.20033016368215525 -0.0065993115593048195 -0.0020147819995537464 0.002013938475002048 -0.0017103732214070783 0.04738291771350764 0.2565387648986308
24976000.0 0.974427747877103 -0.2112926908062772 -0.009137945740773526 -0.00251505801340227 0.0012930424217308003 0.003396813008042178 0.05959260202635178 0.2549399261679874
25975000.0 0.9672561046887491 -0.22110004576061862 -0.0038170353622568494 0.00038741481548428333 -0.018563615726855633 -0.017062948592949524 0.07846290123546734 0.26417683985117485
26974000.0 0.969422960177989 -0.22998789363952415 -0.0053903159798143205 -0.0023066180284907136 -0.0018678512463741943 0.00037931552976693325 0.0945440016053072 0.2696368360637242
27973000.0 0.9710266704288569 -0.23451484268772432 -0.0025085829084771955 -0.0036891176733056504 -0.000309294095997349 0.0011370503671527408 0.10014588033790742 0.2606884709444312
28972000.0 0.964472901067756 -0.24751791190931305 -0.0035447575549249193 -0.0015079121275799556 -0.0014707895192267032 -0.003656231527274071 0.12218605958741632 0.25702956399507887
29971000.0 0.9642395842216726 -0.2557851728306703 -0.0014192263489565097 -0.002649912636942504 0.0006444931447570337 -0.0008542169264239553 0.1571807189056304 0.2733776031376916
30970000.0 0.9620514858710282 -0.25916172555056616 0.0013475814369145517 0.002169679105993168 -0.0036397496372245967 0.0024847286175402367 0.1687548005821563 0.2518328119893765
31969000.0 0.9594534309617334 -0.26977095386968236 0.0026585933595992995 -0.002964691502381742 -2.2077353097992992e-05 0.0006230834289504397 0.15633129933276038 0.25512891753372624
32968000.0 0.9570903922274839 -0.27980792873476795 0.008140365136231887 -0.006114798580445672 -0.0012959587809139017 -0.0045271317145375994 0.17539257059345642 0.2407876309917505
33967000.0 0.9550808029773117 -0.2895182678471494 0.011703773707382814 -0.007254911906865219 0.0006811357092022009 -0.004600969334251057 0.18763997097265211 0.2481235700178084
34966000.0 0.952327742448408 -0.29595160193538217 0.01476944947437839 -0.012817642641054706 0.00021513260413407454 -0.0008130683680297072 0.19834686048209033 0.25274560950864844
35965000.0 0.9496410240730259 -0.3048269262114727 0.01830485585597666 -0.013728217749654067 -0.0015854328323326571 -0.0008702928428188114 0.20765256785230862 0.2553372396368034
36964000.0 0.947695739052975 -0.3149249923248955 0.016869870846328426 -0.016064751746236183 0.0032519258522881868 -0.004430883435390707 0.21471596997541667 0.258056052518665
37963000.0 0.9436661759144198 -0.3238917288231598 0.02162159782218076 -0.02007351318618314 0.0017928933661327498 0.00045988354769569377 0.21915682834525183 0.24239066665746403
38962000.0 0.9407601606666559 -0.3340262876967135 0.023856337209394042 -0.026252325485024777 0.001534304080262826 0.0022585461146031193 0.24680583057374983 0.23281290632566204
39961000.0 0.9376518800998485 -0.338782152391798 0.027620053423522986 -0.0275809040987009 0.0015974243374695496 0.003174690468905586 0.2495365077668344 0.2291813651074899
40960000.0 0.9348801937042206 -0.34810241357043037 0.023341413485564802 -0.02242198941878025 -0.0018096495564169928 0.0020020688977804386 0.2817958634491045 0.22203278608343777
41959000.0 0.9312341536427852 -0.35842471900415257 0.02782404929379785 -0.03242084488945819 0.0002805918597431125 -0.002716330488151599 0.27507024842885197 0.21993988971828113
42958000.0 0.9263509997541304 -0.3670679845744151 0.03290360242045185 -0.04057713181888088 -0.001102847036175201 -0.0002739461472782102 0.2893986675128829 0.20047633618651314
43957000.0 0.9265834552160648 -0.37102384078231243 0.030562222347060873 -0.04791661539600655 0.0022556848616895157 0.0027909404349331338 0.29238933057859406 0.20409118520847885
44956000.0 0.9220513201862102 -0.37927457772946876 0.03240202661998301 -0.05056556330229016 0.002955008150353483 0.003903215347293112 0.3073663607068075 0.18721793324052238
45955000.0 0.9175533343793513 -0.39073269759048135 0.03404252119493466 -0.06041382865265556 -0.0005150675038922366 0.0019077155211923555 0.3169041319876884 0.19491733452704957
46954000.0 0.9119095288763224 -0.399308310343729 0.03743620411942704 -0.06451101730424498 -0.0004019314193250218 -0.000450221882147429 0.3383801972909525 0.16859755360424442
47953000.0 0.9113007632121335 -0.4056034137651987 0.0367169795878113 -0.07178078584606222 -0.0005996059145932367 -0.004611785155932657 0.3476893954719365 0.1641497895349225
48952000.0 0.9036067504795288 -0.4189437627329311 0.036430305261147676 -0.07981858468445552 -0.002692697171330298 -0.0022501861032167563 0.3452477563314779 0.16233191793692475
49951000.0 0.9033394702243877 -0.4214469361150019 0.03734755810396334 -0.08383189227502313 0.0015191561095279642 0.001184015379158506 0.3580397910409128 0.14759510537067097
50950000.0 0.8979476708594335 -0.43378931197888954 0.03790309707540861 -0.09877250826567154 0.0021797121806353226 0.00038365913686371015 0.3566006322421569 0.1414825590293516
51949000.0 0.8956501235453197 -0.44045944892266015 0.03859019802248819 -0.10376587625816663 0.00020126046481633997 -0.0003415691693448207 0.36042596731129956 0.13543851539615326
52948000.0 0.8937494386747011 -0.44741273288727135 0.042661612686637165 -0.11142638524126751 7.601940454410892e-05 0.0017870064759023005 0.37652069494725837 0.1400818571779858
53947000.0 0.8854004398511627 -0.45687720231082607 0.042425155171385495 -0.12124579212345418 0.002270228873690321 0.001001008064694674 0.379966539253096 0.12461785770115566
54946000.0 0.8807758954832519 -0.46633086267978846 0.0442470821110188 -0.13185245746750704 0.0007235964654451027 0.0004650554877682386 0.3852354864772914 0.11901468014747035
55945000.0 0.8783442284093844 -0.4741369520770585 0.047640162895304615 -0.1392795935950376 4.5468487692474315e-05 -0.0002666977939057602 0.38878452713519246 0.10783731953189858
56944000.0 0.8735146364651032 -0.48176488164481096 0.046913848046084665 -0.151596983912342 -0.0015464834884288828 0.0011834247228348891 0.400188464051126 0.09977166550885372
57943000.0 0.8698541551724285 -0.49116417647692995 0.04872204222565005 -0.16348413134788334 0.0015947185823890187 -0.0005001642848186568 0.4059870802540618 0.0987761975922437
58942000.0 0.8629549136247333 -0.4965731450138326 0.05115269560503873 -0.1727592602782793 -0.00021752433662616566 -0.0016942012352209952 0.42386760881766883 0.08354468357377173
59941000.0 0.860723973809082 -0.5062054480942522 0.04893510952773277 -0.18225472155123665 0.0018022413079168212 0.004030703561431709 0.4251560358714975 0.08007893940352807
60940000.0 0.8524638770376738 -0.5136167686942258 0.05301386166939254 -0.19140525189635865 0.004388308419862895 0.0005128123428315885 0.4224433157311928 0.07308855399223439
61939000.0 0.8497632173233441 -0.5191948970399065 0.052124940399502113 -0.193646765587108 0.00018268775283179705 0.0015646239813738854 0.42639956030120324 0.05750960675209458
62938000.0 0.8455320527631518 -0.5303552974376053 0.05467155646436656 -0.2090367291596469 -0.00029663980597608916 -0.002781871083171625 0.44243865756309514 0.044403913673529284
63937000.0 0.8381350768313235 -0.5379369409019531 0.054684128608434204 -0.2348519127296523 0.00019545606042957478 -0.0013415387102643408 0.4316158381502865 0.03148522231592626
64936000.0 0.8335269123346984 -0.5432538766210361 0.0572647504078931 -0.24406512711381304 0.00254935493033794 0.0033237520970074825 0.43349334873343043 0.030354620907612675
65935000.0 0.8308810116107648 -0.5539302070384609 0.0513041731366066 -0.2606213215584233 -0.0007275075307396673 -0.0009393871389661837 0.43361572723809616 0.014149315764974484
66934000.0 0.8251946558944502 -0.5592849045533411 0.052035937290372036 -0.27048539149194817 -0.0036239164013316095 8.56134001471461e-05 0.4360345577920769 0.010869747042039924
67933000.0 0.8208553778322822 -0.5670742044819365 0.05793519230075418 -0.28800456143164577 0.0009890816307258235 -0.0016557945076336451 0.4430427798683402 0.009714980111839754
68932000.0 0.8017800489810704 -0.5675369958521755 0.05137927639387424 -0.29562679396957897 -0.001780092972984157 0.002004155151187758 0.4506776433609526 -0.019490952179357944
69931000.0 0.8081444745762074 -0.5823244180325481 0.05365473102550476 -0.3184732685887792 -0.0012819595559457142 0.0012182858005490614 0.45567675207444475 -0.02814422150237934
70930000.0 0.8030207315071142 -0.5899163728443035 0.052747433216866715 -0.32936892743194857 0.0035894841524750616 -0.002128988537223813 0.44261001507017783 -0.04009188869568159
71929000.0 0.7981497820243388 -0.5981588794956575 0.04772697996868319 -0.34799459860221815 0.0008560025167288488 0.0009208602453851925 0.449066581303217 -0.05018303897584517
72928000.0 0.7905266816699018 -0.6102610052493718 0.042491026000200424 -0.36545358296080543 -0.005835309918439421 -0.0022598521572798776 0.45854308717317477 -0.05601353605811929
73927000.0 0.7846393015129445 -0.6149985266862668 0.031548397252130524 -0.386446326925923 0.0017259035954618326 -0.0023068001369151857 0.45643997166433276 -0.06816417254183552
74926000.0 0.7806886771599922 -0.6228726837132781 0.030091139428763767 -0.4037584664926796 0.0003793461353441069 0.002104503668485396 0.4679677447709191 -0.0664654078617581
75925000.0 0.7728689804561564 -0.6278574817493707 0.02111550475027734 -0.42180124521407114 -0.0006846878811029355 0.0006916167930586795 0.4725857526087058 -0.09087406020016468
76924000.0 0.7679714771247307 -0.6358523676702471 0.004109565434416365 -0.44710697689454615 -0.0007025745977654143 0.005908284711189768 0.4795174001194327 -0.0873987733764032
77923000.0 0.7621612488139407 -0.6434023436453854 -0.007973941329020188 -0.4700090597833635 0.0012776338383231876 0.0010434616338359348 0.458251936421619 -0.10303429200919706
78922000.0 0.7549687665657487 -0.6527816547477356 -0.024073926820840495 -0.5010083513149405 0.0015631737677436947 -0.0012755979542308704 0.46166952908760733 -0.12332326658837302
79921000.0 0.7469310146262347 -0.6578225014898954 -0.045528147852778776 -0.5229114949225112 0.000151456361395996 0.0013383245801066666 0.45090923525279825 -0.11202079651893496
80920000.0 0.741469287267241 -0.6688439327746121 -0.05734597966330011 -0.5525344804059349 0.0005795998002338274 0.0008731509880478333 0.4719811179010949 -0.1364897295873674
81919000.0 0.7347797653237562 -0.6739994141842898 -0.0741991889056837 -0.5782587394123314 0.0035805930967224677 0.002632431207401897 0.46685893023053626 -0.13922034200862785
82918000.0 0.7281645852645131 -0.6816115062934015 -0.09033263035876613 -0.6124314422875972 9.818730646386365e-05 -0.0002958146350070113 0.46506943826129327 -0.15538934155637926
83917000.0 0.7172771534199627 -0.6897520621895634 -0.10921614867043822 -0.6390088320630606 -0.0026428959639638915 -0.001210110309525281 0.47146984555652544 -0.16806477405127476
84916000.0 0.7137498813452791 -0.6984071680220643 -0.1297492534550021 -0.676549720122527 -0.0026188631737571358 0.003300508711704713 0.4678084694459372 -0.18152484031847999
85915000.0 0.7057272396108859 -0.7022760315774698 -0.14420460026725127 -0.7044029392384462 0.0015326229234206836 -0.001028246590077223 0.4698696642642201 -0.18319464635253152
86914000.0 0.6991699208697754 -0.7132688381087121 -0.16143440548530683 -0.7441395737397694 -0.00027215190158314976 0.003880397567496619 0.46926165256463864 -0.1851513771169536
87913000.0 0.6920269921424997 -0.7181195622730275 -0.17448875491452465 -0.7710972354783662 0.0013088896254641834 0.0005596079015955992 0.46508643804445926 -0.18485663541273642
88912000.0 0.6865679534537542 -0.7240477004937753 -0.19521444442862995 -0.8065813640510309 -0.0012149768911903515 -0.00476988517387719 0.46289543525492904 -0.21174966251012023
89911000.0 0.6753408442736187 -0.7353458138099352 -0.2145767893848108 -0.8432973648875625 0.000405670157285376 -0.001522728347136172 0.46572950329345675 -0.22797761744967435
90910000.0 0.6702056797848832 -0.7386290128373528 -0.2287537880044406 -0.8725500729434497 -0.003217223888656394 -0.0013169070589235338 0.45798127102571845 -0.22561171255647922
91909000.0 0.6593301180902088 -0.7445290338060371 -0.2446314073725635 -0.9078209621483295 0.0006303178087458378 -0.00028482775686692745 0.4624619227695137 -0.23808659662678275
92908000.0 0.6536247214160817 -0.7542781695712462 -0.26438399272394697 -0.9409719579840539 0.0032209246434918002 -0.001671262703660684 0.45653398306624887 -0.2431401159366055
93907000.0 0.6486726296065731 -0.7590264714990469 -0.2823419270937959 -0.9714682345964596 0.000458881585102453 0.0016691400978209889 0.4580670736767832 -0.26106203522762267
94906000.0 0.6326546093736939 -0.7688053890336739 -0.29950968915675 -1.002029761361022 0.002758250973872413 -0.00018794163230345244 0.4570549710301703 -0.26029124193220604
95905000.0 0.6282022837899195 -0.7734907539157332 -0.3237406463590537 -1.0406012797267847 0.0009500038395748383 -0.001152248220692514 0.45523672656471065 -0.2682800128907236
96904000.0 0.6199474405899 -0.7821786274528552 -0.33798360538294675 -1.0814632295535271 -0.0001183590644029495 -0.00024536189253969014 0.4460420838768993 -0.2895092548222821
97903000.0 0.6106810155242333 -0.7877321091178721 -0.36249231361458845 -1.1095119937640794 0.0008212749097055797 0.0014240657053619724 0.4440532412126033 -0.29333299278052827
98902000.0 0.6048143977802818 -0.7917958212466615 -0.37966689406125564 -1.1482649752225658 0.001822929620440416 0.002710400931563624 0.4522697632741546 -0.3048334589262474
99901000.0 0.5942892487268484 -0.7986654974597803 -0.40645959511369706 -1.1769904846412351 -0.00056114719000025 -0.0014670973220515479 0.45545974738826533 -0.31997427502538
100900000.0 0.5881256583947146 -0.803867355138759 -0.4401414112358239 -1.2099782022269399 0.0035789541300529993 -0.0001639617760259436 0.45127807954912735 -0.3231692249943542
101899000.0 0.5781911195441531 -0.8114015590632538 -0.4728006802404354 -1.2446953893484067 0.0023498374928965435 0.0006508720662877516 0.4442395687904649 -0.33357884608868976
102898000.0 0.5662488279955311 -0.8180731334120974 -0.5073957643567888 -1.284792330718778 -0.0004966219862256347 -0.0006139989122158976 0.4447645054392494 -0.3491275810808707
103897000.0 0.558540428324222 -0.824694281256633 -0.5479749816079521 -1.3162190199555561 0.0002962221895912367 0.0029416600972781972 0.45758807000519697 -0.34384626748725794
104896000.0 0.5495517076411826 -0.832904520680288 -0.5934120020146526 -1.347075839369841 -0.0008968364496265476 0.0008944414999323593 0.4326624214289822 -0.34704964495473817
105895000.0 0.5383874355679881 -0.8364033001821104 -0.6406842785526369 -1.3900769984484627 -0.0016496903493037397 -0.0011786975502435328 0.43803008648855013 -0.36070583313946186
106894000.0 0.5298141793788131 -0.8423261288563682 -0.7011120496470986 -1.4240775643779535 0.0006625911595916375 0.00021975228930550239 0.4292647590130758 -0.3828715048778714
107893000.0 0.5226673158500692 -0.8506132742451671 -0.749954533594623 -1.4637021084790003 -0.0017745898415582933 0.0002898733781483061 0.42543099564395165 -0.40545173575950555
108892000.0 0.5134877332785664 -0.8507515699312225 -0.8051010538269571 -1.5015403897583721 0.0008918094251079761 -0.0012134453501450246 0.42709820457192005 -0.3849432264015596
109891000.0 0.5015489754759792 -0.8601033922366518 -0.8631100422588769 -1.5338014734482033 0.0003273288504098317 -0.00012884945271664157 0.44045221494749953 -0.3832078444562972
110890000.0 0.48192853891180976 -0.8742123083223711 -0.9489830002483678 -1.5350836294611465 0.002122232398696229 -0.0018644153154337814 0.4167848111021776 -0.3968163353423371
111889000.0 0.4841448800910561 -0.8669551640007787 -0.9848209888715652 -1.6006280149922507 -0.004154230760285783 -0.001723640502423693 0.40338931005122197 -0.41310727213812043
