! Created with skrf 1.9.0 (http://scikit-rf.org).
# Hz S RI R 50.0 
!freq ReS11 ImS11 ReS21 ImS21 ReS12 ImS12 ReS22 ImS22
1000000.0 0.9899990517091299 0.007399846422045503 -0.011078678594523026 -0.06398312509403756 -0.00413703986585637 -0.0019312044678943534 0.32519107333831676 0.32414401448595886
1999000.0 0.9897353495380653 -0.011685463395337761 0.014997580567206166 -0.01957645386121194 -0.009185507554186404 0.005090569126815241 0.27584202832778454 -0.06512522430843298
2998000.0 0.9992240571956216 -0.019092705654547258 0.005169550061710872 -0.016022237167120736 -0.003281918636854656 -0.0041598249395817235 0.19654105643486744 -0.1433812009451248
3997000.0 1.000076722094167 -0.029324976209303733 0.01271146715057271 -0.005421488402119009 -0.00013972368972128062 -0.0035492889293146693 0.10122615773190548 -0.2419267535160909
4996000.0 0.9995285361873683 -0.03861903510429503 0.010790431586943736 0.001540719702310223 0.00241866456080152 0.0006404539971198502 -0.05383265724741179 -0.1901860180404771
5995000.0 0.9955761744764843 -0.05032355437823309 0.0046731141100052965 0.002291502822487767 -0.0010771923940703302 -0.0009359132906941918 -0.11922039364112205 -0.10188426365271479
6994000.0 0.99830684846056 -0.058219735357561024 0.006520934681462613 0.006907874514190172 0.0014372261162032879 -0.00474252140615129 -0.1461822318575602 -0.016463202009102246
7993000.0 0.9987173233017258 -0.06547818631640684 0.002162696431391869 0.0036165164064946367 -0.0003710333072890257 -0.0015643354255268172 -0.15016080443297802 0.027615724049912756
8992000.0 0.9987817134007786 -0.0724541193172958 0.0021817416005514723 0.0014887552963543406 -0.0038348575666147288 0.004249916714698979 -0.15560186022967396 0.06637865659611536
9991000.0 0.99590723510778 -0.0816178006740367 0.004775412109523637 0.0008160473136797948 0.006161800016135579 0.0017506938046533372 -0.13932308970047938 0.08029171377740157
10990000.0 0.9946618055436335 -0.0926697973920257 0.006834893061331609 0.003393816531069561 -0.0028339562625886083 0.0008220244036011376 -0.12956831481008038 0.11344721777670841
11989000.0 0.9935279955200167 -0.0986424595343085 0.005329783193213512 -0.004281733379174698 0.001004960070171122 0.0036040292987657096 -0.11406661188837353 0.14485130065797533
12988000.0 0.993040408372879 -0.11114648125615917 0.0017438320530964407 -0.004174790831190642 0.0019515485415909958 -0.005123311976399062 -0.10087742367876643 0.17147649632510764
13987000.0 0.9914114037024991 -0.11833788915068717 0.0010657467816434648 -0.005672464734172668 -0.0026451722869013762 0.00536683436628232 -0.08255636123834499 0.18513655833531067
14986000.0 0.9903205246086796 -0.12538442569868774 -0.0013590844010790118 -0.003905490700481017 -0.0025210993102183286 -0.0009759345215600621 -0.07187103016464186 0.1977695767986399
15985000.0 0.9902520768204828 -0.13401928931583243 -1.9152483110834875e-05 -0.004382021783340103 0.002000024455837733 -0.0004242551405368945 -0.06335433895295402 0.2189707259591661
16984000.0 0.9880939518155688 -0.1440439758077109 -0.003602939867158905 -0.002789953907744171 0.0013743958149453179 -0.0014730100332179669 -0.05878097272928087 0.20960716443206215
17983000.0 0.9884338671541633 -0.15061200104794395 0.00010554090822985253 -0.0031825392138574294 -0.0020489356212191005 -0.0007806916628378313 -0.05427161126522087 0.23192763573426683
18982000.0 0.9851876251441596 -0.15905901083815122 -0.004022974129068977 -0.0037681272760008663 -0.0002188233923457513 0.000673328892458431 -0.02336075201989305 0.22848048088831366
19981000.0 0.9850137178723397 -0.16679447746346557 -0.0013729036055990923 -0.003965561113919822 0.0002737120883400874 -0.0012450231998209947 -0.01780445988646396 0.23471687670459765
20980000.0 0.9838125025748065 -0.17430493355753449 -0.004711921380179094 -0.0026760283832596293 -0.0012036920727784963 -0.0027824654594855638 -0.003364306757714784 0.25378182678051026
21979000.0 0.9819210483699993 -0.18242484164707803 -0.003882764531667163 -0.008305758001057307 -0.0013326043077441924 -0.0013640545276423599 0.023236069281215216 0.24300941828521497
22978000.0 0.9770309245985266 -0.1932726316014456 -0.002694612591254466 -0.0054293876003425005 0.0007572726064407809 -0.000619379254200838 0.03232696882755554 0.24720882247691373
23977000.0 0.9793903967272699 -0.20025829255339375 -0.006983562156131719 -0.002424201816752248 -0.0013446248063860246 0.0010899413939526043 0.043459234537665516 0.24910356187114263
24976000.0 0.974832171655422 -0.2097891874133982 -0.006582187756717127 -0.0019875575010105144 0.0009050834665852969 0.00016883699694954858 0.07170944246253667 0.2523917286118389
25975000.0 0.977934236289529 -0.2241819455148333 -0.004398117617621264 -0.0005529128134149678 0.019446637725367918 0.017515176527466036 0.0903733762934307 0.2573443391440464
26974000.0 0.9720234944317208 -0.2265811938836639 -0.0014266985544840363 -0.0019312166029819549 0.0017000058898587532 -0.0044384373958574145 0.09136721579337896 0.26409247516036144
27973000.0 0.9715864130561632 -0.23265231492005103 -0.0016520165014856745 -0.0005253805010799626 -0.000518416725422652 0.000578839030187197 0.10809898455945899 0.2566868978156342
28972000.0 0.9676451673148196 -0.24580530598071879 -0.0011263441707794347 3.950269800909607e-05 0.0022045274662988792 0.0016026788968267615 0.12081442322556635 0.2511901839755561
29971000.0 0.9661750336094987 -0.25231846256206475 4.1128513290708e-05 -0.0016322119041928935 0.0008801156692842454 0.0005611733771708568 0.1455140946129372 0.2700718889517699
30970000.0 0.9645446468438844 -0.2570542173351887 0.002332786762117437 -0.0001968325629021837 0.004654279178178214 -0.001768157527166831 0.17218854548035115 0.23399889177165148
31969000.0 0.9628340887953049 -0.2656497834870474 0.0026591361068042277 -0.00517271106186012 0.0012843745241299422 0.00013741174653931367 0.15524071868073883 0.2416928317379059
32968000.0 0.9598930690914069 -0.2752338386068825 0.007534046815512969 -0.0061270324803251106 -0.002688156010501598 -0.0013946998794379137 0.166810850773389 0.24011618208745977
33967000.0 0.9571443644010869 -0.28407069771491666 0.011433898580809678 -0.011380662096018776 9.926896221558449e-05 0.0031972412467745756 0.18869392579715963 0.24987583040433503
34966000.0 0.9537109051945729 -0.296160750502068 0.016438668237823483 -0.014194143614067506 -0.003622322904676803 -0.0016227763499181912 0.19755532272854512 0.24103501129840119
35965000.0 0.9514367361130243 -0.30246524237107913 0.018788374385173334 -0.014439978770502489 0.002627519320065266 -0.0013118715710326836 0.2203107830640963 0.24545257354259842
36964000.0 0.9503016668631641 -0.31004692229579 0.016424395160190813 -0.014261771909265012 -0.0006666828802540156 -7.582974507421205e-05 0.21978144285741325 0.2555931582114701
37963000.0 0.945843844205394 -0.3213206314863121 0.0233120228331872 -0.01683266560961034 -0.0010286648891841325 -0.0005483825324723575 0.23113088796980596 0.23981361730162237
38962000.0 0.945575249766893 -0.32658037710382715 0.02679595824162248 -0.02479748004643263 0.0001873874061774406 0.000352704130934259 0.2484060229523181 0.2318010706144655
39961000.0 0.9412597143947853 -0.33438844655048583 0.02859524789372465 -0.026697510696438272 -0.000914718890415023 0.004663507961816074 0.2547557828794135 0.22947092481292075
40960000.0 0.9389696397175719 -0.3451616805102403 0.024380561258946224 -0.022449014168750718 -0.0003841481778780367 0.0004547424222326132 0.2675481837146188 0.2284231952210821
41959000.0 0.9333570237355433 -0.35399730274188324 0.03142617824546712 -0.03282558955882026 -0.0006530302914048939 -0.0016821367879847463 0.27626346555881803 0.20354390387685842
42958000.0 0.9299397788893603 -0.36159108914381094 0.03408282508213934 -0.04064690691332237 -0.0041139783978279415 0.0009855581556686781 0.2872821010275636 0.20380537290804865
43957000.0 0.9287884208066354 -0.366406616495276 0.0313626457258496 -0.044913864459038125 0.0016306804358040064 -0.0011107921393249307 0.30421009177071634 0.2003784949211176
44956000.0 0.9245552361374052 -0.37690294749166786 0.03460123713412625 -0.05175423030620746 -0.002433909265424828 -0.0025173682842363717 0.3073976782391873 0.19008506978234
45955000.0 0.9204510542776044 -0.3862925654995789 0.03546873835747392 -0.057279830065556744 -0.0002471286174633779 -0.002102378721194314 0.3151781282911355 0.18865828811609772
46954000.0 0.9177824020346228 -0.3939582770149117 0.03693201866392879 -0.06657732229451117 -0.0012431594237729048 -0.002770103184717966 0.33687875617011487 0.1854894088493364
47953000.0 0.9152613533471043 -0.40125602530831483 0.03654804362325002 -0.07121530741099846 -0.00018036103927293595 -0.00033547121216937 0.3481259639635774 0.16991111643276913
48952000.0 0.9089090666924221 -0.4147671262748654 0.037254470034553566 -0.0802289892201974 0.001341825782066556 0.0003795734707240152 0.33680883183957977 0.1634648283266393
49951000.0 0.9060267608034108 -0.4189671757716577 0.03834528642289634 -0.08950668027044709 -0.0013732303696984162 -0.00014040716580542253 0.36932454064429193 0.15764005856343358
50950000.0 0.9031875959664506 -0.4248835113773463 0.040082838056811204 -0.09554113207049332 -0.0013362450282754892 0.0008071892184667961 0.3579947696556308 0.1431412569150201
51949000.0 0.8972224656871999 -0.4350149688863376 0.03859968007090598 -0.10713870906177517 -0.002225977638733458 -0.003046775654090504 0.37154243957942307 0.1444747722039069
52948000.0 0.89694230383255 -0.44186083128125025 0.04157582426855051 -0.11015802790006095 0.003175723518601668 0.0005232251189461786 0.37782545424904634 0.14015844924406734
53947000.0 0.8907976975168713 -0.45200212350457 0.041553052889303284 -0.12172923393671203 0.0018536121891858264 -0.0012437592695540918 0.37810035540598097 0.12595250167769947
54946000.0 0.8847503435856345 -0.45948955722856377 0.04390790943204836 -0.1311274740111966 -0.0019553746994729754 0.002120393184544077 0.38880135358466544 0.1252074781342232
55945000.0 0.8829118485153415 -0.46761031400967057 0.043113641505919835 -0.13926908056901582 0.0007438260309950683 -0.002152225231618225 0.3916056110112814 0.10298106670010249
56944000.0 0.8779677159895154 -0.47521030797863995 0.0470703854773626 -0.15059031121630131 -0.0021666688858847636 -0.0008901785601455912 0.40633779984098145 0.11078337688493924
57943000.0 0.8749454341470749 -0.48538997398296824 0.048286454722709704 -0.161591839173492 0.00020490436695363553 -0.0018066424993651428 0.40899235178003857 0.09552133768872384
58942000.0 0.867968725031124 -0.49029096523783194 0.04874810882304301 -0.17434881434691993 -0.000899311834366452 -0.000699168051765416 0.4284291002656355 0.0876773682861091
59941000.0 0.8664289261174155 -0.49954762790651086 0.052104098553858766 -0.1815825907326464 0.0026160191001998066 -0.00045232192762544206 0.43298076980958067 0.09036112823284648
60940000.0 0.8583633376004168 -0.505873005435626 0.05127738961304728 -0.18616995567782077 0.0004523229723086609 0.0006902567765272996 0.41881532967333146 0.08275300984628096
61939000.0 0.8555341840180987 -0.5124350350673598 0.050330098652713894 -0.19447252412846933 0.0009898507346974646 -0.0009693728960415025 0.42333058266735435 0.05618753545011784
62938000.0 0.8488869419377529 -0.5233028134842865 0.053612765256758094 -0.21447443625340004 -0.0006326631378109815 -0.00015315508296874432 0.44763419379953967 0.05199668411010589
63937000.0 0.8446343067244403 -0.5312625347425924 0.0557653443242195 -0.22977664424697575 -0.0007885160447471249 -0.002585407402577271 0.44502868351111863 0.047159261749105105
64936000.0 0.8386683477571124 -0.5372804626992825 0.05725479550660744 -0.2454384611001026 -0.0019245232570540075 -0.0010629090986882344 0.445948124031272 0.03982862652652254
65935000.0 0.8343605883744056 -0.5493208844095729 0.05264915726303921 -0.26058788215389406 -0.00374488817793121 -0.0007306235528095586 0.45568908135585523 0.022700311005043588
66934000.0 0.8296332248195164 -0.5544949699822079 0.05557445244593723 -0.2712595002855094 -0.002190978469104558 -0.0012315595842346601 0.4466590698575765 0.01075400459617905
67933000.0 0.8271764044521912 -0.561238250434292 0.057908020872452684 -0.2871416265113708 0.0020165715265486133 0.0004481296556459927 0.4495777375688315 0.001717217659724532
68932000.0 0.817449442408046 -0.5689113741056464 0.05119947229083948 -0.29946568145807556 -0.002535538378600392 -0.0006551201038439404 0.46520786876512965 -0.012942473088476025
69931000.0 0.8139449680355348 -0.5773699262861135 0.05176235520310669 -0.316274379746633 0.0003601916194053729 0.0033991165487978104 0.4580137631210422 -0.015662344873673264
70930000.0 0.8074137328498663 -0.5855501386990227 0.04878364312910027 -0.3300314109744898 -0.00029730291404087456 0.0008293190110396628 0.45623990651412616 -0.03086650872420454
71929000.0 0.803869867263344 -0.5943498618583282 0.0480118679962758 -0.3498478748381904 -0.0020687927923942083 -0.0007122091740540649 0.4677741849868487 -0.0443108127501564
72928000.0 0.7974627205099185 -0.603054698753703 0.04090918194346638 -0.3615370906747416 -0.000456722910765898 -0.002922227743038267 0.4738550177489067 -0.03931831937244138
73927000.0 0.7924451327112311 -0.608363568902083 0.036194467940186915 -0.3829823082591241 0.0019639035256288425 -0.0005911325360252153 0.4589379619783486 -0.05581180267040173
74926000.0 0.7860934624566074 -0.6168937330197012 0.027454040351374425 -0.39935699719232853 0.0006549307666987502 0.0030724957159500464 0.4670003544467322 -0.05637040464566924
75925000.0 0.7778109080637828 -0.6217102116790373 0.01917227364104789 -0.420932674438418 -0.004560880936234809 0.0020211345744383003 0.4721370438392075 -0.0753536917461527
76924000.0 0.7724443008494679 -0.6298668905786179 0.005411778869745126 -0.44151037233197027 -0.0017851988814781437 0.0010515843560880815 0.47401034143262566 -0.09141177418651092
77923000.0 0.7693850806816628 -0.6360576009776718 -0.008153904215598879 -0.465150461786434 0.004097526911293469 -0.001776269523474915 0.47200479025606196 -0.09821709735240056
78922000.0 0.7631516262932617 -0.6464616309193839 -0.01695301217640502 -0.4946203312523219 0.0027248119232776025 -0.002342031831394316 0.46565399553776354 -0.11679397298112829
79921000.0 0.7544118421551584 -0.6512836209679009 -0.042386549333681266 -0.5168306764333396 -0.00039071866296689945 -0.00310827709757968 0.47080835401123405 -0.11489492912323217
80920000.0 0.7505178297810405 -0.6603355920793285 -0.050263730879927984 -0.5472564298674618 -0.0008461388060285698 -0.004869955673590115 0.47620736701936367 -0.13559950586372024
81919000.0 0.7438807907029552 -0.6654495544691169 -0.06941697650358475 -0.5754158767648845 0.002395483946472326 -0.0028410433691855837 0.471488762961222 -0.130399011339414
82918000.0 0.7347759584361143 -0.675037378386034 -0.08356945074522225 -0.6052040792808173 0.0016236808233332605 -0.004180020670874706 0.4815092234365003 -0.1482341480718204
83917000.0 0.7272494197699322 -0.6835558081841576 -0.1082372770210954 -0.6322173131503587 0.006053227613137983 0.0030722719190435983 0.47413894646521215 -0.15255920271769471
84916000.0 0.7223624424830625 -0.6898288112611013 -0.11916868597914299 -0.6689064364849574 -0.0012956071249567683 -0.007510404799680325 0.4712612217713073 -0.1694538030721491
85915000.0 0.7170611398975432 -0.6952715170879906 -0.13996504962084363 -0.697822534493287 -0.0009554861286554618 -0.0017160334798735713 0.4717101609224175 -0.1802406947904578
86914000.0 0.7083970979379908 -0.7068532054076241 -0.16017847475795702 -0.7336322554585604 -0.00021619893663621582 -0.0015726302831439339 0.4689032977458157 -0.17025642894204898
87913000.0 0.6999345590306575 -0.7124497333030302 -0.17180578046249856 -0.7614617107233113 -8.938512079459397e-05 -0.0020311839642941096 0.4719415071536194 -0.18538653497643848
88912000.0 0.6956593304083797 -0.7171402350062119 -0.19063111242061812 -0.7948960897163085 -0.0022823193229631117 -0.0017479733237464473 0.4627987280209249 -0.20973727628205235
89911000.0 0.6862457197219828 -0.727940539476445 -0.20538963166267146 -0.8288584609464225 0.0026083716860915776 -0.0020343691880521046 0.4716187794622948 -0.20802292122382884
90910000.0 0.6800328095306499 -0.7313979709336436 -0.22439842530096243 -0.8691850541187696 0.001977503490084715 0.0002565558083668585 0.4624061593070024 -0.21196327805765589
91909000.0 0.6699576023444509 -0.737666892675735 -0.247526527881502 -0.8974117762364878 -0.0015786477094730722 -0.001926664427936381 0.4683145823113545 -0.22824098291836542
92908000.0 0.6628087882126124 -0.7467857360904321 -0.26358231595745496 -0.9301911256244623 -0.00018450743343727523 0.0014120152253119084 0.471026742370856 -0.23344783634143892
93907000.0 0.6585723233738595 -0.7525789866844255 -0.28095405092798514 -0.9658478512913694 -0.0011732321207653994 -0.003906854951198511 0.476594847713967 -0.2518562993742674
94906000.0 0.6446040949952176 -0.7610991860910089 -0.2985432006015714 -0.9991578646242895 0.00314468303235403 -0.001737086264560474 0.47164157315652233 -0.24592308296384205
95905000.0 0.639900472138523 -0.7652195872335571 -0.31793015778858147 -1.0345678515677585 -0.0005439505070882975 -0.001527356484597615 0.4580637687568981 -0.26721326131243367
96904000.0 0.6316491268548295 -0.7749951495238737 -0.33748428414588744 -1.0718364813624965 0.00140578835605165 -0.003819546824295992 0.4638285229759595 -0.2700252250178487
97903000.0 0.6216061915740009 -0.7816973400446406 -0.36246730082571743 -1.1024569620502738 0.005523503263449329 0.0005429021814641928 0.45889127258014134 -0.29140253712481373
98902000.0 0.618834522477626 -0.785111143517202 -0.37594174911737793 -1.1422210550093037 -0.001531490465146913 0.003917061523548499 0.4512834704270309 -0.3036667625331017
99901000.0 0.603910165323423 -0.7924817638110266 -0.40968228784730976 -1.171695832936259 0.0015733415360852118 -0.00047059198449721397 0.46857197839431575 -0.31322786022899834
100900000.0 0.5990727243751091 -0.7945081045274395 -0.4379638142117149 -1.1969548824267047 -0.0009773448981281261 -0.0019965265562478557 0.4643264314315833 -0.32215845573104424
101899000.0 0.5891747966996557 -0.8040438945797171 -0.4612983101989881 -1.2405398849019558 0.0010596319476235516 -0.0008769037493160345 0.45365869923576513 -0.3239145635313633
102898000.0 0.5796601295156963 -0.8090786270010141 -0.5003349243257307 -1.277732132741822 -0.0016470577480226169 0.0019679700659254616 0.45477080190545377 -0.33797312518049494
103897000.0 0.5721525303080807 -0.8175809385951099 -0.5376483096537139 -1.3123258505959963 0.002150144672389166 0.0018644918417082138 0.45813222800697156 -0.3366302718270718
104896000.0 0.5628878692777884 -0.8258066947984325 -0.5816467637875327 -1.343201514399269 -0.0016957322619893208 0.0003290943269103578 0.44350794960377427 -0.3306395931694449
105895000.0 0.5512107998781519 -0.8297119328861602 -0.6272438190784517 -1.3863867564326626 0.0024329704386358776 -0.0007468268419117958 0.4349798671140813 -0.36355531047615874
106894000.0 0.5453870052118374 -0.8362746156401396 -0.6807733332741052 -1.4205201578548134 -0.0007517693363368156 0.003063305348825628 0.44335127447766265 -0.36936644603839186
107893000.0 0.5342564772541218 -0.8422507441623402 -0.7311191953261764 -1.458225707710094 -0.003172606967695051 -0.0018420552358528281 0.44599736916879135 -0.37832456870195047
108892000.0 0.5267228382431737 -0.8451918609511425 -0.7909038934689469 -1.4929615005483767 -0.0006546897974035095 0.0009946771964470442 0.4343212891173922 -0.38600866055103816
109891000.0 0.5132950370245701 -0.85377292900627 -0.8415393872126592 -1.5246374441547543 0.00010185971221614096 -0.0008176196882886597 0.4435382811327879 -0.3785590157713484
110890000.0 0.49394522975377675 -0.866006052315738 -0.9270010854063013 -1.5259001989827314 -0.0007065166784155846 -0.004077583467253688 0.4322876786698064 -0.3920555395837052
111889000.0 0.493462099269565 -0.8601365602533554 -0.9633483596762489 -1.5908301377296952 -0.000566704020512471 0.0007307938436857557 0.4273054156566672 -0.4085475876999923
