! Created with skrf 1.9.0 (http://scikit-rf.org).
# Hz S RI R 50.0 
!freq ReS11 ImS11 ReS21 ImS21 ReS12 ImS12 ReS22 ImS22
1000000.0 0.9784161897677722 -0.0009786804216154199 -0.007338187644336044 -0.03991397579578504 -0.01748702078621295 0.011926720713698135 0.35170244282185914 0.3454759442886537
1999000.0 0.9918947653875921 -0.010753982301159076 0.003221618356997673 -0.020639521529162336 -0.0011064827648702017 -0.007940808438109131 0.24657807920962135 -0.04884617514180299
2998000.0 0.998352576332676 -0.020079536068306165 0.010730205197516034 -0.01174692546963672 -0.009131001887349484 -0.0042373994127082445 0.1734561958757872 -0.13418840175402844
3997000.0 1.0004067679084674 -0.02963135344485296 0.01389167689027712 -0.004379561522771496 -0.0003837409162411085 7.679982411909921e-05 0.08487895606620662 -0.21112261525852927
4996000.0 0.9988951322870312 -0.03782112542329237 0.01367968139359051 -0.0010157323131384478 0.0014475165280663227 -0.009197508560331696 -0.032689364944615155 -0.20805282270970937
5995000.0 0.996095601659996 -0.04473112686497652 0.01046601291263002 0.0015335538448850306 0.0014830000113603393 -3.2027495445691624e-05 -0.13107980932666857 -0.12543134371792486
6994000.0 0.9960600516261086 -0.05775732252826328 0.009116738890911434 -0.001355713646845431 0.0012108213997414062 0.0052258008877136015 -0.1418644413887614 -0.028172326428867807
7993000.0 0.9964469737398983 -0.06646197834580618 0.0051653937425595415 0.0004578098909490037 0.0020261665944841358 -0.0030054290568064584 -0.16858250975647246 0.04052194875988647
8992000.0 0.9974402981303468 -0.07175278085959334 3.670673057142233e-05 0.006355608308802984 0.0007683943979185997 0.0014947042335563625 -0.16923630188534503 0.05266939866623085
9991000.0 0.9942435492556901 -0.08166177140925801 0.002654136289149663 -0.00036867805451349473 0.001258638024399905 0.002916421516985277 -0.14741401114451333 0.09598430567283019
10990000.0 0.9941802703155178 -0.09368235298263967 -0.003056914847289686 -0.0002519857759395835 0.002396215029769951 -0.0036696141021236267 -0.13831868570018568 0.12412213858604458
11989000.0 0.991800768895771 -0.09862911080790265 0.002138998017462936 0.00040533129101221605 0.00024373960249220603 0.003885440544077073 -0.13183527882503082 0.1375677902204087
12988000.0 0.993167035046704 -0.10912495542514043 0.00312441314504157 -0.005226457387216645 -0.0016976551151307918 -0.0011852543310911198 -0.11333031302220355 0.1639503219981265
13987000.0 0.988980599390849 -0.11643973652287684 0.004090679651335192 -0.0019045390711540133 0.0039475613990890245 0.00224200607602261 -0.09361794643295103 0.18316049085861044
14986000.0 0.9896423340021291 -0.12459102447535447 0.000883371155411061 -0.002206309122677221 0.0023011923929213314 -0.0006985721615481097 -0.09527586978852624 0.19736951907749023
15985000.0 0.9914615056347921 -0.13198762104982092 -0.005340182093554092 -0.002823669597400557 -0.001478119968576995 0.0001770858121785679 -0.08179776783628927 0.2154616384331339
16984000.0 0.9873117565514892 -0.14313820510336492 -0.004713672553393264 -0.002681982679490498 -0.005314576011475617 -0.005701318973390976 -0.0677624834647131 0.21959201480997548
17983000.0 0.986841003301141 -0.14815412925597937 -0.0008463903965385153 -0.010904823145707013 -0.003971014651934463 0.007133533369868106 -0.06468065009788097 0.23434112254387937
18982000.0 0.9851605830343055 -0.15880941571741639 -0.00981906239096697 -0.007436561996803229 0.004783511736128933 -0.003644352716137225 -0.03304702064089223 0.24887295962930653
19981000.0 0.9849067856992564 -0.16462698432383177 -0.007013811946849571 -0.003015774105106387 -0.0015437599690824124 0.004307286785513436 -0.013405027415672593 0.24541902372552044
20980000.0 0.9841654346987758 -0.17390655821207437 -0.0011449575045991021 -0.004799173741662433 0.003155218883994414 0.002870796411622573 0.0007363106472495352 0.2534659155136904
21979000.0 0.9809855304506938 -0.18304647757160167 -0.006580155885006969 -0.005540435464023397 0.0015662102892044648 -0.0025047632834242174 0.010338903785873918 0.23301337881571615
22978000.0 0.9801958647373243 -0.19109422417448707 -0.0023592147274133094 -0.0013338745001521483 0.0017158534997792566 0.00022577491232702657 0.029234319506414044 0.26160866269916766
23977000.0 0.9808193008561898 -0.1965693184425662 -0.004004444480327635 -0.0039041572380442793 0.0016095922280327368 0.003299482402386261 0.03296209732022438 0.2568649761545199
24976000.0 0.9753596581192786 -0.21037008932460863 -0.00800746987446084 -0.006001868841569439 -0.0016557093809261858 -0.005084558817165263 0.05855342258761074 0.2515498584255548
25975000.0 0.9774366486131084 -0.21630203076248514 -0.0030534348623866272 -0.0011541767072948397 -0.004834240276018488 0.026675314863795343 0.08087426740128924 0.26513011953815196
26974000.0 0.9724500131850544 -0.22529404713482187 -0.004313657001671439 -0.0026307186340106706 -0.004161520227699426 -0.00200715316671362 0.08986937500752211 0.2723051113674647
27973000.0 0.9707523912907947 -0.23157089331175407 -0.0009761922924902636 -0.0007498438779763448 -6.708704894609913e-05 0.0014671190687520741 0.10620714102835298 0.24061784252125515
28972000.0 0.9683769682237623 -0.24117182139245583 -0.0010373383296495965 -0.004268015911725235 -6.353915558632703e-05 -0.001302611008545754 0.11526890084204142 0.2560297300796679
29971000.0 0.9663556845097153 -0.25151958694455534 0.0018049088425048396 -0.004686466357325937 -0.0001079935706563032 -0.004201487875358669 0.14281915159624353 0.26789743841501956
30970000.0 0.9649988994469344 -0.2557697787136025 0.002228312078994881 -0.00021531735747614355 -0.002545107261522252 0.000473685423520401 0.16426012204726592 0.2525809649300939
31969000.0 0.9613301872718303 -0.2667381667870345 0.0070468017473437556 -0.005584212219609226 -0.0007788452640722287 0.0002537088156553895 0.14626600706801254 0.24882710124980378
32968000.0 0.9606002751027896 -0.27558710572602074 0.007809004631865283 -0.008816162224262127 0.0005980360176449633 0.0004545722131249919 0.1664601136954237 0.24336682948484703
33967000.0 0.9578300876031675 -0.2835676344086337 0.009574910902857732 -0.008765722310684735 0.0029387524158920233 -0.0029272245745908874 0.1839385638255861 0.2436618300406955
34966000.0 0.9537494233468755 -0.2928221195922574 0.011832390062265085 -0.011997218752044595 -0.0007252340551777609 -8.252164686693098e-05 0.18930867903540688 0.2534597965198214
35965000.0 0.953349338054523 -0.2991280461207254 0.014851347265387954 -0.01365069538788606 -0.0003969623897348399 -0.001113203647349399 0.20808039678999282 0.24693155176631265
36964000.0 0.9506024131273957 -0.307685275056139 0.016339923346242978 -0.015981521612753388 0.0032565093525797556 0.0015264142023253655 0.2173553995443104 0.2490459573711912
37963000.0 0.9473038004544125 -0.3171542118301863 0.019418453604076343 -0.019656793648159778 0.0007377831544329606 0.0007120078627795835 0.21722176585631411 0.23943987001805828
38962000.0 0.9441729530492596 -0.326353818246762 0.026134568716096786 -0.02296513343470086 0.0010496515584183072 0.0021516552130185773 0.23567487407792762 0.23302860568040343
39961000.0 0.9432628139160849 -0.33162662245982216 0.024964100592513364 -0.02710876041000167 -0.00010321678059085067 0.0021952629766707563 0.24829690982537547 0.2267270378123645
40960000.0 0.9376858913530336 -0.3415532958111616 0.021584462051236042 -0.02352659948353674 -0.0035466193565960235 -0.0014595289471669996 0.26552795203650026 0.22378912476771967
41959000.0 0.9355274668113968 -0.3514820783275457 0.029682466200055303 -0.03215759695954558 0.0003205698368614635 -0.0006667427559116145 0.27695040366054335 0.21612630611349026
42958000.0 0.9305295259461454 -0.36028962519540003 0.030910035664246483 -0.04214079938592777 0.0029982980860879037 -0.0008326436105931603 0.27623363444923543 0.2009191667013532
43957000.0 0.9287635887184585 -0.36526374451320764 0.03390221074838981 -0.04690390632198733 0.0031022183118166124 -0.003806776520670696 0.28520650033527634 0.2076166764990328
44956000.0 0.9256469543440783 -0.3744473171536042 0.03664392915978533 -0.051712810283165184 -0.0018714766874871986 0.0028461686903611216 0.30151719381891323 0.19270632672947693
45955000.0 0.9222227271544594 -0.38374722638319053 0.03529245788275981 -0.05961927208540562 -0.0026030559164813504 -0.001198142320499296 0.3002014920702575 0.18810090090106193
46954000.0 0.9163724504991504 -0.3914386785017317 0.038549835516654564 -0.0651910769947765 0.0007091366413454494 -0.0003247799932235596 0.3286258547050503 0.17999391447594884
47953000.0 0.9159647350653743 -0.397947517010244 0.03474607812795121 -0.0706487850339007 0.0012397191142458931 -0.0018264964440899902 0.33988128283862445 0.1739774737889104
48952000.0 0.9114939270984302 -0.4087410478086113 0.036355620871578884 -0.07896866056773419 0.0015920548809618847 -0.0003952104321870042 0.3354081432980466 0.1593267557548231
49951000.0 0.9067826065491515 -0.4169271519461484 0.03944602624136626 -0.08696609128715309 -0.0027972240656767714 -0.00434471014568276 0.3431206660977767 0.15854879106009623
50950000.0 0.903222897741191 -0.4232314206459698 0.03780300085541695 -0.09559838995325887 0.0018730309073475846 0.0017752012501743811 0.35203496007936874 0.13952102559441443
51949000.0 0.9003695052111202 -0.43221290424845304 0.03850546266914594 -0.10223515319167381 -0.0012245887362085381 0.002233003839685722 0.3628628309759286 0.13263611436232087
52948000.0 0.8968814304075587 -0.4405352278616221 0.04271673464022602 -0.11073589149452184 0.0024533151239717927 -0.00024391816411917328 0.3690063300338415 0.14492601183692203
53947000.0 0.8931324041023324 -0.44632979812957574 0.04338042455625715 -0.12162537908215902 -0.0010743404901198412 0.0006302284432252002 0.37615903813819956 0.12120720882416411
54946000.0 0.886379089352008 -0.4580577265023533 0.042621499651378625 -0.13050213864821347 0.003627189184084353 0.003480231766141659 0.3852081933610034 0.12200297058904665
55945000.0 0.8843108301722064 -0.4631295269890954 0.04347470456620364 -0.13894676999441657 -0.0030357031691256916 0.0016839152827444232 0.38374979330267683 0.10781214326430383
56944000.0 0.8811923411864835 -0.4713322720918695 0.04904349767100826 -0.1501605121571041 -0.0007093223840670155 -0.0024554795018461232 0.4021139112207905 0.09445045415432482
57943000.0 0.8761463557901049 -0.48349536974796226 0.04891023248858731 -0.1621992208893814 -0.00270719339479235 -0.0036881369639551985 0.4070150580382191 0.0895087343042853
58942000.0 0.8686254525961292 -0.48801911469139136 0.049104961513342676 -0.17070870275420388 -0.00090433676099939 -0.000587513925584009 0.41921258363811803 0.09109629581746939
59941000.0 0.8686428413737102 -0.4938701434954408 0.049980707375195124 -0.1799924047710767 0.0038052162203914236 -0.0014773905382700974 0.4076918547409369 0.08194173592336702
60940000.0 0.8605341745735537 -0.5030594895149206 0.05334834962969071 -0.18789729166698566 0.001685389014874768 -0.00035686826626145916 0.4077969284303474 0.0766465552498226
61939000.0 0.8564429799587204 -0.50977336379947 0.05341313186505484 -0.1937312488951028 -0.0013618915949118833 -0.0005114871780576393 0.413631077123126 0.07032520313922003
62938000.0 0.8505601292365995 -0.5204269495683512 0.05442067230920958 -0.21000251673326115 8.924287631861237e-05 -0.004113088263401404 0.436507630440167 0.04039546616974013
63937000.0 0.8458835864327588 -0.5273787117277804 0.05436764971502196 -0.2305988302474769 0.00019976447302896458 -0.0003050579994172585 0.4416075920807241 0.03796853023116373
64936000.0 0.8412466739643188 -0.5332566500832139 0.0534100651237416 -0.2457023850343494 0.007057160696264588 -0.0023318614185234743 0.43023355936072993 0.03487087370338281
65935000.0 0.836446501279979 -0.5443298231646709 0.05431439078213816 -0.2592556936211145 0.0019732968941318916 0.0020228537676533695 0.4326925954975339 0.01685235091515512
66934000.0 0.8340664606543354 -0.5478142845358726 0.05457675128296956 -0.2694717218094635 -0.00010141143647160641 -0.0008289615503615143 0.43166797104809856 0.01379344949524712
67933000.0 0.8293314710936366 -0.5578768869057622 0.05142820731212398 -0.28526699828599383 -0.0003323530242723986 -0.0004494838474583825 0.43934797056264285 0.0049344429003775085
68932000.0 0.8279761840839489 -0.5570697300184086 0.053714832616840215 -0.30006116892257956 0.0002100987255641586 0.0008787805183493296 0.45024415692461317 -0.009986350054164452
69931000.0 0.8144993541668866 -0.5740700358307553 0.053053260191378744 -0.31202429681552984 0.0012825772221160222 -0.0028827492412468255 0.4411266112263143 -0.02511092106929076
70930000.0 0.8115143316116592 -0.5801735250068571 0.05079948819858717 -0.32741177647788056 -0.0015552506883872253 0.005229268324925683 0.446422723154894 -0.03582561064907111
71929000.0 0.8062515383966745 -0.5895388783193146 0.04445659537166586 -0.3493245189318522 0.003902738580877164 0.0015413620747030525 0.44952434001992847 -0.04226563509445596
72928000.0 0.801835591005012 -0.5977337449263203 0.04257761917978806 -0.36255689732232504 0.0011407354217801656 0.0013268876386476843 0.4640302147572121 -0.05151471435556607
73927000.0 0.7942512842428439 -0.602211610462297 0.033240315657016815 -0.3822531651176623 -0.0008821828040648226 0.0011830021791731098 0.4559641615806515 -0.0573136861394687
74926000.0 0.7889463648522014 -0.6136049343148221 0.02908756330802915 -0.39920098514124913 -0.0020271481083391565 -0.0011194502686198168 0.4662403167457838 -0.05784689719666199
75925000.0 0.783885188960816 -0.6179153998808136 0.017733439469847553 -0.4202589731931421 -0.0014359075941287147 -0.0017761792679016064 0.46188594682045664 -0.0743989839834541
76924000.0 0.776545968832626 -0.625347408113121 0.004928807465179897 -0.44388750354045925 -0.004515933520991071 -0.000567862323974033 0.4590577978244281 -0.08788311613493496
77923000.0 0.7724175687511782 -0.6307967127343951 -0.007616410022005231 -0.46697422092674096 -0.0008623150705017825 -0.00386839892808194 0.459406141795659 -0.09031994489273606
78922000.0 0.7652135539062431 -0.6424790055894257 -0.017946264124095116 -0.4918059274684966 -0.00157759322388349 -0.000714725132848913 0.46437005608292203 -0.10426302970153832
79921000.0 0.7574566806414283 -0.6460361675290861 -0.04065666731129872 -0.5168707648186618 -0.0007296640143371932 -0.0009305481346181573 0.4631371781317408 -0.11503984505017457
80920000.0 0.7525352015238933 -0.6577614218730019 -0.05135302612227358 -0.5475129791122537 -0.003252994812863303 0.00047232813772359744 0.46213963879298714 -0.13110907609043448
81919000.0 0.7496147819961655 -0.6619098378350644 -0.07082069737938232 -0.575220895476423 -0.004369070331127467 0.0021252030471137886 0.4578663778713281 -0.13413464856251772
82918000.0 0.7361629413922665 -0.6720429461728518 -0.08388472428077458 -0.6026668651397208 -0.0016578101152557407 -0.0018433170462662542 0.4763902753316366 -0.1474179395814753
83917000.0 0.7318452816203301 -0.6788563045026977 -0.10093492211903426 -0.6298202418363708 0.002808567183114311 0.0005379202784217612 0.47319134935836504 -0.14917977233328153
84916000.0 0.7257173429888729 -0.6857514960174498 -0.11885659942021838 -0.6642363364881974 0.0003063242684631645 -0.0019029822395720112 0.4609804439281349 -0.17040244206530503
85915000.0 0.7192429092531573 -0.6914165369999871 -0.13893581044536404 -0.6947503576234343 0.0005935893730740636 -0.0016164794903733052 0.4674532881972484 -0.17160307662329444
86914000.0 0.7144626933788282 -0.7001789076956477 -0.15422090614422987 -0.731900248180073 0.00022589468541240508 -0.0006988039703145872 0.46043482672493935 -0.17714130806724637
87913000.0 0.705964399337995 -0.7078674101075313 -0.17561210129325652 -0.762452130701572 0.003372132015480492 0.0017377430415258396 0.4616017911851482 -0.18663382471476822
88912000.0 0.6964905015713471 -0.7152488684373387 -0.18996692391594533 -0.795369868810677 0.00028218090444136825 0.0016733887425427038 0.4587235877027988 -0.20860556236609
89911000.0 0.6921992586735689 -0.7227303840131266 -0.20677795305207225 -0.8321946779237386 -0.002732762672209628 -0.0021296943089508624 0.4620531318349848 -0.2100931749450279
90910000.0 0.6869982476374609 -0.7266514706460436 -0.2197868948065938 -0.8674292604237391 -0.004077196372638699 0.0026924992083827673 0.452452056032809 -0.21486606516777815
91909000.0 0.6766555963986505 -0.733775720018308 -0.24323805420418776 -0.896811358449457 0.002357263022353434 0.0001393460845736054 0.46395096426088817 -0.23327182295852214
92908000.0 0.6688030019347382 -0.7424810006916557 -0.2608843655047996 -0.9325359958458215 0.0018626890115122216 -0.0012647100770103884 0.45178612225221376 -0.23626387938977833
93907000.0 0.663369883643992 -0.7452157677922259 -0.27724716745340755 -0.958832060323424 -0.003556167019033095 -0.0011789077057879761 0.4538023004074855 -0.25914137543988275
94906000.0 0.6489216137664117 -0.7535435556301945 -0.29828727052049964 -0.9952400573557267 0.0011315341115218317 0.0013678181762802023 0.4534403378852059 -0.25640528943949326
95905000.0 0.6432672598525827 -0.7615403562692853 -0.31891996334413075 -1.0287425957826275 -0.0020450730655578683 0.0019431967171467082 0.45796717997541153 -0.2625392228436905
96904000.0 0.6361676359049021 -0.771421132041486 -0.3391274437269435 -1.070535731351471 0.002388026768461793 0.0019858155545039737 0.44542366749028245 -0.27553713072743263
97903000.0 0.6260912474685374 -0.774924891844552 -0.36061922911987426 -1.100348086527617 -0.0035064470105096467 0.0017785559497772237 0.44208232128286057 -0.28315584286070755
98902000.0 0.6225230134153452 -0.7806506960505947 -0.379736799723965 -1.1391352217517468 -0.0051498418460682455 0.00031179730981746085 0.4459358497332336 -0.28971498784615707
99901000.0 0.6136708804462135 -0.7887941768911388 -0.4051200449976783 -1.1686428435519036 -0.0014394630598167024 0.003199221786360417 0.4607230019566191 -0.31263148628550064
100900000.0 0.6048360236476719 -0.7917608459857516 -0.4391891555254145 -1.199838918429417 0.0028531466236153694 0.000884604927137656 0.4636735755614085 -0.314975877697164
101899000.0 0.5961118358498904 -0.7995471209776652 -0.4592558567241245 -1.2370525832512498 -0.00042462845751851925 0.0015382392881035912 0.451830796526507 -0.3265949123305845
102898000.0 0.5868609457792315 -0.805472952703631 -0.49652524411172927 -1.27448125398877 -0.00015237988565640863 0.0017098086035901923 0.44436151082751235 -0.332458806613828
103897000.0 0.578380747274701 -0.8124007418404777 -0.5325235381452313 -1.3096089992960815 -0.0017350835575234132 0.0024382656866945196 0.4562645656911607 -0.33475662125289846
104896000.0 0.5689727349605153 -0.8213224044841048 -0.5802242002821555 -1.3379158888853713 0.00039611504543596494 -0.0007364223737253393 0.4299424074227546 -0.33567772797659085
105895000.0 0.5608215001835662 -0.8253809176888296 -0.6187600898576413 -1.3811527175038842 -0.001994508034009399 0.0036838495952429932 0.41932056541935675 -0.3551816923553225
106894000.0 0.5517850108138369 -0.8331916345638463 -0.673497041005455 -1.4192929986063119 -0.002680814837654514 -0.00025331935400527844 0.4216724789416234 -0.3593279871374148
107893000.0 0.5435036620289708 -0.8365573853347411 -0.7269589105941608 -1.457034434463287 0.00019238227589875876 -0.000692662443602953 0.43602282339509457 -0.36641793959844565
108892000.0 0.5324382957064406 -0.8423960494436217 -0.7825303283064584 -1.4931979227756735 0.0004059408375779067 6.498802058254703e-05 0.4196484965486733 -0.3637077250945299
109891000.0 0.5223066223028089 -0.8486635878772171 -0.8387743701360542 -1.5287099942853342 0.0008312964881446563 0.0016006972094691617 0.43687176152593565 -0.3685968665388056
110890000.0 0.507102874823717 -0.8665877336833944 -0.9270011414776758 -1.5439684722814406 0.0009387306845925337 -0.0022094499887142576 0.4191387747265524 -0.37752350190514544
111889000.0 0.5029303583670894 -0.8564952991171353 -0.9604415914001414 -1.6022779321980203 -4.3585824887676317e-05 -0.00034340637613199733 0.421613347520054 -0.3906157823718009
