! Created with skrf 1.9.0 (http://scikit-rf.org).
# Hz S RI R 50.0 
!freq ReS11 ImS11 ReS21 ImS21 ReS12 ImS12 ReS22 ImS22
1000000.0 0.7823852361886746 -0.6113728372474458 -0.11171616832582894 -0.26722406222979816 -0.010231540340595749 2.938335853210582e-05 0.3812016347564707 0.32858149104749385
1999000.0 0.3325036154668941 -0.9160545309436791 -0.21030235141345285 -0.20634878665737916 0.00597414820766154 -0.007495588655395546 0.2612831948381477 -0.04033578729441834
2998000.0 -0.06755700132817952 -0.9566908177309085 -0.2200781075202785 -0.13933411893464118 -0.0001924987995355065 2.9331925339958115e-05 0.2007471056909762 -0.10917860769260627
3997000.0 -0.3339961877625713 -0.9045591276357059 -0.18894188174480134 -0.08656791972193574 0.0007765524433894909 -0.006672486690264868 0.08422475836081361 -0.21803368493336656
4996000.0 -0.5123647066008148 -0.8156336943566401 -0.14239371423495623 -0.061829981275539965 0.003908623003674269 0.001958496005829049 -0.05176446243378503 -0.19431715078495068
5995000.0 -0.6298083433487897 -0.7251396447376554 -0.10195614014781915 -0.05701243970501755 0.004939721616520828 0.0011795177359314526 -0.1437968199140204 -0.10984300259741075
6994000.0 -0.715912579217444 -0.647611132586699 -0.05736475128091318 -0.05384350520470383 0.002511782363559989 0.000303278806199831 -0.14199892654943647 -0.029202893590323332
7993000.0 -0.7757483732273773 -0.5735968949402338 -0.02401916729066027 -0.05807060302315859 0.0020302093007034078 0.004367898984985501 -0.17495736514432225 0.02261724121806844
8992000.0 -0.8224186032566627 -0.5091068277477332 -0.00522169848109442 -0.05671665388874273 -0.0037910488979558676 -0.0006549765461210048 -0.175993803148062 0.045867147771920545
9991000.0 -0.8562941558496896 -0.4540569917815028 0.00910939947432235 -0.05557805123934102 0.0009983413058567811 0.00022418464738731966 -0.14910706732961768 0.08895272012434953
10990000.0 -0.881669649150277 -0.403946441718735 0.01149319898288038 -0.04952032896326434 -0.0018529017659412545 -0.000904963007494108 -0.14487973627894637 0.11333298168116354
11989000.0 -0.9005030421204014 -0.3620078409840074 0.00021861861893277625 -0.04360810661968823 0.00426692161863376 -0.0047617192796547605 -0.11423214039628457 0.13385643777377138
12988000.0 -0.9141198331233514 -0.3261017936343436 -0.011186404800961856 -0.03115065657942088 -0.001325314996501568 -0.004809255639841581 -0.1238728295787534 0.16783597920932544
13987000.0 -0.9257642238057375 -0.2869703711785596 -0.021720206869894954 -0.01984750514319037 0.0009267062000274328 -0.0017245336151860643 -0.09247490057168667 0.1786964051780188
14986000.0 -0.9367522558797553 -0.25551980745959674 -0.03314834656212346 -0.008197966073469544 0.00011749734320877404 -0.004483834189057133 -0.08752405214499667 0.21241426757958118
15985000.0 -0.9457564759922849 -0.22450331361620213 -0.03882623191869806 0.010931994852060258 0.00020542260509962733 -0.0021146352446554657 -0.06761529696660643 0.2193710457452342
16984000.0 -0.949816732153234 -0.19978574077934536 -0.051309165060814683 0.020681195868761406 -0.0033176080405648996 0.0020580506154317794 -0.05967169678357991 0.2228532809343818
17983000.0 -0.9562456374468298 -0.16943703336610427 -0.05925835325663474 0.03300998492641108 0.007592574410197277 -0.0001843929750653889 -0.06345030448678718 0.22119960128974914
18982000.0 -0.9605015688372217 -0.15209232053340455 -0.05994437605789159 0.039199485896757286 -7.580248317667898e-05 -0.00015547773758351805 -0.027448377470877364 0.23984042841670009
19981000.0 -0.9625357459727637 -0.1289010672673245 -0.059395247057195344 0.04362286621744069 0.0004493100522320033 0.0025759601155156257 -0.003332165251298064 0.24236507316730616
20980000.0 -0.9651177875458137 -0.10663746625029921 -0.056088159740757516 0.05241338299351862 -0.0018182650192312966 0.0003289940417937883 -0.002013659706796995 0.254292744920879
21979000.0 -0.9689707659349923 -0.08476357173906895 -0.04889908876172682 0.053876357744030566 0.0025018372929071267 -0.0004958871756358888 0.027826851374137533 0.23626866803967397
22978000.0 -0.9694967314277924 -0.06636271342491276 -0.039929990137084634 0.0582211399502133 -0.0034508220782964697 0.002209734177891457 0.02452671857217426 0.25280557266769527
23977000.0 -0.968359961230557 -0.05163353153285394 -0.04049600826030972 0.05299307834227908 8.932419580386775e-05 0.005525692765198314 0.043550662005394675 0.24958038540354466
24976000.0 -0.969426752439755 -0.029827462430882214 -0.028532863134354942 0.05140032713510847 0.004315779402558652 0.0011569597610334092 0.06529515718368917 0.2600069623941777
25975000.0 -0.9638580349114189 -0.0073073243870813015 -0.025154087816308904 0.04031777837951169 -0.02279805480769173 0.016712689843513644 0.06765477732414077 0.2699174700228033
26974000.0 -0.9704426404629947 0.0005693224927959795 -0.022129051313284392 0.03202096102858293 -0.0033690567954639803 0.0009872757275644814 0.10166566067732691 0.26752922673988844
27973000.0 -0.9694947413145335 0.011478558717271038 -0.019864654008788667 0.020544633022059958 0.0007584989959633371 -0.0011683343738581905 0.10564160732302079 0.25221368747197026
28972000.0 -0.9721252834347177 0.028932281855734713 -0.018324421592776766 0.004760136559246661 -0.0023581643256150235 0.0008189925140931648 0.11957806605590852 0.2521486826464275
29971000.0 -0.970669978417334 0.0409667020431507 -0.021470717831650107 -0.01078104602734179 -0.0018785404617130087 -0.0012729379427949645 0.1529138964979001 0.26795384147802304
30970000.0 -0.9727435846281081 0.05635422733272699 -0.018870248219755553 -0.027487538328755674 -0.0032292954735216603 0.0037233557121489906 0.16966994966270588 0.2600381585488077
31969000.0 -0.9688727837997005 0.067054950847933 -0.02942636015877394 -0.040954084458282324 0.0024808717840270867 -0.001417408016986732 0.15077573646384201 0.24491369036006552
32968000.0 -0.9672939733925102 0.08385493322714956 -0.03443703713296076 -0.06073980144709959 -0.00405166153538886 0.0021495866803761116 0.1639559434352355 0.2487174357966523
33967000.0 -0.9677545060949492 0.09155056937518666 -0.04421637793124444 -0.07624499717687293 -0.0028161722406593952 -0.0023323186877953535 0.18921651562945968 0.25189996193935094
34966000.0 -0.9647258476756352 0.10614811555334912 -0.05393403732110266 -0.09092869312959416 -0.0005692141120771174 0.0013817787364148644 0.19672250890090476 0.2525709700494763
35965000.0 -0.9658500067434892 0.12196505792070894 -0.0603814371532735 -0.10246839164266842 -0.0024434731832578293 -0.0003745791387675643 0.21435900745086747 0.24546586699107262
36964000.0 -0.9616383461944797 0.12929292420061464 -0.07526864439477385 -0.11398604170942635 0.0018143305068751953 0.0008957875437390257 0.21058053595901113 0.24623859532619094
37963000.0 -0.9610926034248455 0.14289316282822193 -0.09190978300928658 -0.13488232420742108 0.000817035887638232 -0.0010307975247521729 0.22758468769501675 0.2365591118235814
38962000.0 -0.9588723524679454 0.15049665846984103 -0.10900893088617464 -0.14276535963619885 -0.0019705094999022104 0.0012709949068722272 0.23901003497664722 0.2306532602879523
39961000.0 -0.9576873024090264 0.1625169550955283 -0.1281518444119126 -0.14964586107148084 -0.0006283022334723653 -0.0013394231244568079 0.24213659460116388 0.22640441261590202
40960000.0 -0.9548882851981395 0.16990169974534222 -0.1433114226934848 -0.15482843578480446 0.0008267050024430892 -0.0016209824411632507 0.2626648753981463 0.2241797712240698
41959000.0 -0.9509798432025862 0.18443529419388438 -0.1696021167281209 -0.16656540492353406 -0.0012977060981341063 -0.0025898752427222344 0.27299092096473865 0.21653586294150862
42958000.0 -0.9498054200438725 0.19641078822784397 -0.19466637591679176 -0.18009781637882874 0.0035189403412723757 0.0005092670379033537 0.2775780643923786 0.20761561198084436
43957000.0 -0.9494061736832934 0.20815297536198746 -0.2223289783989728 -0.1858390610987611 -0.005349557410803384 -0.0006495993603157212 0.28282852592433755 0.20228876479050023
44956000.0 -0.9462021123771639 0.22045524334429586 -0.2542265979641854 -0.19255152264668396 -0.003377525693642326 -0.00033214903503536275 0.3072995117719442 0.19890962076713323
45955000.0 -0.9436984762143832 0.22755038938145386 -0.2775508232907715 -0.2006009051739671 0.0004844155477787316 -0.0011459534409452381 0.30310208345872486 0.18561405239631013
46954000.0 -0.9417070052906175 0.2382234512124639 -0.3061430094351887 -0.2077464868992156 6.389120020001848e-05 0.002557295829026826 0.32243824960122847 0.1695792265936365
47953000.0 -0.939023747561253 0.2451164900960771 -0.3352834069904607 -0.21411240251061844 -0.004690242754676119 -0.0018853378880742222 0.33381521097072436 0.17683924596245817
48952000.0 -0.9348555128194785 0.256173307157537 -0.36486965398494314 -0.22078938203389192 -0.0017318118496412857 -0.002660963144886082 0.33275741968287936 0.1691602564906783
49951000.0 -0.9341984577553869 0.2644204175502651 -0.3925271506473261 -0.22838731884605906 -0.00037875681876376095 0.0005517867865488948 0.3572278080590512 0.15106343834735686
50950000.0 -0.9289470591115203 0.2772394916404542 -0.4209315494900989 -0.23423824058608445 -0.0013684371032281243 0.0003902797231904575 0.35342321426684564 0.1460732094201099
51949000.0 -0.9263452441983108 0.2847590081651005 -0.44964332579032734 -0.2413706063467827 -0.0022129400253158996 0.00025554772766719105 0.3578085603221043 0.14758649982374092
52948000.0 -0.9201100117065004 0.2973628872244544 -0.47675483375349814 -0.24871021972101254 0.005068695961896265 0.004512774125840612 0.3760901383584143 0.13242206194418202
53947000.0 -0.9215458474059363 0.30424667383863824 -0.5067167307912919 -0.26293106676310707 -0.0018159858956064724 0.001572090342778798 0.3711011916957127 0.1327025780232694
54946000.0 -0.9189681195001959 0.31262833675832047 -0.5354123329477268 -0.26608313658041627 -0.0038649610695501023 0.003866301940480352 0.37862389577320804 0.13146329221314573
55945000.0 -0.9174375890481893 0.3190207471661456 -0.5663445975601892 -0.27594737115324625 0.0011886135541420775 -0.000400579764529786 0.3937865903749294 0.1077195956784444
56944000.0 -0.9119537405155392 0.33205933462066173 -0.5995282824548382 -0.2830657928711127 -0.001960331582332379 -0.00028218937836004774 0.3996846563182884 0.10800421250345588
57943000.0 -0.9058693901929675 0.3381787994913653 -0.6302789451259555 -0.2877276635777531 -0.0028222815900337517 -0.002772482338006242 0.40250204239864146 0.08770958813015971
58942000.0 -0.9038266323483745 0.3483582530711686 -0.6659001827970424 -0.2923951405903756 -0.002926847055701767 0.003858002922631072 0.4131145629613937 0.09502730737901954
59941000.0 -0.9013301932216388 0.3549007888566091 -0.704196427941646 -0.29789431362687374 0.00023831278699975445 0.004525589476013198 0.42318763642314133 0.09008329203734257
60940000.0 -0.8995775625954479 0.3655853514404442 -0.7382024585920489 -0.29887702716109565 -0.0015482602869327307 -0.0025102464925196052 0.41442531910074776 0.08030299541164948
61939000.0 -0.8941415410689676 0.37569688661980116 -0.7715330477086987 -0.30612570232884234 0.0011913647894876663 -0.0018149578018425137 0.41204482543909143 0.06893925099845995
62938000.0 -0.8893235859865085 0.3831723153100929 -0.8091537690563396 -0.30377384474295965 -0.00013583262661563442 0.003457953119445476 0.43822693916621525 0.05995926536950143
63937000.0 -0.8856106454960365 0.38929676748991043 -0.85306777387317 -0.30860417883767255 0.003119595976325972 0.0007336075469314674 0.4360656487694264 0.0458887515257203
64936000.0 -0.8843405541054205 0.3988926628411682 -0.8924297461550279 -0.3107001961275088 0.002648841811335187 -0.000589988541569688 0.43634571835476255 0.03988091384241695
65935000.0 -0.8788984289544931 0.4067373812736219 -0.9254217238485902 -0.30832659733325596 0.0003302899309205995 -0.0018284195376503352 0.4313208308389835 0.012852854551771608
66934000.0 -0.8747713369805736 0.41576040038250345 -0.9663999478777862 -0.30473189145019297 0.0014016957724287157 -0.0004033176532417913 0.4385163036493814 0.010813640538389504
67933000.0 -0.8717491344411078 0.42302643489406117 -1.0060038827569693 -0.3043783375897535 0.0025960524041448185 -0.0005144477069235563 0.4428544877951195 0.01515754964241649
68932000.0 -0.8746372339798048 0.4267702333154881 -1.0580956998495303 -0.28932397466496346 0.0006170792507302154 -0.0006517097956446841 0.4525900410057067 -0.00402966677812629
69931000.0 -0.8616726141691298 0.440466348354716 -1.0978454840628384 -0.2824933081310626 0.0005947868110934512 -0.0011007011157758873 0.4487590596179468 -0.011407283368798538
70930000.0 -0.8589711179259211 0.44806133278725746 -1.140014045668132 -0.26719856641714657 -0.002809701421724231 0.0013510922178966303 0.4432621145912079 -0.027902245884890434
71929000.0 -0.8535099172390194 0.45708248014405695 -1.1907299108809715 -0.25233981915938947 2.3637068050732164e-05 -0.0020463290443169116 0.453429631485004 -0.035369986982376415
72928000.0 -0.8483784902240619 0.46460099821582523 -1.2339208052656692 -0.2288916792579459 0.00020449371907144806 0.0013372696468212115 0.4586678046124877 -0.04270320265882642
73927000.0 -0.8459803320010258 0.4693851503066901 -1.299782841044806 -0.20844032226815548 0.0011073489568366116 0.0008007385857299921 0.46000783154652397 -0.052474064125669295
74926000.0 -0.8380978719084691 0.47966051368806184 -1.3440725772164681 -0.182666652470892 -0.0010357794496481084 0.0022253491054759615 0.46213989999175215 -0.05294929261069814
75925000.0 -0.8353349570090355 0.48926524949122735 -1.4070121769547477 -0.15781133074181225 0.0006556218411644097 -0.0005971723903272735 0.46901400200634086 -0.07123244594281543
76924000.0 -0.8318441211170159 0.49458705067263864 -1.4736774521566909 -0.12351536811210861 0.002758210365437974 -0.002125795832574361 0.4673221487416961 -0.07927822777688752
77923000.0 -0.8279677957780421 0.49892137304834966 -1.527914889778213 -0.08935307305890935 -0.0006796984164445049 -0.00333477910284427 0.46083029281862914 -0.09358685197022369
78922000.0 -0.8217238361616971 0.5068889968747636 -1.5928613563483638 -0.05724706378855417 -0.003841674279450367 -0.0011786741306190215 0.46966221636790284 -0.10111537524229061
79921000.0 -0.8179104142173906 0.5161886659078602 -1.6581877295496534 -0.016606873124268715 0.0033824212322557693 0.0006571101180581232 0.4644214641700374 -0.12272631283941791
80920000.0 -0.8100327080891527 0.5207498782849147 -1.7153545357407918 0.011893313646440912 0.0011104900916155246 -0.0010231152657563778 0.46329026732874296 -0.12412017950140836
81919000.0 -0.8081646926092226 0.5293557870958252 -1.783938228540494 0.05446331052005066 0.000830823389663559 0.0006866347977993498 0.47125547303693266 -0.13079159308891716
82918000.0 -0.8022825377287535 0.5378588448240963 -1.8534413316574818 0.06412827401965991 -0.00069560115564182 -0.0024084092718277272 0.46860441853506246 -0.14390937455015218
83917000.0 -0.7977025924077146 0.5443397328167509 -1.9111927860082278 0.1141727425049797 -0.0009749688033444575 -0.00235941378340152 0.4680666688924679 -0.15205813025586237
84916000.0 -0.7905069716081091 0.551679819475913 -1.98409344854399 0.13823815083332736 -0.0009668750220047118 -0.0005423702012679053 0.466088243171773 -0.15935544252409514
85915000.0 -0.7865028479724134 0.5598709592140702 -2.0469804559137907 0.17952688286429258 0.002488677649195061 -0.0011503992344386116 0.45887123578374733 -0.18104475543438578
86914000.0 -0.779338432601313 0.5621046206637417 -2.1053088945382394 0.20141811888252614 0.0030720087426118884 -0.0015829534846659669 0.45464558777518393 -0.17953234534355514
87913000.0 -0.7737885866680277 0.5697026196598503 -2.159219772371771 0.23812992961783916 -0.00010303533820799373 0.0014219227898512826 0.4648241411754352 -0.18804791138834562
88912000.0 -0.7674959715294413 0.5794557417293223 -2.2272546228945402 0.2661037801214013 0.004108392009788882 -0.0018713357213773457 0.4596493192361536 -0.20981527764855584
89911000.0 -0.762281286881531 0.5819261988347296 -2.287119067967814 0.2862962491878591 -0.0007634156264321204 0.0009587172835869047 0.47143679553933604 -0.20679144865444088
90910000.0 -0.7558556472075686 0.5911162212242425 -2.35803173827011 0.31895971063888795 -0.0009418961062106144 0.0010219635361764544 0.4675118850605548 -0.20409379336992725
91909000.0 -0.7501781149089001 0.5981105779542183 -2.421856666736514 0.35616783109217165 0.00044781190898252814 -0.0004979448125419364 0.46563832709762665 -0.2311708533157319
92908000.0 -0.746158029148746 0.603120923433153 -2.483745200135724 0.3884914712368254 -0.0006804490519106601 -0.0011332070315943524 0.45456611772738753 -0.23258360533849076
93907000.0 -0.7371607254411969 0.6111991620715854 -2.5342150894309246 0.4231969492619391 0.0004081883904540385 0.0010133907019346199 0.45946819633085934 -0.2581187589394984
94906000.0 -0.7347149104562074 0.6144547355593634 -2.5997442271175637 0.43637628854568056 0.0021457297084860032 -0.0011402611857467446 0.4584061266379486 -0.25444135274320684
95905000.0 -0.7270906878313106 0.6220959409922167 -2.66258048396515 0.4824469121436133 2.7557367828400514e-05 0.0017520577737219086 0.45088636318529923 -0.26177730280437694
96904000.0 -0.7225295527791437 0.62772801665512 -2.7299151717079506 0.5069003725533755 -0.000688960466183725 0.0014557776074634148 0.44950874085448295 -0.26852252012152966
97903000.0 -0.7152132970396797 0.6332837966564682 -2.781172754224283 0.5530602623851362 -0.00027334103362514463 -0.0013448477542431102 0.4485445859207894 -0.2805846454479424
98902000.0 -0.7091940197641128 0.6382144847030808 -2.8467422159981193 0.5957565039536863 -0.0004055920543797348 -0.0019262045325574922 0.45503695955149104 -0.287769031049442
99901000.0 -0.7043186207769706 0.6438355221699296 -2.898140330029501 0.643830218285453 0.00223623028338831 -0.001321701487536818 0.46072848145585743 -0.3164042035520066
100900000.0 -0.6977491678234072 0.6532013270583141 -2.9529213809197135 0.7197053292891559 0.0016876983495583734 0.0014885839400577794 0.46334499643293214 -0.30295025454778235
101899000.0 -0.6897956451564613 0.6580876763655292 -3.014211587809802 0.7552346131587934 0.0014979718503760565 0.00126234949379359 0.4384572522453556 -0.31242267846853333
102898000.0 -0.6848718397658031 0.6621784930438349 -3.0759691840956824 0.8183618767353132 0.0022381440501405333 -0.0013700160839276783 0.4538977385560308 -0.3328056779799904
103897000.0 -0.6791068545696968 0.6680517084758131 -3.1264674513806683 0.8833968337940019 0.0003045738954977957 -0.00215002953172552 0.4539773403741291 -0.32568613501165833
104896000.0 -0.6705960795478061 0.6725485070863755 -3.154754313781481 0.9785943221668202 0.0016496145494671335 0.0020475942020298714 0.44648124715656606 -0.3227873713491861
105895000.0 -0.6700852352194784 0.6768570558735841 -3.244055689881556 1.0327660727130341 0.00045401219029217454 -0.0003685323014216018 0.4295075145242313 -0.3526031044562955
106894000.0 -0.6598581579542513 0.6837924967234009 -3.291788667751425 1.141997531898952 0.0037067625430461243 -0.0003494558280802192 0.433385456726649 -0.37070592329073176
107893000.0 -0.6503373107631976 0.6867066580245834 -3.3386906131343284 1.2361304994088287 0.0015490517267109996 0.0009073169326991919 0.43291400011182196 -0.3743527478477771
108892000.0 -0.647093828903686 0.6935840179212373 -3.4064021030490363 1.3267813733027387 0.0018446545463733201 0.00013599632254248788 0.4288552776159084 -0.3619220780305923
109891000.0 -0.6361672951930086 0.699762286148526 -3.4430473803653947 1.4190269964165558 -0.000324897323872031 -0.0033811720640703567 0.43639476301826646 -0.3770848726417318
110890000.0 -0.6329707092071276 0.7027418970396072 -3.4563769582809427 1.5225508769051288 0.0002695533284810505 -0.0015345416454012827 0.42907604573348057 -0.38892651707838083
111889000.0 -0.6291043522336645 0.7078222997233569 -3.557093548435144 1.605314591779779 -0.0019566811413904463 -0.0019217693347347857 0.42293656700185245 -0.40079238396542355
112888000.0 -0.6201733442633482 0.7159163599487126 -3.6284890995329264 1.7259611523932783 -0.0002801832731724005 -0.0014260580520856787 0.4164891367833698 -0.41165540079834184
