! Created with skrf 1.9.0 (http://scikit-rf.org).
# Hz S RI R 50.0 
!freq ReS11 ImS11 ReS21 ImS21 ReS12 ImS12 ReS22 ImS22
1000000.0 0.987942683029906 0.005485282776927738 -0.009777546123639727 -0.05747113026424744 -0.02390399106695499 -0.0222910795467814 0.27857621316424797 0.34209547434169235
1999000.0 0.9952597049257025 -0.012476150793166198 0.018938328178263252 -0.026810249433796767 -0.003843910952122082 -2.053170455827437e-05 0.2686140152408519 -0.045764445705671924
2998000.0 0.9986272255926335 -0.020333234992239275 0.011854273193400966 -0.00919044768952064 -0.005823304563102119 -0.0071836820950160404 0.20766647561329798 -0.14151961449690115
3997000.0 0.9990243972462182 -0.03157937481079139 0.015430450714455052 -0.004190406036134637 -0.004401979404572433 -0.0012023706624498657 0.09128582472022541 -0.23878659068163413
4996000.0 0.9951181872539118 -0.03972052798904671 0.010446165251434521 -0.002568120658404106 -0.0059120770215351824 0.0009833073331546374 -0.06103045777798738 -0.1970268121845839
5995000.0 0.9949929364582714 -0.04890871648854005 0.0057942337169288064 0.00736010059736315 -0.0025386470802199724 -0.004115151325697587 -0.14033289846247032 -0.11252605552103027
6994000.0 0.994369529032503 -0.060190644660762176 0.0034741579887110664 0.001583929947780229 -0.002356485919621668 -0.004019408210560955 -0.1344007166460443 -0.015134942873684928
7993000.0 0.9956697001592341 -0.06877272799490305 0.0018242808759888248 0.009087408345617658 0.0002138020202229667 0.003942153720756406 -0.15833829892818402 0.035531048264427004
8992000.0 0.993752965055979 -0.07237576311349196 0.0061644809910460325 0.00515272071589681 0.00521704315816708 0.0023277867289814274 -0.1423969233211575 0.07800236328899522
9991000.0 0.9965490902790283 -0.08230255901034374 0.001816926632880286 0.0006874726424129956 0.0017903138986154114 0.00022876024264169317 -0.14422102077009177 0.09418302328829097
10990000.0 0.9928801549930945 -0.09228847165756207 0.0030563843634424897 0.002021660230578879 -0.0016328686756184997 0.0038523360014780495 -0.14510704455703016 0.11686814906091421
11989000.0 0.9928078159562578 -0.09784577804466288 0.004586135077454638 -0.000703573187923714 -0.003191058278835944 -0.0018033049524893404 -0.1280346897557079 0.14862301123702087
12988000.0 0.9892022664600373 -0.10889683691607176 0.00416436145289892 -0.003382116510620176 0.002582670269336934 0.0015224659531112967 -0.12845657068399868 0.17674260831250302
13987000.0 0.9879332001926285 -0.11783832399585342 0.005764530306839549 -0.005210408817705991 -0.0020332650761351544 -0.0023155990296614623 -0.09364164905050618 0.18865958452901843
14986000.0 0.9884887523060851 -0.12423973218885719 -0.003128980591526356 -0.004574954491167249 -0.0013263736881235556 0.002671731623133865 -0.09884977771482892 0.20133453652818462
15985000.0 0.9909457282517994 -0.13376881438328958 -0.005443386421163029 -0.005620966766090861 0.0037707461564045414 0.0006343006141013718 -0.06437244657158588 0.2211434586548477
16984000.0 0.9865383821245134 -0.14360145017425047 -0.0030783164164475967 -0.006454595095304524 0.0004436270018628267 -0.0002631643588239098 -0.054841333297478485 0.2283093362245944
17983000.0 0.9849879669111714 -0.14718742085245304 -0.0037605235909209745 -0.00766025486911022 -0.0018778775485453212 -0.0010892189643820088 -0.0471364947640463 0.21531489656203315
18982000.0 0.9815619248153731 -0.16126996586388956 -0.001791107820362217 -0.00696755191119071 -7.475819919733562e-05 0.0003495018884708086 -0.016910417739797373 0.23446046042297952
19981000.0 0.9821696144173143 -0.16675391224299402 -0.0036757815208861623 -0.007097626958914635 -0.0018600696479928527 0.004607412345950354 -0.011696150054704804 0.23337161295286177
20980000.0 0.9828326317589637 -0.17521560264356942 -0.0028889505155042855 -0.005636365066518273 -0.001894543217834741 0.00048078215307703154 -0.0038563257492508795 0.258607017491051
21979000.0 0.9799701577166385 -0.1836766110582036 -0.007001955930544493 -0.008652549450879364 0.0023857353747554697 0.0004492675071005898 0.018249126412674038 0.24762154904180741
22978000.0 0.9786502420312613 -0.19209868992825993 -0.00706649729618636 -0.0022136556559661387 0.0005871896587097924 -0.0027789086028859023 0.029550492816144136 0.2568498108493814
23977000.0 0.9775526182573933 -0.2009239916563355 -0.007901833877039568 -0.003387083267129675 -0.003730473780791886 -0.0027654109794792324 0.044772446867168234 0.2629113108284362
24976000.0 0.9744169046540614 -0.20860676011433027 -0.009440404485138342 -0.0002175204234092078 -0.0018302173928040806 0.001862869443406444 0.06487223364112217 0.2593380118498282
25975000.0 0.9730148784461974 -0.21478055825500555 -0.005701531887904446 -0.0027188010460879194 -0.019043483894867253 0.019402796526169403 0.08171084125296114 0.2593807607390598
26974000.0 0.9709065457283641 -0.22511748776764542 -0.003608766022905842 0.002074412254982204 -0.0020980526786305584 0.0004095162250999806 0.10061985319850864 0.25754921111180007
27973000.0 0.9698688231167298 -0.23487089865747396 -0.0036906531687713596 -0.0020584371946547027 0.0005130326782653411 0.0010930606936949525 0.1073138417925166 0.2612669634085617
28972000.0 0.9671833665178909 -0.24436126961554097 -0.003843098445341518 -0.00039583870532655836 0.0024588749151495336 0.0022714537311044605 0.11259000996386943 0.2462247437633671
29971000.0 0.9660349620648289 -0.25012532509205204 0.001780491888572515 0.0003438290622045764 0.0010479315485758195 0.0005170322142772968 0.14650906162694816 0.26015850069946034
30970000.0 0.9616907002917021 -0.25777580522123394 0.001986596068543008 -0.0020519384189954296 -0.0023204968285316548 -0.002371659301749417 0.1758642234090304 0.2493280398485871
31969000.0 0.9607227405373909 -0.264784993608635 0.004631403745194268 -0.0030847121876603828 -0.0011928431396251971 0.002049641932301616 0.15619549940375213 0.24750209862547118
32968000.0 0.9580939162507329 -0.27536044451470076 0.009053557759141918 -0.007039953684313638 -0.000650529870897435 -0.001037333469053788 0.166423766102818 0.2501293514886938
33967000.0 0.956332282554505 -0.2848395306450466 0.0110566742621852 -0.012353015063535356 0.002293702534861626 0.0005116268046470515 0.18514743385656282 0.23848473787923977
34966000.0 0.9542763187184636 -0.29166990508644725 0.012822993809821936 -0.015280253498331378 0.00043733555382261224 1.6859555117756198e-05 0.1945318041065858 0.25232031923140263
35965000.0 0.950807642370496 -0.3002534869453795 0.01775265603535784 -0.014150319678023987 0.0006258785309280061 0.00017602033618704677 0.23001404984810847 0.24215764733427655
36964000.0 0.9493069513705413 -0.309881178249936 0.01514291760281691 -0.015545558231028498 -0.0008028614987964307 0.004500632528589659 0.22010337270153812 0.25029952409345047
37963000.0 0.9461299141717199 -0.31816572356778794 0.02174812846489267 -0.02120022785242001 -0.0025078408059820314 -0.0029475757114027445 0.2327375314605938 0.23207623262115643
38962000.0 0.9448407005258043 -0.32741923192584094 0.027501973333527736 -0.025550689512651697 -0.0005141428488979263 0.0005738265714483115 0.24162686352743 0.22592264637901333
39961000.0 0.9394654266505427 -0.33705310253031895 0.026131922049438257 -0.031104931610631825 -0.0030369547125847747 0.0013644638840984873 0.2516130987093885 0.22202403108415877
40960000.0 0.9366832256181281 -0.3421246463375869 0.02267421645255704 -0.02318082216386191 -0.0019557515911183833 0.0012107946169098672 0.2652799481377316 0.22532060479246555
41959000.0 0.9329499403402944 -0.3521286649735309 0.028173030681129484 -0.03307743739908122 0.0009589374277291671 0.0023664469864546236 0.27639401680695946 0.21033351898904323
42958000.0 0.9283595997517063 -0.3627076901884651 0.03185075638421405 -0.04099582926534658 -0.0009294395636472924 0.0008142381512169096 0.2839601399737736 0.19952169134225703
43957000.0 0.9286470214945053 -0.36629183307082314 0.03497268295721401 -0.04782102902922722 0.00026880436011154387 0.0004645816816513792 0.29512276317551744 0.20913804308314513
44956000.0 0.924262554680444 -0.37508982985490213 0.034039893442730375 -0.05126816896220853 0.0006936821680811381 0.002334652528320917 0.3138663229187683 0.18956912694700964
45955000.0 0.920798650223836 -0.38719464424235217 0.03721679949308683 -0.05924105348887182 -0.0013111991278891154 0.0008658602472823332 0.30504167594786563 0.18634551945221897
46954000.0 0.9166956015455863 -0.3924855860435841 0.03845648976280663 -0.06822351287542405 0.00020934968826294306 0.0031248401118073557 0.3321778760838731 0.17140632103398937
47953000.0 0.9145641794582219 -0.4010213200278874 0.03529712516767901 -0.0759774220660138 0.0020846675749077496 -0.00035046929313742065 0.344189672298233 0.1689323029033671
48952000.0 0.9079012706386232 -0.4142417110924169 0.040425839971825125 -0.0815964249704139 0.0034298752690036217 -0.0008796811594989026 0.33604714466422725 0.15862303830156557
49951000.0 0.9046021334938287 -0.41893579060330177 0.037317953007742904 -0.08947973320921275 -0.0016273785878627204 0.002474028986080385 0.3555500533909271 0.1486976382586789
50950000.0 0.9021441297385349 -0.4281428909549959 0.039769645746070524 -0.10121571909833006 -0.0005650462332936356 -0.0016496857038226023 0.3609947153523818 0.1391220438307777
51949000.0 0.8981860561296607 -0.4354587463747237 0.04023035484965335 -0.10446305560776487 0.0004150460869103332 0.0007395132233181636 0.3662076980507675 0.14104751574685004
52948000.0 0.8948361930811068 -0.4433243498163756 0.043326980290675186 -0.11660256648604028 -0.0025937887546523854 -0.00017199593203465086 0.38467314561082044 0.13314144283008394
53947000.0 0.8903443787141248 -0.4489167009949165 0.04070735482969804 -0.12752547513959342 -0.003914191440108993 -0.0022230054849634285 0.369333997031717 0.12132496660446974
54946000.0 0.884726054796949 -0.46093628113268104 0.04730541969626673 -0.13523615072816167 -0.0009746818867077093 -0.003761986193903947 0.3932635486216144 0.11676203416648369
55945000.0 0.8803367364455713 -0.4677742616480313 0.047623634387229365 -0.14495957519167715 -0.0007207652704814842 -0.000286866583910976 0.39244028178155593 0.09522286575173505
56944000.0 0.8776815393568753 -0.4765738001623104 0.048643536661505324 -0.15810871293154843 -0.0012268364455795674 0.00042522551520539413 0.396212850744442 0.08759939651739913
57943000.0 0.8717982217158898 -0.48688118118285495 0.048848205838313216 -0.16863184956937338 -0.00019812489691609095 0.002630256838893523 0.4011368594333113 0.09450823380436132
58942000.0 0.8657589914841233 -0.49309949112364093 0.04816333200819788 -0.17940093084169909 0.0003483034957496479 -0.0006467876552768884 0.4224475972181561 0.07588354122052117
59941000.0 0.8650378547807798 -0.49901397957999777 0.049847716297849495 -0.1905544708101311 -0.0013236254892259785 -0.0007577161054090698 0.4226064978622841 0.08583056551244023
60940000.0 0.855942379349932 -0.5061100331753728 0.053355894763683416 -0.19276427615750472 -0.0002031367224711417 -0.0013779135384659235 0.4144285373269221 0.06933691423244889
61939000.0 0.8549163336832006 -0.5133068572761078 0.051853183926879966 -0.20177121481979327 -0.0002611242254383375 0.0004417416406670627 0.4141849025178774 0.05961921721908504
62938000.0 0.8479438768622132 -0.5232523133526309 0.05651226779780673 -0.2182465416939269 0.0025511872397270905 -0.00027043981664996855 0.44611479341040033 0.04075772666079223
63937000.0 0.8416999183288031 -0.5308397608744905 0.05901190642519322 -0.243089612164556 -0.0020766860993067563 -0.0007880230064833699 0.4354496400409426 0.030292334188966055
64936000.0 0.8378356234800691 -0.5342538985948199 0.05421774003291605 -0.2543351976259148 0.001339567441562476 -0.0029440609950382762 0.4370606366935137 0.03393483668371459
65935000.0 0.8343250862598316 -0.5455569349412803 0.054343689264720114 -0.27149282220624094 -0.00246040240826373 -0.0013656111988080784 0.4469732144338055 0.006146869345557189
66934000.0 0.8290237532456355 -0.5548723403581399 0.05317650718805909 -0.28607860036278193 -0.0012723340819880142 -0.002016695806886035 0.4348221646188992 0.00371821136367325
67933000.0 0.8266785123259052 -0.560183298572555 0.05690045353954357 -0.298809045432437 0.004528282447088813 -0.0014589709539902958 0.4499672021441868 0.0023432716386619207
68932000.0 0.8067578868425971 -0.5617919717718182 0.04482429930498616 -0.30952131489612633 0.00029784317797279265 0.0023296310316088826 0.45458936493317886 -0.027700173783735002
69931000.0 0.8125655055592301 -0.5770004546681682 0.04950888228842756 -0.3306494021835827 0.001000249749437863 0.0016376029561677925 0.4487426375204082 -0.025894667359661935
70930000.0 0.8069061198530014 -0.5828578926022824 0.04460293792828368 -0.344135267463545 -0.0020497794721815446 0.000916365231729766 0.44849236439258844 -0.044186066611949855
71929000.0 0.8028472861994861 -0.5909120625669443 0.042386939708272786 -0.3670748097949616 -0.001993741281908259 -0.0027558382979077007 0.44318797892352235 -0.03899941626131711
72928000.0 0.7963963591668705 -0.6028245043010055 0.036904936093134166 -0.38130018493171713 -7.191146389626095e-05 0.002499443995935155 0.469403605783856 -0.056220723552835444
73927000.0 0.7895522888013974 -0.6075521416944186 0.028759469578500278 -0.4029469919735689 -0.0010978132846858897 0.0041798876160452185 0.45601476446294265 -0.06254356363213562
74926000.0 0.7852620791598844 -0.6168046161642237 0.022576177771715014 -0.4228261115869293 -0.0035570741674828825 0.0017654312291975455 0.46358389425150803 -0.06926007474596463
75925000.0 0.7783412326977176 -0.6206466851007884 0.014845120451687597 -0.4399119117156694 -0.0014768936510358441 -0.001356417717567127 0.4665225546664058 -0.08286976368091303
76924000.0 0.7744506180327807 -0.6290276192518449 0.0015808569729814314 -0.46679236601247126 0.003303443285120145 0.0007369157291058625 0.45850895170669886 -0.09916682425501026
77923000.0 0.7658255036939785 -0.6370711085843274 -0.014903913813616332 -0.4903667600460255 0.002289944664326008 0.00205227644649176 0.46166159386096084 -0.1069802888562059
78922000.0 0.7607076887264361 -0.6452952891300878 -0.029061943140935714 -0.5210161317703252 -0.005977158251541368 -0.00038162701506021723 0.4573944818723841 -0.11667235879030365
79921000.0 0.7534188394921593 -0.6501716408820736 -0.046732482024464166 -0.545332258701824 0.0036580102689427376 0.0014829556106335346 0.46322631635766187 -0.1273498308899991
80920000.0 0.7483032966407241 -0.6617245330321556 -0.06483558530220307 -0.5758046550302635 0.0015127743767699108 0.0014081585269735822 0.4691854298088038 -0.13100473548741687
81919000.0 0.7408973400738805 -0.6662065698876352 -0.07777064789652549 -0.6059853276637601 -0.002135072952772887 0.001619693547692793 0.4673777985957944 -0.13668468950379567
82918000.0 0.7334489460578092 -0.6737248205214713 -0.09424608818486607 -0.6325330477388913 -0.00502733506643661 0.0023364776599567156 0.4679630456730527 -0.14672567931142938
83917000.0 0.7254038023985195 -0.6815285369841599 -0.11581805818573969 -0.6627979250300085 -0.0027708678021630623 -0.0025000771762359736 0.46341063318141024 -0.17408486691382577
84916000.0 0.720155446078548 -0.6895216242326324 -0.13101894939318634 -0.7011606263680995 0.0008851204573223708 0.0009735793874638252 0.46469921448241497 -0.17331871889794967
85915000.0 0.7127923693487772 -0.6961963538314148 -0.15134866343650194 -0.7246959471254028 -0.0008546240556792545 0.00018624340220352076 0.46849606817013445 -0.18887662929575144
86914000.0 0.7062023476706183 -0.7054788949391095 -0.1626487336857127 -0.7694727768670144 -0.0001594779179272561 0.003017764486180934 0.46191874628061436 -0.17698935823248083
87913000.0 0.700727742852481 -0.7113673085135888 -0.18847743132443429 -0.7961016107597969 -0.0007297711083321249 0.0001992858551546047 0.4598597965282936 -0.1975602082251293
88912000.0 0.6916018760559814 -0.7171956261445317 -0.20276070426452455 -0.8358569144968259 -0.002897477152328575 -0.0034046115717264853 0.46232589895416915 -0.21570613351552936
89911000.0 0.6853247282832577 -0.7268919810518472 -0.22347789469243967 -0.8716065311434024 -0.0017872065156293935 7.632181329275885e-06 0.46529330474202796 -0.21716402917436003
90910000.0 0.6780856333440054 -0.7314970158636732 -0.24208176544072096 -0.9052867384354549 -0.00113203070305126 0.002998592304200968 0.4527335752417999 -0.214263219470299
91909000.0 0.6697517518471805 -0.7367441735566238 -0.2614674763482355 -0.9413242918766545 -0.0018624405464609955 -0.001437437996644749 0.4639376967354241 -0.23197809579533504
92908000.0 0.6609360735216501 -0.7460546070414578 -0.2825700350718491 -0.9736129774830931 -2.3632672135096824e-05 -0.0009109022634720835 0.45221065566336294 -0.24361598258429476
93907000.0 0.6558931269614899 -0.7500701958234836 -0.3037580256670107 -1.0047951392213637 -0.0031314959472143657 0.002160284182736152 0.4602106261562952 -0.26561275327595
94906000.0 0.6413484555299207 -0.7605424674259716 -0.325514506533465 -1.0406155212552208 -0.007718896768029972 -0.0045845624639322385 0.4574431905978626 -0.2641673637860051
95905000.0 0.6377306468218613 -0.7653472081376991 -0.3466969712330846 -1.0800091883136023 -0.0030425714413581 -0.0012937044678875064 0.4588512974319513 -0.2711522521204921
96904000.0 0.6274005010562187 -0.7742541847316071 -0.3725288035906094 -1.114706688102009 -0.00018492558024716513 0.002372278377088738 0.4463672166587914 -0.2817776284613162
97903000.0 0.6202287364018709 -0.7791342444067892 -0.3946451000201381 -1.1492071086062317 0.0024338116980231156 -0.0016482147709160483 0.44851182054147615 -0.287823185175501
98902000.0 0.6147928714615576 -0.7848345046473508 -0.41671746392257897 -1.1881015428350115 0.0004257498782012826 -0.0011705479120209447 0.44236116711918044 -0.3010167852345721
99901000.0 0.6048876219523887 -0.792034000996033 -0.44950269597758563 -1.2180351862478696 0.0001312431758073875 0.0021022284035765457 0.4489626438128098 -0.3203482100287312
100900000.0 0.5979524330775817 -0.7955772969370105 -0.47913763708022017 -1.2518560326368136 -0.0008342249418188513 -0.00480106501820662 0.45592842732050504 -0.31612534484607685
101899000.0 0.5863765088262746 -0.8038740182197145 -0.5121742859162619 -1.2886235525638072 0.0006105326656206003 -0.0013245103894236557 0.4507462772758273 -0.3310188829447393
102898000.0 0.5763828771777264 -0.8086259835284333 -0.550012941629196 -1.3269626850218506 0.0007721504206908225 0.00026833782873084805 0.43893219340037076 -0.34532375784868835
103897000.0 0.5684865016609899 -0.8155271533194032 -0.5910209579281722 -1.3641030953775692 0.00014462952972814556 -0.0019226804687473308 0.45274243316010615 -0.33143359139542095
104896000.0 0.5631045816999782 -0.8267792279475172 -0.6377956747712458 -1.4012557075238237 0.0010704516723617546 0.003304351625120717 0.43229055429977525 -0.3422148826515192
105895000.0 0.5513822158102893 -0.8293982027820748 -0.6830594898107802 -1.4444024250895027 0.0008533253121295271 0.0014387699035297637 0.41977074620381355 -0.3650892824892201
106894000.0 0.5428589725416479 -0.8362686307879941 -0.742445562923184 -1.4869556553776837 -0.0011547037627724422 0.0002624562069149125 0.42903331535621436 -0.3715067431197651
107893000.0 0.5364198524052528 -0.8407507118441987 -0.7892942288720513 -1.5275130449149277 0.0002343913284471353 -0.0017781965573671764 0.42443968405693794 -0.38310636550003535
108892000.0 0.5236364535838582 -0.845018195368076 -0.8534978022955085 -1.5571247880172407 0.0016063800969549282 -0.001708191683332721 0.4103641226656587 -0.37535377736988906
109891000.0 0.5128504572829469 -0.8514463138998678 -0.916471348018628 -1.5924001226641873 0.002459354499728826 0.0005611749851807152 0.42408378004186015 -0.3828762254376826
110890000.0 0.49463910445279446 -0.8560129455464662 -0.9842613514847215 -1.5961082464461704 -0.001450338514674324 0.0006588249427976112 0.4114064285516302 -0.3968768401864644
111889000.0 0.4941372281914574 -0.8602316966755315 -1.044307324580491 -1.665213159997103 -0.0003896075141732943 -0.0015584631914641765 0.41107411741459404 -0.41033484436227513
