! Created with skrf 1.9.0 (http://scikit-rf.org).
# Hz S RI R 50.0 
!freq ReS11 ImS11 ReS21 ImS21 ReS12 ImS12 ReS22 ImS22
1000000.0 0.9813263093583859 0.003574631961389518 -0.0015609745239449707 -0.0421661255829842 -0.01984745900774894 0.004111105947141892 0.3295443769502169 0.3274066153905467
1999000.0 0.9915864252366947 -0.011728309141261785 0.003211213992035721 -0.027440548573777708 -0.006051187698003668 -0.0015196891712876883 0.240299034443006 -0.06878808159702537
2998000.0 1.0010350068886646 -0.020244581281195762 0.010190247344316271 -0.012320486553365302 -0.00825269284086229 -0.006484305515209805 0.1978720120679243 -0.13932788895332918
3997000.0 1.001429834003646 -0.027594555797835492 0.013325654765507604 -0.010452235403515578 0.0035783768287985388 0.0005432717815225749 0.07976427950021926 -0.23864067034942074
4996000.0 0.99858307609247 -0.03569533513696685 0.011216058191073368 -0.004328816429851932 0.0027606114733518382 -0.0007478337423265892 -0.04910242029749744 -0.20081156701865535
5995000.0 0.9955261234235013 -0.04933529725476 0.008540272349682037 0.0020194960986732514 -0.0026250484372242443 0.000799621012074817 -0.11375290463661861 -0.12012438377253949
6994000.0 0.9965061985282381 -0.058619277922538605 0.0077635056962116885 0.0043605578149347665 0.0008023712479746454 -0.004505675624269085 -0.14936289417982915 -0.019470247261787796
7993000.0 0.9969568540791666 -0.06791033785905823 0.002358011091574155 0.006043651927312927 0.00654019253020975 -0.008170329462970792 -0.16320652510550246 0.03252320630606693
8992000.0 0.9967784097011803 -0.07333540082576823 -0.003125964075278071 0.0025091594730249646 -0.00043440468193740205 0.002886802388721276 -0.1555548607853796 0.0663789060675993
9991000.0 0.9938678312525994 -0.08357514068677699 0.0023770689261669396 0.006178788990534597 0.001588486971643329 0.002621118274195082 -0.13925158715344876 0.09766129727689195
10990000.0 0.992960241261212 -0.09539285761772538 0.003414421926837349 -0.0022265567002284774 -0.0036066607409383196 -0.0009550147355084376 -0.1329078698389053 0.11272283927795915
11989000.0 0.9937394377004747 -0.09702121396243386 0.003785261349981012 0.0009874543046849956 -0.000554650569509868 -0.0004894863298667073 -0.13016081267082583 0.13954648754400875
12988000.0 0.991784787949457 -0.10739415273212434 0.0017579050917364508 -0.0058594575394695925 0.0004600165842112465 -0.002853982988627581 -0.1133693986392321 0.17336244504845588
13987000.0 0.9930510920077946 -0.11368900882726768 -0.0034126358078752734 -0.006581863041852776 0.0008024575258403658 -0.005483343846170707 -0.08809405537929763 0.1890207706571668
14986000.0 0.9900481877657696 -0.12254167269429324 0.0008424692247098555 -0.005220772452204537 -0.0005575272716364316 0.0025159237626777636 -0.09609671872520506 0.20016056161803908
15985000.0 0.989661754498958 -0.13201814725273203 -0.000542699748009893 -0.0029590605918600244 0.0025798084856725103 0.000531512740461701 -0.0727079537646863 0.22497761679500974
16984000.0 0.9867963847362908 -0.14249459894110483 -0.004277364266509812 -0.0038147458355813147 -0.0029276142707075057 0.0024610806298757787 -0.06543524836980051 0.22993071756481892
17983000.0 0.9852752776256991 -0.1493582717347841 -0.003495426714465912 -0.007316972935134996 -0.0010533412304107326 0.0007405036170693589 -0.04317621429381213 0.22866126061697645
18982000.0 0.9850601928852568 -0.15971315838984806 -0.0019282770323835244 -0.005314798198058152 0.0006814630241640655 0.0009138803211964718 -0.03839080350073951 0.24535765187083042
19981000.0 0.9837169935299238 -0.16506031167560511 -0.002758207025052843 -0.004340574919598687 -0.001758567908439537 0.00010731487602188025 -0.008991682832600755 0.24119536332810798
20980000.0 0.9823405557442032 -0.17297904497704314 -0.008533669533718704 -0.0012485891437062988 -0.0010679973924450146 -0.003967418985717371 -0.006145895811228178 0.25874331923211935
21979000.0 0.9811080760681193 -0.183181205340268 -0.0021852359883212003 -0.004939028019261064 -0.003911365278634083 -0.005082336876014391 0.016076221134413066 0.23867158129372554
22978000.0 0.976905731883916 -0.19443830727855665 -0.004801490235811523 -0.0038580630373811417 0.0016982113428125236 -0.0004672824533661469 0.03260122266938825 0.2629878814422082
23977000.0 0.9800401582369418 -0.20082713170513086 -0.00480447161368259 -0.00217876342059394 0.004253589730457178 -0.0033438759609096193 0.03764254305033169 0.25065954877056634
24976000.0 0.9758029646218978 -0.21174196262223333 -0.005230179592767182 -0.002432513333776756 0.004201492260830608 -4.331598261042352e-05 0.06618095619395081 0.2585998814279395
25975000.0 0.9735863263779884 -0.22396315702993042 -0.0038307631539501365 -6.914444983952974e-05 0.02882214340388737 -0.008381342896019226 0.07993540145790799 0.2719675323515163
26974000.0 0.9718542216844419 -0.22583188771324444 -0.003957861262910539 -0.001659951731000692 -0.0016995893320985995 0.00032601303709765367 0.09517268155989746 0.2552991619702234
27973000.0 0.9701271840717878 -0.23207294304365483 -0.005641418686798998 0.0009581188299658174 -0.005236609937854642 -0.0005034669149626504 0.11079464641862277 0.25954301005801017
28972000.0 0.9685186968920979 -0.24176650280680456 -0.0006352434551026277 -0.005787284575346997 -0.00046038980411680153 0.0005555474944496584 0.11728444832773924 0.24680536536805245
29971000.0 0.9668462278614008 -0.25137800933291743 -0.0028377719082650086 -0.0029275349234914295 -0.0004021520919718428 0.0006955247315715454 0.15721935864340436 0.2588265011426701
30970000.0 0.9623888540874136 -0.25633287304073005 0.0009331847573750383 -0.0019211349338760385 -0.0007151930345174425 0.000538583690981014 0.17687791503264685 0.25126663271255056
31969000.0 0.9612760234440901 -0.2655952182843606 0.0036321422150341217 -0.0026990439113632483 -0.0019911717034684262 -0.0004137650909521554 0.1532533029274747 0.2563234114469837
32968000.0 0.9593720560194008 -0.2739239617505335 0.00852251582673899 -0.00585896992429415 0.0016275491466984642 -0.0017433989997648561 0.16945448227016402 0.24133969731387056
33967000.0 0.9564058631184863 -0.2840640753590345 0.010730505056522935 -0.006197623159247079 -0.002689104704266775 -0.0003807824810456753 0.1867824753655293 0.2502923135941762
34966000.0 0.9543416282136032 -0.29265239512194113 0.013525065520402528 -0.010390936269596628 0.0013670951294673574 -1.5190682084410832e-05 0.1962045572276964 0.2540133856789512
35965000.0 0.9511171604597176 -0.30098334210391753 0.015603825939435483 -0.01563567975183044 -0.0004333500553640235 -0.002113218318114813 0.21368202713564574 0.24406785232840716
36964000.0 0.9488935955200292 -0.3085115210151333 0.014821095931449408 -0.013661537885639882 -0.0024727149816563274 -0.0037410574219453444 0.21625323997084964 0.24759459619125396
37963000.0 0.9469518759618654 -0.31790399123210755 0.02297303141840785 -0.02225072220960133 0.001284775830285411 0.0019533799026084076 0.22383717165993766 0.22685030385979116
38962000.0 0.9446602450623537 -0.32855284950938085 0.02495030856563249 -0.026730785323288316 -0.0002927491861958708 0.0003488419132883194 0.24616584870515135 0.227858863194462
39961000.0 0.9414325547699508 -0.33282465270067285 0.028786749112734863 -0.028071459579445786 0.0034173336373326943 -0.0005383318529777856 0.2525867540774112 0.2203252714706994
40960000.0 0.9375082920970244 -0.34159652200998813 0.024552418240890727 -0.02185155127638256 -0.002123378404076653 0.001934848717497284 0.27135554577652804 0.22325015983269217
41959000.0 0.9352172830935083 -0.35268493994101446 0.02876957872560607 -0.031251390879785734 0.004229814603968136 0.00038070773250208436 0.28089755740358047 0.2101366253766873
42958000.0 0.9309862163720657 -0.35972652764179786 0.029816665329620646 -0.038293126884094995 -0.0008347500299527826 0.0003634747367546039 0.2852705013153259 0.19356547121917853
43957000.0 0.9291671036959267 -0.3675922624244462 0.03547880254140601 -0.04698298171761689 -0.0018321726358062045 0.00019714051475773587 0.2929459199327553 0.1987200541459058
44956000.0 0.9241554300794782 -0.37550623989304716 0.03382755426389612 -0.05158380743123915 -0.0022391495590529426 0.003105337469373178 0.3124880446470857 0.1816674426325228
45955000.0 0.9207907177782384 -0.3833920374948292 0.03580516876663847 -0.05955004124291214 -0.00343615487058902 0.0010614104956270958 0.3116312906317323 0.18240102109144235
46954000.0 0.9173094465782851 -0.39366897071300944 0.03348478846995479 -0.06644409512102926 -0.0014593326937707527 0.0015797764711160246 0.3366272434148263 0.17460043927761257
47953000.0 0.9142414899130866 -0.40054611011904667 0.0373323858421381 -0.07350839290518958 -0.0005892089072125434 -0.0010762004695085393 0.33943628228423 0.16491270735471097
48952000.0 0.9093931996227532 -0.4100858545132851 0.03511600280165153 -0.08023967303058009 -0.00052173182939666 -0.0003707703928948675 0.3415699181423409 0.15073407068156333
49951000.0 0.906029264986077 -0.4164888227441273 0.03678527342699227 -0.08888324415294153 0.0008213018135143988 -0.0020129126764087306 0.3585488036725821 0.1454236738807001
50950000.0 0.9028637429737476 -0.42641401594745293 0.03866429166713138 -0.09678624061207769 0.0003673269483645794 -0.0029611393639972718 0.35535732187341884 0.13723192749484855
51949000.0 0.8978649169024796 -0.4335200623889319 0.03671844260157394 -0.10602768674697624 8.869818720768586e-05 -0.0005885019636904454 0.363530022517856 0.14696698664723015
52948000.0 0.895569264633963 -0.44186879112693944 0.040472317719042014 -0.11427514126444525 0.002184827524991383 -0.00023846662903858647 0.3793384744770966 0.13619287264166627
53947000.0 0.8912277656220324 -0.44968790626651234 0.04344355256509949 -0.12400295936776445 0.0037681120264400963 -0.0012237950702619752 0.3771725283457821 0.11657699865192198
54946000.0 0.8856702860213833 -0.4597657870511909 0.04365197734738053 -0.13325754442741236 -0.001328604490651796 -0.0008312827071483454 0.3916096986279975 0.11214164841975073
55945000.0 0.8827469215718328 -0.46610546547798887 0.04437426994892747 -0.1437738527295896 0.0008739269138170343 0.0028401014740861343 0.39261063902022897 0.08896975389432903
56944000.0 0.8787317865109151 -0.47519321299902395 0.045553222384488716 -0.15278233156055487 -0.0018368539629549732 0.0002409091621703292 0.3990107534763331 0.09595285331999746
57943000.0 0.8719148834517114 -0.4854536802058343 0.04716996891681127 -0.16681932468808 6.111360645278995e-05 0.0009681368660180922 0.40903636961524364 0.08096944562204797
58942000.0 0.8683862347936202 -0.48935481482351795 0.04799444261223376 -0.17790145005758387 0.002108301772834195 0.0011418504898909442 0.42462425663143283 0.07532782905708249
59941000.0 0.8655966739315937 -0.49744939619881173 0.05109057878860713 -0.18630856562524203 0.000710093587393037 0.0006129129561261431 0.4213045362354858 0.06963056340496059
60940000.0 0.8577904235894885 -0.5050806850862203 0.048466457056501176 -0.1872481397634709 -0.002017231366133334 -0.0014933014113995347 0.41203673002728536 0.0595449075611172
61939000.0 0.8550817443501387 -0.5118891519783597 0.051559570621663456 -0.20058787838538425 -0.0018036906534004786 0.002380122607374619 0.4248762744076381 0.05937795179505133
62938000.0 0.8487587875178917 -0.5235830891426482 0.05533123236946104 -0.2166717290838071 0.0016556748323275617 0.00025834664402910393 0.4484341231106668 0.04621346648518465
63937000.0 0.8452266576287052 -0.5292703074949581 0.05397038469531918 -0.23461493412363854 0.00014046304686277154 -0.0013786389540330227 0.4321519116477166 0.03309523054934242
64936000.0 0.8382561065666901 -0.5360403710893927 0.05235051760092817 -0.25198746922606075 -0.0013890038672395336 -0.001520968883900529 0.43285821254068113 0.04301557886041409
65935000.0 0.8362979734675576 -0.5455350702301881 0.04996700648783243 -0.26437310136406633 0.0011297093685821388 0.0019277072346800346 0.4419329635851363 0.01366607273903509
66934000.0 0.8301342681865207 -0.5530961206177726 0.05284223912605706 -0.2782610336043382 0.0010583900791004473 -0.000825102320546215 0.4449729274615223 -0.011180862552272726
67933000.0 0.8283713054482387 -0.559405020058795 0.055601528196415756 -0.28856343450663186 -0.0013955152540137809 0.0033620785103288197 0.44754758033528336 -0.0069753768101142736
68932000.0 0.8215487451207435 -0.5645050284236021 0.05124648498844598 -0.3059418069275413 0.0006168814742177281 -0.003845363891605964 0.45730878019411003 -0.013762914163256697
69931000.0 0.8152327957185612 -0.5756501461086401 0.05000969694656777 -0.3208080498411354 -0.0005463555781337536 -0.005611895474690449 0.45380990510371116 -0.03504430118179969
70930000.0 0.8086461921363991 -0.5820783199959452 0.04955582061086029 -0.3314730045152157 0.0016014049519356948 6.861971302530173e-05 0.453466998393897 -0.03913787733627637
71929000.0 0.8064175874233348 -0.5885227938145882 0.04347826933725379 -0.3539940855852357 -0.0024110911775326606 -0.0004016712840621871 0.45030722648691723 -0.05803688636979256
72928000.0 0.796877074140608 -0.6007285899148664 0.03533290756760036 -0.3693229402350054 -0.0014849416577078188 -0.002140296942226465 0.45716432302321425 -0.06264143624420061
73927000.0 0.7903378349993304 -0.6059164231456111 0.02958173232936935 -0.3890582325861566 0.0021119088361284386 -0.003515608646149714 0.45578699971919173 -0.06795598839202874
74926000.0 0.7874946987442352 -0.6169153401073166 0.024105984593508583 -0.40773807857238453 9.957955083350179e-06 0.002870304753842622 0.45464351161435423 -0.07549049458023566
75925000.0 0.7828705915353297 -0.6198871493740801 0.016393735148159033 -0.42586170709502863 0.0009417001326005182 0.0022537136811849384 0.46477440358013455 -0.07807700322585495
76924000.0 0.7750144522912186 -0.6279383319026977 0.002332165394695734 -0.44999584572208196 1.8795572880030874e-05 -0.00218154600079052 0.46259058775043044 -0.10228768122169606
77923000.0 0.7704977768791028 -0.6330330738787352 -0.015584975657876554 -0.4729800863387204 0.000670543537184235 0.007060039679154817 0.46196217420680274 -0.10836180123606125
78922000.0 0.7633706876280427 -0.6456370388192496 -0.02266706357565127 -0.49751808023502764 0.0006832358449407708 0.0023965146962856435 0.46027533358737505 -0.12315428237796137
79921000.0 0.7540541961318654 -0.6513010083777903 -0.04519584615977435 -0.5245333993670107 4.078117613587287e-05 -0.002394124240217699 0.4539692661535257 -0.12084095183765049
80920000.0 0.7513984700397788 -0.6590087380049521 -0.06018413488253655 -0.5510326853719302 0.0010603744361997267 8.283104261195089e-06 0.4787372093008344 -0.13730717299489148
81919000.0 0.7434913058396151 -0.6630198088978216 -0.0751616644971188 -0.5801138273666837 -0.006019373609928738 0.0020066348807377663 0.46422416939072564 -0.14603058618827372
82918000.0 0.7358975163614166 -0.6718622404645901 -0.09274614457795642 -0.612945241680629 0.0006682273733105684 0.0020015668611801252 0.47453663801948104 -0.1579667225309432
83917000.0 0.7280169803125813 -0.6808079197560428 -0.11780001803833981 -0.6403557745059902 -0.004050621117273068 0.003290521148070846 0.4726462183430838 -0.1626529948570944
84916000.0 0.7225216127074713 -0.6864654917937206 -0.13067633714653495 -0.6768033279372709 0.00026598429822295765 0.0014615228282852239 0.46841478901619893 -0.18439933904683553
85915000.0 0.7156492366056287 -0.6954202285343594 -0.15816099048011537 -0.7037103852255904 -0.001761620941603824 0.0005524379087995831 0.4666873926577399 -0.19373527292240944
86914000.0 0.7076650963490246 -0.7041108663195914 -0.16899039269094732 -0.7418546644937669 -0.00027887713921597796 -0.001273263603283983 0.4565288870849021 -0.1816414036804956
87913000.0 0.7028452685687421 -0.709812402458236 -0.18935623982112015 -0.773330410075025 -0.0009764522417855592 -0.0007526196898413938 0.465393098683229 -0.20251239251715508
88912000.0 0.6931005774537212 -0.7155764954764222 -0.20835530097744875 -0.8037337238455263 -0.004923988026440498 -0.0010817810291767012 0.4630826469782897 -0.2189693615841739
89911000.0 0.6880510561546208 -0.7257077507795482 -0.22125149507414263 -0.8446267536287592 -0.0008029159562693415 -0.0036815666629395815 0.4704947186857211 -0.2224823613364531
90910000.0 0.6791027457169361 -0.7314461196866919 -0.24486388839292306 -0.8783133565585224 0.00023338281758160276 -0.0014492724158548219 0.46182129249238896 -0.22366425027406436
91909000.0 0.670794984454467 -0.7375750710997027 -0.2657069460976638 -0.9100671092421994 -0.002682424844588631 0.003432026935082774 0.46548961910429043 -0.23062736341584153
92908000.0 0.6632478674788843 -0.7453916276305445 -0.28043584798785365 -0.9444048164576108 0.00013776996726296058 -0.0035594289421368368 0.4529642084344296 -0.2550207875024518
93907000.0 0.6559608687992436 -0.7509646431631395 -0.3000805896286835 -0.9732223645858646 -5.984473000141319e-05 0.002755548039702276 0.45302427390253036 -0.26809170190083303
94906000.0 0.6453671363095086 -0.7580124251749862 -0.316590438274845 -1.0061427056650272 -0.0004487264520384972 0.002093683096427189 0.44790083875013853 -0.26327471927992313
95905000.0 0.640913364406018 -0.7637931068605941 -0.3361010506602883 -1.0409201488880164 -0.0005721053665655598 -0.00201957649005129 0.45586074576499236 -0.2868404763899003
96904000.0 0.6317627333855601 -0.7725133127935114 -0.35883581835349027 -1.0801795064722255 0.0007778452042733566 0.00292904308105718 0.45097107839551537 -0.2877753569570994
97903000.0 0.6230764864253748 -0.7766251214915789 -0.37830188558727423 -1.1139761136869646 0.0028353242660584766 -0.002226146471214318 0.43551734113620116 -0.301809839313853
98902000.0 0.617406255195615 -0.7823656649485118 -0.39756692627305534 -1.1506037651310703 -0.0023706547877092826 0.0018538117235876615 0.436941941055024 -0.306217876068769
99901000.0 0.6066076445247784 -0.7901739592356228 -0.4289467387685968 -1.180781882391403 -0.001342048976452982 -3.1034674967559145e-06 0.4580286926683143 -0.3269546525017726
100900000.0 0.5990529358759693 -0.7925907163520034 -0.45417160790182554 -1.207795307358358 0.0008874913183111519 0.0010087528881011114 0.46417645300520055 -0.32583675037280685
101899000.0 0.5878774957117517 -0.8021372527290321 -0.4880810827098922 -1.2434091873658242 0.0012136652815649047 0.0014421633520943391 0.44477432610828266 -0.3306652372852686
102898000.0 0.5798171433767491 -0.8084554764193428 -0.5239919048723336 -1.2829731357391172 -0.0005279259488128923 0.0014082764795064241 0.44094446504371226 -0.35419584243087104
103897000.0 0.5722595601790751 -0.8157563201126006 -0.5586818655479657 -1.3168757985565098 0.00013526734462278845 -0.0006279673830528619 0.44967756880746973 -0.35468835098351253
104896000.0 0.5646050997699034 -0.8233696105904186 -0.6037835537254975 -1.3484993177405056 0.00019609208305508666 -0.0022422627437537128 0.4389710497815774 -0.349999411996163
105895000.0 0.5532646168278963 -0.8275871350282586 -0.6516310115355045 -1.3892938417535057 -5.3986330829390204e-05 0.0012140220762294975 0.4323527685780168 -0.3785685822475551
106894000.0 0.5463655899153643 -0.8329065957503493 -0.6990379180010453 -1.4253166342440418 -0.0016324191346607573 0.00025768539748581765 0.4364069312394658 -0.38667303432118494
107893000.0 0.5358115651926297 -0.8404924877807204 -0.7502569962626747 -1.4623339842727137 0.003867876895795695 -0.0011303522919735509 0.4196101443868954 -0.3937761113534044
108892000.0 0.5265296258363579 -0.8448533126298464 -0.8099016241564846 -1.4945126061939686 0.0008562617481851535 -0.0008086120269281831 0.41525912439060925 -0.38137198890760776
109891000.0 0.5150675470323139 -0.8511295394639496 -0.8660970559165035 -1.5307562754837118 0.0011834539843980953 -0.0005230971247639131 0.4328011365924383 -0.3860432359792017
110890000.0 0.49837996026397474 -0.8662596017229934 -0.9533342493862684 -1.5366652245193553 0.0007089215440648945 -0.002321050515280881 0.4176742836344436 -0.40078131104188774
111889000.0 0.4948418331480939 -0.8579783516386845 -0.9955330480315486 -1.5963437876525892 0.00011812394457582246 0.00019420600718270283 0.42004867053156886 -0.4183569955918766
