! Created with skrf 1.9.0 (http://scikit-rf.org).
# Hz S RI R 50.0 
!freq ReS11 ImS11 ReS21 ImS21 ReS12 ImS12 ReS22 ImS22
1000000.0 0.9909908269587447 0.008837012382069435 -0.003673815147177261 -0.05858920548133821 -0.019477648711087814 0.003622626297019794 0.25427469975156275 0.3354503769117761
1999000.0 0.9944885396248541 -0.01179296390162958 0.0009915916888478247 -0.031710280265697804 -0.007376941792310247 -0.007386632738898454 0.2661114575149872 -0.06539290922981755
2998000.0 0.9983710803715 -0.022233195811753863 0.00441686850481004 -0.015768331130364337 0.0014019431752469108 -0.00021400748742651273 0.17911450012491936 -0.14640541194573464
3997000.0 0.9993855201676086 -0.03132134288321964 0.011972521178821551 -0.013900796202832032 0.006612291066138349 0.0008003636299557623 0.07126285223540127 -0.22814771155073058
4996000.0 0.9990493675845441 -0.039050079707633786 0.012227915807320645 -0.00479334574791741 -0.004497556090650299 -0.0024370488104784437 -0.05556048659069206 -0.1939101878809247
5995000.0 0.997356526486915 -0.04980084922333689 0.007922298333494292 0.0003162667258858422 0.0005315671919985139 -0.000972307485720343 -0.12992499676214292 -0.08565133016361831
6994000.0 0.9957385955883513 -0.05734633174273475 0.004483368416868462 0.007757763186068931 0.004494215635813272 -0.004435473376203662 -0.13809866597824627 -0.016018944285712777
7993000.0 0.9991773758182816 -0.06460373141647736 -0.0032422213789927968 0.0022943214798720013 -0.0012266202606934452 0.005245115661361182 -0.15877036414857565 0.058385591757031
8992000.0 0.9941597255486281 -0.07208203660529115 0.002305008635928887 0.008971409289135862 -0.005107475853310349 0.0005457074463269951 -0.15643183576691044 0.0721553449984432
9991000.0 0.9964395578991773 -0.08000960870609286 0.0039185500934840805 0.0044805309300188865 0.0006455853186482163 -0.00024896485576458583 -0.1386583966666304 0.1074451318526781
10990000.0 0.9929022838916227 -0.09102120873620365 0.004275301376117207 0.006373103609127213 0.0006858041482757707 0.0037532783726240905 -0.13116215558006827 0.104949382664168
11989000.0 0.9911100071394877 -0.0991451972309527 0.00443024574958719 -0.0019054083845634344 0.0004840118584164435 0.0009009530772389096 -0.11074189005355456 0.14156709942767928
12988000.0 0.9932530009465442 -0.10758590933614093 0.003832542974660921 -0.0009155954935702872 0.0024442361502869854 -0.0006245264214228712 -0.1041718416882891 0.18313678774421602
13987000.0 0.990261961407722 -0.11646246055674458 -0.0017866047681661485 -0.00019741008525904299 -0.0002573911230619427 -0.004490902609512359 -0.0816975191600575 0.18612355748655793
14986000.0 0.9898419245093404 -0.1230703507334127 0.001570059756200897 -0.004690055087305306 0.0015424907776268022 -0.0005244061945784619 -0.08987303969561417 0.19669041747454438
15985000.0 0.990878071201458 -0.13423477953599858 -0.0025791453735822863 -0.0076700878645507755 -0.002268999761232195 0.0017661748646519235 -0.06413954855162403 0.22119054116006828
16984000.0 0.9867162825466179 -0.14421493891890272 -0.001953781617969553 -0.006564719715675931 -0.0034967895636736994 -0.0019196916420046995 -0.05565842869592568 0.2133713879601962
17983000.0 0.9875951689280714 -0.14541924731937655 -0.0016870260021733937 0.00016780007898346233 -0.000335699835648769 -0.0004088534703465161 -0.054282678680153726 0.22672689616452033
18982000.0 0.9844070630788329 -0.16082287162125544 -0.003372614203851723 -0.003930462380557485 0.00010840609236255983 0.0010454605837446386 -0.018460762703383354 0.22985755957092072
19981000.0 0.9832045432629682 -0.16627121535629044 -0.0016392456443611967 -0.0065617248812673366 0.0014001269293907317 -0.003572773118922454 -0.01656283355428274 0.2489613347950704
20980000.0 0.9828104042198187 -0.17341371198747968 -0.006248536366752355 -0.005247245689213847 0.0021711913787582048 -0.0021125910409982443 0.004492254589235595 0.26508482093839625
21979000.0 0.982613235760924 -0.18483029578628854 -0.006368647540198343 -0.0032251079448641076 0.0014997368945763988 0.0046942259470168606 0.02205509452911552 0.24882991694382686
22978000.0 0.9789339693848762 -0.19223515893137288 -0.0033163049958546734 -0.00109533520411303 0.0011083041715349848 0.00027585781035553605 0.023369713988297472 0.25994793781922015
23977000.0 0.9801482996040857 -0.19662504383780677 -0.006059497673471577 -0.006229019979659122 -0.003388035526117881 -0.0003328641530161074 0.03831247351722559 0.26381941699405276
24976000.0 0.9745562358008355 -0.21111036128694913 -0.005085870040322905 0.0005069862789808862 0.002799922256597894 0.0009228981487725271 0.05588062519176865 0.26459144262728346
25975000.0 0.9704410174229331 -0.2242098563960615 -0.002684907306828441 0.001807915003792835 0.021731661862865837 -0.018707604853055417 0.08244646610972144 0.27625645262058324
26974000.0 0.9695661463556717 -0.22807308745665716 -0.004179381998315886 0.00044728984577912145 -0.0005156179366906328 0.0004317762486067228 0.09640028664004247 0.26201121111837494
27973000.0 0.9724898426847617 -0.23312090739349733 -0.0019708402745575665 0.0016914890402192548 -0.0004144805632630464 -0.001530846837922445 0.10608389090779408 0.25351144106502027
28972000.0 0.9692491877878873 -0.24153439280881056 -0.002625207074937582 -0.003807214145303317 3.06233463353853e-06 -0.003380325719291128 0.12148630128460453 0.25746507942279534
29971000.0 0.9649067287554384 -0.2523618768128002 -0.000810115371318765 -0.004565370854035197 -0.0010320989304204594 -0.002214642356843412 0.14822926659158034 0.2663860411352708
30970000.0 0.9631784434619722 -0.2580116150160151 0.001574846544411195 -0.0029060935029100697 -0.002790352677502144 -0.001606447742709552 0.16250670016789068 0.2487087960658876
31969000.0 0.9627658557738564 -0.26722022586255306 0.0057802827913065275 -0.003799123092955217 -0.0011975731978638162 -0.0012104195298565839 0.14731563878258994 0.25033037077445774
32968000.0 0.9590045778717171 -0.2771505619443869 0.00922757460881004 -0.0076631758485789835 0.004568973249572312 -0.0018813061073872648 0.16606173737432225 0.24194444194736447
33967000.0 0.9570710044563802 -0.28664990269291135 0.00909840902590444 -0.008476143191513496 0.0008071323818660348 -0.00037675481006121394 0.1804817944337992 0.24328460149988088
34966000.0 0.9528691258898951 -0.2958787122028671 0.014453032472573039 -0.011401530404588207 0.0002125874285223349 0.0020212618444818728 0.19535947952169885 0.2504064471334772
35965000.0 0.9503320486848956 -0.3013505811283087 0.015511813728600748 -0.01585855963665028 0.001484835723943799 -0.0004510328052606541 0.2139085637739022 0.25703432220850664
36964000.0 0.950027280239911 -0.31089598824198006 0.01781902532904666 -0.01417665145275123 -0.003819305486936416 0.00044423672413071305 0.2168647159433264 0.25527787245435185
37963000.0 0.9443949440395031 -0.32208891418771907 0.02102517620653068 -0.020971653199124196 0.0019132061822491277 -0.0015115214125852527 0.23240838708523973 0.24106032817831588
38962000.0 0.9432442136624845 -0.3290271332584007 0.025491828111803498 -0.02201444860491093 0.0006955934135776874 -0.0016729625233065865 0.2403327224091578 0.23236330129648852
39961000.0 0.9411100821840358 -0.3346366867597715 0.023406987029131597 -0.024946581582815413 0.0012028452798207195 0.002153675514396961 0.24909274222118818 0.22831919980091184
40960000.0 0.9365388365592304 -0.34460820060509756 0.02149317453559928 -0.023668122236085113 -0.0023064989152119936 0.0006091018118031651 0.26589962467445744 0.23195539469040738
41959000.0 0.9332651774291063 -0.3533041438452413 0.02767980114046773 -0.028860994654276235 0.001492245137845733 0.0029499347608168847 0.2658531725971718 0.2223400902042148
42958000.0 0.9297836587192659 -0.36197306099158205 0.03331877588835383 -0.042766739840577654 0.0017606495331697154 0.0018022768886742301 0.27424709526298924 0.21050065943795263
43957000.0 0.9267291201982196 -0.3684391894962229 0.032714521196864195 -0.04616733206965639 -0.003938689122003188 -0.0023783230358203566 0.29391581167411834 0.21354509289830154
44956000.0 0.9236710939709 -0.3771249849421291 0.034701906249465134 -0.050500838177136555 -0.0012598784774938974 0.0019205507972578232 0.29880734115467844 0.19706462347684736
45955000.0 0.9206673476343534 -0.384968078359654 0.036221856376153654 -0.0575042434117283 -0.0013682117317236626 0.0013918133426482648 0.30595716957800384 0.20090581204588534
46954000.0 0.9171164883441235 -0.3946734965314279 0.0391553252295689 -0.06550615580643308 0.001844473157808221 0.0011097043021115896 0.32603312188927724 0.1909885586969327
47953000.0 0.9127969991273719 -0.4024967703585516 0.034979409175298716 -0.07144974166340302 -0.00023219311390777457 0.0020795287593536214 0.3365355567083009 0.17728444062588808
48952000.0 0.9088545115835733 -0.41262153434253107 0.0368622341732891 -0.0792262601844464 -0.0011169825870590753 0.00034067423677586146 0.34332742896842244 0.16840066508162263
49951000.0 0.9049310806563566 -0.41913897220745133 0.04067260041459448 -0.08587369965061904 -0.0005080167318205472 -0.00029656323139656105 0.34921878422011515 0.1612388965163948
50950000.0 0.9020178877866109 -0.42652784916929054 0.040850180813700725 -0.09638148279694579 0.000494495412427404 -0.005361827164093716 0.3587497414630919 0.15251237102007392
51949000.0 0.8967662931644732 -0.4343435050902107 0.04185081035918206 -0.10256458705873962 0.0004390075763459078 -0.00024053614180179238 0.35658922403917176 0.1501198300430072
52948000.0 0.896220251262328 -0.4428954641078296 0.044096533516306075 -0.11211593043294649 0.0012456585625715342 -8.679684250143856e-05 0.37295583870259374 0.14054568099605502
53947000.0 0.8887526515948452 -0.4522874376766747 0.04128744761663908 -0.12287243394070652 0.0028500272799168508 0.0007821142110681522 0.3717639692429716 0.13256951644217022
54946000.0 0.8836597909733147 -0.45952465708272694 0.04649480550862979 -0.13232744156449444 -0.0003209769642571253 -0.0014608982470334067 0.3768968144350428 0.12250498786872684
55945000.0 0.8811156240506379 -0.46873922750166214 0.04531867087063147 -0.1407511704788254 -0.002229627092167306 -0.0012232596069819202 0.38407616107731435 0.10251386766127238
56944000.0 0.876587283411443 -0.47521429513257124 0.047242823902034166 -0.15009950832338323 -0.0032865379352183767 -0.00033262413930971503 0.40312026573258913 0.10115875899583153
57943000.0 0.8734909003294176 -0.48592143740907695 0.04816359529464381 -0.16248186757805858 0.00016678552541295687 0.0012661798409533789 0.4018190049717026 0.09443802479886404
58942000.0 0.8667181888652363 -0.491167878744289 0.05067360134453842 -0.17349651238184818 0.0039579087551524835 0.0003005263893426275 0.4182779561845671 0.09463726543228804
59941000.0 0.8655352014375274 -0.49828362466420545 0.04970175957324729 -0.1800024513520111 -0.0017125200037471212 -0.002517564963464887 0.4289164249559707 0.08445450407763448
60940000.0 0.8568003203512706 -0.5093027917378422 0.053208835388921696 -0.1862582822019054 0.0016090362988479105 0.00043735602684176874 0.40652667243602447 0.08229754512318874
61939000.0 0.8538155025244367 -0.5140970552006144 0.052520287623066174 -0.19404408682366592 0.0009899061486262648 0.00046190529950620323 0.4198821433828036 0.06624537999757266
62938000.0 0.8497413311752577 -0.5258045960549422 0.05479697369815635 -0.2128265820343257 0.0002860186311106117 0.0028708564574960226 0.43687897460313885 0.060083040400016115
63937000.0 0.8424503355490133 -0.5344432319782476 0.0577245106579013 -0.23323249292522655 -0.0005810926873713696 0.0005058899763916257 0.44830743878418283 0.04742089481152947
64936000.0 0.8382121791351004 -0.537163521738573 0.05534840183573012 -0.2451639485655274 -0.0011197487236856458 0.0019439945247619313 0.43958377063207493 0.04247776722118713
65935000.0 0.8345267021426679 -0.5481967775570036 0.059578015765042895 -0.26059948470582267 -0.0019906370579794845 0.0031199765911780145 0.44677592164702035 0.016973485871262833
66934000.0 0.8295141782470622 -0.5562686452381628 0.05606859022705552 -0.27177856241403686 -0.0011958715742336182 0.0024401766690221446 0.43993759376302977 0.008931580948824435
67933000.0 0.8267181297342717 -0.5610394407692456 0.06001181916645448 -0.28966879714829963 -0.005027666964792222 -0.003323397752652693 0.4517984861944713 0.017226264940319126
68932000.0 0.8074920234386134 -0.5606148263014579 0.05426511689983107 -0.2958132220987724 -0.0013927491938514414 -0.0012505626376260247 0.4524563091997806 -0.011751491182083646
69931000.0 0.8116808507904621 -0.5773347538456969 0.054794701180185444 -0.31693756683584257 -0.0024939815730483043 0.0017427220626925876 0.4589007812293374 -0.009079276628883734
70930000.0 0.8064033563554536 -0.5835886085974087 0.05237321540168268 -0.33265740402663363 0.0003544480309977524 -0.0013990928025341338 0.4556796469321433 -0.028746104432378003
71929000.0 0.8035148865719216 -0.5935451018265689 0.05133231896372941 -0.35210757069664933 -0.0017662112042857096 -0.000248825253138871 0.4559304113695469 -0.03561637613171445
72928000.0 0.7957084745723254 -0.6022361041101595 0.045309255429982855 -0.3628823369582358 0.0033300628485406747 0.001260645678122591 0.46401401593273406 -0.04373003974142289
73927000.0 0.7924704180855167 -0.608192637191019 0.03806607367009083 -0.3871331977110116 -0.0006607969558104876 -0.0007050966628289999 0.45947700148333287 -0.05759650485902212
74926000.0 0.7864771904394409 -0.6183812738881113 0.03252552743162306 -0.4028290100927181 0.0013218588384040007 0.0006628727863943624 0.4677636817465376 -0.05599672440352118
75925000.0 0.7792980327286865 -0.6240759822154663 0.021456299348662663 -0.4232468616325436 0.006195423937398373 0.002041173954544599 0.4740194367911479 -0.0726232072150694
76924000.0 0.7723566203664265 -0.6324842612311801 0.009284949186009988 -0.4468475019033039 0.002001725364270397 0.0008994872738319009 0.4718680218117546 -0.07857499267236062
77923000.0 0.7676986489060457 -0.6372822412784087 -0.003327109633124142 -0.4700854280982332 -0.00026692303672500164 -0.0014013610416482626 0.4632481350267648 -0.09566264355653294
78922000.0 0.7618346301782457 -0.6491091569783742 -0.014580854848792794 -0.4995500661197418 0.0010641359864065481 0.004732505664131271 0.4660982341463033 -0.10252262153640933
79921000.0 0.7539611943248818 -0.6506137452084746 -0.03148732254525473 -0.5230878840712917 -0.0011716157334311058 -0.003657769082607142 0.4590226836052399 -0.1138509683570756
80920000.0 0.7487451373088244 -0.6622292793288361 -0.0498023308168611 -0.5506268806135494 0.0027628938177215135 -0.003702628263517179 0.47424336269755457 -0.12877054393499962
81919000.0 0.7438654503250512 -0.6672510154519876 -0.06642649502194589 -0.5778661309370012 -0.0005083481037054137 -0.00010481427938367939 0.47400271708371017 -0.13721247357751473
82918000.0 0.7328420175376461 -0.6763101401866989 -0.08378338592920337 -0.6095103957737211 -0.001496986420544796 -0.0009674016381676632 0.4780079929747749 -0.14727076068666026
83917000.0 0.7262259349572906 -0.6815849201005029 -0.10145946496147132 -0.6358391082418036 0.0010501709419959162 0.0005997446543725171 0.48954740018126175 -0.14063714823533482
84916000.0 0.7209785369996159 -0.6907513157938199 -0.11595077966586999 -0.6761455811139172 -0.0007291108882080906 -0.0022424009642384233 0.4782373166464101 -0.1685972481739878
85915000.0 0.7148656196544927 -0.6979824364638398 -0.13911087152059284 -0.7016649609106765 0.005023542158824726 -0.002943536844598793 0.4720575707588677 -0.16479406912639974
86914000.0 0.706739537975673 -0.7071637532643569 -0.15758988368854243 -0.7416648896638102 0.002735002632875744 -0.002506097767598613 0.4621420914583583 -0.16835202259401114
87913000.0 0.69831361035503 -0.7133526299698651 -0.17176241441478163 -0.7758647371200762 0.002577171041783757 0.003032980710372426 0.46817171895496046 -0.19008374893124746
88912000.0 0.694504156806276 -0.7200871656041395 -0.1932336103293803 -0.807133293221803 -0.0016031715962265445 -2.9953397691631965e-05 0.46731673986929023 -0.20658989849442808
89911000.0 0.6836603173925728 -0.72885719360701 -0.20495829794440526 -0.843536738816237 -0.005029910866091247 -0.0024666559141025735 0.4655736947851852 -0.2078023396140457
90910000.0 0.6781920462308811 -0.7333453249010116 -0.22180248895950438 -0.8783427533664571 -0.0032381449213063156 0.0017617758558676282 0.4618905550463027 -0.2163152930215948
91909000.0 0.6679309416507492 -0.7389133381950438 -0.24153991114144394 -0.9076948298689287 0.0023732580023688612 -0.0010137049331004377 0.47625084240510485 -0.22703391965393183
92908000.0 0.6616843558451636 -0.7473304046603289 -0.2569941381180674 -0.9403425589102897 0.0018372052218709738 0.0008452372075494701 0.46180891969893834 -0.22684684231106134
93907000.0 0.6543459758293092 -0.7528939572110996 -0.27726843813801133 -0.9751554557287304 0.0008855635149681543 0.0015782398151919902 0.46653505501115744 -0.24483753311683298
94906000.0 0.6434156701564328 -0.7614513797913485 -0.29311714547220996 -1.011240261353959 -0.003800123418092848 0.0022403161393121126 0.4708763707191705 -0.2492031691258004
95905000.0 0.6347628052438652 -0.7693890711200277 -0.319427438928939 -1.0464467931530486 0.000794365934976711 -0.0035682229589774203 0.45459737926323 -0.26164035902743105
96904000.0 0.629055316063299 -0.7757106092206699 -0.334393972784063 -1.0856911445372903 -0.0002584392881142974 -0.001999270302781236 0.45037273839559744 -0.2780630868185325
97903000.0 0.6175386195330996 -0.7824721114251637 -0.36006184157118204 -1.1176106142428899 -0.0026196141271571847 9.467461882749178e-06 0.4522944491509123 -0.27026678834121076
98902000.0 0.6115223522291201 -0.7878044610359628 -0.37621863030826386 -1.1545063617537905 0.000964249239161449 8.475998265305607e-05 0.453901409462983 -0.29338653781746266
99901000.0 0.6035049441742967 -0.7926257527699809 -0.40398833927194916 -1.1873538147225926 0.0001574497271871947 -0.0015501987578103778 0.4625631070705172 -0.32390007773118745
100900000.0 0.5926192279110025 -0.7973409716947746 -0.4384757508392812 -1.211831564916069 0.0006290383789244768 0.0016398025100773771 0.46555891528428195 -0.3224607942050054
101899000.0 0.5854423867412014 -0.8052964203886451 -0.46124057423086157 -1.2570453317471033 -0.0006976431705516845 -0.0038945263910111832 0.4533606877078851 -0.3267667639326764
102898000.0 0.5748387128338087 -0.81018725912197 -0.4945626397903879 -1.2968152050113244 -0.0014094629325962908 0.0030504509949410862 0.46389226822566465 -0.32994188479253134
103897000.0 0.5673232073065013 -0.8174295042977495 -0.5325786100449686 -1.3303727625167954 0.00021669835151804121 0.0006606914490542188 0.4568115486956693 -0.3331246667214305
104896000.0 0.5591383382495492 -0.8266739906350827 -0.5777662865624964 -1.3598948785151679 -0.0012024310190538367 0.0016648616937202775 0.447236636740774 -0.3461267983800171
105895000.0 0.5493905853016589 -0.830623733245626 -0.6201971843066332 -1.4040307141063988 -0.0072329897911806735 -0.0020519512275091155 0.43937726180196396 -0.3588276280673054
106894000.0 0.5424286293395257 -0.8377790564658699 -0.6726930262470736 -1.4432875179861266 -0.0004641723412484371 -0.0012471871217379308 0.435353195433934 -0.36698920885832986
107893000.0 0.5319648931256074 -0.8422954004266325 -0.7145988746913089 -1.4850912616802092 0.0027831770666183996 -0.0024826927950210437 0.43735051865335817 -0.370193659702106
108892000.0 0.5204449716914403 -0.8479878036470193 -0.7825706857824523 -1.5206964749607275 0.0016581835621508434 -0.003988597399426612 0.42870368974864087 -0.3566739666318543
109891000.0 0.5109213036636923 -0.853844279769791 -0.8407960845315036 -1.5581414858530958 0.0005095603556927626 -0.0012778340224404207 0.45388248202603665 -0.3658147511444618
110890000.0 0.4983354207010848 -0.8559156254939343 -0.8969427506373443 -1.5596516524465054 0.0003469959008191973 -0.0003784545519922752 0.4346658759486404 -0.38646629261269505
111889000.0 0.49227182246412077 -0.8618075112180522 -0.9612263425919202 -1.6323240594953445 -0.003142651018754355 0.0009495670057569479 0.4301001370984904 -0.40075204044129303
