! Created with skrf 1.9.0 (http://scikit-rf.org).
# Hz S RI R 50.0 
!freq ReS11 ImS11 ReS21 ImS21 ReS12 ImS12 ReS22 ImS22
1000000.0 0.9918701211264161 0.008492301810286285 -0.01166578983536205 -0.04801151244875716 -0.014325116730370926 -0.00701258097733973 0.29088315355377786 0.30831163952016033
1999000.0 0.9939534258570238 -0.018181885035551838 0.006211624212200717 -0.028415213702747365 0.0011079513916177812 -0.0020552831783995657 0.2736291629826959 -0.049479460782017724
2998000.0 1.0029397500894517 -0.01818520671860252 0.008201027550752376 -0.01148489148098059 -0.0013284597950259706 -0.0029055934133150074 0.19849654716598994 -0.14640036241819873
3997000.0 1.0020279489920314 -0.029975231699899584 0.014363336410893537 -0.01357357032351842 0.005528797891477536 -0.002901130628736588 0.0656277340248327 -0.2379543900405618
4996000.0 0.9967405796090786 -0.03558268098173768 0.016159338744931615 -0.0011433912084023892 -0.004890180125375193 -0.004014969763047472 -0.05246861975888213 -0.21374458392679296
5995000.0 0.9966588379859596 -0.047124079743976637 0.011210994365351567 0.007200775778522436 0.0008835139817565289 -0.0010045552444025785 -0.12300708141143746 -0.11103414784488597
6994000.0 0.9932615482844593 -0.06002944757032798 0.0076777755839357795 0.006567152400342145 0.0011259410132044684 -0.0006592550720473033 -0.15396371988418475 -0.02660297484933387
7993000.0 0.9968407030347917 -0.06451295040030544 0.007872606046465652 0.001916300215950635 -0.00038782492675239335 0.00125086528252666 -0.16726668652240068 0.04040174299181836
8992000.0 0.995799148664152 -0.07056542563068825 0.0035190457511225562 0.005671881615205512 -9.28427474044602e-05 -0.0018369933549020779 -0.15814169909535553 0.06607856331666141
9991000.0 0.9955961896706009 -0.08220087090652166 0.0032661242412855606 0.0049767551005134684 0.002687603925651465 -7.0746652249079035e-06 -0.14426262318805738 0.08892990031249651
10990000.0 0.993237010754745 -0.09483324020605068 0.0009290716565978749 0.0032954137370397787 -0.003466726380278031 -0.006779539427681232 -0.14163942776228877 0.1218778682910535
11989000.0 0.9934428721980315 -0.10019641063394266 0.000760358287733227 -0.00040686028128510544 0.002635307676897175 -0.0004126599334934441 -0.12349788173332892 0.14029257823698552
12988000.0 0.9914685217626065 -0.11044284108927976 0.00292201705770122 -0.006725323759389067 0.0017973551854581276 0.0025273114226400314 -0.11194237888042251 0.16424324488572412
13987000.0 0.990179987992896 -0.1175555156144895 0.0019126508399870078 -0.006317852926516808 -0.0017776927749868275 0.0008233909816749468 -0.09842506140346559 0.1876991966378227
14986000.0 0.9890290388141627 -0.1254329276838157 -0.0029583509701063956 -0.004260732563711379 0.0006597596242995795 -0.0028083205114523657 -0.09142552044246574 0.20517683110873966
15985000.0 0.9878296720642639 -0.1348133706700075 -0.0031344343351360653 -0.0038927506300327186 0.0005460050868922879 -0.0022525844957452194 -0.07112350968153144 0.21575475391478888
16984000.0 0.9853066569667452 -0.14356027814829833 -0.001609738383646908 -0.002148944410056677 0.005535478092884481 -0.0013642593076083392 -0.06522972313111434 0.22471808985259326
17983000.0 0.985507839242387 -0.15213303282259755 -0.004085796526515868 -0.005753828952828791 0.0006327079614252515 -8.754208058106943e-05 -0.05027521059241668 0.23064591959080516
18982000.0 0.9839958721275516 -0.16167963705098776 -0.002489064416803864 -0.005062814088291298 0.004182065781871888 -0.0005568144557213589 -0.019628698642515305 0.24026751029136528
19981000.0 0.9850733430109784 -0.16548027129895324 -0.0025447715619943885 -0.005758923765302388 0.0005449530198863235 0.0018910987498874238 -0.0176877027625892 0.23277754102864454
20980000.0 0.9823709022920668 -0.17461976466273987 -0.006428145519909839 -0.0048094916812344195 0.0005873724229722308 0.0004313638297675535 -0.0055603337624168655 0.2588214891489154
21979000.0 0.9793219660147919 -0.1841528384384089 -0.005518920771050617 -0.004121489508426057 -0.0021849472844607037 -0.0008287947413273063 0.01617562495579999 0.23379158187053978
22978000.0 0.9778159894611939 -0.19326825422719177 -0.005606650852619931 -0.005310367279625413 -0.0009300772681201945 -0.0017924075561799766 0.02350343682355058 0.25267416552052047
23977000.0 0.9772223783706299 -0.19964347355135198 -0.004381632820038636 -0.003709841275534611 -0.0002844732881512031 -0.00014198368705045867 0.042162624378795366 0.24693743016094707
24976000.0 0.9738576856910396 -0.2119844309318311 -0.008682628423508486 -0.0046857176944180646 0.0015362785558162644 -0.0018841281030596332 0.06364929002139241 0.2516331131390753
25975000.0 0.9751924375797386 -0.22575703657092872 -0.0009376782994057535 0.002124645557989505 0.02828168498814349 0.0017397275050476317 0.06893725437888207 0.26173396098135854
26974000.0 0.9708560792648663 -0.2290556891510262 -0.007444645031047073 0.0009698855871731146 0.0014750169718620836 0.001072580667184902 0.08481433835375989 0.25979925698964945
27973000.0 0.9711187436684399 -0.2316651850685186 -0.0019838390014306822 -0.00034182711771085864 -0.002029098816471631 -0.002330768725612523 0.1036560295656866 0.25403942809469066
28972000.0 0.9666579542635285 -0.24394611788067072 -0.004202614545416199 -0.0041171559670670965 -0.0032259020066116185 -0.0036885208057213306 0.11528056125482553 0.2610534510148686
29971000.0 0.9649391664982638 -0.25280919414181885 -0.00018143992389641611 0.0003719481353111784 0.0018205931338687324 0.00041899594641359893 0.1501499256843363 0.2650112143645779
30970000.0 0.9628809994564185 -0.2572031850168438 0.001585944873625936 -0.0017098204556969172 -0.0022587599275030344 0.003080009228558656 0.1716683608016928 0.24989378358946795
31969000.0 0.9613075781455483 -0.2673400063232971 0.006766386767634506 -0.005665658037516971 -0.0019387876930125813 0.0013255795566932047 0.1513985493587009 0.2412701262839662
32968000.0 0.9593964466838493 -0.2747916189959293 0.009297914401109702 -0.005945370756835674 -0.0009429305905040548 -0.000806014206679184 0.1676562341332284 0.24990886440513488
33967000.0 0.9558482401169482 -0.2848105320477684 0.009201990643973545 -0.011688535803710548 -0.003817009335199968 -4.148573649026652e-05 0.19249979484311838 0.24452160237360895
34966000.0 0.9540645394560107 -0.2935930708473725 0.013249978121762927 -0.010538475325814627 0.003308229035326131 -0.0029449928145795423 0.19521790850671727 0.25848373044209755
35965000.0 0.9509346964731383 -0.300644776167058 0.01868501812096015 -0.016814282140471853 -0.006005057528194099 0.002603107300723384 0.21455731965519267 0.2437347322221014
36964000.0 0.9501167914136791 -0.31075209679063337 0.017838078122926686 -0.014658192116709495 0.002468661932279061 -0.0004641177254018792 0.21201987801714406 0.25928868215677164
37963000.0 0.9460822436695154 -0.3191347733720909 0.018348032588897625 -0.021138462133437022 -0.002255044014772682 0.00020358111734368554 0.22744133049700752 0.23375182724794047
38962000.0 0.9432219471165517 -0.3279052539418375 0.022978007805686183 -0.0241980435120657 0.002402224786040928 0.0006487563416411565 0.23294445545827977 0.23861655200812348
39961000.0 0.9398719721602505 -0.3372383638283183 0.027047972966468152 -0.028020863797270923 -0.0018131450099367554 0.00011310303059796037 0.24892117095548436 0.23096697684983133
40960000.0 0.9361345672073224 -0.3447794176927608 0.02338275457285296 -0.023172653192841862 0.0013015279973514551 -0.0018518401789869208 0.25714957870361627 0.22607971536728516
41959000.0 0.9341299884227472 -0.353898598170886 0.031343796295332745 -0.03201278703403822 -0.0026283758400650593 0.0018215763724484066 0.26363356844449265 0.215025691363202
42958000.0 0.9297362626643907 -0.3614714599409629 0.030733208196344494 -0.038577258303437584 -0.0014537027571524758 0.0025374154828185494 0.277918319840909 0.20036664961466566
43957000.0 0.9270705735665064 -0.3701265823364607 0.029107099693787296 -0.04820073594226469 -0.003827712173884198 -0.0020119783164832344 0.2797590097914157 0.20772378286928675
44956000.0 0.923233052025354 -0.3772888881267909 0.036056025546292954 -0.055173763134800505 -5.620455034521993e-05 -0.002506076457227411 0.3054337913795255 0.19566893783257608
45955000.0 0.919715281690399 -0.38559784850689993 0.03423468189052352 -0.05656600599312861 0.0021781652728331633 0.0008560903088457623 0.3085282341476365 0.2024796268312967
46954000.0 0.9169852049255885 -0.39491894645303666 0.03539745483815338 -0.0645129045183279 -0.0014126306942768606 -0.00037489972908882603 0.33009057620839 0.17910209839757055
47953000.0 0.9128977067849551 -0.4034174239132094 0.0370563184363203 -0.07486120229214883 0.0025053638536956056 0.004043218752033522 0.3306187077111695 0.16508028912137346
48952000.0 0.9088622958787317 -0.4130956223140605 0.03786032808743953 -0.08012790767018341 0.0035985751024030345 0.002429996643899943 0.33789768153677946 0.16314462942453595
49951000.0 0.9054359109175288 -0.4185369369863846 0.03886625459989287 -0.08749406575977771 -0.003687970086286203 0.0022472078029319264 0.3527842596821929 0.15626388317678236
50950000.0 0.902128361777983 -0.4258223872658327 0.03747949835918252 -0.09793406284022958 -0.0022677151858484105 -0.004162625836376902 0.35794527051579467 0.15115328180484386
51949000.0 0.8982482330124494 -0.43516770851593783 0.03789887147983323 -0.10336768190612133 -0.0017466923297155064 0.0016483905386506612 0.35886640971280864 0.14341143273755613
52948000.0 0.8970014999680948 -0.44286117912951933 0.04002985946943385 -0.11463916590283349 0.000490398022932871 -0.00013467148118117452 0.3752119130280104 0.14267246580844112
53947000.0 0.8889084155587952 -0.4530400727725442 0.0400944634179892 -0.12321780976755564 0.002948788078594625 -0.0023411424311515563 0.3776006398242897 0.1375507553970063
54946000.0 0.8835080314804622 -0.46160504431983673 0.04170962694387014 -0.13115689155985355 7.307738045641934e-06 -0.0009185744393269096 0.37994224021623463 0.12795893889630783
55945000.0 0.8811195027070139 -0.4672052985737047 0.04354978953506271 -0.14362540540845042 0.0023963489974648845 -0.0016658385136768337 0.38620323752293123 0.09897184474286799
56944000.0 0.8786396201616884 -0.47510958666303904 0.048468644874200544 -0.1553178824901326 0.004850134897644526 -0.001116016071009162 0.39554619831949794 0.107567750287911
57943000.0 0.8730667508571931 -0.48544279534530504 0.04690888374507177 -0.16414886230431613 0.002953597987206518 -0.001589264322562362 0.40433005741274025 0.09284766726725092
58942000.0 0.8680655466511377 -0.49026506979618834 0.046623586514079635 -0.17547629971210968 -0.000521879229100918 0.0012653208772864816 0.4197203581381708 0.09234481748211767
59941000.0 0.8640081780220669 -0.5003192733295294 0.04895709460963184 -0.18323000263773273 0.001157730498708787 0.0013831369326496572 0.4201329267097132 0.09048352562329108
60940000.0 0.8570111941864552 -0.5071379217127289 0.04834590613029816 -0.19223383145411838 -0.00012097582262054144 -0.0007254381676106402 0.40623981359208516 0.07200372888752309
61939000.0 0.8543700753527861 -0.5132405938891376 0.04952569578303646 -0.19688059748143324 0.0010681093636167817 0.0019400594284336124 0.4233638098111237 0.07054065854987969
62938000.0 0.8484764740826145 -0.5234169894007402 0.05654302242197615 -0.21509852213345843 -0.002894196131006283 0.0025843875484277243 0.44138407770955557 0.05456592829307516
63937000.0 0.8441335116529587 -0.5317755779146353 0.05388178679357174 -0.23500124494643015 -0.0003586111045178353 0.002466109759284347 0.4433347696774519 0.042382070846062554
64936000.0 0.8369337549903627 -0.5372093224607439 0.05246655438429653 -0.2514583590722123 -0.005217604881632666 0.0012378484321042627 0.4343575382578808 0.04347831523648972
65935000.0 0.8346769000201556 -0.546843202439916 0.05393058769139992 -0.2614492927977053 -0.002027292033345406 -0.0012836890867863023 0.43860362656441126 0.020884856463633694
66934000.0 0.8298311203011784 -0.553698388298802 0.052462980379188055 -0.27657767992405485 -0.0026632056799267157 0.004624430234332235 0.43925020923351843 0.020289687767136567
67933000.0 0.8252948416656446 -0.5621296439951183 0.05322171175268856 -0.28926425010589146 0.00020496490345721233 -0.0007694922835680523 0.458941238794704 0.001472644964838264
68932000.0 0.8144889679193414 -0.5681899894636353 0.04708411879657793 -0.30460735875515177 -0.0006348599797000475 0.0029166686461542485 0.4524129233819989 -0.004847550227033736
69931000.0 0.8123211973523964 -0.5793020983200122 0.047816863776411665 -0.31951551050793775 -0.002448848049974246 -0.004282163137707079 0.4535469838500772 -0.014757186774511809
70930000.0 0.805694736368771 -0.5859828038096823 0.046675768202163695 -0.3366886824465264 -0.0005729239751521542 -0.0018465363621374623 0.44622901636984563 -0.025123061703542938
71929000.0 0.8021902769088308 -0.5959257442273604 0.0458356569922659 -0.3556257674181911 0.0008835768842037608 -8.735505589703308e-05 0.446574842798027 -0.032436482915961865
72928000.0 0.7963130832468901 -0.6038206022485747 0.03794324775553899 -0.36873709486869066 -0.004516923389474872 -0.0025891891799972515 0.4681994985940042 -0.04235078046840472
73927000.0 0.7898057330376055 -0.6094248979570253 0.03150042464829781 -0.3881554675085838 3.530605535132464e-05 0.0030194658073335635 0.4624407399290915 -0.04846618683251655
74926000.0 0.7871961218719822 -0.6181378902499921 0.029244929015677334 -0.40821392258617556 -0.0026881748847044523 0.0036287273370899896 0.4743610135125565 -0.05539387798105685
75925000.0 0.7791761360157022 -0.6217159247603683 0.018143828588719862 -0.42709571644495514 -0.0013931680421459525 -0.004243829416098533 0.46967535486101314 -0.06772180632611156
76924000.0 0.7712288620318695 -0.6307394096217768 0.00233885925811944 -0.45233028166941325 0.003172876413333096 0.002041625801221788 0.46753409043892774 -0.08543135095177015
77923000.0 0.7659283208208549 -0.6390837224664273 -0.008909612034253377 -0.4770633639808124 0.0004208785404955393 0.0013453674019758858 0.47071519397523093 -0.08832560821110001
78922000.0 0.7609530770660328 -0.6470778251220918 -0.02349810810536078 -0.5029329983165538 0.0006005083385583555 0.0006735625456346897 0.4586084279693712 -0.10300008612356643
79921000.0 0.7520282876875739 -0.6517680072807316 -0.03915893052995749 -0.5264098014903503 -0.002035942005422695 0.002848135346144107 0.46491739610732813 -0.10624708615666478
80920000.0 0.7481911320744766 -0.6610296113746441 -0.05383105257387753 -0.5510654209703495 -0.002273491320767662 -0.0013636544011567274 0.46980087168674783 -0.12390168907796179
81919000.0 0.7434089731903769 -0.6669591548251133 -0.07445144166090757 -0.580412719526039 -0.0022739321250951276 -0.0007991284875189715 0.4621453307329253 -0.1296898215233373
82918000.0 0.7331557480850496 -0.675006728454503 -0.08809799595291255 -0.6143091824269604 -0.0029133905139711327 0.0033746966066156253 0.47719886764743835 -0.142582178683041
83917000.0 0.7249109730159371 -0.6836612158628623 -0.11183115954793338 -0.6397740930454786 0.0010959724370554064 0.00034056114433510086 0.47829705323022037 -0.15863251204052625
84916000.0 0.7208312865599755 -0.6913615635369748 -0.13039847579677746 -0.6772125724489152 0.0003277833506127394 0.0017474219540686462 0.46951114994933235 -0.17085403898724666
85915000.0 0.7144774999234895 -0.6975576976330202 -0.14984908917556902 -0.7090140708972231 -0.0037795432447641705 0.00033272761179909267 0.47139285148132853 -0.16500478524364717
86914000.0 0.7063379070042415 -0.7069809813770578 -0.16450052874473986 -0.7468455704981459 -0.0014225659959806224 0.0016229735195250905 0.477512983343006 -0.17882730911374276
87913000.0 0.6974076534452343 -0.710889546723689 -0.18071966732387718 -0.7763005367558027 -0.0035469816499760607 -0.0030869528952242055 0.4609977872222954 -0.1821398252473831
88912000.0 0.693572562607365 -0.7199693681145418 -0.20253311031828092 -0.8109194733491131 -0.00033754909163309925 -0.0002381766560972539 0.4622963542922392 -0.20825316926545065
89911000.0 0.6849227698758691 -0.726829575613546 -0.21474718125416675 -0.8478854499526396 -0.0001739027387373902 -0.0008679729885149854 0.479401642776418 -0.20306010149773804
90910000.0 0.6781371053223217 -0.7317207023305151 -0.23477745631333288 -0.8830609793219498 -0.001378320323553142 -0.002426969921915054 0.4678603583872764 -0.2159017714742732
91909000.0 0.6696156212810639 -0.7377699749355314 -0.25145582066384103 -0.9070022604907191 -0.000181460660814319 0.0008726552422130007 0.46482530319371756 -0.2234310298791744
92908000.0 0.6604881011690866 -0.7459336699861819 -0.274695892711893 -0.9476062166871935 -0.001006745676567833 -0.0011558048923637483 0.45852970362553797 -0.23141299418588465
93907000.0 0.6560278972946091 -0.7513374771487271 -0.28903330827447526 -0.9816894781247847 -0.0016071857726450366 -0.0025807771442353127 0.46233667244319043 -0.2456917952621903
94906000.0 0.6441626772510218 -0.7620399359914124 -0.3080794928169506 -1.0154627590668455 0.0016734477327755772 0.0018697408254002158 0.4623961324407718 -0.24041294912050007
95905000.0 0.6352469720576879 -0.7665671071768858 -0.332033576660209 -1.0470026631920422 -0.00029746293611930373 0.0010075766516966752 0.470397094430767 -0.2604419122723762
96904000.0 0.6276093117489433 -0.7746553232296398 -0.3512548293176223 -1.0874373478343697 0.002852272539971726 0.0049592967573763155 0.4428159973557789 -0.2724850687245207
97903000.0 0.6195406039342708 -0.7793413282232368 -0.37146484062589624 -1.1217208473942069 -0.0030050822613064037 -0.0007504905491787304 0.4529507177914322 -0.2807791471855173
98902000.0 0.6136671264778747 -0.7862031639299019 -0.3889545223138538 -1.1566401648894966 -0.002472400516479482 -0.0016168692743113132 0.4491491898187961 -0.28832684430368105
99901000.0 0.6028141992027003 -0.7916118314790446 -0.42269593974136943 -1.1863176150909842 -0.0022713843185192197 -0.0022234194291192518 0.46592812337597744 -0.3001534321098794
100900000.0 0.5959581891973051 -0.7954391037896421 -0.4580042870278597 -1.219471519060655 -0.0016908390619675823 -0.0016052004511040317 0.46788168375227174 -0.3097018337597296
101899000.0 0.5862581845068359 -0.8039676363559349 -0.4810236286210346 -1.2591436308190789 -0.0026557893023969794 0.0015024173914308114 0.44073651311235307 -0.3120048613188015
102898000.0 0.57869048981179 -0.8111686051933904 -0.5142285005511137 -1.2990806993370172 -0.0002257438908233722 -0.0035550516336077206 0.45318717720511953 -0.3358680936347715
103897000.0 0.570864339888565 -0.8178619820847481 -0.5486862969882286 -1.336519594655217 0.001377320945553361 -0.0002920131623814167 0.46844480969032004 -0.32427179020414315
104896000.0 0.5632694065886031 -0.8281248853170172 -0.6008400432944122 -1.3690199384753199 -0.0015073046468998884 -0.0005989681920352726 0.4405192829815444 -0.34053871968753574
105895000.0 0.5522722192689047 -0.8295355302871595 -0.6431494089190731 -1.41100644678047 -0.001215080078873769 0.0019526842482142667 0.4473851976653677 -0.3608430258463088
106894000.0 0.5408931655563988 -0.836063660310253 -0.6994921099623971 -1.444032686436271 0.000758339063457738 0.0021210126401485776 0.4301982591937808 -0.3665495529019788
107893000.0 0.5327976111403927 -0.8423411137491099 -0.7492349733305018 -1.4797629960096457 -0.0006662775321223794 -0.0009579447376033295 0.44495310142394434 -0.37043322642847937
108892000.0 0.5242449452263163 -0.8457288527546264 -0.8118741058217162 -1.5159321817285194 -0.00013606212797410782 0.0019041104430371593 0.4248430755426954 -0.37487887360642713
109891000.0 0.5119998233900515 -0.854462104340243 -0.864718319883751 -1.5536867854421055 0.0015256871180694338 -0.0006411451599762619 0.4331283571584204 -0.37193633966210915
110890000.0 0.5039595697309812 -0.870737950436045 -0.9503411557440695 -1.5717288223160593 0.003922746330240474 0.001181642060270745 0.427799648268372 -0.386560411913141
111889000.0 0.4925514267407086 -0.8609499854467113 -0.9936778890878877 -1.6150723456668556 0.003932101353128583 -0.00031435211631761873 0.4199897661226362 -0.40874934472027386
