! Created with skrf 1.9.0 (http://scikit-rf.org).
# Hz S RI R 50.0 
!freq ReS11 ImS11 ReS21 ImS21 ReS12 ImS12 ReS22 ImS22
1000000.0 0.9859309212120676 0.0007460945658750814 0.008658370660194396 -0.051875922316534144 -0.0006006335414498927 -0.011559595149694532 0.31672068910545403 0.29142307282294294
1999000.0 0.9943753950075429 -0.017698581626870193 0.0026632207695122577 -0.020798260062015732 -0.0059929477102957825 -0.0017383585416594985 0.2679807707459329 -0.055825492892635976
2998000.0 0.998052135161341 -0.02034657627534813 0.005688104490782961 -0.013622258899842372 0.00314514904482593 0.0036187753245995446 0.19592192988131785 -0.1274785509549743
3997000.0 0.9965397612310274 -0.028103072533389874 0.016256718487437462 -0.011069332400384813 0.0032843745471558875 -0.003916503168707331 0.09492333759423528 -0.2051655349157378
4996000.0 0.9964742151750332 -0.04389666610190048 0.012561989851324227 -0.0020255493044670806 -0.000939503202041481 -0.005476722722308826 -0.01152748931795798 -0.20447429233344802
5995000.0 0.9935832445489673 -0.04962599787165063 0.005502442103816774 0.002320866410253814 0.002637788944762472 0.0003793203573101287 -0.12859883879941406 -0.12853615776287355
6994000.0 0.9919097564727749 -0.060212577302090696 0.006977793930621223 0.004145449184574048 -0.0025225941769765428 0.0012594237172548557 -0.15717819800490682 -0.03868248799573664
7993000.0 0.9950129264675296 -0.06944655433333308 0.005934555440847148 0.005789482733501458 -0.0036378063053971814 0.00028022529420719224 -0.17349545470091854 0.01659199109002669
8992000.0 0.9963843293935307 -0.0723631912124126 0.006298986098729144 0.007754238898113535 0.0028744658638493507 -0.004634377447733924 -0.18126866978897663 0.05282504565350564
9991000.0 0.9934698052831503 -0.08403153342180268 -0.001396908653723225 0.006638767821015671 0.0007741193165258928 -0.0048669147482894625 -0.16024410763197944 0.09070663366656591
10990000.0 0.9898246587289442 -0.09368526717755149 0.005827944416217235 0.00326432666050479 0.001141046546427594 0.002105941570363637 -0.15374277894813757 0.1030727783379497
11989000.0 0.9885369921875996 -0.10264677431704188 0.005678811145125447 -0.0001221455807592386 0.0024100816913018215 -0.0021695383969295755 -0.14454273186006977 0.13440596767788243
12988000.0 0.9894387733595308 -0.10930636603046882 0.001913218813910145 -0.0048432805809905605 0.0009041218564004169 0.0014878164527397405 -0.1275179581136002 0.16367455541878867
13987000.0 0.9880297010169921 -0.11964495256078829 -0.0018665450650442502 -0.005647649083880739 -0.00042080963984362303 0.0023562444716783274 -0.11625283986049978 0.19032523654095113
14986000.0 0.9865043228324197 -0.12630994593835104 -0.0016754592940919396 -0.00043471345413379967 6.963564255872203e-05 -0.003013128816969901 -0.10935603451802071 0.19956186905191448
15985000.0 0.9893747944092501 -0.1352681397656306 -0.004309553933009234 -0.007939064589917671 0.007410891382166095 -0.0019762277074862338 -0.07736922197769508 0.2192612362371793
16984000.0 0.9858858513532375 -0.1472241423221824 0.0016607477452952135 -0.006456583319147741 0.0021657940961339025 -0.0029187859630934797 -0.0706978795850188 0.2071727809159113
17983000.0 0.9852863309542229 -0.14922017224144143 -0.0023767341590910335 -0.004457188530880183 0.0017850181642751607 -0.002953661955472856 -0.06369039546206319 0.23046094458128039
18982000.0 0.9818846551447855 -0.16188654035529168 -0.0061303840644189814 -0.004540842669331079 -0.0013860947368053871 -0.0018410616322112642 -0.03322669869907543 0.23872762903057718
19981000.0 0.9827517700050701 -0.16818790126790267 -0.004446043857489285 -0.005827361000091018 0.0019042805150350094 -0.00396796463333004 -0.011267730825591536 0.24636655673850624
20980000.0 0.9811153577544893 -0.17837187075399702 -0.007376662415393729 -0.004716927633727016 0.003394462273471148 -0.002803021843614688 -0.013631933191528228 0.25791539218801546
21979000.0 0.9777342210085908 -0.18679547060013033 -0.006188016410390133 -0.0017601741231885056 0.0019020746620425591 -0.0027932720378823985 0.00711847492937063 0.24709457404249072
22978000.0 0.9748439981347395 -0.1975680992409349 -0.007141804659424495 -0.0025765482663871403 -0.0003489744448677687 -0.0020442255579045656 0.026863369521451325 0.24879852937104344
23977000.0 0.9774776717493292 -0.20491399834201324 -0.0038203491195465127 -0.0003282972435296785 -0.0004426751171464261 0.0018167154085214883 0.02951098090561999 0.24542378033971798
24976000.0 0.9729805916700625 -0.21572095964549914 -0.006273715530129987 -0.00241849765695686 -0.002852787944910189 -0.0024555573814869606 0.04897610732139052 0.24831325380400787
25975000.0 0.9652699749760298 -0.22446243802867033 -0.007627645746478479 -0.005293753965894975 -0.009903162297706663 -0.02326280946651288 0.06963024026939696 0.25284558239454386
26974000.0 0.9704735558296078 -0.23160039814395184 -0.005555544692608284 -0.00038102629785479017 0.004137319039263251 -0.002950312492694597 0.08083302970349886 0.26250756620294446
27973000.0 0.9669452861731527 -0.2394403261723469 -0.0051520503916604255 -0.002523715159599368 0.0019602000619679556 -0.0019266587092842426 0.09137628459060476 0.25080404236059833
28972000.0 0.9644828601200395 -0.24788681137702429 -0.00024833098130779544 -0.0032261987555168865 0.0004650129243608662 -0.00031804324178066624 0.11517030217799111 0.25596027779761105
29971000.0 0.9630271901103963 -0.25596816331933675 -0.00044384351782147805 -0.0033069711598512396 -0.0014985300562492662 0.00018827033113735979 0.13263502711132522 0.26977748656472067
30970000.0 0.9606281757050543 -0.2621862250416284 -0.0012638780944014554 -0.0027223795098758998 -0.0027295050765597873 -0.0003317801694847796 0.16493082623652738 0.2565311811962367
31969000.0 0.9571886666935621 -0.2711686279409932 0.006108987040649955 -0.005070917513465478 -0.0011803679082806866 0.00242720747092231 0.14238104414398361 0.25149547437770925
32968000.0 0.9580414761181925 -0.28022150996359096 0.007871590517811243 -0.007556226168981718 -0.005124336386107329 0.0017255614508954707 0.15603667799196783 0.2550167561440443
33967000.0 0.9562320692605267 -0.28865459490839773 0.013434060316977255 -0.009453780906955532 0.000523144103980345 0.0007572250474935454 0.18165582559909885 0.24016600649948316
34966000.0 0.9517548646186922 -0.3004459980007307 0.014535435522537249 -0.010577913103734701 -0.0018807076605371826 0.0007897018904863764 0.19092492517153142 0.2516640919425041
35965000.0 0.9461145331868098 -0.30838482433107006 0.014203662583042943 -0.014437220928802948 -0.0027309086060749834 -0.0030390576786342156 0.19687593026623032 0.25680901215262375
36964000.0 0.9452152214412495 -0.31712617686461936 0.01748195904935028 -0.014340015368779765 -0.0026353375684457594 -0.0011153482697518265 0.20814441855242308 0.24325382900680867
37963000.0 0.9424065978286985 -0.3252515244129344 0.02056589789845821 -0.018059375871834336 -0.002823426646852846 -8.51457330128469e-05 0.22376344523515146 0.23830699112803086
38962000.0 0.941600999516287 -0.33394534926980074 0.0225823064284326 -0.024981466822874346 0.0018376744546422332 -0.0005103932077715876 0.23046574164364247 0.24080806434512497
39961000.0 0.9370133449607281 -0.3431206185811452 0.025294947918745397 -0.028633330833278164 -0.00018267494101926226 -0.0010775809190240004 0.2543403086673305 0.23900043639292182
40960000.0 0.9340546974730125 -0.35134702756476954 0.022589570163206403 -0.02536156052161568 0.0035600604601627927 -0.0019134665882856391 0.26136926775664976 0.22581862778865858
41959000.0 0.9309860693365721 -0.3607142209537064 0.028464473322315473 -0.03343066015162116 -0.0016353826281243343 0.0047383234423294856 0.2611565700336018 0.21726141654993514
42958000.0 0.9271049911605552 -0.3701913306902078 0.030916023938437544 -0.04153579292053971 -0.00279178745948958 -0.0007866231291290115 0.2785110972044252 0.20661255177744456
43957000.0 0.9260313376008451 -0.37349545243040044 0.034327047585697025 -0.046184157150469814 -0.0013894342744853474 -0.000385387377393676 0.280202359383269 0.20957760326439798
44956000.0 0.920904805895896 -0.3852995685993461 0.03403169952928682 -0.048874593027956145 -0.001299599896742847 0.00022354463309813755 0.2959881711186437 0.2032405113943589
45955000.0 0.9164619847574185 -0.39259868285374244 0.03311418218260623 -0.05788154003399671 0.00015722016861361638 0.0019706333036760303 0.3026006694899635 0.20260676321689233
46954000.0 0.911878979973736 -0.40415978318860313 0.03347530544323222 -0.06647885757391073 0.0005192461236040988 0.0005511944112625934 0.31365137592742964 0.18619155036367846
47953000.0 0.9101317884716774 -0.4105499227418585 0.03189549910797438 -0.07098762966815561 0.0014819962134822015 -0.0008235212864725579 0.32401530824131997 0.177658765025209
48952000.0 0.9029873651775572 -0.4214139479178316 0.0323161113256587 -0.08101419132595002 0.0011764464668975693 0.0029222380808250764 0.32976551209432176 0.1694601981208854
49951000.0 0.9003990762270335 -0.4285746895577301 0.03584204011548935 -0.08712221080160702 -0.002555972821370717 -0.0011661305212171652 0.3446582618009644 0.16064915130288696
50950000.0 0.896622300197744 -0.4359792838072774 0.032597315476916425 -0.0968226772783545 0.0008001742118297998 0.0003092435897452989 0.3400250509638783 0.15373458724051647
51949000.0 0.891758077682549 -0.44507530301503456 0.030823120298155 -0.10525413257485648 0.00034830727939644723 0.002901059476219584 0.358450636183562 0.15242335495782683
52948000.0 0.8895984521187552 -0.4524437918823893 0.03587537853819324 -0.11265672176941482 -0.0005977343166490141 0.0006858696551999776 0.36367404022059013 0.14919465780862468
53947000.0 0.885071562921384 -0.4586681043084405 0.03786505341330505 -0.12161993942860502 0.0011143684094403795 0.003043035954789446 0.3619214683385616 0.12868525216068688
54946000.0 0.8786421276735741 -0.47049104295645716 0.03812963242778401 -0.13068868678000437 -0.0003801777632300454 0.0021517378879244097 0.3835814107384037 0.12361830952547455
55945000.0 0.8767393218572883 -0.4785870869018743 0.040922388446580416 -0.14097800836948712 -0.001264037426412615 -0.002120865418037687 0.3747823654291328 0.10496087081910092
56944000.0 0.8726845435205516 -0.48564125181591244 0.04434275889729823 -0.15048510449936922 4.026178320589233e-06 -0.0001932802404662549 0.39560734034754935 0.1087556716738409
57943000.0 0.8654351162361882 -0.4966029345042733 0.04114352566123244 -0.16168950155518297 0.0025199463771456952 0.0021587434162749133 0.40315462810376135 0.09960405667219524
58942000.0 0.8619682562540188 -0.49905787361728504 0.04134810563187029 -0.17343885873916978 -0.0017456500631800648 0.00048200133456292025 0.42058157433691495 0.09672928303038383
59941000.0 0.8584976933243873 -0.5096139362053459 0.04746917187352848 -0.18268223767255373 -0.0015945509573237835 -0.0023254506497876505 0.41656367588424503 0.09148068191462971
60940000.0 0.8505699419079114 -0.5174791040919161 0.04447841449706148 -0.18448337509823912 0.0003800514498198694 -0.001935857312099943 0.41238284189725083 0.08138132936882392
61939000.0 0.8476683285378699 -0.5237232280764468 0.0477434851863225 -0.1916742147753667 -0.002398280275705744 -0.001343572907162384 0.41320168927878437 0.07634035742023304
62938000.0 0.8421768715971322 -0.5346169107874046 0.04828514393629186 -0.20806092990711056 0.0017681361432470553 0.00214584815384114 0.43814885655035324 0.06763704116168891
63937000.0 0.8347409089331621 -0.542843817839384 0.04990006819882852 -0.23103453438748559 -0.0010423683866229432 -0.002414338842409881 0.4352934015971334 0.03996482592989403
64936000.0 0.8303099569181863 -0.5461888823873291 0.04852409344619982 -0.24416855592025866 -0.0028272090346118986 -0.0014397847231822042 0.4255547323575242 0.05000546185294103
65935000.0 0.8252964638058407 -0.5596851842594858 0.05070319797262678 -0.2529116887356308 0.004079988863759995 -0.004149883817421211 0.444466871493376 0.02368738691463614
66934000.0 0.8220713570791409 -0.5651486989315818 0.04895360348142951 -0.2682307219418256 -0.0010280063699200212 0.00345616908223366 0.4249416215218688 0.017103763979673482
67933000.0 0.8177637711743297 -0.5722931987598127 0.053669856832851685 -0.28146115076470357 0.001025798804254839 -0.0035414810953488573 0.44068029220346155 0.019909729409556504
68932000.0 0.8050620285267088 -0.5809914640788285 0.0438730339853929 -0.29014543998127307 -0.00046546682322768225 0.0009626948293806971 0.45354566972159444 -0.0009613850167212566
69931000.0 0.8036467676170576 -0.5879828928367347 0.04868848178725866 -0.30672177498738457 0.002096220452879887 -0.00028145163294790253 0.44659687365327 -0.016856159885490263
70930000.0 0.7959461522963743 -0.5964786643641136 0.04754683948708173 -0.32051456478138357 0.0005820394300691803 0.0019444844936305726 0.4488024986092712 -0.02584753740620344
71929000.0 0.7932676437370058 -0.6048824511464511 0.04251558848084122 -0.33886930660686543 0.0003056508110722929 0.002448233923917371 0.4448141583023194 -0.036591797867269495
72928000.0 0.7862740026806085 -0.6130336421556443 0.03608163862649974 -0.3541275992526128 0.0032786141131493636 0.0004647538780449431 0.4581579771850853 -0.04329272113543948
73927000.0 0.7799607931540753 -0.6199521032261006 0.030607359716267712 -0.37291444194800155 0.00047159378741831715 0.0011786405437441251 0.46590790512612923 -0.0440091186612706
74926000.0 0.7756929753063936 -0.6283455297726837 0.0211069966069846 -0.39185233778921463 -0.0006663078959696061 0.0018746712906567266 0.45114101484972124 -0.05607855630562896
75925000.0 0.7698609523744135 -0.6329209990110621 0.010062678173360944 -0.40996903114988986 -0.004139565856247304 -0.0012912725995278928 0.45811623338937313 -0.07777842861702358
76924000.0 0.762696120345413 -0.6421837355991316 -0.0004990302092637977 -0.43296247473176036 -0.001740231926562144 0.0001467859762300501 0.46362574284933084 -0.07409401158937301
77923000.0 0.7552415974112653 -0.6483044420190875 -0.01770870103936726 -0.45008907284481847 -0.00043254617542257465 0.0003822387294038939 0.4561198013761916 -0.08228818256313317
78922000.0 0.7507953228965915 -0.6602219246985085 -0.0321012009576641 -0.4803081732108207 -0.00012379528242837144 -0.004562848441946487 0.4636860140170962 -0.10417145483258487
79921000.0 0.7402317115175697 -0.6615192181220206 -0.046409881932198395 -0.5052712760187337 -9.035076180949804e-05 0.0032442235467699263 0.45309344636309984 -0.10309794855286296
80920000.0 0.7363999719968428 -0.6728191519747704 -0.06538548569675567 -0.5354639531809768 -0.002727208739671788 -0.00045744324514284643 0.4607840660864695 -0.11142564070186049
81919000.0 0.7294140580409086 -0.6793371466012248 -0.07859671869621132 -0.5640531045887335 -0.0009702261883960871 0.0012704707824107567 0.4619455630794201 -0.12557407206998408
82918000.0 0.7193305595275344 -0.6880242816113428 -0.09554103897984957 -0.591962944427817 0.001262252560839946 -0.002203153904554332 0.474554730973933 -0.13616845936654356
83917000.0 0.7125764897982442 -0.6958356469481949 -0.12125643961116252 -0.622215264512873 0.00015467687228514697 0.00047836760641277156 0.47168576367631004 -0.14696681186613594
84916000.0 0.7066363498142009 -0.7020652001646729 -0.13268760943968008 -0.6576687652444678 -0.0005152070938134275 -0.0022379886566308424 0.46489046173068016 -0.158582696369544
85915000.0 0.699251366896624 -0.7079032856670484 -0.1520584821188645 -0.6844225768578261 -0.0004035802649990552 -0.002397946956228242 0.46506824097246663 -0.16659499517025037
86914000.0 0.6931657719472468 -0.71805962152232 -0.17238723247524748 -0.7209779803159907 -0.007224048758288665 0.0009673937890890144 0.45800940823032404 -0.17047322772948362
87913000.0 0.6842929781132769 -0.7251970327248052 -0.1872097027240828 -0.7485371432173293 -0.0011039613039075988 0.003298455923326949 0.44859404967005473 -0.17410114980269512
88912000.0 0.6788675257383886 -0.7310433198373666 -0.2049897084269014 -0.7793225203528088 -0.000625481449181896 0.0015761441209271808 0.4618185844376 -0.20210661748703662
89911000.0 0.6690840142867467 -0.7405389485583677 -0.2149771458029417 -0.8229045769531367 -4.644048330092805e-05 -0.0022809426279095176 0.4583618567442653 -0.203075984685412
90910000.0 0.663894788188342 -0.7439425712737215 -0.2307179152583609 -0.8530807743138019 -0.0009066557787525544 -0.001247474034220592 0.45999570249410787 -0.21249793530279812
91909000.0 0.6546768882588578 -0.7522576373109806 -0.25313281385919506 -0.8831835310170396 -0.0013551185109474235 5.318103879803607e-05 0.4605338751218812 -0.2169976229137625
92908000.0 0.6445352601027472 -0.7599574215495788 -0.2680876828812391 -0.9108016492647388 -6.370084569752287e-05 -0.0006417162661257859 0.4515250083454241 -0.22888319999218967
93907000.0 0.6410033438357566 -0.7636350505387889 -0.2859012677845701 -0.9427171598539912 0.0011821918106783636 0.001405051880595522 0.4616051026301341 -0.24213650529778313
94906000.0 0.6236462975856591 -0.7724230169484202 -0.30100252630707686 -0.9774145001143361 -0.000868470528592513 0.003934267794090184 0.46104310422653183 -0.23826110558201338
95905000.0 0.6209662480155663 -0.7779530096538416 -0.3218432988153527 -1.0101078049280936 0.0019217542544199711 -0.0002840655774196182 0.45090920914358157 -0.26345145275649895
96904000.0 0.6115989438459857 -0.7871286031211641 -0.34044338465685486 -1.0494890053889963 0.0017376687154280767 -0.0006229076210382545 0.44599618429210314 -0.27355387534612696
97903000.0 0.602661061160715 -0.7926322528919959 -0.3608230448579877 -1.0778667674918876 -0.0022814317380058058 0.0010091960204637194 0.4454445141163864 -0.2836139956765469
98902000.0 0.5977060881330196 -0.7992163462253027 -0.37823742454760895 -1.1137827120585917 0.0020979812504204665 0.0021519599548746665 0.44769009119434283 -0.2840115065528173
99901000.0 0.5870538326737882 -0.8053700270136803 -0.40529751487062593 -1.1462269234932037 0.001061682189213567 -0.0002456090223153213 0.45812442884511645 -0.2985840634852032
100900000.0 0.5765510734340143 -0.8083698958645639 -0.43345890010901705 -1.173031865993964 -0.001957378301164403 -0.0011409618793398646 0.4501987128542256 -0.30787438676252127
101899000.0 0.5691343792008717 -0.8170043848105336 -0.4603590005506792 -1.210233171913983 0.0031910490514309425 -0.0006727126557168989 0.44521214794384784 -0.3078871020881279
102898000.0 0.5575089962724119 -0.8230395512813025 -0.4937239511257025 -1.2446977781714021 -0.000508600921731192 0.0008244662001654051 0.4524246029597692 -0.33584517802358754
103897000.0 0.5505383951017517 -0.8299913949335785 -0.5319787530171287 -1.2803777690444882 -0.0010509051147416081 0.0018761883157908026 0.4506608379211993 -0.3238636618349805
104896000.0 0.542267776572447 -0.8403943327731183 -0.5764865124577804 -1.311552510637018 0.0003009061371273862 0.0006077452926449325 0.4298344722705894 -0.3289404409811355
105895000.0 0.5321928342140138 -0.8417291890342494 -0.6218349504921512 -1.353186891161167 -0.0007182786687996681 0.0036437407437235948 0.4320575440329432 -0.3479363422484368
106894000.0 0.5238708317311309 -0.848211491269915 -0.6714050767340928 -1.3829741257827952 0.0038139784346700165 -0.00121560851834464 0.4341022455266331 -0.3704064607451316
107893000.0 0.5143165175571232 -0.8544377158868359 -0.727132470578967 -1.4170954658225137 -0.0015097836622056408 -0.0015160090921353085 0.43264851119767944 -0.3739433218636635
108892000.0 0.5038414446097503 -0.8572772833725153 -0.7837917117401039 -1.4507166088204537 0.0021232650526349563 0.0009081354614037911 0.4184767202219658 -0.3740224114318106
109891000.0 0.4908006979615909 -0.8659961365441622 -0.8396236681796142 -1.4824791709607963 -0.0011154919593702318 0.00222005652353839 0.42989886872472916 -0.37328819484039144
110890000.0 0.48363740123287763 -0.8668507767855483 -0.9031474853163134 -1.4931937622983897 -0.0015593397442224427 -0.0026554903250790214 0.42927733231482884 -0.3747958802663979
111889000.0 0.47268082026166386 -0.8716379508022587 -0.9658639556114939 -1.5495985196980921 -5.981070856952182e-05 0.0014078729146256108 0.4152516484450396 -0.40485674465010113
