! Created with skrf 1.9.0 (http://scikit-rf.org).
# Hz S RI R 50.0 
!freq ReS11 ImS11 ReS21 ImS21 ReS12 ImS12 ReS22 ImS22
1000000.0 0.9813229690830436 0.0035673105993515634 -0.017728468967453673 -0.05419753018505578 -0.025132957649353478 0.0007348165161273672 0.3569679002699857 0.3338889193172447
1999000.0 0.9944996843825146 -0.012796714798684307 0.009956634071266629 -0.02356627739277658 -0.0027917306054989184 0.004314582826927842 0.27542901192953745 -0.04640162316566837
2998000.0 0.998674317599634 -0.022534185484845953 0.009185446410573964 -0.01493676391777596 -0.00016332540323482248 -0.003399390545206476 0.17989019858798808 -0.1384663777527751
3997000.0 0.9969887783989915 -0.03025049484697272 0.01273583748728668 -0.008109221390831756 -0.0023985119155983093 -0.007014057940110912 0.07877467034204337 -0.23201416638529293
4996000.0 0.99483273232094 -0.040972369685714466 0.011194041318463126 0.0002695777371173617 0.0007641874693138295 -0.0033359840603575616 -0.029352469554844496 -0.19597448706776074
5995000.0 0.9965276933981027 -0.04871346632982576 0.004871641499385428 0.0006780427115615143 0.0013028234905135797 -0.0036491050103643237 -0.12376188145722768 -0.11183910530832729
6994000.0 0.9921585061822359 -0.058448658499525484 0.009096992745306736 0.00029337166560113536 -0.0017282469534487753 -0.0016322691811999105 -0.15003074059068283 -0.024921319060219035
7993000.0 0.995302054852024 -0.0682940486208615 0.006753690712546578 0.0068844735478729305 -0.0021474651033704683 0.0038519922322229655 -0.16295666524500962 0.056852300431784394
8992000.0 0.9931587827095543 -0.07162471603375836 0.004139306262586339 0.004552718801322295 -0.0015445133196670994 -0.007507566059807328 -0.1714385169986633 0.07445692863601772
9991000.0 0.992146872746884 -0.08383100785114453 0.0010614686827439932 0.005381741957819395 -0.004169323935442209 0.003007902358114154 -0.14964760633061783 0.10126599947423832
10990000.0 0.992536196848487 -0.09135829596452248 0.0018686629323181965 0.005985062316123364 0.0034532826495166633 0.0005302369102091785 -0.13351321209279104 0.11589030937341306
11989000.0 0.9888127434321863 -0.09863558418802669 0.004431022352450518 0.00013661875373839806 -0.0018117462512221864 -0.0002211002024136438 -0.11970478847512953 0.14353858030552097
12988000.0 0.9886001698193604 -0.11170200124944801 0.0010985121655872818 -0.0026050658282962334 -0.006278554470675288 0.007166685862549255 -0.11839942570643397 0.172589581427694
13987000.0 0.9868326424955666 -0.11485046104486271 -0.0025483733669353923 -0.0073551746752673645 0.0012521546187220258 0.0030838834805019953 -0.1058022951074708 0.19765492932884737
14986000.0 0.9877763919617605 -0.12534606154166336 -0.002919755152478202 -0.005464750751322241 0.0005861390896760925 -0.0024618673971590513 -0.08279276442974948 0.2122293699983346
15985000.0 0.9879752619922252 -0.13280082360962298 -0.0042726467414249 -0.006624209136869939 -0.002856974541427114 -0.00068881272409729 -0.07511002498473368 0.22898236889942572
16984000.0 0.9851660749587111 -0.1431600986533862 -0.0015551215472653164 -5.361639591550616e-05 0.0011109245679020916 0.00032021625098603465 -0.04768997221163177 0.2277109909629831
17983000.0 0.9851713047990115 -0.14810771415970655 -0.004654871462244274 -0.00844829872993278 0.0023056045379079896 -0.000540987683840479 -0.051399144982341244 0.2354223448326948
18982000.0 0.9800434729137254 -0.16145228467941797 -0.0038423442365493814 -0.008496562123309388 -0.003556066737286709 0.0009764944961253283 -0.02018589010480383 0.25035364900164087
19981000.0 0.9798722525943502 -0.16824542066776735 -0.0022972225901892974 -0.005193778995454464 0.0042956935954458165 -0.004893472075137018 -0.01578312920361465 0.2447599874386171
20980000.0 0.9810637431543364 -0.1750129384931363 -0.003649082909411176 -0.003615283741954878 -0.002097267434480487 0.00026328197034479077 0.0013414223821858896 0.26618347884024185
21979000.0 0.9793312665293452 -0.18355282883690108 0.001867151045731198 -0.006233849610619821 0.0045216455245211985 0.00199562638401516 0.01865911100614724 0.2473334161522666
22978000.0 0.9748575127980685 -0.19478422597624143 -0.007806338068323994 -0.0016049700917885078 0.0026979101257113263 0.004423137973451009 0.031181967895603388 0.2757415010431284
23977000.0 0.9770248474494206 -0.19920297390208896 -0.006101891030797284 -0.0016523441528554683 -0.005358125622416193 0.0013579317880170138 0.04648992374271309 0.2550343624331567
24976000.0 0.9718237012319371 -0.21185201993103295 -0.007406882246595723 -0.0029560216338120884 0.0042838175486481144 -0.0015698083841330626 0.06697838708921286 0.2599433695867959
25975000.0 0.9659361514806529 -0.2252257347368305 -0.007861757368226082 -0.001167417180416637 0.005198806165676485 -0.023526936868689986 0.07626371485263121 0.2673858483605977
26974000.0 0.9698930091030787 -0.22656171632245167 -0.0020508063093926925 0.00022668829054700479 0.0008544828629170857 0.0017594797112186378 0.08573483256288551 0.27196198926771725
27973000.0 0.9684197492636122 -0.2338523481306155 -0.005473778076945021 -0.0038901062985934026 0.0018074708207144765 0.0014256900422131515 0.10596563727483865 0.2707304970943195
28972000.0 0.9648081620141461 -0.2428294722863867 -0.003342411406549489 -0.00097156344717361 0.0005469103085131986 0.00048117095933565866 0.11082299801258488 0.2622752647725336
29971000.0 0.9625763503131115 -0.2544787552230837 -0.0004561456511902529 -0.0008314763085627997 0.0010294911253703706 -0.003425841916855424 0.16213234964434858 0.27570653272601775
30970000.0 0.961134087721793 -0.25769509177358574 0.004363572771655022 -0.0013787573614203882 -0.005760600824273135 0.00011202899981556422 0.1771493052031142 0.2552675306341445
31969000.0 0.9576484315675861 -0.2676645628359169 0.005117238526579104 -0.005086374322264782 0.000962669822467187 -0.0008706384433822083 0.15552735458675734 0.25332330909185014
32968000.0 0.9564458332535523 -0.2783360864439215 0.011609461907330396 -0.00790049700337545 7.893516895108023e-05 -0.00011894037706390718 0.16715762428390563 0.2532053225758903
33967000.0 0.9540824856216953 -0.28726215094914187 0.008933200269280763 -0.008802755021487425 -0.0017314794113801812 0.0018055953644065832 0.18758933825889718 0.24556386899458366
34966000.0 0.9517979465408974 -0.2937809151094247 0.013146083887669429 -0.01200135048019006 0.00228903079350071 0.0010166437004700852 0.20318817442502515 0.26216084733389455
35965000.0 0.9491346437731953 -0.30179055469402893 0.01732484832657838 -0.015730751158195028 -0.000882487738077247 -0.000321533072425379 0.21783243986344134 0.24538301606904298
36964000.0 0.9459916647300565 -0.31164069960012664 0.014896406722068024 -0.014762267216478865 0.00024274622322330774 0.0014600055274247492 0.21660557426750626 0.2601963809091968
37963000.0 0.9436327632677161 -0.32000502049926405 0.02112955803955248 -0.021825743987850293 -0.00011066117421906367 -0.0006056074076441419 0.2309167145978705 0.23513488686991052
38962000.0 0.9409928118932575 -0.3318664012629488 0.022079536627001514 -0.025139140621487015 0.0004976600915531077 -0.00032462767410119627 0.24757592680439441 0.24522307666275037
39961000.0 0.9382695128463822 -0.3384541222248783 0.026369760430328903 -0.028871429352684636 -0.0005408312113545822 0.00031807584763658995 0.2505498071922277 0.22472058308249723
40960000.0 0.9342079726747695 -0.34539447359924125 0.024220920345822565 -0.024020822597307496 -0.0020869294214017876 0.001037632288524022 0.2698882104283066 0.22589324519295856
41959000.0 0.9321822603376094 -0.3548709628651878 0.0296615896425605 -0.03133826840870995 0.0018474727548046634 0.0009167721472396884 0.27438332979099317 0.2202194318170108
42958000.0 0.9260984182273756 -0.36610041050885617 0.03120260589567566 -0.042748972207284075 -0.0031572593197406584 0.0002891280776658571 0.27388112275935883 0.20712490579375778
43957000.0 0.9258627495480236 -0.36854545494873986 0.03255740973367699 -0.04596749316477324 -0.004992313647711082 -0.0012005408758150083 0.2874954362213446 0.2089004066652307
44956000.0 0.9219604280028013 -0.37759296552357974 0.03525640676323558 -0.05255817009937919 -0.00171208251848659 -0.0009627433468461965 0.30912865731068156 0.19499367086983918
45955000.0 0.917547387460522 -0.387543488498221 0.03765534562103703 -0.05837944194748908 -0.00013940880826234374 0.0006043225383757197 0.3153237269718736 0.19619076217948508
46954000.0 0.9142737189172353 -0.3968878704146152 0.03511893267137043 -0.0651787765168521 -0.0009153489400769251 -0.0040320901042139486 0.3284916843045733 0.18106221889931795
47953000.0 0.9124672626006023 -0.4035134988921233 0.03720384537263182 -0.07281843616653202 -0.0002584371660029166 -0.00038934606165772493 0.3319393350990636 0.17604646748512612
48952000.0 0.9052786902443077 -0.41727842480237437 0.03976255640823272 -0.08132050783253947 0.0013834385857240212 0.00014306771357423516 0.3327217198020132 0.1742024883892036
49951000.0 0.9015504438466634 -0.419790833877878 0.03918881911784331 -0.087789031279249 0.0015657570773827609 -0.0010559523953407159 0.3572506377070416 0.15509443807536138
50950000.0 0.8980946353094232 -0.43027391350212485 0.041575980242479466 -0.09582249233163871 0.0020481415304600225 0.0015226994733055102 0.35980382662814064 0.15328393635259663
51949000.0 0.8950029245624878 -0.4372720353196551 0.039491877123776234 -0.1060673546283236 -0.0027236631985119025 0.0032944065163807447 0.35869313813296205 0.1537159480123251
52948000.0 0.8915910669186701 -0.4474877019660178 0.04149244548169757 -0.11383463013265495 0.0010789038732862929 0.003446914548332731 0.38144154601379343 0.1450822766384891
53947000.0 0.8865307933191748 -0.4537761265237237 0.044430682225297266 -0.12152454916108373 0.0013514374764284115 0.0011550981040174928 0.37183762213524063 0.1328571102455943
54946000.0 0.8825964766719404 -0.4625448429841988 0.043517987275206144 -0.13347750047013537 0.0029682150219455324 0.003449277092884375 0.3840967962034827 0.12503420317345285
55945000.0 0.8782333825094435 -0.46950142436314435 0.048119832055211836 -0.1429153486056281 0.002771644762240157 -0.0005189545351210468 0.39469027448484695 0.10702532369320907
56944000.0 0.8743934990375276 -0.47917771996088177 0.048761694127844264 -0.1524063332177261 -1.989446480768847e-06 0.0008046975032202723 0.40696585297178073 0.1106517672872466
57943000.0 0.8677596209237336 -0.4902177007608948 0.04875339217640392 -0.16549948527972452 0.005330662759389437 0.0004215286556224198 0.409473024917531 0.10214491471501173
58942000.0 0.862430702252215 -0.49437084452640534 0.0531467477789682 -0.1759661130684222 -0.0007298161803137005 -0.0008255306802859117 0.42259643515338796 0.09009252472679603
59941000.0 0.8609045728749817 -0.5023136375930335 0.052880714953578996 -0.1819895723978666 -0.0007127032388921874 0.0026963997727476514 0.4296819643983831 0.08455080207802108
60940000.0 0.852482957328604 -0.5110337586395611 0.05083442832687716 -0.18826152173848373 -0.00014454342493014602 0.0006292251436755075 0.41883428529316524 0.07050154963441232
61939000.0 0.8500564353353881 -0.5164120709229144 0.05178142339459099 -0.19589174308306131 0.00055845357906862 0.0032487769792718074 0.41938161900681004 0.08240907316301292
62938000.0 0.8439160249465598 -0.5281749823007499 0.05630434077514105 -0.21146148221810226 -0.0013078062976683161 -0.003469655276865281 0.4491084089816007 0.06025579959493759
63937000.0 0.8393258356596511 -0.5351835405655038 0.056489268248130234 -0.23161925410690878 -0.0031470429876863013 -0.0008221727720956704 0.43892701233971704 0.04325676790711371
64936000.0 0.8323798280870613 -0.5432720350577178 0.05645522264212795 -0.24791889099428824 -0.0014294846975089317 4.7760223531699894e-05 0.4320464687175995 0.03752818846163968
65935000.0 0.8295999025429256 -0.5504062476805369 0.056242396699802 -0.2590785499324521 -0.0008613160051459867 0.0006703268744122964 0.44438146818011465 0.027049846724526063
66934000.0 0.8241532565674247 -0.5577576038489378 0.053330530680123 -0.274531163873733 -0.0021609817682266145 -0.003339857813888516 0.4347893696214562 0.012464624109323254
67933000.0 0.8219464216311568 -0.565526664036928 0.05940263356785324 -0.28980800938975676 -0.0018575097389207055 0.001062143894119216 0.4446710496914901 -0.0006141909136113885
68932000.0 0.8040773395571515 -0.5631614186320767 0.052858048816712265 -0.29870781260169627 -0.0009538791404522532 -0.0013177931474666542 0.457452030173023 -0.0018094139216031256
69931000.0 0.8065266801172715 -0.5824671523614121 0.05279161155738079 -0.3201807589675941 -0.0014025230792949204 -0.0037345974167030498 0.45712828270771794 -0.005396045635715439
70930000.0 0.8009477614013047 -0.586850689895853 0.05146380865711257 -0.33336119285769317 -0.003842257371391869 0.002977492160255816 0.4480281896275443 -0.02794307477184909
71929000.0 0.795807409596974 -0.598103957628232 0.04172234031304191 -0.3504859075445013 -0.0004059770587982428 0.005433929921406655 0.44994409289370063 -0.03636396481841454
72928000.0 0.7901941636602211 -0.6079267351764714 0.04323276964461996 -0.36980388206844883 0.003613577674157025 -0.0006928179566508854 0.4696907654683053 -0.06017817306970595
73927000.0 0.7854758982969919 -0.6129853794435343 0.03394499482972543 -0.3873369370306637 -0.0019643968631028403 0.0015770895180463665 0.4546047888540235 -0.05620938315796324
74926000.0 0.7795246911048854 -0.6212998577650192 0.027417305144781728 -0.4099643380053201 0.002594999601269086 0.0019364631299132152 0.46668078537211405 -0.05944246979312706
75925000.0 0.7723288871467473 -0.6267253699098727 0.019801644948835736 -0.4296117786806249 -0.003485288136895723 -0.00277882261927852 0.47367210495042295 -0.08206256750087441
76924000.0 0.7666261539423235 -0.6343300846693313 0.008141546343699178 -0.45426210794555977 0.0004848962638329223 -0.001056107848642776 0.46881226670544396 -0.08513298596609703
77923000.0 0.7597548240225636 -0.6424545795801005 -0.011852669046504477 -0.4770596253105832 -0.0010088029631921656 -0.001687818959946447 0.46322411948627584 -0.08708127813809607
78922000.0 0.7540791370818358 -0.6502935429372753 -0.021762881781873075 -0.5031355170155534 -0.007631331419813906 0.0029547579221081846 0.4669566272252113 -0.10068926094899613
79921000.0 0.7467384883055447 -0.6551492887007893 -0.03487293197097057 -0.5302838456956407 -0.001532911459532665 0.00012642481817046037 0.4677208708895368 -0.10099377823575692
80920000.0 0.7409074143768282 -0.666354475633985 -0.05627598407534432 -0.5586577578324242 -0.002513863008491709 -0.004770065488369841 0.4749630664815502 -0.12426639830397655
81919000.0 0.7339577829392018 -0.6711527477198999 -0.06964432511796637 -0.5874626649267705 -0.0013998919319821088 0.001053413406821557 0.47899259845068876 -0.11933940310918799
82918000.0 0.7256421476097353 -0.6787653781729965 -0.0873338204735806 -0.6170349441364632 0.001915348847543134 0.0018621755739497792 0.48009491164970486 -0.14261041458835355
83917000.0 0.7203429461394355 -0.6863776616500266 -0.10379355894632236 -0.6483668631425085 -0.0012669806909486742 -0.00040765571977738807 0.4920989205629289 -0.15337411074493698
84916000.0 0.7134985549265025 -0.6944460313125799 -0.11893359449474863 -0.6864678331615828 0.00011055015539844386 -0.0031200803216650335 0.4722464133288067 -0.1706576340955126
85915000.0 0.7088022906435579 -0.701207534433598 -0.1380352222561884 -0.715020460981142 0.0035510183637578307 -0.0032348382835552473 0.466174212568567 -0.17405128626090793
86914000.0 0.697767021040264 -0.7118878319290165 -0.1558610849281955 -0.7491909531521359 0.0008350334252518914 -0.0036231940915707364 0.4650652668653607 -0.1708710202914784
87913000.0 0.690615911675157 -0.7189963318634468 -0.17284163352073448 -0.7774951232637309 0.0010907495106665455 -0.004526908994866662 0.46461654232350863 -0.18297060041533256
88912000.0 0.6839165544239855 -0.7234682350634503 -0.19282477750305627 -0.8145759330190752 -0.004439242455940423 -0.00045176341573380273 0.4650395443442762 -0.2122226077638006
89911000.0 0.6787976618901943 -0.7317395592479646 -0.20040298471619325 -0.8534468033555702 0.0017801537559063853 -0.004376631684964179 0.4813038565349375 -0.2082230925728372
90910000.0 0.6693701465166807 -0.7364867023655196 -0.2209606321956225 -0.8849294845425317 0.0005380133225109848 -0.00223771712037641 0.4642064833111584 -0.20973949264239006
91909000.0 0.6621134857751074 -0.7422240302635967 -0.24357051734718824 -0.9179907854680367 0.0006958933233984341 -0.0022185360565468576 0.46861900634885606 -0.22279823262676654
92908000.0 0.654446101906211 -0.7509415324782385 -0.2595227000231397 -0.9535932188274513 0.0014431789135875804 0.003448749486970048 0.4612503628839499 -0.2279645884856342
93907000.0 0.6484216393760135 -0.7548453126998427 -0.2732881351611187 -0.9878674904222521 -0.003343579669749374 0.0012812427858289255 0.47318274588884496 -0.24526466906811667
94906000.0 0.6343101728046718 -0.7619023995562076 -0.2947038438538525 -1.0147707831381252 0.0002030337525240932 -0.0009595746080956891 0.4629292393872912 -0.245719542090783
95905000.0 0.6289804758633414 -0.7696803783309826 -0.31372712067273034 -1.0540199166668522 -0.0032483147244959784 -0.0003415447795459715 0.47187817308168 -0.26820765390476103
96904000.0 0.6212516313302443 -0.7799609729457688 -0.3384543911376249 -1.0939118630838864 0.0008602940513339355 -0.004124151606760285 0.45938075401340595 -0.26842156374455944
97903000.0 0.6120142088896663 -0.7832924491702674 -0.35528542209716696 -1.1226886419970754 0.004015792835600722 0.0010280874880373332 0.45063910980397 -0.2830496804786846
98902000.0 0.6078172101802373 -0.7904264963434064 -0.38279750951061603 -1.1665557645961335 0.0010268342889869593 -0.0025970390455471873 0.45444215877667365 -0.2871720209672183
99901000.0 0.5964805809376189 -0.7945742654763749 -0.40916226305477993 -1.2014486583670112 -0.005393957883216619 0.003241565805993344 0.46324934839835186 -0.31263139268234474
100900000.0 0.5872479949681731 -0.8000943149972137 -0.44328645364643765 -1.2316349704123235 -0.00036563211956461007 -8.645832107813972e-05 0.46356106354444954 -0.31677561027569473
101899000.0 0.5797135472891762 -0.8081431553495952 -0.4702673198397453 -1.2672941211951323 0.0022127522915253504 -0.00015727955852656476 0.45736169766207235 -0.3164376297118709
102898000.0 0.571150727605806 -0.811056180710904 -0.5035964333294738 -1.307009788443389 -0.00020024305497948333 0.0007206450943519172 0.46038776659595504 -0.3409260434915298
103897000.0 0.5622753198261198 -0.8217501594063946 -0.5494427093709143 -1.3429318895920037 0.0005038743012911427 -0.004120602607016931 0.4686192686175725 -0.32919779605934696
104896000.0 0.5546287340067365 -0.8303707589938876 -0.5917998677580076 -1.3740771537663397 -0.0011279756483550728 -0.004732449766961922 0.44444982126440274 -0.33027742968304763
105895000.0 0.5408655286895849 -0.8327858116222536 -0.645514664218432 -1.4179456367237655 0.0010928129792330383 -0.00213195521676906 0.44539105811189694 -0.356045232881954
106894000.0 0.5353700452137071 -0.8380100283217816 -0.6962454015949346 -1.4575135500481318 -0.00032012272910593675 -0.0006565360163028126 0.4245235690301288 -0.3653406852294465
107893000.0 0.5283996037860739 -0.8449355707465038 -0.7487819641492434 -1.498139990555222 -0.0005647711183012416 -0.001324759675434667 0.44038164387777795 -0.3702988926968402
108892000.0 0.5162148165799212 -0.8501618219617711 -0.8090536807675601 -1.5359084980168782 -0.0013718941811953491 0.0003009634325069119 0.4368936307999588 -0.37012155655599055
109891000.0 0.5034856072187726 -0.8554336789164569 -0.8701723849100587 -1.571767571697527 0.0014578794205684425 0.0008973798936119655 0.4497877882371803 -0.3803302483496487
110890000.0 0.49649896213056927 -0.8608915289072528 -0.9294558218297695 -1.5850837874909791 -0.0008662614306495732 0.0014371341827296275 0.4483745920868726 -0.38265193329569197
111889000.0 0.48565272954122285 -0.8616602947827873 -0.9917177991806623 -1.6427439799884411 -0.002124770300834154 -0.00038192430367435206 0.4292462738222162 -0.39296311721552574
