! Created with skrf 1.9.0 (http://scikit-rf.org).
# Hz S RI R 50.0 
!freq ReS11 ImS11 ReS21 ImS21 ReS12 ImS12 ReS22 ImS22
1000000.0 0.980558896807261 0.014338372007206435 -0.024549179014469357 -0.04467093195407431 -0.012285543592128566 0.014881445868796106 0.30572361208475024 0.4128203308932994
1999000.0 0.9936365671514837 -0.013471031679310616 0.00588972212683965 -0.023351583367761497 -0.001970765544760038 0.0027838274782368733 0.25819533941557277 -0.034238572751754216
2998000.0 0.9981012858497559 -0.02395810186709303 0.010319624062040456 -0.016423080223215 -0.0110088933875314 0.0013195257337268631 0.1841641511159816 -0.1313239454087863
3997000.0 0.9971065428089173 -0.03074444393721869 0.013340601217291644 -0.005389855796475146 -0.0037429376294861945 -0.0024087912233683247 0.11461201268849452 -0.22715661629257547
4996000.0 0.9977168347809452 -0.03797293463220986 0.014007703134733127 -0.001062055305380909 -0.001641661288356432 -0.004805887494013139 -0.02582374411771064 -0.2188160185444224
5995000.0 0.9963015519762027 -0.04881676694599577 0.005654179434285325 -0.004123184007475881 -0.0001961932945255981 -0.002101835916657671 -0.12372600192727062 -0.12624411897230312
6994000.0 0.9921915955079514 -0.059377279146788774 0.0027764228471612406 0.0007863980820151266 -0.0037088675989143454 -0.00649629252292593 -0.1491422678484282 -0.03864625320309457
7993000.0 0.9973807770300882 -0.06843640896092835 0.007625518202015502 0.0014154317126694083 -0.0005899200330038537 -0.0006750549470122652 -0.17682057200191745 0.03486629343470178
8992000.0 0.9962377341563681 -0.07342952005308098 -0.00037408176574901504 0.0038937457057386404 0.001076362096746082 -0.004677268351536864 -0.18562983694161883 0.06194782701812874
9991000.0 0.9916867688426508 -0.08368372551238804 -0.004547607912505398 -0.002543467141171338 -0.00289067250629403 0.0016607081251850935 -0.16791961818604725 0.08690721532497812
10990000.0 0.9897592151376109 -0.09183605487596105 0.0006146947826686617 0.002152053462407458 -0.0024648730041860922 0.0010808762554680483 -0.14338453651194116 0.10381415451303261
11989000.0 0.9897403070479571 -0.09901907830623241 0.002714637197141105 -0.00283675151855038 -0.003147231716544641 -0.0014700310079979512 -0.141021629006486 0.14547117823595515
12988000.0 0.9875051541575179 -0.11116081117163829 0.0008476698542017643 0.002055549903905658 0.004862073088975084 0.0025575494269836287 -0.12177030194157434 0.16633218848754985
13987000.0 0.986814662607224 -0.11899060581571494 -0.0017695619409039116 -0.00475018125201601 -0.0027036378946511046 0.0033933871800616187 -0.11541650753392367 0.19737119632223882
14986000.0 0.9850386154845551 -0.12447927612366137 -0.0014666942733760867 -0.00444268397947072 0.00034599628764086284 -0.0009193199192684456 -0.10431425783167812 0.20598370156647391
15985000.0 0.9867723961905583 -0.1355924243803602 0.00061108167241868 -0.0035894094737623605 0.0004714482412301688 -0.0009293081092441734 -0.08174701803891576 0.22110612698092558
16984000.0 0.9850142622455358 -0.1472938734295585 -4.2180488251114404e-05 -0.00788924109421888 -0.000550116671745482 0.002683972326414092 -0.07433483291759826 0.21488067391313426
17983000.0 0.985281603374307 -0.15097984824854846 -0.0020369378964388792 -0.0021950246420145616 -0.000280314311629513 0.0020795604707484873 -0.06418973781253359 0.23636270713640126
18982000.0 0.9820066598115923 -0.16448321608808494 -0.0017401353854451717 -0.008839556411948599 0.0013506558040669704 -0.0018099703177511515 -0.0282994378189559 0.23189491299453088
19981000.0 0.9813883098510808 -0.1682620457787162 -0.0027445745149258845 -0.004325663418912681 0.0003006942246692999 -0.0009525299056273921 -0.020185580333211276 0.24439762395878864
20980000.0 0.9801662054041109 -0.17531441318016686 -0.006685151333903719 -0.0009580272646461179 0.0035787943298396705 -0.0014333902004365115 -0.01387674428990865 0.25810485310485526
21979000.0 0.9770963338496599 -0.18765449153844965 -0.006658093502401748 -0.0008058661927017557 0.00457158415871238 -0.0019428238200645007 0.008973761520545881 0.24193588586965015
22978000.0 0.9757370497551237 -0.19348027784031951 -0.0063874257409626415 -0.00037199568321264826 0.0010865280993171392 0.0037894977390010784 0.01895935194650849 0.2698092523699075
23977000.0 0.9772479442245288 -0.20292858698303773 -0.00429364958070486 -0.0011950660966712156 0.004292931399937373 0.0009566885984873784 0.021469637055239407 0.25456523106922185
24976000.0 0.9712396579636148 -0.21240476441153683 -0.006842240715497715 -0.0003954794992680591 -0.0003856948533420348 0.0010475321170668069 0.049859297300323846 0.2547284752983221
25975000.0 0.9715383564940548 -0.22598266273064158 -0.0032069535324942824 -0.002263805105927284 0.023049485424572847 0.005048804978646317 0.061326427363489026 0.25902123334514626
26974000.0 0.9694394920484809 -0.228385128311331 -0.006063237721424513 -0.00040658179144040235 0.00045549279968331327 0.0029152524123712957 0.08167147964256874 0.27703388627031433
27973000.0 0.9680054692441734 -0.23730320267195648 -0.0024250430869226956 -0.0030434219839792914 -0.0015732033162080626 -0.00038646180897593935 0.09881809910452047 0.26371534755180476
28972000.0 0.963436369604958 -0.24602069064088608 -0.0023590106097448743 -0.00041094192871391893 -0.001097285095742333 -0.0005663010039526145 0.11529112931841166 0.26073798287454264
29971000.0 0.9629360169293867 -0.2555366063114402 -0.001999483521218304 -0.0007650497075487651 0.000930427030819009 0.0010035256421693085 0.146497011583736 0.26887597866866936
30970000.0 0.9607205904239801 -0.259354563070325 0.004378356240535998 -0.0021296051786562414 -0.0020395647656417256 0.002168769431002939 0.1598715064793017 0.2569808806449199
31969000.0 0.959870818629927 -0.26865216991625795 0.006515053756760133 -0.003397839938405822 -0.0003594746249477972 0.002262602400162176 0.14453744934801538 0.25755629194599355
32968000.0 0.9580107779157375 -0.27784339566432653 0.002366098872329301 -0.007456273712140804 -0.000524091804836614 -0.00044637845895618706 0.1599666657805565 0.25030405288778634
33967000.0 0.9544391158723268 -0.29012944512036576 0.007850944587797655 -0.0074062509889842865 0.001965049640821394 -0.0010411677531059582 0.18268180504824552 0.25165928036596386
34966000.0 0.9518897458632366 -0.2961873051202954 0.011167183510107096 -0.01292808177656655 0.0030336894243014464 -0.0005757470287700633 0.1872758416814306 0.2607028999215616
35965000.0 0.9494030938420632 -0.3046156273586741 0.016174703421457985 -0.015724184787386446 -0.0005714215668944589 -0.0013739936568586777 0.19738739041632214 0.25674034982767013
36964000.0 0.9479333623387235 -0.3143699651417142 0.015237624340510623 -0.012013272348010688 0.004420411832852146 -0.00021051043935333254 0.2051047680257214 0.2508829520675229
37963000.0 0.9442377194229045 -0.3218715330361359 0.02182660140006097 -0.023277832292179966 -0.002982826332246346 0.0006272388317170842 0.22593424789031885 0.23962209296147124
38962000.0 0.9407959941381688 -0.33182005720958857 0.020082106041687937 -0.027351800520082785 -0.002616876964631077 -0.00019681760518175357 0.2303652405252797 0.22986299584258885
39961000.0 0.9380437544254117 -0.3403256641387453 0.02562723428477696 -0.02552458338921817 0.00256635384699653 0.00023925319252020828 0.24487030310862437 0.23779184849041907
40960000.0 0.934440990514857 -0.3466101218568392 0.020443150778685006 -0.022426741461477426 -0.0011447986388954804 -0.0012504231087848044 0.25942215702336613 0.22455180152103874
41959000.0 0.9306510808904428 -0.35891778204827157 0.029431003632673355 -0.03375172333723966 -0.0032348174314977864 -0.0023021020538147446 0.2682286710637236 0.22673613258893863
42958000.0 0.9263712925808709 -0.3653576766485775 0.03052921732889819 -0.039217904826429756 0.0012100106247290153 -0.001983828515029184 0.27648849553141003 0.19900465775397683
43957000.0 0.9252000650833778 -0.3695470832731782 0.03174189731943934 -0.0463098456179911 0.0012799009425266757 0.0011254617741262149 0.28476768728938134 0.20638676652309157
44956000.0 0.922351787166197 -0.377331846766639 0.02964980219923214 -0.05158458879158007 0.0014572445300215604 0.0018181087626768211 0.29833263761844336 0.19995168214501854
45955000.0 0.9176928121544672 -0.3918249923997013 0.03171963957683461 -0.05594529026429041 -0.00027498693929111577 -0.0004731110878898361 0.2988590121399764 0.1923261288845523
46954000.0 0.9139925089617172 -0.39869122366922666 0.03457646849718674 -0.06431547347056579 -0.0013901607996798441 -0.00265030365179794 0.32284677972868436 0.18218631067898153
47953000.0 0.9098648511086674 -0.40629424401288594 0.03265943139586256 -0.07348607868895268 -0.0014817694046146974 0.0007588833659712174 0.33356549721438566 0.17279690616477972
48952000.0 0.9045339796044272 -0.4165045804621813 0.031437084611043054 -0.07950465477290068 0.0001901379239040174 -0.0013676574814676626 0.3298909268499322 0.16259013930461058
49951000.0 0.9013492609912607 -0.42270199197366953 0.032806296686082634 -0.08741999110789661 0.005212664552424757 -0.00026132683754143837 0.3508500211415768 0.15429111274780255
50950000.0 0.8985596324405913 -0.4324192404394483 0.03647844444029264 -0.09571325206697598 -0.0029631210724574324 0.0016891260150618467 0.3446625546743321 0.14363947905211516
51949000.0 0.8945615238121277 -0.44003639263693195 0.03599313371832475 -0.10318920976872918 0.0003779349908567887 0.0048340173238918035 0.35188845020445897 0.15402769662208154
52948000.0 0.8935202540351993 -0.44693237947465053 0.03729794510839132 -0.11225481152650621 0.0018448031686153974 0.001926937791203076 0.36564488515477767 0.14404480196157537
53947000.0 0.885536103345118 -0.4559924518282561 0.036301896398643396 -0.12211936424528325 -0.0014770452879354864 0.0003823866945169197 0.36291422734259193 0.1315261874925656
54946000.0 0.8801025762608682 -0.46426948953919306 0.03840520170165465 -0.1327794996686432 -0.001337971486812572 -0.0013039608287738385 0.37785486925401485 0.1280295831088712
55945000.0 0.8776737659189942 -0.4730319995672286 0.038008997194273975 -0.14101053006969258 -0.0035665728121055487 0.0007190879737094193 0.38925950514569224 0.10564004118595749
56944000.0 0.8744109652710581 -0.48048949163716026 0.04049049132876063 -0.15162746951563744 0.0007177638283259062 0.00181677416168657 0.3815463187690882 0.10354487598315702
57943000.0 0.8702925975100815 -0.49110246491761306 0.042492566505233795 -0.161960681221117 -0.005644868013696264 0.00020540645750511308 0.394444979665839 0.0987325253888801
58942000.0 0.8648833355114397 -0.4959160445444432 0.0429018631989052 -0.1716460205889505 -0.00023973822586679695 0.0010589859212979372 0.41489990129734183 0.10134053490827859
59941000.0 0.8595381389930441 -0.5071882460333385 0.04273877309665414 -0.17997720553748664 0.0014015464779874867 -0.0015963013373548468 0.410583756721056 0.09497560838191407
60940000.0 0.8529021526261423 -0.5127793992963179 0.045438911093561005 -0.18610536933315883 0.0017271712605517677 -0.002211337000125494 0.4080298441030355 0.08017511514093725
61939000.0 0.8499211131745505 -0.5196258470372053 0.04275095147658672 -0.1906383095108025 -0.0009038315468443618 0.0012306600289295692 0.4171609081553346 0.07426821101431276
62938000.0 0.8441918464687126 -0.5293432504582879 0.048628933990042936 -0.21074614825185312 0.00018567299987566415 -0.0024490979789634883 0.4457997897998584 0.05458491580136478
63937000.0 0.8396411023954697 -0.5366050580241676 0.047750403183424994 -0.22950964944705565 -0.003874880649232959 -0.0003208640921998067 0.43140687743822687 0.04271107471182099
64936000.0 0.8317816588214298 -0.5441680074510726 0.04720105697826487 -0.2414623404697606 0.001293968671720832 0.0002861936468914457 0.4268170342459557 0.042542326325398845
65935000.0 0.8289041070571287 -0.5529913452883545 0.04556587829015277 -0.25400318884102024 -8.786924393545983e-05 -0.006073348024351578 0.43540225447532455 0.02696034462046619
66934000.0 0.8242697722204216 -0.5594471117958285 0.044695339327294574 -0.26646750923950935 0.001198783251032153 3.0099926105250705e-05 0.43367616763170036 0.028320100920409815
67933000.0 0.8221594437164528 -0.5681191490592911 0.05127599346923987 -0.2811261126230583 -8.238185438110583e-05 0.000269072130259472 0.4430900547825979 0.013285665168307481
68932000.0 0.8104793105878415 -0.5595189501116626 0.04508153364137037 -0.2868298589173414 -0.002271966456759713 -0.0042339398473240876 0.4508588905512579 -0.000672414551369776
69931000.0 0.8068302669691654 -0.5840550893952258 0.04562800853122278 -0.3074749272024707 -0.0012747005588026803 0.00012565304964120143 0.44487212876607113 -0.011384765759302537
70930000.0 0.8007768736576762 -0.5912201254863014 0.04147496348590049 -0.32018696301661503 -0.004609892108561548 -0.0019721365801135503 0.4393360444032489 -0.03037051091102117
71929000.0 0.7972280508737626 -0.5994520371372686 0.03473552777845139 -0.33786780601473904 -3.0698503014089984e-06 -2.9393877321439564e-05 0.4384817442585686 -0.03755388278478319
72928000.0 0.790482797714522 -0.6073292241868673 0.03438006603981889 -0.34992485171459004 0.0005290246136117349 -0.004165844785814992 0.4667505844514348 -0.04234485462253984
73927000.0 0.7852445401721613 -0.6140107503120862 0.026502630085130645 -0.3715294458194274 -7.375582318721811e-05 9.028652842801012e-06 0.4528315025512304 -0.0564762815999339
74926000.0 0.7799788650332007 -0.6227874971846497 0.021074687427353044 -0.38854193614033405 -0.004418578048714091 -0.00220430727865286 0.4682099887149059 -0.05396336009022876
75925000.0 0.7744585475240121 -0.6284573071712968 0.012936723908897203 -0.40690698883959336 0.0023076139449346713 -0.0009977820774813722 0.46365031788817307 -0.07169977631901027
76924000.0 0.7653244702428534 -0.6368233525142555 -0.007655523525294206 -0.42936290569399876 0.0028700328385391407 0.0030150374414104645 0.457704716112127 -0.08239262251996357
77923000.0 0.7596061867811028 -0.6435412069175308 -0.021138796990944612 -0.45082255631632456 -0.0011156348136951149 0.003157207343117564 0.45273463215719395 -0.09045346267827624
78922000.0 0.7542451275775339 -0.652697895481171 -0.03476764974992417 -0.47840097026193057 -0.0017735758457011169 0.004533120378342667 0.44758955028165753 -0.09767943725607543
79921000.0 0.7467887379008232 -0.6576935738613352 -0.05114813910572407 -0.5007492606441986 0.0020586511775157116 0.0017351695027037486 0.458300485043993 -0.11330861930339067
80920000.0 0.7419861664696406 -0.6656450484550208 -0.06666335769235533 -0.5290165146847318 0.001179213174892105 0.002891786386779093 0.45980881605660767 -0.11286055685943017
81919000.0 0.7355198034433824 -0.6710021026253257 -0.08803199148074961 -0.5563126079327461 0.0030654558169603482 0.0017017748947390087 0.478951113274509 -0.1243848367853111
82918000.0 0.7240856780589363 -0.682505708176811 -0.10016535551088532 -0.5905438395617872 0.0006461590458895666 0.0020923605356188224 0.4804467766849831 -0.1409820301138056
83917000.0 0.7168309696680973 -0.6878049255586176 -0.121679903387062 -0.6160795924689563 -0.0022909546783123416 -0.0017092808584661555 0.47244026455763954 -0.13417682432040026
84916000.0 0.7119951029087467 -0.696463475495279 -0.13820286637932008 -0.6481460904684528 0.003596391678638933 -0.003138369590442885 0.4680060215266431 -0.16791304535325188
85915000.0 0.7050617798670273 -0.7027875306774727 -0.15746767141237814 -0.6756332449613202 0.00038072917043439084 -0.0006564766261530874 0.46327102455661184 -0.16681797309422977
86914000.0 0.6984885310486324 -0.7115266334962619 -0.1721618235675916 -0.715635167215727 -0.0002741130746671104 0.001846353331122143 0.468229551535371 -0.17115327465749913
87913000.0 0.691990058781672 -0.7180979306559364 -0.19174932897488828 -0.7411850334178909 0.0007921965395876586 0.005458037397642612 0.4600405678253079 -0.17878856605490268
88912000.0 0.6853652065273825 -0.7243664132658817 -0.20764598092307132 -0.7729594839372212 0.0024628407992792 -0.0015870530518561094 0.4572066618336725 -0.19618173336197708
89911000.0 0.6760040696523864 -0.7362063956462289 -0.2232345701733621 -0.8106340403810552 -0.0009848205439119285 0.002588283191011566 0.46906096804492586 -0.19919709781208408
90910000.0 0.6694782011899111 -0.7384508643210602 -0.2367157850829865 -0.8388297395595518 -0.0038822234692155264 -0.0014861217443978693 0.45592251480276785 -0.21003817433247687
91909000.0 0.6605832931091319 -0.744130018302645 -0.2553506657771504 -0.8708753861174204 -0.000830591284189648 -0.0015235325625112817 0.4640589819113661 -0.2088281860223527
92908000.0 0.653146262142832 -0.7514362137792183 -0.2724542177411261 -0.9045951134099007 -0.0012964838567475969 0.0002570558273641672 0.45038225562505124 -0.22340187157472732
93907000.0 0.6455593681213029 -0.7573136133834015 -0.28547423088153057 -0.9331692255494706 -0.0009062588573133718 0.0019433426984299662 0.46094681399317056 -0.2387235545113749
94906000.0 0.6341168674953689 -0.7653190777759696 -0.30133891325154105 -0.9640381083802549 -0.0007340858103577043 0.00278272976160235 0.4569214654619374 -0.24176943950200902
95905000.0 0.6275308793076096 -0.7721575975028792 -0.3234479612177373 -0.9998035854732114 0.0012789007977565038 0.003228884948755186 0.45016400079447316 -0.26321112482133724
96904000.0 0.6197685948322207 -0.7801279811657154 -0.34401634167334355 -1.0355689846218306 0.0031815231417667345 0.00025890930428766845 0.45128545450874064 -0.2657962988189252
97903000.0 0.6103472987807591 -0.786541528530459 -0.36675687409144236 -1.0639933686427157 -0.001617161974498145 -0.001020329809111868 0.4483934050482278 -0.2775563103700867
98902000.0 0.6047249234515775 -0.7915811113388722 -0.38281303367365 -1.0981394949302101 0.0008736697578480908 -0.0019041871585864817 0.4418015167834044 -0.2844690777569387
99901000.0 0.5958014694261139 -0.7991353788881352 -0.40869338308566655 -1.129334087879664 -0.0010955439902891513 -0.0009075446441042576 0.45037417514472305 -0.31277451392130773
100900000.0 0.587644164052556 -0.8020146751344222 -0.43691005453205844 -1.1593383626749327 0.0012982150086354787 0.002009527717488262 0.45856377038235674 -0.3035304910972162
101899000.0 0.5769651674964607 -0.8116513020846953 -0.46311456217508457 -1.1904897046112495 0.002306277946513817 -0.000769302787219707 0.4406799762770786 -0.32035493690348116
102898000.0 0.5673961739261583 -0.81549078674376 -0.49690256583778936 -1.2244409599485886 0.002063199672244928 -0.0012312137747151882 0.4447345106394821 -0.33989160114845496
103897000.0 0.557348139796779 -0.8248688466235526 -0.5348373382395765 -1.2600130894612982 -0.0029616741951666403 -0.0018288906150407225 0.44928963187446247 -0.3288295347670431
104896000.0 0.5494452155589976 -0.8331072753015225 -0.5793364779112605 -1.2840760563367637 -0.0002151314315012787 0.0013790595971588937 0.4332912345096701 -0.3218592558527502
105895000.0 0.5420625801486502 -0.8356302559975841 -0.6191664138591965 -1.327666913942553 0.0007393885878290138 0.00222364013812672 0.4299974133872416 -0.3531313346182715
106894000.0 0.5313681740977795 -0.8436725928972636 -0.671813405612024 -1.358893907272004 0.00231238611011569 -0.00046824824115529473 0.426592765252386 -0.3677700664251003
107893000.0 0.5251911174579853 -0.8485128087148907 -0.7211081514838285 -1.3960026090117366 -0.001407257181966524 9.811179877893068e-05 0.435431442885377 -0.3661344366537498
108892000.0 0.5137466353088075 -0.8514756629768575 -0.7849101461178167 -1.4328470103766515 -0.0014473464646082832 -0.0005323979558017703 0.4365041768779909 -0.3572106342944841
109891000.0 0.5012432101006202 -0.860259060265584 -0.8402391503202276 -1.4650990535349966 0.0029754175519620834 0.0020590755969793735 0.44380332736363054 -0.37313436389720284
110890000.0 0.4875249855218546 -0.8618934240246385 -0.8962333010983474 -1.4636406295270568 -0.0005180167163762945 0.0033233491794237833 0.42249165998949556 -0.3783710721623953
111889000.0 0.48289689513898176 -0.8662643039864516 -0.9570330699438193 -1.5298588044437007 0.0005821522804454138 0.0009532661159346872 0.42182794113176686 -0.4000569842916565
