! Created with skrf 1.9.0 (http://scikit-rf.org).
# Hz S RI R 50.0 
!freq ReS11 ImS11 ReS21 ImS21 ReS12 ImS12 ReS22 ImS22
1000000.0 0.9697659432945547 0.000719003513749532 0.001797491829348137 -0.01878195462680939 0.007029871855013147 0.007680932481938245 0.39673183214010216 0.3384763205672707
1999000.0 0.9997488232862071 -0.008906417107023428 0.00963971900152561 -0.011966572235511978 -0.00383041974480456 -0.003587854753109631 0.23943158316215493 -0.043383078997163094
2998000.0 0.9986867382834381 -0.023826344750034974 0.01048929849635019 -0.019008613134694114 -0.0015583237708142632 0.00021404516200843098 0.19885368008895693 -0.12775572728875514
3997000.0 0.9987547491833669 -0.031491937507240386 0.013822950293397269 -0.009770534639346424 -0.0031434716817142624 -0.003678511626631145 0.0958870759491119 -0.22408822545760684
4996000.0 0.9974629050885099 -0.03583815760373599 0.011935102871937994 -0.0013302131892134557 0.0014729237867279197 -0.006348799968576037 -0.04745051230479863 -0.19757899622037806
5995000.0 0.9978320266187963 -0.0488669303627295 0.010046291399763086 0.0004728700883353374 0.0008008464871937936 -0.005424611752406743 -0.12131291385530765 -0.10601795235682825
6994000.0 0.9963113888962428 -0.05810980100189227 0.005077426968020814 0.004306079422875867 -0.0034032570538798084 0.0023478977517382067 -0.1432657345775852 -0.02955888801418115
7993000.0 0.9933283746907079 -0.06761838012904979 0.004250444573992673 0.005000440316553758 0.003584284700030277 -0.0025874325914173823 -0.16014031780811164 0.026457771030020696
8992000.0 0.9933586900843682 -0.07519268325354822 0.004283789956057089 0.003390224444853821 8.685403506546258e-05 0.002677105854150868 -0.1656331041775858 0.0644347795717267
9991000.0 0.9933630252214427 -0.07968450137356313 0.0037592972718645066 0.005973495605652696 -0.004022715515575267 0.0016693615659736539 -0.13941676549061488 0.07681922833884033
10990000.0 0.9922285925935418 -0.09593856764012641 0.0021984539860391322 0.00518024755452562 -0.0025066358975709187 -7.729999672363248e-05 -0.12262054738528697 0.12190616655006667
11989000.0 0.9914479929778587 -0.09892641890403209 0.003720976017915573 -0.0008653158724986875 0.005826014993155143 0.0006895730890453003 -0.12635289909399444 0.14014043225116318
12988000.0 0.9896338931057352 -0.11118212995075337 -0.000945045166916794 -0.0012827522138866916 -0.003329627984280595 0.0008750625581960094 -0.11654829671889388 0.16307534853841235
13987000.0 0.988756493283853 -0.12049589204208598 0.0009427380451973067 -0.0038804832871314576 -0.003209882387869647 0.002667608694925898 -0.1075143298574944 0.1912221133035975
14986000.0 0.9860821744505415 -0.12578268154198274 0.0010902493339054198 -0.0058923044719039076 -5.3423233329629686e-05 0.001992496747627634 -0.08411828085788842 0.20147272937922245
15985000.0 0.9879303596332226 -0.13472830999820165 -0.00014151103677444136 0.0024338881360135003 -0.0026519025506281367 0.002355940395971847 -0.07150084565514994 0.22591041649469912
16984000.0 0.9847358604522692 -0.14740652085077152 -0.005137525172655993 -0.007949902283853933 0.0027998983882181576 -8.843126854999806e-05 -0.056569338620890676 0.20584824256805062
17983000.0 0.9856219141878283 -0.14900065938686785 -0.00031591248347940154 -0.008164232812468718 0.002165211733577339 -0.004603585418049611 -0.049739419274594555 0.21853675075919404
18982000.0 0.9843372729620997 -0.1601828036261597 0.0024481182265776676 -0.0028916800806621425 -0.000895915275065592 0.002501974264592892 -0.02057913893352702 0.2375171712383014
19981000.0 0.982948084774896 -0.16819641661570497 -0.003263434943541572 -8.181154043875246e-07 0.00300739643686736 0.001850366997764905 -0.015441176282391233 0.23156498228364783
20980000.0 0.9801462580659488 -0.17814421796207325 -0.000948997420025036 -0.004980155989935036 -0.0033896274411244296 0.003198471994324204 0.0003902990177657301 0.24621723311982274
21979000.0 0.9780772162466307 -0.18607458276788316 -0.00502221718324145 -0.005683416892095311 -0.002306227205381508 0.00043236119286332815 0.01729900515283763 0.2340622648714698
22978000.0 0.9758229165100608 -0.19611888123992252 -0.006681086066773887 -0.0005758377734404363 -0.0008499362134081652 -0.0005487540458733674 0.030579980437512266 0.2590586973905554
23977000.0 0.9772478212822265 -0.20253737094951507 -0.004492740590889324 -0.004535438196941443 -0.0004774685773749212 -0.0004888919112355705 0.03623711782375965 0.2571460110659253
24976000.0 0.9738859861193553 -0.2144285352217165 -0.002645081841258292 -0.00206311921348371 0.004699990198204224 0.004726932407638618 0.06914556785773066 0.2582681379978606
25975000.0 0.9635899204109537 -0.22520697926887584 -0.004047881424568211 -0.007831277427082738 -0.0029495278794477373 -0.026890077741069482 0.07733450389041159 0.2584202101191467
26974000.0 0.9674138443567086 -0.23150678883560608 -0.004087229509157233 -0.007270253239542233 0.0013847063068281413 -0.0006337522438866545 0.08835564546536016 0.2644047388622972
27973000.0 0.9679050658444198 -0.23640044015760514 -0.004422885719251554 -0.0023369640163341545 -0.00246848233994641 0.0017321254884888387 0.09856535442326218 0.25450519852336356
28972000.0 0.9660224911184563 -0.24486092664876483 -0.00290618471923914 -0.0023050156360556262 0.0025107168989139854 -0.0009269152761216861 0.11700109061440966 0.2490511943778602
29971000.0 0.9633437741958611 -0.2566194631863952 0.0015942377108722609 -0.00034106723243632455 0.0015371858323128408 0.0004801040052953931 0.15479906767035428 0.2596511793356408
30970000.0 0.9619878419481407 -0.26111031207702057 0.0010544726948814656 -0.0032132728704617384 0.0016875140883106936 0.002660036325288233 0.1607493997959934 0.2536958332594918
31969000.0 0.9601580190981807 -0.2701037789858889 0.0067790310805147585 -0.0058956439148506005 -0.0011681099555853006 0.0005842789841261681 0.15870800183524775 0.24617692433585847
32968000.0 0.9582134817698892 -0.2790683512339339 0.008666830423801553 -0.008196376660913515 -0.001228622987671428 0.0011173282214127298 0.16363690493950928 0.245442663218557
33967000.0 0.9554941630742383 -0.28829524763870285 0.013015846061091157 -0.00961589108268068 0.002418171941244906 0.0008945810901068964 0.1952667623550123 0.251784833489611
34966000.0 0.9518760841562437 -0.30003858196801253 0.012000945513637026 -0.012450634971707881 -0.0015211332465564257 0.0013810455187359713 0.19209123695994143 0.2455674377115167
35965000.0 0.9486254225618611 -0.305317635464004 0.014713452588346294 -0.014615989803310817 -0.00017645492061806528 0.0003111418966832854 0.20781168493845653 0.2427158646422596
36964000.0 0.9469426706290178 -0.3151752600791877 0.015949538339774135 -0.01413555672048593 -0.0028704611819061615 -1.9815813227911436e-05 0.2191171800070841 0.24274256580736533
37963000.0 0.9444371722821384 -0.32283530248830966 0.024240788761642696 -0.023080062417883913 -0.0009917286013306915 -0.0008180034715810627 0.22858485887923655 0.2331379537444719
38962000.0 0.9408956553012151 -0.33353617627672244 0.02318719145183892 -0.023814836612199717 -1.5458093186872095e-05 -0.0019407292743015515 0.23701409359095202 0.2298095364084342
39961000.0 0.9396779024523647 -0.3386006408849875 0.024121996750974924 -0.026861515660065706 0.0021910220829927615 0.0012442758766198355 0.2519725658326504 0.22174430371874418
40960000.0 0.9344084690703105 -0.3491681850608364 0.019764641811441327 -0.024251650139019927 0.0014644361194961044 0.002171527470241901 0.2734166426965275 0.22728980658744782
41959000.0 0.9322323937635956 -0.3578711906298082 0.02772632478857287 -0.031749963289562554 0.0017408447322782297 0.0011618051028030214 0.26861814530381267 0.2120834562867641
42958000.0 0.9255885591394902 -0.3687648514840893 0.028309083885879556 -0.04156247291995791 -0.003719854593333252 0.002525158078013633 0.2805890416729761 0.20343667697109302
43957000.0 0.9253919261164498 -0.3727112732712644 0.03177877145458618 -0.04603404179612277 -0.001574805507340064 0.002576060238377861 0.2888870870077807 0.21036797475176425
44956000.0 0.9216409498826815 -0.379949710467515 0.0300108265048386 -0.05473669067139954 0.0006861881069250272 -0.0005173068913861938 0.31125493452730985 0.1899306909964793
45955000.0 0.9178523617548124 -0.3912214926689394 0.033000939060685484 -0.058545513230246114 0.0004792479309073937 -0.0012104143456539921 0.30502249619872296 0.2001177322020716
46954000.0 0.9123256008090693 -0.4010778114448251 0.03527784643001497 -0.06496442935145572 -0.00021116570697924747 -0.0024447255387680957 0.3255904627151316 0.17756092381193142
47953000.0 0.911411667613939 -0.407641564204607 0.034301759158759125 -0.07311160556679415 0.0037101320458791187 -0.0036053481947574528 0.33690457483427555 0.16956246020784208
48952000.0 0.9041398399002424 -0.4197742238515413 0.03375583791879848 -0.07738736131242496 0.0023323117268960205 -0.00253230566926335 0.3304564503128012 0.17298864896767985
49951000.0 0.9007080325889895 -0.4241673517029239 0.035201998717613724 -0.08667085164416652 0.001569173918779587 -0.003205219913379098 0.35868189972238057 0.15201601980562482
50950000.0 0.8980248163885107 -0.43478534690164244 0.03688977010131442 -0.09340635237028672 -0.0004941356030135659 0.0005808064709388315 0.35322466441542166 0.1463454867722703
51949000.0 0.894262250277589 -0.44073196459692227 0.03826731803388738 -0.103984452567407 -0.00445874907192738 0.002384966446406892 0.35980335930909885 0.14075841993247679
52948000.0 0.8928405218291355 -0.44914977640078707 0.04052756612832654 -0.11185844886732571 -0.003318689656008156 0.0018571202020075243 0.3681932345779977 0.14169927233755142
53947000.0 0.8848969191366921 -0.458135758980229 0.03705019356530661 -0.12224041262554423 -0.0010118653571554448 3.737163013803533e-05 0.37596504741284137 0.13219749628438482
54946000.0 0.8812045394791813 -0.46416153091061313 0.04145453223422831 -0.13042817503918133 -0.0025273316438343026 0.003020359792305182 0.38507912499508634 0.11893644117455632
55945000.0 0.8775265338711756 -0.4750807876783067 0.042760725931195384 -0.14026188795177824 0.0022270307928949737 -2.1332299139691955e-05 0.3853176758770258 0.10873223590438717
56944000.0 0.874159549749115 -0.48193910235570697 0.044100586716122776 -0.15140683739162422 -0.0011452878435219771 -0.000689043114547834 0.39647180051527253 0.10326251887891337
57943000.0 0.8702431082975122 -0.4929505438709694 0.042095643779866854 -0.16155710243068408 -0.0014165126060474683 0.0027256049226747096 0.40736809888047915 0.0911311344948266
58942000.0 0.863858786111835 -0.4963158076339971 0.046589293176816086 -0.171624354763229 0.00023483358887431977 -0.0025932778864610644 0.42135312673236874 0.09767324899431974
59941000.0 0.8599559788156506 -0.5079208167689294 0.04712667869802569 -0.17918348680049467 0.0007329274627579476 0.00417768336089934 0.4265308136915062 0.09273778398728105
60940000.0 0.8512182864752965 -0.5152598226041498 0.04619283807342081 -0.18457309020746424 0.000851692396210282 0.0022722937711347068 0.41025662781811534 0.080534590489543
61939000.0 0.848764721648732 -0.521727834344259 0.04930919087122727 -0.19129834742076285 -0.0007238165771378212 -0.00010376334062880042 0.4251880915112289 0.06969606117743578
62938000.0 0.8431273355961144 -0.5318174658090851 0.05286729916736336 -0.21167645883637723 -0.0027626164232144148 -0.001343605511147521 0.44577068997104274 0.05267518932619539
63937000.0 0.8394063624261238 -0.5383309332070216 0.05195221294408406 -0.22699565459916307 -0.00026334904117584465 0.0006409291622151104 0.43345629669791186 0.04657652312798593
64936000.0 0.8309697635336926 -0.5469943358187167 0.05273613828302272 -0.2462625223246199 -0.002192801392846042 0.0002575262047956618 0.43744757577891463 0.04174989727113985
65935000.0 0.8289845812331659 -0.5550768006120168 0.05126850192983256 -0.25688336874237455 0.0010809379856909945 0.0014686824514817 0.4455208815441447 0.011888128590242249
66934000.0 0.8243104127004104 -0.5606817219980326 0.049449362864315706 -0.27141311005836327 -0.001166148756615862 -0.0016915292050518308 0.4400109977476785 0.020569116655679516
67933000.0 0.822408407273465 -0.5698875022896382 0.051683744174659096 -0.28276238054801134 0.0005255754002567973 -0.001849538925528443 0.44402653433537015 0.020536391270163733
68932000.0 0.8159082506373588 -0.5653723261408228 0.05203413229009728 -0.2934514036034189 0.000449505981733465 -0.00033011354108978 0.4609763019937047 -0.0062387164111548325
69931000.0 0.8047289868065696 -0.5874817674773166 0.04969705803681001 -0.3121545198515247 0.00071190681648471 2.4561284808523774e-05 0.4537030259648965 -0.005144962112249244
70930000.0 0.7999769586292664 -0.5947929691642874 0.04521122046527677 -0.3242192077257147 0.0006809933703276593 -0.001068596689005621 0.4539738643185309 -0.026086185580496458
71929000.0 0.7971039048681452 -0.6032487248738739 0.04251969763905847 -0.3416413605971078 0.004534033065713016 0.0022295881090284454 0.45538143565499856 -0.03885182638734498
72928000.0 0.7890808580416 -0.6116716271107663 0.038047880643780466 -0.35470063513419414 0.005135197792536879 0.0030453874604103115 0.46671031486059905 -0.038951017141154815
73927000.0 0.784512687653027 -0.6159094701150685 0.030531547454710078 -0.37967203428023033 -0.003716005020448252 0.0007611311614980609 0.46034797976121766 -0.052601971092018654
74926000.0 0.7773042692374906 -0.6243650533102976 0.02149833928988352 -0.39914462021274577 0.002070954704516804 0.0014323970443769136 0.4740020469164351 -0.06187269246597946
75925000.0 0.7707098623815803 -0.6311680983294113 0.010661558206978006 -0.4103655416104515 0.0006511627085485111 -0.0012162864690408123 0.46187790396210104 -0.07877163327985628
76924000.0 0.7652250979204129 -0.6399621932463624 -0.002527203248053002 -0.4385464786791738 -0.0008465605999127529 0.0028219834515596223 0.46842889926886827 -0.08449772979054783
77923000.0 0.757907758816098 -0.6457803244775729 -0.01396776466651432 -0.4610995913654998 0.002427308444677935 -0.001823194099484524 0.4617250843567338 -0.1011269649735769
78922000.0 0.7528743093095026 -0.6557877929351379 -0.027839116698605622 -0.4894067423405622 -0.0013208328539962525 0.0009965948237393744 0.4617155912095604 -0.1058158388995056
79921000.0 0.7443273205563745 -0.6607936262248358 -0.04523904332867965 -0.5128580355908112 -0.0019152781078505062 -0.0028717842612718284 0.4541433032135678 -0.1141292247072127
80920000.0 0.7402023660096978 -0.6708016136799654 -0.06324503316379929 -0.5379425864644942 -0.0037466508330172266 0.0010658012832847038 0.4717076558893233 -0.12428074668427028
81919000.0 0.7334833513495501 -0.6751280987316648 -0.07539809748706265 -0.5652659163467504 -0.0043199297611836605 -0.004268300007759492 0.4669928853210738 -0.12827649250154308
82918000.0 0.7246214826552253 -0.6841487277855179 -0.09075293995223091 -0.5964212072847734 0.00034369426375100185 -0.0059610594445924335 0.48276206302923597 -0.13795804298682973
83917000.0 0.7175454227665451 -0.6914372380135309 -0.11683137755695168 -0.6240362243741504 -0.0013786720281097344 -0.0027884134761917557 0.4755609508149604 -0.1418001694708817
84916000.0 0.7113389043697125 -0.699048487773271 -0.12997356294073373 -0.6580833115043194 0.0021567307113844157 -0.003140384873000645 0.4640250339096378 -0.15850383138006316
85915000.0 0.7041666475061665 -0.704608021560872 -0.1516012887792585 -0.6862555417375279 0.0052616739191849345 -0.0038428123511653613 0.4668431920289151 -0.17500696323647677
86914000.0 0.6967010628919398 -0.7153738977955804 -0.16389016047654018 -0.723545657953231 0.004369711531434408 0.00013267807307224853 0.4600723841256869 -0.17631825334577925
87913000.0 0.6899581196596914 -0.7217035020953292 -0.17969658927551144 -0.7554955184809161 -0.00047453730531962736 -0.0014509074052498963 0.4612945910722931 -0.16940279156922375
88912000.0 0.6824077966833333 -0.7278997087551268 -0.19630894019859038 -0.788336146924081 0.002528511304558981 -0.0016750458977942777 0.4756102267937499 -0.20189745219342847
89911000.0 0.6752161713722855 -0.7365277992868651 -0.21247074848806635 -0.8225944181228808 0.0036760080393462304 -0.003425249051917522 0.4689062179595442 -0.2059350438946136
90910000.0 0.6681291298314085 -0.741342376117624 -0.23015810133834902 -0.8546863064296317 -0.0005305376115446197 0.0009599706880798654 0.47041876608173755 -0.20171099192442501
91909000.0 0.6591736943289466 -0.7464227337840993 -0.24880125500613048 -0.8860364112988667 -0.0003048820858987545 0.0017798336979049545 0.46782805672948974 -0.22514372355610826
92908000.0 0.6480914918030807 -0.7553848176859642 -0.26600171028321046 -0.9150612796853592 -0.0011103823332616178 0.00269722688284495 0.45301510161296776 -0.2300209838266771
93907000.0 0.6455074074852509 -0.7604312977953169 -0.2801390062499486 -0.9502292727396328 -0.0005700495254709082 0.001639441372624954 0.4644917898443401 -0.24346108595872432
94906000.0 0.631576792922577 -0.7681836264602574 -0.3025236010784011 -0.9809734135074999 -0.0017882652800217714 0.00010958027543611888 0.4571225959031276 -0.2435518242936931
95905000.0 0.623896124512429 -0.7752214515429585 -0.3217633378479077 -1.0177148426066964 -0.003379583640639476 -0.0003379068053911229 0.4645916468493392 -0.25643412531451204
96904000.0 0.614620066042036 -0.7842760278501972 -0.33958084292478413 -1.0517675239341122 -0.001196603938156727 -0.0022073458187125573 0.46717840128694577 -0.2726885799148426
97903000.0 0.6066727175304931 -0.78872984515179 -0.3616252971923544 -1.0819420589160684 -0.005938390140201469 0.0034124088156840134 0.45042677468413106 -0.2711419645013494
98902000.0 0.6005531490045656 -0.7962068257662075 -0.38004011381599856 -1.1229249047606535 -0.0037935336256682164 -0.0006874340028203117 0.44768238230923596 -0.2921577395824507
99901000.0 0.589873892240606 -0.8017639248188446 -0.40919411211804135 -1.1475401526778608 0.003784173673392149 0.0012318114000344242 0.46055455152911157 -0.30464718584424666
100900000.0 0.5836057473331946 -0.806568257394663 -0.43761914416495395 -1.1794742564195004 0.004773658355952648 -0.0005828257141234143 0.4587406379303839 -0.31887147355827306
101899000.0 0.5721279554051641 -0.8138671595223059 -0.46252023311074475 -1.2159938544101208 -0.0006279300718128447 -0.00042861516044479317 0.453534891133349 -0.31070774098767034
102898000.0 0.5651343450955154 -0.8189167736586318 -0.4949138861103492 -1.256026119785792 0.0013455686258048202 0.0011491245877839915 0.45709417455527324 -0.3234811864709189
103897000.0 0.5553344465375383 -0.8263360427446247 -0.540870871089247 -1.2870500083381218 0.0007889653765850956 -0.0009761808584447548 0.46776310668914645 -0.32734093533427533
104896000.0 0.5466665906716454 -0.8359876212417502 -0.584902967245879 -1.3179064840237968 -0.003316652981903447 -0.00051589645100153 0.44632858673341236 -0.3315598279489763
105895000.0 0.5341986190900408 -0.8389304000048474 -0.632911578104234 -1.3594523304708437 -0.00013918961469297833 0.0022129783346570794 0.43830417677182193 -0.3471809778161464
106894000.0 0.527619401678564 -0.8438744724379059 -0.684354455295695 -1.3985109271224636 -0.0018052618622432554 -0.001169382631970825 0.4458888886125723 -0.3702940118025744
107893000.0 0.5176956044363371 -0.852314357023449 -0.7401890919507594 -1.429700018109432 0.0006468720454180373 0.0006265313243355713 0.441266879514952 -0.3822500827575277
108892000.0 0.5093297455607481 -0.8539416260652853 -0.7977135506259165 -1.4584072071091094 -0.001225660811519476 0.0029835014254319405 0.4279639305390676 -0.3757753912945233
109891000.0 0.497971356259674 -0.8630845176521825 -0.8484766136337921 -1.499272620778667 -0.0015858848663873255 0.0006551802481360794 0.44266014668796677 -0.3720417981358919
110890000.0 0.4836287421627286 -0.8628935738566471 -0.9063127410936975 -1.4961180153421147 -0.00120349104234282 0.0004292822324317568 0.4325357065815282 -0.37833195621836935
111889000.0 0.4773294148131003 -0.8683782585320657 -0.9711710091892423 -1.5606872519215211 0.0005883731855143006 0.0019239865722150337 0.4163995619628178 -0.38944319059674604
