! Created with skrf 1.9.0 (http://scikit-rf.org).
# Hz S RI R 50.0 
!freq ReS11 ImS11 ReS21 ImS21 ReS12 ImS12 ReS22 ImS22
1000000.0 0.9808673591041971 0.007035351987089365 -0.018592949672446638 -0.051873230403435125 -0.02201331276075935 0.00631788810235584 0.3287245644960155 0.34773794443072353
1999000.0 0.9957570888964423 -0.010353700146943524 0.005050582754381359 -0.012395239964762505 -0.006417022403485366 0.0060132573801531955 0.2376787351861368 -0.05227519037094232
2998000.0 0.9986929736168368 -0.023756178142119708 0.014719835189463482 -0.010045676758438557 -0.004200822673949866 -0.0020818015642535903 0.17816287799567643 -0.15381979387028744
3997000.0 0.9973458345141704 -0.030830089715129926 0.010694157581124656 -0.008490976168996946 -0.004104686812604398 0.004616449880517663 0.09321493122966146 -0.2379382100564125
4996000.0 0.9961069537661947 -0.035437078161607655 0.003107423565588578 0.0022964759309265074 -0.0042203923994791 -0.005243050791945377 -0.05307785846001742 -0.20957306523391397
5995000.0 0.9964001889074778 -0.04973723567009366 0.009431887597728885 0.0006559390863579046 0.0026889501493080887 0.002344905500982078 -0.11493813435531401 -0.10979313237138189
6994000.0 0.995557774318008 -0.0590541401506633 0.011417417220966375 0.0006946848690337655 -0.0035645132138673406 0.000299989911478906 -0.14912829361756846 -0.034962349566387614
7993000.0 0.9974291685598632 -0.07015637184618403 0.0045990996882528425 0.004933898016377376 -0.0027464100320384118 0.0035190567055560177 -0.1581477039975844 0.037408549000093896
8992000.0 0.997271657347635 -0.07245259407496323 0.0011075625180400057 0.0007945421059842468 0.0015852109754964636 0.003008374610976091 -0.16733040966873078 0.058608534116668824
9991000.0 0.9930134762156583 -0.08377192412320705 0.00020797344571445286 0.007832850351890214 0.0009779896486000405 -0.00030816435273270864 -0.1498587135694548 0.09158065832733517
10990000.0 0.9938366017796121 -0.09158448050381061 0.00021552296342725662 0.0010792447869063502 -0.0002478728685496397 -0.002170979794436828 -0.14303846568682055 0.12022508612581762
11989000.0 0.9904869943162702 -0.10012561552031007 0.007974806181090054 -0.0012607935272073239 -0.0001150598450422175 -0.004935058342645491 -0.12580119044537072 0.13395743269982283
12988000.0 0.9898742214172098 -0.11069550768514852 0.002479664579281874 -0.0007076329973537452 0.001584231623815932 -0.0027955893429832527 -0.1102975412627944 0.16575699724712126
13987000.0 0.9887281632776748 -0.11447560668786962 -0.0009539952629683541 -0.008152066255688427 -0.0008221497725805085 0.00253620931900244 -0.0923598188298741 0.1874193268761598
14986000.0 0.9892077236705425 -0.12470258548860816 -0.005227403100052473 -0.0015553200955307563 0.0033028674644459393 0.0015818055591015135 -0.0946879434710454 0.19478060573687542
15985000.0 0.9899988045497373 -0.13356069782346536 -0.002368784878002762 -0.005821727937128755 0.002476690772398463 -0.0005027374550123589 -0.07036966658947946 0.21729985301600066
16984000.0 0.9865122521512018 -0.14165862485413167 -0.004564681753181971 -0.003709682481111769 0.0012348284942990037 0.001985681355849235 -0.057406589298109 0.20756726479136406
17983000.0 0.9875032614196815 -0.1479049482285572 -0.004324870703834296 -0.0020134824176078216 -0.00017637707306043544 -0.0011779974791291507 -0.050979159687369845 0.225875924652473
18982000.0 0.9813460751172673 -0.16294967831184828 -0.001284375489256812 -0.006870173180902817 0.0031449223596068947 -0.0006087851744816092 -0.03096177615645015 0.23573007010188132
19981000.0 0.9830821382519692 -0.1664833309221557 -0.0021695893577146144 -0.0017182006939212564 0.0017557336468470037 0.0023552371566000147 -0.01958374818786343 0.2365717329525325
20980000.0 0.982365995909301 -0.17596706786818705 -0.005924411638313152 -0.0024380501573018688 -0.0022615254052164085 0.0037724873157587635 -0.00834371427852707 0.2664773559793297
21979000.0 0.9814323820402514 -0.1831411224706178 -0.003558363451207404 -0.004043645602375575 0.0050478586013855175 -0.0017854395164827752 0.011746493457535959 0.24789441752799127
22978000.0 0.9776914222650877 -0.19564014904224034 -0.006564585602844112 -0.003431108894939332 0.0037093938201961333 -0.002486057541548614 0.024678579889679114 0.26023585770773155
23977000.0 0.9782533961867698 -0.20168882908592348 -0.005815729667396865 -0.0019158384136090266 -0.0006085521650072007 0.0009739812389009598 0.03438853697656905 0.2600598840024565
24976000.0 0.9741798051742816 -0.21081230762837028 -0.007306858694952476 -0.0008186860303183349 0.0008229914938087424 -0.005012113791709387 0.05934638095057344 0.2651281299015052
25975000.0 0.973086606654817 -0.21549014409483622 -0.008002098074915207 -0.0017628165938175023 -0.018092371854890182 0.02062312952474424 0.08022260583639675 0.2642739260933967
26974000.0 0.9710278759923261 -0.22695718447282456 -0.007698564634740719 -0.0008914844983080242 0.001124588969585353 -0.0011008031279420287 0.09261715513327125 0.2673911733712607
27973000.0 0.9708173302281677 -0.2328677136286881 -0.0021437015828183023 -0.0007378689250444868 -0.0032017040358421557 0.0024163506794693634 0.10657884255636259 0.2474662716823165
28972000.0 0.9681061098954872 -0.24207178459503914 -0.005142686827053558 0.0013001198942212261 -0.003153029807507542 0.0022124278366240455 0.11223346664782483 0.25843270599560647
29971000.0 0.9653519937639623 -0.25205340141315846 -0.0010645024500333252 -0.0024911052802467112 -0.001248559353135093 0.0004679021899744411 0.150261983154322 0.26190303674362053
30970000.0 0.9630091326945646 -0.25625947379338493 0.001664100276615094 5.2010285099650375e-05 -0.00434784317037023 0.0020545823010930833 0.16862527108528497 0.2572782818105993
31969000.0 0.9611222590220554 -0.2664867391772825 0.006014767196252776 -0.0037454700871027563 0.00039233354883547915 0.0005402210504396868 0.13915956988968864 0.25533253402791595
32968000.0 0.9589916215960546 -0.2755152802760127 0.008182124949279933 -0.006633908517372759 -0.0024937474622877317 -0.0005866532489038977 0.16732296706753155 0.23751417461220653
33967000.0 0.9576000027431256 -0.28325716547753194 0.011443282038587453 -0.009268965660538492 -0.0001738445523819792 0.002099966455220442 0.18046466273332287 0.24617325975326407
34966000.0 0.9556536744692612 -0.29169486777349934 0.012469131775170332 -0.013035073848407516 6.2447255579355e-05 0.0025283628780931756 0.18815962199337358 0.2479452727041005
35965000.0 0.9514506159188114 -0.3011562017487181 0.016693523327011007 -0.01572511768288363 -0.0011555740860407582 -0.004500584035974782 0.2200995161288233 0.24922495956235574
36964000.0 0.9502674687704463 -0.30994594957445165 0.014418623603356941 -0.011867363639609182 -4.560138411548636e-05 6.892745350926485e-05 0.22424517934490945 0.24536279645979217
37963000.0 0.9471342656533928 -0.3181912402537327 0.0216124787127803 -0.01842404083336819 0.0006069533600324952 0.0006745551133193375 0.2311293597940229 0.23795065147674024
38962000.0 0.9449241018047504 -0.32697821919737363 0.024456846953222998 -0.02423619145712929 0.0014531246639478555 -5.310606375388586e-05 0.236476415767189 0.2349494221527339
39961000.0 0.9407895566313164 -0.33606543214298495 0.02872493924035092 -0.025613049353369617 0.0022517645102452977 -0.0021896000182909563 0.25533301332350034 0.2296550959681522
40960000.0 0.9365827037273139 -0.34383019503213275 0.02312549627482052 -0.024274651113934932 -0.0015047474505961746 -0.006386299780774804 0.26374302940588895 0.22387472969007557
41959000.0 0.9322920856203629 -0.3528156294321923 0.02985273951709714 -0.032196423207156835 -0.0020610135278590746 -0.002251125855162677 0.2705223511711588 0.21010669821980507
42958000.0 0.9288997372151662 -0.3617182517009546 0.027308380422874996 -0.04099524117601381 -0.0013235487007339354 -0.00436851296590562 0.2753010217430681 0.19934305073471392
43957000.0 0.9276833437889045 -0.3678400214572051 0.032215354371109554 -0.04655141362358218 0.0007796402607003113 0.00011240068057018398 0.2789176740883064 0.20873587685438574
44956000.0 0.9238937689846884 -0.37653802255982993 0.03465371703281336 -0.05274635651805441 -0.000817388491351901 0.0013176106902288943 0.30188222500394873 0.19112480081000816
45955000.0 0.9193391306581987 -0.38600989632084237 0.03399145467357396 -0.05848041428054667 -0.001024591477641212 -0.00037071054113552995 0.2978244636903867 0.19084657624262885
46954000.0 0.9172963745975787 -0.39361745252864305 0.035490439923058836 -0.06530985873532227 -0.00022151975135755995 -0.0024721726096370144 0.315634288365865 0.18344021859116388
47953000.0 0.9136993113131194 -0.40057729289855065 0.03431675350079651 -0.07042578643633006 -0.003319668933992998 0.0003122212125765822 0.33161059428394307 0.17047585118910577
48952000.0 0.9068535519014996 -0.41132187694509276 0.032554616684158495 -0.07852347699075424 0.0024756841989105353 -0.001829853739746623 0.33530079201313373 0.1714663557359439
49951000.0 0.9067640920779951 -0.41614022678175355 0.036788622519716624 -0.0853403878824194 0.0008054564709415568 0.0008592999492030552 0.3508769816577077 0.14363835682984083
50950000.0 0.9019696729689123 -0.426500917192863 0.034462704223835815 -0.09446811563564932 -0.0019612873670475685 0.0032215861835995663 0.3444445691456887 0.15157402461847097
51949000.0 0.8978719539094914 -0.4348760802651166 0.036501353580688956 -0.10193926427406431 0.00043910648046928305 0.00279803953590972 0.3670876832175063 0.14155577464379102
52948000.0 0.894607366247287 -0.4429122548271753 0.04121604003171005 -0.11027213115558471 0.0005992846667774259 0.003165653182770733 0.3770839254923567 0.13117538433820128
53947000.0 0.8899692107981788 -0.44970478096220723 0.0423199251713966 -0.12143520627992277 0.0006499074408922172 0.00017735749426773392 0.37478655424098906 0.12506684325658096
54946000.0 0.8846124637636346 -0.45947399590839993 0.042574983122171554 -0.12877044128074114 0.004206175721355471 0.00037402261732250665 0.3848943439906144 0.10968510346917941
55945000.0 0.8817802091520192 -0.46789658722074623 0.04367965681493154 -0.14205857855789564 0.00010288348514726287 -0.00035378802219480655 0.38947840833605296 0.10060084774620326
56944000.0 0.8777367283249875 -0.47554591146318065 0.04830300422354428 -0.14995867446423453 -0.0004035340474056521 0.00038512965523108315 0.40409342513010427 0.10147571707985531
57943000.0 0.8742107668420815 -0.48500978330584193 0.0457138923731798 -0.1602323453273194 0.0025542377534128803 0.0016719622237180846 0.4072001847178695 0.0923918097321022
58942000.0 0.8671010054165493 -0.4909754092972571 0.047910964580884466 -0.17057661064512694 0.003115557718568775 0.0027291552946409133 0.41386100321823605 0.09686851932488282
59941000.0 0.8665596314585682 -0.496229621710948 0.05225849490469978 -0.18208946493483766 0.000211111480042574 -0.0008067015511800097 0.4261673682110074 0.08267191140038824
60940000.0 0.8577108103277548 -0.5060531308320366 0.05094499280198968 -0.18686086135155544 0.00012239761158051117 -0.0004889386116261184 0.4053083139233065 0.07472986929606137
61939000.0 0.8545706088880427 -0.5133401494075055 0.04810545734806238 -0.1932715492304642 -0.001579209054093924 0.0028747211630465613 0.41859361201487083 0.07483677925053801
62938000.0 0.8485859464286335 -0.5227701881905858 0.05356511296696161 -0.20983848106064018 -0.00031760753000174884 0.000853093988659625 0.4410511371049183 0.05271069657876458
63937000.0 0.8446899647478475 -0.5292905745035332 0.05202156904732299 -0.22897938955987854 0.0006000529743345487 -0.001458111492690892 0.43623446541151467 0.03154639097659827
64936000.0 0.8383824616645095 -0.5349226683609112 0.05295727716821243 -0.24577917538092833 -0.0009359674129194434 -0.0013307464182002835 0.4371840106980388 0.04906055885308579
65935000.0 0.8346048118641094 -0.5471106744903398 0.054656666579024626 -0.2579066864903454 -0.0020606317455207856 0.0016955408319329736 0.4418365967688971 0.024056394733209786
66934000.0 0.8304217377041326 -0.5520440149783788 0.055605200853821486 -0.26797859255510725 -0.000849502761069105 -1.4625856118777509e-05 0.4370056272443409 0.007277150707536706
67933000.0 0.8285668086100658 -0.561049461457482 0.05521144136728144 -0.2858542674269307 0.001058509384221907 -0.0012703995451176608 0.4413782567085927 -0.00026787281241464944
68932000.0 0.8094279687206132 -0.5601653578764239 0.04771324628650026 -0.2948866862083871 0.00027772795671049985 -0.0010915217515292174 0.45414046870657665 -0.0023153199370463686
69931000.0 0.8121273108776528 -0.5764395648206604 0.05083664436509524 -0.3144695953594033 -0.0016686243120233352 -0.0025439091310274138 0.45220697863793274 -0.023810564247666546
70930000.0 0.8061848170798911 -0.5827092073323217 0.04664810168199772 -0.32760622531402844 -0.005814148023640418 -0.0005406446563864484 0.45293376591625245 -0.023830312396849032
71929000.0 0.8051191340803092 -0.5905461620252671 0.04355967504540796 -0.34440268328157436 -0.001334417436502627 -0.005452658401748431 0.4437492885293489 -0.04087206140026009
72928000.0 0.7991169539057268 -0.5975021994180711 0.039422522222574745 -0.3571779004650492 3.2173391442176374e-05 0.0009144910168126906 0.45935085843719886 -0.04124646586858684
73927000.0 0.7902660592733429 -0.6061604277463032 0.03430962777367424 -0.376684104007379 0.005694618845599458 0.0025888426012300346 0.45716603744304485 -0.04773206239913136
74926000.0 0.784421581621862 -0.6155076181347038 0.022966441364314992 -0.39698344711039574 -0.0008871378935772694 0.0013942820523912248 0.4619863975729178 -0.07476044129483145
75925000.0 0.7819501231595998 -0.620667316003257 0.01747132296907451 -0.4168617710409995 -0.0027425145181764208 0.0002965502515182798 0.4719744181873355 -0.07225679363718088
76924000.0 0.7738950012612851 -0.6294789971458901 0.0028341364760739595 -0.43851149681265483 0.00025264681163962246 -0.0014333514837165144 0.4619922850518806 -0.08130026852072436
77923000.0 0.7690448333429221 -0.6342121154728575 -0.007660381831917694 -0.4611596539463088 0.0011715268490476048 0.0020104406667346814 0.4649116574660829 -0.0972167532997253
78922000.0 0.7629601656333678 -0.6460595925932098 -0.022539391261743796 -0.4893226366966789 0.0005591008306232647 -0.0016801939811213393 0.460300699856736 -0.11285470269952892
79921000.0 0.7540179466746593 -0.6488307454410056 -0.04271443667049739 -0.5150777180612282 -0.0012992656742262247 -0.002822478836037123 0.4611263962950157 -0.11056687138547497
80920000.0 0.7504318029670042 -0.6595837334574673 -0.057377193278457035 -0.5401550089733932 -0.0011251245108333417 -0.003793994513968363 0.4667062962261482 -0.1285880911860458
81919000.0 0.7437530033712167 -0.6648981268692933 -0.07316209082677502 -0.5706981274385389 0.0013286933357641612 -0.0019624377296607164 0.46815183308975655 -0.13953984494652674
82918000.0 0.7337083346112778 -0.6742167296373957 -0.08720837965656246 -0.59693720433449 0.0013664052139163497 -0.0011615156361763773 0.47667246530370466 -0.14079905373719123
83917000.0 0.726481207531678 -0.6818734125835344 -0.1088648646840265 -0.6288080383410573 0.0016184188489579338 -0.002328563448531664 0.47438955301768587 -0.14503070822305253
84916000.0 0.7229684262416697 -0.6867509242124421 -0.12344575884903593 -0.6631765838109678 -0.0016878331144481906 -2.94145455917842e-05 0.4660487455198419 -0.17236668949765702
85915000.0 0.7151474605520971 -0.6942117051410807 -0.14383003934641253 -0.6904980659513896 -0.0009063761908345572 0.0007044079514317242 0.4724121418273169 -0.18706207256984786
86914000.0 0.708251424967775 -0.7046609742643025 -0.16182983702457826 -0.7271594350791292 0.003829906857028831 0.0023439273699889986 0.4740588468620126 -0.18387938652513208
87913000.0 0.7006688149431579 -0.7108362298927586 -0.17470031355769294 -0.7548632173982541 -0.00039559224063758083 -0.0010658884121348437 0.454180921786449 -0.18423448097794165
88912000.0 0.6943130607319098 -0.7166858706609803 -0.19159430566530475 -0.789834834064458 0.0014807527198261725 -0.004665318882791121 0.4719860488875383 -0.20625901589877302
89911000.0 0.6876766339646115 -0.7244236503069882 -0.207400715744805 -0.8284559999985168 -0.0007054937258631627 -6.480466605324469e-05 0.4717424733952525 -0.21072018461677908
90910000.0 0.6813061294928443 -0.7292860537302764 -0.2264005721567493 -0.861772152867042 -0.0010857745319627975 0.006466498818336006 0.4711440539293425 -0.21397671729659007
91909000.0 0.6706512096964775 -0.7350154721430368 -0.24601263683430594 -0.8925917123471582 0.00030595670431794053 -0.0012289895149751701 0.46348603217297907 -0.21925064985661544
92908000.0 0.6624464509517172 -0.7452285216834325 -0.2648669930599398 -0.9204807115373933 0.0021317473529015142 0.0018488283940910754 0.45507432774256285 -0.2390065965923419
93907000.0 0.657805881068431 -0.7500030264377506 -0.2822357896385611 -0.9574848284600116 0.0034605288291574146 0.001841989598741104 0.46554644808248424 -0.24685329831659686
94906000.0 0.6448500219903678 -0.7583412910761368 -0.30181648045673115 -0.9889841508485925 -0.002208126308131168 -0.00022788950074381872 0.4684582471065225 -0.2527787507839302
95905000.0 0.6399321831682047 -0.7625942288940923 -0.32294426473942484 -1.0213925006621658 7.872876698718277e-05 0.0020209525269250335 0.4644065890356385 -0.2645483967921249
96904000.0 0.6328518398792582 -0.7733543163876683 -0.3370190772302649 -1.0652870005795905 -0.0013058906715187337 -0.004839653242634264 0.45857240588081183 -0.2663491560465021
97903000.0 0.6213385827307738 -0.7792180186642974 -0.36361194426517224 -1.0894169163679723 -0.002313356848377946 0.002257021875339904 0.4487430194871002 -0.28702487380295116
98902000.0 0.6174826476747282 -0.7836377503187347 -0.37867277730519855 -1.1317013408479144 0.002295115863333942 0.002968320970325294 0.4495266460985875 -0.28770493051797924
99901000.0 0.6046757445273181 -0.7905396071534516 -0.4111999412923557 -1.162430412059648 -0.002499297195646666 -0.002870761675415204 0.4531715779835089 -0.31125389564298883
100900000.0 0.598577244309342 -0.7940931352461337 -0.44082897429012335 -1.1899722930985908 -0.0003092778299255546 0.0025024040676439887 0.4602515812838614 -0.3160307308454435
101899000.0 0.5892073148472334 -0.8015356165707879 -0.4630424457493613 -1.2288060101718454 -0.002318258613203395 -0.0001583480395848372 0.4487107857648444 -0.3242311109753287
102898000.0 0.5802368543024642 -0.807691772459136 -0.5019306427734358 -1.2608970339409344 0.0008200864214131993 0.00035528274054714856 0.44584907314634314 -0.3483579054356981
103897000.0 0.5714058136289447 -0.8152769561296601 -0.5369157444866208 -1.2993426472441276 -0.0010881320282285173 -0.0014323055385438168 0.4591631620544629 -0.3313292579627508
104896000.0 0.5644753751274397 -0.824744688594438 -0.5759987529661453 -1.3294815011791046 -0.00034539002845581713 0.0001409551099757998 0.43573004432985785 -0.33472977648440566
105895000.0 0.5522106949789407 -0.8257165271761704 -0.6240655550260247 -1.3657530087940717 0.0007250429411939153 0.000658264880206955 0.4301537690953772 -0.36307954802087233
106894000.0 0.5422628211442759 -0.833777543171829 -0.679233033191212 -1.4031622180100438 4.8018735711251445e-06 0.0015402305102351424 0.42275263612886815 -0.3667245105403958
107893000.0 0.536232158560567 -0.8403271601700584 -0.7253351508587972 -1.4457612994369597 -0.0027877998460438813 0.0027637069952145274 0.4331126225160973 -0.37703948166369605
108892000.0 0.5289690080701056 -0.8422520032830606 -0.7841821430126882 -1.4793006934051738 -0.0001521057289249371 -0.0003911160968155281 0.42833156369682107 -0.3797870650654602
109891000.0 0.5144682267752521 -0.852789879257328 -0.8410136810777367 -1.5155804746251764 0.0022651501717155516 -0.0018170136344224297 0.43504718883579596 -0.3702934370496881
110890000.0 0.4972933805621359 -0.8650758764374848 -0.9181969532048149 -1.5175755514719504 0.0014145237979123356 0.0026121743957170356 0.420846040952625 -0.3958170252408321
111889000.0 0.4954225892874415 -0.8578745715509506 -0.967298116238097 -1.576628042000468 -0.00045775720078996635 0.0012370219809384692 0.42778493756948976 -0.3950555776668237
