! Created with skrf 1.9.0 (http://scikit-rf.org).
# Hz S RI R 50.0 
!freq ReS11 ImS11 ReS21 ImS21 ReS12 ImS12 ReS22 ImS22
1000000.0 0.9849176567284418 -0.0004949234706673062 -0.009163428735472101 -0.027435907816196353 -0.010011783472133143 0.02142555304466192 0.3836350896125559 0.3550306678865449
1999000.0 0.9920168346136372 -0.011423854257629412 0.008660671815223179 -0.03246836632233748 -0.012658855131664452 0.001932387108742078 0.26710505559142833 -0.0773395853721753
2998000.0 0.9999109606771878 -0.018155659272895378 0.008424216639004858 -0.013169466016889739 -0.0033998480734902265 0.0005297419909104757 0.20274227359993435 -0.14033739369294754
3997000.0 0.997700729279241 -0.0309549240514439 0.012836075721034035 -0.005975530410254858 -0.00039286694565974134 -0.0009734707736064735 0.08198706492685176 -0.23549175779767792
4996000.0 0.9973832607703986 -0.03588931561965314 0.012825217228431765 -0.003725641673381513 -0.00022384045112438673 0.005636121999934835 -0.04639064913898268 -0.18250413324654818
5995000.0 0.9941987945578108 -0.04718554848135122 0.007897908727379778 0.003117894612198804 -0.0007065717378752333 -0.00188859348285754 -0.1201745045086839 -0.09203867762029347
6994000.0 0.9938550930146541 -0.05686537940850425 0.006581216101697009 0.0016992656605910742 -0.002642842714755495 -0.0036348858959758014 -0.14021519266694674 -0.018072571787407742
7993000.0 0.9965105095060764 -0.06823852971327896 0.005218993482890339 0.005390788748564366 0.005190831856116364 -0.0011808440209136598 -0.17139908389429886 0.04915163237569126
8992000.0 0.994316009847567 -0.07322508267645213 0.007673638267967227 0.00635146444877785 -0.0034422993444394737 -0.0038299259260423787 -0.15441443797600324 0.06589553125064736
9991000.0 0.9907168364859893 -0.0849114047145825 0.00367507514444738 0.0030790730538207537 -0.004724462940917053 0.0013809568492539465 -0.14858095467636936 0.1004104527201161
10990000.0 0.9928331699366971 -0.09265488263145957 0.003405232274466616 0.0005434774613136385 0.0021066595633485426 0.003502819989572991 -0.14258694593859264 0.13595449605255744
11989000.0 0.9881962170649256 -0.10063620790039046 0.004694461534713945 0.004074660467473479 0.001571399491288841 -0.003832815104029566 -0.1299524515053416 0.1483244807870631
12988000.0 0.9890475993752742 -0.11260201891177182 0.0004992436268063047 -0.0007375460267612368 0.0004735172028846186 0.0013373578192003542 -0.11220681198345757 0.16807487974563307
13987000.0 0.9875447409560622 -0.1183231901996572 0.00019514999130167327 -0.0045346467307207025 0.0021600774229816326 0.002581325762418418 -0.09973827053842067 0.19394014732771245
14986000.0 0.9873700170360507 -0.12471244302887018 -0.0036768928307335624 -0.0025700830457010787 -0.0018659073921458884 0.0032926159912803877 -0.087005603515698 0.20527054833616334
15985000.0 0.9892143477651498 -0.1331932091946483 -0.004113673671292978 -0.00048503246088375015 -0.0010522143505664462 -0.0004307513439770462 -0.06308728595836835 0.2172942690819228
16984000.0 0.9862615127348674 -0.14350216455137935 -0.00430671587259713 -0.006253109645098185 -0.0020742651215503354 0.0018169171467130175 -0.06292470933446931 0.2308590128749201
17983000.0 0.9862348669151635 -0.1508988382388342 -0.004112954529563082 -0.006878781029786202 0.0017290577769109483 -0.0014385228418776564 -0.050743598970955164 0.22841594131041923
18982000.0 0.9815597419925272 -0.15989846806196595 -0.002093163906596505 -0.0006784003138425402 -0.0004472749658434322 0.0027469401295415518 -0.015496368053619864 0.2327623796474567
19981000.0 0.9828203280695096 -0.16745569856932782 -0.0021798790082731565 -0.005557680388668463 -0.0009612321631967629 0.0036875399927594104 -0.006510935139729091 0.24492093690194464
20980000.0 0.9797174738532474 -0.17812379496185116 -0.006252196811011773 -0.007824680333711673 -0.0020398407007614977 -0.0010496785980560156 0.0022436129300418112 0.2519148396262923
21979000.0 0.9817012676622812 -0.1836139813501965 -0.005907636595166356 -0.005551880483498476 0.0014803645361611676 -0.003275163868721126 0.016688286252639465 0.23600968872747569
22978000.0 0.9765579160863339 -0.1971958100318481 -0.0071899390116739355 -0.0027568566248554233 0.0022438552188876405 0.0014361025406532432 0.03357191410120651 0.26003610039958147
23977000.0 0.9766833527277851 -0.20116153111470622 -0.011631070419425642 -0.0051162130052180045 0.0009268473536162508 -0.0033248957459588945 0.04326321231352693 0.2631293366513219
24976000.0 0.9747216613137758 -0.210540962203826 -0.002261664444519539 -0.0016654157646954484 0.000527032993895103 0.0011137216841212907 0.06269615335233931 0.2593800242994436
25975000.0 0.969261082530133 -0.22447541845938238 -0.0061974646511652794 0.002785187352415781 0.014056009218359332 -0.02199072854780845 0.0917173731430964 0.260404300104549
26974000.0 0.9693487887264309 -0.22860670878738673 -0.003414995144612337 -0.0023490229788731666 0.001324565240471742 0.0013032553626339072 0.09433388717305005 0.27492831656783234
27973000.0 0.9701572393303459 -0.23308977336837805 -0.0035325476419397085 0.0011911503545003067 0.0013011078192970988 -0.0006306342030749269 0.11275307899722427 0.2616406867626779
28972000.0 0.9657476188661248 -0.24597998618466907 -0.000834651984785657 -0.0021704403525758 0.0029966056201166974 -0.0007131468237509187 0.12307851438201034 0.25372748140380313
29971000.0 0.964695185953507 -0.2528084544929786 0.0016658135083203465 -0.004548144892150805 -0.0011382957176427936 0.001797701464897906 0.16077586161774635 0.26922203604287537
30970000.0 0.9613829279537982 -0.25817075818919194 0.0010808991244655056 0.0016484488815943622 -0.0010913829923981527 0.0031925115201629347 0.1750561372064858 0.2562241913566009
31969000.0 0.9608650011529069 -0.2675606200497831 0.004859599527213798 -0.0036841119879970304 0.0014100387314443024 0.00020212435363147703 0.15502990080050152 0.24946659161055346
32968000.0 0.9590687881231353 -0.27606271169431895 0.009483199907641305 -0.011585037053053042 -0.0006448349536085484 0.0005100498074253741 0.17337749001176303 0.2433165871497893
33967000.0 0.9563029682563562 -0.2855357043472542 0.011037592730415631 -0.007782838040739124 0.00043929382467754657 -0.00020352375269037514 0.19355969999565817 0.24081320612165524
34966000.0 0.9527644344728087 -0.2963026647158429 0.011748706891764849 -0.01162256544706878 0.002106768694306891 0.004339661875156685 0.19634373001197983 0.2542930155057012
35965000.0 0.9502802990442195 -0.3036632954662594 0.013003857625508434 -0.01318384197817564 0.000829405131022595 0.0015628221015081632 0.21864801483422186 0.2515632917479295
36964000.0 0.9482446702614298 -0.31125370337843755 0.015827763598644448 -0.014344394965122293 -0.0028558461813094236 0.003362962448080618 0.21870299739124463 0.25614519475696834
37963000.0 0.9425462641718653 -0.32215273782580284 0.020751871263856594 -0.01882581999723579 0.001800661731292256 0.0016346922451212571 0.2286772187662764 0.23472698195418562
38962000.0 0.9412872837574865 -0.33188538339079204 0.025257297405365257 -0.024055876528343952 0.0014800745392875695 -0.00020392973597219458 0.243988113798988 0.22984340583278012
39961000.0 0.9380746628081112 -0.3379612414455962 0.023820850665107973 -0.029574625185124916 -6.754027901610717e-06 0.0021611019522105156 0.2550821608562651 0.23184829682984187
40960000.0 0.9342373010883405 -0.34627223486755815 0.021781739824354142 -0.023515195675863396 -0.002985060191344086 -0.0001024208444625348 0.27410620067431607 0.23293769962780084
41959000.0 0.9322149499464104 -0.35529076804557086 0.02993155255695223 -0.02888798035118424 -0.0034231811888353783 0.0003649568592486069 0.28080086778147495 0.21885214028236188
42958000.0 0.9278109334152931 -0.36376030779077917 0.030328064368428186 -0.03923601467165692 0.00018477054513168302 -0.001589298660472833 0.28288031297663113 0.20595812413751294
43957000.0 0.9259328150776595 -0.3718143294984216 0.031256917445082286 -0.04677773165269251 0.0021223323426054724 -0.0030880785184853646 0.29228350378740464 0.2086345232643874
44956000.0 0.9231761008477364 -0.3787107546513169 0.0323162122710716 -0.0502195195080662 -0.00035864483211519134 4.607255644433254e-05 0.3072507696686399 0.1845061368411046
45955000.0 0.9176394636815162 -0.38850656220751195 0.02999707443888564 -0.05696117289310284 0.0027652621373627953 0.0021711187014458113 0.3138492292208498 0.18585480739135712
46954000.0 0.914953217497148 -0.39588309099608765 0.03430464245295044 -0.06588023711459476 -3.57384886197255e-05 -0.003421982126466352 0.33086786130108675 0.18034188572554308
47953000.0 0.9115888257061662 -0.4050428381685735 0.03683900645895542 -0.06950696556012959 0.0020509886404357254 0.00036872632575341696 0.33983456907433235 0.1683363856777935
48952000.0 0.9070869990637926 -0.4137874723229824 0.03248406256937551 -0.07861612035332763 -0.0007709140952522089 0.0005318831490219144 0.34495902549310614 0.16202104416354857
49951000.0 0.9035341131967439 -0.4201892719653529 0.03538300727871059 -0.08254336092693774 -0.00227570925811521 -0.0008852132430153313 0.35890616447504164 0.15624416896580284
50950000.0 0.8997557518305045 -0.43083401162155677 0.03650041320763351 -0.09128093464679256 0.0010049110521184734 0.0014404676670547463 0.3491438625052788 0.15511447313160365
51949000.0 0.8942845511149741 -0.4360951000665901 0.037040176992812195 -0.09709320405749904 -0.00021795135581460513 2.9277619350373933e-05 0.3637056011423417 0.146770250741381
52948000.0 0.8940869449320906 -0.44534006467305487 0.03439472957845941 -0.10840861124613048 -0.0006574371352718551 0.0015442113728005426 0.37900612939426853 0.14628585916135228
53947000.0 0.8864368765045775 -0.45404597765293364 0.040272523340621084 -0.11459396499091534 0.0016572597755717257 0.0030523290909683955 0.3765205892178393 0.1254714110706145
54946000.0 0.8810879852693615 -0.4643801289805344 0.040287618825344915 -0.1255949671255728 0.0016460147694863949 0.000661972270368367 0.39563767560489765 0.12535989112532675
55945000.0 0.878945510348341 -0.4696030459212273 0.042434417102966124 -0.13455807835567324 0.006963681457192819 -0.004991702469693972 0.39071966078531833 0.0978193358342601
56944000.0 0.8756717499704686 -0.47907966613670555 0.040146143633238825 -0.14364294217116746 5.26916599765148e-05 -0.0022801203844799883 0.40440817842293736 0.09956852636853518
57943000.0 0.8686403246811908 -0.4913019354640845 0.045296437672546014 -0.154151663576937 0.002600551593284543 -0.0033048786996598264 0.40349164486135314 0.09303759920145029
58942000.0 0.8645703568507026 -0.4933922495135576 0.0453898920083085 -0.16545919281588464 -0.00021077967065364256 -0.002902656331029242 0.42183828905733173 0.09060927237994476
59941000.0 0.8604697611478118 -0.5034681222234707 0.04830856866917287 -0.17287560802422594 0.0005437498673847573 0.0022235641051462983 0.42477684435173796 0.08260350812537791
60940000.0 0.8540039563690145 -0.5096772900925354 0.044966470370590546 -0.17697409040831602 0.0023108166256823807 -0.0010823682557567433 0.4134697287128361 0.0736304620231582
61939000.0 0.8511318830529508 -0.5185078460078862 0.050288289209440167 -0.18303722527821412 -0.00014253596205685365 -0.0005155624523668564 0.41502933518964 0.0663994750813995
62938000.0 0.8442950791831721 -0.5296142209486836 0.051500492845888715 -0.20097909697844343 -0.0010877195141308848 0.0011450500879345287 0.4460616568080411 0.04864826433188929
63937000.0 0.8393978774426978 -0.5358859129606728 0.05257636658679855 -0.22029607535936854 -0.0022450077960154387 0.001742555624457912 0.4332800904022517 0.03049104916228104
64936000.0 0.8357585636911437 -0.5389606720809196 0.05364853790661417 -0.2353987595410872 0.002140511393660093 0.0013039405370304756 0.44088973234412193 0.039163953066289274
65935000.0 0.830599531094819 -0.5528525564832515 0.049612851352648916 -0.24838903213930355 0.0010528969996776217 0.0015511828460468037 0.42861517814400757 0.020591687486204924
66934000.0 0.8257357131484057 -0.5578701034903142 0.05178770641095236 -0.26037272156801106 -0.0010732767123212718 -0.0022966354894255296 0.44800625403114913 -0.0038811937567492546
67933000.0 0.8226253213336298 -0.5634388021655433 0.053724714023830444 -0.27144662231955957 -0.0021676643656673633 -0.0015955737605062037 0.45694664261476314 0.0013852989193430957
68932000.0 0.8132239555893696 -0.5587390034368274 0.04775347011842364 -0.28239643946136933 -0.004005134160753724 0.0004310783415802315 0.4474165694953942 -0.015056799285808628
69931000.0 0.8101489715369867 -0.5805219650000872 0.04803155147153184 -0.30124175827935534 -0.003567871566604664 0.0006775851578768373 0.4619923725659355 -0.03154187625344845
70930000.0 0.8048206274047731 -0.587131321182738 0.048451462928043185 -0.31488063059734633 -0.000894718984580926 0.001271319744312766 0.44738222321388477 -0.033526364335576174
71929000.0 0.7984468704307081 -0.5955870133485182 0.04068900958621931 -0.32670131241300904 0.0016548879522793772 0.001038556549606024 0.4527565827182408 -0.04773640030061702
72928000.0 0.7925101501095978 -0.6075629168615072 0.03519169932041012 -0.3421510972819212 -0.000573512548625225 0.0033269533619499987 0.4695918924183311 -0.049116382928413756
73927000.0 0.786514549262884 -0.6120953720440979 0.03297677273514167 -0.36366004280713937 -0.0005641154427727502 -0.003376215829921023 0.4656610793329054 -0.060670020047084
74926000.0 0.7811561170422697 -0.6222503494329622 0.02386230872395276 -0.3820472551959578 -0.0037190168843706773 0.0008883908091407878 0.45801676297998567 -0.06067639389075145
75925000.0 0.7737287243610019 -0.626026994814678 0.013837213217444652 -0.39943963374590785 -0.0004356033626759797 0.00128758741596304 0.46631688120668335 -0.07762921609595169
76924000.0 0.7693065653426724 -0.6337799467549132 0.0006794075709814891 -0.4212002622575661 -0.0011115685762810882 0.002902740219710409 0.47078099914350524 -0.08761909810904736
77923000.0 0.7615563409938196 -0.6407252714518955 -0.011562826664634608 -0.4451178075471297 0.0008222256210624359 -0.0050011869286668825 0.46325482414851527 -0.09870410443911758
78922000.0 0.7549185702991643 -0.6515758416051547 -0.025769246836524363 -0.4656792211975088 -0.00039235743286785703 -0.0002957418891015357 0.46214082033529935 -0.10640243432279434
79921000.0 0.7466157466991685 -0.6547283569984143 -0.04095972775833942 -0.4945344345664644 -0.001081749443657695 0.0019242267717247536 0.45629308570922383 -0.13001559185711106
80920000.0 0.7423444309134999 -0.6662554782939589 -0.05760015885558042 -0.5186527278842866 -0.0037847002835361913 0.0007083591845956923 0.4767155117864943 -0.12843307125168668
81919000.0 0.7365461369807471 -0.6733330117762967 -0.07332557845396674 -0.5469553935563587 -0.0002973208459786085 0.0003750499441681928 0.4735208246653279 -0.13429584736047437
82918000.0 0.7285406059864498 -0.6800263191067657 -0.08382594664271667 -0.5765833796897483 0.0015893685440577395 0.001140413766406203 0.4776418409598602 -0.14907292719496598
83917000.0 0.7211173705862942 -0.6865662346494396 -0.10871597138856434 -0.6049257131376058 -0.00031992139859619785 -0.003091981597720829 0.4828831276556861 -0.1554898491717783
84916000.0 0.7171937653347219 -0.6946413772595207 -0.11941378796702425 -0.6355179063782284 0.0022096017416936837 0.001488127456101876 0.47076398789096413 -0.17362105573632533
85915000.0 0.7094281065829152 -0.7005346247739508 -0.13960902352626786 -0.6628659556765922 0.0014109329195606674 0.0010251827076794707 0.467279666638019 -0.17743069794052496
86914000.0 0.7020784682041589 -0.709584774536561 -0.1504189723585005 -0.7007789607248583 -0.0022561968388417506 0.0006399701731530091 0.4573371001776176 -0.17533373736143235
87913000.0 0.6951589048908053 -0.7173554925530411 -0.1718968498006547 -0.7253694577838325 0.0002826460024913024 -0.002799467615300971 0.4703842239205674 -0.19835776191428844
88912000.0 0.688263594090783 -0.7233670266878619 -0.18583756971957854 -0.7579559609916138 0.0036629391537442773 -0.0027486670715761775 0.4697598934147027 -0.20841043218372524
89911000.0 0.6786798203602196 -0.7320749968335349 -0.2002963868596236 -0.7943098882356809 -0.0003933102058999262 -0.0021749605531558402 0.4697646557666197 -0.22217740870185096
90910000.0 0.6723539950539055 -0.7370285371252953 -0.21558512005845734 -0.8231035699171646 0.0006350825805149685 -0.0031902066925789383 0.46448013532000076 -0.21886523993113613
91909000.0 0.6637718808415076 -0.7417070710739702 -0.22968099607287512 -0.8551898484704855 -0.0031173641353215843 0.0015743436449234048 0.4660175302702611 -0.22581092962654897
92908000.0 0.6577143079184727 -0.7514400597707873 -0.24572298871918932 -0.8850972572462922 0.0005518240423591722 0.0019398607173275052 0.45660783567294233 -0.23941929468418224
93907000.0 0.648291180219137 -0.7552014761572425 -0.2638975568636421 -0.9134020883939346 -0.0008830846273729432 0.00457533249141771 0.46712731385262773 -0.26499722670403286
94906000.0 0.6388938599423473 -0.7650542322332243 -0.2775892546937801 -0.9445751782979224 0.0038142922993834403 0.002290659693661236 0.4572023943601398 -0.2599345286554967
95905000.0 0.6301055649579038 -0.7710330096663053 -0.30385864279432495 -0.9788883225844462 -0.0008066111312916984 -0.0003725498481993068 0.4650524903162429 -0.26256917407544395
96904000.0 0.6219795051837835 -0.7788897471743583 -0.3169566916367908 -1.0164216959130006 -0.00011099130957603712 0.0018502857008255256 0.4537295019922628 -0.28372739908907846
97903000.0 0.6123296173838516 -0.7844673834160002 -0.34113281144079016 -1.0439317096316703 -0.004404583295726416 -0.0006537915848868289 0.4451944554324298 -0.2979843090570748
98902000.0 0.6072467371769507 -0.7913469927054424 -0.35632477132857937 -1.080141718347012 6.755555387251986e-06 -0.0003183328535332943 0.4553073027597806 -0.2962902667902094
99901000.0 0.5968626090491683 -0.7958252389061431 -0.38480622086791455 -1.1087940901634323 -3.410256340906163e-05 -0.00042706318664167357 0.46064625745069165 -0.3191975463904306
100900000.0 0.58876755903526 -0.8018954077338651 -0.4153085261056772 -1.1361241308624381 0.0025779276376355935 -0.0012323789784050075 0.45646719981451883 -0.31832219663965033
101899000.0 0.5801613743479052 -0.8084758953764484 -0.43798234708782885 -1.1748383387344987 0.0009771808762647973 -0.00607032377401456 0.4544064218228282 -0.3229159860399821
102898000.0 0.5720490331025682 -0.8130216252495481 -0.46561615574541143 -1.2097423153671467 -0.0017556996526450726 -0.00014062681935385254 0.4508545208820877 -0.3411088717142713
103897000.0 0.5620005072339355 -0.8219854529234684 -0.5085104378770251 -1.2391115857283057 5.238579418461453e-05 0.0006299834500569418 0.4636607310554394 -0.33770413359349855
104896000.0 0.553702387624766 -0.8300467537769385 -0.5522037049999408 -1.270689387029473 -0.001218851893760253 -0.002522592964605476 0.4458549619326449 -0.3409589438408088
105895000.0 0.5453305001187019 -0.8335853953496825 -0.5928100044470441 -1.3109873161386787 -0.0017303361761967883 0.0033322500778520023 0.43179262470486496 -0.3583605665241136
106894000.0 0.5348197061029004 -0.8408406416586958 -0.6430339342250369 -1.343354838841574 0.005513474357421737 -0.0001841471774911518 0.42801620940495694 -0.37039067069597215
107893000.0 0.5265299302919467 -0.8464155998088395 -0.6899460865947319 -1.383588978283874 -0.0015794472435812904 0.0017485471228547039 0.4372258846212208 -0.38695933283252243
108892000.0 0.5168246715249115 -0.849244632261616 -0.7501707330503236 -1.4154729930022474 0.0017038570907351148 0.0009852168861183162 0.42706169226723684 -0.37673622848200294
109891000.0 0.5040966040798355 -0.8585923665926558 -0.8035600265005493 -1.4523966850621206 0.002991885548795815 -0.0012927245327241093 0.43860473128428235 -0.3817985559428459
110890000.0 0.4964456760129413 -0.8594443780548302 -0.8510073592247521 -1.4570217337244198 -0.0006249536515368075 0.0006252815637989102 0.4322365203047426 -0.39077402066008415
111889000.0 0.4841197993884946 -0.8636152244866019 -0.9234977939057745 -1.5174938838595589 0.0023731728687515522 -0.0015565231097614735 0.42385639136385217 -0.39402738085063704
