! Created with skrf 1.9.0 (http://scikit-rf.org).
# Hz S RI R 50.0 
!freq ReS11 ImS11 ReS21 ImS21 ReS12 ImS12 ReS22 ImS22
1000000.0 0.9928802312467783 0.016575185814473294 0.015819261950480563 -0.06366283933498472 -0.0065243599011912115 0.0013905321197038938 0.3053137999299656 0.2760935613471001
1999000.0 0.9991822654855591 -0.01280176704622679 0.007242064818444473 -0.02034807272484175 -0.004748299283025296 -0.010048984264313556 0.25814010500017187 -0.05792667561141614
2998000.0 1.0007775237650445 -0.02122974253248956 0.014881608117875986 -0.011107272882033987 0.0036740307454918176 -0.0049095567112399105 0.18853648792019864 -0.13912803178625358
3997000.0 0.9994434829756815 -0.030723341919273662 0.015607596770842622 -0.004203831575465763 -0.009849501559039655 -0.007015066333219909 0.10489788408524063 -0.21884349181878682
4996000.0 0.9974291213645097 -0.0371172625211248 0.009215438122367 -0.005858612544760493 -0.001970860088007513 -0.002750222009729218 -0.011277444010170204 -0.2050363394034274
5995000.0 0.9973080948322129 -0.04815107518583272 0.012178087580172017 -0.0013177339413022848 0.004311808368077363 -0.004484381789085094 -0.11737129188323463 -0.1329654790036141
6994000.0 0.9967715334418844 -0.06018422381093229 0.01245134327806994 0.0020895788446628353 -0.004883133712464272 -0.0035742587396822424 -0.15728807703869416 -0.04159395156065132
7993000.0 0.9971706965715266 -0.06715266323993652 0.007051698562817646 0.003523836894658371 -0.0018913378307287988 -0.003941702505130756 -0.175452219220937 0.018970873081075295
8992000.0 0.9955751440965627 -0.07160937332750984 0.004296246358106923 0.004164866777155424 -0.002331715285848491 0.0010726453638740495 -0.1808656238292448 0.05589721801760906
9991000.0 0.9945692735990042 -0.08338925995977657 0.00505962320091598 0.0034753081780401485 0.0005950705802430264 0.003320168964907995 -0.15388327499645635 0.07686480695100321
10990000.0 0.9948675109864921 -0.09285087823247648 0.002714294994321094 0.003020235965931048 0.003165455424122842 0.0032942709182292944 -0.1356397812086049 0.10752879824345567
11989000.0 0.9919697517548755 -0.0999964552390278 -0.001053700633868791 0.0018752076806275372 -0.0013032792930954577 -0.0021254874838230885 -0.13822082314236622 0.13123617496272402
12988000.0 0.9903998030798318 -0.10948061430879179 -0.0016643845719113435 -0.001443706867263398 -0.0035195849756639902 -0.0021681019089471575 -0.11349192087049277 0.15925731572246787
13987000.0 0.986552619319459 -0.11595265052129887 -0.0017847725281452905 -0.0015590984783771255 0.0012936319043667245 -0.0007478237391454767 -0.10785449824200559 0.19205742981974225
14986000.0 0.9894814234894863 -0.1254601509373386 -0.0031539547019439136 -0.004669356216833952 -0.0026062965821182413 -0.0011022525683974495 -0.08943787671437811 0.2047014249979313
15985000.0 0.991096927456827 -0.13231461914179032 -0.001173952403100271 -0.005212636181382228 0.000474485863294677 -0.00206782777531266 -0.06857008707894112 0.21309927248525845
16984000.0 0.9863811733852591 -0.1462820070962915 -0.0015963875448823275 -0.0034342647202923325 -0.0015888552684186694 -0.004169962116856488 -0.06706499121735893 0.22050890065613127
17983000.0 0.9875642098044809 -0.1504453124336251 -0.005042339999545699 -0.0027825534365725105 -0.0015370204095584033 -0.0009526756658915554 -0.05325062299273604 0.22825741181229034
18982000.0 0.9833068759833999 -0.16007857574256013 -0.0058671660265805 -0.0018207428731535891 -0.0035775270772991697 -0.00010084876953572493 -0.02724440905551939 0.2308428149543657
19981000.0 0.9853259311862373 -0.16703919535538422 -0.0009699077636829891 -0.002909291452991168 0.004991059243794027 -0.002475244123463018 -0.015958252961637356 0.24217039659795828
20980000.0 0.9826038715582908 -0.17483963353501383 -0.009326786732667482 -0.004518757770066665 -0.0001356535957713533 -0.00446999320602731 -0.01431047585376597 0.2531138354237144
21979000.0 0.9809572093035822 -0.18367011762213264 -0.007068838832722483 -0.005623357871200679 0.0009686923868952583 0.004221385387354626 0.019774484843405788 0.24614102585799855
22978000.0 0.9779102414475597 -0.19241224396845297 -0.004295747012296413 -0.004869784062599332 0.0003439468697615734 0.004044488538783392 0.014634203040282616 0.2574865223794554
23977000.0 0.978577937737439 -0.20039092509028694 -0.008853595817754618 -0.003744776281747408 -0.001008796679744855 -0.0007211418743941834 0.040534409390015035 0.2594816154509653
24976000.0 0.9745565715241346 -0.21084429383818876 -0.00863248805141656 -0.003833528838831181 -0.0002796619562489782 0.0011104495944089469 0.06900939864920741 0.2598085505792386
25975000.0 0.9758825527456668 -0.21617940925213228 -0.004766331724252721 -0.0027540036895367602 -0.01364419115454273 0.022520390905539315 0.08657345594912029 0.26372519883353146
26974000.0 0.9696923239413983 -0.22607865916342115 -0.00415532386238343 -0.003966955502347719 7.131316323171386e-05 -0.00020004223827293808 0.09419059045599425 0.26108069632311226
27973000.0 0.9720619950251235 -0.23153865887314976 -0.002893700907233559 -0.0009310698473136576 -0.0008972936915009068 -0.004149408581628553 0.10459792014729882 0.2500341416964077
28972000.0 0.9669347489452578 -0.24417735305136581 -0.002533924819848656 -0.0026949846238438838 0.0011714582109304086 -0.0010385118066462827 0.11581836947147293 0.255056613321375
29971000.0 0.9660312289719964 -0.25001838555765105 0.0008467482171550511 -0.0020798915483249943 0.00219224119885793 0.0005568795275020856 0.1525364537528564 0.25945064678759755
30970000.0 0.9631353562055285 -0.25630415740648793 0.0024506168245182584 -0.002132850334830845 0.0018563730979007115 -0.0016943135535049333 0.16126917971448815 0.2534776711038196
31969000.0 0.9608320289184642 -0.2672529320296177 0.004792986767589715 -0.004737990848314283 -0.001989996482385244 0.0020949522702664028 0.15352756950306812 0.24110834487317231
32968000.0 0.9605813729000202 -0.2742741184044024 0.012109423826050828 -0.0072504109474686015 -0.0028219647662105015 0.001123001051053163 0.17080474484479932 0.24156858807283493
33967000.0 0.9586644101527304 -0.2826340885429737 0.01510144274972885 -0.008394868464649223 -0.0007999445391750933 -0.001273280291861909 0.17664767824361055 0.24533573339230838
34966000.0 0.9558252271305941 -0.2912075386399669 0.01671171497774421 -0.01118723212920157 0.0004223360467775028 -0.00012491573304172283 0.18776671231685435 0.2588324643523677
35965000.0 0.9504987819545007 -0.30107834223173663 0.016344200690948156 -0.01445788749624266 0.0014831244787459445 0.0009452641764319488 0.20330186184048626 0.25125036974538334
36964000.0 0.9501319254626033 -0.3097721335461374 0.018058973378725716 -0.015601991658967002 -0.0004730521591234223 -0.0006134026317824765 0.21964831855598355 0.2452552609436323
37963000.0 0.9449563365174692 -0.3196194568615677 0.02437243581337109 -0.020970370851825827 -5.9835145485704524e-05 0.0034357984294318177 0.2280691352099262 0.23692209399419967
38962000.0 0.9433161472230565 -0.3289637095809337 0.023369892532950586 -0.02565250335012824 0.0030152626229533377 -0.001517563553568864 0.2405568058800407 0.22587615303256878
39961000.0 0.9415163815391407 -0.3327887769042749 0.026082571200436496 -0.03291060364721621 -2.2847746823572307e-05 -0.001673038247737907 0.25754908418197275 0.22003405860463315
40960000.0 0.9370597598843202 -0.34327920553762087 0.023207272786653636 -0.025761518425470295 0.00016085593329122317 0.0013786866130074704 0.2665962676096718 0.22134690122428244
41959000.0 0.9343621776938889 -0.35205411527794095 0.03293800826478511 -0.034696196487784485 0.001401191053899427 -7.47056545933009e-05 0.26763570552164484 0.21215079261443123
42958000.0 0.93028570608846 -0.3606267777973449 0.03346851699418189 -0.042490660121609757 -0.0024039486919740635 0.002422001565308369 0.281504405430094 0.1913613281241779
43957000.0 0.927492348362336 -0.3671496920090212 0.035736933508089416 -0.04868901828347329 -0.0008401765523453509 0.0008496780060694053 0.2767306527862025 0.2017898113620265
44956000.0 0.9245775861635818 -0.377694672492113 0.037490689886231436 -0.05414678776912278 0.0012626551891966322 -0.0027874035466173208 0.30348264759797344 0.18081115647250384
45955000.0 0.9195690722472166 -0.38689757186158913 0.03864215436088455 -0.06176824755163103 0.0025636960173404887 -0.0024217907945098226 0.3009151537838891 0.18383293277108528
46954000.0 0.9171876243220758 -0.3936758509667905 0.04229668612029942 -0.06694515388988864 0.0008036013780907223 0.004424743370040764 0.32650228845086193 0.16984283357960717
47953000.0 0.9152504258903894 -0.40128249398205845 0.03982727093899161 -0.07596435375860283 0.002117096049671549 -0.0015618237496481866 0.33842467715488345 0.16707730640818017
48952000.0 0.9080867311887544 -0.41420093874461805 0.04249435968133725 -0.08457684190624014 -0.0006271030112113897 0.0008246613721289531 0.33249208582632245 0.1687334547944226
49951000.0 0.9055108805029911 -0.41844065842565775 0.044011284533212146 -0.09301999180572228 -0.0017801884056016805 -0.0015389076746710137 0.35383495587658054 0.14856770552114715
50950000.0 0.9022063484929325 -0.4272483459161067 0.045855356133534676 -0.10099223717532306 -0.002978376983665279 -0.0009438747165132223 0.354011927321589 0.13343789461413885
51949000.0 0.8988769042103222 -0.43480752450051624 0.04611025344903673 -0.10810711908429342 -0.0021389720182454016 0.0035374714630599063 0.3582167833903301 0.13544818901146416
52948000.0 0.8969783685800885 -0.441506843521596 0.048680954206549464 -0.11970267408387263 -0.0005732725461574049 0.0007720169430441317 0.3649317943728198 0.13484200870587024
53947000.0 0.8896693968268989 -0.4514994610402783 0.051523464435801636 -0.12799617534009636 -0.0020427963892882092 4.484967179426837e-05 0.37099695067565924 0.12203583239918707
54946000.0 0.8842205160992296 -0.46095797502832303 0.050819884248611315 -0.13897904419716572 0.004218638497351976 0.0003298013519012078 0.3860389176849228 0.12273245472023023
55945000.0 0.8823517314727687 -0.4677051238120095 0.055320955673842855 -0.1503500664031204 0.0037987761023765944 -0.0014993088000850557 0.3829732129882383 0.09744884293548838
56944000.0 0.8786516866536997 -0.4751930995349244 0.05564608721331177 -0.1621936843218271 0.0007142581292212951 -0.00045938099665886905 0.39563652397622995 0.10212426829880368
57943000.0 0.872523976118474 -0.4873038637435666 0.05422099471269443 -0.17418411772494058 -0.004044724304399052 -0.0024807982126734116 0.3981998850187863 0.08746378203162379
58942000.0 0.8673455312085038 -0.49125848550090034 0.0572095905551576 -0.18409814439247135 -0.0010990231222323076 0.0015604196556051036 0.41695477602625386 0.07757273463567232
59941000.0 0.8636307861813648 -0.5006149342815869 0.05853050491472919 -0.19694272964917203 -0.0016589091957152661 -0.000529945785431235 0.4157414889741044 0.08671011535481095
60940000.0 0.8575490938911041 -0.5074494115323677 0.05722014364910467 -0.20003714803809775 -0.00047568055109082735 0.0013138397025428664 0.40643470405414756 0.06895347362807396
61939000.0 0.853617339008363 -0.5149897574023017 0.05970529580281566 -0.21017538290758098 0.0017030782377063988 0.00043290166390517245 0.41804948590354574 0.065762022186298
62938000.0 0.8476827058894953 -0.5246733635709586 0.05887947250587498 -0.22859995305782527 -0.0013171090886357848 0.001645873980605141 0.44267488906412544 0.04131994214304037
63937000.0 0.845067362928578 -0.532041099655787 0.0639693932044891 -0.2529467914666234 0.0038850957136810213 -0.003380272876860292 0.4358123668386416 0.026200785549363805
64936000.0 0.8379276052884931 -0.5372514007794593 0.0631860400806387 -0.2691534615597911 -0.0005331012307081139 0.0012359436175333786 0.43120759947631393 0.03629370155777457
65935000.0 0.8338701371289874 -0.5480093652233361 0.06039398650618474 -0.28211930503405963 -0.0008787045580491367 -0.0010386514158507037 0.4369477700813956 0.005789899393414683
66934000.0 0.8297413422456991 -0.554143231980059 0.061826664935159835 -0.2977691496651147 -0.003205960349883947 -0.00020920521547763526 0.429619280526848 -0.009334601020050058
67933000.0 0.8259041759104055 -0.5605627509617043 0.06608354245077569 -0.30877471686232105 -0.0005639375907076887 -0.0011637334109850105 0.44577028968282395 -0.010885129791656768
68932000.0 0.8099225729533104 -0.5579815420295635 0.054007186882768496 -0.3253265667439714 0.002760641262270585 -0.0018368371322055395 0.44915430616881724 -0.011196103260438767
69931000.0 0.8124428274127694 -0.5778823299838343 0.05729093902088477 -0.34533000732856284 -0.0023491956324058942 0.001979126397450418 0.43450530345256294 -0.030107246964912383
70930000.0 0.8051211229346169 -0.5850798156435594 0.05355173512624377 -0.3584730278869787 0.002309550065721954 0.00044293531131274423 0.4434178945700281 -0.044531621629168294
71929000.0 0.8029961600597393 -0.5953442690799279 0.0462665242716768 -0.3805241588165833 0.0022423566049832393 0.002677111318209992 0.44713034462327894 -0.04957066090418592
72928000.0 0.7960913727813466 -0.6016592012053925 0.044518811309048445 -0.3986096758914908 0.0018317338336197135 -0.0026510808155303053 0.4632199037575385 -0.06777801368546245
73927000.0 0.7886965614238418 -0.6092824678646251 0.033621569678498366 -0.4237183773556275 -0.0023090417445200268 0.0005847405315179629 0.46170066250220193 -0.07238557971051847
74926000.0 0.785214128372184 -0.6190943455635106 0.027913571583220102 -0.44408659942149925 0.0002680431665987899 -0.0019466888737904918 0.44632450768075405 -0.06786675795094783
75925000.0 0.7804283047020161 -0.6218171501574536 0.017611233457891708 -0.46371203433041464 -0.0013407171783850781 0.00019170604912770512 0.4654707622498182 -0.08158322036162342
76924000.0 0.7735668590664275 -0.6290145009672684 0.002579020268446931 -0.4893509795788141 -0.0028140104811095524 -0.0013871775002160275 0.46509157428781517 -0.10647116330482014
77923000.0 0.7662506600022762 -0.6387014837293523 -0.008172110168550116 -0.5130421308197146 0.0030924426403467153 -0.001132017047736225 0.46229259371969367 -0.11331179769520149
78922000.0 0.7618032878649171 -0.6496554999653295 -0.01945465265215993 -0.5452140447568677 -0.0019508095094559314 0.0044861731933147995 0.4594625158199995 -0.11629869638717705
79921000.0 0.7521745805743877 -0.649519832823251 -0.04236659430191359 -0.5715986153674157 5.264585137225001e-06 -0.0005172031409895177 0.453764341975142 -0.13518880600059469
80920000.0 0.749524772600343 -0.6628209496865682 -0.05936568849807817 -0.6018343421192822 -0.0006249593017648622 0.0015692296400981521 0.4675200509616652 -0.14349804722992549
81919000.0 0.7427692073034355 -0.6669848571578113 -0.07257532374837546 -0.6350118875011858 -0.0019452186537292876 -0.00043286438353440224 0.4652119689824269 -0.14891934941267182
82918000.0 0.7347888312664153 -0.6755307010899916 -0.08776255651259256 -0.6645565863637001 0.000140651455816726 -0.0013673278916633844 0.4732001508037945 -0.16709874552271817
83917000.0 0.7269187212908447 -0.6833759846152653 -0.11106906519152596 -0.6969603463953171 9.473254886819731e-05 -0.005199332579671061 0.4671995681622471 -0.18006755508144665
84916000.0 0.7212881102785995 -0.6906235919317605 -0.12835760128510385 -0.7310529813647806 -0.0004857188040851079 0.0002815288518627044 0.4623196554546635 -0.18094847091446017
85915000.0 0.7165299209395262 -0.6958619706582594 -0.14992273685786145 -0.7669029504944211 -0.0013004640247293079 -0.0005191357942627824 0.46301737951090166 -0.18754015835510446
86914000.0 0.7078621423430539 -0.7072518976591736 -0.16271749830531768 -0.8043135317587656 -0.0019244516059679791 0.001558236140155678 0.4499840010539689 -0.1850812601952497
87913000.0 0.6997921519870094 -0.7111407213726342 -0.18855035169635123 -0.8327146996163706 0.0001046175432042724 -0.0012800402950751018 0.457119578292114 -0.1956742548805025
88912000.0 0.6938908596261533 -0.7189443237214395 -0.20342355195228054 -0.869427869829417 0.004102485646298705 0.0015227890707557278 0.4562064638658683 -0.22522335381349834
89911000.0 0.6847568426215409 -0.7264842668440784 -0.22294230668123471 -0.9097778656692249 -0.000880998065810718 0.00010330222018801838 0.46349929919511185 -0.2187115627273514
90910000.0 0.6783410371664699 -0.7337269355679384 -0.24386956919717123 -0.9474629005146249 0.002467980958534194 0.0012755656638576628 0.4587869813336863 -0.22839449739151735
91909000.0 0.6694434366643882 -0.7376721513300967 -0.2644358931597654 -0.984340183807812 -0.0008756516214371262 0.00671456495479309 0.4584782821559777 -0.23416893865819124
92908000.0 0.6615074671415339 -0.7455819186333534 -0.29003735641089434 -1.0177451610232198 -0.0021095577530128836 0.0012790542768793018 0.4468711588809525 -0.251306478934377
93907000.0 0.656248549029662 -0.7509616290253873 -0.30503527717231527 -1.0525380949383298 0.0002824918004702927 0.0036788828987434556 0.44798652532618155 -0.26642147009611383
94906000.0 0.6428968065608502 -0.7606697548370519 -0.32864527828703166 -1.0890685217012928 -0.0005693739847957371 0.0014757878294534158 0.4532315349722301 -0.26510242789668326
95905000.0 0.6368968897255993 -0.7657516461483173 -0.35664817874722865 -1.1278948731266072 0.002622296588459434 -0.00042226950526768275 0.4595505400544564 -0.2896830989644675
96904000.0 0.6288966665002339 -0.7736005044090222 -0.3779876316776997 -1.1687090444942587 0.000937860274070422 0.0024626758622929962 0.44952366191451243 -0.28830290840532136
97903000.0 0.6199381546753708 -0.7793793204362661 -0.4089631038877113 -1.2009074228243115 0.0029280501095774146 0.00013868696186986046 0.44141303494655293 -0.3000462870762997
98902000.0 0.6153808767698177 -0.7860091615153161 -0.42792309343057916 -1.243592295824401 -0.00161399901529857 0.00551734249939364 0.43456095144174767 -0.31177495744854655
99901000.0 0.6049205041260259 -0.7935948606190155 -0.46325297698562146 -1.2822229753685428 0.0008744982571222726 0.0004010995012638479 0.45650040178839996 -0.33055303088465154
100900000.0 0.5962900850399213 -0.7948182969358993 -0.4982808947064647 -1.312152256535622 -0.003757063863570371 -0.000453099749285603 0.4514512244999507 -0.32836906008711464
101899000.0 0.5903081548007425 -0.8042523566019204 -0.5265211380556503 -1.3552834656652397 -0.004435580697670078 0.0020399963242507635 0.4371589405306204 -0.33115991546705276
102898000.0 0.5780474618393773 -0.8095527240013795 -0.5732326741168957 -1.3924005068315628 0.00020750896702107389 0.0017634749990997453 0.43945930043241155 -0.35578681448510074
103897000.0 0.5706314399506044 -0.816324556438124 -0.6174630665567908 -1.434153386713668 0.003551242246652261 0.00010275695789678461 0.4530752580106053 -0.3491895214645243
104896000.0 0.5622716140268217 -0.8274663566512375 -0.668440699303913 -1.471212586895278 -0.0002288805979579983 -0.0013197795817947741 0.43366567294863334 -0.34508855864257365
105895000.0 0.5509205124434162 -0.8297884129831434 -0.7149983613704652 -1.5148669969216932 -0.0003774265813812285 0.0006844371719280587 0.4244913941219113 -0.37135043320081934
106894000.0 0.5402472638600087 -0.8352370050020379 -0.7802633098246833 -1.5543668546200509 -0.003076595919192949 0.0031707190450913957 0.417939502961425 -0.37409517286561855
107893000.0 0.5350957687791934 -0.8412353689922958 -0.8312435699391414 -1.602947626427898 -0.0009571444703355572 -0.001767412555745281 0.4207330075906827 -0.3845212558047974
108892000.0 0.5244159804167448 -0.8458183846686854 -0.8968791890116565 -1.638726681914282 0.0004902103646393311 -0.0004115745819583299 0.41571006252747755 -0.38625522254903
109891000.0 0.5129430024353103 -0.8522923667320089 -0.9596738320725158 -1.6756550797032346 -0.0010276668013606575 -0.0005274996810209037 0.4288635638279026 -0.386943264158753
110890000.0 0.5088293368103532 -0.8614679203070398 -1.0281644304763042 -1.7000806353533169 0.0033213292628688695 0.0026811633833302533 0.4123560660717821 -0.3949618389905589
111889000.0 0.49200982798067167 -0.8603920286534679 -1.1015413260724767 -1.7453558793995252 0.004496481480485026 -0.0018286573659532814 0.41230311665424946 -0.4219891437349927
