! Created with skrf 1.9.0 (http://scikit-rf.org).
# Hz S RI R 50.0 
!freq ReS11 ImS11 ReS21 ImS21 ReS12 ImS12 ReS22 ImS22
1000000.0 0.9803264328332163 0.008121721269728925 -0.013739165153223428 -0.03648974935749013 -0.012072529424206512 0.00824739585339324 0.39760109961410783 0.35316590096391287
1999000.0 0.9998607387124758 -0.014839413855749268 0.01455041016855308 -0.025015912107633955 -0.0011871188484217754 -0.0005080813166863724 0.2573681416446102 -0.07307357235423677
2998000.0 1.0009137637062526 -0.019758289547029385 0.014722109872733312 -0.010949273895339742 -0.0035993463144087857 -0.0033150213413870944 0.18326310779708224 -0.13131708087889787
3997000.0 0.998228486337502 -0.03131338512041463 0.006123549852098486 -0.007087008101601452 0.00190915571358794 -0.00037690362847221773 0.09081498731931972 -0.23121210549900234
4996000.0 0.9978175375520536 -0.034631285780434354 0.009529616984101447 -0.0022653329382952172 0.001905019791249546 -0.004303436258334441 -0.04231413476158 -0.19343546010695362
5995000.0 0.9990481256202312 -0.04873969060080967 0.006470126471024613 0.0004838248229964911 -0.001656817593349619 -0.0011290344880326626 -0.12089909641230359 -0.11405173500078164
6994000.0 0.998005251364289 -0.05778502575159298 0.005776664977750824 0.004646024648850571 0.0026295395229036463 0.0005612121338564071 -0.14183341584429288 -0.028003744177161314
7993000.0 0.9975636159064327 -0.06713948574939475 0.008061938420062368 0.005440380292454038 -0.001133181450613065 -0.0016485224847682454 -0.1525502617389589 0.02389454978996541
8992000.0 0.9983118634210234 -0.07208410991670706 0.0026519460663099455 0.006344033888874114 0.00036103767212272453 0.0013622747826254453 -0.1559393194625045 0.061732018965938294
9991000.0 0.9976293181890966 -0.0817376385271698 -0.00029080097110496757 0.004619512988256815 -0.0005721524918956839 0.0044167055544735555 -0.15314946532375764 0.08318508505914479
10990000.0 0.9958381791169584 -0.0916367314619018 0.0060613799135429925 0.001351131618828286 -0.0004044653670534684 0.005135936295191978 -0.14267223386559538 0.11139804980250263
11989000.0 0.9935063639393491 -0.09926571315420801 0.0030454994294818565 -0.002761081633622173 0.0031435433086844026 -0.001273899293674943 -0.12983073057135305 0.14185987354889584
12988000.0 0.9932235897552875 -0.10962636001719862 0.0030957321651047974 -0.0016778691442825818 -0.00042365119052296057 -0.004618294782368215 -0.09627591796650256 0.16275741225967952
13987000.0 0.9909543749750471 -0.1182543323299985 -0.0025748453009486905 -0.004813581803219142 -0.0031192760589392288 0.004152722602959238 -0.07869131215195982 0.19163069481138148
14986000.0 0.9926367730933435 -0.12304064564132486 5.7444665622929964e-05 -0.007508871648097237 -0.0011768511427253758 -0.0012566079272255041 -0.08863548687125959 0.1985498956962324
15985000.0 0.9905719052521156 -0.13312384820982975 -0.0018718578383912425 -0.006044668327150239 0.003918741568081824 0.0014797801483962428 -0.07790746105285855 0.22501189390462747
16984000.0 0.9901511650597763 -0.14128090294080026 -0.0012578041249101887 -0.0038044439492071523 -0.001762720699319885 -0.0027080528893264283 -0.04900779547762372 0.22203164201857223
17983000.0 0.9912655315297261 -0.1477632597707886 -0.007663676872275585 -0.0055212062165661165 0.001989193437320246 -0.005439074474083074 -0.05407485784252134 0.2192151559061351
18982000.0 0.9856560352307129 -0.16062563682759962 -0.0003460988099228106 -0.004851522404721122 0.00467238615590133 -0.0013070969710551688 -0.024666569757074982 0.23586189437607202
19981000.0 0.9879571631215783 -0.16544514908803762 -0.0057663954738959204 -0.006338263999072036 0.00665351618852544 9.538355835212631e-05 -0.010962233183551969 0.23623712965527993
20980000.0 0.9854008504015456 -0.17654688698731244 -0.004550455908407184 -0.002951376802585898 0.002519013409386474 0.0020934586766714874 -0.011427427810368158 0.25670138953507776
21979000.0 0.9817671027154345 -0.18381697013807327 -0.004158547482275179 -0.004251086885275666 0.002143369430890195 0.00037474112965411486 0.017318565426266495 0.23947829245671962
22978000.0 0.9825739069410406 -0.19168576054474992 -0.004346784644093093 -0.006583977786260863 0.0023507069648830477 -0.0021090304553871026 0.033915818863756164 0.25191085873501146
23977000.0 0.9794106455615148 -0.20110205495165034 -0.009989128230911005 -0.0009435987137108452 0.0012933583068132804 0.004310320955009857 0.04372751295743986 0.2523405168367675
24976000.0 0.9770545384655894 -0.2096418416938611 -0.006967894717053567 -5.5675368157551135e-05 -0.003161529317051937 0.0014460497772971418 0.06215375897543764 0.24390057921411995
25975000.0 0.9694929323380759 -0.22227437307867767 -0.005372419978478031 -0.0035145127171558378 0.006015162184669343 -0.025945386593847933 0.08040397617565492 0.25926266552443433
26974000.0 0.9745745869123469 -0.22499011872664185 -0.005828996391841711 0.00048134581032903314 -0.00037467945746972404 -0.0011080497850882844 0.09373673280327284 0.2630420617227934
27973000.0 0.9732707041057781 -0.23281220131780686 0.000461840312328693 -0.0020591211139250973 0.00010546387260259652 -0.0010890134470426262 0.11431108249345513 0.25078799993056783
28972000.0 0.970210103830474 -0.24030428819573912 -0.0010013947151650468 -0.004307193182913847 -0.00015545374373525478 -0.001829912836191575 0.11536579235024945 0.26125355014123564
29971000.0 0.9673886768691088 -0.2527195897718165 -0.0012955677562777456 -0.002518838445413569 -0.00014528555292463765 -0.001210229091726183 0.14758096330027595 0.25513151951760604
30970000.0 0.9664849509587393 -0.2570780068681163 0.0046625133123870096 -0.0020697253860872265 0.0029486560827818678 -0.001395631087097694 0.1647360379489861 0.2514187704306705
31969000.0 0.9640765842486577 -0.26414636902376815 0.0022529163829398385 -0.006974713407042706 0.0002350978130586724 -5.633705618542322e-05 0.1523887961651887 0.24725139072070873
32968000.0 0.961537140016651 -0.27418122481599483 0.007892728510577597 -0.007516686951956662 0.0011538534054257392 -0.0008873624529398484 0.16450143476077522 0.2479141291045075
33967000.0 0.9582274679545579 -0.28502574100841604 0.010020467005065509 -0.006726796906878747 0.0014076645039335786 -0.0009244138564660485 0.19284194988296802 0.24712023642416425
34966000.0 0.9566587460671263 -0.29178295343161076 0.014609161597168185 -0.012572051547692059 0.003842734433224852 0.0013377739234669193 0.20125433833038434 0.256342346781017
35965000.0 0.9521759288990369 -0.3006007073016566 0.014017784090117783 -0.014773976564988885 0.00025583756943370524 -0.000699529072371016 0.21681789298809503 0.24707842990678683
36964000.0 0.9513398033426529 -0.3093048477375717 0.016272243103945778 -0.013247405076319253 0.00014591532870402894 -0.0003906189566050209 0.20945358638986572 0.245319728463536
37963000.0 0.9470163004248904 -0.31964681924673327 0.017729139761056216 -0.018625910657815783 -0.0024756044747080274 0.0019257674630665021 0.232463780101477 0.23193657162666725
38962000.0 0.9453386801639949 -0.32689840827051464 0.02035975142408976 -0.0237194299307398 -0.000703201503797353 0.001697206637730698 0.2455519676582207 0.23321586861355753
39961000.0 0.9428794167915941 -0.33385297185848634 0.02208620334270129 -0.027070687065991698 -0.0002786314231868084 -0.0008605669754661132 0.2535353280260805 0.22598369956195463
40960000.0 0.9394638655309037 -0.3432402563391015 0.025036712037278166 -0.02382056256603548 0.0024672664432090017 -0.0009438975755423904 0.2700908676333295 0.22564070416278018
41959000.0 0.9363708098691406 -0.3523434710875311 0.024980672432287923 -0.030869417385346466 0.00011557899429990642 -0.002055464344101311 0.285527853596417 0.2109867589935991
42958000.0 0.9321361967201318 -0.3598415024175612 0.027395526107044953 -0.040451444697788226 -0.0005924791681535411 0.0022305542917878257 0.28477524700256335 0.19902632730276926
43957000.0 0.9310745051664163 -0.36497797157789263 0.028094889085392087 -0.04465287153050201 0.0012075476816110085 -0.0018412638512543167 0.29062443267786003 0.20273634309534144
44956000.0 0.926980427123448 -0.3728680678551462 0.03303078617545833 -0.05154404886930354 0.002970640671849987 0.0012259143231688973 0.3105549634011024 0.19723935628808958
45955000.0 0.9220602928265613 -0.38514365937088463 0.03208477217132878 -0.0557751562733259 0.0027375737317214704 -0.00239608382188282 0.301874040426394 0.1930930475331617
46954000.0 0.9185868534184868 -0.39172930147197743 0.03567461387498196 -0.0644683453632164 -0.0004950803361405745 -4.927933029725236e-05 0.32340625601165024 0.18078390085548798
47953000.0 0.9177601859981727 -0.40022204398258654 0.033040216207169 -0.07184172017347251 -0.0009782956967974079 -0.0027988891682465163 0.3463030595457933 0.17370683579589696
48952000.0 0.9107945919559582 -0.41133648136748036 0.03668198027441677 -0.07802405180735807 -0.002796359607295955 0.0024894535433069667 0.34065327758661473 0.16506371446958537
49951000.0 0.9074953132855602 -0.4175393684992387 0.0364629220107908 -0.08567393802630405 -0.0035242951438114677 -0.0007177197888980819 0.3569683172558516 0.14818776806985692
50950000.0 0.9040244859203512 -0.42569193713464254 0.03794706922189023 -0.0920803093180571 -0.004582880011906333 -0.0036936731523199797 0.3622785811305679 0.1496464576226999
51949000.0 0.9013114491423456 -0.43300398049662864 0.03697504325592191 -0.1042838384553556 0.0018623055381944194 -0.00187526483892553 0.3545858728429696 0.15094656094522116
52948000.0 0.8988483158586436 -0.4405104564605479 0.03804292315022795 -0.11041429988088433 0.0015478767497611719 9.81622234409993e-05 0.3766195360497114 0.14163808511025625
53947000.0 0.891705351185908 -0.44910233216430356 0.04072927419898186 -0.1173890847884255 -0.0009011770862803186 0.0016601852664351396 0.38254391430903156 0.12886455701287416
54946000.0 0.8871476535420455 -0.4571547508184104 0.0397237409029509 -0.12777288093302594 0.0027011690196234294 -0.0017101801388820425 0.387970539221191 0.12441392379238851
55945000.0 0.8842453220142639 -0.4670220755990993 0.04097534978321821 -0.1392534745244905 -0.000360740527508761 -0.0022700941521359196 0.3957098136129368 0.10633685569295721
56944000.0 0.8812557075704751 -0.47412048167893067 0.044840358982277055 -0.14966183750034784 0.004846038434764178 -0.0008031943419175435 0.3964125645700228 0.10048457919510578
57943000.0 0.8772088668615944 -0.4840465822505077 0.0437714809136289 -0.1595329856689137 0.004648171350556859 -0.0021684452134103868 0.40230745273874374 0.09631947838289753
58942000.0 0.8703004897617735 -0.4889932170955104 0.043101258793316506 -0.1659979507399762 -0.0014082616994385308 -0.0014343961993795514 0.41641738010635065 0.08635257893869225
59941000.0 0.8693361588929241 -0.4942502287721235 0.047766308286983014 -0.18048743803069203 -0.001364035209278834 0.0029898215725269704 0.4216908472773172 0.09149255281075254
60940000.0 0.8604931223108495 -0.5038106344488227 0.04703125329620094 -0.1815230536142134 -0.0009184933466160867 0.00033937234619217486 0.40964801356986735 0.07492460960426682
61939000.0 0.8588643812563096 -0.5108160266193854 0.04923197505316427 -0.18982432549242634 -0.0007904143626302058 -0.0021822908602422563 0.4168512593765426 0.06997440220595268
62938000.0 0.8517657041628277 -0.5240975814073198 0.049063684912880365 -0.20842729048742537 0.0017738780224559728 -0.0018844290570482313 0.45039958115390355 0.0613844520141566
63937000.0 0.8477631602186564 -0.5293021761499538 0.05118649907162705 -0.23007577973937265 0.00015930384384674486 0.0010321254362317847 0.4391677011682781 0.03706933651712686
64936000.0 0.8415260332782661 -0.5350990160549228 0.049158805601459715 -0.24391441475377773 -0.0016797277211036809 -0.001269368959229678 0.4450510192053919 0.04312302674073189
65935000.0 0.8381693032040557 -0.5443490723308231 0.05469900096850322 -0.2541075227600665 -0.0005666865085503559 -0.0011447120962368692 0.4498062159252388 0.0196197449068632
66934000.0 0.8348735046051409 -0.5520181024507528 0.05196381722794985 -0.26880043957811944 0.00022527721475931135 0.003204774886499095 0.44021676863967757 0.010038820488512514
67933000.0 0.8311549535258125 -0.5602513293286366 0.05210414513767585 -0.2801861987125026 -0.002727625431400516 -0.0025467168109699883 0.453593601489331 0.007888222003591915
68932000.0 0.8264837432727159 -0.55310453324839 0.04860459113392035 -0.2935478812737616 0.003669365219020446 -0.003462501216857986 0.46475682932682905 -0.012989745438718786
69931000.0 0.8175108017836328 -0.576337649830446 0.047833361193071244 -0.3089042538210395 0.0005586153556545187 0.0012876420915720235 0.4565991187595289 -0.025433535893218354
70930000.0 0.8105399784208138 -0.5822491957079774 0.04682452968718081 -0.3237038044347553 -0.003817983804286303 0.0025679743811431385 0.45559171737611326 -0.032554106938046334
71929000.0 0.8093852794158483 -0.5892753555978132 0.045487152047237855 -0.33904757532305324 0.0021744358083568764 0.0024101648383949544 0.4613145100238581 -0.03858687807088968
72928000.0 0.7996087560063128 -0.599688869190547 0.036989680229738475 -0.35283163883832996 -0.0009370058189422138 -0.0012002123852337264 0.4735003912281535 -0.04157519464386832
73927000.0 0.7957096929730156 -0.6069992675067979 0.03401077649440863 -0.3760945077023691 -0.0015018416900702566 -0.002553084265524136 0.46988817690605555 -0.04844205626791107
74926000.0 0.7906972810199702 -0.6133596781763749 0.027854184452382538 -0.39031394823378984 0.001144038103954943 -0.003224641360826841 0.47185484520836385 -0.05710002707215651
75925000.0 0.783350897074788 -0.6205875511079197 0.017802119373593744 -0.41134649181064703 0.0009064677891794455 0.0025262126317830273 0.4759911690472815 -0.07403928698334603
76924000.0 0.7799066907997035 -0.6269726837389774 0.005789772311620092 -0.4298506600714597 0.004317919408664169 0.0011381664448037786 0.4749030392141526 -0.08821656673301799
77923000.0 0.7702769789634168 -0.6345801415179897 -0.0070319917050730265 -0.4543038975373861 -0.0025709533002474436 -0.0016508408294401906 0.4613926654598385 -0.08751521072856744
78922000.0 0.7675223486873846 -0.641520625884625 -0.02648925836842515 -0.4789815008403256 -0.0016631689969217429 0.0011855560956269948 0.47093797561082207 -0.11320173084180638
79921000.0 0.757039799776024 -0.6489312632691367 -0.04229093943576594 -0.5063366440550104 0.004281317967765429 0.0018158825544040283 0.45991969054122145 -0.10762814628370722
80920000.0 0.7521011296347148 -0.6588779959166841 -0.05417671813213504 -0.5297887939723539 -0.001190265910648648 -0.004610391098068334 0.47229426152749737 -0.12618708643992033
81919000.0 0.7496932988872528 -0.6652394744665625 -0.0747246987480804 -0.5601365517282447 -0.004586910315606975 0.0016124079241241409 0.47115249754123084 -0.1332282611635402
82918000.0 0.7397657710138893 -0.6715733253496791 -0.08758877073024818 -0.5896570290185338 -0.0019529865084978732 -0.0006466336316851187 0.47656428289924097 -0.14881329665635484
83917000.0 0.7297458686509283 -0.6817798349341978 -0.11133454253976628 -0.6169545014727269 0.0019643317824955043 -0.0005708004990073455 0.4806218204196784 -0.14265486920702858
84916000.0 0.7249624116546424 -0.6893194387973436 -0.12772683930954548 -0.6472420873931125 0.005286701549822938 0.0005606478129099829 0.4739736312153747 -0.16183873439171464
85915000.0 0.7207591650185781 -0.692362123301616 -0.14583182251804155 -0.67961303911937 -0.0038837284943612133 7.889687136877807e-05 0.46900547948149823 -0.17591777965097763
86914000.0 0.7115884175924468 -0.7067797761009277 -0.16070332781632563 -0.7149878966799077 -0.00013105113823179892 -0.0027853297454328726 0.46746892369641013 -0.16742010666022134
87913000.0 0.7044807350762287 -0.710238148042934 -0.18214417239638547 -0.7416081162824716 0.00043280587291459496 -0.0035382658171972657 0.46576040723668954 -0.19263161701993045
88912000.0 0.6992368670974569 -0.7167211392673816 -0.19565318272117438 -0.7814612532864792 -0.0017021810629323396 0.0016013179014157464 0.4802880499929634 -0.21050064313905725
89911000.0 0.6907373522287599 -0.726300803392783 -0.21473755457918375 -0.8138196874875615 -0.002261212962791301 -0.004405029096635411 0.46874536078220963 -0.21336110528668556
90910000.0 0.685517654108165 -0.7300854024742848 -0.2284153845111447 -0.8492894536326387 -0.0011092851592676843 0.0011334052540148505 0.4736911363128025 -0.2084628496583648
91909000.0 0.6750106788448863 -0.7369843065048032 -0.24661871020358211 -0.880343984432518 0.0006834188544766266 -0.0012520467485165464 0.46907362552435133 -0.22349765851444744
92908000.0 0.6676115427040573 -0.7447343282092672 -0.26679444654286844 -0.9110933741049183 -3.1330103299497475e-05 -0.0005238108281603224 0.46577400252448226 -0.23155540718653841
93907000.0 0.6613706994279462 -0.7482322935206615 -0.28143416614286143 -0.9425823797427322 -0.0004034017562651985 0.003130049668276552 0.47149507834635745 -0.25526719051841
94906000.0 0.6481806595141256 -0.7583009960970862 -0.30143070180492937 -0.9711658920999995 -0.0007793262006946759 -0.0011105035893894273 0.4585686652866761 -0.25375909328967183
95905000.0 0.6417921754225793 -0.7641956850482431 -0.3209097296206076 -1.0050819794304486 -0.0019136693140173985 -0.0026728723463510526 0.46117923790090387 -0.2620843284787198
96904000.0 0.6343612766981168 -0.7736608151476558 -0.3384359421886809 -1.0452057208970202 0.0018484223938340788 0.00025336636054080504 0.4711299377185422 -0.28149358142828496
97903000.0 0.6265013091124094 -0.7772357519546031 -0.35956651768407355 -1.0747150782251773 -0.007377129413091852 -0.000402899508384013 0.458343684218348 -0.2815866706329533
98902000.0 0.6205206712492105 -0.7868824459532879 -0.37922598737888824 -1.1138557279524612 0.0011712710192762859 -0.00019643539920159627 0.4575431768001549 -0.2955482602006349
99901000.0 0.6099777533742401 -0.7903961108567746 -0.4071001189750634 -1.1446042207118972 -0.00200036814753523 0.0012760330768543863 0.4698908859613488 -0.3220069687731287
100900000.0 0.600521704484402 -0.7940730198886929 -0.43732814641026246 -1.1672746305503106 0.001755914256760177 0.0014053504235265859 0.46132186781474 -0.31008585441764286
101899000.0 0.5928498401707778 -0.8016139062082712 -0.4575500582944783 -1.2081209701659512 0.0003520019938465823 -0.0010272665505622338 0.4582865720047737 -0.31923848412294115
102898000.0 0.5832653715651774 -0.8069255197661896 -0.4884424640336342 -1.2473023748689618 0.00020099572208385623 -0.002474345285984557 0.46163400300020296 -0.33015256505138446
103897000.0 0.57517081103213 -0.8155510118794789 -0.529266205536414 -1.2789987783188406 -0.003652790811001738 -0.0025044404695782384 0.4642228736796476 -0.33755305039743005
104896000.0 0.5678246007669236 -0.8264674876587002 -0.5767996260946865 -1.3084303463834175 -0.0008113651098700157 -0.0001897353761680126 0.447497902123608 -0.338142146327502
105895000.0 0.5583416225933693 -0.8282009545924247 -0.6190605607226265 -1.351622738732146 1.5959398643375103e-05 -0.0007910187836687772 0.4428847241192737 -0.35610646138871843
106894000.0 0.5478794758877408 -0.833968243178944 -0.6696837965226679 -1.3808363894017228 -0.002289328804960101 -0.0038384783244900514 0.4300681098542639 -0.36309856939732066
107893000.0 0.5411281882685854 -0.8403525982950003 -0.7175463328384564 -1.4157836948821254 -0.0013674502045700442 -0.0031672643469911606 0.4438249286311695 -0.37677798080903996
108892000.0 0.5331621330742937 -0.8421880603455912 -0.7762320841854877 -1.4495203985670755 -0.0005090928472658598 -0.0005197709485376611 0.43005734027818887 -0.37261181091029594
109891000.0 0.5188986139185006 -0.8534202265908976 -0.8249760989106097 -1.4834058586331769 0.0035298547144305844 0.0015859358623576739 0.43448026858343 -0.37079394721687486
110890000.0 0.51233272377713 -0.8686272071263408 -0.9003484994123413 -1.5043587932757083 -0.00026377200374427004 0.0036970700753585634 0.4193839798104117 -0.3918863895140788
111889000.0 0.5008318038929235 -0.8588157019095309 -0.9457355587398449 -1.552830247688083 -0.0015044247948499785 0.0010240620378866702 0.42510800737251053 -0.3994014876659494
