! Created with skrf 1.9.0 (http://scikit-rf.org).
# Hz S RI R 50.0 
!freq ReS11 ImS11 ReS21 ImS21 ReS12 ImS12 ReS22 ImS22
1000000.0 0.988988884928295 0.00994124622972975 0.0022992796786273748 -0.041240583880832134 -0.021791305634418077 -0.010959001573472784 0.2778964615582902 0.33091090842458154
1999000.0 0.994213769989164 -0.009581028909975725 0.0005637081902427434 -0.012032870756239064 -0.010453392513436032 0.0004633774400728844 0.23577922337313115 -0.047127423215927236
2998000.0 1.002104869739119 -0.016276634139257277 0.01277788553458007 -0.012451572961082843 -0.005571347156242014 0.002724883567335314 0.17082624704508437 -0.12735490059079704
3997000.0 0.9993397493699249 -0.027573277078824076 0.007502003774863209 -0.008754421135679855 -0.0017250839602402754 0.002480264254917554 0.10174295449060071 -0.229156975675024
4996000.0 0.9962649256392769 -0.03895223726573294 0.013302455827378563 -0.0013441576742116682 -0.005120150498968682 0.0005090423126811373 -0.044170999118902037 -0.21571732138397684
5995000.0 0.9932000058061583 -0.05049229977864943 0.011296795572765465 -0.0001494764377003049 0.002636158306397633 -0.0009743833008071123 -0.12676091212944268 -0.10159664076194502
6994000.0 0.9957074112160121 -0.05614139624864313 0.007862906000768126 0.0032624926261348997 0.00015628263273355242 0.0020949639249149064 -0.14367712164826466 -0.03238268025210014
7993000.0 0.9982490826564562 -0.06383003845043195 0.0007914174197988669 0.004162165346162368 0.002694101318981232 -0.0007003852925815818 -0.1689711001144348 0.04726712772665219
8992000.0 0.9967127804379501 -0.0731230976467815 0.0010294773726116247 0.0042159730625421065 0.002365670616873557 0.0003611518790773305 -0.1763616147932317 0.07474132851966014
9991000.0 0.9939944639951174 -0.08235731802377454 0.004579128872475168 0.005874531671534702 0.0038961500549693764 -0.00199936501098777 -0.16744598163972763 0.0883933512454302
10990000.0 0.9958107379792475 -0.09052233963495711 0.0022411717414774334 0.000724287252012631 -0.001099991910603925 0.0025818392640530366 -0.1349976379078445 0.11587897859966885
11989000.0 0.9921505947453145 -0.10095865730346594 0.006959669039950639 0.002179811682589245 -0.0008757094725725698 0.0001707701071372605 -0.11298005296641007 0.15024733760272482
12988000.0 0.9898627407348192 -0.10794246605924966 0.002711513939209658 -0.001501318752920819 -0.006179113678798485 -0.0007650950752386579 -0.12181862708896557 0.1727796692732092
13987000.0 0.9898091978935838 -0.11656886638489874 -0.0014993144983497227 -0.007756843405737821 -0.0024658137032995296 0.0027241785561193045 -0.09050225733473018 0.1754670114966294
14986000.0 0.9879642144595872 -0.12404441693704328 0.0014848688117024714 -0.004183486948674908 -0.0011360376709564452 -0.0012168912226521546 -0.08720740356196534 0.2028129194707046
15985000.0 0.9896570587474232 -0.13160017243301497 -0.0038798208757947067 -0.009507510876909245 -0.0022190460050739596 0.002016567892401667 -0.07005300060599233 0.22598979777445005
16984000.0 0.9866160416638167 -0.14247220750947232 -0.00018634853609736848 -0.0019398447069916107 -0.0007535277300354912 0.0019690644478555196 -0.06970893980090515 0.23254895701179523
17983000.0 0.9887853638737958 -0.14718421020600397 -0.004220757384150572 -0.004971977645669621 0.0016091151686817113 -0.0035618494134393762 -0.0505161577894896 0.23201248785043316
18982000.0 0.9862375316347316 -0.15805589152268842 -0.002197966843683748 -0.0033405657800838024 -0.0011479982709127247 0.00343405925848425 -0.02127473191170067 0.2411677854530436
19981000.0 0.9832645972921018 -0.16521703960548567 0.0006431343117544206 -0.0034121304604374627 -0.0023417257642549824 -7.533078082681759e-05 -0.014534551156453359 0.24158283842218686
20980000.0 0.9836475029867988 -0.174641938210258 -0.007361016393515479 -0.00017063243449772853 0.000320127795937688 -0.005674761298738836 -0.010647334463917633 0.2623657747504761
21979000.0 0.9795997293667362 -0.18312345390369086 -0.0019226832864515674 -0.0050521720692193175 0.0010683937043775285 -0.0007430131075933066 0.012901227484602065 0.24919061733386058
22978000.0 0.9794557725616235 -0.19104571055303254 -0.005456222988255607 -0.007920120825273505 0.00040874299634460277 -0.0009715419681502368 0.03286796559862505 0.2609775865733638
23977000.0 0.9786318644997083 -0.19735318844858954 -0.0057692769277287136 -0.003093751962209824 -0.005906519518615472 -0.004219603047054836 0.04400326353465428 0.2629280646633025
24976000.0 0.9754430691774578 -0.21062337097687234 -0.001356217547864317 -0.002863129890183974 0.0027825759031082408 0.0010856301754931822 0.06006265327755297 0.2532393865148556
25975000.0 0.9718601950131169 -0.2225310234777757 -0.006340435467246132 -0.0023221005067583364 0.022644535877935835 -0.016192897927266654 0.07983502732930736 0.25755005098220957
26974000.0 0.9729726438549208 -0.22635931244586652 -0.007897758348854261 -0.0023021155652144824 0.0015165091181040462 -6.712195771346846e-05 0.09355189643980323 0.259495056968252
27973000.0 0.9710417008405696 -0.23183206946765092 -0.00036060184605784607 -0.0021047097254908273 -0.002385343777729173 -0.0013354310113774942 0.1113142609878729 0.25731743289704206
28972000.0 0.9674100112735015 -0.2418739141614986 0.0014491703976739702 0.00043282584166667637 0.0015056939976740282 -0.0012468132244520043 0.11535964588425514 0.2487778228589905
29971000.0 0.9669129422753305 -0.2517574288724433 -0.002336993340966533 -0.002822620422422767 0.0010732896498452493 -0.0007451223488602807 0.15401622835479553 0.27227025353380685
30970000.0 0.9640266333019842 -0.25550735245084744 0.001476584854197687 -0.0010616748856660384 0.0032066564960068116 -0.0020368593793429427 0.16341919799205065 0.2655716914199157
31969000.0 0.9621111392647956 -0.26566148717606225 0.005874916886456911 -0.007033788423099136 -0.0016620406041136459 -0.00033971737386031213 0.1467991705990147 0.25442715068255073
32968000.0 0.9614308645328369 -0.2743152640697232 0.0060095221126917255 -0.006851747491959199 0.0008977923655995489 0.0019128428924266533 0.16581560875162837 0.25181440034145564
33967000.0 0.9582626990722841 -0.2824426382678454 0.00887389073548116 -0.010731002965815528 -0.004342250129484042 -0.001955495546503704 0.1788062785111425 0.24598561175401243
34966000.0 0.9543965853481405 -0.2927508009823532 0.013993021766011218 -0.008955270194809104 -0.0019079054067480832 8.935601142301892e-05 0.19598831730039085 0.262700765335317
35965000.0 0.9527863012084425 -0.30106021317094545 0.014808929693978552 -0.016952681729413797 0.0008972840949879911 0.003661762636556551 0.21312073577204277 0.25045898822159113
36964000.0 0.9496459554319232 -0.3101616372422442 0.015097567090477316 -0.0127186040235765 -0.00011210256857367453 -0.0033863198491452615 0.22352185485174875 0.25478609246902345
37963000.0 0.9471361533153192 -0.31806411261420275 0.02083834200088176 -0.019514567628679026 0.0019510682387994345 -0.0017001805403097851 0.23100317228006365 0.2441037223938775
38962000.0 0.9437774963542379 -0.32860519182801473 0.02398569484141021 -0.024269820723168672 -0.001435212413393119 -0.0007314508529889749 0.24097042069143404 0.2378777048817171
39961000.0 0.9402681502357539 -0.33468238790267063 0.022328278583331532 -0.027954163199157625 -0.0005686775482312843 -0.0013498979252053304 0.2603291643402345 0.22722083057218848
40960000.0 0.9376643688231974 -0.3422834922098855 0.02560288550252247 -0.02496166868610199 0.00039266948456488236 -0.0010765641437069829 0.26854246732393294 0.22665985404472133
41959000.0 0.9334610272051348 -0.3518982409804496 0.029443617842943002 -0.02881903848584697 0.003300808127335487 0.0024885947704108027 0.2673534694265843 0.21650562301143236
42958000.0 0.9302470578956347 -0.35935333902096367 0.032364903209135217 -0.038115113655914884 -0.0030673253855467587 -0.002988921605392224 0.2852393522861388 0.19967922184690132
43957000.0 0.9292879015629156 -0.3647017080009263 0.0324106187307053 -0.047842187224904915 -0.0016316183678690877 0.0014692416643398779 0.288196727254824 0.20378481168283522
44956000.0 0.9266249019096521 -0.37270456916293315 0.03257353965352158 -0.048708285016621736 -0.0002124925871435499 -0.003461445315563145 0.30552053125746786 0.19936371430667768
45955000.0 0.9207432430827837 -0.384376652218105 0.034918154835482315 -0.05896282324596815 0.00014389480227328984 -0.0005806871072365314 0.306373258499742 0.1984108186572755
46954000.0 0.9177834715246058 -0.39206071440561757 0.03508423009629658 -0.0644245819782334 -0.0021785417184249723 0.0009617577860781636 0.3271806981445041 0.171674547882541
47953000.0 0.9158783068264943 -0.3990399615898562 0.036438959133655954 -0.06835608103413882 -0.00030614640031787773 -0.0007081917119286314 0.3337698964354605 0.17154529179916883
48952000.0 0.909979586016793 -0.4112814330330341 0.03497533195688805 -0.07934529810168643 0.0010953442261736588 0.002450840443743335 0.3456652057843673 0.16415379098897157
49951000.0 0.9058621983967159 -0.4179942989992437 0.03661152807492031 -0.08490302890215003 -0.0031380222315512242 -0.0019498337688865365 0.3497270835647701 0.15492149754401516
50950000.0 0.9031930851384204 -0.4240194582140565 0.036694814406033935 -0.09323982748357446 0.0020042904667235805 0.0005303760302850909 0.3559770581429831 0.1480065911534593
51949000.0 0.9008846360108096 -0.4332661322670755 0.03903269619294897 -0.10106404830679874 -0.0009377943409679481 -0.0021136146155457227 0.3616304491243561 0.14472734539856838
52948000.0 0.8957087763427904 -0.44101262438903144 0.039797906586591984 -0.11127715279308191 -0.0019747076912697992 0.0020611314165137314 0.38086405309367255 0.1373097163570742
53947000.0 0.8924739280089863 -0.4466173728754969 0.03983006376441716 -0.11915161144194593 -0.004247408766495343 -0.003333904010795529 0.375452573099207 0.11918369130541581
54946000.0 0.8861316400453944 -0.45916452632194876 0.04387994938473739 -0.1322499580091914 -0.0015256012710709943 -8.482440502783824e-05 0.3894832121504682 0.11366723834528289
55945000.0 0.8848107515699108 -0.4636823231505484 0.04331893106748378 -0.14062693839880247 -0.0009889330838044946 0.0009316959061233083 0.3923674386775443 0.10564054269490226
56944000.0 0.8786249161374095 -0.4726223703894372 0.04627794632495096 -0.1520939054932674 -0.002975597257754408 -0.0021711545322810276 0.4015734340595461 0.09519143512450773
57943000.0 0.8753721045469736 -0.4837929600914035 0.045453197593305066 -0.16147249157746332 -0.00096694983854757 -3.4839609509699944e-05 0.40262829169947867 0.09177893415876817
58942000.0 0.8686950083866583 -0.4881678089818127 0.04774285128584134 -0.17234108817687105 0.0019051581504385834 -0.0007360759867340031 0.4259754169292719 0.09867418300560181
59941000.0 0.8661497339170507 -0.49714274875876663 0.05049885084005964 -0.18184268007756982 6.169681819415334e-05 0.001659835897054199 0.4248636286288719 0.07817379267118899
60940000.0 0.8581296992087535 -0.5054816090867148 0.049239537145589596 -0.1891400748220432 0.0010765229192333731 0.0020813459930692103 0.4091183024126634 0.0710143640812934
61939000.0 0.8563211492309835 -0.5107461491168855 0.047744899216358265 -0.194826395410529 0.0015988129265941517 -0.0013213516450042524 0.41649679005867524 0.059211841423653204
62938000.0 0.8499889398855557 -0.5222662265255424 0.05833756630224379 -0.21274043650698216 -0.001563300925988298 -0.0019841986549244835 0.4489002949679323 0.06213908006330131
63937000.0 0.8460008624629487 -0.5301524417674099 0.05363039128022628 -0.22806073529253085 -6.121097084909515e-05 -0.0030101716209127863 0.44217928480978386 0.043571771031231145
64936000.0 0.8382805582422623 -0.5353429500432795 0.051797554852014274 -0.24388556423042465 0.0031475376301849313 0.0025096154538035956 0.4382443826712906 0.04041811314088476
65935000.0 0.8364888607548607 -0.5456345038439515 0.05258034280427658 -0.25850950556139085 -0.00024461858333232466 -0.003960374334278704 0.44221407312841493 0.016993115779495752
66934000.0 0.8311442390618236 -0.551050195684878 0.05463544629373098 -0.2730410606145802 2.4611471387265886e-05 0.0009161040219411297 0.4341472468256497 0.010386386006133902
67933000.0 0.8305086823561828 -0.5576563837462968 0.057935672425859515 -0.2853912030907111 -0.0003917455659770578 -6.582216988222638e-05 0.4488844174037129 0.012122904873389944
68932000.0 0.8226250652645466 -0.5653132140137009 0.05125421763747539 -0.29874230313588046 0.002124395073660999 -0.002954053921902049 0.46247576012915903 -0.010736537821688973
69931000.0 0.8147408440792654 -0.5751956479407732 0.05312246430322655 -0.3129919031822428 -0.0012054925454436044 -0.0009154692129153768 0.46033166543611015 -0.02381240585613239
70930000.0 0.8073010402659323 -0.5836224257065038 0.04711460292245347 -0.3272277866364951 0.0009611955486963189 0.0006648783767362136 0.4442159741856982 -0.028695607675933352
71929000.0 0.8060428683334269 -0.590513496605981 0.05055423485581893 -0.3467387470004365 -0.0019801956908422707 0.0015404930931587142 0.45316698101587277 -0.05310276667179995
72928000.0 0.7988428034658794 -0.5992305704824933 0.04035410547419711 -0.3580004312518874 -0.00211351719743369 -0.0026395401885086047 0.46856914470971806 -0.044441002092811495
73927000.0 0.7924768469385075 -0.6047694371282343 0.038306232527183376 -0.3788894216385215 -0.0005756013798500843 0.00023629761228306757 0.4655465644746102 -0.046731502774120484
74926000.0 0.7873437615541127 -0.6151664078717404 0.034066873595884305 -0.39954961403973555 0.004100436152723229 -0.0029504833285989474 0.4667989661509411 -0.06074717189608574
75925000.0 0.7798210838162339 -0.6194214073090097 0.021669935929929943 -0.4187130404391522 4.633312218266347e-05 -0.0018828231200208097 0.47533951711263606 -0.08657687458049056
76924000.0 0.7751119670850498 -0.627271508938948 0.008003264839815658 -0.43935660946737076 0.0021138615966722228 -3.150511765350966e-05 0.46393374292493345 -0.085383114259564
77923000.0 0.7698025836518813 -0.6335202929021992 -0.004294858821499932 -0.463856374151734 -0.002820270187580765 0.003468532359895631 0.46172125443382833 -0.09298039419174342
78922000.0 0.7637046650960456 -0.6445842050000424 -0.016839133256868425 -0.4927346510456895 0.0008151759764505242 -0.003725205305874957 0.45642474061769844 -0.10427220347276987
79921000.0 0.7556288583673347 -0.6478197357880341 -0.03844867116970388 -0.515078667924322 -0.000704087465215367 -0.0011983919201257155 0.46790435495430127 -0.10917622354615146
80920000.0 0.7513452709030566 -0.6611114053233483 -0.04966606054028158 -0.5426462132071402 0.004002363927766565 0.0027836020329265816 0.4645724504188248 -0.12940960629276543
81919000.0 0.7461055737770065 -0.6658703457159538 -0.06838650292294667 -0.5702077345625625 0.0003901800360385776 0.0014730611494727344 0.473973002460488 -0.13387883936825198
82918000.0 0.7352484469023157 -0.6747302421795933 -0.082312379207523 -0.5978879012383483 0.0017718866453711923 0.002673434373321182 0.4756860961322102 -0.14052097846406314
83917000.0 0.7301050478778163 -0.680314415102555 -0.10269956206555775 -0.6277854320518617 0.0015320416946240016 0.0004381798814124366 0.4714376866646093 -0.1563125305064239
84916000.0 0.7250130664748368 -0.6870728920942477 -0.11687237056335863 -0.6645196964070372 -0.0015057987912337394 0.0028110267643725855 0.47508456779509944 -0.16741453109853868
85915000.0 0.7173928650462676 -0.6955289339205865 -0.14368747875200155 -0.6913469985028452 -0.0018883982704330654 0.000739700064516969 0.47225131228977013 -0.17012275847925223
86914000.0 0.7096597814752239 -0.7028978880645022 -0.15658042951890788 -0.7307311812682379 0.005585305237273263 -0.00028619551246805887 0.46924784642777817 -0.1782312749095745
87913000.0 0.7013158769388889 -0.7099713560443388 -0.17709651097568327 -0.7627183334339354 -0.0028556000919470106 -0.0033800806114458615 0.4640118510247286 -0.19796069350405163
88912000.0 0.695541931346442 -0.7162545818798378 -0.19038049370424273 -0.7942917129637755 -0.0014847325809690536 -0.0030554849084734443 0.46518917764186957 -0.18758784586929172
89911000.0 0.6888747555433301 -0.7240658603090724 -0.2050450375696731 -0.8346339214398438 -0.003137819769835838 -0.0015412494428311625 0.47468927440219144 -0.20418624638432664
90910000.0 0.6802217764073009 -0.7296852008032614 -0.2238938857729308 -0.8652521241849093 -0.0034160704356384136 0.0032434919893930946 0.4693634063381386 -0.21223753842254067
91909000.0 0.6721483752851912 -0.736019372138042 -0.2463241233455492 -0.8997831320368518 0.0019243739699613756 0.000711875313730638 0.4733384162396927 -0.22220009882243394
92908000.0 0.664245049108869 -0.7445581213037409 -0.2624240598552403 -0.9282629939376519 -0.00017030755898129874 -0.002865949410176291 0.45749267847135 -0.23821464978063372
93907000.0 0.6594729534422864 -0.7505374295630486 -0.27884476909237116 -0.9655016271761648 -5.6762655023945684e-05 -0.004586000781254908 0.46386529866544673 -0.25133822793004623
94906000.0 0.6477461399727044 -0.7580151766293745 -0.29440292628719905 -0.9981420488921073 -0.0006173046078322749 0.0003002214518735151 0.46402176852995486 -0.2547325762212854
95905000.0 0.6410436893224513 -0.7640734003071045 -0.31347319740288626 -1.0320010042563 0.0008290968399022827 0.0005639441805471964 0.4689226865449987 -0.2682582840257144
96904000.0 0.6317899184630071 -0.7727689413747855 -0.3385011357042356 -1.0707354868537524 -0.0007502735579144965 -0.004824874596887915 0.452027642820866 -0.27843280609477683
97903000.0 0.6221636045504699 -0.7780562006936044 -0.3582978626792701 -1.1000865853833812 -0.0008591060787010499 0.0008295212460720374 0.459047836817098 -0.2765642773670218
98902000.0 0.6198919504593726 -0.7850478737501775 -0.3755498906000496 -1.1416967431723237 0.0011417531979843465 0.0009721654724009271 0.4435617155959295 -0.2881456902013212
99901000.0 0.6074467523564998 -0.7912093388987147 -0.4023230239465089 -1.170495003706781 -0.0005102273478158721 0.0014171529391585726 0.4583587029943698 -0.32448098595498487
100900000.0 0.5994183684692069 -0.7932668228671321 -0.4331720444352381 -1.198344375646999 0.0026922584767678464 0.002521419290334647 0.45769503222640784 -0.3101192252912861
101899000.0 0.5926271242753463 -0.8016844939545315 -0.45298004792900565 -1.241392139445967 -0.0003489714692255263 -0.0023303474175818887 0.4507288527543123 -0.32161598906114947
102898000.0 0.5829405026371695 -0.8072723124702867 -0.48793462526787407 -1.2754033759327672 -0.0013261309923000028 -0.0008654824744906219 0.45720152259284363 -0.3386429743723993
103897000.0 0.5720878392710604 -0.8134946444219342 -0.522204588190095 -1.3095597263482157 -0.005250745208019651 -0.0021766830668378608 0.4537600005755943 -0.3308370760519998
104896000.0 0.5650780733748898 -0.8240872413931201 -0.5638676134739555 -1.3414307038144704 -0.001736574358440146 -0.001030036959484559 0.4413425276483273 -0.34340317028383055
105895000.0 0.5559521074828664 -0.8279814698852622 -0.611631093530048 -1.3819728975823797 -0.002140109341661247 0.00019892458610806576 0.4357687943996535 -0.35548138121352085
106894000.0 0.5447713372972547 -0.8340644694868381 -0.6623512856934344 -1.4162014904752267 0.0006332492584904229 0.0011106428900584243 0.44119695925911623 -0.36454178626394773
107893000.0 0.5410255069301888 -0.8390324492341952 -0.7079770100807277 -1.4613347458355164 -0.004785757441759698 -0.002235051304185582 0.44095487402637396 -0.371551915696023
108892000.0 0.5280252103073864 -0.8447793660949826 -0.77043184088925 -1.498706255301552 0.0014480247614277373 -0.0006111912358674201 0.43337965838179504 -0.3599437396120102
109891000.0 0.5172107985991137 -0.8510959132626986 -0.8263827803865751 -1.532604773288128 -0.0037462260958609924 -0.0011353188320904 0.4476415662719755 -0.37479413010687956
110890000.0 0.49772994965080375 -0.857305981494127 -0.8971215515160299 -1.524395554672563 0.0013608654444083436 0.0003462076652809422 0.43139855731289484 -0.3831726359923853
111889000.0 0.4962202974890373 -0.8579489397236244 -0.9532266602317623 -1.5990066529015445 -0.0008536865654629596 0.0005963975168023891 0.42008305531928036 -0.39087828909600286
