! Created with skrf 1.9.0 (http://scikit-rf.org).
# Hz S RI R 50.0 
!freq ReS11 ImS11 ReS21 ImS21 ReS12 ImS12 ReS22 ImS22
1000000.0 0.9803046496009415 0.002001970477115579 0.005608717914038843 -0.04650100686823501 -0.019113593830662124 -0.005017281059435959 0.28163482113807203 0.2567089743416194
1999000.0 0.9961906410599728 -0.01067736182446814 0.008100462762877052 -0.02655994063875411 -0.006974637621127215 4.0390298639535055e-05 0.257764103799344 -0.057321296311327326
2998000.0 0.9960933745534337 -0.022351217192643137 0.010359669265648611 -0.0154274699026242 -0.004837133711602768 0.0042458766636085925 0.1971469188225444 -0.1538127310230759
3997000.0 0.9976506714959356 -0.02990124567302797 0.014286515244812411 -0.003466661227729444 -0.001247684041113496 -0.002134259488148219 0.10083263373802644 -0.22664097068150105
4996000.0 0.9996427635807499 -0.03679373207668531 0.007264272129966334 0.0002697931872442127 -0.0020898247497527405 -0.004584867212964939 -0.021809977772370957 -0.21928297329491564
5995000.0 0.9966667756271643 -0.05141679523464825 0.01164668405260879 0.00021127142160994454 -0.005704142943651658 -0.006120421386611301 -0.1265515596335226 -0.1496771937281127
6994000.0 0.9958541001581136 -0.057598347584228896 0.0103442635044062 0.002028863582848778 -0.0012639918315420545 -0.0048444565648475945 -0.1454720439036195 -0.03897187115745657
7993000.0 0.9963426993490739 -0.06436734020488105 0.00495538587033995 0.006367531522735885 -0.0020600416138652398 0.0017023323554592675 -0.1836808226841795 0.02871809950733182
8992000.0 0.9977335700486907 -0.07087390706779448 0.0012186207981825055 0.0004918910054199337 0.006806268348477989 -0.0035924728542616295 -0.17459892897218485 0.04372297751487138
9991000.0 0.9947956249685479 -0.08225539106633883 0.00213871299613582 0.003103091157323572 -0.004976757121018348 0.003404639098596672 -0.16690298842195864 0.08089178120940062
10990000.0 0.993975691823626 -0.08892486075661814 0.0029958573094687564 0.0031860012659449184 0.00012111000467330497 -0.0006719640145074972 -0.15929080595780976 0.10060158081417711
11989000.0 0.9908600949525231 -0.09621959850610909 0.004158228586046695 0.003768060767660748 -0.001504110701287572 -0.0020727165288992625 -0.14625664686167078 0.13874387948223346
12988000.0 0.9928585483097304 -0.1052891357039972 -0.0004659024299064533 -0.0076855679570743025 0.0016661142311820323 -0.0019095936811931234 -0.13461490516278682 0.1713401580862289
13987000.0 0.9899034964180449 -0.1163417259255251 8.725358937901366e-05 -0.005884081072656076 -0.0021743169252368094 0.0017205727739124396 -0.11036840752713768 0.19341844565584654
14986000.0 0.9913347598785653 -0.12257824042017888 -0.0005281318738531127 -0.0058386177843120024 0.0017993801435614875 -0.0020478003365212737 -0.1027788571414199 0.21078257377141876
15985000.0 0.9905875727595167 -0.13104444167689497 -0.0005366158072864604 -0.0036924449953383595 -0.0006369823872341425 -0.0004728840931999012 -0.0815620788730862 0.21479069510272195
16984000.0 0.9848768781035059 -0.14129926330343048 -0.00131734129482721 -0.002629803540103893 -0.002788602385543939 -0.0017258127294520259 -0.08281493778691958 0.22010967258098552
17983000.0 0.9873156137507498 -0.14805984287773694 -0.005358629705436675 -0.004774446295876795 -0.0028184545157589704 0.0018340621647855528 -0.06667156607417957 0.23508059983583568
18982000.0 0.9825917144429753 -0.16044519539710328 -0.0028234102180231284 -0.004098250413354775 0.001408535503777951 -0.0029311229015851576 -0.0406866312008867 0.2501962131581592
19981000.0 0.9836870846161819 -0.16389165156381952 -0.00276154145237299 -0.002584943771095549 0.0018602543221962835 -0.0009937806607345737 -0.02364040119468862 0.23797590167181668
20980000.0 0.9819479421269822 -0.17306007921408312 0.000575191415742254 -0.003912174715452446 -0.0011370043955894573 0.00035695541325388673 -0.013071199650246692 0.27394946941414033
21979000.0 0.9799699817205053 -0.18270644407823294 -0.010470974169995387 -0.00017930699562114752 -0.0006413492407182786 0.0022881440277495836 -0.003651823953199182 0.25273237289740635
22978000.0 0.9770166311105118 -0.19228772262280827 -0.00671148287109049 -0.004872571272034812 -0.005081358935654209 -0.002152435070018867 0.01794817343409599 0.2626144120885783
23977000.0 0.9791831046668322 -0.20000147549461553 -0.004563984190169371 -0.001765418246275946 -0.0035849779104270415 0.0034697317161057513 0.034939052985073014 0.2515351227691796
24976000.0 0.9762101697353657 -0.2080364537508952 -0.008664506725475701 -6.81252644423083e-05 0.0008987247891243466 0.00016040980044373463 0.043105106555440025 0.25936149451924073
25975000.0 0.9733907904092638 -0.22317329268402353 -0.0029953988627267844 -0.0010749521603192797 0.02809642259078373 -0.00336742757524164 0.05931749438814934 0.26819384427447596
26974000.0 0.9733051877858765 -0.22390001650312508 -0.0058249167220194515 -0.0023687878237694 -9.958848548515212e-05 0.0025843974322695674 0.08207313226004785 0.27090188102911855
27973000.0 0.969639576573805 -0.230711182077879 -0.0032470811584173697 0.0005171330658108352 0.0032028546132095697 0.003476461809000953 0.0990516357100068 0.2553002699649417
28972000.0 0.9681084401147878 -0.24070831124726952 0.00024729126286161893 -4.378624682780754e-05 0.002598243855822174 -0.00016917130847552108 0.10599491055403236 0.2594665584341124
29971000.0 0.9665175301926264 -0.25002396434011165 0.0011667124666275403 -0.004245575926587096 0.0014306555376016824 -0.0005445423028834775 0.15031307085801646 0.26771108633419155
30970000.0 0.9631062216116311 -0.25470837039831973 0.0021373826256549803 -0.0030501551803225066 -0.005423012047797733 0.0022616958482388023 0.16006472310055087 0.2502777798142376
31969000.0 0.9629743362179007 -0.2630880107296672 0.009863791823842913 -0.007753144229632886 7.192409621346712e-05 0.00010839653006732239 0.14575045637016146 0.2594341800879168
32968000.0 0.9611957516390198 -0.2722860694198285 0.00978313013147559 -0.0072586336221849915 -0.00025802225833871766 0.00024644662026854425 0.153762893070469 0.24624679639459174
33967000.0 0.9577281835341236 -0.2844359486148473 0.014220931483568252 -0.008915490208494274 0.0012473842231688038 0.002847480403565503 0.18284308275344144 0.2529927450130105
34966000.0 0.9546024500274528 -0.29059570847069344 0.01428734285509987 -0.013233583971125383 0.001996658452792719 0.0009119789803363818 0.18788973810296541 0.2509467249668723
35965000.0 0.9525280846422808 -0.2984799158615332 0.017954986062252747 -0.01509213985736647 -0.0017485087080472577 -0.0016005751097598981 0.19880372252372377 0.25482019420703345
36964000.0 0.9514190946504791 -0.3083288652128802 0.016728260941047027 -0.016759745181184598 0.0015541128982015776 -0.0009932797250238692 0.20203750728950032 0.24664870542989903
37963000.0 0.9471538985394631 -0.31592341760859827 0.022349205707157472 -0.01939835531840676 0.002779950251021604 -0.0013616609733501665 0.22525000057264635 0.24602609574600579
38962000.0 0.9440323240259195 -0.3267286948635234 0.025117760015869767 -0.02361434039487815 0.0009367577847253709 0.0026412144518869374 0.2320885238319199 0.24009074536416503
39961000.0 0.9413146401263742 -0.3341504378027276 0.023071685515566518 -0.031035958015998125 0.002819017161361491 0.001610809490209628 0.23846626477801472 0.23248639575859442
40960000.0 0.9377884133105151 -0.34062114869389193 0.02708363117358739 -0.025303953461723823 -0.00035886201195941154 0.005206078818855266 0.25417233371566783 0.23802574622618286
41959000.0 0.9363760991295111 -0.3493313553819639 0.029388327873390754 -0.033206408808633375 0.000150464975696014 -0.0023807273454571837 0.25397100815856555 0.22303232228518316
42958000.0 0.9314375768070335 -0.35787075859427453 0.03299796971859573 -0.04039596695996569 0.00023787190367994068 -0.0013166680691410729 0.27203214994062236 0.20302628058624028
43957000.0 0.929383177086463 -0.36315905587727276 0.035672993080561065 -0.04488979016295624 -0.0020092892444952214 -0.0022730637670016697 0.2807938166654955 0.20783045870233766
44956000.0 0.9254268861367763 -0.36996045433152747 0.03304406361860821 -0.0532681760425432 0.00028848185150403015 -0.002366378587346667 0.302085605528206 0.1985444858681729
45955000.0 0.9208555487736316 -0.38254384769175664 0.03403614597868573 -0.056128239215368185 -0.0029754950894888025 -0.002331383829494411 0.3013262852313891 0.19533985955163258
46954000.0 0.9184487306525222 -0.3901795872720289 0.03665830037087889 -0.0641771459851435 -0.0010701948917949083 0.00021420755857831997 0.3177643886862278 0.18368508717875812
47953000.0 0.9155674147863148 -0.3977275702079304 0.03850192616277951 -0.07195805731623023 0.0004801833160464794 0.0006476303541856318 0.32860166223279474 0.16085400641216344
48952000.0 0.9092209571212563 -0.4103712884297668 0.037669647470148115 -0.08011283046257175 0.0003644516759915597 -0.0010187242654373866 0.33061573264535 0.16764162846196184
49951000.0 0.9075932497950178 -0.413612640288614 0.03692486826628089 -0.08778552545452926 -0.000619939981846757 -0.0006898371061372695 0.3470599220588544 0.16559846853308136
50950000.0 0.9032227520600519 -0.4240572057141183 0.03452039589202551 -0.09530141070429037 0.00026274328712638247 0.00037083548093463676 0.348426272071513 0.15304203102529707
51949000.0 0.9009013084294495 -0.4317449028200634 0.03691564213851701 -0.1060210812470376 -0.00037656165205640315 -0.001284792727696399 0.3537979885624216 0.14501225160373368
52948000.0 0.8983699426912862 -0.4386291247213927 0.03869062289457956 -0.11255763099883294 0.001499238626705436 -0.0021569982295529125 0.3691363283976353 0.13750358861903617
53947000.0 0.8900002484135854 -0.44757310048276616 0.042045364082174505 -0.12121040855243162 -0.0007442232663076807 0.00027835909898425617 0.36051621337728246 0.13401736863968702
54946000.0 0.8863402442976914 -0.4566309805327586 0.04551286099876647 -0.12958681312752068 0.0031666966246006924 0.0008046964430408427 0.37730873157532263 0.11450203792326648
55945000.0 0.8835598198937008 -0.4622032761798763 0.04602159261294344 -0.14282845384519244 -0.0010965910514453144 0.0011442278968763434 0.3796558648344197 0.10855921893436242
56944000.0 0.8796210731217408 -0.4712824557419437 0.045559976368870075 -0.15177485729602253 0.004105205808783881 0.00125126451013648 0.3953698194758449 0.10100697605436879
57943000.0 0.8757319389190908 -0.4818768569562245 0.049338668358039496 -0.16218336542449532 -0.0004880697966317675 -0.0009831683926489016 0.3977377398659105 0.090002961508871
58942000.0 0.8707584555300528 -0.4858152055544547 0.049853922937153614 -0.17232262624236655 0.002180430588338678 5.759489092564024e-05 0.4104582998171123 0.08856938257375134
59941000.0 0.867543510508782 -0.49737686798553343 0.04981579246987088 -0.18449039766502418 -0.0001586857182497135 0.004066566216214902 0.4097717066101698 0.08459994788106497
60940000.0 0.8594446741088009 -0.5031551908069885 0.05150422663851387 -0.190761363180306 0.0006978328471216482 0.0008349254089163262 0.40446124536317063 0.0739157685563312
61939000.0 0.8568817169776434 -0.5096620541941944 0.05222577404897223 -0.19534415514674533 7.983488357182297e-05 -0.0003562694793078457 0.41204144284776884 0.06818731737037985
62938000.0 0.8508130579150127 -0.5196542742913843 0.052554315201657625 -0.21227327383984262 -0.0034375971106275125 0.0030546799797368917 0.4316191756869152 0.04475597007816749
63937000.0 0.8468200352513411 -0.5277652716974824 0.0552709409487614 -0.2338840922518001 0.0012969190187672821 -0.001375127540979276 0.4358134345233946 0.0394078461974622
64936000.0 0.8408369181463572 -0.5313203546074028 0.05283421051026297 -0.24672628986593062 0.0010033322413113915 -0.0018213768109004956 0.4296726563199003 0.04364842084246375
65935000.0 0.8372874904101406 -0.5451248346632985 0.053762405094312966 -0.261100064256436 -0.00370069000294927 -0.0006699117800034067 0.43390024203760896 0.018598336450789562
66934000.0 0.8334058551820266 -0.548944796548173 0.05359843021187952 -0.2736182247905141 -0.0014241147170551654 -0.0017022954281989031 0.4363532182108589 0.012165244645160153
67933000.0 0.8307939638599854 -0.5552858988879633 0.05421840133362862 -0.2877639877157591 -6.083196280265783e-05 0.0017095524106735265 0.4454644181454045 0.010637546306184707
68932000.0 0.8245144981546338 -0.5526984807087969 0.05454205808466392 -0.29528732078660125 -0.002652495563414267 -0.0027785758907338896 0.4447113812276206 -0.010288441177451223
69931000.0 0.8165677696872177 -0.57275647188665 0.05292858803888603 -0.3149286189161917 -0.001781300782829602 -0.005757931022649598 0.4388947739854278 -0.031095812491880835
70930000.0 0.810564252630152 -0.5797872298749975 0.05195644471113694 -0.3313078186527124 -2.515559634868983e-05 -0.003205671258566814 0.4344436830006467 -0.037592248966025026
71929000.0 0.8062089792819244 -0.5878012207806288 0.048622939444822544 -0.3468485212937128 -0.0009638093329232198 -0.003127007772083417 0.44716932718563757 -0.05256363623983972
72928000.0 0.8024454295445119 -0.5956358045182674 0.04176910200568595 -0.36231993270643914 0.0014895962603811257 0.002799537439445768 0.4649058305130184 -0.05115007962301329
73927000.0 0.7947800913489038 -0.602255394529952 0.035683075817233345 -0.38124769160505295 -0.00038134107016275456 -0.0010540867479558432 0.4570029463692968 -0.06351480693839524
74926000.0 0.7890214083413596 -0.611973818600124 0.030266580339772448 -0.39904454809557505 0.0012611813113375947 0.003424779065010294 0.4534842364370805 -0.06095418273357534
75925000.0 0.7842606917727767 -0.6161484138485515 0.021393925921068535 -0.41866753244525745 -0.0027333026793499664 0.0006427604635650005 0.4615289863943739 -0.07482522013186342
76924000.0 0.7760554941385804 -0.6253104679655728 0.00780991728558279 -0.4412460294136168 -0.0002902443720272589 -0.001886247691319065 0.4677686296078814 -0.08008362700805108
77923000.0 0.7724860633946329 -0.6304704467634175 -0.006809775583854017 -0.46671893394472175 0.0030021819904782867 0.0013459337023969025 0.460406134600626 -0.10640794101997376
78922000.0 0.7644662047681617 -0.6434063449371347 -0.01910570455113965 -0.4941889371172675 -0.0041906611901134285 -0.0016728503806907246 0.4489091448942023 -0.10254565810094589
79921000.0 0.7579379801651049 -0.6440117061764027 -0.03633688655703812 -0.5177991801756651 -0.0011438665034258421 -0.0012726095319619203 0.45241001680133924 -0.12010130904703724
80920000.0 0.7524505601071442 -0.6573633090365213 -0.05652378246811347 -0.5418950822128832 0.0029259921490214454 0.001577438987430216 0.47647391327923916 -0.14023505740494444
81919000.0 0.7478898758418718 -0.6605669202058408 -0.06929604657640363 -0.5747850733464475 -2.0188938499008295e-05 -0.0008151011698879921 0.4644692218580494 -0.13415977398824888
82918000.0 0.7376639085068499 -0.6698655039300037 -0.08310628371117086 -0.6047447446548985 2.2239149748561243e-07 -0.0009100574244192022 0.46643348091909254 -0.14125261274291015
83917000.0 0.7308982341504182 -0.6765250314406707 -0.10394192209373047 -0.6283212301112074 9.479284984127328e-05 -0.0013019870041732374 0.45566746645886647 -0.1474676899390433
84916000.0 0.7256840026472482 -0.6864808172235177 -0.12467351394082828 -0.6681226188325359 0.002094632793886996 -0.001736346473625917 0.4705110907105141 -0.17249993888521345
85915000.0 0.7207140881495624 -0.6903811111674079 -0.13865731629040406 -0.6967033640252808 0.0016918323134692526 0.001170088187275334 0.457124676224573 -0.17997736965124053
86914000.0 0.7112436720886711 -0.7024594424867693 -0.16021011949239805 -0.7323902568229806 -0.0007737262108311226 -0.002412919184949615 0.4547983179225249 -0.17104231072995363
87913000.0 0.7052120101825721 -0.7053927966915 -0.17606363122512822 -0.7629768608423338 0.00374778496119932 -0.00048539031478204693 0.46005572227913494 -0.1814985556918388
88912000.0 0.6987993951020084 -0.7130336784535968 -0.19169660015124187 -0.7991123072030957 -0.002188341025973931 0.0008969941293226854 0.4634368762432609 -0.20741512709512885
89911000.0 0.69120433466228 -0.7216594207963164 -0.20638297537113207 -0.8403200319241227 -0.0010627648326864973 0.00264575770015488 0.46677547583391127 -0.21159153943866868
90910000.0 0.6829822842137575 -0.727737640881079 -0.22372786205730463 -0.8689963667152284 0.00424721712584041 -0.001101199171343642 0.44776764182803275 -0.22375799462982915
91909000.0 0.6760757278533862 -0.7317047520151239 -0.2430128927416693 -0.8998139360614092 0.0025315590566330434 -0.0005415740438760103 0.4646574010336599 -0.2229513936997134
92908000.0 0.668596539449048 -0.7403346071485228 -0.26148057278780673 -0.9333649818985927 -0.0012199060619390158 -0.00023435574173773092 0.44422669213592375 -0.24060086593770852
93907000.0 0.6632643521286851 -0.7459886818232001 -0.2789443912104653 -0.9657261721239736 -0.002726675572504952 0.002586175247117796 0.4512548677686146 -0.25509680340437446
94906000.0 0.6477561928319439 -0.7549714085797324 -0.29657337654827376 -1.0003207447552789 -0.002123528523070882 -0.00046002318756058295 0.44911344327391317 -0.24450989755764396
95905000.0 0.64348815641947 -0.7610647285716714 -0.31842654389751845 -1.0346079119079274 0.00030930880180816885 -0.0017986574324056247 0.4588630794943129 -0.2748348931813351
96904000.0 0.6379294385994903 -0.7694189351816988 -0.3340817198989369 -1.0744485681806124 -0.0006908089216583116 0.005762828803504255 0.4482444901592923 -0.2818806925400108
97903000.0 0.6271963886818034 -0.7756242007167546 -0.36075339957882097 -1.1038710011289015 -0.0005320480687530908 -0.0008121787154278955 0.439218970256624 -0.2930116779800949
98902000.0 0.6239799603760775 -0.7802917328858924 -0.3736822730086839 -1.1442305556224512 0.0018065486573128854 0.001862643512473874 0.44307766920114494 -0.2985209106851324
99901000.0 0.6140367676179717 -0.7873899665872516 -0.40659652190908213 -1.1745473140556906 -0.00034436873494983147 0.0006826619802025397 0.45171794443134927 -0.3182868261485487
100900000.0 0.6057002032992431 -0.7901426255033047 -0.43569271483191074 -1.2026029557802522 -0.0025192966746104893 -0.0010621285241422202 0.44022477889196615 -0.3130292920311444
101899000.0 0.5948810944339262 -0.7989004552471441 -0.46228787668834964 -1.2421202327001108 0.0014733493043267206 0.0002978131597763404 0.4373309772836579 -0.3240120768877615
102898000.0 0.5859411014751563 -0.80368867401008 -0.4920204239325886 -1.2777145767616476 0.0006468573253995228 -0.0030650536629524086 0.4418828931485917 -0.3430648211528403
103897000.0 0.5777030586810801 -0.8104671053260116 -0.528026343985555 -1.3128695607032896 0.001580454748465851 0.00012160900621493618 0.44982961142850725 -0.3389261690266454
104896000.0 0.5698560295467471 -0.8196960291664325 -0.5691899569395993 -1.3427640533686838 -0.0013858782816151733 -9.66746846396932e-05 0.422727683451045 -0.34158093854475113
105895000.0 0.5603807126350985 -0.8246044923304621 -0.619204091884284 -1.3888525641387421 7.10812803662254e-05 0.0019306994697998697 0.4268254150378628 -0.3566921522864726
106894000.0 0.5500569516854116 -0.8298520253578663 -0.6728168888004149 -1.4184385929778311 -0.002394924991264321 -0.0015357139542953927 0.4285972860537706 -0.37550183115977254
107893000.0 0.5427958943236397 -0.8366578137933095 -0.7168174707288696 -1.4600392441841645 -6.553311744004297e-05 0.004014122906516265 0.4229688253663461 -0.37752823250482
108892000.0 0.5347987882434894 -0.8391522866621381 -0.7826161251606611 -1.4972125264796285 0.00023739653407578367 0.0009867709229369323 0.4070985572097899 -0.3748162466698948
109891000.0 0.5206583005012457 -0.848416688629564 -0.8349207073184263 -1.53398735952644 0.002196109727932148 -0.00028952099357004577 0.4296128811357552 -0.3733582177630961
110890000.0 0.5018383712846365 -0.8548170868240664 -0.9108823086071879 -1.5265342608885133 -0.0008736709930498689 -0.0007282785617929831 0.41478146686243317 -0.38652229522299003
111889000.0 0.5034898316528714 -0.8550665235425623 -0.956250251734673 -1.6010292241421997 0.0015223340372431005 0.0008161968771320574 0.41628345410139217 -0.4045447881204429
