! Created with skrf 1.9.0 (http://scikit-rf.org).
# Hz S RI R 50.0 
!freq ReS11 ImS11 ReS21 ImS21 ReS12 ImS12 ReS22 ImS22
1000000.0 0.9868570232703593 0.009249759749309151 -0.015547397376798647 -0.059500136876715785 -0.01377465580241595 0.00956258772181822 0.3508507131572311 0.34982247986809295
1999000.0 0.9927267728936512 -0.010328264188958346 0.0018908421959325313 -0.022971633228679695 -0.006269073609793065 -0.0007834469154302352 0.25388657999145375 -0.04168265235806322
2998000.0 1.0002772141518834 -0.025843490493875274 0.006626699842233939 -0.016780756282892516 -0.006501682960781116 -0.0008261553549166762 0.19098071539891687 -0.13564776783536805
3997000.0 0.9955740089353179 -0.035659691996703595 0.015847497107096722 -0.002585746009077655 -0.0019472953240684055 -0.0036509381700271675 0.11001819343601858 -0.22187592896273087
4996000.0 0.9924622251886278 -0.045485651362682636 0.014012938500023286 -0.004390399796768523 -0.0016607167432001592 0.0022100482667703563 -0.049757203944383856 -0.19862026581556827
5995000.0 0.9928709842343613 -0.05162454296602238 0.0059628161752379805 0.0021790524921672504 -0.00043996895507996905 -0.002381765474407974 -0.13334444959676744 -0.09733054048953568
6994000.0 0.9900343453518208 -0.06171250242602224 0.006902288310312683 0.008408741306374033 0.006021485565510567 -0.0012580804963307761 -0.14707720447963057 -0.019698128222167034
7993000.0 0.9919987310323111 -0.06980358762072766 0.005502942846223186 0.0023494895353887097 -0.0005531819967754995 0.005911435917426786 -0.16340566448423247 0.043359163923056075
8992000.0 0.9910541949644303 -0.07532678863070645 0.0008243885885177365 0.011553897884878407 -0.0041802975373788735 0.0024108681796158253 -0.1563816455382038 0.05854314827862932
9991000.0 0.9873767444811463 -0.08335444561133526 -0.00030823327595320743 0.006737205390760708 0.0014488983258956001 0.0053096682593752435 -0.13648903379862265 0.09057911264175887
10990000.0 0.9882221050587375 -0.09177568430841296 -0.001118778971668655 -9.853087244573311e-05 0.0004636636867605127 -0.001560830408872357 -0.13842710460729393 0.1094159240469197
11989000.0 0.986938760703008 -0.09990419868058986 0.005460106716744681 0.002891106705858436 0.0011355357985922772 -0.002082402040124673 -0.12150502661318845 0.1305276255117221
12988000.0 0.9855989548713627 -0.10907610752808095 0.000521045789676195 -0.007566059618847892 -0.008642482717390836 -0.00517522389526296 -0.11332156780348761 0.17228527218122727
13987000.0 0.9823570190740466 -0.11813267858621222 -0.000752476849808255 -0.003545862385585719 0.0018316435580254821 -0.0013846011398391063 -0.10162011081926925 0.19263061414471336
14986000.0 0.9821560112117765 -0.12777144176447564 0.0002493015194459599 -0.007381889609814747 -0.0014925384379338318 -0.0039535753493502605 -0.08673480927356529 0.21012259272264908
15985000.0 0.9822029568337209 -0.13790419966446213 -0.003911331755975199 -0.0037541673607472494 -0.0017522700321684543 -0.0004805671764075905 -0.07528239939745243 0.2214951579185704
16984000.0 0.9812303050846709 -0.14624649517661484 0.0020470052843874964 -0.004542842306760126 0.003980826114889797 0.00012479950926923026 -0.0638381069600554 0.22114909311276074
17983000.0 0.9823559726339197 -0.15071337353886569 -0.0042565751593655445 -0.006788898357957068 0.0009234256377363688 -0.00020573524636333145 -0.05113111124323252 0.2232850803301514
18982000.0 0.9771218989477661 -0.1618460137251191 -0.0028928698436278735 -0.0025632012464549955 0.0014751458889526974 -0.0017492510690309598 -0.017520752119779368 0.24503592453239842
19981000.0 0.9790731557881451 -0.16771655273121525 -0.005397027601102523 -0.004698215842246665 -0.001812997775668618 -0.0001135254576413698 -0.01175478165155188 0.24080201328055467
20980000.0 0.9750449682411179 -0.17742564289774346 -0.004930315591879246 -0.007818434134490895 9.657700433859187e-05 -0.0006905248868652262 -0.007685712450999735 0.2633113858153754
21979000.0 0.9742710304984454 -0.1865498459058522 -0.0038074434738843738 -0.0012712393417745112 0.0008569074251745617 -5.311298642999642e-05 0.0065828994558781145 0.24476764991132674
22978000.0 0.9725130052326223 -0.19633039326200485 -0.007831805655670054 -0.004701851227656459 -0.0006899381108664872 0.005299767265236652 0.021027378236777652 0.253241086510261
23977000.0 0.9732520231806494 -0.2012987081497861 -0.007002296907234197 -0.003937095693609489 0.0006516194095127362 -0.003505397156669594 0.037090841620479036 0.25551886198888435
24976000.0 0.969709586074891 -0.21237220653480907 -0.004961994509486286 -0.004062400833242327 -0.00454522386028883 -0.00216647157201776 0.06317380551217679 0.2695391549696438
25975000.0 0.9638511476538932 -0.22526352418505957 -0.004963138455663474 -0.004078149424691841 0.006313811076783303 -0.025039255714273706 0.07640693385857769 0.2616086153311678
26974000.0 0.9657981755310782 -0.228286462105927 -0.0064862188497181415 -0.0016192848407741822 0.0014279104364718776 0.0015505238745065141 0.08093548133290134 0.26534284359918503
27973000.0 0.9670202422511714 -0.2348378678524522 -0.004768388147723975 -0.004092135656493503 -0.003341434951754267 0.002708026788640571 0.1118321660855928 0.264075510864988
28972000.0 0.9624504221581988 -0.24791720761476976 -0.0021067644207996426 0.00016845309154998216 0.004160745159562905 0.0001306699241677509 0.11566435096458343 0.267868979691456
29971000.0 0.9604316110204851 -0.2552693685082396 0.0012741578301396627 -0.0021184397988835524 -0.00039773865644329736 0.0006683338518043813 0.14706406485837847 0.2751413366459694
30970000.0 0.957729661860563 -0.2598596089380796 -0.00027969121315342654 -0.0002906304249898219 0.0009814275354917208 0.0035897129305807515 0.17274796908017356 0.2556543449731989
31969000.0 0.9564543034199987 -0.26963393201591834 0.004888199928420504 -0.004567487034933956 -0.000164608084924902 -0.000791921995064764 0.1530481856401393 0.2430325939401163
32968000.0 0.9555367323068861 -0.279178905801062 0.009944554960616286 -0.008578148451675456 -0.002578700863518111 -0.0003104955320450658 0.15890392761051048 0.24554281611758394
33967000.0 0.9515089642445299 -0.28830159489725676 0.011578224409902652 -0.007683106166521088 0.0005694862633141423 -0.0017490839127213124 0.1821396873943415 0.24609834766997432
34966000.0 0.9507099180004163 -0.29599477664418666 0.017064652368514094 -0.011304884572244264 0.0007969409507572378 0.0019330792926235978 0.19315366885854182 0.25183554041176315
35965000.0 0.9457890872943667 -0.30510404180687073 0.01596686981315667 -0.01646866995934117 0.003418722651906323 0.002236537584893801 0.2104894512752451 0.2561984953738921
36964000.0 0.9445561930492039 -0.3133321744162177 0.016216005388582807 -0.012639845795240282 0.003490292382156031 0.004379276148813132 0.21571200602421342 0.25658202497838717
37963000.0 0.9406638028617396 -0.322909755273343 0.025323609458662112 -0.021913017946534857 0.0010024299257627629 -0.0022562001479548 0.22422295045216953 0.23761912489428103
38962000.0 0.9386449734195151 -0.3325022821489766 0.02397312988729528 -0.022820304925589174 0.0008028633451933714 -0.002398387922194596 0.22848495134230148 0.22473470552432734
39961000.0 0.9354283436890115 -0.3420555345616159 0.025536034062220925 -0.029898029149646177 -0.0009864447879234602 -0.002376525731688727 0.24305283018016866 0.2301253550185422
40960000.0 0.9320692431754787 -0.34800927858792835 0.021696476556004086 -0.026767266429255806 0.0007998302917013456 0.001734876274176617 0.255948894225433 0.23105150040148648
41959000.0 0.9292316318756736 -0.35804857465387674 0.028333518883901634 -0.0335513870544213 0.004123247125630445 -0.0005267534104116183 0.26619906890339634 0.2143967298047357
42958000.0 0.9222222103975984 -0.36886025142100587 0.030846613758347914 -0.039948485969474506 -0.0011983685294101865 0.004934187504316011 0.26967023987495875 0.20772134467064818
43957000.0 0.9229215654777752 -0.3729766245759282 0.032623489033995506 -0.04724378496764177 -1.8289530121159366e-05 -0.003288872908467572 0.28035258359825793 0.2155560573024609
44956000.0 0.9188646263667141 -0.38189308426961444 0.033717131216430885 -0.05386768524286135 -0.0005416787747026498 0.0002676600328506967 0.29136661876899633 0.19318955035177846
45955000.0 0.9138310586397075 -0.3926688880041701 0.03476076676448274 -0.06009341805385372 0.0005100363581739026 -0.0002402832966660449 0.302827588324017 0.18882351113899895
46954000.0 0.910468808732456 -0.40051750779123596 0.034542566914802814 -0.0669929616988708 -0.00011746391593785637 0.0006057370966706466 0.31597199114846225 0.1806256627439082
47953000.0 0.9085631639556212 -0.40796828718903005 0.0333391545516912 -0.07400186147407677 -0.0014194821690562869 0.0009901091566747874 0.3350194567307573 0.1721493664171561
48952000.0 0.9007287871272016 -0.4192474516241694 0.037061206457122714 -0.08307185553406476 -0.000516365797177397 0.0005316736920653036 0.32829447217119545 0.1717933270381483
49951000.0 0.8982834827557371 -0.42619161900396796 0.03777465252354883 -0.08739961483945537 0.0018692495170373143 -0.0003995498820932974 0.34879841704469083 0.15191956691656908
50950000.0 0.894504756195057 -0.43194788003232704 0.0353809809652436 -0.09474918607290023 -0.0006141608548835743 0.00048004061589586067 0.3505798834827114 0.14131839637941165
51949000.0 0.8906438585039561 -0.4420973605001334 0.03900026411276003 -0.1040189519219693 -0.003098292025974388 -0.0009645207008211511 0.34985580554122253 0.14445549161628396
52948000.0 0.8894047717908653 -0.4505368970424496 0.04263067402977257 -0.11359424031933694 -0.0025941920266971054 -0.0005050229889075966 0.36965378007793964 0.1419343528399318
53947000.0 0.8807418018391642 -0.45927235092274193 0.04363882215536464 -0.12505114279086962 0.0033393383505159733 -0.0026539465054091164 0.3601943636961934 0.13387432159116383
54946000.0 0.8766394773592454 -0.46750002695541026 0.04211811349769662 -0.13359672952297577 -0.0005455117353658966 -0.0007370743593444884 0.39246723075981593 0.11520872840944563
55945000.0 0.8732087539252903 -0.476863906389697 0.04786698778092742 -0.14422120755013995 -0.0002446800429776433 0.0007415147938972348 0.3807695445395534 0.10361997313853664
56944000.0 0.867865776650377 -0.4838009641071811 0.04626374745326515 -0.15295221017360458 0.0011852439227517512 -0.0019305428632848433 0.39787387538481606 0.1048161608647629
57943000.0 0.8643579533955815 -0.4932120334124075 0.046948045243129094 -0.1639096505554481 -9.597226304540045e-05 0.0017729475944830502 0.4018999463114494 0.09756785652485196
58942000.0 0.8594813288833595 -0.49900356659135664 0.04801069063435934 -0.1738114971357529 -0.003746800358912165 -0.0012744294011657411 0.41153254864550987 0.08966655483256317
59941000.0 0.8551416872962047 -0.5095398245409283 0.04824787731631546 -0.18472665781610886 -3.4100237760200405e-05 -0.0023038295412477236 0.4137610571565087 0.09160497683383999
60940000.0 0.847224351384554 -0.5172391685797023 0.052129245262155885 -0.18638169477992736 -2.6354649930420635e-05 -0.0011984219839451565 0.40024142625499315 0.07807199704765426
61939000.0 0.8440302564017017 -0.5227364372515826 0.05122588809630102 -0.19859990491950202 -0.004076549390048537 -0.001764177263824387 0.41098161642903025 0.06933105023394248
62938000.0 0.8374058381919248 -0.5339399135596439 0.05346376082002863 -0.21545933608219156 -0.0008512880270571321 0.0003380862932051159 0.433847825420903 0.05135653238482632
63937000.0 0.8322291299813349 -0.5406082929575815 0.05458476670629544 -0.23248484128746827 -0.0002652479698502851 -0.00109324365910775 0.4326478486251932 0.041129710783713594
64936000.0 0.8256720250680892 -0.5481417725926029 0.05313989148704757 -0.2496629273534715 -4.6323640111585235e-05 -0.00197463349705276 0.42670239164975826 0.041234718389075
65935000.0 0.8231043083857572 -0.5566803670247444 0.05843504222214245 -0.26576624923964 0.0004984275074610242 0.00032406083323998096 0.4401032516557546 0.021507263694009196
66934000.0 0.8175439721138478 -0.5645334092631826 0.05585020499053508 -0.2766224243093195 -0.0018036414879726292 0.00030463906490120317 0.4260076919825244 0.009090969572195056
67933000.0 0.8145524019696642 -0.5691548313767096 0.05625719392032978 -0.2912968720374807 0.005630486374052978 0.0012613342829736847 0.4406587741061124 0.013134041845073732
68932000.0 0.7975924493098983 -0.5676186597609678 0.05137568488069453 -0.2987287296089875 0.0003733548274724833 -0.0003459938069792468 0.4486955559252934 -0.014250945377129351
69931000.0 0.8000202556464138 -0.5864458346313381 0.05048940736491328 -0.32125329671340314 -0.0018617096472658998 0.0010627662322811537 0.4352377504246704 -0.01807583231589477
70930000.0 0.7947517426394144 -0.5947374456612043 0.04738813041006183 -0.3329413797248383 0.00124357336409005 -0.003625009524636695 0.4498945101585024 -0.02319844892403723
71929000.0 0.7911676900377281 -0.6017043662733097 0.043977723720673254 -0.3519794676184793 0.0032304264501378903 0.0016706657051754874 0.4500051837294806 -0.0413016753364364
72928000.0 0.7844218006910063 -0.6134796430409726 0.039915533395579565 -0.36926863374238666 0.0037303508711344045 0.0024055323878149695 0.4655716555193984 -0.04639176692492637
73927000.0 0.7776139559289071 -0.6179155485279486 0.03135091644367835 -0.391943693425693 0.00044507215084726103 0.0023029524494702865 0.4619093534604218 -0.04547044806173729
74926000.0 0.7721019866902323 -0.6265082353600759 0.025083212801737736 -0.40915431369176936 0.003200914325507471 -0.0016505566434573083 0.458342308733478 -0.055077544897218673
75925000.0 0.7646670464484995 -0.6312553657282673 0.016110877732009983 -0.42873585231887734 -0.0058908310056311995 -0.0006621146774110328 0.46802418119284783 -0.07264552511864956
76924000.0 0.7577157954916112 -0.6405221513097847 0.0018721468399971704 -0.4534944963100429 0.0007376569048225336 0.0021301970826636293 0.4671262747591129 -0.0870468397110072
77923000.0 0.7522204320738475 -0.6461795831993101 -0.016852147440019387 -0.47527590776490014 0.00011194134939247501 3.377388257147577e-05 0.45935433102212264 -0.09127259144572492
78922000.0 0.7462569657295869 -0.6555878605832098 -0.025855517627437603 -0.5050214592324838 -0.0034157726469932217 0.0012345130664569409 0.45636484920169185 -0.10209027854363553
79921000.0 0.7379492993262083 -0.6609443384922502 -0.049223799558649306 -0.5280405884007875 0.0007808788178240848 -0.00046924280981881853 0.4516383432222308 -0.11313578601167017
80920000.0 0.7311682289018077 -0.6724629874235414 -0.058795892414215435 -0.5573160991710323 -0.00114493305857382 -0.0036444624646008905 0.46536986065929564 -0.12894401009332604
81919000.0 0.7260104428198193 -0.6753915434246789 -0.0722362227240306 -0.5869019049070844 -0.0006320374971815908 -1.2201755024607496e-05 0.4653423831507229 -0.1290297551288299
82918000.0 0.7183909864781012 -0.6830636990362031 -0.09439170780808909 -0.6159680737725555 -0.0027622184154810474 -0.0005022885327950178 0.47352122288105897 -0.14468788082706327
83917000.0 0.7091365927215472 -0.6933072276590477 -0.10995480031969483 -0.6483477388374668 -0.0016354745171228075 -0.0002008625665105608 0.4707212577372678 -0.15274391306773802
84916000.0 0.7051500079061532 -0.6979664925961361 -0.12514954920351404 -0.6822783420160407 -0.0017914880799657815 -0.0005670974559496086 0.4643150903104796 -0.16920548906867997
85915000.0 0.6970350948283238 -0.7059247995995535 -0.14649354718172897 -0.7098118362630441 0.0033443049506313937 -0.0023354396248206353 0.462483104701376 -0.17061828877871246
86914000.0 0.6897253847102126 -0.7149439827981975 -0.16590083977178932 -0.7464918615122439 0.0014084759750339292 -0.0015985004005793127 0.45875884980453924 -0.1744863047692173
87913000.0 0.6806056439988589 -0.723367656839797 -0.18212945749574258 -0.778989821497243 -0.00012035598731120017 0.0007746465328082456 0.45887625545399097 -0.18476489015103384
88912000.0 0.6745667818591399 -0.7272758822353479 -0.20232433183480458 -0.8092968277446785 -9.173490049878471e-05 -0.003223111506779044 0.4708132813259378 -0.2045921856085989
89911000.0 0.6697128611589468 -0.7345607940261291 -0.20980178807018018 -0.848793850259623 0.00022959172736725875 -0.00018840689766173193 0.46196128686700705 -0.22208504628222678
90910000.0 0.6606923696001664 -0.7411321351534536 -0.23030159665627065 -0.8801218273225432 -0.0026215051631966633 0.0014219270955408495 0.45890773021617093 -0.2143730281864817
91909000.0 0.6522021535291587 -0.7454639194762733 -0.24803035328702858 -0.9134661321785893 -0.0007217996679745111 -0.0017896087285808834 0.47470243942476503 -0.20806775446036144
92908000.0 0.6440854387151865 -0.754565233244327 -0.26823097807382146 -0.9459434303733819 -0.004358323248054734 -0.000513616811027092 0.4620560751220556 -0.22564007718444282
93907000.0 0.6389607190015556 -0.7589563473224367 -0.28683085575848777 -0.9753080315238124 -0.0012810890657193308 0.000945576294221874 0.4631385712064285 -0.2436587733837383
94906000.0 0.6255200246392686 -0.7683086942910959 -0.3011828188008949 -1.0124395543557885 -0.0008235183869286613 0.002680509896757596 0.46813332587719336 -0.24365200132803655
95905000.0 0.6224664129197441 -0.7737575766296745 -0.324075917414164 -1.05088492783043 -0.0001021651665389171 -0.00026031516829811384 0.45309622030837343 -0.26545726211061904
96904000.0 0.6114203710705998 -0.7830826050040253 -0.3422586086223685 -1.0908240239804403 -0.0006797956715966262 -0.000619977504269705 0.45666810250330125 -0.274995735843366
97903000.0 0.6011540431208166 -0.7886275379673826 -0.37075336485513016 -1.119569005666287 0.0013074117298562732 -0.0003792855531960413 0.4381602016372415 -0.2803667462703304
98902000.0 0.5974762847730922 -0.7948190060729189 -0.39041611986867625 -1.159732805032128 -0.002240101984678896 -0.0003001501483886209 0.44675832842836666 -0.2937330965024058
99901000.0 0.5864235892382995 -0.800173148218478 -0.4173510342527679 -1.191105537403443 -0.002137315022583311 0.00026485847856676334 0.46588750162595305 -0.30163963397194277
100900000.0 0.5773854720832277 -0.8049736891726514 -0.44864816320166845 -1.2213443304591745 -0.0016612577738379616 -0.0003493465844744167 0.46201340932307944 -0.3032599524148626
101899000.0 0.5683115710762758 -0.8128562116234427 -0.4753741468414017 -1.258881305556171 0.0036863837588455564 -0.0013062889707180822 0.4605439278308641 -0.3162405405116805
102898000.0 0.5588414094943833 -0.8199564690563341 -0.5180117070131475 -1.295161775376854 0.001107615732537733 -0.0030664516645195795 0.4539038323182481 -0.3343696779371714
103897000.0 0.5495605707594747 -0.8255148268780643 -0.553113885916179 -1.335505028964962 0.001862203531079124 -0.0014675863277287785 0.4574480730128098 -0.33212710481059365
104896000.0 0.5421701502984326 -0.8353716042207654 -0.6031058076281777 -1.3675948295186566 -0.0018707584631077942 -0.002865253237239348 0.44714667509677597 -0.3455605446602639
105895000.0 0.5331416301408612 -0.8372207122084027 -0.6473179559649713 -1.4088570053704286 -0.0020992854911183133 -0.0009248598026453211 0.4434673519620544 -0.3553211005397278
106894000.0 0.5218748172669748 -0.8440191200722658 -0.7057456489025132 -1.446238861134692 0.0015092356013081086 0.00014902046395499414 0.4303335813701878 -0.36835828387876385
107893000.0 0.5136934320333407 -0.8491118478420893 -0.7564065445933682 -1.4827621702593845 0.0023882122444268284 0.0007983205226165555 0.43890237097485774 -0.37460058732555174
108892000.0 0.5053415843870235 -0.8512538071628302 -0.8163044466499002 -1.5244914091094777 -0.00031499836574792525 0.002373351237466275 0.42994018779230586 -0.36614590235330613
109891000.0 0.4929090460402188 -0.8616377967938276 -0.8759821809145304 -1.5571510033456046 0.0006174621174749695 -0.0010367317028273644 0.44246103015892246 -0.3702074757520506
110890000.0 0.47931828531078224 -0.8763159758669995 -0.9589404861099319 -1.5753885581339124 0.0005095097216492042 -0.0008509829015732045 0.43391359581994043 -0.37680170321750067
111889000.0 0.4713774809560639 -0.868031056341025 -1.007525981176957 -1.6288191718399594 -0.001592182404880248 4.744006777767162e-05 0.4338941670331648 -0.398301375423932
