! Created with skrf 1.9.0 (http://scikit-rf.org).
# Hz S RI R 50.0 
!freq ReS11 ImS11 ReS21 ImS21 ReS12 ImS12 ReS22 ImS22
1000000.0 0.9991393357076078 0.015282220912233765 0.0024827017882776544 -0.05610583510552698 0.006537291330135314 0.0068609216474419575 0.3342889024243384 0.2832375235838839
1999000.0 0.9942675553470697 -0.01121553963042847 0.008719829824356252 -0.024120997583913627 -0.003274634169360518 0.0013104153119742408 0.25786286619436993 -0.052942727075911626
2998000.0 1.0018575695619865 -0.021246282378558547 0.006400141399826115 -0.016911042146323562 0.004474819835720241 0.004585899247120969 0.1768915893899924 -0.14402391538589118
3997000.0 0.9974417676016093 -0.03169076784470825 0.011496725733098245 -0.005947508270823725 0.0011076063884066943 -0.0036559732501976376 0.09806882603611855 -0.22071307310926896
4996000.0 0.9991147892951917 -0.03609647430240851 0.007183588680742094 -0.0037605177453130115 -0.004575915364794122 -0.0017842317854586817 -0.05604407137256415 -0.20124924830912272
5995000.0 0.9971254226346487 -0.048020007004197965 0.011008726559704337 0.004293510756392763 -0.0017898565612232194 9.41393103341628e-05 -0.12664813877847964 -0.10195408610225956
6994000.0 0.998078064025481 -0.058424303004723524 0.005017755916536495 0.003451677219579346 0.0009126680013197936 -0.0012146511346176453 -0.14169722370646992 -0.002964707777760973
7993000.0 0.9983158671590421 -0.06614643717910851 0.0039302445147178745 0.005614834326053624 -0.004410351230607003 -0.002608668859856171 -0.16994924574946646 0.04289826730239182
8992000.0 0.9948007112123813 -0.07233863089373646 0.005498576449750336 0.008487087962614208 -0.0009439925826350747 -0.0003561866046835027 -0.14691609542060247 0.08137095408420887
9991000.0 0.9952909856643137 -0.08170855238711962 0.002622815236829215 0.0026328158097285326 -0.0008999043116332363 0.00011880175793695536 -0.1416760761737238 0.0951685821406267
10990000.0 0.99467162393063 -0.09414477013729144 0.003755342531307163 3.439174546274247e-05 -0.0004937692586400623 -0.0034265223721794144 -0.13615806358501498 0.12802493464469733
11989000.0 0.9912891555421286 -0.10131147949553208 0.006175178436440664 -0.0026001977938453517 -0.001116189328960302 -0.0024632812127759894 -0.11443856673231109 0.14807277153229212
12988000.0 0.9908804237001516 -0.10790819680083678 0.001398498542740993 -0.004433102240976552 3.6871694500874883e-06 0.004968955700359247 -0.1022388349806927 0.16750364605521484
13987000.0 0.987290609763709 -0.11569583326293043 0.0013837942464555782 -0.0016049289550869343 -0.0029361047992888666 0.0006081493675840544 -0.08605422953762167 0.18956639922646187
14986000.0 0.988508476361478 -0.12492253593931468 0.0024872494779536814 -0.0007774362294768243 -0.00020704820262471354 0.0005751212233745818 -0.09173001487513407 0.20733722376528937
15985000.0 0.989773108053541 -0.13497890482232158 0.001886631729265324 -0.006879947595369411 -0.000577383662436174 0.00024092413133555197 -0.06621130809053037 0.21527264014256636
16984000.0 0.9860136942002157 -0.14493918653919544 0.0037703776763759723 -0.0029279397642686784 -0.004630589206755091 -0.002211800046451589 -0.059238188346652634 0.2227710416029124
17983000.0 0.9880323507042598 -0.1467977077267038 -0.0006749749342674173 -0.006961345313070649 -0.0031987068258894067 0.001192907496752584 -0.047870517552368846 0.22787337029040572
18982000.0 0.9843338381951446 -0.15975891715023288 -0.001339809426271252 -0.008114554754949571 -0.0004808540749479633 -0.00035550006605897916 -0.011750272827976575 0.24422365549690436
19981000.0 0.9845004834058946 -0.1659630982584979 0.0005615153153919517 -0.00712531236777001 0.0031076082240211384 -0.0001919821470272279 -0.022160773531704314 0.24685355942535345
20980000.0 0.9823879258214993 -0.1767458002220487 -0.005307255700416127 -0.003558092399727771 0.003715402544873652 -0.002805816454874836 0.002442625455662842 0.2628269248170236
21979000.0 0.9785624584591407 -0.18445312042739365 -0.005141667359802841 -0.004858943157275879 -0.0045346233820607275 -0.0003624548779753496 0.019633709391388792 0.25518996192596305
22978000.0 0.9784547635159659 -0.1935567983433162 -0.005911502149240229 -0.0011645771217605786 0.0004123487885453349 -0.0018911065570332611 0.024648332813451555 0.26471709192660253
23977000.0 0.9796246246177527 -0.20119670147029517 -0.004758985355855084 -0.002521857239904125 0.0017704657619974033 0.0031881684905435835 0.047590688923238575 0.2533283004452948
24976000.0 0.9749255263862774 -0.210603384499015 -0.007439128976554319 -0.0043493371707180725 -0.0013139479293070796 0.00012870542347017528 0.06823797055510482 0.25837831446739223
25975000.0 0.9755683631717101 -0.2243493683041482 -0.003759068231355328 -0.0015386272658818726 0.02715467444057035 0.005208143533230944 0.09033824303361727 0.2700845232833772
26974000.0 0.9707996821967445 -0.2280387169927508 -0.003130184178041882 0.0007639368516836115 0.0017782888456782436 -0.0009392939837267884 0.09304317177124423 0.26136017471563405
27973000.0 0.9707804071596213 -0.23450706004937202 -0.004797554033205879 -0.0008272654787859884 -0.0010685493946242207 -1.0872457914440243e-05 0.11582532795698304 0.26432764507644163
28972000.0 0.9673059538491545 -0.24276375518799623 -0.002337183002699411 -0.002890406743330939 -0.0005938508066358265 0.0005038517866624849 0.12531438567314945 0.25041075664068657
29971000.0 0.9652672908681138 -0.25249670990555956 0.0013024214619129701 -0.0010530801327764577 -0.0024356103107331137 -0.0012228453930283034 0.16108093364976653 0.2789473729048537
30970000.0 0.9633929380329269 -0.2558682060305364 0.0004651796581048928 -0.0004222521918941511 -0.0008944030129009035 0.004618255251640255 0.17668315267114756 0.2530122178930969
31969000.0 0.961186154201879 -0.26578473746361275 0.004703449053471627 -0.005218777297739084 -0.0021654279152941267 0.0006038554059921411 0.16476471126828457 0.25528732360749684
32968000.0 0.9590304922974742 -0.2765065794581828 0.009419210099950526 -0.00793782679548313 -0.00046344697173097987 -9.789336353397169e-05 0.17200129240226197 0.24398610207335902
33967000.0 0.9583588808692173 -0.2848308547701623 0.01102217111689339 -0.008692490245511993 -0.000497683048087003 0.0008980665608866806 0.19387203130161512 0.24841367535622022
34966000.0 0.9539924788491947 -0.29453163531982246 0.01365294763611521 -0.00993198436091681 0.00318196799199015 -0.001976651999455183 0.2005668631553393 0.25140240731947533
35965000.0 0.9518672917195968 -0.3019548044515935 0.01656533815343914 -0.010335830883011463 0.001014398781390444 0.0022538469044089005 0.22254846723563645 0.25635893478493943
36964000.0 0.9511942798150835 -0.30941748832938387 0.015566694369539042 -0.014884088608153389 -0.0013192315382612593 0.0023966847138822476 0.22371610006745637 0.2519997273105823
37963000.0 0.945426468387506 -0.31924504929650555 0.0230553160455964 -0.02011221328043399 0.0019071780800482148 0.0006771223398467996 0.23746141159366382 0.24789329307777686
38962000.0 0.9438532915007494 -0.3260982923294777 0.025755219459418492 -0.02146263786017905 0.0016916491295545463 -0.0002553952330043492 0.24727617979159774 0.2347582101837408
39961000.0 0.9401832433471855 -0.3356848612540738 0.026584949417100986 -0.032499118170654755 -0.0016714268172798765 0.00103361856730501 0.2611046000503133 0.22709938321925477
40960000.0 0.9356150082424466 -0.34322560802551805 0.025018166454500248 -0.024430260853190222 -0.0003387869440921184 0.0006995360044491806 0.2812604132591403 0.23653319416795948
41959000.0 0.9339394210614731 -0.35271165374050306 0.026936677407362112 -0.028748501244268507 -0.002211972234709403 0.004312569993063844 0.28646809982167687 0.22261337307663653
42958000.0 0.9289927417039298 -0.3606241131516521 0.03208211389697051 -0.03957906420320991 -0.0002833507877908931 0.0016853077532840346 0.2900822551343671 0.20790540668573287
43957000.0 0.9280096588641834 -0.3672283675749761 0.03100413350730041 -0.04450011226369538 0.0028177084505204204 0.002116739105384934 0.2933043092401503 0.2106309457206094
44956000.0 0.9243684059883723 -0.3759974407300077 0.03303889477946647 -0.04863206837305342 -0.0006468643932108683 0.0006417006979331839 0.30701756918167017 0.19774923778052436
45955000.0 0.920954410823205 -0.38361079440793044 0.034296361612584834 -0.053557386890967874 -0.001759548042069497 -0.000723517249241785 0.31435072123376007 0.19131176933167193
46954000.0 0.9174395378087983 -0.3935686847631283 0.0332229819423588 -0.06150187383175981 0.0007005907925750611 0.00033952240299580804 0.33917197167693514 0.18011837657990448
47953000.0 0.9128963084112237 -0.4018171442362307 0.03608580593579148 -0.06712970294038546 -0.000979158201363566 -0.001001022660042452 0.34818516024948176 0.17666777431960456
48952000.0 0.9095654936088283 -0.41183919326616847 0.03585156937997918 -0.07435647758092456 -0.0038373795593107875 0.0011264442519200609 0.3463573588728094 0.1735294811023531
49951000.0 0.9057191276777975 -0.4182306033990931 0.034677485159543095 -0.08425095086887546 0.0008380756188271027 -0.000981422175262292 0.3639201753071157 0.16068549240811447
50950000.0 0.9020976245296098 -0.42728009650349374 0.0370249815859706 -0.08914956411390096 -0.0001939829692838362 -0.003451304313835108 0.3687898161842769 0.1470714166375209
51949000.0 0.898024273079669 -0.4335019900677873 0.039299889361567183 -0.09984723944315425 -0.0003306509971172691 -0.000746388573841639 0.36910370917762736 0.14106289602981184
52948000.0 0.8962293904491581 -0.44159072295523877 0.04208149744369131 -0.10626270422545532 0.0023753103772562734 -0.003402502229741908 0.3791785132252725 0.14541871267918668
53947000.0 0.8896318494054599 -0.4517494514223799 0.04027772583631005 -0.11612623670327495 -0.0008364312059808595 5.463908538413717e-05 0.3792685367787736 0.1341817828905552
54946000.0 0.8842308372017221 -0.4588501800964468 0.03930796989659178 -0.12595312011625054 -0.0006917334991342353 0.0014111984828221388 0.3999057784818716 0.13049229238850954
55945000.0 0.8835852837949557 -0.46812779823568235 0.04273312163221785 -0.1370735271932771 0.00014914668406352814 0.0002463414733431099 0.4003919750536123 0.0989165433374393
56944000.0 0.8787176209330629 -0.47659154748562005 0.045065211995859056 -0.14468440157687448 -0.002523289672101317 0.0006298744944414149 0.4073096437794582 0.11038467980789204
57943000.0 0.8736963672311769 -0.4857030264380123 0.04860044257877167 -0.15877523554744777 0.0005584655793573836 0.0035681830243071925 0.40319382797189396 0.09533069683166492
58942000.0 0.8688496449345934 -0.4901875915290297 0.048713682595159305 -0.16538854565425043 0.0057872146263725525 0.0015966913000325389 0.4262815032417109 0.09480059560122617
59941000.0 0.8651255039705104 -0.49831959667443376 0.049457543035560526 -0.17579240649563244 0.0008588975778972957 0.0005247286098281269 0.43352668134141686 0.09176910488016998
60940000.0 0.8578423655192354 -0.5050589586982516 0.04794345967686712 -0.17900510056479568 -0.0010688735323831195 -0.0013493366154784477 0.41407826246811863 0.07509087478265171
61939000.0 0.8553431525743682 -0.5132542584724856 0.04624504742266462 -0.1867544513549155 0.0010925134820171298 0.0004961727243206816 0.42614388515722373 0.07856030270096312
62938000.0 0.849445333903055 -0.5228662411385223 0.05013143318438959 -0.20197287754210733 0.0009811980095009336 -3.549848934272438e-05 0.46497798380125993 0.0558738674261523
63937000.0 0.8434326316755163 -0.5306771279807646 0.0515968177744543 -0.22510059356676462 0.00043896784501806405 -0.0005577141764920423 0.4423875413492247 0.04552150081091348
64936000.0 0.8397678247791086 -0.5360837997232938 0.056575110193095066 -0.23567899891642693 0.0035214534722667478 0.0031019235283224612 0.4388123135072923 0.03823604922671577
65935000.0 0.8335336774929927 -0.5469425817807638 0.05433891329748011 -0.25012935317730894 0.0010504263636411618 0.0026695667155303697 0.4484949445199985 0.03170010787652181
66934000.0 0.8311108180430934 -0.5518504038049986 0.05477028329021577 -0.261909910494562 -0.002341467254749798 -0.0041094071298831475 0.44354914987414673 0.013052583310659914
67933000.0 0.8274624986844178 -0.5596420164006093 0.05684624989524156 -0.27693756274824427 -5.395049143724055e-05 0.0019393785312217726 0.4567738459016417 0.012158812895724583
68932000.0 0.8227435662470156 -0.5540117492185006 0.05550791982453556 -0.28438719353324077 0.0039762539636496 -0.0006194671554334766 0.45164053748078337 -0.0030723697546300357
69931000.0 0.8115448735437193 -0.5787323375420701 0.05052228189225941 -0.30327575138846674 -0.0009085068332704345 -0.005051623011854797 0.46148132642046646 -0.005086361412335695
70930000.0 0.8064056077163337 -0.584734566681884 0.04972239821299135 -0.3161980054594885 0.006219834155078233 0.0004024328570736909 0.46259210058652833 -0.025190388353164228
71929000.0 0.8048393407590466 -0.5909660961836501 0.045757789309238184 -0.33318354724651605 -0.0015315603311985785 0.0029981107551254505 0.4636887390601999 -0.036097643213952445
72928000.0 0.796072637160613 -0.6022434939201475 0.039665234617156854 -0.35071292938208865 0.00021176414579535555 -0.002535442782329709 0.47042950248250115 -0.0350326790877672
73927000.0 0.788889050564488 -0.6073945979192282 0.034847458724835606 -0.36538397517147747 -0.003101057077809033 0.0027261061010112023 0.47075164450426565 -0.05064942771532116
74926000.0 0.7836184201692432 -0.6169408039848389 0.030169820089213727 -0.38454995521679736 0.0029893756047123334 0.003091004318591414 0.4895173081183639 -0.0658144335719058
75925000.0 0.7804527738949854 -0.6208495416319665 0.027241138647989483 -0.4036795612626646 0.0013487617875478997 0.0008207292441722754 0.48190577312961363 -0.06962359367886253
76924000.0 0.7744862396630626 -0.6282576302263021 0.009131980843049907 -0.42534754149180426 -0.0016344904711008328 0.0029764860809149735 0.48104063303109396 -0.07286537644893108
77923000.0 0.7687092157513501 -0.6372120084429861 0.0011286217696724295 -0.44896390015856624 -0.0001099260886269322 -0.0019520644010931566 0.47048492091662897 -0.09096892115482841
78922000.0 0.7630747489255643 -0.6457371601674997 -0.016223494118879966 -0.4722469124332468 0.003505492183997257 0.0010771915457870713 0.4783831484613738 -0.09226061465318339
79921000.0 0.7542156151934584 -0.6499649200998107 -0.03303138955032156 -0.49746976180649904 0.0020812939154622252 0.00024905230210724865 0.47137701300420093 -0.10468007641016196
80920000.0 0.7512664995479956 -0.6603339858267946 -0.04963967038771475 -0.5249986998182844 -0.002470357549919717 -0.001115152134679235 0.4727796756579106 -0.12702951514431915
81919000.0 0.7436245721918451 -0.6673901618674756 -0.060398274473553275 -0.5481034194815585 0.003548036936449448 0.0015808401833172184 0.48386657597917004 -0.12654935500504935
82918000.0 0.7374441540533296 -0.6745918257535952 -0.078338291124566 -0.5799840530511875 0.0068332742734751855 3.9119088526889774e-05 0.48491652145550657 -0.13707248062427135
83917000.0 0.7280202486825843 -0.6792025804405841 -0.09773583427855585 -0.6075938546133219 -0.0013957499085084978 -0.001408473045357461 0.4825809260483555 -0.14721801429958106
84916000.0 0.7220800404665694 -0.6895845959850013 -0.10916517324692 -0.6418309712439638 -0.004998020193090373 0.0026324508023438655 0.4750017388193242 -0.1620892194305917
85915000.0 0.7156909370533932 -0.6952096125979819 -0.13042404393488574 -0.6696475488588538 0.001840478925619734 0.0049261320259966265 0.4838911560542641 -0.16904479413004064
86914000.0 0.7086348564451646 -0.7049092730805441 -0.14872626382981555 -0.7039913161539879 0.0015007234272050964 0.002580003039075301 0.4727404850037949 -0.1701907178531685
87913000.0 0.6997785048251339 -0.711012382933448 -0.16028912654208197 -0.7342662745716818 -0.0015830081204213536 -0.0007714124076160904 0.4717813498287979 -0.17133304947883662
88912000.0 0.6937824100605301 -0.7180048383880169 -0.1768276370546423 -0.7652268665916478 0.00407604996026807 0.0016167991521517657 0.4738769154036399 -0.20109617280428663
89911000.0 0.6881436997216446 -0.7251510226865897 -0.1921302466051969 -0.8008917121561605 -0.0014187679231367361 0.004625625922778264 0.48056242387445497 -0.2027851192393284
90910000.0 0.6791592007378027 -0.7312431398093174 -0.2138504243872462 -0.8312271133194554 -0.002533705118982216 0.001768877926099852 0.46928711551705066 -0.20358182211996825
91909000.0 0.6701388636548609 -0.7342773078431416 -0.2260174416941532 -0.8675024556760806 -0.002238299130909183 0.0008273542649628373 0.4753451345379503 -0.2199733061353079
92908000.0 0.6641860127604753 -0.7454194921353624 -0.24418231788051042 -0.8982921898488828 -0.00031312161888858646 0.004847801658078313 0.4654163387481271 -0.23244648665722742
93907000.0 0.6561219636557262 -0.7506467431046072 -0.26233866707564024 -0.9297242728690998 8.621010848444247e-05 0.00033446402212360696 0.4750635903893993 -0.2492311753760612
94906000.0 0.644972886644613 -0.7598813992790684 -0.2806848065591665 -0.9618959689367885 5.428844113302028e-05 -0.005205017031024523 0.47399093794445485 -0.24277420521244825
95905000.0 0.6397690855599066 -0.7643875376154696 -0.29826008309505947 -0.9965944805486976 -0.0005453075388903501 0.0029915590057014337 0.4715298424175413 -0.2615677124315779
96904000.0 0.6321252805683677 -0.7734987586521146 -0.31448012526628044 -1.0355667357024871 -0.004851516890112127 0.004246696284861534 0.466077814703645 -0.2671028027821399
97903000.0 0.6208487915139534 -0.7792529695430513 -0.33416766233563244 -1.064705659061761 0.005876131724276798 0.0008686957579404788 0.45401464492592813 -0.2723635459561051
98902000.0 0.6179777853635039 -0.7841528849313882 -0.3480897479337885 -1.1051630014976939 0.00020245704727189301 0.0019230213024391974 0.4606743151285838 -0.28351123939944645
99901000.0 0.6053342035644662 -0.7907403275968499 -0.37900391702493874 -1.1288547596107095 -0.00038644538698227263 0.0012297753234164852 0.47480949682168955 -0.30454154818831203
100900000.0 0.5985593746404754 -0.7947822177338917 -0.401094000955565 -1.1658232063642657 -0.00015881570019024344 -0.0012619357968728373 0.4710578253076451 -0.30060750267821346
101899000.0 0.5914486454650707 -0.8036551622913481 -0.4263905855117806 -1.2008716197878608 0.0017620387742621584 -0.00032557246864670564 0.4513265843464879 -0.31877159141951866
102898000.0 0.5814515470369529 -0.808593829863507 -0.45906744281141343 -1.2365072214567085 0.00028779182164521364 -0.0022711573672015376 0.46678588697268364 -0.3240837782258239
103897000.0 0.5723513855475454 -0.8163947001731486 -0.49841835428396397 -1.2666440333960702 0.001176344305282666 0.0011156873326918443 0.46938457079091156 -0.329519506476372
104896000.0 0.5650584348390968 -0.8269253337679225 -0.5397601200010995 -1.3026999460184217 0.004562982572999613 0.0026170082764297537 0.4581065105639141 -0.3288812977184238
105895000.0 0.5551723073884286 -0.8289507133081003 -0.5779098930075082 -1.3407455579117353 -0.0008390465845570203 0.0021110619843261826 0.4475403426021651 -0.35418294025762553
106894000.0 0.5435938209804728 -0.8340465439823186 -0.6287938586143723 -1.3753289999243268 -0.000634447800973396 -0.0036665991430283214 0.43594956371974025 -0.3557296059404786
107893000.0 0.5372276764960611 -0.8416262186907223 -0.6763151408404746 -1.4152211333960956 -0.00047418034589876595 0.003145810991986697 0.4567746443734358 -0.3690474215023338
108892000.0 0.5290767458203464 -0.843171977509424 -0.7272566992601648 -1.4481930570825874 -0.0005436894539673275 0.0011533651812885239 0.4367339732299248 -0.3692598536570193
109891000.0 0.5157653240378836 -0.8521848968681015 -0.784178767044928 -1.487484046544667 6.247152807693685e-05 -0.0001271496417877081 0.45580927992511316 -0.3654604421605023
110890000.0 0.5021872008112914 -0.8534108837941545 -0.8371121366921166 -1.485025481869843 0.0026643964320343266 0.0032264253279694465 0.4377514229045735 -0.37641452769389927
111889000.0 0.49704924017574986 -0.8596728306778746 -0.9026125523019498 -1.5532867734346287 0.0018075361303024904 -0.0013320646663173299 0.4223165621456387 -0.3988440053385394
