! Created with skrf 1.9.0 (http://scikit-rf.org).
# Hz S RI R 50.0 
!freq ReS11 ImS11 ReS21 ImS21 ReS12 ImS12 ReS22 ImS22
1000000.0 0.9814289876655629 -0.0007403120783559898 -0.01734767815125449 -0.057078886609765685 -0.016743681727935247 0.00747407331048521 0.39076612873691596 0.34708124697967196
1999000.0 0.9977115235122356 -0.00884656751423038 0.003254284512945995 -0.020529966544083792 -0.003117060109222961 0.005371235523479763 0.2654627206847705 -0.04558885453046064
2998000.0 0.9988786476560582 -0.01932418915283293 0.013489042651232448 -0.009613223731700617 -0.005310541209977919 0.0004903490286339562 0.18084313567783555 -0.13536509260591506
3997000.0 1.0010192792460237 -0.030367370748565842 0.009168268728737394 0.00046269908151199134 -0.004190532879239424 0.006218140785356451 0.08263105712343424 -0.2334251667247423
4996000.0 0.9956961438740994 -0.032195298329084084 0.011450811196609319 0.001046372662360623 -0.0007515837279420557 -0.0005544387921698139 -0.035331571650497696 -0.20241669017636799
5995000.0 0.998384868836435 -0.04751706414978379 0.008461726589579738 0.003707022091382683 0.0006993856022560229 -0.007936009941490811 -0.1184003349244293 -0.11117331251151495
6994000.0 0.999268356639756 -0.054444335752043875 0.006941858723458081 0.0017523475645399036 4.8811285167967735e-05 -0.008267165908709765 -0.142722178857571 -0.035828215082355404
7993000.0 0.9984904257473188 -0.06417310200502914 0.0006605396618781131 0.009357243964830774 0.0017192020251380804 0.0045513909460033345 -0.1509367927576673 0.034117237209935265
8992000.0 0.9973257151998588 -0.07141624926814796 -0.0006865757576597007 0.004183155366249025 0.0005727667499309983 0.0036919698121259717 -0.1384081809897408 0.061778573114884716
9991000.0 0.9946330834633592 -0.08289699865598459 -0.0007489220012053144 0.0031046864412063624 -0.0039185718138403484 -0.00012707841664189124 -0.14665181964300422 0.09100153251674256
10990000.0 0.9927878637142458 -0.09204432555407392 0.006163575789684629 0.0003756681432308429 -0.0014673783944217718 0.002222153726384424 -0.13112743343402766 0.12236641741100636
11989000.0 0.9942482009813447 -0.09601696203983755 0.0049993233095514105 -0.00298507433232004 -0.00549507305629157 -0.001007811578553957 -0.13008065011508357 0.14043832607460546
12988000.0 0.9912380063609257 -0.10949433508002736 0.001519586450213701 -0.0016180843106670688 -0.0030175142650098225 -0.0038966593486937286 -0.11644934755019509 0.1630987753974072
13987000.0 0.9909381654393412 -0.1178174945443707 -0.0009397781431284655 -0.004725742981997012 -0.00044422772315313335 0.001470334248911853 -0.09487107489169427 0.18715026437046395
14986000.0 0.989287718032129 -0.12211835273939337 -0.0033878786705139117 -0.0036334076901549175 -9.669767831605603e-05 0.0012793045260398497 -0.0888782649551108 0.19729579095897895
15985000.0 0.9900201484603708 -0.13351240250817634 -0.0020149746790666446 -0.0024778079297678164 0.001734953301836294 -0.004805366531165687 -0.06113795949450481 0.2112473468472641
16984000.0 0.9878824052616697 -0.1432479550444557 -0.001629783757620248 -0.006302102596110065 -0.0022477294169074933 -0.0014592024275160388 -0.06436245855665922 0.21121893825266316
17983000.0 0.988110121165733 -0.15089199664607947 -0.005496895808188396 -0.0036021903889051775 0.002815298964316256 -0.0005773755466598991 -0.05811103757743052 0.22354161717459786
18982000.0 0.9846102149128197 -0.16113962599351855 -0.008157299320301806 -0.0015909541071331148 0.0005711252923323133 -0.00195849610395383 -0.02855872049401377 0.2370769537988769
19981000.0 0.9855050407479915 -0.1650478559154875 -0.00471209142336586 -0.002321160727554623 -0.00020119969999961128 0.0003059205587241015 -0.017427361952550534 0.23401801162588917
20980000.0 0.9836159650501205 -0.1756186584151018 -0.007096514676389695 -0.008525782023385636 -0.00020725652284740045 -0.0013080839108888258 0.0019143393664920432 0.2581200519668619
21979000.0 0.9822824889594219 -0.18260510173782982 -0.003185771986221324 -0.0028952941417941355 0.0012307687382514248 5.6943733002022686e-05 0.023026942956257367 0.24002112416645596
22978000.0 0.9780708085359311 -0.19407341771316838 -0.0050325068231434796 -0.0024330047897022982 -0.0030962423917778995 -0.002037214854220701 0.01828497573797808 0.25463837145126333
23977000.0 0.9810589690397324 -0.19728456956056417 -0.005017736170319151 -0.0027241073052049363 0.004671241457567634 0.003291596808663145 0.055089811752767 0.2555704151162351
24976000.0 0.9762075150446936 -0.21073012075938333 -0.002872284817353316 -0.0010370287106081628 0.00046389702722381305 -0.0009843453997408168 0.06655360549984207 0.24926058543815424
25975000.0 0.9781018261600125 -0.2196901338941939 -0.011453588679608218 -0.005343471598731531 0.017265169340570895 0.018255677125798724 0.09028433818796822 0.2575034635475037
26974000.0 0.9738453871058207 -0.22481583837157543 -0.004006680718671197 -0.001389417984419543 0.001335638081009098 0.0005101868249056754 0.09960571310638291 0.2533295428933802
27973000.0 0.9723572177132787 -0.23204776452465872 -0.004319883215604999 0.0009150747958140991 -0.0018512722332598315 -0.002208038402125551 0.1127793204342599 0.25106264514536314
28972000.0 0.9675955228328899 -0.24189233863797063 0.0022697194200393686 -0.0038988131675288256 0.001845345392247843 -0.00019483700315559921 0.11456747803435281 0.2530750796697456
29971000.0 0.9671321164759794 -0.24980419241216253 0.002946218476589855 -0.0012754870727296897 0.000681731744794707 -0.00020545238285102577 0.152414232529747 0.25893345922720806
30970000.0 0.9652328374603731 -0.25655987871098784 0.00018275619386730205 -0.001251691190312985 -0.000919632519081996 0.005398272965438382 0.16339166174348072 0.24954173004270044
31969000.0 0.9640439423289232 -0.2654077268259306 0.004734595308242578 -0.0027618561599705676 -0.0009615610861007822 0.0007447205307319546 0.15190150003868705 0.2542929706204966
32968000.0 0.9606217591193313 -0.2765648881338361 0.010321537888569864 -0.007474373682444352 -0.001412496510990406 -0.00013023111231199339 0.1630451789824672 0.2464728986898463
33967000.0 0.957748024132412 -0.2853627627011988 0.010092878055884198 -0.0076788991498229235 -0.0021040075331393983 -0.005172544802096225 0.17729931240144772 0.24464576170858518
34966000.0 0.9543753550194077 -0.2940520116774913 0.012889758255996173 -0.009057871834022522 -0.0011566469176545358 -0.0003284360936015735 0.19775853584868258 0.25414036380902844
35965000.0 0.9521923439489345 -0.30067924102776755 0.01890258628934275 -0.015200376910259548 0.0009111403453355338 0.0024209752727623727 0.214327607021877 0.25007770645396576
36964000.0 0.9505263426819864 -0.3097156795201154 0.016157302918347605 -0.014946090157119889 -0.0020503856559527206 -0.0015297262462164046 0.21610316573986274 0.24366817571896707
37963000.0 0.9473364215842777 -0.31878000759284725 0.021261417203108982 -0.022349723967095017 -0.0014484725700057031 0.002247997246982539 0.2331065455609402 0.23182669185545762
38962000.0 0.9442568857824758 -0.32839815855509985 0.02505514736031495 -0.022603047289312624 -0.0013479765008279788 0.005015481837801385 0.2414168390039983 0.23247027890532065
39961000.0 0.9432920595561931 -0.33327758420757253 0.02596726082812377 -0.03162154648865531 -0.0017263745134234955 -0.0003653633083422438 0.24882966851056967 0.23173737434630612
40960000.0 0.9377043340371168 -0.3438000213990793 0.02371216678779434 -0.02411248166796241 0.00189321124935634 -0.0004604023851715006 0.27086894227685765 0.22314161936047783
41959000.0 0.935184234607498 -0.35271213916108474 0.028489783116918434 -0.03351905391193119 0.0018433612779596273 -0.00036273603455963765 0.2708490129666766 0.20816185939066034
42958000.0 0.9301566836861292 -0.3601641913516974 0.032778446600666596 -0.042520565672827644 0.0010804513610019552 0.004186587775194618 0.27979198887381335 0.19131448223026895
43957000.0 0.9308451621845005 -0.3653468222206276 0.03229754223677474 -0.04695605637310008 -0.00207040799517968 -0.0015577219236744596 0.28889110411145547 0.2044474833820759
44956000.0 0.9250695262169643 -0.37355978869883927 0.03659006913945286 -0.05004555519823973 -0.004020658248623351 0.0004007441870894769 0.3022630618116415 0.19312733853147718
45955000.0 0.9204792193635652 -0.385811093041454 0.037263445161630666 -0.059661266805659974 0.0014789260014645255 -0.00013051730524398154 0.3062805154258204 0.18066148129718682
46954000.0 0.9180156425923996 -0.3936847247489588 0.036749337246060665 -0.06559956305033823 -0.002997500251598611 0.0005160542736721235 0.3271119293601563 0.17040492161694182
47953000.0 0.9143100453384331 -0.4032255468422509 0.03841998819016453 -0.07244815290756293 0.004898386660614194 -5.456224077081436e-05 0.3384813323486856 0.16456457717704218
48952000.0 0.9101930498295955 -0.409634093905646 0.036472120701781394 -0.08140953499292751 -0.0006066953581750318 0.0022432341695146026 0.33952381085266414 0.15781206714660423
49951000.0 0.9087455776488805 -0.41538119125401257 0.04207304547762009 -0.08851410039964318 0.00015414309131435208 0.0005873398507040497 0.35659231935852703 0.14895489620857139
50950000.0 0.9024787522653673 -0.4267680655971645 0.042381688395462025 -0.0965149044106658 -0.0014542171387937851 0.0029574612044350503 0.3572755669623893 0.13707658342949475
51949000.0 0.9002197418347574 -0.43373502642853595 0.04170321241407317 -0.10608337046449219 0.0013641620871019365 -0.00023515811160725248 0.3652927046238696 0.14854914270563263
52948000.0 0.8976502267038058 -0.44038038195474394 0.04175757019372755 -0.11450424498836678 -0.0011131997180836844 0.0022074554741281656 0.3729460130454638 0.13090000717529673
53947000.0 0.8924316547245831 -0.4488747027072728 0.044969668700284855 -0.1257376321155549 -0.0001095843704513536 0.0022960329659316115 0.36901486917793336 0.11697040320351443
54946000.0 0.8857565803552438 -0.46051757112121605 0.046914539548704386 -0.13257434588928982 0.00044696263067934254 -0.00016524062385866764 0.384441792745133 0.11908815273950726
55945000.0 0.8833180002464684 -0.4671003720803271 0.04799826892663542 -0.14516020420723574 0.001713304554295026 0.0007090395582341807 0.39067122589333536 0.09946469402199212
56944000.0 0.8791327440494747 -0.47338963293363395 0.04833309663138057 -0.1558850093929228 0.0013606860190403043 0.0031987518880945186 0.4004953512644411 0.10528037232011453
57943000.0 0.8742748112129418 -0.48523189210476964 0.05206375529537393 -0.16659305078106776 -0.0010639232884543407 0.0022044353962848403 0.4138987476646835 0.08849006165494884
58942000.0 0.8679048948029887 -0.49164988602359405 0.0525288246271678 -0.17801726608688342 -0.0034514575551401173 0.003583857279296457 0.41335551156187983 0.08085657665463337
59941000.0 0.8673388063453632 -0.4973683119654895 0.05661062951790279 -0.18763753491984686 -0.0021016064580318306 0.00309988375455579 0.428344238477287 0.07899454925697785
60940000.0 0.8592268398570576 -0.5056869171426668 0.05548316659018474 -0.1934053100615798 -0.001357749846102225 0.0014935690996433289 0.4096616045832344 0.07201470034548302
61939000.0 0.8562750593332998 -0.5131899872296358 0.05442211602634494 -0.19981602396508408 -6.380815528963526e-05 -0.0006078299789641622 0.42346577597437207 0.06374646918310807
62938000.0 0.8500186169712867 -0.5229866717147016 0.05825191323907021 -0.21999609071544393 -0.0041755308440450155 -0.0035624282641098493 0.44620938562300005 0.046592647801931626
63937000.0 0.8474095691924887 -0.5302187995111082 0.05849407872427234 -0.23895844711917724 -0.0031063118091096895 -0.0009702370770536889 0.4394317865708104 0.02621285247886339
64936000.0 0.8391812414851292 -0.5371558953529948 0.05849476140091637 -0.2539895931298955 -0.0011191971544968979 -0.0010816118989110867 0.4427697003255682 0.03788794210163003
65935000.0 0.8354702793487945 -0.5469878614904058 0.05680607959248858 -0.26629760324225954 -0.0033232232909955113 -0.0027311084721564913 0.4420222130285842 0.016746764235979286
66934000.0 0.8324346979351434 -0.551372128746663 0.057484471899691546 -0.28402536479584634 -0.0038733774228305886 -0.0019439507097419604 0.42308928204108853 0.015828010912704048
67933000.0 0.8286796426729884 -0.5593500823137225 0.06101648119476232 -0.2988254131285008 -0.0001437936999165407 -0.0013034177699514885 0.4475465461566441 0.004139297083908639
68932000.0 0.8132518125361946 -0.5682237023387833 0.051732252798776045 -0.3114899971400743 -0.0024088900635490496 -0.004537439121072001 0.4543626222492259 -0.017653173996969106
69931000.0 0.8160263325151249 -0.5767768707211782 0.0564562914639425 -0.33192288215514515 -0.006277339766650489 0.0014695314847012941 0.4480734469628701 -0.025616578007651113
70930000.0 0.8078782234465942 -0.5840713684377747 0.05077235054711078 -0.3423338498471504 -0.0006714178017910592 -0.00016406487731401222 0.4472872333519395 -0.03908433748009029
71929000.0 0.804629184477178 -0.5925529560820632 0.04716026051436892 -0.36487167220459427 -0.0017702437642375553 0.0010815991856866622 0.4457571364023617 -0.03838731354205836
72928000.0 0.800047805270995 -0.6000623136217305 0.042123338282022395 -0.3814851765126246 -0.0031464660667477958 0.0003439416091732101 0.4698263412918849 -0.0526693904157936
73927000.0 0.7927597129372346 -0.6067114780203795 0.03758759856946346 -0.40580884990278476 -0.003435719695804444 -0.0012960014501386247 0.45950435565399994 -0.06000763750559035
74926000.0 0.7855798031314694 -0.6170408183612505 0.027182319347551432 -0.4226902439329706 -0.0010941033207729376 -0.0013724841772398072 0.465650950903813 -0.07459121693185332
75925000.0 0.7811973014573756 -0.6221942031911855 0.019106898548146137 -0.4445397976277189 0.0006811530900769213 -0.001447905524561137 0.46873737803911447 -0.08754701665971411
76924000.0 0.7767166831576254 -0.629000072020359 0.010620309276343585 -0.466910145701895 -0.004417634710361546 -0.0025791816863898628 0.4668583789963166 -0.087817128402901
77923000.0 0.7693553671174682 -0.6368463126512909 -0.006614245247590121 -0.48826425215651903 -0.003337045972028155 -0.004056588601099533 0.46351235932788465 -0.09559549060650283
78922000.0 0.7653819975029398 -0.644755832494294 -0.020995324341505105 -0.5179311832481175 -0.0006767692808469589 -0.005324713869937227 0.46012779732166115 -0.11103710931448242
79921000.0 0.7539758757284503 -0.6503882225790352 -0.03631422238648912 -0.5460422326138379 -0.0017139010637886856 -0.0034440023034318676 0.46369590328460353 -0.12286102067814499
80920000.0 0.7525218961686786 -0.660049781103438 -0.04979379783270586 -0.5722311531326179 0.0012626945077489147 -0.0025514673814690885 0.4777426100138278 -0.13574618220110507
81919000.0 0.746305222355966 -0.6642675087170922 -0.06557744557476733 -0.6060925244019171 -0.00038637051766256616 -0.0017304179139335562 0.46370601587587906 -0.1477596243414248
82918000.0 0.7377514221814675 -0.6731405010837055 -0.08356912889072775 -0.6338855466229254 0.0019693733579116807 -0.0029345538983204366 0.47725327399255557 -0.15103731830043413
83917000.0 0.7263641621663987 -0.6819329305007243 -0.1018885791432411 -0.6645295158028509 0.0028931260631727984 -0.0021578940557613726 0.4761004177638713 -0.15871401435937282
84916000.0 0.7252552509828225 -0.68840787249264 -0.11558386135769047 -0.7040924521365403 -0.0004999921480368191 -0.0018514447367354845 0.46869159691494644 -0.17503684651614743
85915000.0 0.7170265618858207 -0.693857256022591 -0.13970282704490025 -0.7349562200135888 -0.005898868807089683 -0.0023093483459072054 0.4686525352427755 -0.1823550715788268
86914000.0 0.7099448745455175 -0.705495912302509 -0.15512347446930516 -0.7724931112402044 0.0004569902501558468 0.0014218061433569262 0.454389563457051 -0.17988950202363294
87913000.0 0.7041935362443781 -0.7113948977267393 -0.17294910398351776 -0.8023935050686155 0.0008885832684076693 -0.0023620782614981123 0.45287572197075576 -0.1935037624194081
88912000.0 0.6956880989930468 -0.7179945091826542 -0.19041814315478553 -0.8393049091679874 -0.0007962721630577843 -0.0035954178804888976 0.4718900362464622 -0.2098427502043199
89911000.0 0.6885878064367176 -0.7260887706408008 -0.20895037249915388 -0.8778265144169803 0.0013208488394016694 -0.001199161152619306 0.46474163374109606 -0.2228567336376824
90910000.0 0.6811334961464998 -0.7318420902573491 -0.22761991782409735 -0.9066207461241724 0.0005198698744202612 0.0010392192062039951 0.45756708847062055 -0.22318239537768056
91909000.0 0.6731816258599016 -0.736940327212875 -0.24991217863935347 -0.9462129579379749 0.0013849496257341187 0.00029796806406714917 0.46571796637382396 -0.23636558984257797
92908000.0 0.6663187825574741 -0.7455090353819499 -0.2699649674649006 -0.9821937142593996 0.0009723473937216418 -0.0030893774776889486 0.45759767219347025 -0.23814538710442687
93907000.0 0.657687528948708 -0.7506786541279448 -0.2912648997857595 -1.013279416781369 0.0015006640992725482 -0.0018992137666820213 0.4570679819190898 -0.2523716412305681
94906000.0 0.6453451243232158 -0.7600177631695546 -0.30735650171747964 -1.0476423300688038 -0.0031541932076925715 -0.0002581076475745466 0.4480852197914612 -0.270555673999711
95905000.0 0.6414448107007176 -0.7649034157526822 -0.33302970122400394 -1.0887480801483191 9.258979645240306e-05 0.001097906184178276 0.4536346352132759 -0.27906338941523323
96904000.0 0.6316015587268679 -0.7748084377856188 -0.355208616816453 -1.1263073100727625 -0.00036432226281279674 4.176841115248968e-05 0.4545379544402195 -0.2848324026112565
97903000.0 0.6229001812536988 -0.7787281380123035 -0.37907547870551317 -1.1574765424513735 0.0023159023417825752 -0.002023042681044072 0.44203527572090645 -0.28652066792526887
98902000.0 0.6191579211318043 -0.7860522531338119 -0.3970801422209396 -1.2032147010882135 0.000554968733801753 -0.00024109693559329847 0.4467009272443308 -0.2989021942442964
99901000.0 0.6066090309695 -0.791271819917937 -0.4260240557722845 -1.2303412651973165 0.0013906992708586487 0.000819950959661139 0.45647283563794494 -0.3263299038314659
100900000.0 0.5991861159563366 -0.7974994216870378 -0.46730845165625995 -1.265714729119729 0.002740354132663068 0.0008823350210217452 0.44872017194603975 -0.31361533798224306
101899000.0 0.5888225666395585 -0.8044369339985594 -0.4899625693431885 -1.3088493714811575 2.6919244932520945e-05 -0.0001392268564306217 0.4471130814246765 -0.32001260960145095
102898000.0 0.5816591334318026 -0.8090594347267476 -0.5277452749326089 -1.3457311331433575 -0.00013779262383943958 -0.0014144268601240728 0.44202183733276673 -0.3483180177524056
103897000.0 0.5714245994525272 -0.8156015668085238 -0.5701488580867866 -1.3847128978320138 -0.001476703903050899 -0.0001685078977985631 0.4509793662103328 -0.3448523686471163
104896000.0 0.5629317254511762 -0.8276732356193244 -0.6207502420858594 -1.4185734342963523 0.0024473602542328917 -0.004218409973153523 0.4360949443764746 -0.34820683209592473
105895000.0 0.5528513517775131 -0.8293666352384672 -0.6728502064435494 -1.4684106799641827 -0.005069212020489501 0.002774139730767857 0.44241361483374697 -0.3677091163021893
106894000.0 0.5450070492782866 -0.836127579969095 -0.725442607142415 -1.5012189905668045 0.0011577506409532546 -0.00034807575163077324 0.42083088524034845 -0.36829629249807105
107893000.0 0.5357641797874371 -0.8421890102896705 -0.7788836478788813 -1.543516813326919 0.00074398695961619 -0.002951022316947986 0.42628195665116364 -0.39110804480431677
108892000.0 0.5259972033068445 -0.846200463419501 -0.8392977489704676 -1.5788288859382784 -0.0001352850448243391 0.0008059601905112228 0.4139999361205542 -0.3762554899189872
109891000.0 0.5139656934063808 -0.8530108548513895 -0.8959818849467246 -1.6240066346992903 0.002526286343525031 0.0005299504072485732 0.43703561468729324 -0.3853270235357231
110890000.0 0.5057613976361898 -0.8555641378564719 -0.9577109825971926 -1.6296148012069354 2.8533626660105124e-05 -0.0018013701819666666 0.4150884356782198 -0.3904175513308904
111889000.0 0.49383280018446285 -0.8592442005547506 -1.029222020977559 -1.6905697925654737 0.0034951979802786987 -0.0013492161162525836 0.42202416576774504 -0.4156840467386725
