! Created with skrf 1.9.0 (http://scikit-rf.org).
# Hz S RI R 50.0 
!freq ReS11 ImS11 ReS21 ImS21 ReS12 ImS12 ReS22 ImS22
1000000.0 0.9785140010708617 0.00854512499265099 -0.0061451728560199 -0.03423555712164235 -0.005365022395196091 0.00521413180447564 0.39146281981544756 0.3070356174243281
1999000.0 0.994024481389169 -0.014154849311578904 0.007033337659392898 -0.02380716756261789 -0.010339983975008852 -0.001635715833835493 0.2422168679779409 -0.05983654838981557
2998000.0 1.0005117131342254 -0.019764053284126278 0.012471371479724068 -0.012179070527126653 -0.0006502457177403547 -0.002400995754553583 0.18758308651997752 -0.13054581771791324
3997000.0 0.9971551124787308 -0.03013096270101483 0.011620262380655302 -0.00881658316811718 -0.0005850356722696833 -0.009288594093589835 0.09552903322354034 -0.2201704746721861
4996000.0 0.9938899443598309 -0.039289419267434816 0.011824987452524624 -0.005873967265625097 -0.00281057571541681 -0.005077727129110945 -0.04146349695061554 -0.19655735812458483
5995000.0 0.9945377066653912 -0.04812733866145258 0.004252022278074139 0.006744819299377946 -0.0010796785393378798 -0.003399069582767205 -0.124649132530623 -0.11048282121833772
6994000.0 0.9902793877137419 -0.0584457479386351 0.004573235081690618 0.002991580579909926 -0.0007397668377214903 -0.004680172799972619 -0.15249384916626435 -0.025072158030305637
7993000.0 0.9933608950671993 -0.06757531372552156 0.005125193519659215 0.0011487629165947125 -0.004697574894304173 -0.0005007451373374885 -0.16413215880476675 0.04581515663726177
8992000.0 0.9919351316454047 -0.07205754606183616 0.00572011219143198 0.0035654683924459685 0.0005540496085812981 0.006103876438479969 -0.16648632415663395 0.05446503015524923
9991000.0 0.9911136372348605 -0.08510897691833419 0.004638834734944374 0.002282833451737896 0.0014091574878457192 0.0018557978478671488 -0.1477493869388609 0.0959654730870992
10990000.0 0.9882411535187143 -0.09652595305409174 0.0010155151309230812 0.003589309714898713 -0.0004677823071026053 0.001145845753869937 -0.13257427419595327 0.10516898242075082
11989000.0 0.9876475893509676 -0.09804004580385693 -0.0017730822915400651 0.0017382199467061215 6.119051842185181e-05 0.005587315981862872 -0.125336843931649 0.12514942264850232
12988000.0 0.9862006865258526 -0.11285279615914187 9.890626317068847e-05 -0.00547127423721726 -0.0035421036519363343 -0.0016309323985497636 -0.12169440732738036 0.16980129788443205
13987000.0 0.9860529633764189 -0.11906452659622342 0.002493858702824219 -0.005452459881929247 -0.0012636142460151815 0.003476513973992839 -0.100145183468353 0.18091207069770085
14986000.0 0.985989984222711 -0.12906533625454275 -0.0013049215237094867 -0.0015570642546342494 -0.0021781439876821583 0.001017434974985658 -0.10080050701459159 0.19553164745278775
15985000.0 0.986575722836395 -0.13551980488048498 -0.002557556389528582 -0.00828578490319303 0.003976105175251133 0.0007421923108852319 -0.07064023544596915 0.21218427318684116
16984000.0 0.9819914860248019 -0.14704463274394344 -0.005453049628584917 -0.005766663836109218 0.002035518376897818 -0.003631133314725758 -0.0743112692714105 0.21437397226070126
17983000.0 0.9810882961348838 -0.15280893200710077 -0.002691032287535034 -0.005473893656497536 -0.0015093467917005208 -0.000569990070074334 -0.05266465773862503 0.22809814731872216
18982000.0 0.9788090176280138 -0.1645391577165833 -0.0065712558078810214 -0.00637959600020957 -0.002723309854092996 -0.0012611896772095712 -0.035420952478326835 0.24019176016959473
19981000.0 0.9788614327826084 -0.16683512697204628 -0.004057220301500034 -0.007317958024510386 0.0035562010612755256 0.0036709450863752816 -0.031147895945195778 0.2387407429397782
20980000.0 0.9770536237165951 -0.17816800411765965 -0.0038504374449675784 -0.00553135175993098 0.0034228577267944853 0.0005958632691920927 -0.0075374597625334815 0.26531250362808967
21979000.0 0.9754754214282559 -0.18517816281993538 -0.009833619254006278 -0.0005498554740638751 -0.0016997929704129122 0.0016128173811795462 0.007347316687410072 0.23676007318324369
22978000.0 0.9742169760504239 -0.19375128325037674 -0.003692498952735579 -0.004795945669265515 0.0013834661914638312 -7.176921511039339e-05 0.02574827857317996 0.25772358799645784
23977000.0 0.9746504817756723 -0.2020342124380173 -0.006232080069395299 -0.004983461804924954 -0.00013008691631715948 -0.0014211754426474207 0.03519368796778688 0.24726448942471715
24976000.0 0.9719123228316962 -0.2127554750832437 -0.0040286388911932895 -0.006033694297722159 0.0014683819837819404 5.485454091160532e-05 0.05514449303239458 0.25261945868537167
25975000.0 0.9683018031817598 -0.2268518460580659 0.0021992510097903406 -0.0013621972855413303 0.025975568017925697 0.004164558050815931 0.07326360148259228 0.25664760914148393
26974000.0 0.9671720103321103 -0.23053522241762608 -0.006090774647136271 -0.0022096174683193556 -0.0009755402871558681 0.0010110335228650168 0.08373795876155028 0.26531912710886285
27973000.0 0.9657418324675787 -0.2395545066371393 -0.003918798347846783 0.0024190333962377055 -0.0008434868666801585 0.0012014203097830039 0.09225016451671456 0.26196026111225174
28972000.0 0.9610531265110961 -0.2473954089231387 -0.001144966758590738 0.0034993477197646735 -0.0016331908440071355 0.0007217418912965081 0.10516414105119484 0.25719463775507523
29971000.0 0.9611911268457352 -0.255862046929641 0.0010454431857173552 -0.000469875112276813 -0.002039264488140909 0.0029401382316325527 0.14415434516304196 0.26662067779265464
30970000.0 0.9577905373417978 -0.2615635714305613 -0.00041270952690592913 -0.00021658079413023712 -0.002698856900493506 -0.0014946615716805538 0.1646121811170991 0.2507461984574669
31969000.0 0.9557415785885948 -0.2712213917208244 0.008432547079991042 -0.005515710068008882 0.00045422140823285213 0.0030520828288968446 0.13683993564903826 0.25261524875107416
32968000.0 0.9545199920389537 -0.28159336085915787 0.00813564383341861 -0.007255819212642894 0.0008153021254735056 -0.0012225582384276768 0.16177263487706403 0.24348211147624818
33967000.0 0.9515699030967025 -0.29252947408856483 0.013815897243071218 -0.010026100000443695 0.00017062661555331102 0.001584720785680816 0.1787778208167049 0.2441578173006757
34966000.0 0.9486939132240728 -0.2998880324464375 0.016766442167072137 -0.012605059374244346 0.001842346720309035 -0.0018972350877702374 0.18843350068870857 0.2613102240713105
35965000.0 0.9468942540778962 -0.30496026635492146 0.015368462314933813 -0.013161997922977318 0.0017362284804996206 -0.0012812937730286439 0.2088568254478543 0.24850728988270046
36964000.0 0.9444357886691184 -0.3149715916252454 0.017198899442429756 -0.013545578216495206 0.0030243029087506364 -0.0021870337954916115 0.20167808566118095 0.24963153368322952
37963000.0 0.9403522433956636 -0.3239057024100418 0.024086498053496507 -0.019863428489787685 -0.002789681729095768 0.0008440155727083762 0.2193559818185229 0.2406433982481794
38962000.0 0.9391271614628474 -0.33302478352779524 0.02386005159295432 -0.02490912406552182 -0.0025130991792332988 0.0006786714029933192 0.2316787415498595 0.23142848779671313
39961000.0 0.9352331993080586 -0.34338251446748586 0.027244648822969595 -0.028577814042418662 -0.0007678570343853351 0.002055957148979754 0.2439214843794613 0.2283511281779011
40960000.0 0.9303218949641435 -0.3497291949313427 0.021518469548881182 -0.025196783842464363 0.00021152794333975075 -0.0018076420587910802 0.259266315887758 0.22251476604259157
41959000.0 0.9293522563101849 -0.3604927079861233 0.028803118039694226 -0.03326100474972819 -0.00032656205272474836 0.0018914519011545602 0.25876927660892185 0.2181618914826677
42958000.0 0.9235204891557266 -0.36937518953980575 0.027716811315392706 -0.041150388726802066 2.5184460641361472e-05 -0.0027887733872020157 0.2709146937334363 0.20150838188352962
43957000.0 0.9220430944525309 -0.374752981988671 0.033010020096791194 -0.047807256233540964 0.0010551194037621903 6.095877240473443e-05 0.28208282652266814 0.20510374638943654
44956000.0 0.9188366686290377 -0.38327858214579613 0.02859426500815771 -0.05583531410830647 0.0016731665366013094 0.004654070611410787 0.2963337133973192 0.19163704529436756
45955000.0 0.9145301611335419 -0.39390852654145203 0.03153553059708253 -0.06184162839431439 -0.0013585767929772744 0.002514841392450742 0.2944006133047779 0.1995308107530529
46954000.0 0.9106384252433656 -0.40420733275174925 0.03243504330533827 -0.06222830667614884 0.002381553477713183 -0.003222425523001617 0.31986907120684793 0.18192565005866668
47953000.0 0.9065760105130624 -0.412924676015154 0.0326277576346183 -0.07082460752193837 -0.0005304313343104393 0.0015795262571551784 0.33282014027781054 0.16735313715451677
48952000.0 0.9003432246372758 -0.4229635549013083 0.03310329740574068 -0.08119899228732509 0.0017293680232050763 -0.0008336843090407584 0.3256153077826238 0.16196027297651466
49951000.0 0.8979069754883829 -0.42752917919985806 0.031203115097141326 -0.09002957854135803 0.003132823730485155 1.7963136504532386e-05 0.34703881463981984 0.1474399176694994
50950000.0 0.895196479919936 -0.43759094181547625 0.032042252014902385 -0.09589425431809502 -0.003343459237521138 0.0020919503196860506 0.35145135230531416 0.13793142721934665
51949000.0 0.8910460958983653 -0.44578989866222984 0.03273943839199064 -0.10385476515589957 -0.001002680952658177 0.0006114128700816582 0.3604695693655747 0.14347312178731286
52948000.0 0.8882383096910493 -0.45233015836464807 0.033581687700357965 -0.1126636752167957 -0.0009493591747251598 0.0001582630487705941 0.3606251903077938 0.13349956637183327
53947000.0 0.8806330112959235 -0.4599555006996588 0.037569310386002676 -0.12059624022385687 0.004026929864594427 0.0024334874319867595 0.3598322305283778 0.13499322666701605
54946000.0 0.8773731456869744 -0.46809242528836464 0.03682687912239945 -0.13184085368862028 -0.000878325444361695 0.0006746242963871305 0.36857691420255767 0.1143444629386593
55945000.0 0.8736213962806498 -0.4775848448659647 0.0387068555673169 -0.14286567076009155 0.0015117703592571507 0.00047326848678895327 0.37919990660503466 0.10638576000749812
56944000.0 0.8696564676338485 -0.48743195375212844 0.04103615217868526 -0.1506127697586356 2.1596201775597452e-05 -0.00023325161503472526 0.39527898890599134 0.10064331181860599
57943000.0 0.864696100422308 -0.4963981135413931 0.042696920412331224 -0.16109022212348287 0.0001530870472469436 0.002250525877084334 0.3938250920827609 0.08653443892442406
58942000.0 0.858973429216503 -0.5011135805553878 0.04174991673628346 -0.17164268034146807 -0.0040076030092881755 -0.0002989540287175491 0.41521620444138185 0.08107553244069743
59941000.0 0.854193182524828 -0.5125458524347902 0.04573691186071752 -0.183914908568623 -0.002950607651271827 0.0010625760249300539 0.4033947305291427 0.09009702634898839
60940000.0 0.8467875033664362 -0.5176940265894884 0.04367919159393981 -0.18151686907243608 0.001341280609283229 -0.0008849952434656414 0.4088761068778343 0.07215260039330419
61939000.0 0.8436816950411893 -0.5247090127198367 0.04646022221718237 -0.19115281784208682 -0.00035247719863872897 -0.0034178894435936327 0.41525979366043514 0.07124213640067828
62938000.0 0.8366499051999732 -0.5361228598053585 0.048470657636887834 -0.2058498391566231 0.0020038075374168053 8.253071223397503e-05 0.4395732126083919 0.04715296100880119
63937000.0 0.8310581705170778 -0.5428548974917767 0.04967660034094222 -0.22730990375257806 -0.0021414288104247576 -0.0009629124374021806 0.4320536212096993 0.04542345962810068
64936000.0 0.8269122017378386 -0.5482306085527148 0.047043712656535765 -0.23981948905395345 -4.1447923661514005e-05 -0.0037702100807408792 0.42251770102356145 0.03565632348973163
65935000.0 0.8213233087650925 -0.5591830936081316 0.04577662229112215 -0.25450372228251583 -0.0005946393240027715 -0.0003035074052597841 0.4329948361709804 0.020214707653358595
66934000.0 0.81753467732508 -0.5668082485117674 0.04715938743353802 -0.26366165919182005 7.228728694205396e-05 0.0010371665687200669 0.42943769585466357 0.011510427413760065
67933000.0 0.8138649508860043 -0.5724278552091274 0.05014734168428813 -0.279027452577142 -0.003398364880999354 -0.00296655790868647 0.432209193764662 0.004185190952731494
68932000.0 0.8001840971708765 -0.5669499644905441 0.04165238571913293 -0.2879807534248506 0.0006145464773622179 0.0014245664562110428 0.44336233464181074 -0.011785778343963507
69931000.0 0.8005433617468971 -0.588683433345951 0.04460751299155412 -0.30722573622447114 0.0005581754575353069 -0.001391740932664643 0.444818595870582 -0.019093029067538732
70930000.0 0.7942005091160048 -0.5949340330531434 0.0433696897411635 -0.3192522058783075 -0.0016935308177179486 -2.1315084695515712e-05 0.4362498635197634 -0.030496809146987863
71929000.0 0.7900342019969054 -0.6061356819764967 0.0391937083419064 -0.3361844272087266 0.00017626023569473437 -0.00021624966274618026 0.445017026758119 -0.045787763199938034
72928000.0 0.7818277353694468 -0.6120997176417272 0.029853674503010106 -0.3526758771772657 -0.0003014280736723724 0.004271772402843038 0.4623429425923571 -0.0458228401504145
73927000.0 0.7753931853133995 -0.6181973691682456 0.024757003553612083 -0.3692558616770525 0.0019388188839194413 -0.0011319484722183127 0.44824644136309566 -0.06032124322666832
74926000.0 0.7703544915895051 -0.6292039105765912 0.017040574117064132 -0.38601021744352937 0.0014743696805355195 -0.0007410100094584352 0.4582650303461227 -0.07099429074839214
75925000.0 0.7643401057693896 -0.6351680944170909 0.009184972583454456 -0.406146793106878 0.001793944090080559 -0.0008510075687472087 0.46341098076104814 -0.08040882768753368
76924000.0 0.757622309567195 -0.6416024463537131 -0.008456678353841982 -0.4278284176521116 -0.0028709856582173313 -0.0016013235598436675 0.4584183334455886 -0.08559229129991303
77923000.0 0.7502399362350983 -0.6517692921570912 -0.020923293868105597 -0.45079725781742386 -0.004262942645786613 -0.0009361527117590548 0.4502196883101291 -0.09342693647942371
78922000.0 0.7449582036115072 -0.6599083127540644 -0.03913264198312711 -0.4781738674348279 -0.004010907036557357 0.0013228183072873912 0.45636373805955655 -0.10600601739669548
79921000.0 0.7350686620868229 -0.6629905921654456 -0.05511841807019808 -0.500329236794572 0.005469411123026096 -0.0029776768350206206 0.4495805820835955 -0.11495667675422515
80920000.0 0.7311278556951483 -0.6733824367175124 -0.07349569894279444 -0.527524113251622 -0.0025018008788434114 0.000924474986745631 0.45521366007452835 -0.13089106188564506
81919000.0 0.7253074591254695 -0.6785708109386637 -0.08579113417274656 -0.5547428781709178 -0.0012007790316714347 0.004360448766955898 0.44962643301787514 -0.14831011322773052
82918000.0 0.7164999765986211 -0.6861795582492789 -0.10096627857556957 -0.5852227964080008 0.003222224409842454 -0.0006999449643475189 0.47110581610246705 -0.14639867569902554
83917000.0 0.7074268730894087 -0.6944856396326291 -0.12357845596871787 -0.6142050519666765 0.001646057565052051 0.0015874429259141612 0.46633974992017385 -0.14601416401976122
84916000.0 0.7021146374313273 -0.7004216168456509 -0.13579960843187522 -0.6474033366478347 -0.0008063890512549397 0.004525782172837327 0.45457378692593514 -0.17207237542329243
85915000.0 0.6956789547086061 -0.7071976255796829 -0.15568998356546038 -0.6755934967673879 0.002237815680381763 0.004969904838448872 0.4544663120975226 -0.18510119664788022
86914000.0 0.6866723785883753 -0.7187484608990707 -0.17543061522082268 -0.7098803984864237 -0.0006411647065746715 -0.0016692728411973328 0.45795134195456266 -0.1760634414380657
87913000.0 0.6799805459292727 -0.7238943383407058 -0.19581912170021518 -0.7384259598101602 -5.353236371843419e-05 -0.0003895383032259181 0.4555984774313515 -0.1927365608187359
88912000.0 0.6748238311385892 -0.7303628442804554 -0.2039332642487577 -0.7733482600891053 0.001743484471588463 -0.002596699530140116 0.4596689097998181 -0.20738110731560555
89911000.0 0.6649425624496709 -0.7414417423782301 -0.22553817351860894 -0.8053547831768864 -0.000339844674954221 -2.3435342834059073e-05 0.4663398132392854 -0.2111730160033436
90910000.0 0.6589687636243727 -0.7457380138362034 -0.24049967602541147 -0.8366982841094346 -0.005843384027976125 -0.0002524083323159486 0.45697062225851076 -0.2122235950611275
91909000.0 0.6487807136675205 -0.7513805819031143 -0.25684547044750844 -0.8677279643157746 0.002206352898563427 0.0006698578916649144 0.4635002884259916 -0.22905551796676396
92908000.0 0.640526202476822 -0.7583203281032503 -0.2724456067998993 -0.8958397267906992 0.0007258255326689434 0.0029942297741031576 0.4545092107597587 -0.23957119423574533
93907000.0 0.634932641669927 -0.7626782014316705 -0.28445098562352633 -0.929817087852124 0.00023704253764437002 -0.0028280520936219277 0.45890086328300844 -0.2574678593982355
94906000.0 0.6213288852873409 -0.7708671627651489 -0.3041052149044393 -0.9570659514568077 -0.0005160857732087665 -0.0011966143864902802 0.45506364209283884 -0.25087971575079704
95905000.0 0.6158410599559846 -0.7772272022731123 -0.3248184540687364 -0.9941336096050652 -0.0010640456445608823 -0.0029666853422618007 0.45357248253426524 -0.27391846913398094
96904000.0 0.6077852727127866 -0.7856071661399504 -0.34481345515685896 -1.0290451288528548 -0.0034069532021244863 0.003184290511704877 0.4501507350866444 -0.27887068770839596
97903000.0 0.5977036803112215 -0.7917832981740782 -0.36391491620182875 -1.058772771037684 -0.0018336677209113174 0.0009303794955758076 0.4426777161151338 -0.2868732079771288
98902000.0 0.5922538230930394 -0.7990993593294133 -0.3860533317629196 -1.093868226114896 0.0010400591201326734 0.0009920626616851623 0.43903424016126275 -0.2972338576256457
99901000.0 0.5847404523754781 -0.8043665686959656 -0.4118119789735168 -1.1260283654641723 0.0023370122715086197 0.0016308757760535046 0.44822081809786374 -0.32367485237608706
100900000.0 0.5753077228895221 -0.8069416450380243 -0.43850783839742263 -1.156664689598511 0.001025689540313815 0.0009575377599316046 0.4542694243339494 -0.31433226118440694
101899000.0 0.5634518761119717 -0.8173433120072002 -0.46494627663585386 -1.1879355303544281 -0.000930907054249419 -0.000686166273980782 0.446723788370099 -0.3204980151487165
102898000.0 0.5550768541069877 -0.8212207050846257 -0.5021596552430557 -1.2241970850113049 0.002400156665740399 0.0018355567957439867 0.44579854752681514 -0.3409145564272402
103897000.0 0.5470435348851723 -0.8291285849506911 -0.5382317136803377 -1.2554334994832372 -0.0002004217382991552 0.002724606949202425 0.46140046263994333 -0.3412380005533473
104896000.0 0.5379580963001322 -0.8371578254039903 -0.5822499139392828 -1.2814259779396926 0.0019821879599489613 0.0006277212510640164 0.43764477482071534 -0.3426167416533018
105895000.0 0.5262755179796387 -0.8419562695979304 -0.6238225546195122 -1.321283117797615 0.001635831365448126 -0.00024491463493454086 0.42794181717729485 -0.36023336800467937
106894000.0 0.515959676316457 -0.8471121018917254 -0.6785425667833428 -1.3525377528583344 -0.0010879102725494154 -0.0013798300030371338 0.42338113771291946 -0.3665587474961059
107893000.0 0.507624588543941 -0.8546849790715844 -0.7276623297460009 -1.387696791273087 -0.004875671163335816 0.0007074822976693978 0.43441375298199036 -0.3742363806340884
108892000.0 0.4986796552557764 -0.8566646393770319 -0.7860932930557433 -1.4233806609047972 0.0018728867565211927 0.0008415035061558132 0.42213160906037395 -0.3713953270062773
109891000.0 0.4876828153632256 -0.8644089478021372 -0.8405715196166497 -1.4625506166315598 -0.0007373146366069299 0.0010148009548528179 0.44040733902799717 -0.38098962125926567
110890000.0 0.46713297108678237 -0.8711075486319904 -0.9203102533215731 -1.4572171046660076 -0.0009072724490813248 -0.002883139835307676 0.42515907510779805 -0.3826469942368315
111889000.0 0.46424847970341426 -0.8720406736718584 -0.9676440816400124 -1.524268408144398 -0.00041248660190073736 -0.002130592131505555 0.4103804321254796 -0.3968414248456235
