! Created with skrf 1.9.0 (http://scikit-rf.org).
# Hz S RI R 50.0 
!freq ReS11 ImS11 ReS21 ImS21 ReS12 ImS12 ReS22 ImS22
1000000.0 0.9923929894031033 0.0063008667326181714 -0.015653677703657366 -0.05612596385657907 -0.01762310159740434 0.009760135685658504 0.34227891061937354 0.36304615788521294
1999000.0 0.9898009447476434 -0.014382055533292705 0.0028155223071957697 -0.025593010146938225 -0.007473565681566497 -0.0023442378205957445 0.2810044524914519 -0.07626690608428636
2998000.0 1.0008964328863554 -0.016889824470950943 0.006673308479682651 -0.017727857075534977 0.003965877365127058 0.0021749804184113615 0.18913322360978896 -0.14103755830263642
3997000.0 0.999897282549448 -0.02890278515090598 0.00971472833718718 -0.010358053837606386 -0.0028265297776992695 -0.003666697029245711 0.07444176432646563 -0.26224439099840235
4996000.0 0.9983874935133126 -0.04119431795788293 0.014070047603454563 -0.0015312892530552472 -0.003094533957483652 -0.0023702525078523953 -0.06349222067311071 -0.18893191321435618
5995000.0 0.9980606841932287 -0.04865583573667435 0.014208048290606137 0.003383434154628109 0.0025533474391574106 0.0008194335686608729 -0.12837293177822592 -0.09917600228998422
6994000.0 0.999195297659442 -0.05963426356901738 0.004265538083498743 0.0038611767430955387 -0.00401206444538836 -0.007566342065585627 -0.14999237122412137 -0.014202299663271918
7993000.0 0.9999389020484424 -0.06555896487525965 0.004980827153955297 0.006996196431163263 0.0019240644001325186 -0.005168893042919604 -0.15006815555606332 0.04794318041182893
8992000.0 0.9997460783027697 -0.07249802860797049 -0.002287763373795638 0.004241957553597065 0.0002425188611906822 -0.004346692802144612 -0.1574341613528879 0.0635880553698795
9991000.0 0.9983537747519268 -0.0848409810877925 0.0034375083426480203 0.004891159853564925 1.0884099240558814e-05 -0.0031330289413351755 -0.13934959404945108 0.09027813561955733
10990000.0 0.9960061806821966 -0.09120913881220176 0.0019869888461529392 0.004250756817293105 -0.00034777849527017744 -0.0014642816281383887 -0.13246375297501786 0.12789750185118332
11989000.0 0.9928992107036686 -0.10170004529021627 0.003212974282096435 -0.0012388785750778385 0.0013533205025309343 -0.0031680469925696206 -0.12475201684623181 0.1371729918671948
12988000.0 0.9928715818160616 -0.11152437356054386 -0.0013363797100395033 0.0007675216987126377 0.0008995170515487904 -0.002910223342743469 -0.1030408228867686 0.17429542464395784
13987000.0 0.9912883797659204 -0.11724627836335104 0.0028384510648460943 -0.004348934235623031 -0.00041776102850719097 0.002002261767863936 -0.09108396261884896 0.19102732440647888
14986000.0 0.9918427537030635 -0.1280541978957508 -0.004412403238425505 -0.006795309719036515 -0.0005726388627525728 -0.0014198779870346044 -0.06929645528614697 0.20977940241914847
15985000.0 0.99252386265923 -0.1363365491421935 0.0010951744659808526 -0.007125742575218989 0.0040009132836673865 0.004315128447575326 -0.05517271340047919 0.21238029306298312
16984000.0 0.9892315586763025 -0.14497560375405624 -0.0030910003266179085 -0.0064088313222652364 0.00039234154680080737 0.0033860593603737884 -0.042528138690041344 0.22305574185508117
17983000.0 0.9893296599228927 -0.15163538969136933 -0.0024369823456800617 -0.0034554708593249207 -0.005063771877924743 0.00023740023657847783 -0.03698801550256368 0.21648793182120366
18982000.0 0.9866954316138258 -0.16422629026257107 -0.00571864041455208 -0.006943476343154892 -0.0004489367886951791 0.0012430426822841042 -0.01220257575311623 0.23327720781066796
19981000.0 0.9863470072280384 -0.16627169309684683 -0.005101130343037138 -0.002440124317703057 -0.005262392611875699 -0.0024401497939626703 0.004732053383204408 0.23557833655564214
20980000.0 0.9859246771856304 -0.17653251686986887 -0.005748596519964548 -0.0036953381632337102 0.004868191943214693 0.0018786474509389873 0.0062008797360307575 0.2542558320766493
21979000.0 0.9819090095423904 -0.1853585821036675 -0.006158229960248294 0.0004270691031487579 -9.303126519346265e-05 0.002430057001464524 0.02056413222230982 0.24361996026841348
22978000.0 0.9806869843071673 -0.19671168254710694 -0.002835833169421951 -0.0043919990776076275 0.00045864407396223886 0.0003261963146516532 0.04278920129562392 0.25888570838986563
23977000.0 0.9809924476477194 -0.19955940425882351 -0.004847493877841136 -0.005488800347470538 -0.0008033354746807203 0.0022162466923055972 0.04999016547230755 0.2599911808659888
24976000.0 0.975386552050284 -0.2119618775380576 -0.0068827536649720775 -0.0017190914215984654 0.0004566702574139765 0.002364876549555484 0.07290751654047058 0.2544149020260036
25975000.0 0.9700648753567278 -0.2194200102455019 -0.008513754471904205 -0.001570019424698669 -0.021393223080307118 -0.017578344525188225 0.08448951797277617 0.2501973210062169
26974000.0 0.9729750199676442 -0.22850682550847834 -0.0035437813050185557 -0.003462076048486079 -0.0013072453449682604 0.0016774443057397804 0.09242885468173603 0.26343899056932046
27973000.0 0.9715744964948478 -0.23638866126314703 -0.0016587971277832688 -0.006032072711055296 -0.0004133761071369714 0.0016611495777178777 0.11522695852225627 0.25374397406778004
28972000.0 0.9687282547425278 -0.24445914899732482 -0.0008338226790273167 -0.005552525510931014 -0.0029074442623238522 0.000985988761538442 0.1221310371841945 0.252056972118037
29971000.0 0.9671461311013885 -0.2531319204043931 -5.224616199682141e-05 -0.003140889245927274 -0.00029313436005633595 -0.0006499310498594157 0.15379209344537723 0.26621984127162335
30970000.0 0.9653282899876491 -0.2593033150260928 0.0010831998012380485 0.0003563747922045723 -0.0031659288733357203 0.002190930469270811 0.18150038639594168 0.2518932039339765
31969000.0 0.9623841449867622 -0.2690343005233694 0.002213883521213635 -0.004405505457458736 0.0008723561712747247 -0.00015725818877216922 0.16284565667283488 0.2417578712364774
32968000.0 0.9615476939426555 -0.27694101803553967 0.007243254645998523 -0.0067531111961021935 -0.0022903543841048635 0.0014999399236008187 0.1703844887264179 0.24494738812536287
33967000.0 0.959320789589895 -0.28705894040879565 0.010507417142309647 -0.010423193645303603 0.0026054772262424394 -0.0032459884021561144 0.1872425847203945 0.24071645825997415
34966000.0 0.9540218179380611 -0.298099345680525 0.014093768018302977 -0.014729311186415342 -0.0036062670638585233 0.0001748477268174366 0.1993203413742604 0.2552419755828737
35965000.0 0.9520975772950699 -0.30443991321253916 0.0142992025453802 -0.014015233325784927 0.000942415110230159 0.002829145706412075 0.22042477634955648 0.2523149977156491
36964000.0 0.9494316860290358 -0.31155307844581204 0.018814873357261272 -0.01888031283030607 -0.00241938531308521 -0.0006708987430697569 0.21838368727210405 0.25137547112922504
37963000.0 0.9464125601532583 -0.3217044311354065 0.02058737685435043 -0.021941899362337713 0.0024249541584720176 -0.002507337206661535 0.24603307196262686 0.22879492072516136
38962000.0 0.9450258983297579 -0.33019261159213453 0.024086939179206592 -0.024813700079335255 -0.0004346454529261495 0.0011086561030597462 0.2526358947585303 0.23094187942328
39961000.0 0.9405383462410867 -0.338999690199094 0.028845390506830864 -0.028331038386166366 -0.0002584384655634415 0.0005154680267690848 0.2542864022678807 0.22908120460364612
40960000.0 0.9369134016463201 -0.3449043053087641 0.022253317879756235 -0.026186372842425535 -0.0011543796662348792 -0.0004901059103137289 0.27625810906134485 0.22254877674309984
41959000.0 0.9352828015248427 -0.3556344835218343 0.02656638257728864 -0.03203978734225829 0.00034868764057956306 -0.0018783131956814493 0.2770744776169587 0.20940956764505636
42958000.0 0.9280243933371658 -0.3660131786031553 0.03149790586096436 -0.04206004641811308 -0.0008986689101385076 -0.0012074842653014024 0.28749539980490124 0.20686988145455107
43957000.0 0.9294665685256126 -0.36866679805241825 0.031081045349051317 -0.046162906619170066 -0.001363108148880166 -0.0017793425046787614 0.29790064185924364 0.20258766576435658
44956000.0 0.9260254332391541 -0.3754965867690903 0.03204599135264931 -0.052235807502765054 -0.0015163686989408147 -0.0002469962077068009 0.30889379609129813 0.19826232411203987
45955000.0 0.9214765070293502 -0.38878631762317434 0.03261767656792571 -0.05931883587285062 0.00026043129393709595 0.001105129554115376 0.3165405054076813 0.1917012436846712
46954000.0 0.9157883178476531 -0.3973698031038164 0.03471773987634826 -0.06474157393188876 0.00020900593981326192 -0.0002567102953696543 0.3323688260158611 0.17857313449071294
47953000.0 0.9143906086468692 -0.40490165470075345 0.03223437012051333 -0.07297717924566391 0.001506327000508491 -0.0003737758620083602 0.3522928243544979 0.1642458475527796
48952000.0 0.9075398693221821 -0.4146471406035216 0.034938491214254325 -0.07906277334227198 -0.0038328451413962355 -0.00010542751846187957 0.34785345116825933 0.1683187563117414
49951000.0 0.907351506320393 -0.41872156161238444 0.03347525861160597 -0.08852542014323402 -0.000673206525234829 -0.0004965245878476186 0.362603559776016 0.149194323949543
50950000.0 0.9033712936200943 -0.42712965366403377 0.03626922347891791 -0.09217125167776724 -0.00016617020968098578 0.0037835350490213653 0.36160841105091995 0.1443655448167217
51949000.0 0.8997624995310318 -0.43782828118186906 0.03797775435737399 -0.10303993032087591 -0.0014392755317776988 0.00021731669266308767 0.3698755009552767 0.14106103808664916
52948000.0 0.8977864933307098 -0.44417309620793943 0.03606388479730291 -0.11336217060526349 -0.0011897701126759588 0.0018297891330650744 0.37872928644633924 0.13561265290468555
53947000.0 0.8912823310937837 -0.4527226061873106 0.037378302051581526 -0.12134788674196488 -0.0033685487874773145 -0.0030677638554629846 0.3799851700363684 0.1293399239733511
54946000.0 0.88568106801017 -0.4612559164914469 0.038191697603138494 -0.12987577752760684 -3.892022534097744e-05 0.0015700557072797282 0.4033293397442236 0.11543214749236319
55945000.0 0.8833227285419045 -0.4703878844595011 0.04360321298719844 -0.1420381457117524 0.002368073091918592 -0.0031053042761267566 0.3970363541634801 0.09772789104105137
56944000.0 0.879028506961908 -0.4773853975199899 0.042376572431683524 -0.15024826808713063 -0.0026881210347676574 0.00015605260007016755 0.4120903473921414 0.09376258410194455
57943000.0 0.8728872752378017 -0.48950861537354584 0.04195293887823031 -0.1617620670728755 -0.0022700422190029155 0.003065445456250089 0.4139863053739191 0.08754096603934763
58942000.0 0.8674265596458073 -0.49432328376381235 0.04535411746417732 -0.17409340977384988 -0.0033503335775074456 0.0011562274749919073 0.4303494027993317 0.08792321819780351
59941000.0 0.865609494461987 -0.5002453905897218 0.0496387518839249 -0.1801728370353482 -0.004847828515214587 0.003225790818864783 0.430691516193152 0.07900676132492652
60940000.0 0.8573244009203687 -0.5083663155998154 0.04689188883996756 -0.18787950176065013 9.671159966650505e-05 -0.000655417297420167 0.4283370237279959 0.07940567379811254
61939000.0 0.8551401660798662 -0.5163863359752066 0.048375422760567416 -0.19531828246077318 -0.0011819534944859829 0.0002215101160158918 0.42644730516003027 0.05846047849024185
62938000.0 0.8467467252053877 -0.5269738663766466 0.046557031879954094 -0.20919677408862913 0.003960076290151519 0.0004570427935333617 0.45116663247708955 0.04762041814477084
63937000.0 0.8433842156978087 -0.5340667988929776 0.04937611546537898 -0.22949108395674014 0.002167384855218243 -0.003926183153480056 0.44837184875007197 0.036420527776003145
64936000.0 0.8404709911015312 -0.5382001376270817 0.051826696301317386 -0.24130013374868034 0.0021692787601374935 -0.0040490151643722385 0.440179393594945 0.03620309089119991
65935000.0 0.8345306636421581 -0.551364557427279 0.04813977202074312 -0.25666139724031517 0.0007434341637190802 -0.0011496328150136946 0.44872831623352943 0.019313259020217657
66934000.0 0.8318644639685787 -0.5547862033245502 0.05113703040630478 -0.27082307680746975 0.0002739037580479345 -0.0031070398114256 0.4455206685315799 0.01418237806343276
67933000.0 0.82770895030472 -0.5628391117383886 0.05372942435099723 -0.28270563763391854 0.0009598085152694185 -0.0021267193440643066 0.45462692962495843 0.0016775415920652708
68932000.0 0.8104333084768628 -0.5637685359145596 0.04521391411428959 -0.2959991316870299 0.0026310746180658573 0.0003180973426336667 0.460596507968313 -0.0237926024721093
69931000.0 0.8141210336238891 -0.5811591676229246 0.04712453512431613 -0.31096941121074445 0.0004510086194183014 -0.001985644420865528 0.46146503372836417 -0.017210969245506382
70930000.0 0.8080686321771539 -0.5889708158061344 0.04635590203725433 -0.3261079614462095 -0.0015887336337241018 -7.464846431147602e-05 0.45709723025344434 -0.035538186497339315
71929000.0 0.8033506566408948 -0.5955699705950956 0.038381719792024316 -0.3414949258305554 0.004311953813304497 -0.0041929932621373005 0.4649156946366288 -0.03831462878302367
72928000.0 0.7972240635866348 -0.6062707385347021 0.03487844005145472 -0.3602226956686892 0.0016343491086017738 -0.0035142682552151004 0.46887504178617506 -0.05553042440727924
73927000.0 0.7920997749836755 -0.6109093721230758 0.026314060706186904 -0.38069784061743606 0.0029454825669195613 -0.0007068490292091738 0.4674221039852588 -0.05796089619246664
74926000.0 0.7867815336246852 -0.6197556509199317 0.025012210791893835 -0.3967403438602612 -0.00024850356259826806 0.0015875969388330178 0.47205805572470794 -0.05165439614029498
75925000.0 0.7825656003003462 -0.6250767410099011 0.012140170731436388 -0.4175297730720788 0.0012508772700389967 0.005415424253989689 0.47891381979203984 -0.07689053190866614
76924000.0 0.7746289668491798 -0.632628671972882 -0.0010554567968925812 -0.4381848757311346 -0.0015510283681623497 0.0002211425413181256 0.46586094878083595 -0.08142360121008746
77923000.0 0.7685592414624243 -0.6402907529456465 -0.014143505741581838 -0.4591813111089974 0.006238120987570265 0.001645171574163432 0.4704345839044654 -0.09595050034070976
78922000.0 0.76460680559421 -0.6489143533256281 -0.029742838907944602 -0.4873332873511782 0.0016375760629964021 0.004453116001722973 0.47624581371200175 -0.11324066272674906
79921000.0 0.7533729152974263 -0.6548015078313862 -0.044151763532895835 -0.5109798780227899 0.0012959470574583397 -0.006822844346194706 0.46688938403558855 -0.11420723418360468
80920000.0 0.7499429706088353 -0.6640861340311176 -0.06253323646914483 -0.535607583242745 0.0006528289333133247 0.0019771157497964014 0.47015535739335673 -0.12777064512369427
81919000.0 0.7438176548571075 -0.6693193915283442 -0.07856878056537095 -0.56556359502842 0.0028166903676030766 -0.0015918391081865167 0.47029653240511354 -0.13254864091240595
82918000.0 0.732955678692536 -0.6778730154670296 -0.09669157944946745 -0.5944759713735849 0.0003275731900354902 -0.000844789051309244 0.48230987770400546 -0.143487139567096
83917000.0 0.7270019010364991 -0.6844668293016954 -0.11881994195113271 -0.6215589376653909 -0.0009401789419701217 -0.0013552163739698332 0.4841547008173788 -0.15729915659479668
84916000.0 0.721641007876687 -0.6926142823359329 -0.13349581492659515 -0.6531049768965815 0.002342151749878619 0.003484322565082131 0.4775172589443722 -0.17346776979961848
85915000.0 0.7132241133465436 -0.6985139748358916 -0.1534710551535949 -0.6869888483454751 0.001814401998621915 0.0004802725902368375 0.4851317509321025 -0.1851112601182124
86914000.0 0.7069063223507255 -0.7090054600738784 -0.16698692957324612 -0.7235749237533732 -0.0007843521359675507 0.0002726636465191886 0.4695074864396919 -0.18763089612876271
87913000.0 0.7015076901815419 -0.7145829384929071 -0.19073077455029874 -0.7555573819065254 -5.6832778260364635e-05 0.0003331176864401052 0.4667617323046109 -0.18612871319868626
88912000.0 0.6939396028839034 -0.721487935345651 -0.20199403364559523 -0.7861913824130751 -0.003557326217937597 0.002679068037746296 0.4779822374141494 -0.20221563660005057
89911000.0 0.684971750854128 -0.7318686185647191 -0.22277018107446125 -0.8202267967879687 -0.0009353738831445476 0.0023039324376437536 0.47928692874940454 -0.21282860853269517
90910000.0 0.676297911387338 -0.7351995312526554 -0.2340090393523833 -0.8565491733598105 -0.004206556998183946 -0.001603346005025013 0.4708805710925099 -0.2261899993204645
91909000.0 0.6684952428895775 -0.7419103654074423 -0.25402089972756065 -0.8874498250056736 0.0010402556875554608 -0.0009261053682435468 0.47550670945752366 -0.2213971483124346
92908000.0 0.660040810303732 -0.7497901467307989 -0.2742706758197011 -0.9196199586380259 -0.0002870932536338821 0.0012620843091643724 0.4623906513516117 -0.23225414379001347
93907000.0 0.6547204256850706 -0.7554481937517357 -0.2899203487419199 -0.9498082894360121 -0.0008209440072343177 0.0032068283916616208 0.4705911822478787 -0.2512301444642815
94906000.0 0.643827208751332 -0.7632108765901261 -0.31011865778557707 -0.9805573129125457 0.0006129745002291071 1.0030155114982913e-06 0.46450220646404927 -0.25667087660860494
95905000.0 0.6379261430094831 -0.7716884230245032 -0.3307531336014282 -1.0181782486347055 -0.0017954590035624124 -0.004447895617325869 0.46225747464030814 -0.27293802165357045
96904000.0 0.627316002774558 -0.7792933399227475 -0.3478917546926256 -1.055177267160777 0.002166737789326075 -0.0008751261289130566 0.4576471794446216 -0.2677326552484443
97903000.0 0.6183729423100026 -0.7831489175302935 -0.37317248493192307 -1.085869997823742 0.00027660215094592365 -0.004040211145892369 0.4552916900399382 -0.28853624238486375
98902000.0 0.6153567375047736 -0.7924330110851522 -0.39148241796007843 -1.1251613687307838 0.0031803133015797964 -0.00036422749121340893 0.46085147961501455 -0.2922951254839051
99901000.0 0.6046154946400234 -0.796358820498147 -0.41621339538731705 -1.1586371335254886 -0.00229144103342874 0.003032872625617341 0.4659357881722758 -0.31103189731646524
100900000.0 0.5953987782924827 -0.8000913588814837 -0.44708590471510845 -1.178881989331024 0.0010510231344730537 0.0021506943657578215 0.4674601776980548 -0.3174408832263151
101899000.0 0.5885248085714937 -0.8077954283238341 -0.47189705848790914 -1.2249184874065944 -0.0019808989591135607 0.0025052307937359405 0.4500423845087453 -0.3290180248856932
102898000.0 0.5748681429563657 -0.8149509952468919 -0.5125898352677084 -1.253127875918984 0.0011534384352972296 -0.004192855825282224 0.45470723063886115 -0.3441819898668981
103897000.0 0.5684345478068462 -0.8225281891568376 -0.5459485434725209 -1.291028050532301 -0.0019595964779960057 0.0014165584103472933 0.46590590650510494 -0.33756266852786976
104896000.0 0.5613830679786677 -0.8304787382539415 -0.5900807418477724 -1.3238383504512106 0.0008332266868514014 0.0006733150058060764 0.44206644059246836 -0.3371720310581909
105895000.0 0.5509050803309801 -0.8331454726862029 -0.6399556695628144 -1.3590375325631778 -0.001985961141877165 0.0007132308722832658 0.45089275851732 -0.3640003736050853
106894000.0 0.5407069296183241 -0.8405642787316892 -0.6945446373707526 -1.3971605331258572 0.00012984670267364134 0.0014317423458865715 0.4436624918980906 -0.37824764504062247
107893000.0 0.5317618978793467 -0.8470411022640845 -0.7449330104796663 -1.4280818474578765 -0.0005645843341985292 0.0009598474225508986 0.43903274501440254 -0.38916723721058355
108892000.0 0.5229341273320123 -0.8489311409127991 -0.7968435440020152 -1.4620346443786167 0.0014379557597276706 -0.002067410542288594 0.419992381910729 -0.39496242150735345
109891000.0 0.5112586509554482 -0.8578091079886102 -0.851494194868928 -1.4986943373915564 0.003534385774657846 -0.0003301409202223505 0.44118646178782134 -0.3898972109879003
110890000.0 0.49897150812248414 -0.8589059369814448 -0.9067521218009574 -1.4936477886401003 -0.002483571700026556 -0.0005092263300765209 0.42223712775199534 -0.38315143691984926
111889000.0 0.4919379967591513 -0.8636838313929428 -0.9773412334866254 -1.5576665917412624 -0.0021143138027695644 -0.0017935795182589768 0.4303533948783744 -0.40815731514902187
