! Created with skrf 1.9.0 (http://scikit-rf.org).
# Hz S RI R 50.0 
!freq ReS11 ImS11 ReS21 ImS21 ReS12 ImS12 ReS22 ImS22
1000000.0 0.9803870403512366 0.0038898013969454834 0.008714547577566869 -0.03561419512916056 -0.011636375669259059 -0.00432121234811202 0.3230615304027769 0.27038023516487975
1999000.0 1.0016413859293312 -0.011696674989870457 0.004321973006576059 -0.022833777654606955 -0.00411875688492509 -0.0011074749697316706 0.2296584511565651 -0.03819582860113906
2998000.0 0.9990005917705159 -0.022823788936086598 0.008761082905176526 -0.0174370004815686 -0.005349958140822897 0.0005725010624722137 0.17914604480758628 -0.1458183319401175
3997000.0 0.997730699880904 -0.03225738667424147 0.010161838575923982 -0.004076447871341333 -0.0028233762275510664 -0.00878664528102731 0.07126037456661378 -0.24428080785928702
4996000.0 0.9964008864252342 -0.03988196666436563 0.01528879011930864 -0.0051383683353113715 0.0030352689015543236 6.383899487280505e-05 -0.06214526092974481 -0.18020527414483165
5995000.0 0.9967188901711587 -0.04850389087056347 0.009510713058350974 0.0031283052072028166 0.0025007288646868063 -0.004077823353680519 -0.12918712560138806 -0.08723729179938579
6994000.0 0.9965833366232612 -0.05612627371790994 0.004054144397731951 0.003634711389414383 -0.0005201729536591152 -0.0011141440243660386 -0.1369755958434217 -0.009284356521590527
7993000.0 0.9959411331702076 -0.06678063232437069 0.0014597186029533284 0.00510679192998814 0.0009119660376708258 0.001052744377451608 -0.15425001515252643 0.03731720855390132
8992000.0 0.9953350994595813 -0.07147400932839439 0.000369094500057892 0.004294519195347486 -0.00341710717927383 2.778391820476037e-05 -0.15108093600730518 0.06721259500247367
9991000.0 0.9939782528546743 -0.08291967648501215 0.004167136041177515 0.003039715650668561 0.00014937912418281677 0.0034095431422240976 -0.13968103684569555 0.09359851069969777
10990000.0 0.9943924006751484 -0.09284132877934766 0.001228941820575219 0.005404290715500163 -0.0010170662826701799 -0.0019426881498468716 -0.12664699170344754 0.12222812822532665
11989000.0 0.9921267138747696 -0.09754572312536902 0.00685058305030547 -0.003624400563647373 -0.0008113352924465669 0.001324179590133696 -0.11955025408593613 0.1388366421265946
12988000.0 0.9898947809442433 -0.10686204511120208 0.0029385193747160673 -0.004710873999049251 0.0022014734192225983 -0.0026530095084933945 -0.10817667777640916 0.16550175996121294
13987000.0 0.9899272858438491 -0.1185045960240793 -0.0012453717729133949 -0.008769690872387154 0.0007449415676643677 0.0035834159747077585 -0.08479416140120202 0.18195046344012675
14986000.0 0.9875876521421142 -0.1261163963821777 -0.003604520733474966 -0.006554394975621251 0.0009365057087185879 -0.004172306173796273 -0.08900641584657666 0.19905833827437688
15985000.0 0.9912052548753684 -0.13219113161046775 -0.0008485366228668566 -0.005697402158401117 -0.0005856039362652491 0.00395862668084421 -0.06355883565303164 0.21394558398011146
16984000.0 0.9871227448114849 -0.1443820718816577 -0.00013003228274206696 -0.005845528762759181 0.0023994212736351828 -0.0031819963047946677 -0.05498804104948604 0.21675213613826289
17983000.0 0.9846751225103477 -0.1487003942100748 -0.002755246336256075 -0.00157806242035842 0.0012856884627230067 0.00039856653909347645 -0.04780480425316326 0.2307176619003338
18982000.0 0.9857099265563968 -0.16203994999129992 -0.004149734571766611 -0.0023128527504328892 0.0001467186496544977 -7.911933012766704e-05 -0.0206622177280463 0.23469860241460497
19981000.0 0.9852567945129886 -0.16591620999465503 0.0006725192579691121 -0.0043040029968797276 0.0018426889801178596 -0.0031507489261844083 -0.01784208530303336 0.24443258119465025
20980000.0 0.9820092512826387 -0.17542536105509754 -0.00222605043612728 -0.00546874169803416 -0.003976483311361023 0.0004902650747669866 -0.004716590382477683 0.2626637043409249
21979000.0 0.9799887806972493 -0.1856846145902207 -0.00558687421227787 -0.004756471673392424 0.0007872521764481439 -0.0017742839883746516 0.02008411476371814 0.23543988562331108
22978000.0 0.9774335986700767 -0.1940178876595231 -0.0059009574294558035 -0.004113982645266064 0.0005082097178765804 -0.0012770528245083705 0.03246302755866081 0.2616810198920159
23977000.0 0.9779505544395983 -0.200280724375268 -0.004151775716281806 -0.002986627308335054 -0.0018272362563638645 -0.0004621609155406479 0.040232638311016006 0.24545987678181738
24976000.0 0.9752762331268572 -0.21053890363276842 -0.005962553772342146 0.0028555914206217317 0.004989885602469885 0.0020386776925163416 0.06994500739199565 0.2453877968180644
25975000.0 0.9678521193811552 -0.21697140166253734 -0.008419289893545406 -0.0018562373268912016 -0.01828402077963369 -0.018998073775252148 0.09186199287795647 0.25825352037145644
26974000.0 0.9703395096958797 -0.22612279077563077 -0.002056833230071658 -0.0038774268091832484 0.0013417198147063372 -0.0015394881582280497 0.09180680243222365 0.26710202797547355
27973000.0 0.9710685483962804 -0.23295774935498673 -0.002023096083750843 0.00024899885549335666 0.001262054400630172 -0.0002859670257057932 0.11116244031516054 0.2519034731185308
28972000.0 0.9671280780323018 -0.24580807616216752 0.0011554357180021885 -0.0010751924039746406 0.001253232512011436 0.0027115669531909974 0.10769261590236297 0.25323743935110804
29971000.0 0.9667027651096356 -0.25104856671446024 -0.0005932039311205618 -0.003674860651391711 0.0005036603395232254 0.00010956969024684419 0.15186018508244956 0.26498158682392287
30970000.0 0.9624640999800483 -0.2567200216628916 0.0005850937754766009 -0.0007542494427034977 0.0036362787043176335 0.004295092514198742 0.17567586824580153 0.24906613083292514
31969000.0 0.9620285087210367 -0.2654926760590168 0.0028334361106478858 -0.0047087556147963954 0.0016440521657979667 0.00047466117168356523 0.1587968070679849 0.24835715618844806
32968000.0 0.9604917040491772 -0.2752480226590334 0.00936850801495058 -0.005210755336302669 -0.0025839273717275404 0.0020881294691031983 0.16925908327072822 0.24777176107529422
33967000.0 0.958572722865623 -0.2833370376459556 0.007132737584637711 -0.008351588621190379 0.0003020295195798106 -0.00039192326331998823 0.1903246302936603 0.2445325194602581
34966000.0 0.9546184554055253 -0.29193782762631 0.011871017114994945 -0.011459353005972766 0.0003583517598856357 0.0007521689498349874 0.18754301259580203 0.24159279154703858
35965000.0 0.951489498093979 -0.3004666858486446 0.01437478719819208 -0.017169789429305565 -0.00019109437427915403 -0.0007242302138435393 0.22174225286079025 0.24518902236890902
36964000.0 0.948661711842969 -0.31083598029856097 0.014230436340614862 -0.01547654195664225 0.0021026159683769203 -0.0011562965830730395 0.22141166236864396 0.25014643540365233
37963000.0 0.9445328301751238 -0.3208778186449961 0.020113726730299753 -0.02349158250414018 -0.0015568450583299453 -0.00042250640194277443 0.24010333930799266 0.2257302953574264
38962000.0 0.9442536573276071 -0.32682539837723457 0.022752590677231954 -0.023464424286445594 0.002405004324376504 0.00092029456173299 0.24326848820691865 0.23021375409284364
39961000.0 0.9398661236076795 -0.33721354862264064 0.025730539819899995 -0.028000249619539837 0.00041900190635687254 -0.0041927233391357115 0.25508445714497363 0.22113223143642835
40960000.0 0.9374047223245897 -0.3437304381991197 0.020891698667157874 -0.024153191746240782 0.00041360942926672265 5.994142585237635e-05 0.2704912561741663 0.2183420767564546
41959000.0 0.9345251775313154 -0.3535612503259705 0.025956635361650177 -0.03109247769223823 0.0019322426991868046 0.0005574598590394574 0.2723602032733814 0.20731777357931078
42958000.0 0.9286371032758569 -0.36162380375802883 0.02893296337641693 -0.04248502271270332 0.00034465725866637733 0.0004617717955966755 0.274024260691293 0.1942735085249409
43957000.0 0.927789405231341 -0.36797314159252764 0.030154308532708004 -0.04819248684011081 0.00012313977873826867 0.0011673290865973872 0.2989753878993822 0.20044030413919736
44956000.0 0.9240058636023416 -0.37698205386130906 0.030129788880701048 -0.05382465623266333 0.0007492643152102152 0.0011475845187403704 0.31123144708636086 0.18895177263399723
45955000.0 0.920673289201099 -0.3865750785767619 0.032543475437168935 -0.056041158479909946 -0.0009058033764853953 0.0008479232097116207 0.32145204899246765 0.18322572177656762
46954000.0 0.9173002479497023 -0.39438891542285337 0.03389317249282799 -0.06617178660140141 0.0027605254920504076 -0.0014785898958940085 0.33579256824067866 0.17145867188430328
47953000.0 0.9128480305060114 -0.4033774205719701 0.03385240241930993 -0.07366830671585374 0.001601331054330004 0.0005680608453663732 0.33375910968922456 0.15537014939960694
48952000.0 0.9088593553764903 -0.41134722294508136 0.03640310539328092 -0.0815103561573355 0.0011858171024049203 0.0011068830191325542 0.3425789481791176 0.1529777418662253
49951000.0 0.9045314458466134 -0.4176055939048653 0.031118695572984995 -0.08769570237495042 -0.001121396379606245 0.0013066884471081876 0.35159370874111634 0.14097167831755092
50950000.0 0.9013706514090382 -0.4253618517115117 0.03489307780674271 -0.09701624067558276 -0.0029437096218706505 0.001893354011828256 0.35584521431198946 0.13871679448161392
51949000.0 0.8979006924997717 -0.4342822258272038 0.03600946716136582 -0.10501864298420789 -0.0005631649817303579 0.001766112213784177 0.36565905559949446 0.13315667545822035
52948000.0 0.8957075309244173 -0.4420267133638916 0.036491937586783575 -0.11129510334476668 0.0014391134319017846 0.00027896763357218953 0.3779502538585041 0.13831514512985307
53947000.0 0.8887591737093825 -0.4512109998187275 0.03933026488053861 -0.12210227043370926 -0.0040310443306659 0.0008632289215534349 0.3785369901657379 0.1254995225539288
54946000.0 0.8849589436498378 -0.4590062602047633 0.03731177904966164 -0.13027078028613798 0.0012889937524153282 -0.0019165401904562953 0.39055766472723963 0.11867951243498201
55945000.0 0.8812605882338105 -0.46638564079503814 0.038227030748642796 -0.14367040431498865 0.004834797762204018 -0.002196918257352107 0.3958532829804802 0.09233931486677718
56944000.0 0.8777132053228173 -0.47695771586477775 0.04006235816804196 -0.1501317462352834 0.0012988226439234736 0.0008618161393450683 0.4062145883373555 0.0985479153433637
57943000.0 0.8729345972850219 -0.4875088399801961 0.044374083246241744 -0.16194052745852597 -0.002461470493735186 0.0009986296982220481 0.4117513671406079 0.08019939752142968
58942000.0 0.8670341875761227 -0.49201607849359225 0.04005575253952337 -0.17459314338808515 -0.0012261259830168253 0.002264193369010479 0.4259184030054385 0.08095976859889648
59941000.0 0.8641484211969847 -0.49801009666848994 0.04381060919456653 -0.18332604383993278 0.0011895439055272545 0.00018450557904563851 0.43472771236469315 0.08422945087676055
60940000.0 0.8561144019822328 -0.5071074464367525 0.041667529458692405 -0.18591614609616078 -0.00023852953034493235 0.00040227228867202125 0.41271800870669967 0.06342785297033628
61939000.0 0.8546050810099765 -0.5133102885165379 0.04538907137741417 -0.19384453658500672 -0.0005974269006947541 0.003253641924652321 0.4218490372606588 0.06205918668702721
62938000.0 0.8483460795748049 -0.5246998277663705 0.05038704283023199 -0.2111081293174528 -0.0003575755744513804 0.0002776123107298473 0.45424923911177584 0.053206039920883845
63937000.0 0.8451003114537428 -0.5302586579611757 0.04734236413493467 -0.2321089885034943 -0.0005458762990519012 0.00012114638562664313 0.4355919574071473 0.024651012403349094
64936000.0 0.8360292809991305 -0.5378403302255019 0.049063920962991635 -0.2431594638511471 -0.0048114472860444875 -0.00022153327304037486 0.43383967662760353 0.030717379107255843
65935000.0 0.8330778912352916 -0.5485256862900401 0.04611100813588847 -0.2552815466724966 -0.0034389350126375895 -0.001019845480968221 0.4392497196026249 0.02016675841770132
66934000.0 0.8297441454644664 -0.5525614980764063 0.04820632694492477 -0.2699102634303464 -0.0004717932439560055 -0.0033948326573428433 0.4394730209834433 0.006380273828451176
67933000.0 0.8266670176652822 -0.5625940048741971 0.05173199099242802 -0.2835969630391858 0.0008599591458278963 -0.0015199950510521262 0.4402923434441313 -0.00033554808165549564
68932000.0 0.8214596780843065 -0.5559585083678705 0.04890701783089624 -0.29316274138624504 0.0041015753918565686 0.002127682944312106 0.4570971078221691 -0.008578953846379567
69931000.0 0.812092129936676 -0.5791735171431034 0.044875199789021256 -0.3101590187383005 -0.0026037280077667703 0.0001586493433799336 0.4549981895283929 -0.02542915332614719
70930000.0 0.8065240523006856 -0.5848045372502516 0.0444777900327489 -0.3265114682473078 0.0006612613534391071 0.0018817369043689078 0.4496321288011716 -0.03399833606717557
71929000.0 0.80257925929378 -0.5946895853766462 0.039691487471973236 -0.3413736463411055 0.00027969234288419153 0.001653837942185676 0.4569576890645624 -0.043917690475077396
72928000.0 0.7975577230653697 -0.6018123966509689 0.0343134069162159 -0.35548439327689507 -0.0010366764188299519 0.001358173287543937 0.4602100401965817 -0.05360154332946679
73927000.0 0.7912600166116164 -0.6078592031316006 0.025327322976081906 -0.37606212447431553 0.0001603643383945127 -0.002024450937802606 0.4556446775598755 -0.06386293779217443
74926000.0 0.7835914339645241 -0.6167852091753018 0.019348989721520996 -0.3951242063588934 -0.0005289340620630132 0.000986055517328269 0.46937591999338585 -0.05817938670571077
75925000.0 0.7797418750068646 -0.6216471905339708 0.0090569285625608 -0.411885738921928 -0.00022602804901796492 -0.003670617037058093 0.47426171005250983 -0.09024773060342883
76924000.0 0.7739422483425409 -0.6303968738877856 -0.0024301828954782297 -0.4333936183894896 -7.657425217718602e-05 -0.001110227772387047 0.4714668962861689 -0.09080923307839825
77923000.0 0.7659089263061563 -0.6379485062523079 -0.019628845221349264 -0.4581687961453031 -0.00225830776522724 -0.0008459997173187172 0.4588897736160107 -0.10291032220650419
78922000.0 0.762687339451265 -0.6480795032036971 -0.03079022702227289 -0.4852631020604461 0.0014186318349100032 -0.0023468184849237653 0.4615769583249704 -0.11263299946937652
79921000.0 0.7504085946725138 -0.65222432793221 -0.051601287116588304 -0.5095161309353429 0.0016876950665894361 -0.005169673519595766 0.4591668802063501 -0.12647801030442923
80920000.0 0.7495924481666884 -0.6623351297428444 -0.061701312761836644 -0.5346929896962892 0.0025370968800765207 0.002627417927929622 0.4667878591908945 -0.142293308166553
81919000.0 0.7419127241005355 -0.6682547132611356 -0.08396535113086542 -0.5618126389994003 -0.0034363712124497307 -0.0010637794864424518 0.4626286545932649 -0.14041871256789668
82918000.0 0.733922937920772 -0.6758035356808534 -0.1009635346873541 -0.5910749239694029 -0.0029092307929281147 -0.004278927281688584 0.4835876395464215 -0.15317536203946241
83917000.0 0.7278389934625116 -0.681695912256688 -0.11955339929228123 -0.6200869239668422 -0.002701389404002334 -0.003076967105762412 0.4749282263397069 -0.15516073808737882
84916000.0 0.7222875203962312 -0.6886020171948845 -0.13466099439007168 -0.6540985109009783 0.0004454913527136637 -0.00031124122573552193 0.4649632222831042 -0.1809349644875545
85915000.0 0.7142926598823066 -0.6971020012876591 -0.16246126561106594 -0.6841193856901372 0.0014866995865067299 -4.776214808526331e-05 0.4652830206248914 -0.18597538637727537
86914000.0 0.7072560749548735 -0.7078273386387575 -0.17292163117863413 -0.7208744651154737 0.0007454689842552101 -0.002929702459182247 0.4618861687761174 -0.17797123231106765
87913000.0 0.6985444520775261 -0.7123134297489476 -0.1940176825515333 -0.7486971139969304 -0.0034954692514263612 0.002684002658797646 0.4555047192891673 -0.1942066693120936
88912000.0 0.693798643900071 -0.7189713840219389 -0.209040687430942 -0.7829599786268766 0.002966404226925261 -0.0005511734463750467 0.4641288982108801 -0.2195741420057346
89911000.0 0.6860036958277915 -0.7271006052917374 -0.2260343479404932 -0.8132812111632212 -0.00020691411984421438 0.00505819182657727 0.4768906463240254 -0.2181643442399636
90910000.0 0.6778609254505772 -0.7323620085588048 -0.24439729966186513 -0.8497566132575777 -0.0021479595223005354 0.0013959192271254294 0.45822939621836506 -0.2229219180326435
91909000.0 0.6697240483007564 -0.7387294318555652 -0.26037499823834304 -0.8814809441964034 0.0023754105169945215 -0.0013102917534090722 0.4689392989853103 -0.23785430009181194
92908000.0 0.6620391290123905 -0.7467826191185192 -0.2784136769228475 -0.9135584025787844 0.0011393154192620425 0.0002335284878997768 0.4623200163974936 -0.24212468028522263
93907000.0 0.6563540828651802 -0.752364683054839 -0.29839034937809483 -0.9457498618805178 -0.0024865755210242385 0.000582191189252325 0.4586783220373184 -0.2603186676998598
94906000.0 0.6430394477638279 -0.759904725107425 -0.31371940664328124 -0.9763576270119406 -0.0015565931952875478 -0.0017275873271370397 0.45069955854376126 -0.2590412747584035
95905000.0 0.6355138171784462 -0.7675706676790617 -0.33790243205157977 -1.009773116829037 -0.0003591299906080404 -0.004226696943800191 0.4582052700768678 -0.28332067657300375
96904000.0 0.6269523509589116 -0.7768038565713317 -0.35555709346068315 -1.0495918148450811 -0.0005948962053406073 -0.00309213284754639 0.45817235403934514 -0.2889767848998341
97903000.0 0.6183541051612741 -0.7792529276481418 -0.37362708711469267 -1.0778803453997992 -0.007562448668295356 0.000428419530247858 0.44835448873191797 -0.28966795039137566
98902000.0 0.6149613503981411 -0.7889419062405638 -0.39362189618665666 -1.1153349745845063 -0.00179192416137407 -0.0013898811042617409 0.4399483072132204 -0.3139581511622558
99901000.0 0.6052394055704978 -0.7938857899381186 -0.41891163896188305 -1.1475642746980532 -0.0006260601471759937 -0.0002742477023987131 0.4572713286356563 -0.32833886698010895
100900000.0 0.5970542492998495 -0.7966614643140417 -0.4503962497312174 -1.170391664491872 -0.0008765904978057669 -0.0012858513605081413 0.453927738521233 -0.3267239484488383
101899000.0 0.5883439831251257 -0.8047968101157347 -0.47776102996012476 -1.2117012597255319 -0.0015225753204398036 -0.0016483464958823523 0.4477051959481533 -0.3366949633140146
102898000.0 0.5762325210289415 -0.8112311708592259 -0.5142727527695875 -1.24826496139353 0.002087325614992148 -0.0006383919528421801 0.44755757791597817 -0.34904419141991627
103897000.0 0.5702504828989367 -0.8174837961565535 -0.5454051278176736 -1.2779710470312649 0.0039931926279105166 0.0006855713496946217 0.4440392071265734 -0.3368162488812023
104896000.0 0.5618828645072192 -0.8281136578261235 -0.5888111843710174 -1.3102038200297692 -0.0018642250127839685 0.002064094472888926 0.4291147138340646 -0.3432780050980675
105895000.0 0.5518263861768509 -0.8300899785300369 -0.631029038186712 -1.3482421931856876 -0.0006027446836645228 0.00014081513158803073 0.4248881577411957 -0.3781568128280817
106894000.0 0.5407927877908091 -0.8363168446387079 -0.6833342213968665 -1.3792134289111815 -0.0017721675990709825 0.00018735576507540288 0.426277353639854 -0.3833422359704223
107893000.0 0.535205821515862 -0.8421019238925483 -0.7366694014086574 -1.423093769058178 0.0004116601352295229 -0.002779013072146803 0.42056401414634625 -0.39083643016626773
108892000.0 0.5227424107284537 -0.8474435069712933 -0.7981309664951161 -1.4518596921760627 0.0025930955719572833 0.0004994833002579062 0.42748751065726187 -0.3900555640534531
109891000.0 0.5126580234354892 -0.8530222235465014 -0.8548658022666217 -1.4854185278284522 0.0007718543850829951 0.0018570205141540984 0.4308849220774722 -0.38462928904503707
110890000.0 0.5071016316412653 -0.861912980807092 -0.9107460808030925 -1.5104619728751225 0.00243591629335429 0.004612355366618134 0.42818259483161486 -0.394929506125163
111889000.0 0.4933750828807418 -0.8608440630081741 -0.9773489717744164 -1.5511887494987484 -5.809222522495785e-05 -0.0018462520213698922 0.41913248723074426 -0.41103733486481486
