! Created with skrf 1.9.0 (http://scikit-rf.org).
# Hz S RI R 50.0 
!freq ReS11 ImS11 ReS21 ImS21 ReS12 ImS12 ReS22 ImS22
1000000.0 0.9850041109649394 0.007756465579219482 0.008002603387577254 -0.05903307769599631 -0.010773391682946611 -0.002372024399519695 0.3726906757620688 0.3026959039960938
1999000.0 0.9869690147623874 -0.013640382287979761 -0.0064040424343183916 -0.03220843905162666 -0.005023139778555677 0.0007720072957502561 0.2764272223709194 -0.08135850211494981
2998000.0 0.9997648620643526 -0.019085980338618188 0.008948012028539749 -0.014213274521358827 -0.0031657694640830404 -0.0036245161267787706 0.18988582432380546 -0.11620662078758198
3997000.0 0.9997210219759834 -0.02957120327777264 0.01062120300373644 -0.005789862733555954 0.0009012615403001846 -0.0033017007921828318 0.09470834041434419 -0.22736844049614868
4996000.0 0.9954063212743842 -0.03576183260471342 0.012541530313391221 4.804849702007763e-05 0.003965180411983446 -0.00043635270063538 -0.029255942664227576 -0.19220302044993318
5995000.0 0.9967625114114314 -0.04714104124079405 0.013833953374129446 0.0066114243330248085 -0.001610071861855834 0.0008617488098884084 -0.12230733965331937 -0.12186748529418161
6994000.0 0.9950287628221731 -0.05927830909519602 0.007168360072043968 0.006878292504679181 -7.69987137048343e-05 -0.00412084855196218 -0.147443874106867 -0.046092222828242504
7993000.0 0.9977883627171287 -0.06795002007565265 0.005796605437674431 0.0037942869889378704 0.0007692587930931585 -0.0026097206311888744 -0.167887766167348 0.03141196849893191
8992000.0 0.9927253839485354 -0.07572869383023186 0.003710983582462415 0.004985032800854415 0.004895939091140804 0.004966309049821543 -0.16683371974299413 0.05513767082200784
9991000.0 0.9926675363649702 -0.08165731678827444 0.0036588976086826064 0.0031627035018440635 -0.001646978419569555 0.0019621219124387173 -0.15603003101335824 0.08644434620413564
10990000.0 0.9905409534821756 -0.09460936177578967 -1.2117566318846538e-05 0.003442619995049228 0.0018509085016579117 0.003911454857082012 -0.1372926541887694 0.10917101131162513
11989000.0 0.9891879254317977 -0.10150469423596274 0.004102413958539588 0.0014465477037690624 -0.001776551317412515 0.006366518223228443 -0.12535397009994234 0.13752894496135265
12988000.0 0.9894577390780945 -0.11139536634198614 -0.0008233140187053141 -0.0035901174052953067 0.0006723716707168071 -0.007449506902915218 -0.11831171649880065 0.175901816940893
13987000.0 0.9889121934504401 -0.12093892980359705 -0.004436513297602692 -0.0035447871501959726 0.0010443104644749577 0.002132503748247139 -0.11608706102231389 0.18279471694554406
14986000.0 0.9870349945241648 -0.12657487716637136 -0.0013736006686835382 -0.000843600419310669 0.0034268777373060513 0.0016839137910107382 -0.08346607802718346 0.20137942194318198
15985000.0 0.9870345116775673 -0.13590764092730862 0.0017339882710294384 -0.002053685622297711 -0.0002835725376276873 -0.0016506851152610523 -0.06646224185969973 0.21149765653026226
16984000.0 0.9843515242531439 -0.14365159346318576 -0.0010453846617671644 -0.0008864110850739349 0.005255699279231283 -0.0010830574821715476 -0.061711184641509306 0.21369639873751156
17983000.0 0.9874539291901626 -0.1516013887136571 -0.006315934585200937 -0.0074615819764754085 0.000532629393205606 0.0032423009580477605 -0.05651724619951447 0.21914632603414427
18982000.0 0.9812229027579964 -0.16122688227827078 -0.003553574180707531 -0.003713868645430099 -0.003562522234434601 -0.001405968219754308 -0.026340906966154615 0.2324540875545973
19981000.0 0.9828347591482473 -0.16578964402521273 -0.003795021206888843 -0.007370885042989339 -0.0013151722221372098 -0.00029127385077049695 -0.027642500192529895 0.2455411690482799
20980000.0 0.9813792774195872 -0.17764981299289023 -0.0020692108234679606 -0.002344657369114525 -0.001758484333381527 0.00048334016080988534 -0.016841306985990616 0.253535689570312
21979000.0 0.9793269525444637 -0.18516872561254438 -0.008913364113898828 -0.004542008407968941 0.002881480276774517 0.0011023106574189758 0.023470007253530753 0.24519313324879066
22978000.0 0.977724859720528 -0.19649093234415066 -0.002497923212314337 -0.0020718147088678624 -8.069423039547521e-05 -0.00019204877881320143 0.0271366100330099 0.26489848672728644
23977000.0 0.9784006927011454 -0.20317005530323348 -0.004904214548688143 -0.0013606749683284214 -0.0011720527709488623 -0.0026303768685325478 0.03334984743483743 0.25253633605555276
24976000.0 0.9737799921754942 -0.21294233123710848 -0.006881013911944173 -0.0016772557901914495 -0.0022201928019882577 0.0012489909290701552 0.05446621677726787 0.24427631645466913
25975000.0 0.975555868280037 -0.22405240030042786 -0.007246328730139927 -0.0009382448622815224 0.02004872963306753 0.01546669617695259 0.06637579697568124 0.2557421077971579
26974000.0 0.9707337670447828 -0.22794397501150432 -0.0062618226910398376 -0.0037689916957826556 0.0027828070761938004 0.004843604232540651 0.08194382934074712 0.2627583099284673
27973000.0 0.96858419107775 -0.23784697288017118 -0.0010101526856142258 -0.00385440771084824 0.0007642694291928335 -0.00019932184611391808 0.09634068995211639 0.25711461320693185
28972000.0 0.9662822790593899 -0.24492445007551045 0.0023033865954703863 -0.0014683480251995243 0.0013706143582580257 0.0008814748276144592 0.11017641302991413 0.2570548535952235
29971000.0 0.963724819742658 -0.253798007127679 0.003148509446873113 -0.0007744757449622057 -4.491150175565292e-05 0.0009949909782980657 0.14365812310740392 0.2665474133981757
30970000.0 0.9606738265467938 -0.26069985193885487 0.0015532198098320293 -0.000826445671055487 -0.0015260637084430675 0.0004120338207744503 0.1661585862282497 0.2572823126113206
31969000.0 0.9611160792901877 -0.2685854174780486 0.0043745522274283 -0.007716198875586483 -0.0019021507313801095 -0.00010065788864924689 0.14792755123338477 0.25148630337872147
32968000.0 0.9593263593551711 -0.277565432580055 0.00994784279344672 -0.008891827760931389 -0.0008545513086684547 0.0003917927532535939 0.15715268412665065 0.24279924394608227
33967000.0 0.9565067081564055 -0.2860726308348928 0.011288243395998324 -0.008018502392610496 0.0029807909242260105 -8.792033833446091e-05 0.18035917008342328 0.2422187416196748
34966000.0 0.9524092028355052 -0.29632706725379915 0.014316064813616917 -0.010780453820796211 -0.0027017009134609597 0.0020163319929030073 0.1896649919936807 0.25710451448007876
35965000.0 0.9496330028656041 -0.30446887641014403 0.018470217842050503 -0.017856609978302126 -0.0005832181269426438 -0.0019158984077624038 0.20415822455222682 0.25744746021796866
36964000.0 0.9465545752144295 -0.3149319990071364 0.013717066001643897 -0.014679881871001046 0.003076996561809027 -0.00048750145333057956 0.21425116408587191 0.2434228378518515
37963000.0 0.943734626278591 -0.3216759690104443 0.022178948103619502 -0.019279950136526624 -0.0008190580194371622 -0.0021152807198855836 0.23202867588803805 0.2230505591646069
38962000.0 0.9415030645008953 -0.3316002015702389 0.02699546633566137 -0.024355074355463874 0.0015275779996981945 0.0006459545055513298 0.23137245428121622 0.2296147752756484
39961000.0 0.9384251024708165 -0.33871082802685476 0.025476605807643007 -0.028055319041528838 -0.0029260142590820746 -0.003922348282808193 0.24745032165199657 0.233647991070592
40960000.0 0.9350152345560745 -0.3466502937515688 0.026172456397017468 -0.024974298523005995 0.00025834497911150783 0.0015564998260381767 0.26495255355097 0.22535495234589442
41959000.0 0.9332468463361121 -0.3558722204003864 0.0287968984530344 -0.03337113039043816 -0.0005510523485093772 0.00029417999229604307 0.26669191475484477 0.21695391888001153
42958000.0 0.9271912624280242 -0.36395087764027556 0.03242598265249657 -0.040291464534687634 0.001328495786689657 0.0022817024119827344 0.27495745087306783 0.2108247629250048
43957000.0 0.9261617821148161 -0.37115601035401236 0.035427671878731595 -0.045490919834983885 -0.004529343649468201 0.00021333650512295202 0.28798674825945797 0.20586030050241252
44956000.0 0.9218614196848769 -0.37961619125319607 0.035013351523289674 -0.05177603752728234 3.611588053409194e-05 0.0021750274521215238 0.29697134267378866 0.1939834363329178
45955000.0 0.9184904656685373 -0.3906112276484041 0.0355162246829141 -0.06002139435303684 0.0017727621132651351 -0.0012713220637477084 0.29650966714332244 0.19089284242096688
46954000.0 0.9149129550870985 -0.39897239964663345 0.03585359435727722 -0.06543006992556114 -0.0015206698960082796 0.00040546897912808083 0.3186005250321084 0.18813406294784807
47953000.0 0.9114200316119733 -0.4062298266073401 0.03812443450552331 -0.07525529717783369 -0.0035969190328086547 0.00029363835363904544 0.32833788898909416 0.17790145964602225
48952000.0 0.9054936053801986 -0.4164808450356018 0.040991538908592695 -0.08145358323901614 2.4452444477608886e-05 0.000535963852242695 0.32580400173668084 0.16431272692754165
49951000.0 0.9010901225982122 -0.422408372673813 0.03791742391846126 -0.09078609031386749 0.0023058209690481487 -0.0006005622353085948 0.34596894367490366 0.1569287381503826
50950000.0 0.8994980281806877 -0.4323632544146818 0.03884443201833277 -0.09909217955814234 0.0019297627219132406 0.0027048090243146556 0.3509920255096715 0.14165543042756287
51949000.0 0.8958117164479491 -0.439277592021923 0.04122677639928358 -0.10407071376080533 -0.002988265072859796 0.0014463634131248759 0.36040141808731724 0.1530572184793998
52948000.0 0.8936045673337184 -0.446609252150376 0.04149596281878915 -0.11439444509167247 -7.999726074365576e-06 -0.0012700167937295102 0.36638004950254777 0.1375432207399211
53947000.0 0.8852733330876721 -0.4554617571968514 0.04358427254400844 -0.12364883620887658 -0.002931082327193237 0.0002884934538520353 0.36444989413857726 0.1327573302510254
54946000.0 0.8819117759729885 -0.46295263821817617 0.043411847769867506 -0.13358839147701365 -0.001256342910807518 0.000604194595891665 0.3859552862357453 0.12212459498677537
55945000.0 0.8781733338377565 -0.47341610878938223 0.04653829667914608 -0.14448578526282016 -0.0018129712548144703 0.0021080627404601706 0.3888003962850204 0.10542992442305507
56944000.0 0.874544374485442 -0.48211001438662016 0.0483565588291312 -0.1551515545202328 -0.0019273468682450257 0.0005146316313005758 0.3951357982147435 0.10530083936720298
57943000.0 0.8692478571172115 -0.4907529287799879 0.04828724640095446 -0.16583712468209133 0.004356435579321337 0.0020316995998481586 0.3978699656689292 0.09251785243862468
58942000.0 0.862417939714784 -0.4973239339455795 0.052853112284607214 -0.17509893751154149 -0.002972233612523374 0.0033005242953637313 0.42179416754068494 0.08843686825046775
59941000.0 0.8612895589234764 -0.5045653006989319 0.05020004697353456 -0.1830869512480202 -3.095464856800685e-05 0.001868454590174383 0.41576473172442524 0.07998400454595099
60940000.0 0.8530149037956032 -0.511714928923886 0.05105279089854088 -0.18900510951897534 0.0012715691217303731 -0.0010739079466890297 0.4046180093668973 0.08079872721849894
61939000.0 0.8493397932693446 -0.519508726723803 0.050753314768588166 -0.19581939798551778 -0.0007762310858350932 0.0003303487242797708 0.4091455647249165 0.06262226421113469
62938000.0 0.8450294403005792 -0.5287673497960043 0.05649728406354936 -0.21416260066931064 0.00013015285740773243 -0.0013745268301858832 0.43602258422686546 0.05922526832498143
63937000.0 0.8381950698718034 -0.539478746932261 0.05603410888572521 -0.23625996308774513 0.0008012584234830713 0.002740149595602113 0.428402922911798 0.04763455754038328
64936000.0 0.8331294454050795 -0.542285948917197 0.055594548386230014 -0.24747458376360817 -0.0009112620018742908 -0.0029920998030045828 0.43387471493188046 0.04579813253823217
65935000.0 0.8293249183348613 -0.5548585171788168 0.05595172163411768 -0.26339977238636375 0.0010029802155072695 -0.0031056401511277815 0.4368510186479466 0.01626782030755828
66934000.0 0.8252593633239533 -0.5590648887617099 0.054246621407348795 -0.2772249429328785 -0.0002666178985563346 -0.002807767243605745 0.4264238012138015 0.005575209967551138
67933000.0 0.8209508689309393 -0.5686130883144844 0.0570153333693756 -0.29035011233417657 -0.0005394088944305845 -0.0024613244030491335 0.43706604544378097 0.011829613323129354
68932000.0 0.8049699401123648 -0.5681918390169783 0.049566547269269616 -0.3012822865680014 6.949137300995817e-05 0.0015835455103299656 0.4545294166434131 -0.004922009366973669
69931000.0 0.8063510723950018 -0.5860725555188799 0.04820862068732824 -0.32244149214402495 -0.0025678219580048322 0.0004596622964136071 0.45178179391023826 -0.01815609754894938
70930000.0 0.801250461556715 -0.5911016159850617 0.04591793880665997 -0.33682943388332004 0.0017821893206400187 -0.0010294619770524164 0.44291484232025624 -0.025848767212045723
71929000.0 0.7988508165721073 -0.5993082578332098 0.04531201893888673 -0.35319985961724554 -0.001818717532258166 -0.00030036611264549714 0.45118494587403596 -0.036822000986411134
72928000.0 0.7907508007873384 -0.6086015418959954 0.03979212181755847 -0.36843803189985896 -0.0024741499340381477 -0.0015153005114824682 0.45551813249616474 -0.04220940617275402
73927000.0 0.7858855827333656 -0.6157599070902866 0.030497077248309738 -0.3905107376189591 0.0009485792617687288 0.0007394740041754636 0.453668355667185 -0.05673540670932524
74926000.0 0.7792040514155397 -0.6224859248751002 0.02293140415306218 -0.4096936341433425 0.008198416472365926 0.002676799617199438 0.45689782915991956 -0.05498351420237648
75925000.0 0.7750063281524519 -0.6271247076879162 0.013984570549838437 -0.4283409374330529 0.00219082490561624 0.00141562997941962 0.4627221186374381 -0.07560738967641083
76924000.0 0.7671315940592597 -0.6357218401393012 0.0010517906629853846 -0.45071688021834866 0.0010088831613041637 -0.003928977224525095 0.4599555040738291 -0.08853801132389265
77923000.0 0.7609437069978365 -0.6445114211566703 -0.012775851687696661 -0.47821345376447116 0.002667033611136289 0.0007397526294717207 0.4608904328193879 -0.08891244075806994
78922000.0 0.7550917853693518 -0.6537731366557703 -0.02835480831878673 -0.5023580907862985 0.003673401262475475 0.0010407575245044282 0.45336955557615827 -0.09447075453640007
79921000.0 0.7454039664852602 -0.6575401524591795 -0.04696106571738436 -0.5286192806537116 0.0003812647597811686 -0.0012073965152132118 0.44814667659902746 -0.11218159043821158
80920000.0 0.7420883554738402 -0.6677650780320363 -0.06451071663964529 -0.5560693798471908 -0.00046145440333164 0.0019027830695680576 0.4523223588528993 -0.11730593114480173
81919000.0 0.7362539198769654 -0.6725784826752956 -0.08009719474431609 -0.5855410225108836 -0.0034147741896014467 0.0009582528244841154 0.4605668499127624 -0.1336159046350208
82918000.0 0.7254201216708511 -0.6821296998702281 -0.0900927024368366 -0.6180640579847915 0.002810840671944526 0.0016813243562865687 0.4700461089748265 -0.14200787180866245
83917000.0 0.7179353713099886 -0.6891689350942835 -0.11419338865911674 -0.6455323079843084 0.004567208132882584 0.003517537969238026 0.47970535920557095 -0.14457157418543304
84916000.0 0.7127683537990812 -0.698030865383149 -0.13141541182517893 -0.6791225748182862 0.0006956391524772028 0.0031175628451535343 0.46761245870028356 -0.1675497310241815
85915000.0 0.7069382294125448 -0.7018195047981043 -0.1451598661826467 -0.7097123978766582 0.003671309160097792 -0.0017290195952278978 0.46302021431130835 -0.16846595556405486
86914000.0 0.6971757386534335 -0.7131579449708454 -0.16240970144433337 -0.7479201476105337 7.19885837393679e-05 -0.002945074276928716 0.4613171332275027 -0.16620177032678843
87913000.0 0.6918260781341034 -0.7180103901097711 -0.18264711495811806 -0.7762821295369848 0.0036790215262770573 0.00251972568056327 0.45240225941189666 -0.18155221754914194
88912000.0 0.6840083949418604 -0.7244443832690401 -0.19922733126725942 -0.8097394432489539 -0.0015143619988610268 -0.0008408455676464229 0.4628702260004153 -0.1991010534761795
89911000.0 0.6772507125057169 -0.7343079658750128 -0.21365550442144637 -0.8472918478348634 0.0015088499879876809 0.0038535087992567995 0.4653114099308758 -0.21488613216571342
90910000.0 0.6697121761325127 -0.7387274158103613 -0.22937194652566806 -0.8812925880302331 0.0005903904427123947 -0.002372897473906081 0.46018792965408956 -0.21517716461716552
91909000.0 0.6595447523996119 -0.7443954032959463 -0.2484009771189462 -0.9124132323850596 -0.0008999813225805869 0.003420781103486468 0.46345801091075023 -0.2243432083831622
92908000.0 0.6523329484729066 -0.7524895375064323 -0.26931951256225445 -0.9434529122209702 0.0004383013916644237 0.0010787438343114778 0.45648005916000817 -0.2200727137158886
93907000.0 0.6469264220062142 -0.759307688526356 -0.2872937247422927 -0.9772820896039689 -0.0024681658678211856 0.00030801769928284094 0.4686401822068936 -0.25093277952888016
94906000.0 0.6334983918742952 -0.766595205083936 -0.30681981825263926 -1.0097026381749319 0.00034375164227603666 0.0007054322041539694 0.45819512156915404 -0.2454561080686895
95905000.0 0.6264740901823785 -0.7720732307748799 -0.3276115380778618 -1.043699051716661 -0.002731799814050984 0.0013925994074934136 0.45382235637622775 -0.2728743579985634
96904000.0 0.6190317144504498 -0.7812145654021928 -0.3483732884232179 -1.0860717306463663 -0.002043994531657611 -0.006053274072859562 0.45225621085455375 -0.2680379939625751
97903000.0 0.6085053592982661 -0.7888284968168228 -0.3703964925743738 -1.1140846856377669 0.0009749266593205 -8.84463748096833e-06 0.4499208669864642 -0.2742668636039512
98902000.0 0.6045345296113428 -0.7928020487597094 -0.3925508708739624 -1.1504646437179602 -0.0010652060424481476 -0.0016744535624590952 0.4496147466488936 -0.29563629590064067
99901000.0 0.5929682675949349 -0.7997198379404262 -0.4220555446057498 -1.1831504171442209 -0.0016296247109919512 -0.001439282403187227 0.45411814580842313 -0.3144315283054797
100900000.0 0.5851201240802184 -0.803337007625909 -0.4529498678045888 -1.212571640933766 0.00024789960333921436 -0.0008951405131242023 0.46082298201640026 -0.2986712393242986
101899000.0 0.5786623439410473 -0.8112076297777611 -0.48058227579078233 -1.2521215134849144 0.001319555955871156 2.836675922555085e-05 0.4397869944076538 -0.3099088807873731
102898000.0 0.5664838927108143 -0.8162515567379964 -0.5192019592738814 -1.2894520888219008 -0.0002673841227987214 -9.458550910767601e-05 0.4446775376937155 -0.3420699459520732
103897000.0 0.5588317758491717 -0.8248618420506924 -0.5607607769536683 -1.3225105779007282 0.0011406420961720266 0.0026081796525815252 0.45831893563168324 -0.33839747308518875
104896000.0 0.5519362641553481 -0.8329381395849502 -0.6044206594683855 -1.3586176938597558 -0.00031517410607590076 -0.0027545000758502905 0.4383684167627837 -0.3290451329299529
105895000.0 0.5406201087360584 -0.8355038272672437 -0.6515755227485605 -1.3997248419310633 -5.3765056387144e-05 -0.0014527023748836811 0.4340852441671398 -0.35669737170654153
106894000.0 0.5284797689295752 -0.8437185231083545 -0.7107801920999267 -1.4372360683017218 0.0005756406725555129 0.003490695437429172 0.4355379887686509 -0.35910591123004165
107893000.0 0.5220048434643626 -0.848958081707069 -0.7642900280336237 -1.4763948859208915 -0.0036543471393638066 -0.00030788730546673027 0.4414434624718455 -0.3793176313155879
108892000.0 0.5127439952853473 -0.8532807563216339 -0.8246377855524416 -1.51225254185244 0.002283519170506876 0.0014180567370974935 0.4248946244109983 -0.37515655860938474
109891000.0 0.4998693686017893 -0.8589621776432583 -0.88040569041608 -1.5413813913120222 -0.0014003158856232027 0.0017654181228738152 0.4351104895120866 -0.39194938627525927
110890000.0 0.496827122330808 -0.8681854420465068 -0.9458379541875819 -1.5641493340849042 0.0014481148744624663 -0.0006988345543807598 0.42264935855790586 -0.3849857346754432
111889000.0 0.4790329770929298 -0.8661959422033126 -1.0128683342775255 -1.6121550708036343 9.00483353514224e-05 0.0032370693580157407 0.42480613500321995 -0.3959886567158534
