! Created with skrf 1.9.0 (http://scikit-rf.org).
# Hz S RI R 50.0 
!freq ReS11 ImS11 ReS21 ImS21 ReS12 ImS12 ReS22 ImS22
1000000.0 0.9766412387279243 -0.0066339503507444435 -0.021603313879348232 -0.03494235329911768 -0.011817666813364637 0.00625382581791339 0.4382379704505067 0.2877912508962368
1999000.0 0.9952671415099937 -0.009026453379700034 0.003159775437555585 -0.02359213108395722 -0.0016375710478152468 0.00231465871701581 0.25180245290772196 -0.07870031986303787
2998000.0 1.0015544873485713 -0.02042318467307302 0.01172201535342101 -0.010881934645280778 -0.0075897447973616835 -0.0036888293940112293 0.19101323007352666 -0.13921269375268178
3997000.0 0.9988753803549187 -0.030710450616467405 0.012053793188984412 -0.00681163853750278 -0.0033144136393589044 0.0023798096373096028 0.08973856272986044 -0.21855906859306687
4996000.0 0.9937960478082748 -0.037158823604807614 0.009283403172754058 -0.003876690286429889 -0.0011304077522588166 -0.001342986927908522 -0.03434080582940659 -0.21355984724211852
5995000.0 0.9973631947571983 -0.04757761778404633 0.009184695500454731 -0.0005929439075246485 0.001302391125582385 -0.001783614047518198 -0.1247183989803777 -0.11099519818790055
6994000.0 0.994942139632731 -0.061156546756689086 0.009906949499741543 0.0028125381648914133 -0.0012191380496027198 -0.004840065914944845 -0.1474405917280335 -0.02300985497232293
7993000.0 0.993218049476677 -0.07116643592161408 0.004765034684105607 0.006728491084290041 -0.00047534059445293283 -0.005848644131676173 -0.16919112134678693 0.03778135555941345
8992000.0 0.9952654530366235 -0.07174421972845386 0.00383503494321822 0.004178226969755858 -0.0020816087629534955 0.0003408471910273273 -0.14615615783119149 0.05552500610773356
9991000.0 0.9933672820672529 -0.08327949316343745 0.005253655074082695 0.007216827827928636 0.0036077330561674497 -0.0034010009581058147 -0.15710153869371923 0.092455553698552
10990000.0 0.9942301645848447 -0.09433459926025353 -0.001927307625476685 0.005533581460544285 -0.0010955535670271173 -0.005882378104098219 -0.13665983688646807 0.11236135522128568
11989000.0 0.9881752193034204 -0.10123264406127591 0.0030046136038636173 -0.003789761639401308 -0.0041740513936353715 -0.0011054887345380842 -0.13037320164983804 0.13827341769324525
12988000.0 0.9887045166990277 -0.10869360820187202 0.001777745205971537 -0.003970998320680231 0.0013062722706811939 0.0005449552022188593 -0.11841503482635925 0.1535281268044137
13987000.0 0.9870164650370518 -0.12194222177639065 -0.0018787081688831735 -0.0020262796272656034 -0.0018922204126697016 -0.0012711391745895118 -0.08327047059698046 0.18866178633885403
14986000.0 0.9856191123924799 -0.12731072687193332 -0.0016392845640482941 -0.005260264966080416 -2.893166836368494e-06 -0.0005726788987465376 -0.07770153588138999 0.18649800087194787
15985000.0 0.9882949834932961 -0.1365406083844132 -0.002768575518816079 -0.004844729994727495 -0.0008169114910364522 0.002033232703222531 -0.07239983649774195 0.22070309660199655
16984000.0 0.9860230298913458 -0.14714586046807518 -0.00686792418016247 -0.007735822893625451 0.002847987250480721 0.0033599233712094177 -0.054951309788584146 0.21208241854469936
17983000.0 0.9850199174693824 -0.1502802108516322 -0.0007782427861230799 -0.005308634636821731 -0.0021223731534701445 0.0008663493676601793 -0.058768810700924504 0.219969387335622
18982000.0 0.9829175551163737 -0.16228324887384576 -0.0037753864802592377 -0.004348077895573601 -0.0016417861318122828 -0.0012413256961365383 -0.024481298601052335 0.22745679721497908
19981000.0 0.9807690341639451 -0.1683323851227746 -0.002077491793479144 -0.003929892863606692 0.0016667624184126776 2.158061822845112e-05 -0.011636776211789567 0.23081453221515155
20980000.0 0.9803415284057848 -0.17999028174601475 -0.0077321297838278255 -0.008233758249605257 -0.0012371227065322739 -0.0003990940545563933 -0.013400101301205471 0.2586788550732491
21979000.0 0.9765138613541792 -0.18953429120650167 -0.004967491261532477 -0.0023257573807253583 -0.0031955660114620812 0.0010102062583395165 0.02218857630354547 0.23677445012549758
22978000.0 0.9765495409139319 -0.19575333373863313 -0.0054424162897264705 -0.003442312065257878 0.00470560340724029 -0.0015191632217008714 0.028578273036179058 0.2582465835503533
23977000.0 0.9789942836220072 -0.20296903088016402 -0.00496340277845035 -0.0057661187171416575 -0.0005615455228012026 -0.005269666085498959 0.04839038507492056 0.255182959084479
24976000.0 0.9752507034709572 -0.21236459056397095 -0.0061898233927778845 -0.003238014338050354 0.0014572905833096913 0.002072417150936775 0.073872782460568 0.244196759055528
25975000.0 0.9658107795647294 -0.22535537609866255 -0.0048079296754286365 -0.0004404789564743015 -0.008439918818939572 -0.026230018132287095 0.07365454865289177 0.25489417981583806
26974000.0 0.9689423055111083 -0.23231168603369484 -0.004522711769505424 -0.001137030417496874 0.005570979898997878 -0.0007399265235559554 0.0874199113928351 0.26437826329779623
27973000.0 0.9701559730925546 -0.23694177329006058 -0.0009183332346444845 -0.0035024775386213974 0.0005572869518316977 0.0009167654482669682 0.09873810732637525 0.2518666820018186
28972000.0 0.9645419316754813 -0.2484548840408074 -0.0035956623181760713 -0.00420074098392756 -0.001283501021547485 0.002000479698194051 0.11611565291451287 0.25681194086770265
29971000.0 0.963130959867728 -0.25803563057118467 0.0004981543403156035 -0.0034616091958777967 -0.001139065142057661 -0.0018618185819915857 0.13961297849678866 0.2606513976180738
30970000.0 0.9607569086421351 -0.26231576974785187 0.0011185989248433648 0.00029352074766235555 -0.0028855002719706245 0.0037628765407142248 0.1713287982666889 0.25317427981233054
31969000.0 0.9608114284478418 -0.27090335963959133 0.005307318764371298 -0.0030229579774373834 -0.00062576201795667 0.0006583792257922451 0.14469923002339768 0.23925748531788057
32968000.0 0.9574786705414763 -0.27973995115844125 0.007550560066912534 -0.005921454948781236 -0.0005036219371729842 0.0002850777447927684 0.16068465226843745 0.24326108920740147
33967000.0 0.9553258961007985 -0.2897038328245008 0.010500498284248603 -0.008287328356599137 0.0016908353444161463 -0.0012552693807199838 0.1825366475545319 0.25033928820613155
34966000.0 0.9522670317931269 -0.30121386829279273 0.015726265384195023 -0.014153323922169992 0.0024710807465489694 0.0017899681559835048 0.1916716753130804 0.25017361107174574
35965000.0 0.9488415861653225 -0.3051365324641984 0.014396050994290295 -0.017003477007065153 -0.0013499265700346297 0.000930351310656109 0.20556247530036945 0.24274887984990787
36964000.0 0.9458954780452243 -0.3165912928091937 0.01811426547738547 -0.015158900587272189 -0.00042975783100031344 -0.0017468432375338967 0.21731726817873737 0.24070424360266426
37963000.0 0.9434147439744054 -0.32439879388756526 0.020114164917931998 -0.020004237438708678 0.0014331280418958547 5.6049842505696405e-05 0.22570972117973012 0.22809192211467835
38962000.0 0.9396610599176715 -0.33511880201862493 0.02359418383004056 -0.02183191804501503 -0.0019688596416511024 -0.0005716550359950424 0.23171636618138017 0.2321031983917855
39961000.0 0.9369896361153037 -0.343198064631068 0.025590585793976012 -0.030444606324949466 -0.0011748763098697536 -0.000340104220777736 0.25129433791470307 0.22792409100402486
40960000.0 0.9326952117113447 -0.3522503854472406 0.0230648410875853 -0.026149850112083563 -0.002394295810121761 -0.0014715823765027152 0.26015830568125753 0.22798992414152286
41959000.0 0.9301586858083027 -0.36049338957652355 0.027745310149313647 -0.03154301303931496 0.0031652622510193913 -0.00020330717466842256 0.2586521307856061 0.20640831781947575
42958000.0 0.9267625106720583 -0.3682293612421789 0.030454976485091517 -0.04306580598772677 -0.0009338451441216994 0.0024829371867399956 0.2824423582932074 0.2039869382773599
43957000.0 0.9238927672858881 -0.37547164422473217 0.031303383592796476 -0.047272921270027725 -0.0007516310338125897 0.0006445438773006983 0.28654957684822946 0.20892942469910897
44956000.0 0.9205833759817282 -0.3842847677271164 0.033991009816317336 -0.04984977722966291 0.0002981498363629824 0.0020579015935903557 0.29676376137754173 0.1946186394543274
45955000.0 0.9164226902152675 -0.39485186459052196 0.03596247086240564 -0.057416525844399754 0.0005152148519868523 -0.001437126746514783 0.2999372527517575 0.1941027149880401
46954000.0 0.9130092463051652 -0.40188767491212557 0.036951594976581896 -0.06601852998368449 0.0010351317676849927 -0.0006419539280620865 0.3343613221958056 0.17564176541037346
47953000.0 0.9087936605861697 -0.41136848413969423 0.035333086634939136 -0.0722563317586624 0.002578834822521009 0.002166154970945762 0.3380472176737662 0.17627333849174506
48952000.0 0.9034142255465938 -0.4217625497327234 0.03622796010035647 -0.0774809483278114 0.0015178628167714827 -0.0011516144590367646 0.3231657070101859 0.16841668537471785
49951000.0 0.900204036920483 -0.4266335711510118 0.03888742592143832 -0.08680564873356254 0.0015945021055421512 -0.004024932148834519 0.3577711340303977 0.1611685806961247
50950000.0 0.8976899546205338 -0.4348273063624039 0.04035195370997604 -0.09707918017184711 0.003713588238783084 0.0008671249165235382 0.3550696394316925 0.14936524772130857
51949000.0 0.8918576859075412 -0.4444604451440482 0.03942765894762485 -0.10283846350816302 0.0031167196610426954 -2.692269189564404e-05 0.35667918828955175 0.14140367758692313
52948000.0 0.8917901250951428 -0.45053432531693904 0.041172149030366846 -0.11346635585543081 0.0017639171158712523 -0.00046467776309227723 0.3690776679151518 0.1406497802355657
53947000.0 0.884622549770813 -0.4610186600279702 0.04120388712769341 -0.1213974537713963 0.002253929198523205 -0.002205930243014167 0.36271678909997485 0.12861435162144366
54946000.0 0.8781340268914656 -0.46855635393875417 0.04264087363706736 -0.12994765374318096 -0.00023376222788581627 0.0011068750396453341 0.38071011181117265 0.12224527330217906
55945000.0 0.8767647597862694 -0.47547155646360717 0.045511935961107204 -0.14264269319608375 0.0013679051875423393 0.001144841979180864 0.38974874027255346 0.09267141629352402
56944000.0 0.8723784109969017 -0.48504873862790426 0.045888276668078064 -0.15261795862241745 -0.0015603508200384834 -0.0019045471451253793 0.39648666834235796 0.10320630004116518
57943000.0 0.8660005694102177 -0.4962028248843194 0.04612228574190738 -0.16150108672275815 -0.002609249402888667 0.002217982057191882 0.39555013899056846 0.0858216347396273
58942000.0 0.8601103991192411 -0.5003744023358307 0.04628522845975181 -0.17330668377024175 -0.0025436763738731745 0.0006418940732896805 0.42761836170293116 0.09178915212873005
59941000.0 0.8590889404601352 -0.5071808515737578 0.049311776020862765 -0.18355395334077737 0.0010456051388932845 0.0030521329802647786 0.4199967937233575 0.08939522410811154
60940000.0 0.85043144944642 -0.5167512546307568 0.044763327357558336 -0.18536165162754153 0.00010007849059249667 0.0016476535450381331 0.4071340592789696 0.07079684390584422
61939000.0 0.8482875980141417 -0.523133410040305 0.050298157387304206 -0.19589683833845295 0.0007739802011832724 0.0032937189565408133 0.4233327122032794 0.07088561429673439
62938000.0 0.8405507153560792 -0.5350506167703982 0.05323705766185915 -0.211234695307158 0.000689250025684208 0.003080809076243336 0.438958334431388 0.04993709650612245
63937000.0 0.8359279204118686 -0.5428467757810564 0.05415738061314612 -0.23380663345622343 -0.0015063570367224073 0.0012533609026999719 0.43722665929558424 0.03419693523811765
64936000.0 0.8312061555344642 -0.5470099506184657 0.056266794410457815 -0.2454129646103915 -0.0012442762366794713 -0.004808858989005059 0.4327922803167629 0.04078962686647783
65935000.0 0.828499718575166 -0.5573692203386107 0.05319857953941844 -0.2567995878914882 -0.0036513381420182913 -0.0014022206485223411 0.4370101594136867 0.012826769899865935
66934000.0 0.8221717098913044 -0.5650408410941714 0.05266404285158428 -0.2701282635541244 -0.0038554160664410124 -0.0009594797818659384 0.4410018549776301 0.002868659493437843
67933000.0 0.8191688626807794 -0.572037683870808 0.05480810379442172 -0.28510272850854984 -0.00324320036485969 0.002856535524612633 0.4533745672769274 0.005332118782324659
68932000.0 0.7998444571125232 -0.573459932127235 0.04742579496005353 -0.2940565531242196 -0.0029627959520650694 -0.003148669499523067 0.45053228054593164 -0.016815330587650855
69931000.0 0.8062121623712141 -0.5880455646433624 0.05006824224545056 -0.31799554328010776 -0.0019567801480483487 0.0028721884377602876 0.44983770204471446 -0.014936211840045415
70930000.0 0.7980340872221954 -0.5968385487143382 0.044745776919967215 -0.33156114825027155 0.0015680421788592106 0.003209474919643159 0.45060320873232484 -0.0268161380167402
71929000.0 0.7949950227939601 -0.6040627398597193 0.0431232176660428 -0.34816281768789886 0.0038373187197884907 -0.0016349083355530428 0.4506989690036932 -0.04419841661471545
72928000.0 0.7856549109692649 -0.613545370064738 0.03763203027410392 -0.36108454569885906 0.00023100871342191125 0.002341417909285772 0.46641661206213186 -0.04650238103294101
73927000.0 0.7799490508212432 -0.6182120141141239 0.027851181749236977 -0.38394388572246513 -0.002274391357576196 -0.0022656458139529902 0.45544542724462017 -0.05182741191932475
74926000.0 0.7766271272322438 -0.6284221925369856 0.02194228045254843 -0.4019147727796799 0.0014585374012649735 -0.0007331413787580249 0.45769215231795213 -0.061983336383018874
75925000.0 0.7683990581613301 -0.632943141950192 0.011176161522259462 -0.4235024596172712 0.00038944773452631294 -0.00040263050268245015 0.4688091750833942 -0.07381818431543477
76924000.0 0.7635666322489981 -0.6428862831247243 0.0006971697260243364 -0.44402011962227916 0.0018071956002104043 0.0012735986712776345 0.468912226229194 -0.07893261298589563
77923000.0 0.7572600613246255 -0.6468109262239039 -0.01588500582358156 -0.46780203541492293 0.006228376647859738 0.0015087613821822493 0.46870599534240975 -0.091433772836305
78922000.0 0.7516409759719319 -0.6574136200718399 -0.03204009496967173 -0.49581590718288215 0.002387596267068405 0.00044203026910158243 0.45281184397219126 -0.10751408715374905
79921000.0 0.741076885510233 -0.6615541168630523 -0.05166880688064526 -0.5216924195911711 -0.0018661714046211235 0.0032995824698095395 0.451538994701404 -0.11063051020421709
80920000.0 0.7370208212118182 -0.6731632075694997 -0.06284468115926584 -0.5433115725207684 7.329756952272877e-05 -0.0026799800365097984 0.46523666075471043 -0.12889045838543084
81919000.0 0.7328286835415898 -0.6780712908866592 -0.08056714665635235 -0.5783444078761839 0.006478490270648993 -0.0025097853042055883 0.4601338379708041 -0.13231399463117202
82918000.0 0.719910401181463 -0.6872549847529265 -0.09382910283040868 -0.6066206732976058 1.4856579610070937e-05 -0.0024033507600155434 0.4747546836000486 -0.13782823282919127
83917000.0 0.7140232532543532 -0.6937085079066493 -0.11301878029958719 -0.6380903318219087 0.008254378410069704 -0.0006603747628242244 0.479225401225344 -0.14672039021692956
84916000.0 0.7083064430083574 -0.7012917735535248 -0.12750503871716784 -0.6724656279087681 0.0026498443877145945 -0.0023088502767172813 0.4623737020673532 -0.17074350229666288
85915000.0 0.7026714725389441 -0.7056387745950132 -0.1483081587189069 -0.7029086577944587 0.0012687220678571135 0.00451356152583881 0.46140735908972075 -0.16260104814499038
86914000.0 0.69347773986132 -0.7179167193859156 -0.16578057784337477 -0.738122524975303 0.004029030665525617 0.002442797744156116 0.46865841924803964 -0.17188531460520035
87913000.0 0.6871818818765314 -0.723526934510132 -0.18516973195649644 -0.7685896512965545 -0.00396926323415436 0.004511651327406681 0.4608264801799278 -0.1823891419492362
88912000.0 0.6789981056110064 -0.7305321653628022 -0.20179935418625522 -0.800254690637306 0.0015526622002044227 -0.0014415098174332221 0.4678448906369983 -0.19863424328613408
89911000.0 0.6724029026741803 -0.7385517976149925 -0.21559757698634036 -0.8351179578997323 -0.000266329140859688 0.0015250973449107898 0.4684858241836991 -0.21036183043489656
90910000.0 0.6647740513732594 -0.7431082834027508 -0.22837622315668996 -0.8698693473353833 -0.0006123902693680344 -0.0005768489824281102 0.46393395005260474 -0.2069855108663098
91909000.0 0.6559097596829082 -0.7488322332396687 -0.2519206295182677 -0.9044890434052365 -0.00033195824949197855 0.0028039231713018658 0.4703730962920028 -0.23185517098756772
92908000.0 0.6482196035751698 -0.7584783139885081 -0.2720851097293936 -0.9323940086447059 0.0007143917899052028 -0.0005918934600044511 0.4577312620761798 -0.23405213359879368
93907000.0 0.6397934088434584 -0.7630969405923911 -0.28691529879077604 -0.964347823068938 9.299957639831481e-05 -0.003062671277099574 0.45765049200666763 -0.2588330361894614
94906000.0 0.6280434643162138 -0.7714068482893373 -0.30543701201375456 -0.9987984098250805 -0.001696132420536919 -0.0023123452405736417 0.4578222312632732 -0.2427950836757573
95905000.0 0.621647262914392 -0.7769730837854325 -0.3308599402567573 -1.0313244669444699 0.0006386901609754811 0.0002484611822661924 0.45440688041120175 -0.2617971638749354
96904000.0 0.6131323295320991 -0.7869163736754634 -0.34270093548795133 -1.0724903024012304 0.0024524688818130993 0.0028003192560560673 0.45953089990418416 -0.27556619622016537
97903000.0 0.6030876311425278 -0.7914135814635066 -0.37014810892290534 -1.1021017279660696 0.0018092895395234868 0.0005591158119029444 0.44699082538220336 -0.28996048403383606
98902000.0 0.5974819806875143 -0.7991223629668518 -0.3877132342629407 -1.1403533691682461 0.005265314303870797 -0.0009108452054842174 0.45207085836808775 -0.29731482508502716
99901000.0 0.5858213087113966 -0.8046487221668015 -0.4217501516146152 -1.1713585412917127 0.0007545894619538679 -0.0018880851288922786 0.45962116739554193 -0.3101899939826545
100900000.0 0.5766529026580484 -0.8085604629370938 -0.451054845832016 -1.1981974622538043 0.0005426715141769022 0.0007898179957629151 0.4607571784693458 -0.30581092635477797
101899000.0 0.5677445760598374 -0.8167179703744957 -0.4802779520813005 -1.2401547715690941 0.0034511829749128346 -0.0017431817450202362 0.4474117932144474 -0.31596304201382874
102898000.0 0.5594449598103755 -0.8217706410481986 -0.5161728184267749 -1.276425837376132 -0.001106214272982973 0.00021356924219735648 0.4432251699281216 -0.34629752751526793
103897000.0 0.5502443970652799 -0.827438050625705 -0.552204321378318 -1.3119507024759394 -0.00058787925304666 -0.0015591198901823752 0.45819840704439707 -0.3317170501300423
104896000.0 0.5429643401033818 -0.8399709071629203 -0.6044441778189482 -1.3432297035138017 -0.0019210718369014747 0.0010460546567287936 0.43563818726718573 -0.3324947484014754
105895000.0 0.5337656037488591 -0.8405338982787166 -0.6467549645995343 -1.382757391087408 -0.0022205178397452304 -0.0013438518285782755 0.4330399621086355 -0.3548314814583841
106894000.0 0.5232353431838708 -0.8467660504007333 -0.7054437941679266 -1.4196834480383151 0.0008143359106250529 -0.000989963117679879 0.433623681376886 -0.3820948158627081
107893000.0 0.5154575022564101 -0.8551492072191748 -0.7593798635240472 -1.4592090520892471 -0.0010131651498290974 -0.0007539390241927942 0.4347573945137477 -0.3889080507672958
108892000.0 0.5045889668463938 -0.8564330437704332 -0.8171913538127706 -1.4886435259825141 0.0015945354414441933 0.0001704876366289704 0.4179753063233139 -0.38018989877287895
109891000.0 0.49351579221314884 -0.8649388148309843 -0.8776217334851474 -1.5263331859769431 0.00011144267158364748 0.0016173427236075536 0.4389668091617603 -0.38094209542966334
110890000.0 0.47604231334053687 -0.8796250060346114 -0.9597044119678305 -1.5322783967182596 -0.002355577964028235 -0.0007536731969929632 0.4357758400345296 -0.40086029826137687
111889000.0 0.47023474270123305 -0.8706492584495235 -1.0033329697572884 -1.5897434817598786 0.0033072082955359 0.0015678800815555147 0.412654983135808 -0.4084085715422559
