! Created with skrf 1.9.0 (http://scikit-rf.org).
# Hz S RI R 50.0 
!freq ReS11 ImS11 ReS21 ImS21 ReS12 ImS12 ReS22 ImS22
1000000.0 0.985196334965584 -0.0011461207542408363 -0.010359284311539844 -0.05873591918368763 -0.0008158318506274418 0.005856477027402891 0.34761098832759985 0.310953549222242
1999000.0 0.9985968923780686 -0.014930667639262311 0.010284018415011746 -0.025858474512037623 -0.002746264524990339 0.002210673458401215 0.2800292842064877 -0.048337579872828995
2998000.0 1.000236929808877 -0.020998023339165128 0.01454940294748363 -0.016667026777195587 0.0005874358342872078 -0.002196738175093084 0.20936628417871303 -0.1265153544404725
3997000.0 0.9984398276517388 -0.02906525198180903 0.014283176868416493 -0.012393932710626278 -0.003160735317281021 0.0013758197122052157 0.0951828192852884 -0.22104861363463496
4996000.0 0.9973129165803171 -0.03871307188885353 0.011043635066775432 0.0032805772068780887 -0.0018046354900400248 -0.008519705459773127 -0.0477680310787379 -0.22326924599429435
5995000.0 0.999925510974793 -0.045877669428700606 0.011641871707577757 0.0009487345405652604 -0.007001241167200104 0.0006639961642686908 -0.12771629480545518 -0.10616143297434365
6994000.0 0.9963435496328369 -0.05800773676544058 0.002901920153057381 0.005442125907609951 -0.0035524144813794244 -0.008743322982629989 -0.14619959490766243 -0.02763958933840017
7993000.0 1.0003056996882798 -0.06846333309079461 0.004089899104078915 0.005626606114191261 -0.0031974484575087404 0.0006386706844148844 -0.16399462965946376 0.03329291418703571
8992000.0 0.9991845021450952 -0.07177271186396718 0.0049554602876890844 0.004851573631311434 -0.0010806312141644027 -0.0008648087687451886 -0.1616094018545645 0.07396059708554203
9991000.0 0.9968619722415644 -0.07958679578842624 -0.0007070470700581502 0.004957622939650229 -0.0048626235226124975 -0.0016292005567871714 -0.15223899393079682 0.08918391169879691
10990000.0 0.9978068673016278 -0.09009982079711247 0.0058716801453098134 0.003464461061705633 -0.0036826499107449396 0.0031147893262611337 -0.12739044017054185 0.10444763783904161
11989000.0 0.9936108889870873 -0.09863161181026106 0.005710953890968227 -0.004837164374324575 -0.0020385976091611946 0.000724594668985537 -0.11344208163303575 0.11877621066848214
12988000.0 0.992196164501469 -0.10905169981515236 0.004235789422271484 -0.006490052370156423 -8.627840182611991e-05 0.002751442707894827 -0.11240476226739096 0.1658593722332607
13987000.0 0.9918759915634832 -0.11905540090628863 0.00016388402261106977 -0.0018903356632134977 -0.002211860437233021 0.00434234266620028 -0.09500496207722016 0.1901659175702785
14986000.0 0.9905042042770738 -0.1250450515991772 0.0026873602808521993 -0.004009942133073492 0.0005390849900623924 -0.001411838412963194 -0.07823111647462193 0.19885884781156743
15985000.0 0.9935308986617676 -0.1325894794217862 -0.0027204069625340922 -0.0040372966273356774 0.0020841320930832657 -0.0037024905533951553 -0.07091978856646206 0.2128341915173601
16984000.0 0.9919413016549469 -0.14086294245148254 0.0024181127740401215 0.002264494090525296 -0.0009792194041152605 -3.2549098334734266e-05 -0.05187738519559018 0.21283943562344917
17983000.0 0.9899408528457305 -0.14870767672540547 -0.0040219435558804415 -0.004199837654030426 0.0034949993074973222 0.0018245203300301252 -0.048044858294841224 0.21970387465447355
18982000.0 0.9849522506192052 -0.16083005116321514 -0.0025511364804561513 -0.005875696652634971 -0.0023862700675078385 -0.0016195783799854014 -0.03060439577800123 0.23634575530155702
19981000.0 0.9854456355082502 -0.16496585580883347 -0.004146010004658707 -0.007238755773651291 -0.00461078228576908 0.00016054019815004325 -0.010336083625736011 0.24773204370853177
20980000.0 0.9841567679681685 -0.17549096658360636 -0.005119976183931914 -0.0068852896335426595 0.005031159854552366 -0.0022394507665364338 0.008062510934213146 0.24576184889548192
21979000.0 0.9834012119441212 -0.18306022247291598 -0.009132095561328307 -0.0020667080853540606 -0.0027502281165929575 0.006370871478408708 0.025405447059325584 0.23948126110818316
22978000.0 0.9798362697100356 -0.19316066372510288 -0.006894846777221415 -0.0035140560485910667 0.0017213605967895378 -0.000545287354553878 0.03102021085565 0.25906813531716133
23977000.0 0.9818588324420573 -0.2011840366443618 -0.008391306957651487 -0.0018514959554289442 -0.0024720773113814467 0.0032578732889805705 0.048882175079675606 0.2484289418834286
24976000.0 0.9786113722448591 -0.21055690539859695 -0.00682343285900924 0.00012314466266134493 -0.0015655728835274666 -0.001979055725178928 0.06336948117691184 0.2483766401988299
25975000.0 0.9683195640526513 -0.21924460941351168 -0.0032108273840944974 -0.0033324073498371847 -0.007316317274261059 -0.03035097994187913 0.08464897949073635 0.2587447173948425
26974000.0 0.9742739243560574 -0.22553017430456462 -0.005937654091638935 -0.000512586956493641 0.0015547516049356752 0.003235541239707809 0.08732376050914381 0.2638122233907135
27973000.0 0.973029924194365 -0.23303400536253988 -0.005717708618624351 0.001253138447622141 -0.0004822749171410086 -0.0001592047173096117 0.10633488758954808 0.25308213154294035
28972000.0 0.9698202103370885 -0.24144726503881847 0.0009755973601104053 -0.002169830829380394 0.0035093976483606564 0.002682479099672669 0.12127800472339377 0.2479153492934886
29971000.0 0.9669125635839978 -0.2508031271085379 0.0013760096067780615 -0.0032401809474247706 -0.0013553121438531438 -0.0020004076559602033 0.14736391813119173 0.2592063923247716
30970000.0 0.965303624492867 -0.2565129937877106 0.001437344082454075 -0.0008456331766051124 -0.00359390176394815 -0.00327411543124099 0.17227367478996658 0.24891296200752752
31969000.0 0.9629734591091538 -0.2653678811713108 0.003107850421199575 -0.0045059071199426235 -0.00019731290798150573 0.0004930916714900809 0.15669423255648793 0.24574066590113505
32968000.0 0.9623951312905028 -0.2735638716156353 0.013006019810681313 -0.008509576484776741 -0.0015307034988673424 0.0010335276138813494 0.16501100372582303 0.24467181427249932
33967000.0 0.9588432785189037 -0.28387042834560994 0.010095441377885539 -0.008521618790498467 0.001145112235073642 -0.0005199086824564944 0.18438576145742155 0.24739986351808446
34966000.0 0.9558851956471554 -0.29388994293034176 0.012922895098873895 -0.012403781090598991 0.0004866110999500543 0.000563244710219633 0.19564151520243103 0.24736532959632182
35965000.0 0.9537976364309717 -0.3000117194572438 0.017354694452749963 -0.012730188402835586 0.004882708120558439 0.0009458080936155516 0.2139647967514967 0.2518146862200271
36964000.0 0.9511915506366092 -0.30948961011239606 0.01725554163694082 -0.015426539995274432 -0.0008060700864652299 -0.002976198164096258 0.21046152979299926 0.25161947497399817
37963000.0 0.9468181839883981 -0.31745208033798084 0.02072417817738056 -0.020979650476644823 -0.000972507658674713 -0.0019910166133960384 0.23830541972467084 0.23589487233691295
38962000.0 0.9459173324570062 -0.3262158165010119 0.022826988665288653 -0.022909793959675486 -0.002227693283055037 0.00047665375639710354 0.2442733827974123 0.22790492606503457
39961000.0 0.9439893769837833 -0.3318950327961671 0.025141547014490118 -0.02932785653620433 -0.004276063917386876 -0.004659366716563744 0.24716627875235242 0.22627343625073276
40960000.0 0.9384294289203162 -0.3415843584259811 0.024553560256494963 -0.026060801315973978 0.002319134375629397 -0.00021092184289458189 0.2674135819480914 0.22722795157878664
41959000.0 0.9348075356927672 -0.35255951240182987 0.030363574106406357 -0.03083708556243228 0.00019208397397761455 -0.00032377080386743814 0.2790746238573009 0.21673335928718035
42958000.0 0.9323360868275934 -0.3595890149031392 0.0308691343858322 -0.04087705236400287 -0.0003195278350694471 -0.00112469477220081 0.2885686081380402 0.19697175209220782
43957000.0 0.9296384799285322 -0.3669261359744875 0.03473003774396375 -0.04973748825928842 0.0018651243073774008 0.00137328104528169 0.2974147452116661 0.2021357095188273
44956000.0 0.9265145954692009 -0.3746562283261056 0.03539876864610313 -0.050804655260513934 -0.0012706821840147813 0.0011117468811413082 0.30286272422287047 0.19408929018959678
45955000.0 0.9224136099956269 -0.38420009804376093 0.03635922732496786 -0.058428832197309155 -0.0010511972523128894 0.0019344170104067095 0.3065415204053318 0.18745730342557354
46954000.0 0.9199623174586755 -0.3918133292896799 0.03725082736851643 -0.06450864849956932 -0.0018300596317466758 0.0038876873773814715 0.3324366353201856 0.1737361211665379
47953000.0 0.9172335544275785 -0.39963007085071867 0.037604316113123974 -0.07290745947483182 0.006423136529120478 -3.627872712959787e-05 0.33355473675632197 0.167584649008854
48952000.0 0.9104632087856436 -0.41032742725870713 0.03529549821211846 -0.08007525825745643 0.0012798523081738076 0.0039554431895126715 0.3377034395223446 0.16289956812643225
49951000.0 0.9098044166886112 -0.4131701146185379 0.037628379169015486 -0.0894786158920823 -0.00024917105586980874 0.002153536098472864 0.35368219460242106 0.15110155871206352
50950000.0 0.9053842910031156 -0.42554275557784516 0.03701452684971556 -0.09775528544964557 -0.0017174317152304237 0.0036952389438330894 0.34822973950964337 0.1447644079394031
51949000.0 0.8997625645763873 -0.4324309869527419 0.03684849110602955 -0.10475780782499633 0.0024936106825557075 0.00031443117145101837 0.3650177322676655 0.1461441156364869
52948000.0 0.8997989129340415 -0.4388178415603875 0.039668547240989165 -0.11232493750365238 0.0020626283002344228 5.062232701500948e-05 0.38689842205225816 0.1368393853335827
53947000.0 0.8944925427371618 -0.44688886243182047 0.041889981375615906 -0.12402333016074255 0.0018608877480663884 0.0026975231057576516 0.38029860154960127 0.13227482102205868
54946000.0 0.887815604065091 -0.45888937876087044 0.04441222667638436 -0.13210925930700487 -0.0010426541527510397 0.002115313054958063 0.39566806499222157 0.11196159261247199
55945000.0 0.8860708674891861 -0.4660879858180871 0.04631632496927417 -0.14222594896709456 0.001188683023273522 -0.0018137619928152975 0.38797570730807823 0.10812800847123921
56944000.0 0.8818240932556775 -0.4729605356832666 0.04691609867544299 -0.15535613246691005 0.0016673322049253752 -0.0008441331353167504 0.40341483859525795 0.10264066715377491
57943000.0 0.8773428216461036 -0.48321195052590865 0.043918351431241245 -0.16373982087617533 -0.0009701660451139493 -0.0002156706140876826 0.40107209410612593 0.10105774832548384
58942000.0 0.8728375797873283 -0.48676097736774154 0.04723350341617352 -0.17680775615621144 0.0006690187895929835 0.002325315165889463 0.43219884942605347 0.0887801416569919
59941000.0 0.8688945504729776 -0.4970494370536618 0.05040054262771457 -0.1859117788605174 0.0026233655497710714 -0.0007446525204115835 0.42136749490867864 0.0859815639261969
60940000.0 0.8609431409476184 -0.502470459375722 0.04895457853822479 -0.18665539761119898 0.0017336787829768205 0.0028930004067500596 0.42006044109316437 0.07617117180571799
61939000.0 0.8591653625209268 -0.5104666553579035 0.05206479286465742 -0.19615662241272996 -3.660561151702165e-05 0.0008401230196977046 0.4214944399027924 0.06516750897948566
62938000.0 0.8529264242092396 -0.5214505281449434 0.05385485115851269 -0.21417623218540016 -0.0015942451924964875 0.00030667309690586954 0.44690671131627924 0.0519678009567257
63937000.0 0.8493439942299208 -0.5279160001766989 0.057156768418012906 -0.23540308577259486 -0.003745135888379643 0.0010024072550469806 0.42884545666942797 0.03653610719876629
64936000.0 0.8414295285105325 -0.5346226256375081 0.05641515940061167 -0.24777268893163668 0.00037153127611068735 0.00511948615273648 0.434962636386931 0.04375358785448873
65935000.0 0.8401698936864459 -0.5437337141247597 0.05297117090467635 -0.2598509340521938 -0.004381908072973696 0.002541096282868469 0.44496144028727214 0.018199006271552503
66934000.0 0.833824040759444 -0.5497252187562373 0.05398212801581897 -0.2759964262633191 -0.000923350218992375 0.0025949996155820013 0.4415585079014236 0.006139975253896329
67933000.0 0.8317849048608846 -0.5585389992449667 0.055101226207831804 -0.29123329963622524 0.002471803167855618 0.0019255418128617543 0.44723135359652616 0.0031720749532445926
68932000.0 0.8140166988095684 -0.5630738944793768 0.048303429849296184 -0.3029490464212656 -1.8429437505075014e-05 -0.0004764399731521868 0.457899060672881 -0.017560052969829605
69931000.0 0.8191599779249288 -0.5742436767993445 0.0518235569349996 -0.32060925924184547 -0.0006809500822766032 0.0001670327212628931 0.4487972638679279 -0.01659506603637089
70930000.0 0.8114647787257794 -0.5811753500971304 0.04819746624704149 -0.33340929139021497 -0.0026721459736452533 0.0014150441463189267 0.45748772394922094 -0.040226457957436186
71929000.0 0.8088152325975927 -0.5915114887836938 0.04543727088659881 -0.3540459336292084 -0.001231561699225267 -0.00216389335642988 0.4533330343091265 -0.044435068387145636
72928000.0 0.8037478185524656 -0.5969053429666656 0.04471534005374889 -0.3677337766018749 -0.000570539152169817 0.0024406688729070453 0.4700478391869886 -0.055939685811085084
73927000.0 0.7974586051997745 -0.602861912914417 0.03157755219753837 -0.3868331360368083 -0.00010501923878239646 0.002536610714881092 0.46209474515267723 -0.061244293078149895
74926000.0 0.7909090215363134 -0.6130355023695376 0.029563073749013184 -0.4050897391324951 -0.003005451045713272 -0.0020187736943800805 0.4617809917957842 -0.054862781374460906
75925000.0 0.784729034707322 -0.6198338391829818 0.01813253481408256 -0.42442200428476395 0.0009607450442892444 -0.000832800270208084 0.4671850983586827 -0.0742031192982339
76924000.0 0.7807838995551128 -0.6262145737209501 0.0007278473018258267 -0.4515486370464042 -0.0029584857266285007 -0.0012456677951345752 0.47354354092312145 -0.09731338229653709
77923000.0 0.7717660549555097 -0.6337785339520494 -0.008805330791568032 -0.475707644720632 -0.0012826724609328137 0.0008498727280978957 0.46156985161679936 -0.09204720654341342
78922000.0 0.7662391822569729 -0.6436587252536593 -0.02270970491109126 -0.49930683027807776 0.00501999805835346 -0.0014694677444324804 0.4622635887614401 -0.10197853995029654
79921000.0 0.7612179002196588 -0.6494660760241242 -0.04301790068813348 -0.5275762004651042 -0.0011055805906120448 0.0005368818133285218 0.4699230649637537 -0.1122395965070781
80920000.0 0.7547109229771237 -0.6585383067795054 -0.05911945887109152 -0.5517841335941343 -0.0032547592815286817 0.00063052036844094 0.46618882512987697 -0.13719795899365608
81919000.0 0.7487044959181751 -0.6638149964258953 -0.0756364059033668 -0.5821562870596015 -0.0007771423819873394 -0.0024534961782093825 0.4733366477085022 -0.13964213067007122
82918000.0 0.7411319553573271 -0.6719948918803066 -0.0909202822557527 -0.6145471005322002 0.003263781122219945 -0.0022464770647484286 0.47376133471563336 -0.15562433618641272
83917000.0 0.7299364137912182 -0.6806613553637487 -0.1122394438165947 -0.6390600664661668 -0.0001547326449101584 -0.0042762154676483635 0.4735437349569695 -0.15647088640384002
84916000.0 0.7269320647113363 -0.686505618114312 -0.12583366951995265 -0.675727594114036 -0.006658264764991029 0.0020477663145434715 0.47296310497373717 -0.16232282603072715
85915000.0 0.7208082476617587 -0.6929491053236051 -0.1497431138358968 -0.7064016373138794 -0.0009390189237899818 0.0007135899948971429 0.47149329373596693 -0.17047345046959425
86914000.0 0.7134749402029661 -0.7022858031993626 -0.1635266020962339 -0.7433392231275435 -0.0021728146540384787 0.0010899101001438818 0.47566194449165455 -0.17723612113905604
87913000.0 0.7043257408358251 -0.7083474458491864 -0.18236973408050822 -0.7731877547687914 -0.004638832283152001 0.0028622932210356773 0.4659883121268731 -0.18810611104147562
88912000.0 0.6985434184022435 -0.7158170519335986 -0.19648599527620692 -0.8082148958094737 -0.00022982805906838333 -0.0002187227425528943 0.4649006555480344 -0.20632365508590597
89911000.0 0.6936548923823088 -0.7220429085546699 -0.2161613770016399 -0.8445686674171349 -0.0014656525780660302 0.0019004068700171548 0.4704658789579848 -0.21185013136009803
90910000.0 0.6851670672314253 -0.7285930654339824 -0.23045359367863746 -0.8816090082766858 0.0017908078718350661 0.0026955688888013157 0.4623790702269214 -0.21595759354115746
91909000.0 0.676202304170595 -0.7330359287261287 -0.24929710554697115 -0.9144770772807279 -0.0026049317855061692 -2.090399539904521e-05 0.46851402978689216 -0.2230237791937154
92908000.0 0.6689591937116667 -0.7438549501553624 -0.27152638917883753 -0.9450253555220105 -0.0003157580291458737 0.0015035146556182661 0.46130070851939514 -0.2433194373524319
93907000.0 0.6642066227514046 -0.7476175489367363 -0.28827024510012933 -0.979222706835841 0.0035467274253007768 0.0018541673088260735 0.4670912206675014 -0.24557862202020658
94906000.0 0.6489432125805339 -0.7573612973044345 -0.30597497091121306 -1.0102727547751065 0.0007952959302186565 0.0022359666697736444 0.4604423404062579 -0.2507348924785054
95905000.0 0.6429353982860168 -0.7644822831719523 -0.3364373681173516 -1.045492019355131 -0.0009148243818315842 -0.0016962478215480368 0.4678501079038454 -0.26826828695237204
96904000.0 0.6343134468222593 -0.7736527341220122 -0.3499850353072502 -1.0835813830820382 0.0030941037124739353 -0.004961661783863851 0.45504487565778845 -0.2704566978327359
97903000.0 0.626971769444747 -0.777785447393639 -0.36913047341406957 -1.1151870966551332 -0.00044999532490928146 -0.0012273259846140266 0.4360304088863166 -0.2910069664328186
98902000.0 0.6228285120903554 -0.7852513111789842 -0.39332507758702007 -1.158780079748597 -0.0011190685397200902 -0.003417314572864012 0.4439046627155753 -0.28896340731201825
99901000.0 0.6117683133103546 -0.7896210011128147 -0.42097129258531696 -1.190728623273602 9.514605901197243e-05 0.0016765772494431893 0.4624682912189801 -0.3137141655504204
100900000.0 0.6026681648006154 -0.7944981976290811 -0.45841542256329937 -1.2162848801461406 -0.0008475283540144353 0.0019218135285041526 0.46458848497842914 -0.3214642014990906
101899000.0 0.5942525851233816 -0.801573057732842 -0.47625454762727804 -1.2541076512247011 -0.003209583679691564 -0.0019237224801560014 0.4348236248639897 -0.32264023256584157
102898000.0 0.5854107368270696 -0.8081482805330885 -0.5173378838841112 -1.2958268824570318 0.00232574998373822 -0.0004913940466903003 0.4598947055030685 -0.34231939529662336
103897000.0 0.5779338710262812 -0.8148187458972563 -0.55545342960157 -1.329582831347056 -0.000678371433770645 1.3044705080966718e-05 0.4616327548960449 -0.32949357710900556
104896000.0 0.5702656549825801 -0.825205460988528 -0.5983210907471631 -1.3621216173705362 0.0004475578381013576 0.0014160387078674928 0.4390646855741027 -0.3409412459379392
105895000.0 0.557298158389301 -0.8259799774527792 -0.6479893123872551 -1.3992297087168686 0.0003102862411129161 0.0009260460736745322 0.43707700303863894 -0.36822178729640864
106894000.0 0.549527454286778 -0.8328928227047541 -0.704248080208065 -1.4393601848554984 0.001915755489725808 0.0046243159544396865 0.4320703508691628 -0.38319929157136845
107893000.0 0.5418905545386319 -0.8406699209546004 -0.7540639384695923 -1.4778821672865963 0.0006037422763213874 -0.0012291290542930265 0.42886850865178194 -0.39566771943614054
108892000.0 0.5342353878220892 -0.8415799606446093 -0.8106908591907906 -1.5141065168057026 -0.0024789129668442134 -0.0018738094766842276 0.42026492751408645 -0.38418023268067775
109891000.0 0.5211466481650116 -0.8522568457304251 -0.8665532737503124 -1.5442758267073329 0.0010027497972116752 0.003657776448471386 0.4380301135012367 -0.3855848415123365
110890000.0 0.5171947801639334 -0.8565212438977685 -0.9225673126632251 -1.566604279358816 -0.002881010468019772 -0.0007756653813059433 0.4222469470596311 -0.39376412312934383
111889000.0 0.4988483133153587 -0.858065188666002 -0.9927254530906822 -1.6145205615865967 0.0013300068825885317 0.0007551067227168197 0.41465871904787316 -0.4186070435940812
