! Created with skrf 1.9.0 (http://scikit-rf.org).
# Hz S RI R 50.0 
!freq ReS11 ImS11 ReS21 ImS21 ReS12 ImS12 ReS22 ImS22
1000000.0 0.9847860751514929 -0.0020146007953712464 -0.028052753341294492 -0.04091626974288456 -0.021635644499882707 -0.0026952279547925654 0.35195951913456813 0.3393371547687692
1999000.0 0.9940540829459011 -0.01563320981095795 0.0013291502260789057 -0.019450696397211958 -0.00685313309007551 0.0045953833629211035 0.25204122185335504 -0.055582553813924865
2998000.0 0.9999270534668455 -0.020655514152938932 0.008183847402700353 -0.01852795704581902 -0.00874477413274177 0.004165649485666125 0.19290995757006343 -0.15020322366819008
3997000.0 1.0012663847686551 -0.026582506832823954 0.014749817139366734 -0.012285965967934444 0.005199300382060532 -0.0025657345968757572 0.07943428265486183 -0.2297167122964011
4996000.0 1.0009636879499555 -0.03395548075397996 0.011363058346174341 0.0006058696607800023 -0.004361855305969776 -0.000513244614240924 -0.059211223555837016 -0.1951432804367875
5995000.0 1.0009350778325345 -0.04931255498134276 0.006828250636918089 0.00375773004910248 0.0006270457672240995 -0.006120321085224806 -0.1184987661636531 -0.09131775648980794
6994000.0 0.9980918431085801 -0.05654218740336718 0.0052020311074748365 0.0026612357789876735 0.0002862686630310456 0.002849680306467274 -0.14718287563297205 -0.024481523204634984
7993000.0 1.0017291414747762 -0.06690889828339495 0.004679846791586422 0.006834322753351518 0.0017228889059427309 -0.0021098243361662742 -0.15925298146514572 0.03850596770309712
8992000.0 0.9991313662016322 -0.0734511684679675 2.2223753003080635e-05 0.004458294876350885 0.0047223762227454075 0.004992947800342881 -0.1466333156931649 0.058807332951160425
9991000.0 0.9975090574094757 -0.0829991085049675 -0.001532140144006962 0.0010592539374589672 0.004143638631387511 -0.0016310158328394734 -0.13991797358776106 0.10109450905016848
10990000.0 0.9961581015154369 -0.09130671985763354 0.0028453438094559317 -0.0002896266512802395 0.005173315045183924 -0.004041503006082472 -0.12919016160833263 0.11211159913502663
11989000.0 0.9960813041937777 -0.09944240691788887 0.002891316411379816 -0.0037539340639102517 0.00013211621860439096 0.0028069122095886216 -0.10837061278327993 0.14326569093462815
12988000.0 0.9932435187737169 -0.11169726630050178 0.002223908708585851 -0.002851436639428625 -0.0007403743913545595 0.0028420748269393547 -0.10856773578713833 0.1694157858466977
13987000.0 0.9921948544495197 -0.11929361606094603 -0.0009336815100578695 -0.0023630884359828893 0.0016203414917320578 0.0003269883716090372 -0.09434911898648292 0.18624924090627723
14986000.0 0.9911464600444811 -0.12388675261824349 0.001977025183026025 -0.0011713056179669386 0.00045933924119300726 0.004567801548392863 -0.08036659702820953 0.20051451258598563
15985000.0 0.9937664907931709 -0.1345394502799328 -0.0006464991156929169 -0.004841583346601014 -0.0010459854981755632 0.002510177025173009 -0.07953365640508421 0.23375416294226292
16984000.0 0.9882818443588527 -0.14831770350050769 -0.0029100110003494758 -0.00736677771156732 0.001702759285338294 -0.0012261822628770248 -0.05596385308130945 0.22383113017474493
17983000.0 0.9904722046491833 -0.1472913652268404 -0.005438549514747567 -0.004321401387529167 0.0006482786371769644 0.0004081801404147167 -0.04715631695769527 0.2307973135645764
18982000.0 0.9857499399028848 -0.15907391426459286 -0.005864668719355636 -0.003975136721700466 -0.0015054195300254563 0.003021580242127939 -0.004427819375655835 0.23181205801820887
19981000.0 0.9858273264992535 -0.16735170093947102 -0.007937805076740856 -0.005371217305952825 -0.00095664730041956 0.0017816612262391434 -0.004325890316276374 0.24671520372935335
20980000.0 0.9837255429408586 -0.1782781240918612 -0.0043801356950843705 -0.00889292844325466 -0.0005559952704170002 -0.00038749829707358303 0.009388950319332515 0.2526769001604838
21979000.0 0.9841213707022393 -0.1853571335210643 -0.00493491510227854 -0.009821862853685302 0.00012787236619951002 -0.0018765897820362308 0.024426269386255615 0.2423929467530565
22978000.0 0.981100649132227 -0.19454616496174582 -0.004963182867417069 0.00010206251751588377 -0.0011601384851934683 -0.0003937937986015077 0.028592273034324274 0.2541101105264028
23977000.0 0.9813303290599332 -0.20175195668722296 -0.00787977500555442 -0.003784189664319145 -0.0007511261975081204 0.0007633743085367702 0.049487224400082366 0.252124663674889
24976000.0 0.9763569675323518 -0.21422573128601996 -0.003618694195711065 -0.0063333177958813216 0.001253183970235128 6.493021887697162e-05 0.06687069968145871 0.25405315596762845
25975000.0 0.9730139929443277 -0.22756771240344245 -0.0003309077694111044 -0.0050346742131585215 0.019478602489327278 -0.013571019999350568 0.09069795668603625 0.2613762402810705
26974000.0 0.972066374892274 -0.22970703429323422 -0.0018107014360362328 -0.0003229038231506779 0.00042531750620252546 -0.0031775325917199754 0.09975975949044649 0.25826120536272623
27973000.0 0.9736626607731808 -0.23565766471958843 -0.001669767191352821 -0.0026889581957110662 0.0013073400100575532 -0.003098390214256868 0.1135391024188827 0.2650459589277197
28972000.0 0.9671076589048089 -0.24757311867135315 0.0018654152110036562 -0.0003878039062221842 0.0006747991532634195 -0.001980591689682397 0.1186261091262191 0.24950728011537934
29971000.0 0.9665942770589192 -0.25294895834327036 0.001956596297221901 -0.003325338390314217 -0.000630854172418815 -0.0003345173458802577 0.15351457048476305 0.27184669198995
30970000.0 0.9646598583681631 -0.2615687492383513 0.004012512319957856 -0.0008040037244387755 -0.0017859472870637761 0.00032395443247243557 0.17810776456157681 0.2560917071302347
31969000.0 0.9638173042235112 -0.2689472166435703 0.004173763364033219 -0.0015066669558844463 -0.001830981641057756 -0.0023966778969042642 0.157441661267637 0.25303597119438703
32968000.0 0.9594244768390433 -0.2794186584717064 0.008849697995448122 -0.007961169274469769 -0.0013276481529522427 -0.00020595090419441746 0.17307420335118592 0.24004188211300195
33967000.0 0.9577142618395983 -0.28834198896108304 0.01231656395611418 -0.010910999647830122 -0.00013561178338899967 0.0017620893421062664 0.19588758406185763 0.25070118231154925
34966000.0 0.9558066102748668 -0.29497876860016325 0.015288592721675244 -0.013973410116028897 -0.000503712278722197 -0.0002733958134033725 0.20196424163472423 0.2579125261651918
35965000.0 0.9526803932053498 -0.30383776487971365 0.018131453304475333 -0.01602233564988671 -0.0007229463820198518 0.0025687722585975596 0.21921997118162273 0.2505754030768553
36964000.0 0.9508180895090601 -0.31335329381919835 0.018971912491389038 -0.01485760195822585 -0.0011284222977952691 0.0008957841938097841 0.22409948542656208 0.2501605849380555
37963000.0 0.945087398452346 -0.32440972436654336 0.024805841866482343 -0.020615377270015504 0.001951230242351373 0.0008977034016390945 0.23718340261342694 0.2396054839579366
38962000.0 0.9424395143968202 -0.33130811289264545 0.0256348518830831 -0.02684625586729723 0.001851256529433805 0.002137407892454948 0.2529807709885134 0.238463892344433
39961000.0 0.9411447179006319 -0.3383836809373938 0.02479197768100379 -0.031111187767660205 -0.0013573707668368719 -0.0019939496471668193 0.26462370182142075 0.23163412331374617
40960000.0 0.9375951045753049 -0.34468337292858053 0.025034352103467054 -0.02567423996264806 0.0005654818397490043 -0.00015629449463138906 0.28052095610788197 0.22416105744379364
41959000.0 0.9346342813025478 -0.35607895907940146 0.03111621824588342 -0.03312459340270536 0.0021401768368157787 -0.0005535491751472566 0.2807848554644319 0.21427720785659424
42958000.0 0.9303607743216689 -0.36587154564352864 0.03441744759507648 -0.04403554363977087 -0.0012811956885621022 -0.0018968878256264603 0.2957822314786682 0.2020661571899152
43957000.0 0.9279043513574711 -0.3722138122220493 0.0346995036919008 -0.04714915212159985 -0.00025629996977809597 1.9386973727405395e-05 0.3023396261092835 0.21326303197952215
44956000.0 0.923688494863302 -0.378805552170461 0.03355441058759336 -0.055936016274125235 -0.00039700003108337177 -0.0029288491461187966 0.30664031989706986 0.1988789974794288
45955000.0 0.9209328362805287 -0.3892649773320238 0.038214757389435326 -0.06130739256489871 -0.0011365004167940528 -0.00021322051625240988 0.3231261968354018 0.2009681340702778
46954000.0 0.9171163829077554 -0.39751978042255387 0.03949041095461186 -0.06773177760199324 -0.0015766739936664755 0.00013062517596469279 0.3306446667460527 0.19170810719005013
47953000.0 0.9136865781774648 -0.4060653978417215 0.03762289493020378 -0.07588512509030243 0.0006701305467754637 0.0012263696279647578 0.3430912021875902 0.17056203797877798
48952000.0 0.9091701821543634 -0.4129426450566735 0.03785768206683553 -0.08147745629790121 -0.0005004068416181147 -0.000959321217106545 0.3518828756155885 0.17254127731503627
49951000.0 0.9060881034725473 -0.421252636135992 0.039224405025114775 -0.08911187113525196 -0.0002381600290557747 -0.0006215858440836251 0.3609058459983001 0.15949300391005025
50950000.0 0.9030771938155681 -0.4263967319049233 0.03958741524099258 -0.09795482914418886 0.0038223596686946574 0.0009789367733068724 0.36667533618186343 0.146777096540698
51949000.0 0.8962736026971522 -0.4382241206474916 0.04006342059941987 -0.10735308411906004 -0.0022986648991336067 -0.0035240392884431757 0.3729111504865183 0.14360274556853472
52948000.0 0.8961759124546467 -0.44486146692322265 0.042698872293442935 -0.11797984352201123 0.0004306590070054205 0.0028439507736789512 0.3826783159632619 0.14561408359606537
53947000.0 0.8886185933760004 -0.4551606380515111 0.04545809030039279 -0.128507356215632 -0.00017593429820510917 0.0004541210518122627 0.37579808267750137 0.12738726029283265
54946000.0 0.8835846632236641 -0.46300499166739434 0.048136439451521504 -0.13696065863663187 0.001947801367452016 -0.0001428571281842692 0.40609429692047677 0.11556196514711782
55945000.0 0.8822407835194501 -0.47234468796736445 0.04790962023802484 -0.14807658426820303 -0.0034766111259437104 -0.004768757486040196 0.3936838552323378 0.11219243001492432
56944000.0 0.8785523958863869 -0.4789403313590216 0.04955473299502135 -0.15788390400871186 -0.0014502711641457087 -0.0014962679656222847 0.40831550609691986 0.10380413193113357
57943000.0 0.8720306261467373 -0.48971916782491703 0.04905398491660067 -0.16783890330326254 0.0020867476981430723 0.0016959545375671453 0.4101413232011313 0.09909887374493795
58942000.0 0.8659510577002496 -0.4932950916569299 0.050810832243475185 -0.18142142731390748 -0.002514099418566062 0.0023075776325111553 0.43005389002966565 0.08757761026536512
59941000.0 0.8639686903230904 -0.5016029655518434 0.05483230855785705 -0.18765802816414742 0.0019633068912834764 0.0014965090338313399 0.42806870987172124 0.08670847177392828
60940000.0 0.8567251990481453 -0.5114786276208575 0.05249101779173885 -0.19296477509366147 0.00036200329316566385 0.0011805709023206589 0.417788839067743 0.08015600829898865
61939000.0 0.8543549381292476 -0.515663769669898 0.054006678495542325 -0.20500063108790453 -0.001757598203094537 -0.0008886781916576185 0.42334207752559894 0.061373925125820385
62938000.0 0.8488821924645071 -0.5269252805224394 0.059132273433818244 -0.22202041350776316 -0.00031406847173605005 0.002576256669956893 0.46037528168305186 0.05763221306084503
63937000.0 0.8450403183161942 -0.5341336802609111 0.060134507178460604 -0.24362414264896587 -0.0005700005401400319 -0.0019439274548974485 0.4403677501764153 0.04241752674075101
64936000.0 0.8387486764499336 -0.5399230660181917 0.05715995972220053 -0.25921510355840843 2.7251715134081304e-05 0.0013278585627291076 0.45333076722006155 0.04459843076118664
65935000.0 0.8345386812868648 -0.5521122878047369 0.056830024340709495 -0.27147521141679654 -0.0031935057934279333 -0.0015801168660077734 0.4455802390370796 0.01669650521420291
66934000.0 0.8299537561955387 -0.5558629172169306 0.06014679653191334 -0.28620825938850647 -0.0028710452477684217 0.0009314339906651256 0.4476728869905738 0.008887330593884817
67933000.0 0.8270620693711447 -0.5640866425226888 0.05692491302623344 -0.30102826041605424 0.0009742466144214074 -0.000721756109852508 0.45462468304910836 0.007060806861666697
68932000.0 0.8184540571593893 -0.5573133584908361 0.05708177280057551 -0.31177801790381804 -0.0009933945497908258 -0.0011403760600985457 0.4655825197031236 -0.00527247255948906
69931000.0 0.8134091651704193 -0.5812497397210269 0.05258061825494192 -0.3306841945968662 0.000196805949526517 0.00025883984279080006 0.4564067043899182 -0.030830377154582953
70930000.0 0.8059964348341003 -0.588964020849084 0.05197518952881306 -0.3469724776123518 -0.0013967917351910618 -0.0003523813996608547 0.4589756858673278 -0.032949020865968875
71929000.0 0.8027192431109291 -0.5961537590449438 0.048764796134867665 -0.36666108423164406 0.0016981839356443942 -0.0015458352303914266 0.467476350098299 -0.0360793611443239
72928000.0 0.7960327865356343 -0.60667352754617 0.04275516252539283 -0.38508726176501507 -0.0023574166120287603 0.0020023241482164775 0.47623253270976407 -0.05485206756954113
73927000.0 0.7907260227208021 -0.6119569668539951 0.035242648255244105 -0.40818389360696 -0.00106788350828467 0.0006747262560198951 0.46652914762484016 -0.05712138133947843
74926000.0 0.7841126072704538 -0.6209544453625652 0.026915036466932683 -0.42694045734591335 -0.0015705835771716238 -0.002103527913867269 0.4681585473931181 -0.07021094851464137
75925000.0 0.7788110036484244 -0.6263332078743182 0.01949541176434958 -0.4471313103414124 -0.0011209708733259905 -0.0003316051398572795 0.4815221925844823 -0.07695801061379313
76924000.0 0.7719376804937457 -0.6326210069187838 0.001171054980003668 -0.4694563726071612 0.001483080011026872 -0.0021783848260104395 0.4841266535429436 -0.08772826793748213
77923000.0 0.7654773105675308 -0.6410269444690293 -0.004057683695119438 -0.49106909659399295 -0.0013785335670639554 -0.001279160731486832 0.4724997638285127 -0.09852686849788603
78922000.0 0.7603343145090783 -0.6500772075415429 -0.01845876440533445 -0.5220793156447767 -0.0034517572486680893 0.0001567583373581763 0.4695058593482145 -0.1061471087392147
79921000.0 0.7527127012912692 -0.6535575667290531 -0.043340934453964516 -0.5497227119047449 0.0028313392352133622 0.0012105077286582743 0.4640611720397647 -0.11107216370486286
80920000.0 0.7492131363402723 -0.6670154045786143 -0.052714009575935694 -0.5764351203761514 -0.0025656352626032795 -0.00047168617841908563 0.478354275218966 -0.12656774384391034
81919000.0 0.7420870299310716 -0.6717069650592293 -0.07018672431765897 -0.6063780020198266 -0.0018544255275472702 0.0021432710167594363 0.4781878577701382 -0.136895463428143
82918000.0 0.7328483934786375 -0.6786515364255651 -0.08739498433029252 -0.6374994607275428 -0.000635622987831929 -4.4215618054854673e-05 0.49405062829274066 -0.14141689281535008
83917000.0 0.723324925835538 -0.6870332009371989 -0.109457500284315 -0.6662035605334973 -0.00041800486256497743 0.0008121938036952968 0.4920196240778856 -0.15334732270325468
84916000.0 0.7191272636768749 -0.6949211258715701 -0.11942671113215386 -0.7036420793899104 -0.0011573246080732243 0.0025152210793433563 0.47439536033753044 -0.16914615319369428
85915000.0 0.7132899713909866 -0.7000402473272845 -0.1425434473099161 -0.7342731910903496 -0.0014536285808584995 0.0029095725346193566 0.4727372828495933 -0.17609232082627443
86914000.0 0.705332887538319 -0.7111788914372086 -0.16351174556514225 -0.7727133293655806 -0.0016001935758487842 0.0028979455662265776 0.4774071441095735 -0.17230206405653098
87913000.0 0.6990302362392147 -0.7159653085459852 -0.1842381239259085 -0.801047423815383 -0.0016552619110901442 -0.00025715975045718893 0.478042861516615 -0.1802818983647732
88912000.0 0.6915134420725352 -0.7234663250234902 -0.19596018569646426 -0.8390956976333553 -0.001212574344590389 0.0004327306115843766 0.4758745333475437 -0.2024741584900591
89911000.0 0.6854074525921509 -0.7307509759583892 -0.21689979688838568 -0.881117471858195 -0.00012966609568453185 0.000997621697374255 0.4740166380457307 -0.21339765677209935
90910000.0 0.6759545874189192 -0.7383345200329716 -0.23352181563180743 -0.9177442245489885 -0.001922450140828206 -0.00017254221895484216 0.46910631970520156 -0.21775843902508416
91909000.0 0.6674227587399499 -0.7407196535410374 -0.25240831094788413 -0.9506786955588289 -0.00033584905662133586 0.0031998711060390933 0.46596157501085633 -0.22291727277939258
92908000.0 0.6596860534537968 -0.7521455973410694 -0.27161689042738973 -0.983465322503318 0.0006054148817170581 0.0020723151801365835 0.47086218774685296 -0.23270427277608677
93907000.0 0.655897702263676 -0.7559797545266871 -0.2913470063495988 -1.0164677912123565 0.0010090767314685784 0.002469448117638573 0.47049138024306286 -0.2511205563269913
94906000.0 0.641400252287233 -0.7645222988414881 -0.3096156777285618 -1.0533201940818773 0.0026194280442811925 -0.000198413712938914 0.4649778833908938 -0.24292327101849334
95905000.0 0.6364647739412183 -0.7703232030985137 -0.3383802021895174 -1.0881866681623065 -0.0026620436717190183 0.0011964661264159254 0.4680356607592226 -0.2673085707766923
96904000.0 0.6246704981331228 -0.7805479032699505 -0.358600356511724 -1.1282694777107394 -0.0013794493559762676 -0.003145536875780772 0.45936417450248584 -0.26998745323746015
97903000.0 0.6170597393886158 -0.7841849928592446 -0.38466048342943404 -1.162662666845734 0.0009354446616730841 -0.0008075736160445867 0.4519449778823219 -0.29224904641067284
98902000.0 0.6131095920408511 -0.7923479389747291 -0.40467186435761626 -1.205341769258135 0.0024172912912100567 -0.0010710053859528527 0.45625803927612246 -0.2869936528721643
99901000.0 0.6038471921991408 -0.7970346195506278 -0.43517066506546825 -1.2413162182467763 0.0002734067668767546 -0.0012415177205159014 0.4682655357076126 -0.31214445177427497
100900000.0 0.5922258079613909 -0.8012060571716104 -0.4751463032423092 -1.2659187181269451 -0.00213975510210312 0.001653700586026281 0.48113421918515725 -0.3104509943567407
101899000.0 0.5824727434610051 -0.8089106771294405 -0.4998713248151823 -1.3073105258111077 -0.00036381098645395704 -0.0013860812245894533 0.46600892268419514 -0.3194874419186391
102898000.0 0.5725750608176345 -0.8133155884763811 -0.5377670707377388 -1.3476731972103446 -0.0002484018046525641 0.0020315125436489337 0.4604270733094248 -0.3340642872707551
103897000.0 0.5667315225197784 -0.8228520932654992 -0.5781775377883929 -1.387523120465368 0.0021874078983793958 0.0017179111220046966 0.4651144656130594 -0.33540060601388033
104896000.0 0.5590835216874784 -0.8315945441755417 -0.6296900474569487 -1.4249947176514957 -0.0019840444667415104 -0.0014734987690841132 0.45951499316222244 -0.3414194169860916
105895000.0 0.5454063291489238 -0.8323760388438004 -0.6783453843277332 -1.4681576562080314 -0.00031173848307638525 0.0011894263278968708 0.44693637997106267 -0.3554104622086439
106894000.0 0.5400710927330797 -0.8397708453977769 -0.7330255718191355 -1.5104960430465315 -0.0015270990039338865 -0.00019320563284848025 0.44310458298184546 -0.376143681485526
107893000.0 0.5314540432797689 -0.8448792395150834 -0.78551699034418 -1.5472623029795634 -0.0030197147738052353 0.000985181587557542 0.44181226374373317 -0.38422291868996816
108892000.0 0.5188033954271012 -0.8501723689054537 -0.8512139002757705 -1.5776419562566504 -0.00017524836940109083 -0.00017441899296595772 0.4432565836835946 -0.37446641882704046
109891000.0 0.5073628283809257 -0.8564113932581159 -0.9107250298812304 -1.6126066049870416 -0.0012149726050994759 0.0033253762515050526 0.44584747821849907 -0.38240132052492315
110890000.0 0.4910523029442488 -0.8593313089892336 -0.9772533668715175 -1.610709912503888 -0.0036893314000405954 -0.002301092940468615 0.421871394931869 -0.3826578525762134
111889000.0 0.48867391559166784 -0.8643637770761263 -1.0398972649655285 -1.6888838311788095 0.004288962408570051 0.00017761464116727572 0.43394132394567275 -0.39629006816380935
