! Created with skrf 1.9.0 (http://scikit-rf.org).
# Hz S RI R 50.0 
!freq ReS11 ImS11 ReS21 ImS21 ReS12 ImS12 ReS22 ImS22
1000000.0 0.9888548595201849 7.75662646903918e-05 -0.00036005915033793663 -0.05253204659830304 -0.009696180499753264 -0.006216073780225306 0.3856615751904688 0.31741745703978913
1999000.0 0.9976767380941863 -0.011023921262157135 0.0030546679037129817 -0.022671269196196882 -0.008569439648844485 -0.004301251179518826 0.24284030943975576 -0.03648310194108578
2998000.0 0.9980747348825452 -0.021681393215082376 0.014818775580282594 -0.014011925133657411 0.00039307833215559485 -0.0003551960642909433 0.19662256998137242 -0.1438287392245385
3997000.0 0.9984712449045405 -0.026574946194060436 0.012960063568005149 -0.006934223132822139 -0.0015467790992496255 -0.0035574046078320244 0.07425938591307714 -0.2316612308025939
4996000.0 0.9965396779523593 -0.04067252969275388 0.01334017585578303 -0.0018110552391308941 -0.008288998745593896 0.0007733996754536516 -0.052404396784500824 -0.2003140562858548
5995000.0 0.994457898785056 -0.05041558863735914 0.006358536916481869 0.0010772422691935355 0.00200038721404734 -0.00442245603261083 -0.13024089105243575 -0.09330471957922364
6994000.0 0.9967827429997183 -0.061004826832370615 0.005956296731773609 0.002798317593619964 0.001008538488713263 0.005690997064599838 -0.14965326116629682 -0.020339479948665112
7993000.0 0.9928794227612354 -0.07021816383640371 0.0053820539930842385 0.005761976268445228 0.0020865812226058085 -0.001176397308722206 -0.16922364329611714 0.041930129177341006
8992000.0 0.9951782519883705 -0.07164930936451205 0.00522648482462926 0.005040315415578678 -4.917357557035648e-05 0.002070893548969861 -0.163943869288408 0.05841590896926444
9991000.0 0.9925965122945631 -0.08115536062343254 0.000950796211661754 -0.0017102476435492191 -0.0014395198227806175 0.002090212984798836 -0.15786165062823385 0.1097792782948104
10990000.0 0.9930064724044951 -0.09267321987921161 0.0015654775730078198 0.003708627948191831 0.0056253129907331 -0.0017636704421998516 -0.15021669343843422 0.11146267762091253
11989000.0 0.9924915501334907 -0.0966855979689886 0.0009952945713443283 -0.0010891031614904578 -0.002556277857728957 0.0025609988699303744 -0.13384090950181815 0.1470349062798563
12988000.0 0.9907644289694608 -0.1119167064687759 0.000835220408205945 -0.0030323975435375054 -0.0007259177456923976 -0.0010812520712848912 -0.13068411353142162 0.17517271635305112
13987000.0 0.9873004975983705 -0.11647361587505614 -0.0006613394276520163 -0.002087406239549193 0.002565321111620982 -0.0017676833741571735 -0.10344255635736481 0.1850013305904944
14986000.0 0.9894383438702692 -0.12384788469836212 -0.003099971665468405 -0.0015164912799924175 -0.000805813444595153 0.0006321337763533081 -0.07964196603478765 0.20154645328639184
15985000.0 0.9897638150861089 -0.1314194765024993 -0.0007860610670850307 -0.002045245616502366 -0.002925042338805916 0.0019315214776680113 -0.06341889173673446 0.2123520499227035
16984000.0 0.986789192518993 -0.1441978218272164 -0.0022538801285382328 -0.0014081343180181636 0.0016265714104047072 0.0017543140976900462 -0.05409024693785295 0.2235337460911933
17983000.0 0.9857490392010416 -0.15087205331413586 -0.003257358015891888 -0.005181649321905609 -0.0030308319549196792 -0.003001284386648115 -0.0597980520746978 0.23599896482364435
18982000.0 0.9816995967507082 -0.16045595048017672 -0.002245606496029335 -0.0032149213997842703 0.001232666488512271 0.0028941765702525523 -0.020781461207781463 0.24715712881379626
19981000.0 0.9820421890028681 -0.16792663550031353 -0.003723440260198735 -0.00482368159401418 0.002605033784419708 0.004631471939117404 -0.02063951955082898 0.23807654977185586
20980000.0 0.9817183838454027 -0.17601315425266037 -0.01022278612180496 -0.00356292324192255 -0.0012921178868275016 0.0015809262806786505 -0.0029274987009152353 0.2632592418166142
21979000.0 0.9777616170363315 -0.18505180364292087 -0.004300388888943474 -0.0008892748798186743 0.0006653954198370988 0.001657384474954683 0.01782580839020463 0.24202009523590334
22978000.0 0.9783023958378684 -0.19310761784012245 -0.0040618199910064596 -0.0004967529698565302 -0.00046440725417235467 0.0013294755107079233 0.024284696179536647 0.25823575829725365
23977000.0 0.9781703560366632 -0.20259745944139437 -0.008033911411706255 -0.0022428994287207755 0.0027173098257634396 0.004680897634739459 0.04700219160324329 0.26431340988852986
24976000.0 0.9749160824863895 -0.21000584221014282 -0.007376225867162126 -0.003205217094645595 -0.0028480072444691377 0.001644194868210976 0.06580323923223025 0.2595411433392322
25975000.0 0.9644399282720241 -0.22186188261315445 -0.002183684027437085 0.0028253368802350198 -0.005013797320663982 -0.02501702155852696 0.06550299452939073 0.2707049271989201
26974000.0 0.971513926197087 -0.2271119433431912 -0.005233759710719681 -0.0006716171628178026 -0.0043375929117448345 0.0007801217805381216 0.09394842022592814 0.26478113561780114
27973000.0 0.9673903550680042 -0.2358301447809435 -0.0023634772212223964 -0.0014147158728037444 0.0015099623601475363 -0.003640552459275609 0.09751991715531871 0.2600518868072673
28972000.0 0.9660396470513748 -0.24395148414152995 -0.0044570540780770355 -0.00344445851918656 -0.002626527483950559 0.0009099337002970868 0.11625723629138855 0.26031975887144687
29971000.0 0.9638730407785311 -0.2524405994790617 0.0021123682689616796 -0.0022305930099379037 0.0010122371735672654 0.000181576219141036 0.15550822036981363 0.2581555659334377
30970000.0 0.9618473014454344 -0.25791540106619426 -0.002532007382193489 -0.0006794572407750734 6.6278002170936e-05 0.0036899079558651905 0.16551704595804795 0.2518155494847795
31969000.0 0.9586614887799494 -0.2678444408069934 0.002364797848581135 -0.004752177862974621 -9.086892930153035e-05 0.0019257947249332035 0.14703739106631203 0.2472622622003051
32968000.0 0.9573379685020745 -0.2775811429371979 0.011827000331056709 -0.005676435323227467 -0.00033948319953112834 0.0003821099878583496 0.16725423072244214 0.24722258096388386
33967000.0 0.9569827538379331 -0.28494674207080506 0.010951296424302532 -0.009870840993910225 -0.0009344773589846003 0.0001157846925166131 0.18917185362990746 0.25106122818791604
34966000.0 0.9519304027989172 -0.29709940819209213 0.014197011352851783 -0.01626921437245811 0.0020108014381354593 -0.0010395871261670985 0.20041946737628488 0.2487741915424634
35965000.0 0.9493528846436343 -0.30469225004717515 0.017911650000422396 -0.013748318872952007 -0.0011211875703898621 -0.002123516806268149 0.21379016775859644 0.2514807400075624
36964000.0 0.9463865693357056 -0.31362093149372827 0.017532604997902698 -0.016654344567034678 -0.0002639486910761691 0.00230172479597457 0.21478857432599457 0.24931570941279793
37963000.0 0.9449667614815872 -0.32245564833012474 0.021713345501412126 -0.023596653655048334 0.002265409613156629 -8.288067809527376e-05 0.2328676132971785 0.24029075142059828
38962000.0 0.9424394282497682 -0.32925068738007185 0.023184430687608344 -0.02390324763063556 2.5108442050203887e-05 -0.0010840285504486592 0.24726605980635327 0.22730655444320327
39961000.0 0.9384635890194277 -0.3382890178970855 0.024181231514977974 -0.028033032455819614 0.0007603930653017553 -0.0003348519591431422 0.25038760605466764 0.2291656264783455
40960000.0 0.935538112413074 -0.3463538553150266 0.022053717654916823 -0.02428919827901304 -0.0011105830720231041 0.001219335116666343 0.2720814917416375 0.233029947868606
41959000.0 0.9317866357187238 -0.3551957368803608 0.029335850610779014 -0.03053718455968161 0.0029112785304107177 0.00019305095536477755 0.27678465863497637 0.21996092885173862
42958000.0 0.9278498294633432 -0.3641236273435782 0.030889958523460152 -0.041622579118417345 0.002513572412043332 0.00014822612165237695 0.2864919436902397 0.20072738522331354
43957000.0 0.9253468374115049 -0.3719465988250545 0.034404128201674856 -0.048897614730503164 0.0016706760142181161 0.0037778144835230155 0.29349485434653705 0.20627210547261354
44956000.0 0.9243455010366903 -0.3762623992445031 0.03564663509621189 -0.052117112542882836 0.002053574575678014 0.0011353704869463827 0.30975303682368616 0.1912976932963493
45955000.0 0.91764652993569 -0.38967452199622554 0.03449254935398364 -0.05727602399715786 -0.00027921348423377796 0.0017480865405311127 0.3046964211780504 0.1827288459501895
46954000.0 0.9159935425605465 -0.39722468436311986 0.038590308739906244 -0.06719949607205933 -0.0006258102871264215 -0.0019711682946353783 0.319879635828617 0.17195738419198922
47953000.0 0.9102270916104466 -0.40662870898694276 0.037430869656141674 -0.07174095708334906 -0.0017731538687530174 -0.0003174432097402736 0.345647690810874 0.17319089334347357
48952000.0 0.9071289167177684 -0.41393093977673123 0.035767252215208004 -0.08268221636787258 0.000812612162050685 0.0024097658299933023 0.33372446138389 0.1640845669465369
49951000.0 0.9026295233093851 -0.42213118780690934 0.039969084026432046 -0.09031727110419145 -0.001964679571653902 -0.0017595979129408628 0.35691285263995304 0.15690421133421234
50950000.0 0.8994045923323237 -0.42969312731241865 0.03740353141851566 -0.09796766035801871 0.004829086436218942 0.0007597108734316234 0.35847356378555206 0.13943137219394255
51949000.0 0.8955156436025362 -0.4368777572629847 0.040324220262316995 -0.10493788886977927 0.004708163082195823 -0.00343829488164531 0.3553406515872147 0.15122629864733755
52948000.0 0.8945708177047408 -0.4446854524673271 0.041076613048903476 -0.11506006959580135 -0.0019718729938630083 0.0026298227910210477 0.36944570087619655 0.14144300261269876
53947000.0 0.8867732264856858 -0.45467440162622597 0.04652634894016923 -0.12509201230317474 -0.0005005031389780387 -0.00029544656877027696 0.3759267248247883 0.122600591138493
54946000.0 0.8815899319282557 -0.463409708684155 0.04551411387349056 -0.1320421895757221 0.00021309451992214209 0.0012571807966192262 0.3783848777355143 0.1148714596902549
55945000.0 0.8787257442762493 -0.4705481262741906 0.04902850908865987 -0.14349838916929764 0.0010203314901742607 0.002161120932469715 0.3903172351537395 0.10597311209443848
56944000.0 0.8760895839230222 -0.4795509036438009 0.04955223666075378 -0.15544228491590265 0.0016020365669713271 0.0005413833535146093 0.39635594450680006 0.10009918441267354
57943000.0 0.8715838465528718 -0.4884602087018964 0.05135434244528653 -0.1674974836628068 0.0024265379149742204 0.003381601270358846 0.4122490307164443 0.0962622217258783
58942000.0 0.8636850407610647 -0.4968358889286863 0.05221473351867961 -0.17701333494969604 0.0030360209744291645 0.0029182672812177756 0.42472645593506453 0.09623018867325205
59941000.0 0.8609198637696783 -0.5030088002995557 0.05243969328270828 -0.18734541413617653 -0.0020462615979106496 -0.002143172642116392 0.4286172654144833 0.07937955392272213
60940000.0 0.8543368210809643 -0.5108943628444851 0.05166377403710802 -0.1922143270629238 0.0016108049709997534 0.0023275818421491616 0.4078207828649362 0.08218072961005249
61939000.0 0.851287531645293 -0.5163713539026583 0.05398637273680304 -0.2019176740192967 -2.3433428453741416e-05 -0.0014449007310718281 0.4212292542935899 0.07284997274471802
62938000.0 0.8450224309626764 -0.5281535877336525 0.05907804796291394 -0.21888808137562363 0.0028920075299531155 -0.0009308007636408982 0.4397945233727393 0.05427853646244589
63937000.0 0.842174393127154 -0.533416970342067 0.059197960472397206 -0.23875127145434952 0.0007391636683212155 0.004570639650019888 0.43487944354771835 0.04357342045177156
64936000.0 0.8341233374516839 -0.5422395743584788 0.057234417343542114 -0.2522780608128762 -0.0006175540395893285 0.00032976373730278784 0.4381321664019991 0.0405132847656294
65935000.0 0.8310146962414112 -0.5502301545497076 0.05742367293061837 -0.267079252440764 -0.002097657556046447 0.0030099809185045088 0.4469641073410987 0.02319415595935411
66934000.0 0.8253716640228217 -0.5579294097645313 0.05464097441413709 -0.28121847344559997 0.0009665461931741184 0.001872029673659213 0.4349384027086658 0.00806899798453548
67933000.0 0.8227434900257461 -0.5651523219816538 0.05419607694350627 -0.29682169362897576 -0.000491896916814811 -0.0010779623867988542 0.4549325672111156 0.0005976286086027089
68932000.0 0.805005815612116 -0.5676488602434359 0.04932055252698197 -0.308260392161697 -0.00437129367032056 0.004967406722135344 0.4479175547994435 -0.010067884457398885
69931000.0 0.8083143990663614 -0.5821208433100357 0.0535955481473893 -0.32849610020648784 0.0033744540323382088 0.0023639794528160347 0.4483088251928167 -0.02083646134847565
70930000.0 0.8012160098275795 -0.5885454502865282 0.046933690197528334 -0.3420903814787584 -0.00011272225507495954 -0.0002529360171403349 0.4497081027684905 -0.04326039450079895
71929000.0 0.7981790337135367 -0.6006977889738939 0.04206584906040582 -0.36517743087397553 9.840341533408083e-05 -0.003337805313196021 0.44821622829068686 -0.03565567979552335
72928000.0 0.7928197082241507 -0.6037535660278723 0.041415122290560345 -0.3775745145652525 -0.0025765743106032743 -0.0008950913550801743 0.46045811772218914 -0.05240669422677408
73927000.0 0.7851868539666408 -0.6117506254700271 0.03146165934898837 -0.40099472459308066 -0.00428299896948421 0.0021052552264030125 0.46045998195862975 -0.061569619104054736
74926000.0 0.7805810779967327 -0.6224043724705497 0.02415972531656126 -0.416415117247487 -0.004824694593870155 0.0005908776115915226 0.4649821441397066 -0.06079479600139388
75925000.0 0.7735000701440368 -0.6277398985624304 0.01957733952995314 -0.4413937235760596 -0.0012218746521113744 -0.0023520040440075155 0.4683406519563917 -0.07586951244117766
76924000.0 0.7670874979845785 -0.6342339666446123 0.0030978135025672504 -0.46509967124721047 -0.002866064251653494 0.002968435570379438 0.46150690287666357 -0.09106277106584115
77923000.0 0.763253261087942 -0.6413211533144856 -0.013465818704827909 -0.4894957762561069 -0.001445784652594759 0.004136047992313611 0.4740720487835263 -0.08856492734254263
78922000.0 0.7552148628789188 -0.6510630641610501 -0.02536915865706413 -0.5205659755505279 -0.0018374307921533066 0.003116571894910636 0.45802866981808243 -0.10692941451573569
79921000.0 0.7474080547629318 -0.65544843541921 -0.04681808925606647 -0.5450328638570072 -0.001927399929848702 0.003323689327722917 0.4524729645396855 -0.10978096600808572
80920000.0 0.7427020448835833 -0.66575386066229 -0.05794334646161795 -0.5716607390549301 -0.002440524770698215 -0.005505775920114115 0.4724589308412387 -0.1288284680858762
81919000.0 0.7375718167322057 -0.6717150819114854 -0.07674314806311414 -0.6019369924687824 0.004399162518189064 0.00013665860598388268 0.4621163748177998 -0.13073935573596326
82918000.0 0.728479937026758 -0.6792984487355251 -0.08748897605353856 -0.6322129743362623 0.0027141484857472007 -0.004025519654270263 0.4698518250266521 -0.1414145845700657
83917000.0 0.7192106552677576 -0.6879269806558853 -0.1130814350894313 -0.6635879006153704 -0.0008024458072356497 0.0003225836210518546 0.4753194742710752 -0.14734967125741652
84916000.0 0.7143533503583614 -0.6950852102935179 -0.12914589599042123 -0.6962139954402177 -0.0008265230354136704 0.0011814898573980959 0.4632629412191658 -0.17163990384222358
85915000.0 0.7085037259415519 -0.7006704644952136 -0.1479238920600456 -0.7254297607899802 0.004382518785462116 -0.0005989226540811935 0.4646921335313453 -0.16922542387917472
86914000.0 0.7005096361368147 -0.7113632345289344 -0.1593133077461069 -0.7648844780148139 -0.003092888599535317 0.0007527637417307407 0.4639473273968673 -0.17900075714729263
87913000.0 0.6939238425730033 -0.7168361140098326 -0.18094427014160197 -0.8004312360945961 -0.000515812399276293 -0.0004570827268524093 0.46338025239873804 -0.18928257944111446
88912000.0 0.6856544989964534 -0.72514049780089 -0.19546435127453693 -0.8335814906353335 -0.0026418230164300446 -0.001856273025462704 0.4688031533514026 -0.2064027961481659
89911000.0 0.6794330629844423 -0.7323163897685064 -0.21376298451713793 -0.8702916095081727 -0.00311353142839766 -0.002943001710869369 0.4714477561433993 -0.20001186622886635
90910000.0 0.6735126194286328 -0.7376848522617104 -0.23380916274055868 -0.90824435061197 -0.0018833026667258463 -0.00013608393614459503 0.4624199529882026 -0.2140851459195348
91909000.0 0.6622531985761199 -0.7407469137031205 -0.25123925308247275 -0.9345084867070824 0.001167750419265563 0.0009224719114586103 0.463628185561612 -0.216532168401943
92908000.0 0.6558199555166588 -0.7518460634379406 -0.27009391650677345 -0.9711194503407046 0.0001596089577153209 0.0009835319348160633 0.4537181292421913 -0.23569329351079593
93907000.0 0.6513349178816769 -0.7554266184270112 -0.2888505247980922 -1.0020943542645406 -0.0035489918354653814 -0.0010982523500088976 0.4541588918117249 -0.24716383942710124
94906000.0 0.6373568963527056 -0.7646582525315778 -0.30584057342131526 -1.0365537708244186 0.0012046874348432147 -0.001369127884323037 0.4621714959651779 -0.24575461210994515
95905000.0 0.6292021520838729 -0.7706272324133263 -0.33721369708810195 -1.0721624968936254 -0.00019796037871358679 0.0008099484512785819 0.4565096600529967 -0.26984315758472993
96904000.0 0.6221793158419487 -0.7805984205489047 -0.34987090813616206 -1.1124899025020305 3.970861992547835e-05 -0.0009014891430637775 0.4520567636728763 -0.2726954986401596
97903000.0 0.6126422515230824 -0.7843627082279782 -0.37698250595415334 -1.1482254574035218 0.002245266430702292 0.0017046654169253826 0.4485810093710323 -0.2877105231715827
98902000.0 0.6071296700612874 -0.7908544327695661 -0.4016607462928072 -1.1873701258426141 0.0003318647514626196 0.0009027455643239981 0.4479011385348367 -0.2933621692042057
99901000.0 0.5978530113893946 -0.7970865466419771 -0.42934093611410745 -1.2173552041128595 4.751148097303827e-05 -0.0021041329154606056 0.4631022782757744 -0.31711818790600327
100900000.0 0.5916161087848755 -0.8010440979641773 -0.4616152380756508 -1.249737964925592 0.0013675496321329044 0.002527862275649755 0.4601997447084081 -0.30972169719978626
101899000.0 0.5813096153417872 -0.8079170585308764 -0.4906596557989942 -1.289850764897712 0.0008922161445048436 -0.0030376429334286336 0.44610913196718505 -0.3269542433437509
102898000.0 0.5687818766987272 -0.8145663951459536 -0.5328489704992156 -1.3236126065816713 -0.00158025236909386 -0.003913943588629408 0.4394674040046463 -0.33499387946411346
103897000.0 0.5610521733783247 -0.821348112434952 -0.5735873858102826 -1.3640761746032832 0.0033642581204234093 0.0009004092724678884 0.4552496907825978 -0.3325278635533406
104896000.0 0.5536962656473414 -0.8321249952261912 -0.6199627993134689 -1.3997456677709017 -0.000309505477820931 -0.0033736998289693523 0.44286267450699796 -0.33305251727994606
105895000.0 0.5400140177763462 -0.8335974163072052 -0.6715486988330154 -1.439653148457879 -0.001204231717496462 -0.001479289621769693 0.4342604969406447 -0.366114690564124
106894000.0 0.5313015069238967 -0.8409015886590989 -0.729306830429663 -1.4799266828814994 -0.001295021769720306 -0.001003358344331419 0.4275419369130567 -0.36229611180722304
107893000.0 0.5241702830839496 -0.8470618358754525 -0.7791592601262518 -1.5180440000288238 0.0006052190185785782 -0.00010253201170260271 0.4378900075783495 -0.3779300224658436
108892000.0 0.5144564902207004 -0.8502082376322864 -0.842623813134019 -1.5586890879323834 -0.0014674001050606505 -0.004192222860460545 0.42819759772791594 -0.3698198136025731
109891000.0 0.5027838613280156 -0.857950858628914 -0.9053968378982424 -1.5977019892094595 0.0012082949875834134 -0.0012951441099664542 0.44467336425295756 -0.3740135884482762
110890000.0 0.4986232179720977 -0.8632839841565172 -0.9705003201645153 -1.6100106195490056 -0.001801858600509176 0.0009356215773330121 0.42843619483577783 -0.3824761747751609
111889000.0 0.4837481055601614 -0.8644929150345624 -1.0354821359079975 -1.6631312267573513 -0.0010801033132479304 0.0019120155312357804 0.41344411903379213 -0.3973794281242695
