! Created with skrf 1.9.0 (http://scikit-rf.org).
# Hz S RI R 50.0 
!freq ReS11 ImS11 ReS21 ImS21 ReS12 ImS12 ReS22 ImS22
1000000.0 0.9762490634028925 0.0013523652118932205 -0.02204982544435226 -0.0400864678140092 -0.021866606612809526 0.01851258032151744 0.40540441648012854 0.33108403831717176
1999000.0 1.000568542372213 -0.015955051828019932 0.0022149901015661713 -0.02338549254689462 -0.0021099064118827674 -0.009827633945848614 0.27928161191525663 -0.030439441847313512
2998000.0 1.0003090557669976 -0.021514818831396477 0.012527372440874334 -0.016753905276311615 -0.0022864425769106404 0.0025959283176717786 0.20289768222614737 -0.12213091407279862
3997000.0 0.9958480117794682 -0.033513825987047476 0.010749449813720583 -0.006302471299450918 0.004656481546315271 0.0016144928770748244 0.08310500114940231 -0.21776666765397737
4996000.0 0.9973898544423537 -0.03583116810474366 0.01157278428754815 -0.0024295633204299573 -0.004986060266829391 -0.0001575895713117531 -0.037620535296425554 -0.20746737398545442
5995000.0 0.9968784254897652 -0.053210082430837496 0.006982852723730058 0.005737036510490037 0.002757340976004205 0.00023954851877684003 -0.11761243335934299 -0.11171928422745156
6994000.0 0.9907099297198853 -0.06136017409672284 0.008004530850654085 0.0006564457236291557 0.004446287106995901 0.002216429351877028 -0.1510787090232241 -0.040829952389465046
7993000.0 0.9944724930753995 -0.06905317397201484 0.006375914391416774 0.0036659022133063613 0.0011491551490247478 0.0006506058493173185 -0.14976140398780932 0.02046377176402664
8992000.0 0.9909506181572258 -0.07440731903631558 0.005217834944480506 0.0067413464970329275 0.005430074596103906 0.0036181457053644215 -0.15455403739515342 0.054352043909199246
9991000.0 0.9899883410896742 -0.08495259278989117 -0.001464413807844355 0.0049137229425655245 0.003320055575693585 0.001184018766576753 -0.1397717673022736 0.08547511323893685
10990000.0 0.987715294032468 -0.09627901014424271 0.0026617338905032305 -0.0005638297335965335 -0.0011689907777097286 0.000716051202869323 -0.13982615575633817 0.10839218732180038
11989000.0 0.9871616208783075 -0.10358997883440609 -0.0015761074441239874 -0.005995415114116532 0.00023432271480528337 -0.00545312772486307 -0.14477429491349209 0.13717465392812636
12988000.0 0.98571798871402 -0.10924197176262906 0.004420175907280449 -0.0023801862213485435 0.001063881132584464 -0.00016166464247570632 -0.1243437865329532 0.16782953349052535
13987000.0 0.9852167752334449 -0.12126031151045112 -0.001769059655498315 -0.0034843109464122437 -0.0006020014596862223 0.0016614443577094775 -0.08680452112727263 0.17548876103373365
14986000.0 0.9839608450311217 -0.12774459247123104 -0.000286667962259552 -0.0047620583395071876 -0.0010419783658586466 -3.818022449585938e-05 -0.08935219416900164 0.19276613029509368
15985000.0 0.9864057827438265 -0.13668689757814775 -0.0030366860281737635 -0.0072769530329729526 0.0006626967558491679 -0.0019114741118537253 -0.05598805246528078 0.21046259948360177
16984000.0 0.9824168234584856 -0.14511798148657812 -0.0028434741877666667 -0.005078550449538205 0.0002533172945694772 0.0012654339626440411 -0.06174944384649253 0.2175692629648289
17983000.0 0.9841818350768794 -0.15299015511367456 -0.0023431937963077753 -0.0070923264629559135 0.005675348612812461 0.006267982865391997 -0.04983519021861599 0.21884025650260136
18982000.0 0.9819974708818026 -0.16172748813279447 -0.0010938314526541023 -0.003610869166362112 -0.001943223677480656 -0.0004443621686232478 -0.021517082660783077 0.23512097999916773
19981000.0 0.9778695750540077 -0.1704312597902574 -0.0044412968523481235 -0.009088035362817569 0.003350592906900574 -0.0013893611167466724 -0.015316700306071875 0.2426879559877127
20980000.0 0.9785729749872282 -0.17924787295989253 -0.003881532306319738 -0.004448846304380067 0.003926248396485124 -0.0033194901779487153 0.0022709659166458367 0.2553369473396356
21979000.0 0.9773226614954252 -0.18688116638254024 -0.005864087611638979 -0.0028447780661278784 -0.0013124557696508061 -0.0013073323095564916 0.01810408913839314 0.2399691473001459
22978000.0 0.9749725989804136 -0.19596713771032526 -0.009927258778641136 -0.005428505216244387 0.0009117654983196308 0.002379863661120728 0.024688269883293146 0.25310293933340583
23977000.0 0.9745291522295082 -0.20408343549596575 -0.004762033710266228 -0.002908806048465255 0.00045869623577196253 -0.001358553147767739 0.0389172836223303 0.25682014138005044
24976000.0 0.9713719278285887 -0.2144994218257265 -0.001957530751666693 -0.0011106046203664156 0.0011091392176973327 -0.00418967492820884 0.06605602878405806 0.25976481884635516
25975000.0 0.9653496768942655 -0.21938919127691173 -0.012726026372923381 -0.0031011622320121523 -0.02533087018112489 0.000813059503971135 0.07068597991109644 0.25304204564541855
26974000.0 0.9686392426001542 -0.2310172000847545 -0.003370613174198373 -0.00409552531093636 0.001677259751860577 -0.0025743741666837392 0.08018830580284127 0.2666072676923118
27973000.0 0.9658524056795005 -0.24043585478900964 -0.0043739829992842085 0.000449785350581499 -0.0012567407642495006 -0.0022717412563876154 0.10302311644187555 0.2575421388891607
28972000.0 0.9639203180080336 -0.24768744645478347 -0.0019139003386107866 -0.0014994788544242684 0.001909625765161083 0.00018891639085306453 0.11688813746539536 0.25308062158108996
29971000.0 0.9617615899902513 -0.25769774429052283 -0.000380333886667327 -0.003125155615049197 -0.0014202810288443022 0.0026250255235149562 0.14890384721331174 0.2664403218266236
30970000.0 0.9581243704114931 -0.2617833155580772 0.0022846063908052204 -0.0029995558644725965 -0.0014338041113127944 0.002505342421403215 0.17012917980768658 0.24679578551094394
31969000.0 0.9576342268600642 -0.2717973322737496 0.005448745876498412 -0.005733448276268092 -0.0007881689024561574 0.002336566701230901 0.15337761121074717 0.24678248671104053
32968000.0 0.9559643052427796 -0.28048257538515586 0.005091344835174683 -0.006767066188825116 0.001548115531960321 0.0030488532426312704 0.1715532906291576 0.24353514975524124
33967000.0 0.9520563851530025 -0.29191767002769403 0.011360629093861612 -0.006982615470767748 0.0020498163934156515 -0.0016017662784827416 0.17801627433417794 0.24274214539131578
34966000.0 0.9500664231030619 -0.29841314206675595 0.014862469423894287 -0.010894579943430925 0.0037716866701925163 -0.0021847296142983204 0.1985353686666883 0.25112569171309845
35965000.0 0.9479043957129433 -0.3075617464869125 0.017868316025861405 -0.01470321165051855 -0.0014692838903253636 -0.003160673108205017 0.21676933716271707 0.24224537592911094
36964000.0 0.9438630475555411 -0.3175446428522555 0.013827143039756244 -0.015438204194080365 0.003761373245076004 -0.002650619258819798 0.21903341723633055 0.24489197358585585
37963000.0 0.9398852914130802 -0.32817551807889234 0.02015440056683313 -0.021760447560692234 -0.0011552293195307255 0.0012307336534752667 0.2286418553487239 0.21807527830474782
38962000.0 0.938120234428476 -0.3362284117751817 0.027151186901695892 -0.023907986617638415 -0.004368485713547969 -0.00018814279265786011 0.23948389754991473 0.2264841855390834
39961000.0 0.935754111431937 -0.3415054687676702 0.02869434552640195 -0.02669675238791146 -0.0009907751626633333 -0.00289859991871066 0.25462599467221764 0.2158189301108311
40960000.0 0.9314190079743072 -0.3510264798048109 0.022821553197122264 -0.024267684791939224 0.0011210635343516964 -0.0015510684823523695 0.2736911117171161 0.22467607520172028
41959000.0 0.9287785351735702 -0.36065064486402537 0.029779798188768573 -0.03187711420260963 -0.0005950732762095437 -0.002629414542543119 0.26779784117936445 0.21678910461015302
42958000.0 0.9234896373994714 -0.370876754779526 0.031549894395143704 -0.03942628394352276 -0.003654409302881832 -0.0007182898911071497 0.2840363144137853 0.20061841799603872
43957000.0 0.9222893532667097 -0.3754491612733666 0.03659190682751863 -0.04669097948101105 0.00017969635851644802 -0.0004274455789289768 0.2885280784438317 0.1860783341028989
44956000.0 0.91800153077751 -0.3847820557135537 0.03469847617850587 -0.05369167113714809 -0.003019334392478648 0.0005582534239542061 0.31560851435595827 0.19222772118252057
45955000.0 0.9155445808862067 -0.39484728133659475 0.03762251280716328 -0.05840820818348081 0.0008428324094422572 -0.0010842415196393098 0.30357128853797016 0.18644994209813118
46954000.0 0.9114042346299241 -0.40277797066205373 0.037957995945673846 -0.06727767983156231 -2.2237814652768015e-05 -0.0011460398513561513 0.3240294689054501 0.17475223936434103
47953000.0 0.9091753649391243 -0.4100238656856577 0.039041653491283274 -0.07556764291921884 0.003906396195194701 -0.002617471787005233 0.3337415097541575 0.168067108644183
48952000.0 0.9015912348142098 -0.42026180165604904 0.04067403371862666 -0.08243009907828583 -0.0015998105583757396 -0.002071304356174993 0.34222806703696407 0.1523198588797378
49951000.0 0.8992745185161469 -0.42746050557162824 0.040931953678275707 -0.09085962926404385 0.0008012390861783496 0.00236032879711897 0.35413527995751015 0.15321108704795455
50950000.0 0.894618195531675 -0.4357404334619978 0.04130249671236437 -0.09675712349886767 7.525641754996667e-05 0.0013092631480422661 0.3511962974112648 0.14277884797692705
51949000.0 0.8893357501136104 -0.44409864844520963 0.0421777772736339 -0.10491568603667295 -0.001762300155128602 -0.0014595299285159262 0.3556250513284665 0.13870005348818565
52948000.0 0.8883836885344757 -0.4510869870201085 0.04824799377404578 -0.1151708655571783 0.0002608223789631155 0.0010383561526258803 0.371636070943809 0.13301885375557929
53947000.0 0.8826660039578387 -0.45936149241975066 0.04747062593698052 -0.1251758946212939 0.0008221841313507544 -0.0007232543041551882 0.3671024688339372 0.12489360622957502
54946000.0 0.8767648146816346 -0.4703768986167146 0.04982566135660422 -0.13374955063620586 0.000993445796114087 0.0024610828623764878 0.3903251773215236 0.1183887950860265
55945000.0 0.8743805001996848 -0.4797942477808054 0.047818215770616096 -0.14603103918347224 0.0008766054607109414 0.0010578337640204903 0.3842252581899244 0.10274763028355398
56944000.0 0.8687699353113421 -0.4869329342723969 0.054627383232952714 -0.15611110769564132 -0.00130964218446155 -0.0010061226884946883 0.3946112661171054 0.0966937030066852
57943000.0 0.8656192003294595 -0.49605321999054414 0.052940137969729066 -0.16771184589049176 0.0003867469912350125 0.002522922259359306 0.4029096495222431 0.08328632101265604
58942000.0 0.8577050611444984 -0.5035041970938396 0.05145186333506032 -0.1786695384163464 0.0009301288781933472 -0.001802810484714016 0.4095921280378524 0.09160655294477314
59941000.0 0.8553599396252918 -0.5092113859304573 0.057042181302414105 -0.1903128337675169 0.0017878753349404419 0.0019905876598662023 0.4216537699776557 0.07978422113325548
60940000.0 0.8479584044926125 -0.5175959472709798 0.05599436235919673 -0.19688482554109388 0.0015426060156448966 0.004566934887492505 0.410823166626974 0.06683775955906653
61939000.0 0.8452560395685914 -0.5249797530179806 0.05834746460803412 -0.20293727300943068 0.0013711585353995135 -0.0008828140718164054 0.413137333155188 0.057093558224279556
62938000.0 0.8378078489852475 -0.5341724567213411 0.05891269003536006 -0.21922385595148533 -0.0011019748688694275 -0.00022704480311429306 0.4332604077873319 0.05029396919904874
63937000.0 0.8352341519003295 -0.5420074038418086 0.061561397268431045 -0.24228089133631323 -0.004237516390764329 -0.0012459058549620255 0.4347730227739494 0.027300342664585434
64936000.0 0.8260600093106101 -0.5492260406533497 0.055042823650399614 -0.2540346751940589 -0.00023261685926835926 7.78893229938143e-06 0.42993896281383753 0.04161264720492606
65935000.0 0.8237305130841384 -0.559432379320452 0.056643848220443146 -0.26918906411752574 -0.0007016562895872459 -0.0019020055270000294 0.4462876025403646 0.013398408764235013
66934000.0 0.8193546857823039 -0.5653757607402197 0.0582558020572222 -0.2821515039653515 -0.002173978393679707 -0.002797471267754827 0.4372490120184052 0.0073384028656457165
67933000.0 0.8161987247914391 -0.5710712254297433 0.05764029044337613 -0.3001401488972164 -0.0004879457802486904 0.0009052373522140459 0.438416870330724 0.0026575890244908418
68932000.0 0.7996046690140104 -0.57856173834345 0.048907962477629914 -0.31333972158015133 -0.0021177965424818875 0.00011932846622983022 0.4446601677089483 -0.02234205559164152
69931000.0 0.8015306300826452 -0.5888527916443274 0.05441515890682366 -0.33308525461694505 -0.0031699911965914116 0.00019131457114644784 0.4408458514124791 -0.023496324223511503
70930000.0 0.7946513672594964 -0.5968176285337197 0.048830195858614825 -0.3461609710291143 -0.0013298673486147362 -0.0012863609971887412 0.44495222629560616 -0.03705784195651002
71929000.0 0.7911417071468279 -0.6047413461694204 0.04631066726017042 -0.3658867071677759 0.0004032492530677195 0.0003772745874947402 0.4418327108872493 -0.043493827186330075
72928000.0 0.7846045314449119 -0.6149205241851261 0.03777393623512384 -0.3837787518470861 -0.0005269318272167452 0.002052498942436274 0.46247670292592336 -0.056064839759043875
73927000.0 0.7766706970104602 -0.6190077868777469 0.032141827152260716 -0.4053166995776788 -0.0014839135858667613 -0.0010732316682245497 0.46006554391034576 -0.06612241567606036
74926000.0 0.7707723503094495 -0.6289417425194858 0.023806880794902792 -0.4257857919955259 -0.0002446079261714359 -0.0012652358660594119 0.46385836104354883 -0.06890723927101311
75925000.0 0.7669447965152083 -0.6326124864427242 0.011663053110874214 -0.4484011810155867 -0.0005929596835511173 0.003130705279812675 0.45782589175616517 -0.09001297506288851
76924000.0 0.7606782136747788 -0.6399475762424197 0.0026491095001973733 -0.47352578094969233 0.002449376140690269 0.0006891165901451251 0.4596985188684459 -0.09955141037251583
77923000.0 0.7514555000377597 -0.6494291191631313 -0.01330006181795181 -0.495630400581561 0.0024120878910305916 -0.0007714915480111197 0.44971602272405425 -0.10380781534286314
78922000.0 0.7474688559007708 -0.6574888803655866 -0.02838297354617701 -0.5218270345912399 0.0014189662303465533 0.001968240943288218 0.4603789441792136 -0.11687896859757317
79921000.0 0.7386144386086276 -0.6620822184222 -0.04518003921374933 -0.5537235549629472 0.004535829729194435 0.0055506669879083845 0.4603466255001239 -0.1312996791452617
80920000.0 0.7331044890144864 -0.6720988847236757 -0.05669385148366819 -0.5774459632770391 -0.002322763444467232 0.0030289990099613305 0.4596719384932315 -0.14969895391376256
81919000.0 0.7260176516982998 -0.6797120718682922 -0.07769339450348194 -0.6101058656286844 0.0006146002991230885 0.0012634220898630076 0.46338777137758896 -0.14309155063354145
82918000.0 0.7176719377281882 -0.6865171572877604 -0.08973056820895169 -0.6404585458512508 0.0030431750753219834 -2.3486776876351635e-05 0.47951660555688613 -0.14988186644221388
83917000.0 0.7087358570589775 -0.693589115808399 -0.11256053841992021 -0.6695253131544897 0.0013631821146438607 0.0035414496912444054 0.46242285771724223 -0.15083796288275433
84916000.0 0.7024974654389097 -0.7028100767504033 -0.13231057753865816 -0.707395931752782 -0.0001401470528182148 0.0026003542073854803 0.4689013328156021 -0.18353404156654965
85915000.0 0.6980481962067621 -0.7076991061111254 -0.1509236478990636 -0.7384321503359936 -0.0012424097097961868 0.0047847068554017136 0.4524019909727028 -0.19243938581780648
86914000.0 0.6893427006411179 -0.7175828996031122 -0.16150554379037532 -0.7750183519594716 -0.0011804117039954064 -0.00012680921911432076 0.4512097098666126 -0.18114174398820204
87913000.0 0.6825465137538061 -0.723573057897076 -0.18782047545916042 -0.8072053548882682 0.003538462924331705 0.002679351615546179 0.4619238388276413 -0.20808500227727905
88912000.0 0.6761338126341143 -0.7290561888241924 -0.20037144715514366 -0.8372259443692327 0.0014009720289005242 0.00024839428930502534 0.4582274482435584 -0.21584257678501956
89911000.0 0.6672665026889254 -0.7389837133376421 -0.21915850340551696 -0.8753628046262042 0.0010495380197522448 0.002780076436070515 0.46141896163741325 -0.20829525845407845
90910000.0 0.6587047586596007 -0.7437605287215753 -0.2410067400578591 -0.9113860435889302 0.0006616495261863539 -0.001794455412424163 0.4561786261116793 -0.22586226457480824
91909000.0 0.6503830801664832 -0.7471945081336973 -0.25434726912040684 -0.9470411900989267 0.003135351313213169 -0.00022113672480494182 0.46560924660664926 -0.2267785356672637
92908000.0 0.6435102140316703 -0.7579796155550055 -0.2783289037954128 -0.980422209950409 0.00016964936879834106 -0.0008575301784707139 0.44501945174179897 -0.24840339479851858
93907000.0 0.6346455945424564 -0.7623227468683142 -0.296843767273472 -1.012886271783211 0.00195543344929076 -0.002332912242990473 0.44891439950018563 -0.26544862540873654
94906000.0 0.6257510094633333 -0.7711027105779226 -0.31723686494518266 -1.046568518175352 -0.0025130176789558076 0.0030649338369132155 0.4549839900525326 -0.2565396268413068
95905000.0 0.6191004549630459 -0.7768466944703758 -0.3382460234244144 -1.0828398897559004 -0.0026670763686032157 0.0009883370624631477 0.45294628937678705 -0.27349733361003703
96904000.0 0.6096100368036167 -0.7858366024335423 -0.366694184687545 -1.1244960953655359 -0.001270326476150782 0.001821697462091424 0.44458943233942394 -0.27975715076671187
97903000.0 0.5991042791776647 -0.7909007587611805 -0.39284716159301336 -1.1567633260755257 0.0038163410981191226 -0.002934621365663197 0.4426020031796649 -0.29845977863247813
98902000.0 0.5957704333431911 -0.7969608024916071 -0.41543356364463424 -1.193374571794841 0.0018264728486477423 0.0011903443289139495 0.43190686245295823 -0.307460200471608
99901000.0 0.5832142878587064 -0.8034674430830798 -0.44645599099385946 -1.2302524953580427 0.0005796845980358058 0.0027392324903777457 0.4444228242641242 -0.32410287671987636
100900000.0 0.5756262230780478 -0.8061196476962347 -0.48262856361118567 -1.2575618562168636 0.00047812108526234463 -0.002134681258755873 0.44375970464976944 -0.31851991269330304
101899000.0 0.5667870547433024 -0.8155441228850913 -0.5131038465719111 -1.298823902395205 0.002611068404099485 -0.0001259115290565894 0.4500390730878582 -0.32797844048690367
102898000.0 0.5554046696182375 -0.8216278819388109 -0.5546862588538328 -1.3381295277882255 -0.0003844956446031318 -0.0024563977351897276 0.44203847385184064 -0.34519646510898055
103897000.0 0.5476962193319004 -0.8270632450239479 -0.5931898604260342 -1.3779904231973974 -0.0008590455555482087 -0.0031442436081024114 0.4476498163886948 -0.3398752046504244
104896000.0 0.5408750430378884 -0.8392062459489696 -0.6435783303598934 -1.4117208376400667 0.0009653980995833624 -0.0017795379093320355 0.4314907462132887 -0.335161101848498
105895000.0 0.5281088121320717 -0.8412599847778641 -0.6981301967513285 -1.453509245037317 0.0005218302576940572 0.001541969043078023 0.4207540949033005 -0.3627531540098644
106894000.0 0.5188446850474541 -0.8462920344420172 -0.7562360057671933 -1.4927495906890351 -0.0006506556498132746 -0.0015583628824876012 0.41663498490446826 -0.3746453388228039
107893000.0 0.513119379552694 -0.8526656059584309 -0.8038488114761974 -1.5352971036087133 0.000682287967885066 -0.0009085907101270996 0.42141456803756255 -0.3769133809666547
108892000.0 0.5021330196129831 -0.8561464862950425 -0.8669330132659486 -1.5723575475729503 -0.0032683284326069048 -0.00234012424779397 0.41369759500566927 -0.3787059638407154
109891000.0 0.48972984993996027 -0.8635593982499317 -0.92912934016767 -1.6073861430719099 0.006586165090375558 -0.0011721912120973748 0.42788127647019897 -0.3766161725287871
110890000.0 0.4735460833292986 -0.8791510854389483 -1.0183724253288502 -1.6159591275245284 0.002186830842065567 -0.002451763048479767 0.41835652523755895 -0.4095403796552371
111889000.0 0.4707765440526083 -0.8696627128116293 -1.060134856129839 -1.679252302579504 -0.000524173616337642 0.003521199167876809 0.4040922029014288 -0.4196980430824886
