! Created with skrf 1.9.0 (http://scikit-rf.org).
# Hz S RI R 50.0 
!freq ReS11 ImS11 ReS21 ImS21 ReS12 ImS12 ReS22 ImS22
1000000.0 0.978817434208364 0.008119464924491898 -0.010681148708423557 -0.02400327720226015 -0.012304733565774623 0.016112373649009613 0.3670438398981184 0.32444362304851126
1999000.0 0.9933333898932151 -0.014053435610697046 0.011646726292665678 -0.02294278307428569 -0.0038724815309930678 -0.0017538825025974758 0.2540364706590688 -0.045447041836560426
2998000.0 1.000041941765765 -0.022176825507912463 0.007669836455082657 -0.013816936067492862 -0.004670753273211928 -0.004274931496103776 0.18433622472525982 -0.13620343555886727
3997000.0 1.0017634475026302 -0.02865452525178005 0.011826485385156725 -0.006143502637768977 0.0018401725964864101 -0.003981366449542225 0.10209758249683352 -0.21270571371804348
4996000.0 0.9971075579100117 -0.03628122442107713 0.01047134366344462 -0.004374590929725682 -0.0016330191966953329 -0.0035363716757327037 -0.04187262442987707 -0.20963077433011706
5995000.0 0.9964540753510892 -0.04736672933363411 0.010669626005382763 0.0013924070158038806 -0.005318208028749318 0.003822247327665532 -0.11167483339828903 -0.11690604259602833
6994000.0 0.9982141436537402 -0.05675996211873505 0.006387269470513124 0.00438141597340985 -0.002302731680625048 0.0015873441559868928 -0.13810645813341993 -0.026256560563065516
7993000.0 0.9970262929719768 -0.06621332533990426 0.008077512810063725 0.006075999135768242 0.0019873677737596374 0.0009352572984081238 -0.16562289209423223 0.032873343116152726
8992000.0 0.99585450867165 -0.0729604716489455 0.0026628360934998216 0.0005827308912659506 -0.0052287815286975224 -0.0033611148116140877 -0.16084545282838478 0.06926314757698965
9991000.0 0.9979795649514867 -0.08211736934687665 0.0005808924501019484 0.010690249371662505 0.0024573000465744803 -0.0023713488140518378 -0.1564015432963414 0.0943169977169155
10990000.0 0.9938694518121113 -0.0906076298881253 0.007933536334796666 0.003324841815629893 -0.0003042067534890509 0.0038411363458012854 -0.14807223665622432 0.11808625283928313
11989000.0 0.9924226460300394 -0.09871175964258337 0.002769235334067531 -0.0022435264894250496 -0.0017769762494992852 0.001995302733124839 -0.12616545363004503 0.1462884274825762
12988000.0 0.9911156736108979 -0.10910366552878153 0.0025849857844380676 -0.0027960156028629573 0.0034259822189979055 -0.000720595662445443 -0.1255205712050778 0.16521247509298745
13987000.0 0.990974295421184 -0.11539589164042216 -0.0038945686612450177 -0.00046149391542813753 0.0027779477806919362 0.002189466127792058 -0.08877000280184745 0.194511320068833
14986000.0 0.9893373307186365 -0.12208771646452984 -0.002687943246310403 -0.0012667429596860968 -0.004112392332586496 0.0031388718426663743 -0.08108300613486195 0.20701513414333728
15985000.0 0.9904531575546652 -0.13358350893726934 -0.00023295888551858073 -0.0035421358110831864 -0.00185221962167561 0.00011494509648027596 -0.07261559407076833 0.22184156362311686
16984000.0 0.9877003884904967 -0.1426955322941894 -0.0004294342371234991 -0.0022272104845950593 -0.0019517045457151895 -0.0013108758424559767 -0.058815499578088334 0.22741743597004585
17983000.0 0.9888803285366861 -0.14620263916282766 -0.004593889781730843 -0.00872180920333671 0.0018151500672170446 0.0035754352522150306 -0.05076246288581825 0.2251850705027443
18982000.0 0.9831910264070399 -0.1595943868582833 -0.006558467534986092 -0.007186262448159923 -0.0001247864661124878 0.00012596313802123592 -0.029266792635579797 0.24140837364026124
19981000.0 0.9846052452430526 -0.1645391074026722 -0.0012758666118586122 -0.006185485573861151 -0.0019331039654942686 0.0012345523598010471 -0.012383978384800947 0.24072825296746203
20980000.0 0.9835997429428021 -0.17281049943754476 -0.0006003327427340777 -0.004851357966332972 0.0027533079547467846 0.001672910652523941 -0.010883505359162594 0.2469513581270732
21979000.0 0.9818833322785232 -0.18276060718498177 -0.0053392888855446925 -0.006499329466583373 -0.0034136668689190553 0.004062775145949425 0.014105117859360729 0.24888844651203387
22978000.0 0.9784083809518862 -0.19241448767727595 -0.008772668572955371 -0.001783772734313749 0.0008495851435037692 -0.003819269856530392 0.034166881060472644 0.2590259131419278
23977000.0 0.981169986195997 -0.19787142319735523 -0.007413997190751016 -0.003017407397872557 0.0026178176956274924 -0.0014001428055950454 0.035803145428145194 0.2570773431446091
24976000.0 0.9758830309133751 -0.2092546943638886 -0.005796240363423964 -0.0013459148525872008 0.0022401318516799985 0.002774436332300444 0.0744771982256834 0.2499383635176126
25975000.0 0.9750274613998787 -0.21519109918420912 0.0007864195997782198 -0.00031847276454614556 -0.01570892337176112 0.022439742091658207 0.08819275023888823 0.26316084677751944
26974000.0 0.9701348287084043 -0.22618251257538674 -0.006804447338361374 -0.0008693172215404615 -0.0027227633220757094 0.001054636508593955 0.10590078710121048 0.2560866291088703
27973000.0 0.9710189372921192 -0.23280688935914984 -0.0028797497831894543 -0.003549513456605045 -0.0006352561629037318 -0.004714900301782513 0.11505904151740588 0.25058224449688343
28972000.0 0.9674634832279385 -0.24249978455550103 -0.0019883372525531648 -0.0035482758000625223 -0.0003238498090490599 -0.0049515326969414115 0.12116311281126892 0.2580535063177474
29971000.0 0.9663608429151486 -0.2514474316200576 -0.0005639709187159383 -0.002286285360595151 -0.0019506822950811544 -0.00010353874021331492 0.15844385674602884 0.2618077606745909
30970000.0 0.9652701448763479 -0.25835151822738434 -0.0017542249693713874 -0.00034144170117745513 0.0026734529343267793 -0.003561619240800388 0.1617312241157681 0.2482097751318735
31969000.0 0.9615015712452282 -0.26528195611077154 0.0010932105544104185 -0.004861599185871524 0.0006137575183453256 -0.0017635818147949893 0.14804415265748813 0.2492612535993638
32968000.0 0.9586663655259094 -0.27487016517865887 0.005888549258521109 -0.007161494577423801 0.0024454336500108077 -0.0030234712036820884 0.1719416211242893 0.24753179302697936
33967000.0 0.9579855192906992 -0.2840293280197126 0.01463058411992313 -0.010535056618255696 0.0014728764455224786 0.0005225763283445488 0.18927977891625467 0.23350982820089983
34966000.0 0.95485832317716 -0.29478194233077093 0.013076222131455576 -0.011329416989802759 -0.0021363900717070758 0.0009278960067569189 0.20445764066420596 0.2492179754994138
35965000.0 0.9522213710982922 -0.29921166158371676 0.012514519798109759 -0.0138440428424185 0.0012468131813609732 0.0029722420945280568 0.2179323928366608 0.24791894170774315
36964000.0 0.9503560552353554 -0.3083443636609787 0.014162995850452952 -0.014045545611333596 -0.0002897730633992645 -0.0002191060366151646 0.2233750373239082 0.24456883307065644
37963000.0 0.9464256838103204 -0.3180610989010878 0.02244667929142382 -0.020456486255658986 -0.0015747533794511419 0.0013175898404310835 0.23689660806964621 0.22952651660559056
38962000.0 0.9442733919387898 -0.32609433986718117 0.02562093608443121 -0.020606271989069027 0.000428885946372417 -0.0033098823872586827 0.23786276150850466 0.2272000582120265
39961000.0 0.9407579566990536 -0.33554920889255835 0.025305901174584287 -0.02465581288057998 -0.00221728602322175 -0.003700118598454038 0.2544134373277032 0.22236273393737274
40960000.0 0.9381789734144688 -0.3430079693417832 0.023440052139686172 -0.023982962139377065 0.0024699724302882807 0.0003678272151320586 0.2759839449345644 0.2203342223789925
41959000.0 0.9356243253409737 -0.3523992012338391 0.0279136174878642 -0.028522348355477362 -0.001237821189029962 -0.0007840205848780062 0.2741619490297432 0.19963064841905537
42958000.0 0.9284511697149753 -0.36168365115511386 0.028314815938623762 -0.04168239294428594 0.002015592982026017 -0.00014895730364258505 0.28108752466709425 0.19760145924695416
43957000.0 0.9300560760563206 -0.3645318111272589 0.03122615201350028 -0.04536911133326034 -0.00521502817413968 -0.0007472268260744931 0.29544105662958414 0.19402862974982543
44956000.0 0.9246267155841464 -0.3740691282157271 0.03143877610925121 -0.05105978581155992 -0.0010511729806409371 0.0027236894250004806 0.3054559642826901 0.18654345716784587
45955000.0 0.9213291786143458 -0.3846699294808666 0.03052353349509246 -0.055664303055854104 -0.00036720879615981223 0.002184189777285587 0.3155306968911159 0.18722865061578242
46954000.0 0.9180137429785898 -0.3932374425209782 0.03282369784312778 -0.06288268510347701 -0.004939078264291425 -0.0018870456416324448 0.32111446144825806 0.1685487191372132
47953000.0 0.9136020992370066 -0.402923225295756 0.03362257643759716 -0.07253203721079353 5.777190502730821e-05 0.0005415505097408327 0.3404880083599209 0.16383054966670432
48952000.0 0.9111232830035316 -0.41009969270515967 0.03473655233960695 -0.07661540432822728 0.00028127455659786684 0.00032005958959648967 0.3361656638621726 0.16123197164676978
49951000.0 0.9059901775425953 -0.4177796566496945 0.03288530327316576 -0.08387877068920309 0.00043982276306834937 -0.0015144799390140243 0.3566778157208621 0.14373797696710067
50950000.0 0.9032760051527343 -0.4241079413832254 0.03514784263001129 -0.09414571821881207 0.0009387431331204586 0.0007571395284748942 0.3586283738552025 0.13779820210355828
51949000.0 0.9000391006465116 -0.4342215002316427 0.03561256334549866 -0.10166075654018539 -0.001957184636298769 0.0008575043589166505 0.35874721898782574 0.13707947288526096
52948000.0 0.8974958506971696 -0.4408187939169154 0.038398768818848815 -0.1095906705527738 0.0034580683847629085 0.000325319291509513 0.37581254364251687 0.13083641207989977
53947000.0 0.8902773512447119 -0.44930919726030527 0.039445814135351615 -0.11792475280601311 0.0041044529316351715 0.0020395728759697333 0.37919711084497415 0.1145012188697762
54946000.0 0.8868197637726992 -0.45705799701146665 0.039347667766011264 -0.1255748867370208 -0.0010964067397581983 0.0008544982868612427 0.3923176779443024 0.11616525707091009
55945000.0 0.8835236725807347 -0.46755007853004454 0.043737506568894885 -0.13799938406071194 1.4755597878559232e-05 -0.0030670705773632343 0.39478434090983616 0.0954488084283732
56944000.0 0.8791850485500994 -0.4727763725980387 0.04417620821352423 -0.1475321475425453 0.00014948749894245293 -0.0013382645318378652 0.40034462134007953 0.09131319602531886
57943000.0 0.874775138357577 -0.48399067546439567 0.047449261969906516 -0.15886532908646614 0.0023300939245658172 0.0004546866695620922 0.40783597512583786 0.08099067672668843
58942000.0 0.870117699153268 -0.4877077753063025 0.042986833716796485 -0.16646518372453892 -0.0011835703695119058 0.002619473728387718 0.42573871910558825 0.08324773138184
59941000.0 0.8657005449530939 -0.4988539241660991 0.04684846588923878 -0.17609705490698824 -0.0022933428474148677 -0.0011824954856197406 0.4190647262405769 0.07948128887807708
60940000.0 0.8585047499453432 -0.5059928242517711 0.048271036670030555 -0.18022994894869876 -0.0004968630102145405 -0.002740029851454459 0.4138880282945307 0.06307974562469161
61939000.0 0.855533367640595 -0.5123058981883213 0.04814511329558691 -0.18942628829577776 -0.0030544145519821302 -0.0009176699926857177 0.41748016933018006 0.0578623163892894
62938000.0 0.850575019560324 -0.5220655087763933 0.053672357632652046 -0.20395460147386402 -0.001334369421843075 -0.0004351030524487015 0.43979680641523655 0.04055458639166433
63937000.0 0.8447547464343255 -0.5297437183362146 0.05300756454807374 -0.22461819673766814 -0.0005685780865328443 -0.00029751901467074237 0.44083693349101855 0.028896457981285366
64936000.0 0.8397383695523168 -0.5341604834753473 0.05086059964645664 -0.23739798533358042 0.0030627526993070677 -0.004511159064174891 0.43998135083808715 0.03649668500976525
65935000.0 0.8357763378992439 -0.5460902506818163 0.04963922397982146 -0.25048195538587426 -0.0018292254537221185 -0.00023162689730493323 0.4403728593846235 0.012065676262051246
66934000.0 0.8325518706160705 -0.5504599623348474 0.05218267875326414 -0.2643431073218548 0.0029210613279181757 -0.004351855184118711 0.4352095914065876 -0.004286714325812033
67933000.0 0.8285193622707869 -0.559729995715263 0.05068937834469753 -0.27623142376043697 0.0026690764026040693 0.0007523934927756356 0.4552978529318871 -0.004660787360917516
68932000.0 0.8109040171105681 -0.5624045383404579 0.049032561116275825 -0.29058416074304305 0.002484826340963889 0.002101262235812563 0.45909918504303554 -0.026918982016796527
69931000.0 0.8160746922057288 -0.5744147938087292 0.048331129245316504 -0.30682045042192435 0.0008401082643508475 0.0019957722163927946 0.450284034595857 -0.02390175208153344
70930000.0 0.8080689708008827 -0.5826382231391983 0.04567332538723856 -0.31774876910742145 -0.0003689686036373247 0.0006378076703450052 0.4483258115610833 -0.0514146599131612
71929000.0 0.806390734482348 -0.5893419787262903 0.04317563099027707 -0.3393075741754101 -0.0031580719244815297 0.0009642651133384058 0.4507718445427471 -0.053070785972881826
72928000.0 0.7993357168556836 -0.5992299458611947 0.038556776881715035 -0.3513309229813591 3.639904449634865e-07 -0.0006789713524213271 0.46659511115614993 -0.0531280650498406
73927000.0 0.7933153535944741 -0.6059419577412299 0.03376209102373652 -0.371002126842037 -0.0030256969965727024 0.0034325617303015725 0.4622088021320413 -0.07775757041384129
74926000.0 0.7894246156089418 -0.6166957111125991 0.031020750899541004 -0.3846125791110851 0.002254864279229936 -0.0005214250290280092 0.4771525765135109 -0.0655720607393739
75925000.0 0.7815589363109929 -0.6199040186500078 0.017078191308717718 -0.40589553921598204 0.0001530467079799191 -0.000691997274085317 0.47697263565013803 -0.0937475373701124
76924000.0 0.7749029984966525 -0.6291101535835335 0.006593840139566243 -0.42975756609710064 0.0035426118134536853 -0.0006961541447369202 0.4695733936060327 -0.10295916791774272
77923000.0 0.7678540243402721 -0.6373731284306302 -0.0026141422271162436 -0.4486449332726008 -0.002669967400677784 0.0059119381105537565 0.46646734406550394 -0.10691470706350358
78922000.0 0.7641284019843254 -0.6442239036685004 -0.018892433736010798 -0.4784673052118508 0.0018716556389996068 0.0031754825086592704 0.4616592870903147 -0.11488943381905233
79921000.0 0.7544431713720183 -0.6494071350286594 -0.03814269121540851 -0.4993547566946829 -0.002064986110708626 0.0006544820252722476 0.46070509066842646 -0.13666666951820014
80920000.0 0.7515539680786387 -0.6593297837336431 -0.053035293699067176 -0.5242815895496368 0.0032860142429404554 0.004791519031298161 0.4665824053990811 -0.1400500253623953
81919000.0 0.7458669620864384 -0.6650530027884598 -0.07238507591280947 -0.5546818466960107 -0.002896964127539805 0.0013592517509083948 0.46387738009106155 -0.14402145175234402
82918000.0 0.7342874179382096 -0.6745797385911002 -0.08336908487780885 -0.5830514686103078 0.0026299670323650134 -0.0018638534125765267 0.4851949887960209 -0.1647875245163576
83917000.0 0.7267403217640585 -0.6818237656845592 -0.10571709306891013 -0.6091356017136572 -0.00038995969363318214 0.0015830532271880547 0.46765900557040324 -0.16427970373086742
84916000.0 0.7221332405971467 -0.6882442382916573 -0.11877725616302734 -0.6420041936844202 -0.002975520383241165 0.002055812176201014 0.46206624030274007 -0.1857119891269556
85915000.0 0.7170483809346867 -0.6939769804106938 -0.14131884123339916 -0.6727488962796219 -0.0035422163520011014 0.0013272044515130334 0.46703385063773284 -0.19541992952483597
86914000.0 0.7076087516605357 -0.7047297348646631 -0.15336638762095423 -0.7066687784231728 -0.003638064221966474 0.003982029619144925 0.4634014187279094 -0.18665183428233634
87913000.0 0.7029308987027805 -0.7115939917712215 -0.1766732255600455 -0.7363071881831722 0.0026210906377594004 -9.887834348844943e-05 0.45953744658095996 -0.20580038513533297
88912000.0 0.6943191430303527 -0.7168187917114035 -0.18945696902233228 -0.769796595691921 -0.002155630950195809 0.0008979465696565207 0.45777582517207405 -0.22612350662862704
89911000.0 0.6861123772936119 -0.7264784571269188 -0.20636616698665466 -0.80206679976685 -0.0002702032568487748 0.0027539746948833706 0.46262780308877155 -0.2226953026205465
90910000.0 0.682028904599258 -0.7303272223744204 -0.2213691700866765 -0.8376281420732806 -0.002307968580006971 0.0001156223725608727 0.4709276333235704 -0.22236766951438974
91909000.0 0.6716242287475066 -0.7379162146214955 -0.24601203317282028 -0.8679683758422165 -0.0007072911214817566 0.0013329470511367204 0.4681211217348154 -0.22410673776291984
92908000.0 0.6644780625949932 -0.7451304802079997 -0.2567389776039496 -0.8976317698387678 -0.0014522853755307274 -0.0018057844002315375 0.4508889834827953 -0.2541464841225461
93907000.0 0.658012952140383 -0.7491577610527024 -0.27826213140546247 -0.9318953115000038 -0.0034027035674373224 -0.0003275263704804233 0.45489384399856986 -0.2732472065954284
94906000.0 0.6467169228651709 -0.7580665200375258 -0.2870666785880732 -0.964337755456257 0.0004617958225612692 -0.0026378095413810607 0.44974422164777567 -0.2625439522221687
95905000.0 0.6387026203255209 -0.7636050148337906 -0.313986621296127 -0.9949713015042407 -0.0007525867423613635 0.0029214276809640368 0.4585057426419407 -0.2906990627270105
96904000.0 0.6320959861105332 -0.7742356886587911 -0.32858626943375635 -1.0366067033589002 0.005606328364240656 0.0024721234049518426 0.4546896943742926 -0.2937930090077236
97903000.0 0.6234176732815777 -0.7780526485593273 -0.3488006128773594 -1.0657708348422652 -0.0011695041827057976 -0.0015513122870117562 0.44299139809314103 -0.30875416740261863
98902000.0 0.6198149163337733 -0.7855732267205633 -0.36538530248489315 -1.0999798143729833 0.002868142590029127 0.0029208000834122514 0.44396768370236556 -0.3111664698340043
99901000.0 0.6071837694542769 -0.7908915559647197 -0.3995374504614793 -1.126797959763746 -0.0026018207697949634 -0.00034239334153505965 0.45539841192220404 -0.33503424359270295
100900000.0 0.6011345073800224 -0.7944517765534783 -0.42560949474549714 -1.1630277376672848 0.003392693168370811 -0.0012991121644761968 0.45302835362376775 -0.3326485115387388
101899000.0 0.5923090740083057 -0.8021127007125765 -0.44551341899427144 -1.1967306729636518 0.0025898547996165287 0.0006937841969137317 0.43314453109853435 -0.3333204399199527
102898000.0 0.5812351835373173 -0.8085877605945695 -0.47739003499894306 -1.232633900461815 -0.0015435972635707445 -0.0008007610539592381 0.453312003381907 -0.3503809892943422
103897000.0 0.5736689487736146 -0.8156191202963403 -0.5129249055044763 -1.266065783721061 0.0013106467653649905 0.0028503258972682913 0.453326754112621 -0.35495319925831803
104896000.0 0.5660678163270811 -0.8251039197535606 -0.5557955374176451 -1.2951713200297599 0.0022272445506768 0.00036911481896084725 0.4329946141476363 -0.3597538273099253
105895000.0 0.554459416379157 -0.8285182177487015 -0.5977104058949726 -1.3355734250447886 -0.0013782838129799949 -0.0006602560161046069 0.4361620428139594 -0.37070933484113106
106894000.0 0.5471172362995668 -0.8343190590996492 -0.6465092483842995 -1.3701962792715383 0.002516579924376448 0.0017664775663521553 0.42845035522783204 -0.37633605854627394
107893000.0 0.5358818688208272 -0.8406667674406416 -0.694354882901833 -1.4074312728479434 0.0014139730783413209 -0.0011493589929721562 0.42574497459691174 -0.38226572133854086
108892000.0 0.528710312120333 -0.843281413990976 -0.7547282917441298 -1.4401779256803613 0.00241479469705105 0.0007384142421149033 0.4209786394981037 -0.3872364354232768
109891000.0 0.5152391844465525 -0.8530740099826343 -0.8095824735247397 -1.4789685772042505 -0.0022155229475882094 0.0014533794469133144 0.43574534203345366 -0.3954438495932747
110890000.0 0.49561840786443306 -0.8576437925129083 -0.8817558580751281 -1.4682436511867485 -0.0012823732292159484 -0.0025677348537164538 0.41431604926149085 -0.40105295768059096
111889000.0 0.4971599540931393 -0.8592865310163471 -0.9269882015857708 -1.5440327082742704 -0.0011104534694362216 -0.00024137217301515605 0.41439543868284356 -0.4130636583964433
