! Created with skrf 1.9.0 (http://scikit-rf.org).
# Hz S RI R 50.0 
!freq ReS11 ImS11 ReS21 ImS21 ReS12 ImS12 ReS22 ImS22
1000000.0 0.9968774526271272 0.007520599254032949 0.009054334297343584 -0.048803967024142074 -0.011347790621787993 0.008633485268126682 0.31840295531011154 0.32482358367856706
1999000.0 0.9951307376006941 -0.016389963723518926 0.006550030448517194 -0.03377679964431056 -0.010373705759071419 -0.002500225264772853 0.25634626323192805 -0.08364704158329238
2998000.0 0.999941131000962 -0.018911339358357045 0.009204657391368214 -0.01918532300705752 -0.004079202685460814 7.245498276118137e-05 0.18645097272060684 -0.1537349218477686
3997000.0 0.9979104951290528 -0.032700478169268014 0.013417273384068848 -0.006410795666027554 0.006099635699360528 -0.0046992899870604505 0.0906321916992985 -0.23115596855714454
4996000.0 0.9978857208111214 -0.03895737806319579 0.009580540405879518 0.0009662772880343001 -0.0015739776939207968 -0.006032030454700951 -0.041868169450002775 -0.20798627099581804
5995000.0 0.9988769181980013 -0.04956488987280612 0.008997364011455011 0.004295357601221835 0.0009703578324204258 -0.0021651716865034817 -0.12622711495250563 -0.11348828565436578
6994000.0 0.9943639720609938 -0.05797455249066793 0.007574187822525221 0.005533758590254064 -0.00011016528821027348 -0.003956788835274704 -0.13389705809368155 -0.026586798239300533
7993000.0 0.994934912989485 -0.06873048205538664 0.004968847223886135 0.005238413565525258 -0.0008660618035276753 0.0018944049529692406 -0.17099302585852236 0.04085331164969005
8992000.0 0.9938058330298316 -0.07512175176320537 0.002103245355408745 0.004429634256950741 0.0012318724180693623 -0.0038138118742538866 -0.14227574364223308 0.06198477560610812
9991000.0 0.9928656231515216 -0.08223440401304533 0.004179915815323186 0.005308892733330662 -0.002439156492791913 0.0007455622393006866 -0.1490831799904238 0.0997589600233628
10990000.0 0.9932783905258116 -0.09331611453255668 0.0047539054670903535 0.005096049694142361 0.003308829256822298 0.0023093394108482193 -0.12595221583757465 0.1103060157181149
11989000.0 0.9905267999068728 -0.10220133269312145 0.0038669741367817066 0.0036775066390098295 0.0017547100902783066 -0.00030565717016863323 -0.11832466554071841 0.13238467490490402
12988000.0 0.9903644655054173 -0.110821794039661 -0.0011511284723637447 0.00020522930993040827 0.0006329025125988414 0.0024529007738893706 -0.11493756591502528 0.1706324772443078
13987000.0 0.9885243823205991 -0.11814198369622003 -0.0003558323557696294 -0.0025717568685349004 0.003034275585675556 0.002195583054719921 -0.09684418743014683 0.1712714255613136
14986000.0 0.9873049446753621 -0.12618813188085576 -0.004511087147262927 -0.007933632375312033 -0.0023137539251477253 -0.001345809076453081 -0.08796831554787093 0.20421561116594442
15985000.0 0.9883613785455351 -0.13646810530145687 0.00144053980902062 -0.00488793959748142 0.00157442867598766 0.0005823051002942903 -0.06524234461337954 0.2132141894744321
16984000.0 0.9862701897786962 -0.1443722040383628 3.66275841916185e-05 -0.0044045103604653775 -0.0040085063756393246 0.0025229265686616564 -0.07202587893053564 0.2153046320427032
17983000.0 0.9868724078281262 -0.14979944950672047 -0.0022812255761482324 -0.004658715225598917 -0.001971040980109912 -0.0013416173560025816 -0.05072860692341215 0.22330052579958234
18982000.0 0.9837570804214593 -0.15976906625078102 -0.003300172306033746 -0.0024552156001027494 -0.0062451334875281 -0.0017401947626501765 -0.015780096091525638 0.24090474782941124
19981000.0 0.9807115283059921 -0.16552489548320315 -0.0035971727004454296 -0.005987348088442005 0.0011961976249452817 0.0056072653167631775 -0.01792639574553178 0.24500890465437086
20980000.0 0.9807496972211959 -0.17763928807989696 -0.00454848100651757 -0.006260815340844106 -0.0015303133676473932 0.0007046574124464275 -0.008749065115254718 0.2540909183029158
21979000.0 0.9776433918531102 -0.18885123568021966 -0.0028191891566604513 -0.0022582694188179003 -0.0002990217570934058 -0.003115328762809597 0.023677403578509802 0.24825177651082453
22978000.0 0.9769124125964997 -0.19375263457534284 -0.007836431002832649 -0.0027599611163824905 -0.002748842529511733 0.0021995934684499174 0.02028665311357942 0.26033341916897507
23977000.0 0.9773266350875067 -0.201188968419075 -0.003081266731768279 -0.0021842057418196732 -0.0011729504943478945 -0.0011868177689135892 0.043257389685360914 0.25408315163735046
24976000.0 0.9743365860809993 -0.21400853441866194 -0.00935334255558922 -0.0036879950312200442 -0.0015097493883298458 -0.0012690084560150322 0.06113568215460237 0.26081868626496346
25975000.0 0.9653529765000083 -0.22344274849404847 -0.005404235611549328 -0.0015197625380835216 -0.016860448233489558 -0.022243302513246965 0.07238429169074743 0.2560021052375718
26974000.0 0.9681978383596043 -0.23096181690658243 -0.0014953166680877312 0.0038555221318958867 0.00046172247518211444 -0.0014532277235546056 0.08364004507278523 0.26988309192024695
27973000.0 0.968171816069134 -0.23758991286330916 -0.00207982636626414 -0.0003601216730446851 0.0035990110478307104 0.0023414085963138717 0.10775286351209248 0.2578119937608497
28972000.0 0.966560502700711 -0.2452204173125656 -0.0032906260374762995 0.0004214888209810899 0.0014621681743847608 -0.0014552052961751948 0.11326950735983078 0.2594564206807402
29971000.0 0.9635443497141049 -0.2557703074518675 -0.0003916952873584391 -0.002446906185933819 0.001000861035133467 0.00015998728284637227 0.14955613723367922 0.2707862705986788
30970000.0 0.9622628337221817 -0.2615658266478192 0.0017301889266162782 6.879026512055103e-05 0.004035034928614115 0.002736613504272038 0.16552448911161582 0.2515456520978619
31969000.0 0.959863381334476 -0.2706775285725547 0.0036970166156177035 -0.003543234670572445 -0.001659851853685691 0.002421820328929497 0.15093684200407276 0.26283453205360513
32968000.0 0.9577200810462877 -0.28035046812640096 0.010401138096297488 -0.007456212127095707 0.0010060304244519612 3.805722896481818e-05 0.16613847272322607 0.2504012077251104
33967000.0 0.9547285371075137 -0.2903629581791502 0.007822432278289899 -0.01019421673619255 -0.0027096538527741107 -0.0004960729200585512 0.1872121006609238 0.24635982740723805
34966000.0 0.9512638654448555 -0.2966344501771698 0.013488508969292422 -0.010500745804242565 -0.0007062465818405589 -0.0015038762199926982 0.1870496106098723 0.24897917945823334
35965000.0 0.9484016355917171 -0.3065003900420944 0.014776148921590794 -0.014685067801238483 0.0035238468444922064 -0.0010957593764428031 0.21132969649720743 0.2546736117826074
36964000.0 0.9475375598669604 -0.3154478693134041 0.016026776944154903 -0.014974039927230889 -0.001155091332339025 -0.0007428175202936831 0.22480790600221076 0.2528442646074875
37963000.0 0.9438247225956063 -0.3231632832521768 0.017282782390999923 -0.018088937074226975 0.0008870324777203148 0.0017419013067652138 0.226330479808297 0.24610318247382756
38962000.0 0.9414038859962313 -0.33233369569033294 0.024068967021555105 -0.022859370686772913 0.001285157725727965 0.0014688220520205045 0.2368147437539148 0.24088928751766372
39961000.0 0.9381136461884713 -0.3415206257035902 0.026667675332561674 -0.026135844075083584 0.0023576461351944573 -0.001646198334133114 0.24157745392032726 0.23562035655556623
40960000.0 0.9340793548409903 -0.3487042757765373 0.02213312305944255 -0.023295384115433092 -0.0007020452820916528 -0.002064104764607856 0.267599621552413 0.2270745973661636
41959000.0 0.930932123313925 -0.3589443368256798 0.030461494632934398 -0.02818882928302821 0.0004191898576847785 -0.0010897498200519308 0.2622983650185719 0.22751721082499238
42958000.0 0.926089813826614 -0.367422314803534 0.03171915057650605 -0.03984436934756197 -0.0018383739598240906 0.0036365884767925963 0.27973262387531106 0.20722370199818782
43957000.0 0.9259629251211872 -0.37176638802077683 0.03276391739381995 -0.04580339841683084 -0.00044351470017506175 0.0011958054625918987 0.29276144879728183 0.22129791627603848
44956000.0 0.9228703108831172 -0.37932819897879777 0.03522808757851788 -0.05121134372832132 -0.002581303559925333 0.0019720968936684635 0.3031546676188102 0.20167199365040428
45955000.0 0.9170034561106403 -0.3916860023107044 0.03470286849196977 -0.053315185293019964 0.001366684493126789 0.003102275822206461 0.3034967588046513 0.2076596408069495
46954000.0 0.9131252753865313 -0.4003306979526694 0.034857205215949635 -0.06087071598349386 -0.0009300318287596228 -0.0011679224587356095 0.3234358539351638 0.19114675400391035
47953000.0 0.9118246497638648 -0.40770201041079673 0.0377270271199859 -0.06892706932321908 -0.0027164314736721267 0.001253396464110011 0.3317625780779105 0.18025475810668173
48952000.0 0.9044031709142917 -0.41979925936711043 0.0372115019955243 -0.07555263471730876 0.0020619287737841364 0.0002459957075175235 0.3363084970106126 0.17596141711313526
49951000.0 0.902454671143993 -0.42329925104160926 0.04169674603935956 -0.0867221588237352 0.000804163062609307 2.5341468770175357e-05 0.349525322612375 0.16192577225604068
50950000.0 0.8979176747754923 -0.43386062982341805 0.040993964687705664 -0.09318703778564452 -0.0055235324934933185 0.0014912881379275718 0.3495250595891309 0.14887734263888006
51949000.0 0.8943723710714432 -0.44225799684126066 0.04035745858707554 -0.1009448547522482 -0.0015532762031506015 -0.0005357168196305314 0.36210985543299884 0.15297911703331496
52948000.0 0.8920386143684905 -0.44919425588551726 0.04169847398450126 -0.10954326943748698 -0.0025674906755966025 -0.0007663895136681475 0.36619498818004703 0.1516321496313207
53947000.0 0.8843322130713809 -0.45723277445112537 0.04253453209664758 -0.11634870649542803 0.004035001550392591 -0.0017518729114948354 0.3742077500978102 0.12812043224925068
54946000.0 0.8791233992723735 -0.4684450332672843 0.0425959883125231 -0.12766796701960675 -0.0042622774244113594 -0.00024342664312328635 0.3832650293882612 0.13642115342209696
55945000.0 0.8779953339836666 -0.4755074332625197 0.04854332841225616 -0.1366844714767184 -0.001721843150580945 -0.002226691618095664 0.38984294957191606 0.11558862341869337
56944000.0 0.8739326195698407 -0.4841602119193565 0.04827126768693683 -0.14586839392800655 0.0025797158155355534 0.0006382085440173427 0.39973709527989837 0.10858892084554216
57943000.0 0.8679295891617747 -0.49308736202976566 0.047540337357348646 -0.15744918558058496 -0.002784376443955926 -0.004193264288659057 0.4038479021417608 0.10880974672771178
58942000.0 0.8637747341306645 -0.4977024453893107 0.05168248536414479 -0.16581774499909518 8.824707362582211e-05 -0.00013960381153435152 0.4180457409816211 0.09795607103333276
59941000.0 0.8593200237036864 -0.5066827416114504 0.05497298750727017 -0.1766886440639735 0.0005164098054768644 0.0005966780886888231 0.4271691713841787 0.09835402597781226
60940000.0 0.8519758721054695 -0.5149290991351377 0.05173686712016086 -0.1798982755706147 -0.0012766487117704148 -0.0037226629167888595 0.4162724797119293 0.08320863185079656
61939000.0 0.8493614076554066 -0.5213748601108671 0.05705113701357804 -0.1879755175516693 -0.002729139449282504 -0.003940387711833695 0.4202403367846852 0.07815573489549162
62938000.0 0.8433544274214503 -0.5318767220565661 0.05666589679493437 -0.20366021596930964 0.001795586635091605 -0.0014187235692270735 0.4401519729406249 0.070905345726295
63937000.0 0.8395243918743351 -0.5388856061280797 0.05687778536223202 -0.22452986250663381 -0.001160803890353999 0.003252291832958417 0.4348612379249575 0.05313907599623373
64936000.0 0.8319798031134088 -0.5444250888381004 0.057020747088120334 -0.23762446190127948 0.0011583833990051278 0.000839882196857587 0.43736397313192527 0.059412171002384544
65935000.0 0.827965112223998 -0.5574307349652532 0.05536638198368546 -0.2524768115472125 0.0037134077614660813 -0.0013483402289791201 0.447881490976334 0.032521747862407246
66934000.0 0.8244095399388068 -0.5606784370919617 0.06243859520457097 -0.2642818893907029 0.001730794625129885 0.0031886442645145444 0.44111785735738396 0.028244835279808637
67933000.0 0.8199197859095126 -0.5705577303902726 0.05952760302555831 -0.27896452873847877 0.0021833409534596747 0.0006567001048894376 0.4435480313478875 0.0198849697422187
68932000.0 0.8039387277958078 -0.563224058712035 0.05664639607564159 -0.28573983097440503 0.0023818998120063036 0.0032104307532735132 0.4555486021177527 0.007074776321655401
69931000.0 0.8055274805536994 -0.5853596063769769 0.056203215632915304 -0.30584101540671427 0.00423735052479176 -0.00036164538604410376 0.4501301145726944 -0.004277170234278015
70930000.0 0.7998894142346623 -0.5935605788125833 0.05578747743550093 -0.3202653622672041 0.0012255301164477476 0.00022904790771489364 0.45948276030530216 -0.023834571657787854
71929000.0 0.7950601533695454 -0.603712422848822 0.053670329268771896 -0.33932339262743383 -0.0020865372930848657 0.0009328876822887528 0.4472257561196962 -0.03505492919128464
72928000.0 0.7879440991989447 -0.61090745151992 0.04789220734217652 -0.3542321101643723 0.0037401800145372313 -0.0038452281177267333 0.4645048305025841 -0.036102001880305594
73927000.0 0.7810967785907919 -0.6166682489224555 0.03899787519899479 -0.3755416189558404 0.001000842301758675 -0.0031208306598991234 0.4658802622621804 -0.0466916439420597
74926000.0 0.7778611210798335 -0.626350681932593 0.036855316364791106 -0.3912911719885093 0.0014494419242001603 -0.0007118723685092274 0.4734655881453875 -0.04586034122585967
75925000.0 0.7693840587297162 -0.6328813448606214 0.025306246945669693 -0.40842798373858363 0.003522227995009018 0.0008531402464863279 0.47633978845581104 -0.05584983712029253
76924000.0 0.7634884668550973 -0.6388211544464171 0.009263353747327103 -0.4341184002890938 0.0033207981883441066 -0.003180636182588398 0.48297091389407426 -0.07194323260267546
77923000.0 0.7583554515628841 -0.6459828095498008 -0.000757351822278558 -0.4545135674781417 -0.0017336091101084546 0.004033449471091583 0.4659373946429413 -0.07521867745678584
78922000.0 0.7523587949399094 -0.6583341177248581 -0.01144078119983131 -0.4853607313272754 -0.0015693011802499256 0.0014949698116236967 0.46746905273560385 -0.08952374040151162
79921000.0 0.7426386365218379 -0.6596006269660344 -0.028980499832668274 -0.5064116614441839 0.002120771097083578 0.0015707673333358175 0.46671345424267374 -0.09684590013971514
80920000.0 0.7385244293175102 -0.6718619878860882 -0.04268921816829832 -0.5327057044455122 -0.00365927186040306 -0.0004050436779219976 0.4710183561747727 -0.11845224268208235
81919000.0 0.7334846019730775 -0.6763892317285929 -0.059021234560338705 -0.5683298583630578 0.001378871302662608 0.0037444391624372165 0.47796652231975006 -0.12872210558627406
82918000.0 0.7245217286101476 -0.6834223923736795 -0.07346651048194158 -0.5954675416364915 -0.0028886474358807766 0.0002571695303557823 0.4856690369736833 -0.12938931936622527
83917000.0 0.7145047098793978 -0.6930012339016126 -0.0937000132328235 -0.6222191703010834 -0.0022575945483136813 -0.004838739769560287 0.4857463616178668 -0.1420145611126007
84916000.0 0.7106379826198959 -0.6992933013771292 -0.10806347565753502 -0.657234830365687 0.0028626907957288437 0.006419001157232282 0.4647431278226147 -0.15160589791183188
85915000.0 0.704753814158974 -0.7059915895287836 -0.1264060871055066 -0.6861480353704111 -0.0013566179748064947 -0.0009914985909424809 0.4778154151451128 -0.15595386855638932
86914000.0 0.6958476677502146 -0.7157028578723067 -0.14291097763699567 -0.7217277887651536 -0.0030640935176435417 -0.003474451851275943 0.47450397358192514 -0.15733192779904442
87913000.0 0.6888537640924921 -0.7212959302842386 -0.16183899118232223 -0.7507302781572674 0.0011374519607304139 0.0007015449561642766 0.4685402946763822 -0.16751652110036463
88912000.0 0.683422863113719 -0.727297091014014 -0.17656720992744168 -0.7830860894099951 -0.001674669242051898 0.001534866267342312 0.4735073270373095 -0.19409028531841144
89911000.0 0.6733840704471846 -0.7391846852837127 -0.19395320757584836 -0.8216166765597201 0.0010342053291259054 0.002370724733010473 0.4762896077004424 -0.18593365279464258
90910000.0 0.6661162999818717 -0.7433479366369836 -0.20872578737878958 -0.8547090075061244 -0.0024120849591468072 -0.004489490689917704 0.47390496335693627 -0.19937049506298785
91909000.0 0.6576548972816335 -0.7460776707042531 -0.221228605022713 -0.8820959725045254 0.0004204648102785381 -0.0002643118372120949 0.4728130755398019 -0.2130959936263317
92908000.0 0.6508050083020229 -0.7560375543939627 -0.23844063345981814 -0.9175043075884063 0.0006814902151006254 0.001024232795973212 0.46395493319807457 -0.21845463704433044
93907000.0 0.6433854307673482 -0.7616548728067809 -0.2548416777226741 -0.9498126369476734 -0.00014187515081933314 0.0007832591861554076 0.4644077093049624 -0.23051790379733536
94906000.0 0.6293169473595859 -0.7696114202238765 -0.2740807443720599 -0.983907651463519 0.0033671333708842374 -0.0009840532615553652 0.4682962472362136 -0.24185484200544582
95905000.0 0.6245417614129516 -0.7757134932004263 -0.29569579924664735 -1.0124449755047857 0.0009774622491243081 0.0023769279883994908 0.47024232597657073 -0.24544724498381443
96904000.0 0.6170671104173169 -0.7844135008490247 -0.30793714068721617 -1.0545515659058033 -0.0013606257496182952 0.005536323062309465 0.46505953569158925 -0.25177436822544785
97903000.0 0.6072828661558676 -0.7888062366104331 -0.3269649955015854 -1.086232566543946 0.0011247553698697722 0.0037109342853854353 0.46249114534899094 -0.277823159414003
98902000.0 0.6019499722804492 -0.797377326828125 -0.350461739200765 -1.1230842663648952 0.003344966754741593 0.0007504117307175428 0.4510130344035474 -0.2750395572424165
99901000.0 0.5902921291321088 -0.8016717515982971 -0.37482651623241947 -1.1577852992869913 -0.0026704410071088855 0.003639975949007257 0.48361798535873124 -0.29117347199146076
100900000.0 0.5825394443167621 -0.8057531942822926 -0.4070605149496162 -1.1804287748737547 -4.873894394965586e-05 0.0040092881090342805 0.46751362153065834 -0.2955795949575823
101899000.0 0.5722895330264987 -0.8158301189391773 -0.43225056809170787 -1.2224548391365613 0.0009529824341742131 -0.0038053075519443092 0.4606523440329239 -0.29718737733788875
102898000.0 0.5626046798612506 -0.8195684843325906 -0.46384531451447386 -1.2638994890132558 -0.0034627677302799427 -0.00010200452752645825 0.4625772609626697 -0.32757076290974774
103897000.0 0.5554335972028572 -0.8265024342875793 -0.5012841712740579 -1.2977282477876795 0.00019239038445864525 -0.0018559129658707234 0.471017220027618 -0.31449145630279773
104896000.0 0.5470423082030812 -0.8385289982969255 -0.5495643580204193 -1.332750110063625 0.0034018335161966028 3.324783429727344e-05 0.46214902172629413 -0.31246542676339306
105895000.0 0.5343289203416042 -0.8398168770681949 -0.5893672792081834 -1.3669919924428027 0.0005677406599539452 -0.0021707552148086755 0.4515820782962996 -0.3311710081688836
106894000.0 0.5256642576457978 -0.8451541066868766 -0.6429119488956663 -1.4060285922043605 0.0007617388979298839 0.0011424620076906564 0.44777754588515006 -0.3497727088540104
107893000.0 0.5181444654686597 -0.8516877217438307 -0.6884158337249037 -1.4442122685785652 -0.0007948415138957621 -0.0016617507243172464 0.4417318027383684 -0.36540786406768966
108892000.0 0.5092057432414967 -0.8561055171033971 -0.7421898248215177 -1.4843451117430222 0.0015129720802623504 -0.0005635131855135394 0.450599238951242 -0.3494399144982747
109891000.0 0.4970501409298788 -0.8636502873192294 -0.7995500793582283 -1.5166311601118614 0.0036107433339184177 -5.426376665014293e-06 0.4490323095117572 -0.3528727511604395
110890000.0 0.48222705980848546 -0.8632504808162363 -0.8610478938889569 -1.5208464222364437 0.0007721556239805902 0.0012222701752248335 0.4421368385320012 -0.35883475700233824
111889000.0 0.47781900967181984 -0.8702741071215674 -0.9247122979871514 -1.5915960395625903 0.0004995029963031683 0.0028126241636962732 0.4291458101832691 -0.38417454463192324
