! Created with skrf 1.9.0 (http://scikit-rf.org).
# Hz S RI R 50.0 
!freq ReS11 ImS11 ReS21 ImS21 ReS12 ImS12 ReS22 ImS22
1000000.0 0.9809083781833523 0.0023206252407396615 0.0012305824371150612 -0.049902384297424746 -0.016539801481981805 0.003567613127376983 0.334082375132811 0.3600623790700991
1999000.0 0.9929007866152209 -0.009005065456491965 -0.002794441594108766 -0.023706823918020203 -0.007493514299198649 -0.0014335600218356305 0.24449380647556795 -0.03053399540999385
2998000.0 0.9965338615541391 -0.01941088186445189 0.00890640044317317 -0.015910429828519552 -0.001258716157935441 -0.0003248766666001759 0.204434351967996 -0.14994465305713814
3997000.0 0.9986377125337227 -0.03431400820909585 0.01282707446873351 -0.009028750717904715 -0.005679732226768958 -0.008983322869562362 0.10745820574092035 -0.22135704329418124
4996000.0 0.9963000303604813 -0.040855205018625565 0.01106419942031387 -0.001812161336947183 -0.001533659755397905 -0.0048089660580183805 -0.02026458244019945 -0.2164465647070527
5995000.0 0.9984306636674508 -0.04473729382052056 0.01310678736830576 0.0010486379826372592 0.0029486349825444294 -0.0019483316776963855 -0.13203168618584313 -0.12364304048721482
6994000.0 0.9943031766320908 -0.06080265113046617 0.004693677746937974 0.005584020781623154 -0.0037677842500973345 -0.0021422439499549214 -0.1581284998867642 -0.02941960843929804
7993000.0 0.9960499660952593 -0.06851693108737913 0.006231660200333174 0.0058854363898001244 0.001800181196511445 -0.002665668107309427 -0.16920952709067297 0.0272082137184861
8992000.0 0.9945334867838513 -0.07139715154993925 0.004574064005474645 0.010014981143363239 -0.0023241960447810176 -7.973745498895046e-06 -0.1625720483491369 0.05777069177338881
9991000.0 0.9970661041715558 -0.07901433649279212 -0.00019267997211647742 0.0034224240140855126 0.0012837266197768733 0.00525662433915305 -0.15223509013667913 0.07805966430985455
10990000.0 0.991666733025186 -0.09481095002769672 0.004708210477841823 0.001550723141905243 0.001611304688696867 0.00670397447806773 -0.14256755893201592 0.11363509342261381
11989000.0 0.9921325382020436 -0.10056182111403118 0.004628224940587042 0.0028141737677919035 0.004790880254394115 -0.0018613257344313957 -0.1352843675071467 0.14361189414596293
12988000.0 0.9885053483640953 -0.10818550916633284 0.0024796280511594293 -0.000965618737397059 0.002049346015430746 0.0038077756645498594 -0.12309656949768791 0.17407101903217806
13987000.0 0.989565644462493 -0.1166077730193446 0.0016724480734493926 0.00041954471167137287 0.0014312516629186355 -0.002795643719681147 -0.1163764295921285 0.1926939100345114
14986000.0 0.988691627793644 -0.12407212688897742 -0.0027478524755364373 -0.0020110357297393484 -0.0010695125052454207 0.0012968048807834062 -0.09938143410611763 0.20554827190687203
15985000.0 0.9888055097304765 -0.1336939700048297 -0.002341577065840896 -0.004020590515537231 -0.0004977722382578265 0.0012645328698158832 -0.07063338292366288 0.22755826343404717
16984000.0 0.9884286359436147 -0.14443417131567352 -0.0034060356886589 -0.005789410938306408 0.0028153636887974474 -0.0011203850615751846 -0.0673183852453589 0.22012930461219252
17983000.0 0.9858396502397945 -0.1497696688087395 0.0001985818718101632 -0.004424765969324521 -0.0033238929585658714 0.0047269501520109366 -0.06760071074329263 0.23446471557409587
18982000.0 0.9830330404494656 -0.15947292724685086 3.6752193013567555e-05 -0.007109227252566396 -0.0035744509144343137 0.0018525952850257667 -0.033885964797848396 0.23962465250305318
19981000.0 0.9857470044928162 -0.1646326745741553 -0.0031434952633527993 -0.0031416601053071472 -0.0015857299340180087 -0.0027313379629330457 -0.027127692543664938 0.24468920189282237
20980000.0 0.9830955442092324 -0.17548794442055873 -0.006449320621285394 -0.00411965765374539 0.0014110720289619587 -0.0037508351722757936 -0.013590952008915292 0.24879766799782702
21979000.0 0.9807966954596975 -0.18246991417857764 -0.006354033282539544 -0.0035508737255610396 0.001785027909644784 -0.003351199307873104 0.02030606413630015 0.23978063614781836
22978000.0 0.9777353581207515 -0.1943600429370338 -0.00616838039667981 -0.003144551588614222 0.0024646336156993296 -0.0011239791291945101 0.020403640333267463 0.26523953881258094
23977000.0 0.9778503549530825 -0.2010059237015928 -0.008261156481469613 -0.0019023661230090816 -0.0035650177709285118 -0.004489189423711579 0.03428096023367608 0.2574902461886025
24976000.0 0.97497100093491 -0.21034335745152444 -0.00669300253297659 -0.007244497325458057 1.4933881823943528e-05 0.00076255485441785 0.06093762501102177 0.2465190227251765
25975000.0 0.9762583676649559 -0.21797352829680008 -0.007219955591713068 -0.002300506777166978 0.0006760156924048078 0.02884940482790802 0.07565312593849884 0.2642797872116285
26974000.0 0.9696746234588675 -0.22565695465441254 -0.004225036344967955 -0.0009748208707530946 -0.0025931516064355187 0.0012048304231471294 0.08568325412780708 0.265870146725727
27973000.0 0.9710106210833924 -0.23375835813986334 -0.0022486090736272895 -0.0033577674722054572 -0.0007486077741798827 -0.0011620324812957861 0.09774123071961092 0.2580697023546464
28972000.0 0.9673676195265706 -0.24440973433252658 -0.0033689451112808157 -0.005812658814421941 0.0013127150611236891 -0.0016779849775248373 0.10833560556243654 0.252577652796957
29971000.0 0.9676536331892169 -0.25044407858783285 -0.001590120426771719 0.0012886552494997745 -0.001338072661301946 0.0020533397583148115 0.14424501163639106 0.2564602600852955
30970000.0 0.9635349173733695 -0.2582142756942266 0.003566099541283296 -0.00019705510994405718 -0.00010196099733346125 -0.005819698868835291 0.16999690009454135 0.24457924051367594
31969000.0 0.9617692031875923 -0.2656317934207121 0.0048652853642652 -0.0052157224313384275 -0.003205090896698527 0.0019405829264682903 0.14078518550022576 0.2426190609034398
32968000.0 0.9596702830361461 -0.2769527776324391 0.005816318491758081 -0.00874417023634221 -0.0002945477662122471 0.0005772933898637463 0.1501358521660375 0.2403657445943114
33967000.0 0.957268350001444 -0.28693530895745967 0.009719835951089063 -0.011970983009925149 0.0009499587362047989 0.0008783236939102698 0.174358344733207 0.2443540526508536
34966000.0 0.9537602752790348 -0.2939242857483193 0.018131154873087515 -0.011920579089042399 -0.0005660203656450672 0.0008115686682000632 0.1993610448016595 0.2469857014091923
35965000.0 0.9510928884878279 -0.29937633094297916 0.016700544758747878 -0.013705484807954037 -0.0001813688392439852 -0.0017705836488726787 0.20535409795447954 0.2518446566562452
36964000.0 0.9490209469420434 -0.30969509636774545 0.017937039570060525 -0.011732712032692312 -0.002763210786966184 0.0016121559497125962 0.2054550722663719 0.24838396063558513
37963000.0 0.9457621751198607 -0.3182106456084554 0.024178091242846787 -0.020266107095902153 -0.0019463166876902064 -0.0006768486012009067 0.21166352026896063 0.24101719147884718
38962000.0 0.9443306594371527 -0.32733612303409526 0.024417001013133446 -0.024403584381287927 0.0003249010143780273 0.00019849865108138368 0.23537835927233935 0.2333192050094924
39961000.0 0.939326680718667 -0.3359471863642431 0.02419270724878658 -0.02952740066420526 -0.0009849924333753606 -0.0004258363618495793 0.23991383813207973 0.2278316798290665
40960000.0 0.9370734841423363 -0.34352887861334575 0.02161290259626324 -0.02440554131062119 -0.001271093636049603 0.0018068701150315701 0.2666751497462576 0.23112618129024473
41959000.0 0.9342009382906382 -0.3533086836717878 0.02997587672366937 -0.032995881854215946 0.0006592374913719585 -0.0033285441261203985 0.25765892037370103 0.21514250501901944
42958000.0 0.9294083345204041 -0.36120628804882216 0.03328175652810288 -0.04098111334912805 0.0011781089471975736 0.0018247832921015647 0.2731928724839107 0.19291812678955209
43957000.0 0.9269311404367979 -0.36846263780543215 0.035095247068776265 -0.04815653474982965 -0.002508768672529731 -0.0015923516371183254 0.2812665047035472 0.20729728422931512
44956000.0 0.9244119401632012 -0.3773677789275421 0.03617995662776472 -0.0524218255506527 -0.0008326072495966423 -0.0029222541189670883 0.2891516897576462 0.19450799520918913
45955000.0 0.9197286557487905 -0.3859646061033613 0.034937270789321184 -0.05882548355647954 -0.0002947747732411148 0.001272965810605159 0.3024395993465958 0.1935628731473848
46954000.0 0.9171332886814535 -0.394118379653045 0.03762038930953334 -0.06525135898269974 -9.67420787975704e-05 0.0010807766940332934 0.3218458428091302 0.17365395677173803
47953000.0 0.9135833890766114 -0.4032732823338198 0.036436149383591736 -0.07374165932020099 0.00020490874557313853 -0.002696266957533806 0.335417984824572 0.1720550266926926
48952000.0 0.9082765454740428 -0.4125145522120875 0.036342638949645595 -0.08055603480202897 0.002456083587544091 -0.0008013414432547135 0.3323212924542057 0.1622011921983506
49951000.0 0.9066965868636143 -0.4166936019221705 0.04119858238265964 -0.08833060572519134 0.0005726769070748771 0.0033860706008457873 0.35365286001262114 0.15447522489025028
50950000.0 0.9024374350111131 -0.4272222878825061 0.039676686545304506 -0.09759918572132481 -0.002130047677801569 -0.0006240862371885351 0.34689395536545575 0.14703416072773423
51949000.0 0.8979872383624159 -0.4340441611014271 0.04074675175675551 -0.1057817916671548 0.00024820758937148707 0.0006618140414500098 0.3494676634694918 0.1408284307914208
52948000.0 0.8961065205489975 -0.4412639340514576 0.04193779976172327 -0.1144221536196361 0.003678715680020236 0.0012710053788136594 0.3714893946340897 0.14120913166788318
53947000.0 0.8892762686649925 -0.45007002225239123 0.04839666857215496 -0.12521391108465937 0.0011710016704249272 0.0019625492750150325 0.3713320100859319 0.12437410038887252
54946000.0 0.8859794350553 -0.4577541059445469 0.045374547559197904 -0.1339868744455519 0.0002151526932397996 -0.001904823984040431 0.37811996015759597 0.11654098794406217
55945000.0 0.8832899701724058 -0.46785556696573627 0.04961961221199226 -0.1440178079576672 -0.0011653998252936653 -0.00011022052772988425 0.3773561352056589 0.10685674657787618
56944000.0 0.8785721302219213 -0.4746683417106257 0.049266412239563115 -0.15500939944236097 0.00016785980849618688 0.003629681492432583 0.3908453388173926 0.10594568218161415
57943000.0 0.8732263870808378 -0.48599859141950896 0.05133813068678259 -0.1654299647277567 0.002934988459211904 0.005575989621295302 0.40120247204541926 0.09257615901669591
58942000.0 0.8685366237769381 -0.48909994004309315 0.05403369099680224 -0.1788828769980573 -0.0022165335706590093 0.0007131164503372659 0.41892383960870744 0.07987720491064991
59941000.0 0.8652912434177014 -0.49862352830431916 0.053381002335753776 -0.18867833541673576 0.0028303788994079944 0.002423084777754586 0.4072098669770526 0.09169833799814008
60940000.0 0.8567650321902291 -0.5068523183660852 0.0537999326208243 -0.191645099731991 0.0011966711544546856 -3.626414093536964e-05 0.41152622578660425 0.07750889670691237
61939000.0 0.8549520551687774 -0.5141912044791157 0.05513034411911133 -0.2030605935711515 0.0004556243616582093 0.0001448426940806796 0.41956609901347536 0.06660927712124352
62938000.0 0.8489560120563795 -0.5217358548636738 0.05810354297557472 -0.21776481297502023 0.0004062952514971506 -0.0013242870645127768 0.431691770447322 0.05814497502292577
63937000.0 0.843708849228593 -0.5315363566251733 0.05936525270987284 -0.23755367525983034 -0.0007451045095052902 -0.0011661030012566989 0.43624108992884897 0.037192750710990874
64936000.0 0.8382877497977237 -0.53624994137815 0.05899322281782993 -0.2511201633911062 0.0007282095530278051 -0.0032530181844600938 0.4363097802319667 0.039818417883473206
65935000.0 0.8344093285657935 -0.5463955267572947 0.0566111913828437 -0.26852780470978244 1.4689738526008651e-05 0.0016235504907904888 0.4313300543688068 0.022073287007220124
66934000.0 0.8313891359031449 -0.5518304998160415 0.05835787281043195 -0.2769601469606258 -0.0023675094775367895 -0.0005571801218228075 0.4283142692712707 0.009537605180413543
67933000.0 0.8270054278661519 -0.5603797068960679 0.05849175009623937 -0.29679905484573077 0.0003004693980307404 0.0005917154621953398 0.43912252545659913 0.015373311263747214
68932000.0 0.8144868449710819 -0.5664681423469925 0.05277609795848277 -0.3113533835149967 0.0027195524601129006 -0.0032411958309848956 0.45877960218318686 -0.007310943304174326
69931000.0 0.811477652075083 -0.5769682087842538 0.05355041158196488 -0.3300592042426512 -0.003357948784485887 -0.0008163571979628475 0.44263185734745547 -0.0051908299511560455
70930000.0 0.809482123554643 -0.5828131496796086 0.05288427703223776 -0.343402035075198 -0.0008379929286035822 -0.0010494368083669406 0.43401146250832706 -0.02497729294525274
71929000.0 0.8054965585056898 -0.5893828483087116 0.04841784000598869 -0.3647886125136645 0.002396317823651614 -0.002511215694310147 0.45168255940672386 -0.04122941007619938
72928000.0 0.79681105989643 -0.6017927469143575 0.04374319061465231 -0.3799772185455468 0.0005496884669289707 -0.001070366468571058 0.45922060462812986 -0.05201469040122094
73927000.0 0.791978756200542 -0.6079912008713964 0.03682941807585283 -0.3985078217026537 -0.001070723164216178 -0.0022872377437010987 0.4505872282784006 -0.05088266596276696
74926000.0 0.7854494235848323 -0.6154879738185424 0.02799294976132972 -0.421859634414449 0.0014680191860096212 -0.003612158588117035 0.4549307625480176 -0.06041718723044976
75925000.0 0.7801414736969267 -0.6207003632599124 0.020034969063352368 -0.4427500348046317 -0.0008332776941510786 -0.003104955451859215 0.4621233158797205 -0.07411052266940278
76924000.0 0.7745126469689751 -0.628659764102262 0.00914011778740482 -0.46105848452611997 0.0023398964771037555 0.00023382987015230664 0.4584022970876624 -0.07208583574291497
77923000.0 0.7688800624859173 -0.6337690753339514 -0.00896125320820028 -0.4869338613745183 0.0009807838094221665 -0.004330318778956619 0.45469735877567735 -0.08746221634181794
78922000.0 0.7634816457125199 -0.6445170458266425 -0.02031738025956807 -0.514875582282388 -0.002823293110558898 0.00023022993635854678 0.45683072512474165 -0.10283266271959865
79921000.0 0.7545104046425848 -0.6481596641122334 -0.03367711383444676 -0.5441852143116273 0.002657062103415075 -0.0020609325689831424 0.4508177189801878 -0.11394101557604447
80920000.0 0.7502836062190932 -0.6604419890860004 -0.05221588985613066 -0.5704945929723984 -0.0019868450593531887 0.001106427043516121 0.45992817896707155 -0.12580707708643973
81919000.0 0.7451757273390203 -0.6646151666045261 -0.0720160341778207 -0.6005439367617486 0.000832719739171201 0.0018609448241231246 0.46024311013627306 -0.13272052949370858
82918000.0 0.7341690676587886 -0.674479847593703 -0.08416804892454624 -0.6316939025384328 0.0031728806721062603 0.0032843492838878336 0.4659881051278436 -0.13907300488722382
83917000.0 0.726171627779592 -0.6824500141592332 -0.10126999608395036 -0.659530559411887 0.0012456350393699575 -0.0040505023464525725 0.46559845487542956 -0.14468541783335526
84916000.0 0.7225502497227048 -0.6873858308189491 -0.11937514892486839 -0.693990883021647 0.004496352041542988 0.0012542191883910087 0.462698035105489 -0.16199822535299474
85915000.0 0.7151721115701722 -0.6948756812907335 -0.14048497776889057 -0.7269216981706313 0.004981556139445757 -0.0024339978036247876 0.4610894440274912 -0.17425449744674892
86914000.0 0.709513796197102 -0.704024785707845 -0.1580809619796109 -0.7621301722446112 0.0036094700388793117 -0.0012335184397618793 0.44887914872042606 -0.18111235174064097
87913000.0 0.7010930703054887 -0.7111042175557836 -0.17601211284869842 -0.7958896949782281 0.00022238687478124422 0.00034116854107322267 0.45818971243372186 -0.17782137575922444
88912000.0 0.6944156825777629 -0.716135520084753 -0.19549731328133854 -0.8312202350356842 -0.001795806295789085 0.0016078126510275645 0.4657380445188192 -0.2064615162900495
89911000.0 0.6891684234369228 -0.7240894435292274 -0.21118866414060103 -0.8715564767354486 -0.0038244743143504897 0.002947445882772634 0.46291569418559986 -0.21153609011623564
90910000.0 0.6801929673985235 -0.7303604578217464 -0.22829047525274399 -0.9059178366457282 -0.001321159984640288 0.0023279561139087812 0.46131809253057715 -0.20618467548523065
91909000.0 0.6699946510890379 -0.736209522307392 -0.251645713851918 -0.9394374422626335 -0.0019857901240226184 0.002403313836983059 0.4700316948516672 -0.21736420979744853
92908000.0 0.6638558123857234 -0.7432939536829901 -0.2723507207110023 -0.9722814974816695 0.0003000542066921172 0.0012694152587433174 0.4481711385438886 -0.2325854827569309
93907000.0 0.6575043842093661 -0.7506341568870033 -0.2902329365526956 -1.008490248076301 0.00350286808869513 7.193075487805389e-05 0.4595737790041833 -0.2451946274387228
94906000.0 0.6428780841920494 -0.7606863220609137 -0.3098232306524641 -1.0419907613165627 0.00010014005878836632 -0.0014255423464751486 0.4538452916530806 -0.24049557371463248
95905000.0 0.6391614348076587 -0.764930975342622 -0.3296879918945379 -1.0784659430768075 -0.00035705409007323255 -0.0016773983262549704 0.4465126870619843 -0.2647546300514619
96904000.0 0.6294969887863332 -0.7742461723986366 -0.355867774212962 -1.1178428802321516 0.0010543461273174882 -0.0011123445572818768 0.4492759841609758 -0.27071429615959824
97903000.0 0.6223513673890629 -0.7783094300687636 -0.37799171126622466 -1.1506946461724896 -0.0005008131176387691 -0.0005220410453574857 0.44721419916291694 -0.2860131938059342
98902000.0 0.615056593998367 -0.7850932157286343 -0.3991846271066599 -1.1904452615012238 0.00045796872016609847 0.0001740505971762976 0.4416224341870394 -0.2868628259773547
99901000.0 0.6052688909567532 -0.789528491278169 -0.43151307935442507 -1.2211187422716359 -0.0009298546340689867 0.003513455009193291 0.449696490445747 -0.30728811909798626
100900000.0 0.5990095510567868 -0.7929256816598557 -0.46246161652156736 -1.2572943756130694 0.0023230404926090306 0.002162337209086222 0.44655784522162106 -0.3130897144126948
101899000.0 0.5892712544976343 -0.803318792591574 -0.49412132947748194 -1.2937595692907573 -0.0025701070535730113 0.0036348204749580486 0.4491055516376483 -0.30499865234660234
102898000.0 0.5822631625247441 -0.8077775919692767 -0.5251640314792086 -1.3352392500314334 -0.0011628892077701846 0.0022129647447367146 0.4385091392501015 -0.33328014023661096
103897000.0 0.5716598211993615 -0.8154240654569339 -0.5715648430352662 -1.3719778404067142 4.309283914106091e-05 0.00040613017782205335 0.4532228205578407 -0.3297742502767543
104896000.0 0.5645742014332181 -0.8255781934602222 -0.6104993804963433 -1.4052400291546567 0.0019401564585353498 -0.0016590148790482772 0.4247378662282806 -0.3297332532348644
105895000.0 0.5546049769203085 -0.8281074232394152 -0.6601671509598804 -1.4513269244169333 -0.0016624676744031554 0.003205716114515533 0.4262592153618589 -0.3638270051880322
106894000.0 0.5460929876259967 -0.8336926625362088 -0.7140346969225623 -1.48834460357496 0.002177859544398262 0.001340722100165949 0.41597869433594165 -0.3666622483043015
107893000.0 0.5377874596124987 -0.8394204834703135 -0.7720929637470392 -1.5272557627759387 -0.0006167460143578507 -4.6978714820930295e-05 0.4263098584714013 -0.37489909143007233
108892000.0 0.5272599192681696 -0.8439055402397375 -0.8298946939885216 -1.5671515421903839 0.00035425898898901317 0.0024739806759474666 0.4174624902226067 -0.3663861465218629
109891000.0 0.5156435737787367 -0.850301025621334 -0.8871405264351004 -1.6024502672022158 -0.0028575501315140335 -0.0014376272220517155 0.4345388416063797 -0.37034578296017584
110890000.0 0.5011993005933059 -0.8531620180486125 -0.9484699009413871 -1.6030605603058903 0.0018164170220981192 0.0005368103969123551 0.4124701047200739 -0.3749171864321657
111889000.0 0.4950406995635801 -0.8579884585072233 -1.0218794185360256 -1.6691464830782448 0.002146960561148555 0.001533244084506013 0.41557323387537265 -0.39201983477799285
