! Created with skrf 1.9.0 (http://scikit-rf.org).
# Hz S RI R 50.0 
!freq ReS11 ImS11 ReS21 ImS21 ReS12 ImS12 ReS22 ImS22
1000000.0 0.9865356213642918 0.010249385059536636 -0.008791645402944153 -0.05597100189489635 -0.010112777200734353 0.009257861773152992 0.34504391856335787 0.35457244140012195
1999000.0 0.9926974691621676 -0.01292681761251661 -0.0007578367397074512 -0.020980601598635188 -0.006853566323093987 0.0012252878882336058 0.2517821689386056 -0.0567606836358714
2998000.0 0.9980724063249418 -0.020795954421481334 0.012371853507455748 -0.013154397315348768 0.0003456720081737393 0.0031148100490734796 0.17199440735491528 -0.14234305069314576
3997000.0 1.0019465156929235 -0.02955470672109762 0.01652874641830779 -0.00579624898838701 -0.0025582713779792945 -0.00295961272007199 0.08344837476822556 -0.22837643778890973
4996000.0 0.9978808108631319 -0.03939145947979715 0.010889491509613502 0.002575504366537839 -0.0007387538245580016 -0.0019519962677210542 -0.049463518509769815 -0.1987310410440293
5995000.0 0.9981718252630707 -0.04692204511996356 0.013540966931319601 0.0028615495500530865 0.003537264589801996 -0.0038856431459068546 -0.12493478722204378 -0.09334668673403812
6994000.0 0.9930444738360751 -0.05766939982211214 0.008670326011513506 0.01028209539771307 -0.00116469161064893 0.0039047774689710555 -0.1319908714488215 -0.0176948486464473
7993000.0 0.996881439171122 -0.06843676392380486 0.003123986431079874 0.008573919764473472 -4.7248612026570495e-05 -0.002866591672010238 -0.14862223485020476 0.04856515072653006
8992000.0 0.9983332397883106 -0.07056760151220624 0.0013309158056949012 0.008928373343848895 0.001509552365828247 -0.004722887009004381 -0.1503584977777501 0.06500450565544143
9991000.0 0.9935005724923449 -0.08201991212061176 0.004839303009083641 0.006632060965648162 0.002155154678246689 -0.0006101745788873939 -0.1317023988017959 0.09161755910906327
10990000.0 0.9930851168910941 -0.09036206698035419 -0.0005898005166875884 0.006668591290344539 0.002880140030602089 0.006228102960920235 -0.12881508328968688 0.12244843454316204
11989000.0 0.9918143076284273 -0.09917100074388419 0.0028690173644423675 -0.001817070399992298 -0.008505430276086353 -0.00019377683597018714 -0.11750128058642136 0.14601130752633878
12988000.0 0.9912902799584439 -0.1095187578358611 0.0011772698625686197 -0.007249512343370942 -0.002981476425460309 -0.006872733315284714 -0.10758233924330067 0.17478467834435424
13987000.0 0.9884024718537979 -0.11509053359117856 -0.005549050861493063 -0.0051907478576658965 -0.0005729930096493437 -0.0012873882045140801 -0.07455755527589272 0.18911633655338242
14986000.0 0.9890378547538571 -0.124948775559781 0.00012636483566085997 -0.003426001175916671 0.0013584485225297661 0.0013167677489355119 -0.09419510224980678 0.20507750350710932
15985000.0 0.9911395475378662 -0.13316711754571392 -0.0026293495898667527 -0.00481879486212762 -0.0014384331069771496 0.000150019046111032 -0.05547720604187173 0.22368825619660435
16984000.0 0.9886118270361877 -0.1438934624997643 -0.007745157965683452 -0.006243735767728338 -0.003876215505848802 0.000222384327321677 -0.0353327824897351 0.21992648321433023
17983000.0 0.9851905293787321 -0.1494405805109628 -0.002181752467559334 -0.008729248267892186 -0.0018520444360939415 -0.0040376950330149345 -0.04585846640596316 0.2232647794999094
18982000.0 0.9853225464938337 -0.1594238755108754 -0.0031562318254745557 -0.0015270983769101302 0.001220363049264003 0.0017318202697136516 -0.01734952981579009 0.2283988215171458
19981000.0 0.9855279061868877 -0.16509847381453602 -0.00295935321732706 -0.005747997601216965 0.001298909918316704 0.0025107749846408965 -0.004458246619934777 0.24055817658170725
20980000.0 0.9826637936249714 -0.17433148065848478 -0.006276902558439661 -0.0025007092063559972 0.0001293343346154114 0.00233610078092654 0.011885452326099614 0.2538743889246098
21979000.0 0.9805123106189316 -0.1827722951673031 -0.0070643348446467425 -0.006797244659861074 0.001134672160779772 0.001185691460562723 0.030010116915070432 0.24898351410837186
22978000.0 0.9780171630683916 -0.19235613900433501 -0.008686931275405941 -0.004474979512955799 -0.0006117639848318876 0.006385755821064772 0.04885494466828829 0.2542041099633688
23977000.0 0.9792444007403311 -0.20128749135430532 -0.003965631357764332 -0.0012295238201499904 -0.003560650374272007 0.004609102376200448 0.05438936649467854 0.2542492687615788
24976000.0 0.9747703355068174 -0.21106579318290017 -0.00465677158394353 -0.0018241250121293939 0.00061715807714849 0.0027612691939648657 0.06946978051549241 0.25249749894303763
25975000.0 0.9772625300653586 -0.21842140537102642 -0.00031559788877760276 -0.002982362192075959 0.005970530823497486 0.022263306159422198 0.08230708385834055 0.26654621925582833
26974000.0 0.97093863387136 -0.22681719931702052 -0.007812679539778926 -0.0010802183327127785 0.0003576967692399351 -0.0012510399128961922 0.10203276199917366 0.2622768995238048
27973000.0 0.9699263331704392 -0.23434637831113617 -0.0024292570253316888 -0.0013383631752542486 -0.0002108607407981952 -0.0011847991298237167 0.10839289125545677 0.254835200255543
28972000.0 0.9688189273109382 -0.2418531151361983 -0.003007444505194278 -9.641899917415364e-05 0.0021281797571161233 0.001369382724113737 0.12275751244421323 0.2512097361718069
29971000.0 0.9650685488923759 -0.25086525453470815 0.0012724659150795219 -0.0006435142273181186 0.0007435928106276803 0.0011069518205535536 0.15148833739990938 0.26597967865386113
30970000.0 0.9639212820353127 -0.25674556491670725 0.0016723593105469915 -0.0012589010531518314 0.0013163525157682092 0.003075637619345086 0.17719587009091622 0.2515848788137378
31969000.0 0.9620875958079629 -0.2654950669079445 0.0037531142098003105 -0.003353592778662161 0.004793000099639839 0.0014230991705965151 0.15760877079642424 0.25254221578389663
32968000.0 0.960515527846704 -0.2739958587613462 0.009597606494769057 -0.0069677072694371124 -0.0009996283742422084 0.002248142616087974 0.17301122131594215 0.24499300504252378
33967000.0 0.958056678597896 -0.28334298018297144 0.012315739525721748 -0.009300618204564418 -0.001455301510317336 0.003257983446806948 0.19056770899662845 0.23680629860241545
34966000.0 0.9563472838638372 -0.29147009676167657 0.014588184501575117 -0.011636364088408525 -0.0014277729733109831 -0.0018116345039446325 0.20502736726203924 0.24868222219450442
35965000.0 0.9512074207075 -0.2989025975045805 0.020038438953524893 -0.012883223903816009 -0.0017189670093405143 -0.0020376824157358107 0.2222050822030834 0.2459751324120407
36964000.0 0.9512674919251468 -0.3089469482280746 0.01585966147798959 -0.014926817560470587 -0.002677004644044667 0.0016899886659866349 0.2154499072443098 0.25161792472997285
37963000.0 0.9454534027015027 -0.32020067816941045 0.02197063810426367 -0.020400029651730347 0.0009389765985398355 -8.96699977945582e-07 0.23557950779470213 0.2391309089791737
38962000.0 0.9432298471486803 -0.3281731393454944 0.028656792147781215 -0.023899832284952648 -0.0074153232001867 -0.0025489273645541324 0.2525793081455306 0.2330701611140412
39961000.0 0.9416058490803104 -0.3330358731589552 0.027327983244620078 -0.02803137589169972 0.0017481625693218255 -0.00030906437641066675 0.2655283200654947 0.22966293412128172
40960000.0 0.9378252792732582 -0.34121822565776766 0.025797332749539204 -0.022179537001920307 0.0034812484663687784 0.002053722471880032 0.28056932478439117 0.23581537962361743
41959000.0 0.93474721174586 -0.3519642888963888 0.030572111297441723 -0.03346897319110397 0.0010544492772135213 0.000771759732836511 0.27880939994956117 0.2229619075352686
42958000.0 0.9303207533026588 -0.3608186232892828 0.03454964288007954 -0.040131536761367236 3.2559360610338775e-05 0.0012135335793214154 0.29586098047313963 0.20517191323247067
43957000.0 0.9302324480787355 -0.36488545206056455 0.03569042827155352 -0.04674400966833177 -0.001118052173517015 0.0014170374258268123 0.3012073221220276 0.21071920323519905
44956000.0 0.9253057115945476 -0.37280318413407915 0.0349849737601311 -0.05422280681542535 -0.005232893974802891 0.0007669937295027964 0.30652322296696616 0.19643095411605463
45955000.0 0.9203260418922196 -0.3831030144491173 0.03567716353706085 -0.05904690487849313 -0.001062224289300251 0.0010587297453649714 0.3205221340227388 0.19073381328833502
46954000.0 0.9169249783457266 -0.39249041134744767 0.03974865630145044 -0.06708089276514712 0.001933983683990584 -0.0026707553991817015 0.3260358958134249 0.18416752561496155
47953000.0 0.9158453413821892 -0.40082780226493936 0.04021418558770442 -0.0742204653147477 -0.0018876211336927757 -0.0006592801799367246 0.34336511246703433 0.16776970147348086
48952000.0 0.9087581239551655 -0.41199100644854864 0.03937291374939486 -0.08466908757800992 0.0030581278108684 0.0013132651113134948 0.3416896316587848 0.16342030726590862
49951000.0 0.907880079606323 -0.4160926785260907 0.040816865582563915 -0.08912761225874341 -9.409430001525981e-05 0.0022987362489436704 0.36508755940170223 0.16333996154067304
50950000.0 0.9042742998655915 -0.4230105619291251 0.041710238082261625 -0.09856229476839028 -0.0017169989551047344 0.0029509464276684613 0.3683452439830582 0.14204222907312208
51949000.0 0.8997507381289311 -0.43424228624748606 0.04684847369547236 -0.10803185616013748 0.00043682195326219823 -0.0004508354912628308 0.3721328388828802 0.13928533893403267
52948000.0 0.8972155366199487 -0.4408624862287306 0.04673450251818078 -0.11603455889009169 0.000720671881803163 -0.0005023713718229651 0.3776869278252493 0.14030452603863106
53947000.0 0.8899268475185003 -0.45011115806851965 0.04867746169711882 -0.125494483822061 -0.003967889228071879 0.000748829405469062 0.39238616887267724 0.11849415074771769
54946000.0 0.8866102596262188 -0.45696670619808705 0.048457760715365436 -0.13658944406875806 0.0021150578226498047 0.004058546664675406 0.40328801664526703 0.11898303515765093
55945000.0 0.8835596334474464 -0.46534585807463064 0.05357195567966596 -0.14463289000385046 -0.00232937500460171 0.0006634637351753176 0.3970213361337108 0.1045178609245473
56944000.0 0.8800786091304644 -0.47307536672710754 0.052977179100309 -0.1541270293413319 -0.00014123208389562377 0.0008560810215724324 0.41450226806941964 0.10896866821773576
57943000.0 0.8752006866810965 -0.48384949251801135 0.05452140478099679 -0.16520187833819172 0.0016781977149894502 0.0014403024465035764 0.41633089737915774 0.08854521350335785
58942000.0 0.869369486588244 -0.4889369046556958 0.05667158625836506 -0.18147554927758364 -0.001986190602109404 0.00031671362579037225 0.4215591637137385 0.09089528348277136
59941000.0 0.8667641030434683 -0.49625320922816385 0.05893501820987599 -0.1917688266268832 1.813290819117041e-05 -0.001514765955923535 0.42583447434394733 0.0907752700055145
60940000.0 0.8583217841511104 -0.5069996829896983 0.05844348275644881 -0.19151942814434433 -0.002501374503600882 0.0009400307552072108 0.42362983068821985 0.07329531333932754
61939000.0 0.8557109232895641 -0.5118759284318045 0.058999004458508586 -0.20010648504599965 -0.0008702615288604731 -0.0017540326793268226 0.428399934424887 0.06140861051646203
62938000.0 0.8502866680994426 -0.5224955906697666 0.06349776072009787 -0.21853695139180285 0.00012055819400378592 0.0012686694749947857 0.45466094718741185 0.049781420318584034
63937000.0 0.8461294113689766 -0.5296817399735329 0.06521671592557554 -0.24267906560938207 0.000545829312804884 -0.0014757866437883045 0.44684692812082694 0.039879475761229737
64936000.0 0.8396848006305491 -0.5355976485217566 0.061165629980398144 -0.2564667163890688 -0.0016487175468296374 0.0014910033536099316 0.4385513597213082 0.04463767035589708
65935000.0 0.8382088744131969 -0.545319381621414 0.06367366222360624 -0.270964729793444 -0.0030683283885282516 -0.001630637458864362 0.4539883282667909 0.019144514154977744
66934000.0 0.832555733909378 -0.5524039055117343 0.06172556290104983 -0.2871851169583106 0.0005147340094186155 0.0008232302855391294 0.4511727815467963 0.01957900770046748
67933000.0 0.8285328294279722 -0.5588046651604466 0.06351938915565626 -0.301627276892015 -0.000716189222972996 0.002490279640742849 0.45937978876746216 0.0037727955102143454
68932000.0 0.8251842750338393 -0.5627384749285204 0.061444030243321866 -0.31393628225583886 -0.0004829481708051685 0.0009222095410512417 0.47087015211259425 -0.006396663585211728
69931000.0 0.8152338073002778 -0.5749117742668811 0.05921925026818392 -0.33371883078638853 -0.002809606655326888 -0.0001854910544184459 0.45488371870774863 -0.020510347345909608
70930000.0 0.8080775382307386 -0.581191060881832 0.056247090956726156 -0.3466386081315752 0.0026430711313309963 -0.0009207283136325752 0.46544554009768113 -0.032466734563055016
71929000.0 0.8051830668569774 -0.5904941466422781 0.054547055110519306 -0.3680165351339257 0.0012131998457712344 0.005005786827135236 0.458220028992158 -0.03693810999003405
72928000.0 0.7972568411167903 -0.6006969348394221 0.043261340953851535 -0.38390306512232303 -0.0001923501855635801 -3.731085730596778e-05 0.474838465402652 -0.05389745039326504
73927000.0 0.7940356571240916 -0.6062892844249451 0.038405700381589566 -0.4087898403397026 0.008304179319769983 0.00017143200373776979 0.46398855567469455 -0.05997201820741786
74926000.0 0.7877310687945205 -0.6150805119956593 0.03349718490191092 -0.42731235811802976 0.001056031801072739 0.00014994633637844244 0.48445834572590024 -0.05347128835678179
75925000.0 0.7831879814496344 -0.6197282889249507 0.024921473230879974 -0.4454451933783775 0.0023541505900768096 0.0013940136841656208 0.4912032167491798 -0.06930683039028884
76924000.0 0.7742878958565163 -0.6293118928759321 0.00921134689600371 -0.4706559004790777 0.0017105578749999752 -0.0008307306317071555 0.4795897561442133 -0.08553021652921301
77923000.0 0.7702586826431979 -0.6341393839376052 -0.0047422584148447515 -0.49039140647814866 -0.004073557885412029 -0.0004315866674938937 0.4728608100251534 -0.08596755694653532
78922000.0 0.764973525049116 -0.6455360576249243 -0.01753985282897227 -0.5264691002584938 0.0029535903365411663 -0.00033686162056791193 0.4773419068308725 -0.10820746643862716
79921000.0 0.7555619365256826 -0.6476468905766168 -0.03145956330936424 -0.5505418186220045 0.0016455273753139127 0.001306435878446587 0.4684984903454298 -0.10532758571738549
80920000.0 0.7506596233455629 -0.6597183509716078 -0.04712399166136402 -0.579369359140255 -0.0002521003426927082 0.0039734625152224885 0.4752293028145225 -0.12143821155807114
81919000.0 0.7445790888907955 -0.6647701748691444 -0.060960515791265636 -0.6119269933901125 0.0012674804652537885 0.0023483692325313834 0.48346289488860095 -0.12514946873212682
82918000.0 0.7361991460488212 -0.6727100550266708 -0.07934445488595464 -0.643493922477012 -0.0006448833035211521 0.001640932227770436 0.48889213791689656 -0.15177464899332238
83917000.0 0.7287718001481648 -0.6824992955320932 -0.09996702832840522 -0.6730343337001373 0.0009234248438468162 0.0012492939519050284 0.4884116687231423 -0.15230497575613053
84916000.0 0.7241040852047309 -0.6893736578473388 -0.11925730080292878 -0.7065333568135335 0.0020000103464678067 -0.002135100754536358 0.4702067698257418 -0.15525980588691293
85915000.0 0.7179199540893456 -0.693242235396367 -0.13230385476121997 -0.7412372503546499 -0.0006147476901207119 0.002010068169676653 0.47127493012623045 -0.1739557351124606
86914000.0 0.7097386941953286 -0.7047310759388362 -0.15106300083612204 -0.7771103316025246 0.00047726208941612587 -1.4985759153404288e-05 0.47639053195830267 -0.16890429365023682
87913000.0 0.7052555630302048 -0.7105941348990639 -0.17304648105476203 -0.8092664042171551 -0.00339720294987586 -0.00014289671521331882 0.4758856147542014 -0.18498300030007045
88912000.0 0.6947581069905447 -0.7167884661173858 -0.1852715938415621 -0.8479150212559081 -0.004003630380515218 -0.001583655177308358 0.47446817173728556 -0.19545550299052128
89911000.0 0.6866344561096422 -0.7264333493686917 -0.2007311192903064 -0.8841485879446174 -0.00038120226168528566 -0.003289963541653163 0.47342829061074015 -0.2068181829104794
90910000.0 0.6802697609576884 -0.7311298216818742 -0.22093466033086823 -0.9176721036086276 0.0006176401044460767 -7.887976394386214e-05 0.4757758753874419 -0.20463948007242733
91909000.0 0.6726474588288062 -0.7361286452659952 -0.2427311069275509 -0.9493998005870476 -0.000793613419253151 -0.00016035180310970153 0.48091570634082054 -0.21814908170035835
92908000.0 0.6657761713984691 -0.7458008797413664 -0.26377074414503177 -0.9893457272951534 0.0013579172382495778 -0.0003911931040108445 0.47176122683148314 -0.22994713790011365
93907000.0 0.6600293660490801 -0.7501326394804119 -0.281754713446519 -1.022770790011462 0.0011653072202305972 0.002221574216468682 0.47413369581284004 -0.2441510027336714
94906000.0 0.6464193852642014 -0.7583936352710589 -0.30290684828465814 -1.0571583096992876 0.0025201768142724 -0.0023425122848778866 0.45999372775000497 -0.24663745148629454
95905000.0 0.6403804334918061 -0.7647708934634259 -0.3314622604970249 -1.0933769925008492 0.0012282034047325675 -0.0005545966151215936 0.4669387072316845 -0.26620400164874153
96904000.0 0.6306061988158757 -0.7735241875578244 -0.35082923485124856 -1.1380803121369278 -0.0014034268438472633 -0.002374384315663517 0.4552947056419253 -0.2663093924450141
97903000.0 0.6221459058627699 -0.7780245659586807 -0.3774115901564665 -1.172069193851868 -0.002458174234965116 -0.004067819392924625 0.46066817753526595 -0.280311515811136
98902000.0 0.6185102557973484 -0.7851335292283081 -0.39783576782201424 -1.2127502433355635 0.00013704559774252434 -0.002747801839905846 0.46381825019828243 -0.29311349966864975
99901000.0 0.608936140282076 -0.791232739906134 -0.4268204885324767 -1.2504085574874708 -0.0037966877681546744 -0.0024065030016487982 0.47421657480010765 -0.3049669238767607
100900000.0 0.5980557177666045 -0.7943539015499776 -0.46230428376329386 -1.2765300582732504 0.00023924553440553918 -0.00020016445421704618 0.464696523536308 -0.30619708806301466
101899000.0 0.5895336113384978 -0.8029657006941138 -0.49432787470116996 -1.3183471675482237 -0.0008393737273896121 -0.0003570976641873607 0.4609771099378405 -0.31118246229881924
102898000.0 0.5807247940639338 -0.8106604406435542 -0.5307003645440506 -1.3612239316764938 -0.0005549171270109161 -0.0016603595479371181 0.47033982615036746 -0.3286502680507687
103897000.0 0.5729995796482726 -0.8154637176771894 -0.5742018472842699 -1.4006365909829475 -0.0011348258046492443 0.0001423173622970706 0.4771335353260668 -0.32890632327951536
104896000.0 0.5663286553621446 -0.8232763254337544 -0.6234782138733191 -1.4351777666806074 -0.0019850562627648973 -0.0005821474934952984 0.4522942836929967 -0.3405818038528175
105895000.0 0.5536582929698513 -0.8265895844805392 -0.6721559231969131 -1.4845427583105533 0.0002520252469881301 0.0021007191047604564 0.4585199186981858 -0.3551835689358519
106894000.0 0.5463313643478225 -0.8334881227149231 -0.7276662492454061 -1.5212589790098603 0.0006436877187176486 0.0022923253329220246 0.43767304720540157 -0.36473261036537213
107893000.0 0.5358479063792033 -0.8410715977168797 -0.7824997172315062 -1.5544789203979619 -0.00012885044499881556 0.0017760261155139604 0.44144171657443315 -0.37309969421163797
108892000.0 0.5298581929721067 -0.842935525930859 -0.8412428032524276 -1.5984886058711827 -0.0006039489748200887 -0.0004221783146844042 0.43873164532491776 -0.3771953669486021
109891000.0 0.5159558622828945 -0.852801778685947 -0.9031726696011104 -1.6349658324826255 -0.0019600128127822 0.00022177230072894166 0.450158592204291 -0.36982020113110486
110890000.0 0.4974276355321229 -0.8566706798542375 -0.9700809087961405 -1.633310937815961 -0.0005422103870082512 0.0006570578359211328 0.4302886650510713 -0.3835086779051643
111889000.0 0.4939828069032849 -0.858512589329913 -1.03166324814121 -1.7075135350663337 0.00124599148002469 0.0013914262656015528 0.42992903273760696 -0.4054238306011447
