! Created with skrf 1.9.0 (http://scikit-rf.org).
# Hz S RI R 50.0 
!freq ReS11 ImS11 ReS21 ImS21 ReS12 ImS12 ReS22 ImS22
1000000.0 0.9840964927969506 0.006879894602497254 -0.001605835856152821 -0.051132266412960745 -0.02368779633608244 0.008560392863571123 0.3528354506445043 0.3527228836615079
1999000.0 0.9946298845947106 -0.012582124189211423 0.009113825019937282 -0.028204742008514545 -0.006192126432869473 -0.007633094351595503 0.2695585624220699 -0.06242870714332505
2998000.0 0.996067929447295 -0.018264168874287504 0.011875319892873716 -0.014095050247938733 0.001340700247597562 0.0010503083483395892 0.17853289637899178 -0.1550368803076487
3997000.0 0.9978375842932037 -0.03075581377810644 0.009874493869876702 -0.011396323481275328 -0.004722539850174302 -0.001661629111599722 0.0912170170532061 -0.2290117647110626
4996000.0 0.9976231487788529 -0.0397061596709713 0.00920316365558442 -0.0002652368194538865 0.0022180741623611796 -0.0006042024368287097 -0.053457121650943296 -0.2073316129297128
5995000.0 0.9969801451090059 -0.04816175128289426 0.009042650459536514 -0.0022519291203419475 0.003870752543154973 -0.0015720551021383789 -0.1161490593939148 -0.11061814543242374
6994000.0 0.9950598547128113 -0.059069109010367264 0.011987377806282664 0.0026953445678506113 0.004957023282208642 -0.002375029921862345 -0.14143630956939718 -0.01678185988946531
7993000.0 0.9959337921465463 -0.0687853288773112 0.004113567499130602 0.0023906920841874238 -0.004835081571913585 -0.00352041997566223 -0.16564362132678717 0.03948945062048771
8992000.0 0.9944275200740439 -0.07453295592304873 0.0019075423142498548 0.005831808797221177 0.0025179649130405773 -0.0037777362246716696 -0.16359607676678395 0.07552336835580453
9991000.0 0.9938392934218442 -0.08222053460668736 -0.0016599199024027887 0.002864595504239144 0.0015464225716818115 -0.0018986636585485628 -0.15264705399934833 0.09185243155453225
10990000.0 0.994220126744057 -0.09238592270487533 0.003305136054417242 0.0045085515857524825 -0.00349102786839738 -0.002144656334584365 -0.13495001344561075 0.11559039947603558
11989000.0 0.991317631220031 -0.10116218068184626 0.0029489502618352736 0.002387977338192653 0.00041094119462589706 -0.0011083393194903988 -0.13315705105884637 0.14399400241437757
12988000.0 0.9896812578456813 -0.11006760557489331 -0.00025454905747981503 -0.0032788909815668066 0.003753621253929609 0.002764829686879087 -0.11373662446948153 0.16816720153254658
13987000.0 0.9887946476342966 -0.11703199570958063 0.0008317727519397404 -0.0025092444439007116 -0.003177734492033272 0.0005028243255273607 -0.09105188084110329 0.1887205411657871
14986000.0 0.9881638536097475 -0.12628504948383074 0.002255515945853352 -0.0005751661429580665 0.0005910434007983054 -0.0023107657832789493 -0.08483676016592079 0.202380262679714
15985000.0 0.9891343469397805 -0.1332394470793604 -0.006385196770630878 -0.005792663091430833 0.0016526819756419353 0.0028741809871837003 -0.07182471669862156 0.2058246180406337
16984000.0 0.9860511134590412 -0.14261940167868165 -0.007119073011886412 -0.00549491125355365 -0.0010347267186791484 0.005017624374247287 -0.06447963415351418 0.22196135206751416
17983000.0 0.9879390620475259 -0.146649120289399 -0.0009214821490390501 -0.0045883268904979265 0.0028259945193150333 -0.00024983471001923215 -0.05660773144238535 0.2304657365319122
18982000.0 0.9830851589876675 -0.16121031138916816 -0.005675315337234091 -0.004071090972670042 0.003874790776753969 0.0005792024548172928 -0.028090499099848572 0.23651223332284824
19981000.0 0.9826596443804245 -0.16634050610460926 -0.005073482994638737 -0.008302575570918434 -0.004171193687143897 -0.00335959231824799 -0.021701438325352346 0.24894943451185209
20980000.0 0.981935911747927 -0.175015607089103 -0.0040804904648551205 0.00024111126983706953 0.001268343727760793 -0.0018073178438641766 0.015652142999403772 0.24866194795500215
21979000.0 0.980161911058695 -0.18371502532391526 -0.005249662806891837 -0.001489692369295256 0.0022774848776362985 -0.0024886944953203833 0.01486146166034064 0.23580803175160983
22978000.0 0.9762098449059171 -0.1945019493546665 -0.002635361775601322 -0.0004524311336639502 -0.00344749661489743 0.002333231868454304 0.03005809407417602 0.26086517987387275
23977000.0 0.9787533999283066 -0.1988460163487828 -0.004305753763877408 -0.004570858201405457 -0.0023299495127007733 -0.002221015808130466 0.03839467136684637 0.25663263408349274
24976000.0 0.974209041771843 -0.21133980475761655 -0.00817525736283894 -0.002565551746008587 0.00264151560969249 0.003177602125620971 0.06732479842849598 0.24873139882003717
25975000.0 0.9719938923459565 -0.2141150003062777 -0.007250588587757256 -0.0009695983027956721 -0.023021928610923812 0.01682121683123809 0.08226496114912903 0.26542005480630565
26974000.0 0.97075921275042 -0.22710540074200072 -0.007047348320733363 -0.0020363876815225153 0.0036658967426033144 -0.00038929016679902173 0.09158193866433334 0.2653985890637746
27973000.0 0.9686235401025849 -0.235041638853919 -0.0011894137707561077 -0.002659618428823153 0.0011366713558746617 6.864381912086704e-05 0.1089207714664216 0.2637097837095915
28972000.0 0.9660884401981045 -0.24543063454588004 -0.0014184194099554365 -0.0038956254434893596 0.0033759640768515745 -0.0009034056776840057 0.12270943173093501 0.25292407634954606
29971000.0 0.9657111365617335 -0.25111492048591 -0.0003206229182990016 -0.000707600015583968 0.0002555252510261818 -0.000281017105139539 0.1503800514986942 0.27126383718300917
30970000.0 0.9618943490728881 -0.256130856232991 0.005595204753145671 -8.818462256593782e-05 -3.753454545027326e-05 0.0035207544229757066 0.16326758369833252 0.2617275485888102
31969000.0 0.9620310678544645 -0.2663939409761395 0.005834423269295868 -0.006540167454369874 0.0013059273635939533 0.0029650399472884925 0.14610069272146378 0.2459237171610506
32968000.0 0.9585418532426907 -0.2770245146608292 0.011614446920843123 -0.005693735001193655 -0.00015789252729086955 0.0007078658998508841 0.15451568370202093 0.24575113192637996
33967000.0 0.9564228997148194 -0.2866556684510119 0.012601941997611013 -0.011919571565658212 0.0011929056483346997 0.002004013765289842 0.1822974746772046 0.2481285035688442
34966000.0 0.9539158996564655 -0.2954193118528236 0.01526767306079335 -0.00892467832807575 -0.002994734368758506 0.004056534821763101 0.19421505962851193 0.2499201590418299
35965000.0 0.9503480015135589 -0.30265370449440177 0.016855183188609145 -0.013542141102810431 3.256562705314541e-05 -0.0018513408301781943 0.20756296216181716 0.25430342543625334
36964000.0 0.9482048892907678 -0.3104361739006627 0.015484171405884303 -0.015661223834783633 -0.0015647428373520614 -0.0025063957274850716 0.2106097663413212 0.252170262524458
37963000.0 0.9454732787971791 -0.31892936941823286 0.024392426465116197 -0.02136823584631869 -0.004297507086756453 0.003330384534446146 0.2245541061950829 0.23196132429335592
38962000.0 0.9424212270442465 -0.3306673667863476 0.021935109434192083 -0.02567954922813127 0.0033365465957659397 0.004459183767718338 0.23569314669603417 0.22938830512805514
39961000.0 0.9412733573891903 -0.3341428394074633 0.024865920216321568 -0.026160120191725617 -0.000668744628018605 0.0021608411958013614 0.2507128175809119 0.22437857284206175
40960000.0 0.9366331188636777 -0.3459036989057789 0.02200894618241606 -0.021410451494293943 0.004673288525202981 -0.0015693601086768268 0.2687729279646606 0.21879514757257154
41959000.0 0.9342940698420501 -0.35504446347180035 0.030737445661164937 -0.0343698083636923 0.001787603938053346 0.0009577173787611715 0.270537009152454 0.21475800611582574
42958000.0 0.9292140042469584 -0.36199293011788697 0.032376061207342946 -0.041688035399960785 0.0016809506982567676 -0.001400800858698368 0.28002874804483013 0.20534774365072783
43957000.0 0.9262556862581198 -0.36881018586326936 0.030149515419870532 -0.04463734234289704 0.0029166773865702262 -0.003098821061931437 0.2867823504995355 0.20668632911240542
44956000.0 0.9237354741894835 -0.3780471954319063 0.03424374499756475 -0.049991165942011785 -0.0008017805062923292 0.0020028879184244477 0.31056541588989955 0.19402552434701398
45955000.0 0.9203412686792013 -0.3866321256892114 0.03327539051147388 -0.05666768912880526 0.001806520303196656 0.0001903804710238477 0.3017789769913329 0.19235590375931944
46954000.0 0.9149298949596862 -0.3959019774515625 0.03372085613691938 -0.062427568947006 -0.000304003586569835 -0.000804180576678321 0.321281704419884 0.18230257677019898
47953000.0 0.9142907478436881 -0.40167704188368714 0.034206814021725304 -0.07404154265473605 0.0003197235333106172 -0.0021116613306040284 0.3333372007982664 0.16749295327856706
48952000.0 0.9078186921091809 -0.4115448082787295 0.03334385572559543 -0.07658570851504004 0.004210485258268437 0.0001956839985902343 0.3354919334514399 0.15849346396307526
49951000.0 0.9046685318536315 -0.41955452500336005 0.037786761456024325 -0.08545393524622208 -0.00041980099280219734 0.0003952201053429461 0.36065562417292535 0.14832914946644046
50950000.0 0.9009294437144411 -0.428545010169746 0.04092496641132887 -0.09562899579746513 0.0031129584791201375 0.002679999128409194 0.35059377964816657 0.1535267535285391
51949000.0 0.8961185649158622 -0.4361259270705372 0.038798600794470076 -0.10506406133607889 -0.002337982630867687 -0.0007207912884996664 0.3609957268051766 0.14046915968426052
52948000.0 0.8954517327779854 -0.4431894391734796 0.0416963340524372 -0.11231780607200073 0.002906564673259638 -0.004918078412577325 0.36845526772492193 0.14066580957274627
53947000.0 0.8881851041271105 -0.45261487449786025 0.04184482560468049 -0.12099326673461576 -0.0019274823794044704 -0.0010283134359300576 0.3629690734664154 0.1293661255388441
54946000.0 0.8847304136505594 -0.45885078982356575 0.043213784658083676 -0.1305098302561335 0.0007470882167032859 0.0007146206484444067 0.38472167872409585 0.1166531521483821
55945000.0 0.8803515655651141 -0.4698889590488935 0.04811273709964898 -0.14051870861557925 0.001973482053870191 -0.0007448046998893691 0.3917746042022553 0.10718017428879373
56944000.0 0.8765576846516691 -0.47728416950398134 0.047116912988838786 -0.15190158602757314 -8.443947691142171e-05 0.0008531331397603574 0.39160007273890096 0.10161390622275797
57943000.0 0.8729578161009075 -0.48751269829444854 0.04625841576676391 -0.16072744866384583 0.0026165175130601088 -0.0003446381852591831 0.39858232110642383 0.08197269714347348
58942000.0 0.86657267302372 -0.49100197775011517 0.04924915048249005 -0.1732396685740395 0.0009215100804955351 -0.005083375466947244 0.4236031576309657 0.09316195951307177
59941000.0 0.8624402862031467 -0.5008900975092584 0.05124127117758415 -0.18317601739514178 -0.0015431534592330238 0.0021741071578367873 0.4277908171271364 0.084660888732265
60940000.0 0.8547150344687265 -0.5091588758316243 0.050017873403782484 -0.1874981155170718 -0.0037206219385485097 -0.0011712734867282408 0.4137871141212936 0.07524530551191586
61939000.0 0.8530613073053717 -0.5142080127219434 0.05310781740169077 -0.19461030943821728 -0.0015546114049099632 0.0002387075753466377 0.4165311776959632 0.0545172456444192
62938000.0 0.847439105380161 -0.5242398029732886 0.05806413987756763 -0.21228524425057962 0.002202924787821835 -0.00029152457355962924 0.44178604336464444 0.05321220585027938
63937000.0 0.8419979166548824 -0.5328324861434761 0.05497321373724879 -0.23150063449729194 -0.0013946840147116921 0.004114448147784545 0.43343126640810803 0.03463619188469897
64936000.0 0.8367021146662741 -0.5368065213184217 0.056807126214527146 -0.246821914375399 -0.0037003758889190093 0.005390736790171345 0.44002421826124294 0.03817720785222589
65935000.0 0.8330322624694062 -0.5488717961219197 0.05314535688588089 -0.25795739399876166 0.00399240324670798 0.0025340462650424484 0.4418130728491398 0.010247659590888395
66934000.0 0.8281207079154489 -0.5550551356852902 0.05676807033615043 -0.27417605574395054 -0.004043684001158015 0.0029271639571057015 0.43690118971494035 0.005402202043585421
67933000.0 0.8256556301484482 -0.5630312740027581 0.0574494534948398 -0.28790601314141434 -0.0018417466227093138 -0.0003148319077521151 0.4459890601825229 0.00796919331362764
68932000.0 0.8191030481521459 -0.5563916542588175 0.054487364329904676 -0.29972992443234664 0.00020488396802346802 0.0014693929069163082 0.4411234910239885 -0.009866056167441595
69931000.0 0.81010982425061 -0.5791435643971587 0.049658717690930276 -0.3168518288156982 -0.0057820865607406124 0.0022777388055268298 0.4534174930456664 -0.030515210057004225
70930000.0 0.8052185140369903 -0.5860597212375728 0.052866309561814484 -0.32914482536712375 8.213213660184025e-06 -0.0010020578526810627 0.4557545929517364 -0.035873767733499005
71929000.0 0.8029399000755475 -0.5951132824695394 0.04578747938852167 -0.3486379340910075 0.0008467847631253007 -0.0019751590017514607 0.4598384154365404 -0.047612483002377165
72928000.0 0.7958191472990097 -0.6026780821045984 0.04635393628131547 -0.36529292297803656 -0.0007578291006459559 -0.0019178823121232288 0.4638117779632078 -0.0568734201701285
73927000.0 0.7892285576226321 -0.6090274579736941 0.034242845129571146 -0.3830715493095672 -0.004028882081301324 -0.002033649088060451 0.4586663748522703 -0.05520486099861725
74926000.0 0.7825264819622149 -0.6196870991168361 0.02608417494630651 -0.40437705561522386 0.002155565973606004 0.003708923269242975 0.4617977143749211 -0.07257493067925581
75925000.0 0.7770812313355684 -0.6236715114705793 0.017007618853191693 -0.42202580419256946 0.0020687286612902198 -0.0012385284439432043 0.47447414364148194 -0.08109937791180853
76924000.0 0.77124841071673 -0.6316170148000434 0.00505873563261067 -0.44606666132990636 -0.0022067029193244244 -0.0035952122899552204 0.4697337643443784 -0.09001279119580688
77923000.0 0.7649234200684397 -0.6376723116552899 -0.006260017745871816 -0.46910609681507165 0.004528528967459348 -0.0011672458382369882 0.4596634294179469 -0.10744591838563329
78922000.0 0.7600882852386187 -0.6468273953011084 -0.018878910667281108 -0.49486540351277014 0.0037268027507189653 -0.0016268695268624198 0.45805152949563027 -0.11323218605906085
79921000.0 0.7513109225405309 -0.6520515002185767 -0.03697543670187963 -0.5191530472749489 -0.00032403259708013027 -0.0008258678140510779 0.4553795412709594 -0.1137723876204175
80920000.0 0.7465015155344314 -0.6617898770832 -0.05138417758725623 -0.5471362247675814 0.0006145590698508419 0.00358480718123919 0.4627206735029315 -0.13666866768207497
81919000.0 0.7432187157464603 -0.6677503584051319 -0.07115307657043905 -0.5775983626314753 -0.0008646814547169576 0.0017959261827727125 0.4721540780960197 -0.14589351348602747
82918000.0 0.7308528679666324 -0.6772279146601595 -0.08003407247500133 -0.611540480900542 0.0003694570336840795 -0.003128276719018054 0.46733574608035217 -0.14671362854391062
83917000.0 0.7237421593233436 -0.6836356903460964 -0.10201019672605122 -0.6368423721769088 0.0022220798230220213 -0.0011964432687839497 0.46990485995091735 -0.1637958203755785
84916000.0 0.7189518507279673 -0.6922117170250952 -0.1213940195259713 -0.6695145183917434 0.0015817883447797668 0.0018674545479927713 0.47424260815949754 -0.17378730733594236
85915000.0 0.7132364231721368 -0.6954428412555677 -0.1394274375696021 -0.6982278384315357 -0.001674238532910385 -0.0007481596015470779 0.4688667244621826 -0.18254735256668003
86914000.0 0.7059627182096362 -0.7072625259888026 -0.15695223401193914 -0.7354378198159661 -0.0062451147479272604 0.001095262026284774 0.4577433333795964 -0.18196603454363594
87913000.0 0.6976419775162025 -0.713729975076907 -0.17392709098412953 -0.7670814656708884 0.003093982342428025 -0.0015435070207950447 0.46193290481845944 -0.19045085677670268
88912000.0 0.6924693813129181 -0.7203389625295192 -0.19481552108753916 -0.8040697514229661 0.0022263544257145225 -0.0013916767560038354 0.4645391345437404 -0.21809200363459602
89911000.0 0.6841415228216635 -0.7275615442196317 -0.2045465549125273 -0.840441867465809 0.002325740348950416 -0.002983179265710325 0.47964546638833955 -0.21274173643437297
90910000.0 0.6790335052322239 -0.7310452771299731 -0.22019728408775952 -0.8754779960783563 -0.0020509565204444758 0.005326091928182078 0.4587013380354526 -0.2187757636793561
91909000.0 0.6679008525668139 -0.7378273618384744 -0.2427945143762372 -0.9048300297496803 -0.0015401399616432941 0.001849032571765406 0.4767380348126608 -0.2410313340065192
92908000.0 0.6588103137604984 -0.7471783122687606 -0.26234894441722717 -0.9390399175557803 0.0010484342836873707 -0.0007464217131521226 0.45876906541040385 -0.23688075121559488
93907000.0 0.6557090098789162 -0.7535651108295895 -0.2838606451059429 -0.9731023450907093 0.0006619633565751163 0.0009321874010523878 0.4602311518936951 -0.25774244421631937
94906000.0 0.6396827837420319 -0.7623710585489489 -0.29449118998409174 -1.0054783578768633 0.004297413659476777 -0.001331745246412547 0.4611593187648912 -0.2633725798869378
95905000.0 0.6347016562891602 -0.7686305312032543 -0.32178318732227335 -1.036935471556798 0.00018936124812449158 -0.001115833449029278 0.45915261608958163 -0.2688722150447927
96904000.0 0.6286542577075303 -0.7746842013118598 -0.33357868042470845 -1.0839390819331638 0.0013118304636616914 0.002121221888678587 0.45416616159606077 -0.2790656587222814
97903000.0 0.6186712796112744 -0.7824807223083188 -0.36351520553334377 -1.110319563129035 0.0019864699582464837 0.0009486568572509308 0.4426910635002265 -0.295580307674646
98902000.0 0.6136503874605611 -0.7880832513760859 -0.3770804657103769 -1.152651458861544 0.005362324263112173 0.00033521304007825056 0.4466228270727486 -0.29996914052373075
99901000.0 0.6033239687464313 -0.7930687515222468 -0.41163851221723924 -1.1786140644454306 0.0012723255845872388 0.0028931668300505487 0.4644953208023688 -0.3165756630723602
100900000.0 0.5953573991798919 -0.7973066190787299 -0.4377908696651069 -1.2138809596504383 0.0006943311963233913 0.0026911488179950454 0.46200647926957567 -0.32076795978858486
101899000.0 0.586297873252525 -0.8044118680561383 -0.4628392460679898 -1.250237044931966 0.0026445879001327677 0.0011522206554681089 0.44716160701915375 -0.32322492251688745
102898000.0 0.5779038785064717 -0.8101345391150641 -0.4967650767653656 -1.2919571399262055 0.0005180139933806772 -0.0028974669093133412 0.4521477793085575 -0.34474453932055255
103897000.0 0.5690026362305238 -0.8166137595526505 -0.5392989515415862 -1.324234960779297 -0.0008887339999361346 -7.502466142112422e-05 0.4597445071679727 -0.34002544809745916
104896000.0 0.560627477254847 -0.8273256147774382 -0.5830609187603154 -1.3578928610602445 6.84421106215441e-05 0.0005942942743369386 0.4384749276198099 -0.3547291730684164
105895000.0 0.551617482571205 -0.829257420854228 -0.6252800007807394 -1.4045742191114854 0.0014441700900719387 0.0004393570850977694 0.43816867513198265 -0.3672897454300665
106894000.0 0.5425666521602343 -0.8374872865205986 -0.6778568514131105 -1.4409108165630182 0.004435134130249581 0.0009222742517083976 0.423791179750028 -0.3788963503005531
107893000.0 0.533229119708285 -0.8429038609000005 -0.7274506566196534 -1.4774526580600258 0.0004678123596132706 0.0015200574710349157 0.4336482472151645 -0.38299343826260984
108892000.0 0.5249193301209198 -0.8449680676246913 -0.7892043822996271 -1.513150657608179 0.0024339644728279294 0.0026233764629407384 0.4270886171936693 -0.37284872491883275
109891000.0 0.511703912813478 -0.8543593330861299 -0.8430414682826811 -1.5520223490013865 -0.0006498719003173744 0.002775697530924774 0.43991151340170265 -0.3807320923518578
110890000.0 0.5034487238802133 -0.855888874824521 -0.9036614614267499 -1.5614842804306646 -0.0007003807235010179 0.0035584045862258537 0.4339015377092254 -0.3838111265056938
111889000.0 0.49326501435785336 -0.8605230864977108 -0.9712336015615126 -1.6220575913628508 -0.001006705540196052 -0.000964092593395248 0.42699313188196003 -0.40668647946991676
112888000.0 0.48175737190474605 -0.8677039608924418 -1.050861892555223 -1.6669751798018035 -0.0024186121314532204 -0.0014423514246144423 0.41195733751446795 -0.41390038168741855
