! Created with skrf 1.9.0 (http://scikit-rf.org).
# Hz S RI R 50.0 
!freq ReS11 ImS11 ReS21 ImS21 ReS12 ImS12 ReS22 ImS22
1000000.0 0.9857381066143931 0.009189414033624993 -0.004534910665139184 -0.03715421568560971 -0.017301995012360558 0.015098203425648044 0.3711198343192273 0.34632552285944684
1999000.0 0.9947460578795017 -0.010069814994881028 0.011638284146255683 -0.028471842025078277 -0.002002057179769971 0.0020722040086418882 0.23655137332975054 -0.04270580351309388
2998000.0 1.0008634955025275 -0.022572002273219864 0.003077854227287021 -0.008078804517381976 -0.0025044687810709997 0.0009131911514035506 0.17953628321791243 -0.13175429842436845
3997000.0 0.9972271736917672 -0.034075321365180114 0.010826432100047313 -0.004375158888036539 -0.006833293171667471 0.0004680618065722851 0.08993957297237198 -0.22339538395937675
4996000.0 0.9945855927137195 -0.041382407372449304 0.008264657687261472 -0.002617966052298968 0.0011315046225938514 -0.004583923730206333 -0.04700963820186213 -0.2012370715593179
5995000.0 0.9941941652883453 -0.04937556436710735 0.00871511286331946 -0.0008739431420451075 -0.0022498523358488688 -0.00032503777607439553 -0.1252820195462171 -0.08989470570317967
6994000.0 0.9957147403822583 -0.0576377173644295 0.0062166820878344605 0.0033582502635447183 -0.004665370485174682 -9.855291942764363e-05 -0.14712301083808635 -0.012823180165088708
7993000.0 0.9936508642076315 -0.07168392765939233 0.0032363095837718877 0.00971444845096654 -0.0021057226565523684 0.0068137081500371025 -0.14788352456369888 0.03243293706986575
8992000.0 0.9951707593995865 -0.07312032007185355 0.003917793677076802 0.004941399271710094 0.0034193920759048434 0.0007664198316609292 -0.15262803679727627 0.0729731580731524
9991000.0 0.9916770099600892 -0.08348644265907547 0.00017483212673777946 0.005003106770951559 -0.0023244849990290426 0.007152512772941335 -0.1470029556346327 0.09637002805007484
10990000.0 0.9911804279680301 -0.09248927772511117 0.0025832089775838602 0.0011458586856284451 -0.0014692742740785895 -0.00717397190279073 -0.12775470974308198 0.11464058832918153
11989000.0 0.9900733248678543 -0.09824238265693923 -0.0035242346665542513 0.0010786050351992828 0.002940274850196054 -0.000967498827546872 -0.11979659068608503 0.14501868481333918
12988000.0 0.9860072499242197 -0.10925371707121552 0.0019765824519894963 -0.0060355903061330455 -0.0026556178672206506 -0.004968271459672715 -0.11190344807263905 0.16432613671127969
13987000.0 0.9863251000897083 -0.11753590806654375 -0.0018919042774788101 -0.0015863045119261878 0.0007333712424068813 0.00018623283808337187 -0.09716326606309494 0.19011691351429577
14986000.0 0.9866246672533163 -0.1273266461008174 -0.0005678870826092592 -0.004279631494945511 2.4473157635004992e-05 0.00042929199137511546 -0.09202345537895137 0.208126860673504
15985000.0 0.9879769521862795 -0.134307162596453 -4.63318913406008e-05 -0.0063978588964063434 -0.0005169973753099556 0.004136712640230962 -0.07255919926617867 0.22477524118047565
16984000.0 0.9838110966092944 -0.14448166994265219 0.002875741113979752 -0.004072151710136362 -0.0009364704391139913 -0.004399237578156657 -0.05557484259313147 0.21491731522741173
17983000.0 0.9848318494345397 -0.1501208922580206 0.001532025615764756 -0.007393440429248119 0.0024906435542831696 0.000266421348100523 -0.051213650131252446 0.2306266997926382
18982000.0 0.9808382261083336 -0.16229847635963005 -0.004784926317113623 -0.0034298363467946194 -0.00033676157174594495 -0.001963090583949503 -0.019937730511491128 0.2353146951212592
19981000.0 0.9816855032241808 -0.16679816562686442 -0.003582320941631151 -0.005525977723810592 5.315915677762957e-05 0.0013791865874027674 -0.016010563031903145 0.24668824713682946
20980000.0 0.9783834108411879 -0.1779708868853655 -0.004148891528957917 -0.005585984759569367 0.00037157553255982303 -0.004767081560727054 0.00417714208636761 0.24579088239309427
21979000.0 0.9779508219618874 -0.18463278753804493 -0.00605470596831256 -0.0031183301902268563 -0.0036213647703451216 -0.0013924663762558962 0.024715376143503567 0.23994249423169112
22978000.0 0.9754290509980937 -0.19379634233637688 -0.007566320613837514 -0.002067857508707385 0.003747064852440889 0.002564588911015202 0.037732853066993303 0.25944608690567045
23977000.0 0.9763083492736426 -0.20358247254509673 -0.00488621878289259 -0.001827767025008292 0.005076524489656918 -0.0004981862823418209 0.03163400047390304 0.24577817407934557
24976000.0 0.9740535510258773 -0.21092153892829074 -0.005715740077697192 -0.0023981182609300357 0.0011993094860767712 -0.002678079400821841 0.053786508356881146 0.24971154811056528
25975000.0 0.9668020979845428 -0.21981469448079832 -0.005507223352128242 -0.003995258709054192 -0.023329610239894483 -0.014618063321268332 0.07652493258138023 0.26132026659887136
26974000.0 0.9686874156855181 -0.22807928988295345 -0.0028113658556231944 -0.0002897080880214878 0.001570322672204417 0.004842840110488966 0.08292391701085558 0.26822641932467567
27973000.0 0.9687719601535816 -0.235460797535784 0.00033007629738907756 -0.003285606478318869 0.0022782700052784662 0.001100926955773387 0.10439808105953734 0.2585646927020127
28972000.0 0.9636288120031087 -0.24822370129074553 -0.005736290635742802 0.005463451204027491 -0.0009212247852293585 0.002970936332334997 0.11316229087607912 0.25271641395777533
29971000.0 0.9630572562319039 -0.252749072449489 0.00042794038232927796 -0.003851357086145203 0.0022886493953987873 0.0010228815828676194 0.14531292439234905 0.27021286517215176
30970000.0 0.9609214317738639 -0.2609623717505406 0.0022195582373533704 -0.0018570335802555642 0.00015642333827746636 -0.0025700705007925158 0.16335168718730833 0.2473731682096095
31969000.0 0.9568972324319208 -0.2707852768341191 0.0019393689013591816 -0.0018063211313996417 -0.0034468680484924003 0.002010751080263838 0.15436523063830787 0.24589623174416889
32968000.0 0.9547271480833475 -0.28076792983643634 0.005952398809585921 -0.008280955605377926 -0.0008057481372572688 -0.0011130744230690244 0.17195403587833746 0.23547343782505797
33967000.0 0.9540702027969055 -0.2892139386251495 0.015795485426477067 -0.008364109325824872 -0.0020859019173476807 0.0002414272416884022 0.1819181180108657 0.2509758785010718
34966000.0 0.9507292262676662 -0.29857692230057703 0.012954813834456128 -0.011611091877794442 -0.0011588466364027127 0.00023286334146472855 0.19714500306333194 0.24317956979803804
35965000.0 0.946951740010984 -0.30661847393164304 0.012471642403796383 -0.01187273656373407 -0.0034113153660100515 -0.0013371305446080075 0.20129672377418706 0.25482451353584223
36964000.0 0.9475861706686951 -0.31435589587510315 0.016634843404753578 -0.01365783936899708 0.002629643558518531 -0.0007550408349605991 0.22085141249105453 0.2584171094910437
37963000.0 0.9424552950048228 -0.32324811292623545 0.019970647121209353 -0.015062706912442152 0.00023962012153289295 2.0005243036614822e-05 0.2339581622008683 0.23351573200448875
38962000.0 0.9395754719671041 -0.3348901260410547 0.02135043548052558 -0.025420028389478926 -0.0008776050325768745 -0.0026873923648996147 0.2344379727984019 0.23775597986838473
39961000.0 0.9367235734154843 -0.3410035041648778 0.025974783608650184 -0.027453007553523128 -0.0009198104394087477 0.0035607526294231234 0.2524582855541141 0.2248535467700641
40960000.0 0.93428162848722 -0.34920951866074346 0.021970747834224334 -0.02367521240062962 0.00022168821985831785 0.0008289510177194127 0.2633164149460776 0.22708445472102456
41959000.0 0.9291737972253026 -0.3592290021837219 0.028912105864369184 -0.031656521273941474 -4.3520407764186156e-05 -0.0010914784438712472 0.26710492342604736 0.21297156469718054
42958000.0 0.9256797816889692 -0.36626886361423355 0.031469079418730755 -0.036669423731327117 -0.0012672074292174199 -0.001209903994677337 0.27485824750813637 0.21001737968738693
43957000.0 0.9239545921570624 -0.3738888509074276 0.03325079341201278 -0.04422601263240501 0.002539133156082063 -0.0009117392770330464 0.2903535808475564 0.2090293225124205
44956000.0 0.9202343074274879 -0.38133587892886706 0.03590090598900502 -0.0535427201021635 0.00019788962994158943 -0.0032844388491899226 0.29854623369056577 0.2035150817462384
45955000.0 0.9160353702179101 -0.39170023973663354 0.03540329640611228 -0.06022541468118719 -0.003297422824170149 -0.0012330834719278972 0.29859426165120134 0.1946862755280246
46954000.0 0.9138839513615877 -0.4003769879610106 0.036808738260362024 -0.06589102077369996 -0.0039062484375436838 0.0016725433049064912 0.3285872564071454 0.17585766647156686
47953000.0 0.9096876199135716 -0.4078776902871513 0.03395757430217958 -0.07395425914003839 0.002269149158930966 0.00317713640241065 0.33810596742962273 0.16437700739908515
48952000.0 0.9033151566639821 -0.41916423732723834 0.03847021785486666 -0.08099537943715739 0.0016725351855753738 -0.0001558654535852939 0.332033042656416 0.16692657815136175
49951000.0 0.9005295126182307 -0.42571259201434486 0.0420932216250372 -0.0862921973952773 0.00014091899075741398 0.002748565853557799 0.3590252481675455 0.15037365935639244
50950000.0 0.8962652362777596 -0.4342362905895495 0.03812982013044738 -0.09631140721404567 0.0005441939253900345 -0.0031424313191808326 0.34607503156968455 0.15235048295637876
51949000.0 0.8930889225398476 -0.4416375704824193 0.044451710310890805 -0.103694379035108 0.00044313240495983454 -6.698335063374489e-05 0.3620471999320158 0.14552925500182762
52948000.0 0.8909667423791414 -0.4492357099377793 0.041047318004987496 -0.11166360701682276 0.004025060790677251 -0.0017924729452498353 0.3783143663724116 0.14879004544068364
53947000.0 0.8836623095066426 -0.46000418694549544 0.04425233036154732 -0.1221076680277798 0.0017217893233029292 0.0017836832327125915 0.3700771776414646 0.13374061473586793
54946000.0 0.8793042260096514 -0.46549342494450757 0.04265066076291322 -0.1319850675701115 0.004133679403732253 0.003380079020031894 0.37286828769245045 0.12802175177015823
55945000.0 0.876466909779438 -0.47361817297025494 0.047863461118478536 -0.14046773842776103 -0.00029437047467135443 0.0004003792932892028 0.39075186981454085 0.09882028048229842
56944000.0 0.8722231330453326 -0.4846117114459618 0.048943307164287284 -0.15309296117739127 0.0001530939443673476 -0.000985501485815388 0.39465366400802 0.10367301741849141
57943000.0 0.8650395679640697 -0.4951552136871182 0.04927392904457032 -0.1639936718753216 -0.0034677877227161477 -0.000991648420040163 0.39864746519662947 0.09813330975699383
58942000.0 0.8600638957199022 -0.5012441899155591 0.049301883740372456 -0.1725174968988966 -0.0010975792738791496 -0.0013720639013001248 0.417114091427004 0.09489339209694686
59941000.0 0.858204794603519 -0.5057599257825118 0.05669353265487423 -0.1845732316375284 0.0009454234125166217 0.0014700410840399756 0.41382534715168284 0.09130127354686321
60940000.0 0.849839527500514 -0.5153214723361557 0.05407951300493624 -0.1847838658336786 -0.0006828499982655169 0.002007775807358178 0.4042216171731907 0.07115013765117004
61939000.0 0.8474568823235532 -0.5209892693169825 0.05300384592959048 -0.19647259967975747 0.0004496751179746982 -0.0017597242582300904 0.4234349005600772 0.0729353614859592
62938000.0 0.8412295943790405 -0.5338482477454384 0.05875688762365001 -0.21507029572337913 -0.00195866076315013 0.0027087112037639132 0.4383729160241591 0.05599952628126028
63937000.0 0.8350610967960297 -0.5412086711387872 0.05785648451141812 -0.23729647404710852 -0.00047115194550071895 -0.00147975553719217 0.43458587734417314 0.039338661860761195
64936000.0 0.8301505117849854 -0.5456842684264652 0.058383018035935964 -0.24775827567866543 -0.0016824068004540828 -0.0015694617079068404 0.4382729797608976 0.044639913796443255
65935000.0 0.8270167740020649 -0.5548441040258224 0.05542405799772697 -0.2632862389250806 -0.0036627090951603576 -0.002497356171379965 0.43502586243473945 0.025387731455457006
66934000.0 0.8215061448130879 -0.5605001851804671 0.0565470525894628 -0.27642650732723617 -0.0050953404852406275 0.00010791055800436364 0.4353938624221201 0.01319642169332142
67933000.0 0.8170735428510209 -0.5698476702153662 0.05697719608528516 -0.2915186066591787 -0.0013843479758151181 0.00018528075609891356 0.4410006761896269 0.008364386666207186
68932000.0 0.8114713579569265 -0.5625243810320951 0.05779586910501232 -0.3022897197487971 -0.00225774680330544 -0.0030925371502641755 0.4526176685452489 -0.00513154652159145
69931000.0 0.8040724105847026 -0.5871804708379744 0.052169957402768724 -0.32258717819999183 -0.0020405590424472774 -0.0008322820469382059 0.4476117903099029 -0.0058451857946076125
70930000.0 0.8011653636180092 -0.5916296466099576 0.05438875533504422 -0.3380193033309706 -0.002615228542580163 -0.0009688047972543475 0.4452116896253408 -0.023713674645638835
71929000.0 0.7955797674299595 -0.6024980677820397 0.04806234214410753 -0.3581313600407297 -0.0011129496485762897 0.0008210421444955877 0.45018313396619397 -0.041373335110742836
72928000.0 0.7869304520534852 -0.6119541551381912 0.04207953224086878 -0.36941268512241116 0.0015680362833649726 0.0010009285613843597 0.46454724404910436 -0.044137479201602166
73927000.0 0.7814482819001947 -0.6186595978179229 0.031988607895010825 -0.3914640748111694 0.0005643820659839999 0.0030381384515990434 0.45546844878822307 -0.052708906229306476
74926000.0 0.7763189922669016 -0.6268317055539727 0.024192984360619302 -0.41148012640190396 0.0005530885357838854 -0.0032752992815876293 0.4632337244487302 -0.04410331495883192
75925000.0 0.769029406629717 -0.6312437188691429 0.014299412426019703 -0.43247722075905987 0.0031999007245937477 -0.0001958613509817794 0.46851354183403987 -0.07288602285845631
76924000.0 0.7623772293615829 -0.6400144395058257 0.003961109940585134 -0.4545709532782408 -0.0011183573260933773 0.0007416456505968809 0.4720062500494856 -0.07949922537498347
77923000.0 0.7566741719675218 -0.6477261167293359 -0.0061953304588230436 -0.48090593860311803 -0.000974040974548124 0.002855089923387062 0.4562831351847878 -0.08429268226803949
78922000.0 0.7506197490569997 -0.6557439971838147 -0.0231439104681657 -0.5060660698315996 -0.004759371666024438 0.0011435081596752007 0.4597386709450495 -0.09802339671057882
79921000.0 0.7400759585200497 -0.6604458952424714 -0.04194603122775326 -0.5318214893161524 -0.0019249106426195844 0.0031070908837093677 0.4625152109812811 -0.10679652361355693
80920000.0 0.7393960908417003 -0.6709687823177858 -0.05254881644886869 -0.5612651708193046 -0.002913557309772126 -0.00042306926344797474 0.4667857572236275 -0.12270892814365504
81919000.0 0.7312130217509363 -0.6768379892292282 -0.07196244680521681 -0.5922156162039349 -0.0015940933064374795 -0.0010270336250445863 0.4621072950718246 -0.12821330297360597
82918000.0 0.7227472239511812 -0.6847477263750944 -0.08497943936294933 -0.6220021609211329 0.0010809095951261909 -0.003886217640935739 0.47526202360914777 -0.13640393787548008
83917000.0 0.7127070220242828 -0.6919828241728825 -0.10442184308785356 -0.6514071433989158 -0.0008076539466361225 -0.002679832876035947 0.47013323408094576 -0.14219437633953966
84916000.0 0.7087846163693472 -0.6997210156992266 -0.11932062141711457 -0.6888355738909204 0.00036150647886579434 -0.0018172633205218378 0.4683029214018666 -0.1717535909478377
85915000.0 0.7033274866895974 -0.7072003707124978 -0.14464811743501851 -0.715754346090546 0.001603403123429511 0.001706087423368594 0.45978080361713264 -0.16225030850566585
86914000.0 0.6952096906181338 -0.7163601091020065 -0.15984138317053298 -0.7546312243679895 0.0019270471198765634 -0.002517213844824361 0.4648270574002357 -0.1747069097907634
87913000.0 0.6873856844021969 -0.7217605796390678 -0.17932221772991813 -0.783339791715207 0.00027580712217676657 -0.00019842601481804287 0.46800913556919743 -0.18137446882009767
88912000.0 0.6815347364072847 -0.7282598306155935 -0.19277010525743063 -0.8191168788396678 -0.002498178259299547 -0.0017064926320564896 0.46231115965359254 -0.1873986191644711
89911000.0 0.6718873121085004 -0.7375435236598682 -0.21182356168934674 -0.854584219110814 -0.002697407011186181 -0.005266564097787441 0.468778763003787 -0.1943782335978988
90910000.0 0.6658472402057274 -0.7416856394803774 -0.23017360309184573 -0.8887210557558077 0.0020875656674709735 0.0014972702482172245 0.4620441211658476 -0.20587666156240134
91909000.0 0.656756458400292 -0.7464751786620274 -0.24631021443438592 -0.9222229080879997 -0.0015563496039457904 -0.000206692870637141 0.4733386364668383 -0.22545137426441694
92908000.0 0.6490558183299332 -0.7554402735207204 -0.2618333388294288 -0.9573557676054568 -0.0007422295435633679 -0.0006935300025137447 0.46817408340346583 -0.23285529663145862
93907000.0 0.6426674683541691 -0.7608933775846936 -0.2796511426117983 -0.987734429599331 -0.0014097791970961232 0.0007911140766564646 0.4578047843542361 -0.242519177483702
94906000.0 0.6275331934681622 -0.770925171362727 -0.3006727684317021 -1.0235899916844713 0.0016624191447652745 0.0036228161450338457 0.45475303918773746 -0.24199824617446333
95905000.0 0.6228949563426828 -0.7752052559915 -0.3243098204956891 -1.0573695973168769 2.5472862566756607e-05 -0.00022040498246006878 0.46762802653975544 -0.25913503689685385
96904000.0 0.6155218761785876 -0.7825341336290652 -0.3431517342188037 -1.0978460572806314 -0.0015858003986753738 0.0025994941274911595 0.4600906584849079 -0.27031644438495384
97903000.0 0.6056295243005123 -0.788741416017021 -0.3633859224083597 -1.1314093139728103 -0.0009692016443784058 -0.002917549627929951 0.4485910297939483 -0.28484979221759127
98902000.0 0.6019089288375156 -0.7955313399820743 -0.38875194470407426 -1.1681285447864034 -0.000721329512793431 0.0016605884135718857 0.4469455840452273 -0.28731376473547293
99901000.0 0.5892249016070422 -0.8009625334303544 -0.42056894522374955 -1.199326442097139 -0.002425532176536421 -0.0011364372531673232 0.470181770700934 -0.3127892882765238
100900000.0 0.5803108337995718 -0.803895311303559 -0.4545724302570706 -1.227246422025414 -0.0007418179213699937 0.0009761408083930832 0.46611467466024586 -0.2983853985240786
101899000.0 0.5697040742708217 -0.81460407284596 -0.48231150903745645 -1.2694908074653444 -0.0011374147274336604 -0.0023673656438997783 0.4429711336119064 -0.30985420421156556
102898000.0 0.5608403810572874 -0.8179094669335456 -0.5173773804435582 -1.3073718390459395 -5.909001846453864e-05 0.00016408777063654223 0.4496435580574117 -0.32600230820574116
103897000.0 0.5537790615414115 -0.8263292963512268 -0.5560543878367181 -1.3467836154213984 0.0005214037172147489 0.0006031536796237276 0.46053038174021316 -0.31791265941483604
104896000.0 0.5439369723005204 -0.836361853185894 -0.6048558048288775 -1.3820082540179748 -0.00017199564725753588 -0.0007867499213183699 0.4427892394797412 -0.32982329519145914
105895000.0 0.5361423014816875 -0.8391700742846585 -0.6538062239406685 -1.4250101510292634 -0.004113638239531258 -0.0018401225405027175 0.4346785174777515 -0.3543882723628761
106894000.0 0.5259637860337315 -0.8445446678098578 -0.7082878495677051 -1.4608282590584547 0.0007057143264269266 -2.6169901600677952e-05 0.43166329591039415 -0.3564520686849433
107893000.0 0.5184965587088252 -0.8503717998805616 -0.7576970955735571 -1.5037308963572558 -0.00020067997665045313 0.00015906458050921822 0.4335584755548615 -0.36888373226877946
108892000.0 0.5067677831671341 -0.8548489918645681 -0.8197750270948889 -1.5349742512992113 0.00014213291178210097 0.0006234370372550396 0.43010810729635374 -0.3675110591355698
109891000.0 0.4950454703905374 -0.8625402273980105 -0.8851099223918499 -1.570894832343494 0.0027067044610537454 0.0012814936257355132 0.4436398935595365 -0.37121314074731127
110890000.0 0.4801668607050262 -0.8779555324534836 -0.967501031409896 -1.589435353646315 0.000977289510256485 -0.0017153767521179246 0.4335210353718344 -0.382477024996447
111889000.0 0.472708132812648 -0.8685529601986167 -1.0123958887297597 -1.6393878046951187 -0.0007367228923098741 0.006842324757480865 0.4214397459246639 -0.4038554157417661
