! Created with skrf 1.9.0 (http://scikit-rf.org).
# Hz S RI R 50.0 
!freq ReS11 ImS11 ReS21 ImS21 ReS12 ImS12 ReS22 ImS22
1000000.0 0.9932980437844642 0.00623745822231106 0.00968891481615515 -0.04160087908356853 0.011849622768278046 -0.009430493440595066 0.29990023038598856 0.2767800850484568
1999000.0 0.9969262403439785 -0.013962613099997962 0.011061542104181171 -0.02277396507895424 -0.0006428829787011147 -0.00427515511343862 0.26846803526881047 -0.05545610025006025
2998000.0 0.9992276836985734 -0.021294303576166084 0.010499936617347386 -0.015732117764995515 -0.0020947149369222114 0.0014214513598202983 0.1889942807240296 -0.15195193629107429
3997000.0 0.9999622926202753 -0.02773165684850225 0.010553921190798716 -0.010744839523157608 -0.003510272785316134 -0.008940781506264926 0.0938931729387721 -0.2447270054446992
4996000.0 0.9953748905999745 -0.04011993835711463 0.006300384139981818 0.0032708490584656418 0.0028059768806884726 -0.011459329685432817 -0.046184093647042825 -0.2081705735393242
5995000.0 0.9959103107697506 -0.04721850625823201 0.004829886910626282 0.0017251748190432502 -0.003803037731306556 -0.0034487376443067814 -0.13065897249928635 -0.10098895716577495
6994000.0 0.99385844026342 -0.0583322587400995 0.009008564055685278 0.0042640279853227055 0.006629586938189201 -0.002915636805552287 -0.1490957459264916 -0.03522986580478364
7993000.0 0.9948786350511509 -0.0670046769337701 0.001740271012043124 0.007786355209900355 -0.0022803215963268777 -0.0016180808390884682 -0.15892037375181184 0.043559276431943086
8992000.0 0.9948835589725222 -0.07218799142799244 0.0016774467950241962 0.006144240406589171 0.0010045245805769812 0.0005673996614535828 -0.16022631281779345 0.061177227670307116
9991000.0 0.9939039468878583 -0.08229698674421378 -0.0011561767450239072 0.002799579187871978 -0.0006683105644348775 -1.274898905386458e-05 -0.15277549306118163 0.08851585657899291
10990000.0 0.9917972311353469 -0.09048703773750807 0.0030657910864236647 0.005004304031531777 0.006484892997421455 -0.0010345618040959073 -0.1358393190799529 0.11352923269755129
11989000.0 0.9922562462407138 -0.09681436113143385 0.0005686616590812044 -0.0013901058648218172 -0.004017138493497626 0.003068015941379642 -0.12221397048173699 0.13849221802357384
12988000.0 0.9901174717083133 -0.11044579926342818 0.001116555928622477 -0.00560169647070046 0.0031984879177520587 0.004555692155094998 -0.11194661300865558 0.16528925973846667
13987000.0 0.9897134209266023 -0.1166720156582642 -0.001213814941729405 0.0033489555278675234 -0.0017747147184006583 0.0006251802869509497 -0.09792486601554232 0.18900806930691633
14986000.0 0.9887532340447593 -0.12302325431815504 -0.0012947600546884587 -0.0021395714919775735 -7.127151214858685e-05 0.0047732710848627635 -0.0824386426494206 0.20510518878275877
15985000.0 0.9908915136617219 -0.13243242904281974 -0.004981969793230145 -0.006404394259587895 -0.004586996879457826 -0.000389387166891977 -0.0735722472245396 0.2260532867328879
16984000.0 0.9867666349461202 -0.14244302423815072 -0.004740255720571179 -0.005391507298408509 0.00023411990681977885 -0.0036180792171718263 -0.062979507286833 0.21890811840566293
17983000.0 0.9875891068711158 -0.14887274601656256 -0.001235842486634998 -0.00544250091511502 0.004521695397359593 0.001659013938728989 -0.05480161384757603 0.22743825836622378
18982000.0 0.98315015867477 -0.15774880650824188 -0.005246333030539456 -0.007994252120334376 -0.0014571094199326696 0.003761694223729978 -0.027382032853175278 0.2340670520254135
19981000.0 0.9837121262674551 -0.16442230202853383 -0.003675206926123922 -0.0033993468185330475 0.003720113748062972 -0.0016665927730771149 -0.007296005339052014 0.24535194620497597
20980000.0 0.9826454973129035 -0.17386773369626862 -0.0030549242370054865 -0.005363426436472905 0.001463891398373041 -0.00020687682710594438 -0.00040230969244046423 0.26933655132700757
21979000.0 0.9807332836897023 -0.18282216401523635 -0.010078398781945571 6.949536536368204e-05 0.0014086100024478332 -0.001633233264541203 0.012499233769261821 0.2533850043621196
22978000.0 0.9788232031813653 -0.19020593916797618 -0.00275256523335084 -0.005229218421461111 -0.0006826811442632872 -0.0009461960507999223 0.03212720178348466 0.2571738257527839
23977000.0 0.9785852146451289 -0.19957260544209654 -0.005677153271859362 -0.0023116488599085575 -0.003039815042890451 0.0013023774957810527 0.04164771973891579 0.25908861016215806
24976000.0 0.9760482817594935 -0.20870105083429832 -0.006707456336689094 -0.005574963294041434 0.0030612392334248596 -0.002564868919485044 0.06821289640392965 0.25663842559538264
25975000.0 0.9755060883381694 -0.22203417957639673 -0.004033196973607851 -0.0010560939573113141 0.024358264442415293 0.009084758807489978 0.07189357410740406 0.2641580139825843
26974000.0 0.9702956132950058 -0.22612780136345162 -0.005674253917487731 0.00132811253916042 -0.004672742991935492 -0.002422577676013248 0.08539392775405398 0.2664868472198495
27973000.0 0.9707145485594629 -0.23166182145748113 0.001706551140258802 -0.0013884926080758885 0.002581729593231214 -0.0007330882108417721 0.10372975991005817 0.25080926930040226
28972000.0 0.9675013562126324 -0.24095537831456879 -0.0036608500903691863 -0.0018685923269520083 -0.00023695052597137752 0.0010212384030004393 0.11277969629829127 0.2593480535629007
29971000.0 0.9661627027831572 -0.2508573007124664 -0.0028700047154036536 -0.0038243699907384472 -0.0011044580547580449 -0.0007710280393371407 0.1496390928930748 0.2703651996894898
30970000.0 0.9637966641005125 -0.2555494376783558 0.00318779025982119 -5.9320317009864974e-05 0.0048991838166143 -0.0005583184749303404 0.1750013047105785 0.25731956387844906
31969000.0 0.9594731743419584 -0.2650381364995723 -0.000489530374304799 -0.004743728261896649 -0.0011493325972509632 0.0018322514571139942 0.15031980900188652 0.252633582943037
32968000.0 0.9590006300314039 -0.27555104126163327 0.007523780919164945 -0.0075912476258457985 -0.0002585418124730969 0.001663381120130659 0.16604920052223104 0.25315326511607134
33967000.0 0.9571179667937368 -0.28485178936531763 0.011443772124432193 -0.010019026739861946 0.0013636555056202246 -0.0017775348548176627 0.18614681004934042 0.24817062473720528
34966000.0 0.9548645006842744 -0.2909290468172116 0.014555720948396146 -0.011457540019237185 -0.0014597453303253636 0.002496803768699754 0.193418889777566 0.2513327324269837
35965000.0 0.9517720006360524 -0.29995678653140434 0.01411956959596496 -0.01667296906386808 -0.0001978380426057921 -0.001059536720882249 0.21888791707659577 0.24932797769979473
36964000.0 0.9489224124753373 -0.30869570457326695 0.014823829576700047 -0.015576675454375778 0.0012045684373012432 0.0010837432582755202 0.22686076683600173 0.2491464991537735
37963000.0 0.9461046047632684 -0.3173221007647274 0.024707118994147004 -0.018542270520598612 -0.00024877707249732807 0.0019662700436330355 0.23504771482159115 0.2333173534205031
38962000.0 0.9433372262338191 -0.32688786477090925 0.025560439731252618 -0.02463980918503637 0.001462191437071955 0.000465334929719929 0.24915052002542604 0.23114571261448866
39961000.0 0.9427065108478815 -0.3325961315605054 0.026342493822421795 -0.028787462823695834 0.002552056359605275 0.0024174274959754788 0.25557654629242904 0.2325487214955909
40960000.0 0.9373675547821011 -0.34215077286311174 0.02245995679283672 -0.021964270344901234 0.0015514523364297123 -0.0031045570023896787 0.28253680460746666 0.2223392767690904
41959000.0 0.9345983652715789 -0.3507408291597836 0.03026220636439372 -0.029973920554522873 -0.0010939200077942903 -0.0022282259458024766 0.2699116961814846 0.20760701054259698
42958000.0 0.9307186421486224 -0.36050784770102373 0.03250974380508385 -0.04031532145559319 -0.0003616822798276582 0.0033324343076675447 0.28958152883180893 0.2094656076887855
43957000.0 0.9276228068575433 -0.36713279286619555 0.03214191874482099 -0.04837016223149686 -0.000201528442263549 0.004111113350236759 0.28598766068389525 0.2030310352669099
44956000.0 0.9239123768541541 -0.374883094541095 0.034309916524551155 -0.053855121313003566 0.0018722774789494397 -0.0007099606449055687 0.313657783732944 0.19566058493405808
45955000.0 0.9214525281247219 -0.38590204388232857 0.03393475156149956 -0.057400497873096035 0.004663772570137016 -0.000507825497679639 0.30847902592001636 0.19253457763331208
46954000.0 0.9174130935157778 -0.39218363360906694 0.035854999864363066 -0.06441369278015759 0.0011744773801787886 0.0007579473275059223 0.3323966640633845 0.1764396071196417
47953000.0 0.9164441672196828 -0.39934309030083653 0.03510609531859213 -0.07248027728680351 -0.001282092452944094 2.3171812178984813e-06 0.34382795910574115 0.16917015068321242
48952000.0 0.9103195681309998 -0.40918842797761273 0.038214632957777016 -0.07880663241163387 -0.0022246599464682674 -0.0027036402831330584 0.337423580832305 0.16202552687248062
49951000.0 0.9061738529615883 -0.4184024024569528 0.03756671060539796 -0.08764428844905002 0.0010237263087109901 0.0004749290766514202 0.35263891031988726 0.1620087812231255
50950000.0 0.9026887084790827 -0.4254727280394899 0.0383087724103823 -0.0947849144747176 -0.0031725948990253806 -0.0006508980763553822 0.34783973121251693 0.14385417361343394
51949000.0 0.8993255207247743 -0.4326655645982396 0.04002870064202595 -0.10056313938551775 -0.00418186404035772 -0.0003665458640647877 0.3695081561833608 0.14238848745236754
52948000.0 0.8941726488681562 -0.4417536894210451 0.03883802430035577 -0.11412262624341843 -0.0027351739317416227 0.0021278386365326377 0.37465529095939215 0.1357975143996872
53947000.0 0.8903764273821405 -0.4476118481745271 0.04436016064504649 -0.11848579343970174 0.0004012245192491948 -0.0035009827352608085 0.37707019254560037 0.11425012018840026
54946000.0 0.886182448882645 -0.4565963307565649 0.04471678361703566 -0.13237449518297403 -0.0008921064375649146 -0.001408303149018789 0.3913449145313393 0.11763509127666268
55945000.0 0.8828704089415357 -0.4652946567030463 0.04559531644400091 -0.14333302780190413 -0.00016093900288607663 -0.0017906528515750993 0.3899544733154434 0.1036378125180434
56944000.0 0.8777438028297879 -0.47354821505196554 0.05127154989276577 -0.15254574517446767 0.00024866543029854296 0.0014030689100765653 0.4091933001807366 0.09875164959208314
57943000.0 0.8747452942113879 -0.48342746207061116 0.05039762389728903 -0.1605549368028196 -0.005617073640332633 -0.0051587673849360855 0.4080723406909485 0.09220066254111434
58942000.0 0.8690193212529256 -0.48701106088271184 0.05079967118486361 -0.17429525348844055 0.00034413263047480033 -0.00542298544296156 0.4241279245604874 0.09118858290692679
59941000.0 0.8664621439010028 -0.49714279265667494 0.05107560886517785 -0.18674086620515434 -0.0012967613549835278 -0.0012504635615327962 0.41020726874027175 0.07989665175591813
60940000.0 0.8579292977088003 -0.5047279982860912 0.0491463130624692 -0.18758180339821284 -0.0004080381918451903 -0.001819902305685585 0.40747179900425434 0.07544975908242885
61939000.0 0.8562523798115613 -0.5108849719066296 0.050990735339233324 -0.1954274718644343 -0.00048731494992293055 0.0014557150635964484 0.42284656215079547 0.06258234159100672
62938000.0 0.8498947499039236 -0.5219668467544153 0.05548023690536316 -0.21303878618055627 0.003173374674463927 7.299315691161994e-05 0.44679580706330574 0.05161705675267894
63937000.0 0.8453452105367047 -0.5278637605856782 0.05551157683016343 -0.23488462107826227 0.002043535602873489 0.0007522936461864389 0.43219152705469044 0.030397554582972424
64936000.0 0.8378549081558831 -0.5366985760993751 0.05460585802227692 -0.24723849910362047 -0.0001522432950667902 -0.00047711407769233374 0.4400067051549867 0.03639760298003958
65935000.0 0.8365389842240918 -0.544193412369467 0.057211238141323735 -0.26220691560320597 0.00464165283664339 0.001952782514178262 0.44881666299762574 0.011216862480912426
66934000.0 0.8306436881181669 -0.5508794626980111 0.05174898380706528 -0.2750383570680572 0.0008518546370801928 0.0027212184217892126 0.4327042295566302 0.008774089147205164
67933000.0 0.8289119318825435 -0.5587436214962543 0.05727152204438256 -0.2917694408693443 0.0021798282170189787 -2.671121958766203e-05 0.4512936325431198 0.002248194003088357
68932000.0 0.8111081501654036 -0.5540571431362086 0.0521025702720317 -0.3016400799211835 -0.00020263761609644885 0.0018900027694167536 0.45495124752399396 -0.008589920646990183
69931000.0 0.8134575503076535 -0.5750107747525008 0.05185652443117413 -0.3194473219138471 0.0025315230029159257 -0.0017467558628232892 0.4509705880381683 -0.02555253240030712
70930000.0 0.8097075943809577 -0.5809441095766464 0.052369005757422246 -0.3339459392760138 0.0015527633032043327 0.0011714726512906603 0.44442585138702595 -0.02699848653401011
71929000.0 0.805502209466175 -0.5882183136090803 0.04975796605768168 -0.35286498060364757 0.0018989815574636769 0.00143141363805604 0.4536716935474757 -0.05234272065316497
72928000.0 0.797444779903381 -0.5982435192585441 0.041116128070675315 -0.36522934657871603 -0.0009169946083722801 0.0016900395933578507 0.45968320332189555 -0.05353717790807487
73927000.0 0.7922106813129998 -0.6038383512783804 0.03644106598231783 -0.38986426539685876 -0.00011948466996523246 0.002771285341163834 0.4562198480311995 -0.060279805975046195
74926000.0 0.7885569636586593 -0.6152561555932907 0.03422034105467532 -0.40657486409222426 -0.003976965716342083 -0.0005805797302177385 0.467085648858775 -0.06835622090795503
75925000.0 0.7818300264264482 -0.6191699483881783 0.019804288434524833 -0.42489646158467415 -0.002624853925738316 0.0004900604660500051 0.4574454375038871 -0.0785467619439359
76924000.0 0.7747002730400735 -0.6277475089529512 0.01161228157654312 -0.45073739212077474 0.00342938875068689 0.002457179356958342 0.47287919361565783 -0.08351671024654381
77923000.0 0.7696963507961263 -0.6330683475732509 -0.004522374853971025 -0.47369630548355574 -8.983312610365407e-05 0.00543741136121624 0.46694637821770224 -0.09904152300106558
78922000.0 0.7653016654235827 -0.6434743338571404 -0.01816322201280134 -0.502617024916699 0.002079311785890425 0.004405002436907064 0.4691754574826796 -0.1090498351485153
79921000.0 0.7538239248354479 -0.6467511292442256 -0.03641267238675095 -0.5251538167369111 -0.003083590144116885 0.0013033453424573284 0.4657715808233861 -0.11645796650415947
80920000.0 0.7490510038820017 -0.6595037154166498 -0.05185671558830251 -0.5511505706467461 0.0025214754304632627 -0.0016906666649786717 0.47391665332955496 -0.13387080265283552
81919000.0 0.7440746644043515 -0.6643804211809311 -0.06670161143591596 -0.5799690129971188 -0.000276659637808598 -0.0011050484473798493 0.46660845432398174 -0.13323385041867028
82918000.0 0.7347940120001248 -0.6716817241921655 -0.08283014706012098 -0.6126717398958423 -0.0015810110030168717 0.004483083401236205 0.4832631044487656 -0.15008433357463238
83917000.0 0.7295776668023843 -0.6796423903996786 -0.10949085598042241 -0.641570782281795 -0.003763048895299128 0.0058123757211477655 0.47477709112663763 -0.1584812084075851
84916000.0 0.7232358663860162 -0.6878534693449385 -0.1189296881349559 -0.6757758645565275 0.005975723540337112 -0.0034423553431278536 0.46476939056146177 -0.16240089094006674
85915000.0 0.7185038926847532 -0.6930560078022963 -0.14387988821950942 -0.7039456366275322 -0.0031406993005875954 0.002678610258191473 0.45886452837625935 -0.17889914773981763
86914000.0 0.7097966643719239 -0.7014186977209051 -0.15638268785859105 -0.7435298310109169 -0.004009190071566659 -0.004983626316343484 0.4632232951230845 -0.17600313497296508
87913000.0 0.7031013471251963 -0.708561719135838 -0.17827603878284115 -0.773005340926503 -0.0038442970422123066 0.002130087495911309 0.46264311057331714 -0.1886655577021028
88912000.0 0.6954055254331011 -0.7163732512811408 -0.19659943256946108 -0.806148601062711 -0.0013661334674239098 -0.003063110048885662 0.4609124354192184 -0.2049017724592075
89911000.0 0.6890239867271526 -0.7224175948408376 -0.21025367353328162 -0.8424059199214832 -0.0012863829204671883 -0.0017935941328880143 0.46991713566466137 -0.2163031937668056
90910000.0 0.6820205224749704 -0.7292376009998172 -0.2253314833782071 -0.8780710874084039 -0.0008892943582684194 -7.132563774984726e-05 0.4579323479380103 -0.22527587561916415
91909000.0 0.6727294673931229 -0.7349245328977426 -0.248908041876658 -0.9142423828827494 -0.0035638036665717196 0.003827311356935828 0.46530782167025675 -0.2227083073046008
92908000.0 0.6660731889834711 -0.7427558356441161 -0.2652996193368151 -0.9428675164792459 -0.0001143577226148106 -0.0030276207428564027 0.46342833569098596 -0.23330459903028672
93907000.0 0.6588117837790246 -0.7461974019506499 -0.28549855154598636 -0.9742218416265075 -0.0018848890884276145 0.0015739777572845544 0.4714914260843633 -0.247898267960737
94906000.0 0.648074497740357 -0.7561625811051377 -0.3013323361167017 -1.0106483638335597 0.0006864429517814724 0.004357765063303613 0.46012748556080296 -0.2572416033546926
95905000.0 0.6392325243194459 -0.7649291639028997 -0.3298628024191474 -1.04231284227922 0.000698867051485534 -0.002187069155721628 0.4660063306935563 -0.2781142998814118
96904000.0 0.6323070973937167 -0.7712711606987084 -0.3435883005460263 -1.0814845282004237 0.002765464083558109 -0.00224812519719212 0.4458440480979065 -0.28734336468008376
97903000.0 0.6218316836386639 -0.7778310862598027 -0.3726318121547099 -1.1148033115286737 -0.006195785124932279 0.0009859553883254134 0.44994821769897053 -0.2980705883687954
98902000.0 0.6182522544804601 -0.7826624783748283 -0.3856902283669903 -1.1537594620189335 -0.004675201760333992 -0.0006485858338492635 0.4523847238702553 -0.29456638221941234
99901000.0 0.6079680238869879 -0.7882864081791282 -0.41422759451481017 -1.1830064392992432 0.0007490018400967533 -0.0015966078776166919 0.4589931637910233 -0.317782791161049
100900000.0 0.6029674875396999 -0.7936393088715188 -0.44826978627561886 -1.2166777418496695 0.0038346925791467538 -0.003637667311607374 0.45569092969043934 -0.328032559124644
101899000.0 0.5927070481821433 -0.8014035007711224 -0.47236194997090136 -1.2543458685321556 0.0026416025161928995 0.0007743100431379819 0.4527069298888909 -0.32622686976332094
102898000.0 0.582926223474822 -0.8052036101945779 -0.5040622743999383 -1.2896281556664935 0.0005507263499804304 0.001371731246809386 0.4456932304442012 -0.35166109980663507
103897000.0 0.5748790156769426 -0.8129546450967051 -0.5382239391321225 -1.3243718158833273 0.002015524379194865 -0.0008109683710769212 0.44915339070950455 -0.3374959188599992
104896000.0 0.5665106707572563 -0.8235371134625104 -0.5901337209284779 -1.3588888823903555 -0.0019133238873296102 0.0007974403606533277 0.43784992669970346 -0.34505996586979526
105895000.0 0.5549224746024938 -0.8258134615523319 -0.6312784050957673 -1.3992960298695714 0.00013928137994727977 -0.0011904747874941291 0.4353508911421661 -0.3597201689962934
106894000.0 0.5458209724800581 -0.8322213105183762 -0.68720595665499 -1.4360191440293895 -0.0030251914452396117 0.003131699678648811 0.4236969927661856 -0.37304180866075975
107893000.0 0.5395530912668514 -0.8385948316907187 -0.7349909456931105 -1.4791618498832868 -0.0017567500998357552 -0.0013493095777941638 0.43459985712828697 -0.38036519710677064
108892000.0 0.5301434599645981 -0.8400446383953442 -0.796930789054973 -1.5145620284492207 -0.00214092906446951 -0.00020747634501925148 0.4263729745760017 -0.3846840243930234
109891000.0 0.5188940256517689 -0.850698723523141 -0.8505846407162436 -1.5499485723409079 0.0005327506662216961 0.0024186682756129124 0.43794043611270156 -0.3931190642304399
110890000.0 0.5144348883836343 -0.8568542294245374 -0.9141919359461687 -1.5702513555641326 -0.0016807729535459931 0.002643456729573662 0.42286599247590956 -0.37852341032539066
111889000.0 0.49973113815687287 -0.8572021902307743 -0.9775064953354241 -1.610063171672794 0.0039152615254436 -0.0011755830559688485 0.4161735956678608 -0.4103095947195044
