! Created with skrf 1.9.0 (http://scikit-rf.org).
# Hz S RI R 50.0 
!freq ReS11 ImS11 ReS21 ImS21 ReS12 ImS12 ReS22 ImS22
1000000.0 0.9859164731359286 0.0003516449630905424 -0.0022895556843943302 -0.06188756152037384 -0.007064743589961609 0.010455519482120262 0.34215547428880283 0.31863472666237175
1999000.0 0.99703222609351 -0.016561945704228892 0.005889068907219039 -0.02865529874920912 -0.005066045267522371 -0.008197154371067694 0.2474555775948071 -0.05573521914795342
2998000.0 0.9995885454961383 -0.023063354978726046 0.013314273445579995 -0.014480091275828461 -0.0011398242157876302 0.002289511656839535 0.18692644683688067 -0.1460436254443816
3997000.0 0.9999667147090405 -0.033627992610597665 0.009042264787287266 -0.009804309271391063 -0.0024868643934707756 -0.006078312406242973 0.0965480781986683 -0.2265888892566973
4996000.0 0.9970529019116384 -0.0348377993504311 0.01267963972554652 -0.007489295804442668 -0.0013253650479781286 0.0011773393018573415 -0.045116348442506095 -0.20592969733249836
5995000.0 0.996295226187065 -0.049850856392993366 0.009584882289776605 0.00384590899466261 0.005515033842450102 -0.005383278599350962 -0.11338346281250894 -0.10776765809204727
6994000.0 0.9920184690041616 -0.05803680922035048 0.006157528951227599 0.00816337067435958 0.0002169444352264426 0.0018883274451377016 -0.1382107508743191 -0.02632835156341726
7993000.0 0.9974123268455181 -0.06929010949925916 0.004272493790616359 0.0077667878656781045 0.0032610148075562875 -0.0003593821990911995 -0.1649084726102579 0.03292720640126986
8992000.0 0.9958525626223989 -0.07564374148044997 -0.00025288103984304086 0.005598883611174991 -0.0003810872523558015 0.000647021588388599 -0.15859591533127956 0.0400794315768525
9991000.0 0.9923829278060748 -0.08469169200867872 -0.0003729381946584907 0.006956379698404972 0.005006516650951186 0.0015774124759074643 -0.15429048822906874 0.08908942279123597
10990000.0 0.9923902565691615 -0.09760627887381972 0.003227925529507869 0.0016056559155844519 0.0018115802964100184 0.0001949899782424476 -0.14755233659736963 0.10724854287894327
11989000.0 0.9906556566176646 -0.10302628720585771 0.007618234337079561 -0.002233087769690644 -0.00032581730053343126 -0.003373319205515112 -0.12362504217845989 0.1274258221647952
12988000.0 0.9907721111232192 -0.11019328226547784 -0.0004327839160245791 -0.006310951934575831 -0.0008766954804333333 0.0003111881468111647 -0.12161693734395979 0.15903647403999926
13987000.0 0.9876375193790957 -0.11912852873978765 -0.0063316674925596676 -0.002526029770719888 0.0002294278777483186 0.0031794209059084807 -0.08711527516107824 0.180149252984212
14986000.0 0.988097922895386 -0.12741877542899124 -0.001991362754809185 -0.007395788890575418 0.0004959927676120886 0.002106528425090082 -0.09187424260422382 0.1934575458361349
15985000.0 0.9869278869115137 -0.1369092761699314 -0.001591003615684886 -0.004079324853474851 -0.002797310285209396 -0.00033927747944378385 -0.07850614291156897 0.21910704223561212
16984000.0 0.9847857348926692 -0.14483360916550234 -0.002660505367755229 -0.006959308772503604 0.0018983768669157525 0.00047332022197993086 -0.0735049660046845 0.21016668206366623
17983000.0 0.9854761425761709 -0.1512770476747561 -0.0037417434130046804 -0.0023211240975518923 -0.005427400921088569 -0.002133102841465209 -0.057298020828104534 0.22204319822140936
18982000.0 0.9825174214640149 -0.16612423026669967 -0.0029704507743894813 -0.002584711999165271 0.00031142741444087406 0.0020113315133937198 -0.028863526231834698 0.23303754432284982
19981000.0 0.9793543089660346 -0.17043675619613521 -0.005537077376122882 -0.005123940320186033 -0.0008843861377982472 0.0024464229054221793 -0.02757401667440167 0.23543978912038174
20980000.0 0.98135777600114 -0.18039262590831204 -0.005855065202819055 -0.001931883961845913 0.0007351716254212123 0.003889406494713497 -0.004237432522415225 0.25072359090257634
21979000.0 0.9778857005344372 -0.19028846443826536 -0.00882885250489268 -0.005819736691307456 -0.002128548843886251 0.0004839505218506373 0.008139694464317249 0.24208959649294629
22978000.0 0.9756682361796709 -0.19631795659095944 -0.00500622001402533 -0.0055108752286794 -0.0008210041665653604 0.0020674519277889673 0.029563631035897087 0.255990266504282
23977000.0 0.977199154112222 -0.2031443450070857 -0.006100396509384733 -0.0013872232753189238 -0.004964200003502556 0.00045365316869412615 0.04286095782332174 0.2527263812556129
24976000.0 0.971613124391764 -0.21650421837847503 -0.008107950926595199 -0.005987002135369924 -5.7742625410337176e-05 -0.0014518240766343323 0.06458623552109373 0.25634329549934365
25975000.0 0.9666066455454754 -0.22979538841178643 -0.0013896125393788733 -0.0028170291680777817 0.010079654130257618 -0.024488251675995176 0.0797612149295499 0.25384609745956727
26974000.0 0.9689484867377846 -0.2329258902281097 -0.004854805876107978 -0.001706909020864163 0.0003181426548198126 -0.0028787701100215003 0.08558161822562085 0.26741700008655783
27973000.0 0.9686895047293769 -0.23780181720742696 -0.0019935146992814136 -0.000346298176682949 -0.0013943287801657187 0.0032468728325731485 0.10010011535972517 0.25630097102229193
28972000.0 0.9639393990570474 -0.24971233680084387 -0.0006374515115519114 -0.005019688148802093 5.493562098929723e-05 0.002004744118303012 0.11557881201030086 0.2538130987839035
29971000.0 0.9631003067606072 -0.25940411892956544 -0.0003951675290091145 -0.0017900987569731538 0.0006975051774165451 -0.0030761140785336804 0.1519020351074679 0.25691491777475595
30970000.0 0.960863566290597 -0.2632750497622505 0.0007641321961068248 0.0009691490535072308 -0.0013862949373276523 0.0010084157553012154 0.16666845030735591 0.25355795271721304
31969000.0 0.9599605161000669 -0.27231081876027813 0.003685244573636026 -0.004362233774557047 9.007900849247887e-05 -0.0004640598806342366 0.15841197300511398 0.23756401257898266
32968000.0 0.9559288043147978 -0.2820338628131048 0.008613266688792962 -0.007161010426003409 -0.0019489034257059493 0.0017069610504553449 0.16193769353810117 0.251899580254831
33967000.0 0.954631337571785 -0.29080307322121773 0.012358532707363602 -0.008072016469050597 -4.010273359166131e-05 0.001068858974971534 0.1879850814873538 0.2414439505127286
34966000.0 0.9510411410593871 -0.30012151582727126 0.014360187007702233 -0.010975044062044578 0.002192571260918857 -0.00022778105723850772 0.19351904808451403 0.24787699446391462
35965000.0 0.9473788798405979 -0.30927434978829704 0.016419684200112854 -0.015500011577368715 -0.0001616982406415299 0.003128856014704031 0.2199315310276218 0.25109914179233317
36964000.0 0.9465244897541009 -0.3171555279287106 0.01655968968158707 -0.014119131432547073 -0.0010564896318950806 0.00024192599405437428 0.21159567750104422 0.24761874156831115
37963000.0 0.9430112391895619 -0.326434088924804 0.022534354621689786 -0.022697436326244606 8.739958853502487e-05 0.0031839231566111815 0.22762134115372618 0.2277803373348521
38962000.0 0.9403533865215803 -0.3361886659695645 0.02668702347185425 -0.024672742814342723 0.004050657770908756 -0.0034195941233685187 0.23957097631435217 0.2285884709970914
39961000.0 0.9359705178959623 -0.345801088076027 0.027887279342960838 -0.026035867688780218 0.0012819982661314876 0.00012121035375787392 0.2529218022187957 0.21874616858449522
40960000.0 0.9331785562798098 -0.35184102615745316 0.022294556195572638 -0.025773541163031006 -0.0034490146992270003 -0.00012344453901802388 0.2702668125288243 0.22544474942989765
41959000.0 0.93022715161798 -0.3619138195934218 0.03326848661371178 -0.03074129788221831 -0.0007483795633774631 0.0011570016276630547 0.27337708278841283 0.2074879726323848
42958000.0 0.9259757089808839 -0.3706700349399036 0.03625701550243971 -0.0448849979625247 -0.0013955923143282184 0.00030952591620736286 0.27862508423832594 0.20292721529944116
43957000.0 0.9232873110423815 -0.3780858040777632 0.03622202528798326 -0.048656972498982105 -0.0008081680032231085 1.1738870404405945e-06 0.2829267764704418 0.20310223134186559
44956000.0 0.918070614143107 -0.38689689577573283 0.03736738866210536 -0.054513568560727706 -0.00014580588871082825 -0.0047416180185715345 0.31080929488824693 0.18983778614140748
45955000.0 0.9155539928723871 -0.3950090107851072 0.03806747394881852 -0.06205665827528924 -0.0008890605511289413 -0.003157677682558228 0.31001129322850035 0.18993124840265957
46954000.0 0.9104193399350998 -0.4053251281837054 0.03887872719934688 -0.06804271865966824 0.0018121563102008868 0.0017969528301541775 0.32482576340312863 0.17985897580486418
47953000.0 0.9093808669369184 -0.4128283980760756 0.041225694398477425 -0.07481948491738864 0.0007383610622754317 -0.0011638917717363138 0.32704801578058695 0.1713334281977133
48952000.0 0.9027679304082892 -0.4222479223671022 0.0417367223997032 -0.08591565076591175 0.0009106194517091951 -0.0005728958376344208 0.33629160275244063 0.16441271659818377
49951000.0 0.8994249728531172 -0.430096434154213 0.0424185667427756 -0.09520577229395649 -0.0030552711987975345 -0.0008070366593050638 0.34988362933064027 0.14199599864228266
50950000.0 0.8959867986007863 -0.439237829298791 0.04714495666934891 -0.10128305089345016 -0.0004245732458174457 0.00016055879989909877 0.35551802838388225 0.14433840862028752
51949000.0 0.8927333985199967 -0.44673785955964895 0.04726525427894233 -0.10877013257028294 0.0003551542489270448 -0.0020591619627455403 0.35386164916027046 0.14359976917312103
52948000.0 0.889686430020534 -0.4534129383567669 0.04741799438806933 -0.11979363196586464 -0.001370419447415029 0.0009202264972530871 0.37826303561191743 0.13727183333319806
53947000.0 0.8828198316687929 -0.46260211998788364 0.04723322961466854 -0.1267144789043778 -0.00047888931008554245 3.2153563800660586e-05 0.38273931684689794 0.11508638135300742
54946000.0 0.8774347313664872 -0.4708187488575837 0.05265724318398838 -0.14038167821073486 -0.001216063574424458 7.888867182308918e-05 0.38682993713168884 0.11485186262196055
55945000.0 0.8742422864091314 -0.47877393167875615 0.0533850263622982 -0.1475919671402774 -0.001962423209531829 0.000878136499407009 0.3849090453877782 0.094191862830657
56944000.0 0.8710385138372295 -0.48755333452375293 0.053432099409510866 -0.16208365420625287 0.0021282776699236144 0.0023015253424858288 0.3966264416785691 0.09832010556954573
57943000.0 0.8669414938798312 -0.4973614266892907 0.05686158275459626 -0.17337738479594797 0.002302368226034538 0.0023526082925652064 0.39517126048032847 0.0850725032194799
58942000.0 0.8584104262938794 -0.5012945769893787 0.058870935567827784 -0.1858717130021905 0.0005120487634074759 0.0011598228926076922 0.4202545596179568 0.09260265186033909
59941000.0 0.8561630387099363 -0.5125689091039057 0.06269013490116433 -0.1957393593508312 0.000775700584874802 -0.002546627991950511 0.41505262266591103 0.08609792570415886
60940000.0 0.8482855028564298 -0.519731849576889 0.05777592516491386 -0.1971061809324565 -0.0027731047689769856 -0.0019117880714862457 0.40332010170965477 0.07672305240280633
61939000.0 0.8449261769110175 -0.525896747907355 0.060088090693299845 -0.20710342603606 0.0014259759725486492 0.0006941468953002194 0.416306803077219 0.06016630617576214
62938000.0 0.8398496082708325 -0.5368994460905404 0.06498188315682825 -0.22966404457355166 -0.0013719083016808882 0.0005407867974933015 0.4408806254598498 0.05921780986512105
63937000.0 0.8334871309519329 -0.5456781723997353 0.06180287576210336 -0.25123019310221056 -0.0005842755350985907 0.00027945010009884674 0.4318284414318189 0.03903931058005725
64936000.0 0.8279612818155898 -0.5506744990965947 0.06520406612730235 -0.26348813607013954 0.0016215686128856135 0.0019450005257850775 0.43661048735828367 0.03343664640423793
65935000.0 0.8251670397786507 -0.56016414503156 0.06417087933860696 -0.279405557967482 0.003544639799162766 0.0018273050938174902 0.43311285355958495 0.018087106836572945
66934000.0 0.8186538150371167 -0.5675699234959287 0.06299683280514815 -0.29563615366258944 -0.0019420220362173178 0.0004436963456580892 0.4322663010427569 0.009653480968680989
67933000.0 0.8152752418362802 -0.5752085535810423 0.06287313591361303 -0.3075921416437656 -0.0008496949848927126 -0.0008874863283302863 0.4483671008188789 0.010251261442536859
68932000.0 0.8101047191996554 -0.5701534548623267 0.056196884003367004 -0.32379969891672555 -0.0026490394427085176 -0.0022168972068804965 0.44412236753022105 -0.010752021579277229
69931000.0 0.8012368469548539 -0.5901386440751394 0.05629383040804777 -0.34447048290760696 -0.00025956931077949076 -6.164703865567709e-06 0.44328576605876074 -0.025058450764115787
70930000.0 0.7935729530291332 -0.5975129067138393 0.050007782573755606 -0.36022379183926206 -0.0006743250073300625 -0.0022756908087192586 0.4497253213941626 -0.03522880127349155
71929000.0 0.7908803164327903 -0.6087117028151909 0.046980894807389935 -0.38319121161387165 -0.00200558043437276 -0.0015093984745789201 0.45159214386329216 -0.04562588765126239
72928000.0 0.7843443776608919 -0.615904142509813 0.03985174491995637 -0.39795285422946414 0.00020116378311902476 -0.0024309820854669585 0.46257804658839957 -0.055558197417666946
73927000.0 0.7790383400944152 -0.6225230978493395 0.03216464194349091 -0.4234035003609406 -0.0025445418741298306 0.0018934236968517766 0.4615975796907373 -0.06116112034040453
74926000.0 0.7733252224635875 -0.6310521746469485 0.027137762535630792 -0.44645242031437093 -0.00023828124654846417 -0.003667324267586289 0.4592772469972915 -0.05920129901850881
75925000.0 0.7658519369251789 -0.6364158157627384 0.01627412251540247 -0.464271821076612 -0.002880658210105695 -0.003127965153682287 0.4633099567161045 -0.08725227741280699
76924000.0 0.7579080739686597 -0.6457085097612673 0.0016103092446752832 -0.48718004407111803 2.0742790125589185e-05 -0.003317008092206259 0.4651209926523024 -0.09275242904709738
77923000.0 0.7538575330554954 -0.6497486303236681 -0.014658801770165847 -0.5203818520265219 0.0024526500191980813 -0.0021762402419373767 0.46182348898542697 -0.10082642125121394
78922000.0 0.7480944129264653 -0.661587907982913 -0.027003911240224485 -0.5483527945840526 -0.001000595316248414 -7.997434129410904e-05 0.46473631439362023 -0.09997937931810838
79921000.0 0.7380754295116931 -0.6648184624159663 -0.046179863158680244 -0.5723588384681462 -0.0012448035479414507 0.0035545884071410258 0.4566017273283297 -0.11923838441032993
80920000.0 0.7323649194550592 -0.6775080837278509 -0.06038301430216811 -0.6063933224432672 0.0019160029872279485 -0.001680724099260071 0.4654545494828292 -0.13349371478738792
81919000.0 0.728356894760518 -0.6818706859829186 -0.08227070470382855 -0.6366310293855738 -0.0007210300696890901 0.0016904305998902012 0.4699659108440778 -0.14271625054105216
82918000.0 0.7179164967172498 -0.6908701121348577 -0.0923347919040677 -0.6679913093693902 0.0045154607034280534 0.001334022377360303 0.4745948921700178 -0.15421664686773962
83917000.0 0.7105183303094897 -0.6980721655640016 -0.11773224951898924 -0.6959351300661567 -0.0008833155925913482 -0.0014838659369312969 0.4722239986038916 -0.15559169639653583
84916000.0 0.7039768859732414 -0.706209675532995 -0.1310446536699002 -0.7354826638830694 -5.905750115496688e-05 -0.0011526735120398713 0.466252490562923 -0.16160345827014777
85915000.0 0.6982118388792543 -0.7127559783732792 -0.15768626434976138 -0.7664083880519688 0.0017927944691562324 -0.0011642468565827534 0.46075737668047756 -0.18418080302931827
86914000.0 0.6876197164863992 -0.7222050644208776 -0.1696969214564161 -0.8084131631122881 0.0013525374055186601 -0.0012582038755594627 0.45703398511553733 -0.17200621166519195
87913000.0 0.6811074172464269 -0.7273038317098994 -0.1866783354935533 -0.8357651116326622 -0.0022019679587590296 -0.000539606095969635 0.4568251031985794 -0.1952674055842584
88912000.0 0.6756023262512758 -0.7335176240444837 -0.2088483698683343 -0.8711799774038309 -0.0023660339810772707 0.00238724047749439 0.4683576910354094 -0.2168356840189824
89911000.0 0.6680690235269967 -0.7447949443005675 -0.22326802303658522 -0.9123306737073652 0.0036277920509757877 -0.002293594043107212 0.47112625312333856 -0.20540885203652715
90910000.0 0.6609447726631841 -0.7479139102672259 -0.23850793366995468 -0.9466019933934687 -0.0006110766290573918 -0.0028866774369972225 0.4673572219105748 -0.21451942185506126
91909000.0 0.6503745054175485 -0.7536700844380644 -0.2699371617906491 -0.982647317093172 -0.00015964794370309298 -0.0001420113400837203 0.4595878696980541 -0.21928760080406837
92908000.0 0.6422782620728161 -0.7623028027324332 -0.28787419167122313 -1.015329746348269 -0.00048826142603705777 -0.0024345986861173357 0.4467226462901108 -0.23506909941666204
93907000.0 0.6370960330054741 -0.7665228917871193 -0.31010426519741335 -1.049450100135958 -0.00267480946973403 -0.0002694585737467752 0.46520572440114366 -0.251957142540963
94906000.0 0.6211708980370068 -0.7760133928444137 -0.33340185739317985 -1.0871505587740724 0.00014225168038959395 0.001213187226773896 0.4509200597566089 -0.25850157473813634
95905000.0 0.6173843806758973 -0.7813114361248265 -0.35752650271965797 -1.1230947496258052 0.003370246799513104 0.001738061636240694 0.45103742975045147 -0.27822432937129443
96904000.0 0.6085322114723682 -0.7894989173510937 -0.3836993635216702 -1.1642630578069826 0.004979294077178721 0.001947194021014059 0.44179470675733656 -0.28281732672910787
97903000.0 0.598031511261599 -0.7954135390569914 -0.40656881109170057 -1.2012772265003948 0.0031811348313218837 -0.0066409757186388415 0.4369099062161756 -0.2894360054661006
98902000.0 0.5937714815448062 -0.7999703276547737 -0.4318932479574693 -1.240063042891267 -0.0010316830456016505 0.0035736739895361335 0.4437468008685401 -0.28643363338814837
99901000.0 0.5819900221696666 -0.8072115449143125 -0.4693779680432684 -1.276520412667409 -0.0024996957161194924 0.0006614277286520875 0.4538152622408994 -0.3102017129969203
100900000.0 0.5721606972407196 -0.8120745579114111 -0.5078627252338873 -1.3014927864164325 0.0009654684514035201 0.0017633588099262411 0.4479942082181046 -0.3127056181075638
101899000.0 0.5635109485985458 -0.8195493037209948 -0.5358794971347679 -1.3475256032118976 -0.0018687707538430434 0.0026098901077403437 0.4475369055286047 -0.31581509976548106
102898000.0 0.5534551033044117 -0.824851975018732 -0.5829331437141442 -1.3883068164723333 0.0006682411910488018 0.00038436238946556534 0.4340529087404743 -0.3504319020393742
103897000.0 0.5468291526004445 -0.8328691004547353 -0.6258713336802141 -1.430650294132829 0.000640303075286355 0.0017149108856948912 0.456029007401487 -0.3388398651065345
104896000.0 0.5368636911236648 -0.8413449038973698 -0.6797364422542594 -1.4631123346043946 -0.0006388350875530339 -0.0005905524726255131 0.4358443001346456 -0.34817585137562446
105895000.0 0.523988165247377 -0.8437425323104716 -0.7340101270072138 -1.5082397295028578 -0.0009476055257901858 -0.003838842384208019 0.4296090422255063 -0.36266422189552033
106894000.0 0.5157866993907848 -0.8514402020503613 -0.7910941756967123 -1.549962250565716 -0.001054410360196078 0.00017848334884570198 0.42997105833307453 -0.3587613092488316
107893000.0 0.5075907389146184 -0.8580463030968152 -0.8496507778539731 -1.5865804226991262 -0.0025449589492432456 0.002362334839764828 0.4258053777447647 -0.38222678017197886
108892000.0 0.49820216027604786 -0.8600381981128973 -0.9140967858572462 -1.627710998729643 -0.001324019954666465 -0.0032253539683800617 0.4158940409998831 -0.3760830591542081
109891000.0 0.48531272367741835 -0.8676987692867876 -0.9792052755587872 -1.6671613343698442 -0.0018144057938590645 -0.001509424373796401 0.43671488871061875 -0.385025573148683
110890000.0 0.4748912492067553 -0.8687461980410892 -1.0369687255685212 -1.6693026483812923 0.0028498534189602765 0.0006301479295343443 0.41828498379050966 -0.38460904662185613
111889000.0 0.466421834647113 -0.8729306828227664 -1.1191552261181403 -1.7396359172977705 -0.003153958521448943 0.0005487318922238778 0.42158230652686834 -0.40760482402504217
