! Created with skrf 1.9.0 (http://scikit-rf.org).
# Hz S RI R 50.0 
!freq ReS11 ImS11 ReS21 ImS21 ReS12 ImS12 ReS22 ImS22
1000000.0 0.9867864059464988 0.003973585772034445 -0.013512531241546478 -0.03134098901209453 -0.011065123378929618 0.005430116752655064 0.35890666609008903 0.3027006329248377
1999000.0 0.9944817421759228 -0.011387359471869024 0.010775707175669266 -0.026778611473790605 0.0001608748776101314 -0.00305129985039457 0.2880947117836328 -0.0670130160690112
2998000.0 0.9941971497607826 -0.022503566818090848 0.008793836159947215 -0.01541231070748656 -0.005247538301228795 -0.005793373438518945 0.16861179056189765 -0.11734640387975578
3997000.0 1.002223065759761 -0.03171764336872785 0.015674220085585562 -0.004383297663805891 0.0007503874698080725 8.378991452077715e-05 0.09037038390097021 -0.23078889781909195
4996000.0 0.9961861754593258 -0.03487995936539323 0.011148153310283765 -0.002355420633349624 0.0014500918923552458 -0.0043674681438936195 -0.043017192485895965 -0.1924922281704936
5995000.0 0.9931395207993454 -0.048468679318260245 0.00815128811724989 0.0015189058314723574 -0.002038487417048888 0.0016319188475636137 -0.13279389550281742 -0.08619054355059379
6994000.0 0.9943719209948947 -0.05807147934169404 0.008523064082306183 0.00026842482036178004 0.0030085890187569546 -0.006467729627343359 -0.14383522568618268 -0.007960165174630465
7993000.0 0.9933661304616699 -0.06911635155459804 0.008623445282908461 0.00764882354598299 -0.0008342395572796797 0.0025161721499519472 -0.16155218977722438 0.03022922015506981
8992000.0 0.9940149936658187 -0.07298725118500131 -0.00024584553440227267 0.003491504384525883 -0.004442662145815687 0.004147969580582332 -0.13881083669824423 0.07300346505764899
9991000.0 0.9919372583330623 -0.08464691789981302 0.003459499222266194 0.0020903328539827325 0.0034613263365282664 -0.007488002711915628 -0.13913778837748156 0.08772894116779911
10990000.0 0.9925042149334745 -0.0915548109947673 0.003097628461819812 -0.0023499363189933105 -0.003425406013826553 0.0011474075555533386 -0.13653343503291887 0.12499519654415417
11989000.0 0.9900818964307468 -0.10191275532579858 0.0023986492061260764 -0.0006669567855714082 0.003289941079521003 -0.0009225627812291048 -0.10911558681743046 0.14919791995362333
12988000.0 0.9872076888269934 -0.10910187688974972 0.0005405874116320187 -0.0024431628658157433 0.003073011248283502 0.002033862713784555 -0.1156357581593838 0.1689152898375529
13987000.0 0.9869181845340881 -0.11630806612157092 -0.0035681696155714037 -0.006273693948361924 -0.0017286470851573612 -0.0002719701342812458 -0.08505763179645914 0.18549128778230523
14986000.0 0.9865598539562498 -0.12557161925301036 -0.0010153983971201376 -0.00602475507034318 0.0008632180531582881 -0.00041447300691675303 -0.08349408194623786 0.20290118377425728
15985000.0 0.9862977457388645 -0.13476383283520257 -0.0027415352372284377 -0.0037574831906523297 -0.000640857308447721 -0.0012482352696143234 -0.054512799208393393 0.2242219855032628
16984000.0 0.9847283902750982 -0.14671350267175093 -0.0021984996398037985 -0.005921740718089789 0.0009643852770404571 0.001442141390234536 -0.05794770853331028 0.2203140561170542
17983000.0 0.9865259899426936 -0.1481576457277468 -0.004821733048993931 -0.003331549344740325 0.0005947549835370723 0.000562704021192151 -0.05655814775172264 0.22358123957028306
18982000.0 0.9817633932253339 -0.16361036881163266 -0.002096955976659183 -0.004833823719008931 -0.00024961653010766987 -0.002009688101714544 -0.02191565991670732 0.22926340862349848
19981000.0 0.9796373175511274 -0.16692747320088336 -0.004144793490730738 -0.0006729277161932788 -0.0028383633393972243 -0.0020545043947789057 -0.008177030242460609 0.23634394527895966
20980000.0 0.9799788239569629 -0.17765492171321362 -0.004805861864464485 -0.010177745837452708 -0.0006301124232315018 0.00013207421547874022 -0.002713733362723661 0.25028397105488487
21979000.0 0.9791471977798744 -0.1839436736852338 -0.006834886819591774 -0.006292932628359425 2.1526099595086078e-05 0.0028999694135460573 0.011225973515870841 0.25331412916499735
22978000.0 0.9763162029130722 -0.1948133489635677 -0.005887393039997101 -0.0016704124630742246 0.0014360698992187744 -0.00046892107011604813 0.03176596769655535 0.2560843338903444
23977000.0 0.9771602587361434 -0.20234319885954474 -0.004707652882408968 -0.0015748411511154197 0.001801799152157805 -0.0008125740555619621 0.03595676408846312 0.2554026301456714
24976000.0 0.9718775019235086 -0.21135883894438967 -0.004330022978454424 -0.003483587848189949 -0.003205238332292715 -0.0018690633193397743 0.06639082844995708 0.2525674833481507
25975000.0 0.9682932293396299 -0.2255703112402669 -0.006018799780043378 -0.0026353670020416112 0.01713110048783339 -0.019677682008197882 0.08589725477921084 0.2662412882997025
26974000.0 0.970390257113744 -0.2294209892048274 -0.0059591136691933885 -0.0018986143638539438 0.0013581105235216755 -0.0006725198320798284 0.08547311939732562 0.26374233549039966
27973000.0 0.9658979369683472 -0.23612977491263296 -0.005986359609582365 -0.0012081024700168748 -0.0011822963224426455 0.0016553955062276193 0.10192527375502125 0.2525422522469537
28972000.0 0.9643069828829406 -0.24557403918818455 0.0007958714307725629 -0.004953213121706862 0.0006299360539406549 -0.002804723955800584 0.12459923487129403 0.25903146360526963
29971000.0 0.9627210306397459 -0.2553744770566263 -0.001777079783051207 -0.0020411296646883252 0.0022423251830081207 0.0007216492648763645 0.14636568543976763 0.26251421079771475
30970000.0 0.9600191628888913 -0.26088338530100436 -0.0006933887505743187 0.0009156318597214632 -0.0021817065802812847 -0.004195578145161563 0.17451806427836428 0.24301533816928658
31969000.0 0.9586026526584315 -0.27006329148038366 0.004800447836412047 -0.005500752635311543 0.0016669747153920768 0.0013187649003683348 0.1586196187195285 0.2556422423666938
32968000.0 0.9573999648751236 -0.27766637467851973 0.005798397434089691 -0.009111787874157413 -0.00268929516152109 -0.00016564063832590878 0.1667482106647783 0.2395144120697014
33967000.0 0.9554753675911443 -0.28667931579304373 0.014259029813664895 -0.011469164467083716 -0.00021023831580939842 0.0014340811961066318 0.19364509099061236 0.23871782993156887
34966000.0 0.9508667944021799 -0.29752193177532743 0.014764131171654333 -0.011040532018258215 0.001224766568849487 -0.0034736913084827577 0.19292309169916858 0.24985840633093417
35965000.0 0.9484418893404802 -0.30487430651542347 0.015063961399396489 -0.01888748277689466 -0.0007776685165593281 -0.0003942844333224607 0.21934121081731384 0.2482257718110565
36964000.0 0.9455993944841575 -0.3147210990960008 0.015609024583351228 -0.01371928849963937 0.002050427444216088 -0.0022956878758458176 0.21513613716067453 0.2473590852598372
37963000.0 0.9417582780094671 -0.32435868769102405 0.02115625001332231 -0.019410403906508483 0.0007252024248111861 -0.0015138332449936406 0.23246978746955665 0.23569168275282681
38962000.0 0.9412429044191876 -0.331549302337574 0.02261727064809472 -0.02584336502645956 0.0019345321348453878 -0.002865594850087944 0.24534203609289432 0.22871567961509096
39961000.0 0.9373248528901885 -0.34109904993034873 0.02505268859995432 -0.02640487794563192 0.00040018876775643015 0.0007729570240023633 0.2595285727270625 0.23756706238503233
40960000.0 0.9346005552850548 -0.34806436945752894 0.01975045417513238 -0.024702410564274812 -0.0013473007738941413 0.001635737391901355 0.27410521800530024 0.2239126644459103
41959000.0 0.9299296358404822 -0.35860758043659413 0.02799736158977253 -0.0319004232257431 -0.0018709508629005393 -0.001196251764099735 0.2691054302746427 0.21278114056865902
42958000.0 0.9265652258434446 -0.36624963734819804 0.029827958451257665 -0.040698666278024966 -0.0032163659345213554 0.0021612177902632975 0.285012995369154 0.20687033124810963
43957000.0 0.9259464148027811 -0.37037577326126 0.03441285217636836 -0.04743262157616232 -0.0012546718403113127 0.0003062454321060534 0.28746947463476347 0.20486029800381794
44956000.0 0.9217366532597214 -0.3790829799075236 0.031039470003541045 -0.05460219846873636 -0.0010181026179781317 0.0018410655658251487 0.30254818807485767 0.1971230852579691
45955000.0 0.9165060470655646 -0.3916178242946214 0.03211627351411278 -0.05918181165921417 0.0002763839165738855 3.4125496801548073e-06 0.3066056057930045 0.18899817654491996
46954000.0 0.912442014508937 -0.4001511691996824 0.03485171973729782 -0.06703030647552528 -0.0030718104955651465 0.000995335237111502 0.3339855238674062 0.17220706125770294
47953000.0 0.9107522132200344 -0.4055390483539272 0.03278887599267529 -0.07355077394655316 0.00237871088003527 0.004972822548865164 0.33619497225872036 0.17120167013483906
48952000.0 0.9038110216833977 -0.4186631236849176 0.034071325225940634 -0.08338630793654424 -0.0006351198949221286 0.004715960563458424 0.3314588953463281 0.16891445261075774
49951000.0 0.9009734115832156 -0.4239773543623545 0.031084905260107685 -0.08665922571792418 -0.001711974881918193 0.0018158580056219127 0.3616608673248856 0.15624462619818788
50950000.0 0.8973959403392836 -0.43334949561592084 0.035715625220781824 -0.09738205598845535 0.000594488741161852 0.002832209886389213 0.3528306898865097 0.14399820897222862
51949000.0 0.8927944329422192 -0.44249522302097355 0.0353275386180889 -0.10338912188077351 -0.0015852573967465875 -0.001858963733175081 0.3641565449428131 0.13425771967493338
52948000.0 0.8918564165954277 -0.44775278789368017 0.03584001204258467 -0.11237935475445383 -0.0022230788620461817 -0.0008923380014991255 0.3716666066591114 0.13067368775503882
53947000.0 0.8846351796334513 -0.4574595722956195 0.036525352382446 -0.12506719270591365 0.001827382022163191 0.0007678886606792468 0.37109876880616166 0.11692206653062105
54946000.0 0.8797972849940232 -0.46666000020480164 0.03693869108954806 -0.13013845889187 0.00013176799209342976 -0.0011185292403960102 0.38429094379131234 0.12200907776875639
55945000.0 0.8766435939800764 -0.4746685727480751 0.038675052271477016 -0.1424338208320219 0.0038554321485600165 0.0014970740833538912 0.3909121155797348 0.09506309928561155
56944000.0 0.8733553519745535 -0.480925898062689 0.04196962280612085 -0.15190671118996668 0.0010049164621163977 0.0020874543337202523 0.4011505910262468 0.09557032122710948
57943000.0 0.8667502720557609 -0.49247686783367234 0.04126795928802578 -0.16080931832282558 -0.0015865673345362033 0.00021300608861412235 0.4058600216341147 0.08940638346670751
58942000.0 0.86028717139999 -0.49780309924969735 0.04232323263089116 -0.17302517168863457 -0.004066420764229614 0.0007897579828923803 0.4279290071199911 0.07687511781655082
59941000.0 0.860492414933803 -0.5053729203245775 0.04514531948744127 -0.1826956009684329 0.001628904860407424 -0.0003223518812882454 0.4220113578923144 0.08776976030686738
60940000.0 0.8509112693189671 -0.5131944663477817 0.04306963815090685 -0.18467203207933233 -0.002215736598074841 0.001570302577515471 0.4113206670214767 0.07615514439857325
61939000.0 0.849238335577158 -0.5203396276425027 0.04724556521299306 -0.19026595155062512 0.001738178157452097 0.00033240501461384765 0.4160281370536563 0.06011627211424671
62938000.0 0.8405030135733755 -0.5320090249930673 0.04807981810521075 -0.2105531762719571 -0.0027092333640426013 0.002526527832432963 0.43891970763153726 0.052072183900196356
63937000.0 0.8373668891741943 -0.5380811515930773 0.050320315617684276 -0.2282232764489561 -0.004378155131207371 -0.0007729971529744276 0.4451294369225568 0.0420899251009974
64936000.0 0.8314929291957126 -0.5436661357511001 0.048958670746671124 -0.24274635355423788 -0.002726090860337211 -0.002232584376834597 0.43715955661816325 0.031928209890010266
65935000.0 0.8285613639887329 -0.5541388021237372 0.048959371826237955 -0.2591940734843684 -0.002341143940888651 -0.0014355571064365077 0.45001460080661265 0.013797637938248807
66934000.0 0.821661920302401 -0.5618163853920342 0.047485330050584355 -0.2671730116165124 -0.0007479909228786042 0.0027669413925380157 0.4426784485712783 0.005746511701550283
67933000.0 0.8197214247115879 -0.5676343601032309 0.05410122315942724 -0.2804836846055468 0.0001798358324188505 0.0007518624227531384 0.4458967151744308 0.0075687477598681855
68932000.0 0.8128974140347777 -0.5717911180016451 0.044425653918093805 -0.293996862770319 -0.00469870544637273 -0.00037506769384924795 0.44496474546248344 -0.010275764181185221
69931000.0 0.8075588492905961 -0.583718298954597 0.04590798361673641 -0.31206523895130556 -0.002631694789797238 0.0052909430502939715 0.44469083884357447 -0.021077922705004023
70930000.0 0.8003872102658285 -0.5924236588016083 0.04020587732164874 -0.32367237935727006 -0.0026872299595647456 0.0005542783842814518 0.45503715541578343 -0.02902063723838818
71929000.0 0.7951564776248141 -0.600565820452928 0.0414208865397901 -0.33983963093422137 0.0017458033288355226 -0.0006216387498119855 0.45330432477279836 -0.05348132422367024
72928000.0 0.7873866730772476 -0.6106961363078561 0.03386067348559943 -0.3565863632247145 0.00027995411716705406 0.0007686757989726329 0.4557074543902738 -0.04498266604344968
73927000.0 0.7816526070090243 -0.616008327132025 0.024097089751118125 -0.3720014682239157 0.0028317838410402015 -0.001681585865373399 0.45638711859933273 -0.05664230499731306
74926000.0 0.7775928670208446 -0.6248716333330413 0.018656541390663316 -0.3917549014366361 0.0008305787301576524 -0.0025712093524625146 0.46686213407238275 -0.06230725301335697
75925000.0 0.7711206104289062 -0.628682529170925 0.007542743979590728 -0.4106553668251011 -7.115186957161466e-05 -0.00017284684914462264 0.4665711987916497 -0.06700938982025505
76924000.0 0.7635640374992362 -0.637602986117431 -0.00780792706179057 -0.43400429268088786 -0.0034361731046102656 -0.0014233995970397938 0.46246774480993585 -0.08871852859133779
77923000.0 0.7590080817240168 -0.6432052971964924 -0.01963124151624627 -0.458799974401188 -0.001075295325001667 0.0023846895007009947 0.46503911443985135 -0.10368139829785686
78922000.0 0.7521001017349058 -0.6532063924176983 -0.03692300903374671 -0.4842623387469894 -0.00594998594199469 -0.0007267605761635375 0.4564710812094846 -0.11072211720990593
79921000.0 0.7430521022276213 -0.6586676574541311 -0.0544076935511825 -0.508426166994226 -0.0038996680687335317 -0.0037516821416799274 0.45399757983493344 -0.11247840742570656
80920000.0 0.7381057828700891 -0.6704019398895956 -0.06674676516061682 -0.5378591417374938 -0.0009800617383848775 0.0008526069579044097 0.4669757927158181 -0.12614817028571304
81919000.0 0.7347724606302997 -0.6752474396814065 -0.08652258275287483 -0.5627284578602472 -9.01690028158994e-06 -0.000401933362831604 0.459446941490888 -0.1349069360547061
82918000.0 0.722831120203897 -0.6837744707977765 -0.0991496132705654 -0.5934154965227124 -0.00613075535297763 -0.0015856283424674706 0.4717130433642045 -0.1451725537423659
83917000.0 0.715457256385711 -0.6894501884001708 -0.1227588363173933 -0.6172685616577273 0.0025970244513332545 -0.0036329630088093668 0.4701887789159337 -0.1631276179607341
84916000.0 0.7100428531582893 -0.6977922647606778 -0.1395725729832554 -0.6585913382787796 -0.001862450373965137 -0.0013855304523239906 0.46400437557355756 -0.17345810077823673
85915000.0 0.7032502995345958 -0.7027424529089595 -0.1555196876040197 -0.6838677610419635 -0.0024637750016279106 -0.005418640968531998 0.4716787021855832 -0.1864108196686123
86914000.0 0.695782579127375 -0.7143789759020476 -0.1702599370140417 -0.7215193517418467 -0.0012096410629860057 -0.0013295097387902382 0.46598814903440594 -0.18206316992870442
87913000.0 0.6897577019422687 -0.7201150910217897 -0.19193138613617294 -0.7496340747356989 0.00397739796852586 0.0015209395306738417 0.4596866056403791 -0.19317929069863202
88912000.0 0.6824580501923334 -0.7260370763209539 -0.20495565590936232 -0.7787209470604751 -0.0007248714855084009 0.0032096594273381784 0.46400773884429264 -0.20883859780367883
89911000.0 0.6764539092533415 -0.733793883608246 -0.21772209846111568 -0.8181604980220496 0.002099091267215844 -0.002476858824862286 0.47145748782704555 -0.21035119131778457
90910000.0 0.6683778293601592 -0.7396057936852589 -0.23731855490353215 -0.8491924216710246 -0.0030921388177773774 -9.992777859695764e-05 0.4595341922072868 -0.2076985360429784
91909000.0 0.6592192583157169 -0.7447399937794907 -0.2550055920796807 -0.8834366075605491 -0.0011529676965874622 0.0015182320920158426 0.4686603990712668 -0.23145179990520912
92908000.0 0.6502823684017607 -0.7540918893316628 -0.27188155571673606 -0.9134634324843263 0.003731872790534267 -0.0017434302242906037 0.4552776122716249 -0.2415414472947613
93907000.0 0.6447285271026599 -0.7588577840999159 -0.28993923810886485 -0.941079955633341 -0.003900603646063723 -0.0036682936520014853 0.4686107943850239 -0.2551208600386037
94906000.0 0.6321732962282566 -0.7667732262311334 -0.30574432156539383 -0.9743264465642494 -0.0015745233726969195 -0.0013424306138237153 0.4575549688545029 -0.25701134815714827
95905000.0 0.6250155501422671 -0.7726081839984347 -0.32417771323298816 -1.005285546709506 -0.00476148330365865 -0.00425003866122179 0.4620064993131022 -0.2768419090554254
96904000.0 0.6165962162515866 -0.7820050491296247 -0.344782765408771 -1.0427258201416518 0.00035884854279015634 0.0008195954747229765 0.4471910864899787 -0.28280934042020683
97903000.0 0.6085669110561229 -0.78703428156187 -0.3663656977055239 -1.0780377306800282 0.0022478994642138716 -0.0006370404499621578 0.44440848829763474 -0.303728528818106
98902000.0 0.600576167992876 -0.7933129834888579 -0.3851501957919653 -1.1099189551144761 0.0008217758392839757 -0.002530409227677041 0.4406018390846957 -0.3035514861851015
99901000.0 0.5944196689847355 -0.7994560368682431 -0.41165573909644093 -1.1416727283179549 -0.0009152616148988928 0.0014698282788957596 0.46121904675532516 -0.3067173479379821
100900000.0 0.5862369412461337 -0.802325790825259 -0.4430470445515907 -1.1675805632002878 0.00030126294609512797 -0.003224586323334596 0.45890412601373004 -0.31900333957589627
101899000.0 0.5769541978498451 -0.8098859464075432 -0.46749328053448186 -1.2040313459640941 -0.004510169378587952 -0.001191057396790165 0.45229236602417816 -0.3253846492572304
102898000.0 0.5661232700460764 -0.8178134620788149 -0.5055584224612365 -1.2388480334583034 0.0025407618766117297 0.0010455584558217888 0.4511204027089882 -0.3457851562280839
103897000.0 0.5571095034288976 -0.8254616709515997 -0.5436213395972984 -1.2721410423449275 -0.002612693778704376 -0.0016409946049026028 0.4601099929211456 -0.3425377458764265
104896000.0 0.5506176311554041 -0.8343572491689705 -0.5860438095850647 -1.3007798194402556 0.002199227529066829 -0.0038224868532925798 0.4361346410767582 -0.3410236157714701
105895000.0 0.5382690966114707 -0.8358679041685181 -0.6287544370769105 -1.337518659563334 0.001351281185690303 -0.001418584395092308 0.43642817253745814 -0.3580839832785246
106894000.0 0.5282017029794597 -0.8416518849379467 -0.6793510028618971 -1.3736140299514759 0.0024391943644463065 0.0015831706959305997 0.4368182868130506 -0.3758238994139562
107893000.0 0.5206353478921305 -0.8494506534050346 -0.7352912038936239 -1.4144202163574533 0.0008556488728231738 -0.00028653957534070573 0.4378222792807769 -0.3891140686423267
108892000.0 0.5108678019165145 -0.8507016434038369 -0.7938050520988374 -1.4498347409958015 0.0013841770458475602 0.00022418408211664169 0.4288455583412885 -0.3828784087813631
109891000.0 0.4993761138001137 -0.85993216975695 -0.8498024512749276 -1.484724003849579 -0.0020475695224088466 0.002007865469049759 0.4385588099414421 -0.37966182450668656
110890000.0 0.4804942123460992 -0.8625255700133775 -0.9107968050511258 -1.4768607525452973 0.0008059439310278926 -0.004056335162029305 0.41820444357447933 -0.3825579985303668
111889000.0 0.4803900928190832 -0.8653591011755021 -0.9691328676499725 -1.549112089759983 -0.0016849119576868767 -0.0030070854354580247 0.42660956903437713 -0.39223269962141477
