! Created with skrf 1.9.0 (http://scikit-rf.org).
# Hz S RI R 50.0 
!freq ReS11 ImS11 ReS21 ImS21 ReS12 ImS12 ReS22 ImS22
1000000.0 0.9766540582868926 -0.0008251924931232584 -0.017068993665856767 -0.049200149826651364 -0.03181177713626269 -0.002660632631378199 0.3385715845781103 0.3791600977704108
1999000.0 0.9901150397587878 -0.015611222085869791 0.008844927725282486 -0.025561389633872198 -0.010549583353340015 -0.006453016761246729 0.2680393872661866 -0.07502823554107657
2998000.0 1.000358526180699 -0.021622514622018318 0.008978565481338125 -0.01785485432439659 -0.007511253887946661 -0.006256528327371831 0.18611279870131248 -0.16144210885814375
3997000.0 1.0009572315067852 -0.029766478671687337 0.016455381363535772 -0.007654115679201585 -0.0023348202526627697 0.0007797832853304575 0.09047720964349 -0.2476483116808349
4996000.0 0.9962818952667528 -0.03871026280066829 0.01345259346525432 -0.0017103810653175452 -0.0035813595515339757 -0.0014521866758569171 -0.05813055750439821 -0.20960793939216105
5995000.0 0.9996678487146181 -0.04535737939450659 0.007205395767695057 0.0008235283676906132 -0.00024280666804482799 -0.0011643970069430654 -0.12171304484079623 -0.09711946193524923
6994000.0 0.9997599706027864 -0.05555222444291206 0.007797512556318559 0.007143565517684737 0.0019122041171848773 -0.0015531470114645309 -0.1316705971744305 -0.02967209668592462
7993000.0 0.9995803681699981 -0.06636242642257084 0.00637249836420689 0.007794844630721033 2.9650714288944343e-05 -0.0009207687369438894 -0.1651460772850945 0.03759319768994914
8992000.0 0.9970819174122922 -0.07248724947766134 0.00404342602777937 0.0054023131735189455 0.0008889835524455335 -0.001763528152037931 -0.16181564736354945 0.0699581529035423
9991000.0 0.9997521521299738 -0.0803001068164031 -0.0005434419667148025 0.0018806271678695771 -0.00034754007492558627 -0.0026653693549796654 -0.1423968087791192 0.09162300676256464
10990000.0 0.996322015468337 -0.09439231967226354 0.005534504577925483 -0.0007411104429320012 -0.0002474301776136356 -0.0007707410893776747 -0.12936833041881157 0.12027231698794695
11989000.0 0.9938658098716379 -0.09960105718913495 0.00026112203183757655 -0.0032903180741510408 -0.002220365837425055 0.0025224959555955155 -0.11300773638669594 0.1413386253709687
12988000.0 0.9944294601411003 -0.11132411341879137 -0.0029040840314986664 -0.0024298351027373134 0.0012306249225414016 -0.000135870449358826 -0.1135175335829231 0.18175433810297328
13987000.0 0.991223622740592 -0.11600896250728572 -0.002091881794247301 -0.006906524065823321 -0.0008418637511310945 0.00038671354734930445 -0.09676045776516161 0.18046296499646786
14986000.0 0.9922833657035016 -0.1250463238849136 -0.002438249102772777 -0.00132351552685556 0.004459216460638913 -0.0016580504811576067 -0.08549011119467767 0.2165752564167053
15985000.0 0.9926714269326044 -0.13476239229320303 0.00212869423260699 -0.002097507873326281 0.0007084177726566714 0.002425446771679016 -0.06381878223722354 0.2145602017583826
16984000.0 0.9887920025132347 -0.14134858729703415 -0.0024369998836298785 -0.005379700211730014 -0.002314358917312962 -0.0023243305795118676 -0.05877146663262165 0.216050933409464
17983000.0 0.9909352045685529 -0.1474182828168887 -0.004631992749607755 -0.004929692225046224 0.0013717609717153216 -0.0008652398958639375 -0.04058836588347775 0.22651850442572885
18982000.0 0.9863984670329383 -0.1593484567232118 -0.007980889828379667 -0.004965071051351227 -0.0009696581692932307 0.0029770136107166024 -0.02013864099543719 0.23710611692028719
19981000.0 0.9877128218722552 -0.16560333364442426 -0.0021274859778615865 -0.007892033244671637 -0.005600731289007677 -0.0010625931717225597 -0.01353507330539426 0.2346664074834626
20980000.0 0.9841125798506868 -0.17492166577535692 -0.00566743789337406 -0.004580125797262321 0.0017530537382952128 0.00048810676859595026 0.007451318695818694 0.2540914995849002
21979000.0 0.9859533901739528 -0.18502075181040986 -0.0018538742688922396 3.135124686681618e-05 -0.0011731066322228645 -0.00011884196198792385 0.02996635867813216 0.2486286602557789
22978000.0 0.9810312438104497 -0.19493459887029269 -0.007441475196585048 -0.006103774142775068 -0.001652418765908013 -0.0011366216013146326 0.03131875680452747 0.25746851882362015
23977000.0 0.9802609679430954 -0.20198986171406175 -0.007000144944385239 -0.002215603380435628 0.0005437428712886205 0.0033399833203036815 0.045483872001005295 0.25802945569652735
24976000.0 0.9768268349440248 -0.2102688314116931 -0.0026625683410243274 -0.0028934811292066448 0.0024420169304966207 -0.0006647463567917195 0.07561106160737197 0.2532784917474364
25975000.0 0.9729865102661479 -0.22524275096238583 -0.006238046038796123 -0.004025762706004912 0.016853860389279388 -0.017756558358777732 0.08013306329656168 0.25720237180218464
26974000.0 0.9735397510160486 -0.2267923880371869 -0.0047996828088165714 -0.002586954716350997 -0.0004126768595860416 0.0007499262167248204 0.09554292632529764 0.26322839199675774
27973000.0 0.9727728490889146 -0.23290809908724872 -0.003326396845954078 -0.002238791948647029 0.0013786041154838725 0.0019069141650768996 0.10919659982545724 0.2582727088787334
28972000.0 0.9691751688516045 -0.24226344301083477 -0.001542974816145018 -0.0032005095492034156 -0.0017690318630266557 -0.001992270832742486 0.12984524301792577 0.2521407895077982
29971000.0 0.9680939291658553 -0.2533467780991423 0.0010757497014999803 -0.002174949197342941 -0.0004849412065717642 -0.0005359514665393887 0.15832277122554297 0.2703243754537581
30970000.0 0.9663749606606975 -0.25821630697544157 0.001298366802359569 0.00015930292072522696 0.005004503401388313 -0.0022991105362711057 0.1740177986023218 0.24811035990986305
31969000.0 0.9638919272981097 -0.2666203192679352 0.006893963196333755 -0.0032271953166946193 -0.0014846791642706507 -0.000552736650607323 0.16424918351541268 0.2462585423422308
32968000.0 0.9617044854524937 -0.278248128368466 0.006272162539273532 -0.0061038813274451684 0.003130452536993746 0.000779899659852738 0.17736525594284897 0.24890314103347042
33967000.0 0.9601500230097488 -0.285017077304815 0.007425490081258466 -0.00929849515803671 9.0318027613838e-05 -0.0029065264589712356 0.19646027056394746 0.25353338272294745
34966000.0 0.9552852468883856 -0.2936657232013911 0.012142049012350498 -0.014552929861429222 -0.0018281120236299853 -0.001479623772808304 0.1996620365387364 0.2561222218067075
35965000.0 0.953711301128513 -0.3011438979836032 0.01926005377144418 -0.016210644003280032 -0.00011415988626875481 -0.0014044673759087837 0.21440441114975967 0.255802521745828
36964000.0 0.9514224340968528 -0.31005361616536525 0.016501159540761878 -0.011298062252453882 0.0013335653739197885 -0.0012262161516152753 0.21871796245239059 0.24924469167000257
37963000.0 0.9480544303420377 -0.3159252810868961 0.02287533153510167 -0.017448596458144797 0.004841317737509073 -0.00040940363408869683 0.22785341533840198 0.23700536425917804
38962000.0 0.9445264023951988 -0.32871038090450216 0.022729570270253702 -0.02470233969585875 -0.00021351194449168557 0.00018595958464241467 0.24761010846109552 0.23495206746033223
39961000.0 0.9447043700274057 -0.3328222193726292 0.027296069435710425 -0.027739382178067252 -0.0010749473877552766 -0.0014626057773911968 0.25950569625733 0.22688844327333724
40960000.0 0.9395801029556777 -0.3403804554961962 0.024421323331291142 -0.025401858787666206 -0.0006422085648594871 0.0012995152213691528 0.2713445213682445 0.22682383615581125
41959000.0 0.9370023293988284 -0.35173149634653056 0.02835105052126707 -0.03396912004807546 0.0013561050413199581 0.0008583872635952812 0.2797953418620384 0.21669633824387768
42958000.0 0.9303532167251474 -0.3617320471373404 0.0344043066840376 -0.0407931083826752 0.0010984166245622102 0.001576898091629691 0.28582690395902577 0.20350350126029249
43957000.0 0.930869092575339 -0.36449032450528074 0.03646762382588461 -0.0440711095728684 -0.0022865099530413996 -0.004725764109553355 0.2950335986537973 0.21530487619975094
44956000.0 0.9275924286558983 -0.37196895989484424 0.03659360611507635 -0.05286843271768747 0.0006133525911556346 0.0004207074320375967 0.3149694149643742 0.1977397695128622
45955000.0 0.9234093392085464 -0.3839949436274333 0.037434775759989665 -0.05819936898909893 0.0006129294532981283 -0.0006860972053059664 0.31563598361842016 0.19648833552970107
46954000.0 0.9204247536394743 -0.3919399262038931 0.04156024845825919 -0.0651117566252652 0.0007053713910161207 -0.0006845740064894247 0.33754369338315693 0.17847093013221316
47953000.0 0.9172673731888074 -0.4004813999829519 0.038513024076687795 -0.07160502443347441 -0.0029847185194451166 -0.0036903087799100708 0.33907860475781065 0.1677227370319732
48952000.0 0.9122465009532768 -0.40895483881169975 0.040664044079186376 -0.07961316142432724 -0.0020435673242995694 -0.0003246042967677694 0.34100735728463655 0.16657628234159927
49951000.0 0.9093303678105213 -0.4165853895212627 0.040547303438372456 -0.0859240977433371 -6.833700504634532e-05 0.000983257339788448 0.36533015076939945 0.15313527504728586
50950000.0 0.9059801961344228 -0.4237541955216878 0.03973032509422996 -0.09799175087014622 -0.0008746851580222739 8.982811480572156e-05 0.3602658485272277 0.1465349230386961
51949000.0 0.9013723589308525 -0.4310353540725288 0.04363275800295114 -0.10346473848759251 0.0010526390401109607 0.0010473683727487075 0.3659411476634974 0.1441749541380971
52948000.0 0.9002216060107762 -0.44041940066416124 0.04626792870399343 -0.11299228939415372 -0.000918746451985101 -0.0008599992258960406 0.3861997444392149 0.14648104466136605
53947000.0 0.8919786842982329 -0.447776364966479 0.04916007915418826 -0.1223193726113895 -0.003901558736112572 -0.002507435206493614 0.37974136987261065 0.12749121267080768
54946000.0 0.889966717303033 -0.4557231878573476 0.04899779736145006 -0.13248416869907997 -0.0038591220271563067 -0.0002824017750882628 0.3904740252678537 0.11855958978977427
55945000.0 0.886457863292309 -0.4661415978350719 0.04908961122117979 -0.14315073954067936 -0.0010683077169648736 -0.0010072874301177888 0.4010918475688223 0.10764995254303901
56944000.0 0.8820502674132693 -0.4717221022977196 0.05447937712704069 -0.15542170924327037 -0.0020627037190490503 0.0012447826687503394 0.40864085088843394 0.10059649056610619
57943000.0 0.8777377245365565 -0.48251159868068233 0.05665718674074053 -0.16363415078838175 0.0008865530924704709 -0.0038647163756150393 0.41295937036944813 0.09962474848966475
58942000.0 0.870873980583694 -0.4879731267675625 0.05125816547261367 -0.17683067539378497 -0.00034657547597484993 0.004107704030259337 0.4326456589945583 0.09306419791823455
59941000.0 0.8715106894553474 -0.4947728479767914 0.0552356634827333 -0.1875475955395383 -0.003000930101589652 -0.0015370732056324199 0.4252675857614033 0.08353328910696324
60940000.0 0.863156821608838 -0.5033697273725631 0.058301685802912444 -0.19253000348244032 0.00019345581394057513 0.0010605630010313341 0.4196748316970971 0.07337429808606874
61939000.0 0.8605239133465803 -0.5102706843036225 0.05609549474663397 -0.19901995618625878 0.0014301759180970497 0.000957535097716664 0.41966163703314224 0.0789850973193879
62938000.0 0.8540006064792056 -0.5206978413236886 0.05989775470492455 -0.21587940480694004 -0.0005791766688285619 -0.0017398229334405415 0.44838133061916263 0.0649699161597057
63937000.0 0.8481470719977796 -0.5285741811322165 0.060710902798121705 -0.2416984382844188 0.0013726749895988258 -0.0026946535598903736 0.44512729602731144 0.04556073936213328
64936000.0 0.8445104309187346 -0.5324027703829622 0.05968368198107379 -0.2520308879289839 -0.00016926562250105443 0.001660172545680304 0.4443328843294166 0.04312488682351823
65935000.0 0.8386207630977499 -0.5442555631634348 0.0606361616938482 -0.2684519627983329 0.0003978209680478697 0.0021212339910404642 0.44952961226638816 0.034762202584426985
66934000.0 0.8352858864680487 -0.5484006987963144 0.05948831282931792 -0.28066749999529905 -0.0014998860368431435 -0.0022363249915168786 0.4476708645125934 0.011599171435376587
67933000.0 0.8327558090401809 -0.5579217715117719 0.06247436306025237 -0.29581039401972636 -0.0006720038957970544 0.0012153951543977708 0.45273099412636353 0.010314918776440621
68932000.0 0.8152298161622037 -0.5590557163737258 0.056750892277211105 -0.307046234874213 0.0006026720793439901 -0.002241560113345879 0.46443736551141057 -0.009602944718180554
69931000.0 0.8172287470028357 -0.5741295316043019 0.055074866218847274 -0.32920426678289894 0.0012472761327797692 0.0006199710281319147 0.45899598949755077 -0.018752342592975153
70930000.0 0.8120016389100259 -0.5812229961102985 0.05400105027871228 -0.3435598408924506 -0.00290529323870596 -0.004437560682754596 0.4537910312267208 -0.022291414028707855
71929000.0 0.8093766712569166 -0.5918767717313065 0.050157864384125075 -0.3639660838433489 0.00039719781841667656 -0.0015121220516367165 0.4592056598623411 -0.041209173112693585
72928000.0 0.8043534431558627 -0.5956893681150507 0.04917558196742958 -0.37831064396567615 0.003906899930405592 0.0023922879756201557 0.4693238957850469 -0.04786533922199286
73927000.0 0.7982907099986207 -0.6022021996405345 0.039538437558106376 -0.3981661091849276 -0.0027557588416373 0.0007425012319604908 0.47507193866089514 -0.05242089739053241
74926000.0 0.7918684411095591 -0.613450110717829 0.037246660496678866 -0.4213518274084083 -0.0012585662795849785 -5.445472812920813e-05 0.4707603547560523 -0.05995236794585988
75925000.0 0.7844098005134198 -0.6182171012544839 0.022426795532919607 -0.4414920972499107 -0.004378128720848047 0.004577881689186106 0.4743695775486801 -0.07299697512422532
76924000.0 0.7794437433216324 -0.6265461024072859 0.0122675701666235 -0.4649848056879354 0.0028659953157224175 0.0039051035911428986 0.47694883333856564 -0.08489179916211664
77923000.0 0.7743880497378618 -0.6327422095041478 -0.0027456022069826387 -0.4918058844728894 0.0052488446278911 0.0013192416314150846 0.4696697635513927 -0.09319803565837036
78922000.0 0.7695419836634609 -0.6431876245539134 -0.01156890857630074 -0.5164637384513682 0.004857788732195473 0.0003863461515256708 0.46900096282932674 -0.09251802243435865
79921000.0 0.7582491988108278 -0.6472359995803215 -0.03470758910278271 -0.5422830339623049 -0.0033545981140041805 -0.0020206898851925785 0.4707068799666956 -0.11523938233962737
80920000.0 0.7540152689166719 -0.6582916685258282 -0.04717394418928313 -0.5730030604114051 -0.003951550583872571 0.00046619883444765065 0.46987834712477594 -0.1253868323560674
81919000.0 0.7521129301655847 -0.6635445135593679 -0.06477985148835154 -0.601636166172004 -0.0028546799878008218 -0.0025564819400397693 0.48600716529295274 -0.12280687996976593
82918000.0 0.7401019382934708 -0.6733620501916094 -0.07615834183647477 -0.6366286367119521 -0.0010182958000645233 0.005120444749397747 0.48271118400914026 -0.13739132188203856
83917000.0 0.7326524859707402 -0.6803133368073084 -0.0965035745944656 -0.6625785427098364 0.00011509594443983425 -0.0028990707537717153 0.4840212378238598 -0.15198963226305462
84916000.0 0.7276571808880389 -0.6889144835174187 -0.11150306693930764 -0.6948622757073004 -0.0010440939743329245 0.0006759373507705267 0.47551409212306756 -0.1658675835067685
85915000.0 0.7208099577328255 -0.6929860793098245 -0.1356391522538637 -0.7284925040395771 -0.001883388109693132 0.0016899538356909434 0.47194880663561917 -0.1711688704853045
86914000.0 0.7140145662089306 -0.7029767545534297 -0.14581722979132272 -0.7656423093168144 -0.0007035584983644533 0.0038610875767321248 0.47281785289639455 -0.1768914604395685
87913000.0 0.7049252288756814 -0.7089191661392491 -0.1661993412587827 -0.7990495917683375 -0.003378045350764175 -0.0014084323264468694 0.46816172935205186 -0.17791332998990309
88912000.0 0.7004138769876075 -0.7148937693763939 -0.1858427263035513 -0.8328115490488008 -0.0013194526905536224 0.002128984800014037 0.4744716917086476 -0.20978395331181565
89911000.0 0.6914684379353442 -0.7249809497305809 -0.1996069627938602 -0.8719901654658786 -0.0011341926588872113 0.0017245261465766062 0.47569385152333493 -0.20950130977131226
90910000.0 0.6864449174295126 -0.7286061754014919 -0.22084465801594608 -0.9070472992065077 -0.0047221626075866574 0.00026738511567845637 0.46731999314901007 -0.2208703875199416
91909000.0 0.676554282102091 -0.7343122956544609 -0.24088114645911035 -0.9420643396427575 -0.00073231224538997 -1.5077534120020957e-05 0.4792986863062715 -0.2170908028109031
92908000.0 0.6689009482353846 -0.7436519219196593 -0.25792895889346196 -0.9787472195664899 -0.0017634885556490872 -0.00034317618332817983 0.46993609711337064 -0.22744884918339928
93907000.0 0.6644114151621836 -0.7483695808964876 -0.274772408461222 -1.012000327296597 0.0028644075378917683 -0.0033790396685106873 0.4778636678393838 -0.2503222483681605
94906000.0 0.65207900326129 -0.7571822950517018 -0.3006117437267831 -1.045448442276109 0.0021356121860313963 -0.0014675291906378555 0.46950122077085177 -0.24656385489296664
95905000.0 0.6472261938997996 -0.7626878902381886 -0.3207745318194798 -1.0863544872701514 -0.0005598214294480702 0.00040567126975757037 0.4716198577247074 -0.2624353081003521
96904000.0 0.6359222308936554 -0.7725171180726267 -0.34093786301378487 -1.1270398275835658 -0.0004262843034594041 0.001860859022870924 0.4616043018120249 -0.274109368161019
97903000.0 0.6284433413217615 -0.7754396116767185 -0.36244314960863444 -1.1571496819105873 -0.0029397451267494956 -0.003491617489868069 0.4598074130958584 -0.28703915912658096
98902000.0 0.6233367654632698 -0.7827747150252035 -0.391988255613715 -1.1993490037670091 -0.0023585871867380028 0.0023883950917415893 0.4646516132941887 -0.2854086682655377
99901000.0 0.6137428265269743 -0.7891784499209797 -0.4193463997002783 -1.2358812479936794 -0.00027803443408672937 -7.173245614895769e-05 0.479572113232304 -0.3061821547606951
100900000.0 0.6045242120292318 -0.7925796594654928 -0.45703072977187265 -1.2631959697292379 -0.0007786313661535791 -0.0035795691729231622 0.4740821371989782 -0.311776314189916
101899000.0 0.5996563795041217 -0.8013243163195591 -0.47771125947915116 -1.3079189938076605 -0.0032727133508264265 -0.0019086422572662646 0.4604416034552095 -0.3144190142923859
102898000.0 0.588079360829321 -0.8067712072109274 -0.5162845069528998 -1.3485125143317733 -0.003257344885633386 0.0008107654518034321 0.46232594863328214 -0.32021480794825186
103897000.0 0.5792106130688688 -0.8153358433316821 -0.5606146960319847 -1.3823130638975982 -0.0014054142464840307 -0.0026796940311870914 0.4753653185452038 -0.32273328209903757
104896000.0 0.5708503632667565 -0.8245265344664247 -0.6064935969792479 -1.4215107322560647 0.004089155392996226 -0.0011717589817150428 0.44599509556873745 -0.3387405855129154
105895000.0 0.5620693672997502 -0.8262770742936406 -0.654349817169986 -1.467986154668567 -0.0007368229058833729 0.0025577943781800723 0.44406502003273446 -0.35491467384193504
106894000.0 0.5536874923869961 -0.8333079997811134 -0.7132247982249402 -1.5071276169939933 0.003308852093411486 -0.0008659728855030199 0.4372558935135106 -0.36958638444307107
107893000.0 0.5459636922698772 -0.8382737012187863 -0.76754494547516 -1.5434306286424195 -0.005181034785245911 0.0006197246476233306 0.4383473300677931 -0.3883289733195776
108892000.0 0.5339947747351522 -0.8442708481083271 -0.8294414780496858 -1.5793009108699811 0.0025568014370183686 0.0024026503214701895 0.43875138552613235 -0.37865952347181125
109891000.0 0.5228815834039324 -0.8490424674520094 -0.8812485841837944 -1.6169590926718147 -0.0028210677358998237 0.000969765770670962 0.443090134655433 -0.3721201169730418
110890000.0 0.5179863102763426 -0.852230377076117 -0.9395272430983503 -1.6371969656629632 -0.0005760666904988767 0.003502460665423478 0.4378735846331801 -0.38474333208060835
111889000.0 0.5034570713250425 -0.8567191550081107 -1.0102051164809842 -1.6852724023242183 0.004325264000668363 -0.002344233510771125 0.42650534632007714 -0.40543418986857915
