! Created with skrf 1.9.0 (http://scikit-rf.org).
# Hz S RI R 50.0 
!freq ReS11 ImS11 ReS21 ImS21 ReS12 ImS12 ReS22 ImS22
1000000.0 0.9781312157628033 0.001959458928894752 -0.012213686587856825 -0.06815582628113026 -0.029213291746770353 -0.0005480622888679468 0.2961363701848448 0.3670327778056675
1999000.0 0.9957641378451568 -0.006879384821937033 0.001155182779740212 -0.023221817333425727 -0.00738273841271918 0.0007643406770214997 0.22307711151533224 -0.06167621219389222
2998000.0 0.9971000812475199 -0.022004384703719182 0.009199402961951512 -0.012689202783218405 -0.0024118965058319724 0.0008252733376109533 0.1861082654531649 -0.11899971279803287
3997000.0 1.0022693232638833 -0.029260346226884327 0.013156389091829472 -0.003967033774810907 0.0055855745974428975 -0.005659672153906145 0.09216349433011127 -0.2108913914627943
4996000.0 0.9980287126846309 -0.03595170501309366 0.01431924130158597 -0.004477439430584686 -0.0008462273691040651 0.0018724009263253987 -0.030146067020419106 -0.2081181368001367
5995000.0 0.996734428530258 -0.04880023519021196 0.008663533172861998 0.003157759822345537 0.000649031196218324 -0.003622891190933619 -0.11781638834264005 -0.11229038086094564
6994000.0 0.9947667729007279 -0.0580544143934095 0.005660104401898895 0.0024152239101385095 0.001627374809546841 0.00040310117245349533 -0.14925556516930813 -0.03602910789626091
7993000.0 0.9940475928452032 -0.06852799323704915 0.0021650002893971866 0.00856409796094779 0.005602653159952881 -1.1872077409282456e-05 -0.1637113950543189 0.02575324273987129
8992000.0 0.9948372142235148 -0.07180741275771473 0.006824596217439541 0.002813967493381883 0.002292477420581141 -0.0017929875644369763 -0.16467678728785526 0.05178182943958693
9991000.0 0.9930646250929287 -0.08187548697901627 -0.0009998414416489655 0.0012476264581237119 0.0016728065600128555 0.0025437581859284416 -0.161346298228548 0.09387125566276638
10990000.0 0.9950723418637852 -0.09154331883169817 0.002323311211389811 0.0005733207381905978 0.0028168002141856 -0.003288213525543005 -0.1405702623076365 0.10369768261519767
11989000.0 0.989139992289152 -0.10174753248220104 0.004400938385407455 0.0024450686877564853 -0.001897052253564084 -0.0010912578907606722 -0.13694457654864847 0.133495010015024
12988000.0 0.991498918037924 -0.11023108052915939 0.0065651294642672135 -0.0024586448503821144 -0.0022388966499384635 0.0012092969206503115 -0.11791636246156646 0.16099739181996855
13987000.0 0.9884235265769852 -0.11677069484299467 0.001754810209957954 -0.006600189866111984 -0.0030180083364791995 -0.0008611935541363834 -0.10433253196291688 0.18668037925611497
14986000.0 0.9861271084975775 -0.12897444107732006 0.003713815305059938 -0.0048733188490906855 -0.0003439307048622055 -0.0005915629694402671 -0.09093942884811845 0.20701522346179763
15985000.0 0.990743981124023 -0.13222075519192 0.0017050226193140333 -0.00789805408951645 0.001022523163683163 0.0023400617150475703 -0.06636572799399681 0.21351423410470044
16984000.0 0.9857079481196009 -0.14487370609895453 -0.004256003010437486 -0.004970951399244118 -0.003398088890661491 -0.004500403567999536 -0.06710489818144821 0.21828637443887208
17983000.0 0.9846537431164981 -0.15019839799634802 0.00011834899161112063 -0.0030177132425919595 0.00037067769416227885 0.0005603629841473615 -0.049376582405732845 0.23035607381115408
18982000.0 0.9829519472873002 -0.16357779210548345 -0.0036037174226364317 -0.0050940539889940935 0.0011344934930334108 0.002481796117807595 -0.024133301334908108 0.23340152634781233
19981000.0 0.9832632202318676 -0.16705215980722216 -0.00979920499650937 -0.004951115383505596 -0.00019469876261790428 -0.0022018089608935327 -0.01393968732112265 0.24226938262283954
20980000.0 0.9810211213561921 -0.17863775136862697 -0.0030302491092646135 -0.004024840832231881 0.0028199275252131055 -0.0018594669307749172 -0.00276644048092485 0.25795032381158023
21979000.0 0.9797619168028571 -0.18499827006432062 -0.000626861551383918 -0.0020218704095063926 0.0007624355586717997 -0.004882944273465838 0.005468899260211337 0.248799625924903
22978000.0 0.9766180789745318 -0.19480464014518517 -0.004263665097584134 -0.001068392456543417 -0.0019729244452731582 0.00011223684371720502 0.028316891650325013 0.253349212518756
23977000.0 0.9762698193635239 -0.20335863902207965 -0.005842637423631033 -0.003986748420515911 -0.0020623329214645475 -0.002489917026236719 0.042570844705853234 0.24467935605252872
24976000.0 0.9737445029233821 -0.21310066794474294 -0.005541383311369214 -0.002529487545527505 -0.0015346252394544914 0.0024513609350173718 0.06502063320741003 0.2449731429102126
25975000.0 0.9669588132015466 -0.21947377463573292 -0.005065594937915562 -0.0034383626915967204 -0.02349837887303941 -0.014776350871209551 0.07091017332837811 0.26042320276010233
26974000.0 0.9696834701288792 -0.22914846552140608 -0.0046640475671709805 -0.0021680594571336052 0.004643899001074705 0.00019935350996286964 0.07916279842111236 0.2576160519891925
27973000.0 0.9693870379572247 -0.23688181699218336 -0.00535686989892838 0.0009995934815989183 0.0063504553540101715 -0.0015188884378135054 0.0953480420660535 0.25757003737657475
28972000.0 0.9664262324530624 -0.2451177747259051 -0.0030344963740033784 -0.0037419706316806326 -0.0011949472443605225 0.002457207278536997 0.10766887264877477 0.25545365365862727
29971000.0 0.9636017444257362 -0.25515836313489354 0.0001273948203757455 0.0004312837863141061 0.002479194684591283 -0.0011438103331821792 0.14513890989568073 0.25229384491559337
30970000.0 0.9610047717574571 -0.26147624376489315 0.0009589705136507922 -0.002408031988625636 -0.002218484555042318 -0.0013626415719618602 0.16636634288332242 0.24604877059767805
31969000.0 0.9597699724834564 -0.2691721997757295 0.002920567142502761 -0.00860223108454622 0.00013883718500752145 0.0003145474401695033 0.14105824959131263 0.24992319591273426
32968000.0 0.9573788350824235 -0.280981876229094 0.007521603569553976 -0.00758119937361318 -0.0008593277144681339 0.0026525753797786733 0.15625934063963037 0.24180960238763877
33967000.0 0.9541093775049801 -0.29043745909585983 0.013236764757651232 -0.00805319189076619 -0.0011332517823074255 -0.0015368856712185991 0.17911946684817445 0.24718453036754895
34966000.0 0.9528670909577998 -0.2974790518315872 0.011417098720152152 -0.011184184162660236 0.0036238692608242975 0.0014619761918214528 0.18282365401060247 0.2541171436290978
35965000.0 0.9497861733792482 -0.3061382849262808 0.018624264277658654 -0.01417374865785081 0.0013534707470829188 -8.196951234944422e-05 0.21105617420319928 0.24165918568866526
36964000.0 0.9473457167657118 -0.3151463842814319 0.01596641253089509 -0.015023437676286883 0.0033841800117888174 -0.0014673260657089959 0.20527167020672324 0.2498248704723816
37963000.0 0.9413406596791873 -0.3251680027904843 0.019352198361928665 -0.02007911138299117 -0.0015786733185412661 0.0009497820805984427 0.22538999606434704 0.2327247642068064
38962000.0 0.9402043401644934 -0.3343200113242544 0.026093782506350128 -0.023399927836882238 0.0017378168057767527 -0.001340268866630828 0.23297025853187478 0.23250292201301775
39961000.0 0.9383807242138581 -0.3396357537375523 0.025742859858832377 -0.02611511367347492 0.0022756825492509965 -0.0009567552298965938 0.24928692536085256 0.22924953124735656
40960000.0 0.9333179273103044 -0.3476711958592445 0.022756553393288085 -0.023215274759916766 -0.0021969054536528387 0.0010326220060653435 0.27397190594338294 0.22578404839746793
41959000.0 0.9316307464664921 -0.35745177135284534 0.030063163266758102 -0.03042833773863184 0.0008845910536635668 -0.00305363902583252 0.2607401180686462 0.20770619882552482
42958000.0 0.9250123078130811 -0.36806219978601146 0.03041702210761582 -0.042550949274426424 -0.0012258866380985142 0.0002938510841693838 0.2760335855019649 0.1981566448619108
43957000.0 0.9247408280183484 -0.3725670225636447 0.03276121595430742 -0.04338587425516781 -4.786828199777255e-05 0.0001997351132281746 0.2854212227250837 0.20296071143972214
44956000.0 0.9214200692895673 -0.3808493752737543 0.03285821211972091 -0.052536406096586254 -0.0019267848817873848 0.0029827338247513093 0.2975215993473861 0.19638737759533703
45955000.0 0.9160826135999979 -0.39154688699668766 0.035264826438045696 -0.05568251102405955 -0.000597460718902507 -0.0033204197013072764 0.2997572384947313 0.19341477686054076
46954000.0 0.9129725798805469 -0.40044697384205385 0.035869032356467656 -0.0633065737333863 0.002837752454318736 0.0024040294744673975 0.32241585697755454 0.18432917501966176
47953000.0 0.9113790855015905 -0.40641097962565487 0.03618644085788607 -0.0721682784215386 -0.0006200057482893643 -0.0019173057053876788 0.3312848956194213 0.1679821910781888
48952000.0 0.903963357749216 -0.41873586791528 0.03498568629238837 -0.07760371895148188 0.0009724831772507838 -0.0027330427439125828 0.3365476406111072 0.16629966244132008
49951000.0 0.9019072581132398 -0.4241716110439946 0.038688451053863336 -0.0832404932668159 0.003048989906948711 0.0001561392462529992 0.3439008267390308 0.15447838035210992
50950000.0 0.8984888265597307 -0.43151197943662956 0.040116692953769684 -0.09512246674709907 -0.000481911802071069 0.00045782189470864633 0.34897911453769165 0.1528997252662303
51949000.0 0.895389793314805 -0.4420615866105884 0.04287381850149965 -0.10249804403275443 0.0020878561469206366 0.0003688929342908519 0.3567810071413999 0.14381095860944798
52948000.0 0.8906589695982171 -0.44883138220521307 0.041786514556764943 -0.11073813056231928 -0.0014330441369253774 0.0017482836086069673 0.3683193564270108 0.14303670057084153
53947000.0 0.8854385922429552 -0.45541917302614066 0.04355540927132468 -0.11827737800821171 0.0008700072112408021 0.0007404694532450359 0.37057394080283496 0.1269876767558843
54946000.0 0.8802520249461893 -0.466717241587595 0.044444176340453403 -0.13030300444313894 -0.0032658811900407743 0.0024932837367892683 0.38850028344247345 0.12353672324502457
55945000.0 0.8775537898701927 -0.47382982520464184 0.04390011087890597 -0.13863763829703593 -0.004032340794672577 -0.0017947964624768268 0.3822116342745943 0.11245211770008508
56944000.0 0.8732060943608112 -0.48261212822632016 0.04976666701890742 -0.1509116942886773 -0.0021158866886486338 -0.0003720762309467233 0.39504155059987806 0.10936868943168326
57943000.0 0.8670323731929652 -0.4946521666518554 0.050747445422578114 -0.16097135854878797 0.0006971424756353346 -0.0019493389257594575 0.40499635606343715 0.09187954220444076
58942000.0 0.8644372009674874 -0.4953137506222654 0.05446147992174594 -0.17172481919947757 0.0023294251871589793 -0.0015191406435973445 0.42374458531921905 0.09562996496184163
59941000.0 0.8602560223072042 -0.5074670856776693 0.05273804585023242 -0.1824835166932586 -0.0012319540451327553 -0.00412806168233725 0.42262831442181487 0.08461848108554998
60940000.0 0.8523568656155115 -0.5136329413726313 0.05219503838204276 -0.1855500859624082 -0.0024864918572229154 -0.006339559605521833 0.3963419131401383 0.06685524498178978
61939000.0 0.8485963039226634 -0.520621259236304 0.05617366591574235 -0.19379430305402828 -0.0025414664607258655 0.0005809918495939023 0.4171984322040381 0.06611278398957832
62938000.0 0.8417575901756231 -0.5326652243142288 0.056972357121109755 -0.21008181504029502 0.001650001578364017 0.0016628109472204746 0.4436285887138638 0.055313370366987046
63937000.0 0.8394593101381974 -0.5375109231218482 0.05621183726113373 -0.22930835464188354 0.001760014480699876 0.0011255503417065566 0.42364216671753496 0.030707532380976614
64936000.0 0.8323268369092354 -0.5444758090959296 0.06014939405776619 -0.24569138411172167 -0.001766075322786692 -0.002852298224720529 0.43406227688005644 0.03786672014726444
65935000.0 0.8301518415354336 -0.5548954904171851 0.05768740810278433 -0.25959305013191863 0.001892808999537247 0.0034439576074729505 0.4404876915731695 0.029744342731234583
66934000.0 0.823817084911315 -0.561588834280226 0.05471621911844937 -0.2707429776175032 -0.0011809943387150511 -0.0009966427445072782 0.43217210037856674 -0.002184338622564101
67933000.0 0.8205837029822267 -0.5670800161811175 0.05950658107570766 -0.2854126499134897 0.0002486773728243045 -0.0017343323908830745 0.4452950362432862 0.007330146201162726
68932000.0 0.8057283709120435 -0.575957895978017 0.052774783613372775 -0.29722476131603115 -0.003387114167803363 0.0006469042792768751 0.4467864414324705 -0.017030759058528435
69931000.0 0.8077592712233967 -0.5834876150824855 0.05621779762060943 -0.3168470971220948 0.00275079716687286 -0.0018583354758289062 0.4486885884023697 -0.020772610626709764
70930000.0 0.8018995355783026 -0.5913123383486112 0.05539469349472887 -0.32809702298929055 0.004713583117442568 0.0018436735034057423 0.45244314796670676 -0.021622582199789527
71929000.0 0.7976251468796782 -0.5987164151133421 0.050193494746372795 -0.34934731640776323 0.0033529366905070746 -0.0005297001320374259 0.44518302689985706 -0.04282887661999906
72928000.0 0.789463607334498 -0.6104814456209143 0.04565964000749585 -0.36413777767020533 -0.0004191665485636423 0.0017515069187914285 0.4588186828691693 -0.05088104295511865
73927000.0 0.7826264793048988 -0.6166733209299871 0.03776983691865664 -0.38494106018415414 -0.0005598516397411185 -0.002151773374763286 0.45471792932701793 -0.05657272904464781
74926000.0 0.7788446968517541 -0.6260752391964556 0.03270337783396446 -0.4001544363847595 0.001253973903574195 -0.0015035537453828832 0.4691171505194675 -0.057356240297419175
75925000.0 0.7722510876059653 -0.631361759909803 0.02237574062107801 -0.4210429871841451 -0.0007746945556831391 -0.0035946870292690157 0.47305269660728416 -0.07473366728976155
76924000.0 0.7671539248825128 -0.6372130712864856 0.007790669237075468 -0.44459450706705594 0.001949295457285754 -0.0033268796945794604 0.46073370761689997 -0.08592764252896118
77923000.0 0.759122934620156 -0.6457891429372922 -0.008590404050381487 -0.4720059161435386 -0.002076982737192626 1.79029178578817e-05 0.4572368239679318 -0.09438284607765651
78922000.0 0.7543517822982928 -0.6562366977885258 -0.01945089277004253 -0.49980333198930194 -0.0007499617533900401 -0.006051072772976057 0.45750923534792226 -0.10608680082535947
79921000.0 0.7459403850414209 -0.6594673276283344 -0.038910948098204674 -0.5233517753990987 7.923188207245125e-05 -0.005205110322986849 0.4612706909461479 -0.11248839561511778
80920000.0 0.740373326345738 -0.6686585745847782 -0.049134006546736775 -0.5552886745771656 0.004260682341511123 0.00163041678528384 0.46944862728284137 -0.12213878689120776
81919000.0 0.7368153236611185 -0.6761869521280053 -0.0711211723045071 -0.5799619994637861 0.0022067539134842423 0.0004604061639009419 0.463350480232976 -0.13599340063720203
82918000.0 0.7260735872725318 -0.6835556391071593 -0.07944114826129907 -0.612330716319969 0.0020380495616904174 -0.003892731180789845 0.4704741290369949 -0.14134149066668641
83917000.0 0.716401400646866 -0.6915299007875283 -0.10751749729478419 -0.6402476151368828 -0.0014745104507588845 0.001983937467614045 0.4739190924593736 -0.1422519726804648
84916000.0 0.7121171297262965 -0.6987088419365973 -0.12159551328995405 -0.6746564237059873 0.000912173830749804 0.002595986204681225 0.46459130152331973 -0.16905219077807834
85915000.0 0.705297584924992 -0.7048229414405961 -0.1397129706760618 -0.7071009319396135 -0.0004024561242478751 0.0006606312739103249 0.471642661303929 -0.17302343489581784
86914000.0 0.6973019576292552 -0.715484819004854 -0.15520465764267896 -0.7451758931004269 0.0004911872303100563 -0.0007051091231045984 0.4564348824012273 -0.16470567812731224
87913000.0 0.6897815756450606 -0.7209031164314782 -0.17300861972479284 -0.770088423890349 -0.0009341569456885545 0.0007389996614842468 0.4557924347795106 -0.17653580538736496
88912000.0 0.6840573585198594 -0.7283253033362445 -0.18698405211343047 -0.8075340336358846 -0.0002324508948949159 -0.0014761380003751523 0.46216726792197677 -0.1982820724385736
89911000.0 0.6743610119808044 -0.7373375019577029 -0.20641079914069269 -0.8412123235611213 0.0005300344515826928 -0.0003198960582758628 0.46729318025338445 -0.20297253239952925
90910000.0 0.66965175885358 -0.7414631853094978 -0.22046082180699123 -0.877874393148693 -0.000628421000871296 7.793531493436487e-05 0.4654890366194029 -0.21579261968644844
91909000.0 0.6586561290829983 -0.7448844080005975 -0.23587191303505745 -0.9120112209650616 0.0003167240552413997 0.0038409314864210273 0.4683561678022121 -0.2143685129458757
92908000.0 0.6519883696399333 -0.753718578770128 -0.25851835576214727 -0.9462330125392138 -0.002039527704047466 0.00029346693069556173 0.4555859325946584 -0.23138926927335113
93907000.0 0.6469082333450312 -0.7596661619181222 -0.27446037743309537 -0.9740877192682817 0.0009644790259137571 0.0029146168601674647 0.46120189710647863 -0.25350387360824506
94906000.0 0.6334407193861806 -0.7682705927656726 -0.28936240064543844 -1.007217073754565 -0.001141586158497497 0.002123427255493093 0.4580148497745863 -0.25415836260875463
95905000.0 0.6267609081077091 -0.7746984592368825 -0.3103862785610146 -1.0426453897323116 -0.001455712722619744 -0.0020545575555099478 0.46519733820345655 -0.2712624878331298
96904000.0 0.6164140170850622 -0.7837173959004973 -0.3286429796516911 -1.0862888499228271 -0.0033703059220173736 -0.0015021176434669222 0.45080465869908626 -0.26883703234710865
97903000.0 0.6078487377646112 -0.7885101853945635 -0.3551349883450269 -1.1092273643947745 -0.003873638555563731 0.0002703521782899723 0.44524852252046665 -0.287769830766433
98902000.0 0.6035014592596392 -0.7960627332964948 -0.3768926485808885 -1.1524382697262716 -0.0014022353770569945 -0.00019386521284149547 0.4470539757901151 -0.28779108248041874
99901000.0 0.5902809844034724 -0.7998485199084059 -0.40392489449187546 -1.182819318294526 0.0007799019067837782 0.003672184020211273 0.45633147550015696 -0.31732036053939183
100900000.0 0.5830453993956676 -0.8064206390051948 -0.4373779774027975 -1.2138656232808631 0.0002442578224470435 -0.00171226902016467 0.46136805585966256 -0.3130392695130681
101899000.0 0.5744566035595624 -0.814078400552927 -0.4579821295961484 -1.2588368405045893 -0.00021045187847331927 -0.00011398678548187621 0.4558452607629946 -0.30551810572356825
102898000.0 0.5655148007070274 -0.8196103610919587 -0.49582257869954877 -1.2894042039545743 0.002302223135461486 -0.002508585231509163 0.4466178157882234 -0.3278819713990944
103897000.0 0.5577964653017149 -0.8266608020475585 -0.5376335119664997 -1.3293950258243663 -0.0014135806492725019 -0.0002083813898182426 0.45719487387208624 -0.3255754860644258
104896000.0 0.5483028767933918 -0.8358761146151328 -0.5799825072670604 -1.364220559018304 0.0003134217357891665 -0.003061923426286196 0.43993908066526777 -0.329826075889095
105895000.0 0.5393128650016658 -0.8389859765774962 -0.6274859731366316 -1.4052221142996484 0.0016604903294470288 0.000888763860285114 0.43965830835147107 -0.3622142626423245
106894000.0 0.5276496685137742 -0.8443169020014372 -0.688164352094777 -1.441829887721494 -1.0968514633460745e-05 0.0002484166993686728 0.43233953673810377 -0.37099862856496085
107893000.0 0.5218581127390205 -0.8495893297520088 -0.7370494151374447 -1.4792204538355838 -0.00014544156862915356 -0.0009650685799696781 0.4366642936141096 -0.37942044196312186
108892000.0 0.5108483012180804 -0.8527290924716955 -0.7980823900548637 -1.5124322609866918 0.00026112211620608916 -0.000305819200674277 0.4213522150979226 -0.3831660266478149
109891000.0 0.4987266567711373 -0.8631131731470005 -0.8545294597481261 -1.5474527738908788 0.0021195647501090365 -0.0014983764558331853 0.4239611042768371 -0.3744617677445387
110890000.0 0.49146295990925515 -0.8669060615264111 -0.9143577653009557 -1.5665734231225301 0.003193718115429747 0.0006108915189924193 0.4340408648249963 -0.38360628950913894
111889000.0 0.4761612640570956 -0.8681546655732196 -0.983068308885483 -1.6162722891162358 0.00026807717927021096 -0.0009483235000607795 0.41944890685676384 -0.4000545515234964
