! Created with skrf 1.9.0 (http://scikit-rf.org).
# Hz S RI R 50.0 
!freq ReS11 ImS11 ReS21 ImS21 ReS12 ImS12 ReS22 ImS22
1000000.0 0.9931556707015174 0.005932819954789982 -0.002874338323719307 -0.04541912016001299 -0.024740750200644073 0.006319272154879085 0.34668512638393634 0.33138376419063453
1999000.0 0.9934968714152643 -0.014295025648513145 -0.0002988350641056099 -0.027448855709611465 -0.005092973180465355 -0.00036277347902596526 0.24828057604030518 -0.05236204564886895
2998000.0 1.001515669357704 -0.01832122901854912 0.011491213023282834 -0.014028545279662285 -0.0049891557466335045 0.00018250951206683584 0.1818433990599747 -0.137040159706251
3997000.0 0.9999358980084898 -0.032588048698183554 0.014443389051099346 -0.007788755044048023 -0.0008262658842612206 -0.0014592258981261342 0.07486060685729946 -0.22433104508419435
4996000.0 0.9973423468599831 -0.04047931379088747 0.014662878583145213 -0.00346883762455687 0.0022631954603276874 -0.001513941220111318 -0.051448918755384494 -0.2033198364085311
5995000.0 0.9959274413371512 -0.0480898795890082 0.008581739818366114 0.004979401394351489 -0.0019012225662613982 -0.0027120714369718254 -0.11875044508396736 -0.1077853017269036
6994000.0 0.9918748978445371 -0.05767259680688264 0.008626091344567722 0.0037064718802891005 -0.0013783203614628234 -0.003161736584422711 -0.13611477296153554 -0.02423036071521906
7993000.0 0.9954792815100384 -0.06884980126519978 0.0031724057232458643 0.0042456448102869936 -0.0038688545566571367 0.0016953914740358074 -0.15260225947283781 0.04488657559309556
8992000.0 0.9927165185978218 -0.07049379100729837 0.0035521080685900186 0.005897955794371274 -0.0002032562686719771 -0.0022292403035584895 -0.15844254086866671 0.056023370177907705
9991000.0 0.9943893949413368 -0.08378115348938707 0.000384962516160614 0.004781225510855067 0.0015473527820762205 -0.0014708091925198792 -0.15198015567712791 0.09749470397983655
10990000.0 0.9920821807706612 -0.09285645463471588 0.007282963215647731 0.0011504442063924912 -0.0025084324356054186 0.005256868733961566 -0.13801398743002782 0.12075150833701466
11989000.0 0.9895168798547612 -0.10090309138722219 0.0046200083667220105 -0.0024230032658291273 0.0010266118538289396 0.003338303602202458 -0.12944867463431978 0.13813527719383636
12988000.0 0.989478371475364 -0.11148500620021291 -0.0013847540512474676 -0.0014951430495286147 0.0005973825597819775 -0.0018117086726428542 -0.11088185054937244 0.17154543117129828
13987000.0 0.9883963970552746 -0.1172753224175997 0.0037204288968892764 -0.005315863825502987 0.0007783465076897031 -0.004380799483108448 -0.0856954748268437 0.19010870365685995
14986000.0 0.9883097055960203 -0.12573696506878057 -0.0031069141759478822 -0.00593568064688407 0.0019597078364643763 0.0004401513655109051 -0.0895791808432005 0.21063369218836095
15985000.0 0.9879788933798883 -0.13466220799040618 0.001383614201173853 -0.005504074364696577 9.291829446482071e-07 0.002215737958895838 -0.07521767217054691 0.2215920888016631
16984000.0 0.9850533628195469 -0.14628766015936573 -0.002362539318797036 -0.005754638267731346 -0.001421764098390574 -0.003531908355850649 -0.059283798659333226 0.21581234086893555
17983000.0 0.9865071693837081 -0.1496355871293455 0.0002176395022379223 -0.003981053504939444 0.0011254822774639148 0.003297426276827829 -0.051273299563055985 0.21290747427809367
18982000.0 0.9829612968533337 -0.16110567184432806 -0.004626813228288139 -0.007021328752347228 0.0006640657763762169 0.0025187834206248957 -0.026200006743275404 0.2385093329969549
19981000.0 0.9829250328250964 -0.16787293461062516 -0.0017023048779034957 -0.0005107024647394647 0.0029696764090562577 -0.0032713354508357483 -0.01398790359420053 0.23786382804300396
20980000.0 0.9804357347410417 -0.17911013734513642 -0.0008432013242673925 -0.006965017759686885 0.0012318966561702426 0.0035548686507684882 -0.006876421880477739 0.25826862071343337
21979000.0 0.9787328164718104 -0.18553116640380835 -0.0039986504289754 -0.002003161351502883 -0.00012781926348746415 0.002024014962855394 0.023883121599146292 0.2384549261447127
22978000.0 0.9772626170269085 -0.19477990759500316 -0.004867750133817284 -0.0014628229730291385 0.0003945894277763886 -0.0004653398602442114 0.020908015596528797 0.2546069307620382
23977000.0 0.9773632701154814 -0.20201220281748486 -0.007683942007446496 -0.0076942281037670765 -0.0029112386143465424 -0.002024029116227734 0.04414083056088873 0.2512373592223197
24976000.0 0.9734316280663109 -0.21419726966086994 -0.005774216231149373 0.00039165124569205044 0.00181290613220525 0.001097504824733177 0.05560933921435793 0.2439866596684181
25975000.0 0.9749864261206781 -0.2242432186096771 -0.0017716862578417251 -0.0016110353088231134 0.014817820016244721 0.02179007376734134 0.07131909708690023 0.2507650757879759
26974000.0 0.9716331710914061 -0.22966025860139194 -0.004531969324906249 -0.000341426964847251 -0.0006252595450063352 0.0009473946133114073 0.0884279927692243 0.25793160975207363
27973000.0 0.968682119397106 -0.23669325712476688 -0.004281631924517272 -0.0026546544129047236 -0.0026178312774325046 -7.092532193188118e-05 0.10229957921012353 0.2530567320097051
28972000.0 0.9644346657482844 -0.24896865346463745 -0.0040339659749630994 0.0013705688670183668 0.00010899848628624662 -0.0035597732829272103 0.11285358226244603 0.25363175705840413
29971000.0 0.965015717006973 -0.25512805571813874 0.001866471221902872 -0.0021815490536562314 -0.00034027427627697 -3.4778057295862754e-05 0.14279799740222904 0.26867722483849094
30970000.0 0.9604601227730021 -0.2610114024115992 0.004318228386772594 -6.671814457371401e-05 -0.003156994019454409 -0.007177491502184387 0.1654087069697406 0.24602236118612975
31969000.0 0.9602605350154534 -0.2695986894030368 0.006806509026380311 -0.005083624831151818 0.0012249974241367151 -0.0003910311699320308 0.1469197549390582 0.24700180924569576
32968000.0 0.9574364750344743 -0.28190520046029754 0.0076898693548518166 -0.006276071157651966 -0.0005500051732057902 -0.0021312999909085697 0.15946631484538756 0.24250501121962761
33967000.0 0.9552821402832636 -0.2878788507894024 0.012269023295215273 -0.010265213842461587 -0.0015893843109573028 0.001274707876292753 0.1797097360946734 0.23607129617508105
34966000.0 0.9514983482453865 -0.29864238514032354 0.016320556821683135 -0.014126220650627401 -0.0013954246962913773 -0.0007467643934710048 0.19287230263946123 0.24313556879969678
35965000.0 0.9500611146786276 -0.30541453822895115 0.016782870137449557 -0.014879937634261233 -0.0015865418634218034 0.0003653465963356869 0.2083937498600463 0.2510637761431714
36964000.0 0.9461587033991044 -0.3144418097520205 0.0179230570076485 -0.014862523781329403 -0.002296020406500011 0.0007223114444036761 0.20793465618359 0.24740717618091074
37963000.0 0.9419665362284678 -0.3248853730944848 0.01995841058200572 -0.020397675574684537 -0.001039060314975288 0.0003691901240992989 0.2284130623600493 0.23431281967554451
38962000.0 0.9405339572781443 -0.33492795339253756 0.023226580390237325 -0.023071340975674627 -0.002016966212700599 -0.0011534675725932665 0.24563478509488532 0.23337063160429916
39961000.0 0.9385076922926069 -0.33936323198249624 0.024129047934193456 -0.027564428557098633 0.004055182894622015 -0.003852018535802367 0.24224028576092826 0.22157904753713475
40960000.0 0.9334251846543363 -0.3491564907330494 0.02382683752016279 -0.025639072570741762 -0.0006466290516523058 -0.0023786930655726136 0.2614300144725751 0.23169674983881236
41959000.0 0.9317396639672659 -0.35771984219800607 0.03070003082060641 -0.03222433049442326 -0.00029624848704596756 0.0018052980155785845 0.2684758691898067 0.20965144651964074
42958000.0 0.9263751687637595 -0.36713665668646617 0.03224099574155426 -0.04216582374593292 0.000699549948634903 -0.002259243867153102 0.2764003005936762 0.20193743010330062
43957000.0 0.9264651311762969 -0.37115235701324456 0.03290407983741213 -0.04875348258671587 0.0002185018941459526 -0.0010399960665212302 0.28601469439874716 0.21234111075811787
44956000.0 0.9220268247905895 -0.37944244963180324 0.03638921124062324 -0.05348943078576644 2.7442810797334003e-06 -0.0016443759024837342 0.3040974584477642 0.19737227256028222
45955000.0 0.9175149087225052 -0.3914276029573451 0.035237678339567 -0.05869280307479964 -0.0008447039292466326 -0.0019583160559767413 0.3094159929858939 0.18176006375041037
46954000.0 0.9139857038185758 -0.4001718649796144 0.0381744082670484 -0.06758479667766049 0.00015003041864738095 0.0019528106289050382 0.3272492603896051 0.179490927769223
47953000.0 0.9104818539314501 -0.408749399713993 0.037246398974964436 -0.07386988520045072 0.0004754649619317327 -0.0004230029961882728 0.33607502374766524 0.16512901854309633
48952000.0 0.9038088231863507 -0.42066196138883727 0.03802728266887243 -0.08111607703865907 0.0029789547724696497 0.001130923048921233 0.327985747354671 0.1559878714297939
49951000.0 0.9023809594188024 -0.42539651964185327 0.03972551264125081 -0.08946559929514708 -0.00042823909127795727 0.0012536449868485215 0.35697472022146326 0.14613331395273305
50950000.0 0.898155359364653 -0.4335669530690169 0.03961766539732942 -0.09496328537911505 0.0008681285853322074 8.413851120830701e-05 0.35114740641736153 0.14436326069800548
51949000.0 0.8936989351602688 -0.4405002641899338 0.04036143389664187 -0.1088035105410529 0.000724378267356038 0.0015995199498447228 0.3597897715754238 0.14187398453100689
52948000.0 0.89102271120614 -0.4495574497245705 0.04365793585120773 -0.11398673453613727 -0.0018288296628658092 0.002452181449387897 0.3733758346218605 0.13913462250076025
53947000.0 0.8855495611067006 -0.4553084891913721 0.04464159685764586 -0.12492902212732405 0.004772278402728774 0.0010228838091266763 0.3782945163921581 0.12378662996310726
54946000.0 0.8804722671797516 -0.46781857866522175 0.045884463190796546 -0.1336190283858644 0.0010837774328189733 0.001262460629806853 0.3878429554669207 0.10951791480983453
55945000.0 0.8776637590756783 -0.4750399313048847 0.04863186040292955 -0.14217906973106123 -0.004035900190522796 0.0018851197773717358 0.38897637086272724 0.09948911860330294
56944000.0 0.8737604100974908 -0.48283270715566146 0.049762366201311414 -0.1527248253548079 0.00035617283354779625 0.0009018447145687188 0.3894493644004909 0.10092227082073436
57943000.0 0.8683262264886544 -0.49320261753256556 0.050065438361100646 -0.1672112850049327 0.00706347999315632 -0.0009409399689567794 0.4146440877168738 0.09764174650082585
58942000.0 0.8609001538680071 -0.499513414277376 0.053462994503697965 -0.1790307644709634 -0.0017500548690074465 0.002888679747144589 0.42329410861797767 0.09600855924552625
59941000.0 0.8608735659285816 -0.5053348556535638 0.05712842359810705 -0.18666132774582755 -0.0006966732275853484 9.666600657321814e-05 0.41595180450716013 0.09626165207327997
60940000.0 0.8516909058839612 -0.5153408651519473 0.053302055713219595 -0.1954048918655437 0.0017817712320459715 0.0020098060344106296 0.40521335741507897 0.07435382776299723
61939000.0 0.8483656700139195 -0.5209936206200932 0.05330468779053597 -0.20048536927377889 0.0004195152680427439 0.000311860299878046 0.41047114014550024 0.06687608535151474
62938000.0 0.8435647534911105 -0.5308251480247351 0.06122154001206299 -0.22053605538186122 -0.0029653821279550492 0.0034524609080632297 0.4524493829688646 0.04822501666877581
63937000.0 0.8391113230173582 -0.5378624198696711 0.059600731830979574 -0.2375094935020949 -0.004048776519095207 0.00016747113106234138 0.43158792141730634 0.04078184972814515
64936000.0 0.8311776550171444 -0.5466530644734382 0.05864338272126358 -0.2560869397036237 -0.0022970049907928562 0.000161869138716157 0.4312849695510704 0.04478421260915845
65935000.0 0.8275144967593873 -0.5572494790603737 0.05672232553131528 -0.26797769733918064 -0.0024235757681223217 -0.003338721770583811 0.4363606526433458 0.021015540016811537
66934000.0 0.8240808500415338 -0.560301524699713 0.05549133321484824 -0.27956151870872475 -0.0027829362100943687 0.001358377977974316 0.4296467817572897 0.01175030464344854
67933000.0 0.8209061533759309 -0.5698509204998554 0.057721635758565586 -0.29625408457200303 -0.0001695277453332302 0.0005344891051857197 0.4491692303763061 0.01584917585891566
68932000.0 0.8056858334531877 -0.5740541437450324 0.05218807018212941 -0.30882611161285434 -0.0013758390375841752 -0.0014536983468242137 0.4467753919565752 -0.01259508741726795
69931000.0 0.8054021755280587 -0.585485450131487 0.05780013039146985 -0.32811865902860365 -0.004566431599862236 -0.001970820496006577 0.4413912921605239 -0.020946850601296054
70930000.0 0.7982567792632801 -0.5946949337174608 0.04972235008178993 -0.3431306261903095 -0.005062921509578734 0.0021665046176606675 0.44846620226469286 -0.03623335720911854
71929000.0 0.7978213417642798 -0.5996041946846637 0.04980184066888617 -0.3619151098530578 -6.454831656423113e-05 -1.1048066366392088e-05 0.44396590812345854 -0.05046090211354519
72928000.0 0.7897809434751768 -0.6123729589763574 0.04242482378487425 -0.37930133229983837 0.001557450046922846 0.00010318383922550368 0.46614424898818557 -0.04966541518481964
73927000.0 0.7827708939750689 -0.6171831340359776 0.02970216234874115 -0.4011530161042903 -0.004082841709364259 -0.00042069407563590335 0.45916835094842445 -0.05837895615985708
74926000.0 0.7800556814146616 -0.6263268925063874 0.02900175744202065 -0.41923468255655844 0.002357400563154818 -0.0002931655414289826 0.45684106277985953 -0.055934111734508185
75925000.0 0.7704065179121923 -0.6311149651675287 0.016471893747043245 -0.43809183049792894 -0.00010054787880409656 0.000926052475290443 0.4711669296885713 -0.07634070155457622
76924000.0 0.7647424508437815 -0.6379343076974668 0.00424121006254417 -0.4650549418761781 -0.00079231840969389 -0.001277008465157982 0.4640610433308546 -0.08355339695475407
77923000.0 0.757635025952245 -0.6471209641700238 -0.00966795584277664 -0.4870718093893672 0.0014991216413642807 -0.004782346126713672 0.4567343139166016 -0.10004830357447989
78922000.0 0.751890557919614 -0.6554179575624484 -0.021819957677936073 -0.5151707513976537 0.0015362079090829228 -0.0001816894742990767 0.4633644855186312 -0.10389033310685944
79921000.0 0.7440886129170772 -0.6599852156466388 -0.04388984667272075 -0.5434818468799625 -0.0005747937257658006 -0.0007239681501179935 0.45995948274697795 -0.11773688664192054
80920000.0 0.7388931269674849 -0.6704311678265058 -0.056323232728070646 -0.5722895732861639 -0.0026442155091583506 0.00032592931964222656 0.4693168493839282 -0.13153865149583685
81919000.0 0.7351710675809103 -0.6753173074058924 -0.07194936314143276 -0.6044009312108497 0.0033451183254654404 -0.002299890282738567 0.4702435817148041 -0.13045943958193437
82918000.0 0.7254039917594632 -0.6817580685664354 -0.08613831667378367 -0.6319236592141545 0.0011888972372143904 -0.0006145451496383236 0.4730408263091733 -0.14324939268539488
83917000.0 0.7162604358624584 -0.6922896467513588 -0.10744337336961877 -0.6622228244110563 0.0011540020799413668 -0.0009915037469878766 0.46709162574158036 -0.1485300638089389
84916000.0 0.7116393663647055 -0.6998021850530622 -0.1269271585154095 -0.6956087995901175 0.0007205406756624845 0.0029197055801768526 0.45989800024416444 -0.16775594384825387
85915000.0 0.7050478229910974 -0.7036725923734094 -0.14255837755989462 -0.7318720388923807 0.005467225347281503 0.002912999367326167 0.46904612117817723 -0.16814256813105555
86914000.0 0.6955308920288845 -0.7156085915348588 -0.15585785295831683 -0.7643747239471121 0.0017625302321473276 -0.0001566843628307795 0.4569443741230895 -0.17641332397032244
87913000.0 0.6898404259092935 -0.721044967220689 -0.17744236157297674 -0.796402017016786 -0.0018787205225712453 0.0033723407299633334 0.4651904683454078 -0.18266579568868435
88912000.0 0.6816237305851091 -0.7271421486231138 -0.19339224278861805 -0.8291268971159892 0.0014642641108679848 0.0047910740177672054 0.4574702761268425 -0.20410870835275613
89911000.0 0.6768162892652241 -0.7364040425549364 -0.20659093468176964 -0.870866767885486 0.001213002084493777 0.0005747031781735268 0.46784097144973175 -0.20363585645698865
90910000.0 0.667459605129358 -0.7416094728666573 -0.22276283903659377 -0.9038601214177759 0.00437078777485068 -6.584810180895688e-05 0.4605874255510764 -0.21015743753013272
91909000.0 0.6588595274849506 -0.7466599851152516 -0.24375341958589156 -0.9380358382434993 3.0194284521038297e-05 0.00405691478684015 0.46262023479513453 -0.22579955181110214
92908000.0 0.6501521185541121 -0.7547926881452944 -0.26559035132848796 -0.9703198512630824 0.00257239553428233 0.001674607893509501 0.4444631356111883 -0.22872909780058687
93907000.0 0.6466066442537468 -0.7609789943598366 -0.2846082212116499 -1.0043854093229057 -0.0011153907451660562 0.003136733209120902 0.45844173105440067 -0.24973719929727042
94906000.0 0.6317338358357047 -0.7696537769707279 -0.30132841056005505 -1.0403770583251781 0.0017717714370154404 0.0022475749064216396 0.45152367902371 -0.2485531492958674
95905000.0 0.624820614175811 -0.7773529242409539 -0.3306367829991338 -1.07514987050038 -1.2017319382710381e-05 -0.0023231836056489064 0.45608205571557175 -0.264014390002246
96904000.0 0.6158517816670273 -0.7839535660398186 -0.35417246787158013 -1.115605249006455 0.0006505182432491119 0.0023441631443927038 0.45311945869411774 -0.27608152777349976
97903000.0 0.6070204007437948 -0.7895238025707918 -0.375146099898069 -1.1480187769807024 0.003581724004228847 0.002735039244166503 0.4447896503279587 -0.2816796571801596
98902000.0 0.6021015964958966 -0.7944282152504986 -0.3941508009490302 -1.1854393174799114 0.0004880993068365521 0.004825659171208186 0.43715025302944654 -0.29391667245035763
99901000.0 0.592257160914292 -0.8021516391841024 -0.4225153174954205 -1.2246640576120227 0.0010527230667066454 0.0013117173651834282 0.46212934016876345 -0.312782467384576
100900000.0 0.5818703061238718 -0.8060553599302667 -0.46142456726777914 -1.251095032957426 0.001431812057654202 -0.00018986266141619455 0.4526021492217163 -0.3123417984994695
101899000.0 0.5738831982795098 -0.8129271997082401 -0.4864404922051524 -1.2939878338563346 -0.0020419205248912915 -0.003441485665948309 0.4439062110057259 -0.31526574625312526
102898000.0 0.5640781067755266 -0.8204966751148585 -0.529075413296473 -1.3334271469192331 0.0022461474576695234 0.000724957653908652 0.4477168041879431 -0.3241146452256285
103897000.0 0.5554100707982381 -0.8279501139856774 -0.5693111040737676 -1.3738276583626885 -0.0001672077764106015 -0.0015663054767164105 0.4594053231520848 -0.3346702007372759
104896000.0 0.5485214118481859 -0.8356517411990912 -0.6152480588850867 -1.404877838724112 0.0022759480529270233 0.002643685980402682 0.44027402379020264 -0.32811539003159257
105895000.0 0.5365849623787605 -0.8379766454722853 -0.6643909444676706 -1.4524313585221011 0.0020454819049157084 0.0016504956350025296 0.43616458119279383 -0.357070294666071
106894000.0 0.5288323502418191 -0.8447697197684787 -0.7221122004675247 -1.492976069982352 0.0019415387319876866 0.0004403434444392771 0.4256131435356561 -0.3709043285858187
107893000.0 0.5187110104747991 -0.8502056570502298 -0.7787494009100189 -1.5268002092213266 8.644745124573583e-05 -0.00041188256498886437 0.42707925184758494 -0.3710279930157657
108892000.0 0.5090709486752569 -0.8560908057162359 -0.8455054773984971 -1.5658529563752595 0.0008711673268739431 -0.0008511647795957657 0.4229535423157168 -0.3950146664069414
109891000.0 0.4971717268861865 -0.8618949543436294 -0.8988385060277166 -1.6007028529311311 0.0019348039222634725 0.0003019546139516561 0.4462281097635764 -0.38223805629715313
110890000.0 0.49069474114681094 -0.8639037141226239 -0.9577707828783952 -1.6142531872245154 -0.0020960420987616445 0.0004277764762628729 0.4271950482456635 -0.3809430357919479
111889000.0 0.47603028015583604 -0.8675365286809291 -1.0316015130859095 -1.6729862643784206 -0.000507828674204234 -0.0004419952181121081 0.41764501231691886 -0.4048416656321341
