! Created with skrf 1.9.0 (http://scikit-rf.org).
# Hz S RI R 50.0 
!freq ReS11 ImS11 ReS21 ImS21 ReS12 ImS12 ReS22 ImS22
1000000.0 1.0022541103973623 0.007336223211846276 -0.00481937887930648 -0.05951416771366458 0.0016223926790113975 0.005952144387999188 0.3118016283723184 0.3222579419787365
1999000.0 0.9943808632904314 -0.014330351070944759 0.01020400776147503 -0.02180100309558616 -0.005559258528428438 -0.005027828401039127 0.28685492864871953 -0.0650558199775239
2998000.0 0.9981817041117802 -0.019347170364490015 0.008987764237421121 -0.009051463273893006 -0.01182724834585366 -7.51301377218294e-05 0.20921750459165286 -0.15806782023372665
3997000.0 0.9993021497424741 -0.02915831439006175 0.016111347569193014 -0.011309490910056843 -0.00020034966194178676 -0.0034337917512698426 0.07242843889275741 -0.24756596517210944
4996000.0 0.9958029070243247 -0.03660078359631106 0.015468226217966164 0.0012419205450527908 -0.006429821636005902 -0.002353963984357106 -0.053784078491114905 -0.20489794289565622
5995000.0 0.9981561115346221 -0.046782423600353416 0.008140701405247827 0.001603489444803443 0.005975832080329881 -0.0037300157735055558 -0.13035572764304626 -0.0885308008091079
6994000.0 0.9957989693755542 -0.057576575886675 0.00431420592231553 0.0021861336689135927 -0.0024335121425902067 0.0009348668720358116 -0.1339269800600961 -0.019756580368895275
7993000.0 0.9978951743470675 -0.06795414556210419 0.007379572651762609 0.004075619851624705 -0.00153251078045231 -0.0011061203704377984 -0.15354752044588366 0.048138188010361765
8992000.0 0.9959664334148107 -0.07177607893456887 0.005968767505197672 0.001829408287150893 0.00017237763635087678 -0.0014153988373183316 -0.15352146213827542 0.06660183157523569
9991000.0 0.993220253825065 -0.0850365089207782 0.003236759895261103 0.004161810081458468 -0.003410966137062878 -0.00043555039686624846 -0.15586661134931884 0.09045408525970726
10990000.0 0.9950487473516433 -0.08988645027080382 0.0022852775447951535 0.002157550284061772 -0.0005650041026267926 -0.004060486716702185 -0.13139658854639374 0.1027951632732285
11989000.0 0.9904376538802103 -0.09911406694442781 -0.003835719787806668 -0.0014696476902402045 -0.00019720552641536482 0.0007430934350788189 -0.12136790403368711 0.14383586823344766
12988000.0 0.9906234473507124 -0.10628594245708271 -0.002300103962619597 -0.004884014316486145 0.004081066439449951 0.002130682942836709 -0.11532175897898315 0.16900922622742617
13987000.0 0.9903280363412771 -0.11814579240256574 -0.0022553438291111113 -0.0062959517080653045 0.0032220436321600395 0.004035019016876741 -0.0972944368173482 0.19085948451320162
14986000.0 0.9900857194118228 -0.12461836269897485 -0.0007488602170680691 -0.005385719376006585 -0.0011188637986712488 0.00089129178366175 -0.09174291854728135 0.2036817831987851
15985000.0 0.9894301014731445 -0.13072418362278276 -0.0002817964363072237 -0.0015940358227281308 -0.0020389881687807193 -0.000282784513784344 -0.0644508327201292 0.21986331073303686
16984000.0 0.9857830039143327 -0.14420244914228977 -0.004437824921507171 -0.003289920737669812 0.0016242932568045262 -0.0034646488632903835 -0.06448253937730515 0.22146326214624015
17983000.0 0.9863470918000788 -0.14588043327165814 -0.005930139439380262 -0.0006057605006161677 0.005833673971268941 0.001783588206548603 -0.054359429564209125 0.2256806392210324
18982000.0 0.9835823503388135 -0.16177434043128006 -0.003167828652528649 -0.0033569656381349103 -0.0023441341460688206 0.001197531016439325 -0.013440403149939429 0.23412488359336667
19981000.0 0.9831085049402908 -0.16585879125348207 -0.006499290221658123 -0.005630049988406773 0.004868168254751442 -0.0006951903200241625 -0.017767291543442316 0.2268204129768093
20980000.0 0.9832503110750943 -0.17323681665491966 -0.0032623594691991646 -0.003518294223203419 0.0030462877926921996 0.002257372346356376 -0.013687051747807108 0.26094482882535314
21979000.0 0.9786847598302816 -0.1851619535351257 -0.002689414805087356 -0.008619859095407356 -0.0018343111843976616 8.284323806834189e-05 0.008224939955722895 0.24277557264522054
22978000.0 0.9788540676049058 -0.19198567605509168 -0.006968831374543287 -0.005420408252869993 0.005626486900030466 0.005229904999499088 0.024301169236829935 0.2638013306580029
23977000.0 0.978551050541593 -0.20054350647414337 -0.004782406299868973 -0.0048328370893579225 -0.00012450662993860356 0.0005765253177019476 0.03554144441320894 0.2560609550205239
24976000.0 0.9752029107210342 -0.2093972058510397 -0.006127702290050609 -0.0010617492195262115 0.00031432049547432724 0.005543060318064902 0.06726268316811444 0.26512261169933404
25975000.0 0.9684766031969614 -0.21734766747788098 -0.0011393391658387048 -0.0020455743118219794 -0.019195709006471415 -0.016688407395221153 0.0850894281650035 0.2560885643767849
26974000.0 0.9732101940431443 -0.22433631592879713 -0.0015641772462961544 -0.0016864473816782365 0.0015894461398828772 -0.0012124238685012022 0.09347005411939349 0.2634282099839113
27973000.0 0.9699563280503197 -0.23384251989135835 -0.005739316526259979 -0.007741850205952004 0.00025201279637074536 -0.0014441795390776027 0.11246467655584205 0.2531189177998947
28972000.0 0.9682934310134624 -0.245079075867723 -0.0007175654748832319 0.000766097048946543 0.003804595088164106 -0.0003757211790058689 0.1117136010915169 0.25069803309991373
29971000.0 0.967214781337685 -0.25010317823229317 0.002531824976008001 -0.0042602897443439315 -0.0002676359585419393 0.00010261786908885475 0.14797177554306956 0.25978463307638394
30970000.0 0.9639436301017013 -0.25573562305504954 0.0019114975602268272 -0.0006330783986489249 0.0035040554417004877 0.0008960602136096649 0.16173086819281057 0.25029344926026276
31969000.0 0.962712896201807 -0.26509387939884393 0.006381296781775003 -0.005546761206227287 -0.002285003740569526 -0.0007447509312429719 0.15314977492024254 0.24658127107888597
32968000.0 0.9602275010725149 -0.2739989534907635 0.007891356518550174 -0.0051841812571644975 0.004385171821920804 0.00014806527773743823 0.1628894416393193 0.24136175440701202
33967000.0 0.9577087435244999 -0.2843864906930771 0.011971023333217038 -0.010949569298176674 0.0034226526945812376 0.0017834409266291374 0.18309263676153542 0.2441102499357789
34966000.0 0.9543995668185417 -0.2915421752707144 0.014107093274925353 -0.013394644794564575 0.00020739183945468227 0.00152934731703809 0.2024503482958225 0.23958291808662016
35965000.0 0.9519890573847065 -0.3000531782730819 0.016397384465818766 -0.015619011062488093 -0.003049914860998123 -0.0007463539067974398 0.2121787657446491 0.24284361085290532
36964000.0 0.9501026947025978 -0.3071307432753388 0.016972642448662156 -0.011883112538803612 0.0014672803573068517 -0.0018839233603470916 0.20163550659136578 0.248998517430613
37963000.0 0.9465543147505924 -0.3176767356858802 0.02291967882917635 -0.020925849566204125 0.0009480269808511572 0.0008649973400093435 0.23034697937639642 0.23638932579575161
38962000.0 0.9446312697296987 -0.3244585536688122 0.02548531304203841 -0.02529751850576074 -0.0019817279452742933 -0.0012688107880684677 0.23693670354355004 0.22190948200091828
39961000.0 0.9411903271296876 -0.3349361274862889 0.024312617829631008 -0.028944449746372936 -0.0011895919647860705 -0.002076647531555708 0.2521915941281043 0.22292663623067902
40960000.0 0.9384328195102427 -0.3427699627039339 0.02585430331945013 -0.025484232348569377 0.0007176289424864238 -0.0010427799484621946 0.2673027734789001 0.22559626334779534
41959000.0 0.9351568644942898 -0.3517515034981495 0.031790273724699836 -0.0321093198526325 -0.000642607213736308 -0.0023329735375102433 0.26431912372029087 0.21412793250703557
42958000.0 0.9285489639534673 -0.3627687982819672 0.03362936362097456 -0.04243082056404605 -0.003962325140291728 -0.0014475254406096443 0.27329447615757435 0.19811201181845847
43957000.0 0.9282009681085497 -0.3655780422212898 0.03593040093704804 -0.047681893120481045 0.0015020639973071918 -0.001971224298270884 0.2872419571432234 0.20513700805688534
44956000.0 0.9247754694091501 -0.37424255629749803 0.036097075005674946 -0.053004168333487485 -0.0008622579255326765 0.0004249814281602027 0.3022382123959862 0.1975354605246327
45955000.0 0.9215001638262315 -0.3847172692877572 0.04005260793183571 -0.0595416777538948 -0.0007828806081818992 0.00040916770000421545 0.301695404015567 0.19179032038109692
46954000.0 0.9179066190074833 -0.3921868876890849 0.04116407850492095 -0.06548566266703502 -0.0014918453457686564 0.0019924856723219863 0.32294860934052283 0.17574233676044704
47953000.0 0.915271840963848 -0.40011764575390646 0.03912805549232286 -0.07435089240513326 -0.002744703184897234 0.0011802105724467058 0.3290020538326467 0.17333869273448518
48952000.0 0.9106757775279068 -0.40940175370403864 0.04341337681477003 -0.08298873587752008 -5.4034117426266835e-05 0.002774272897323833 0.32676679302643913 0.15720832367345028
49951000.0 0.9061506008994558 -0.4180680892181982 0.044298239014413016 -0.08981474072418145 0.002240957150658889 -0.0004981165509795812 0.3567038689777218 0.15160776516169697
50950000.0 0.9027478479385912 -0.42432307612507014 0.044211013961111566 -0.09827207448349912 -0.0004797792052214553 8.572194049406905e-05 0.34241360839624246 0.1539045514761168
51949000.0 0.8992019952169099 -0.43184322680334825 0.04340647081132088 -0.10694191369124618 0.0015857203655124878 -0.0038090953045177203 0.35559486681307295 0.1367638072926932
52948000.0 0.897035278401535 -0.4401959406753779 0.044793881884779826 -0.11445725057615351 -0.0010307728354768159 -0.0008596238344107759 0.3764522302879649 0.13688921126669223
53947000.0 0.8904393138871263 -0.45002250582079095 0.04363439455342782 -0.12448981693984368 0.0009878414446571084 -0.0010458106525364698 0.37251271428462157 0.13476709257568747
54946000.0 0.8859446613814222 -0.4574393889421383 0.04913528679391496 -0.1361797601626972 -0.0009191016195534527 0.000563556117945871 0.382535016535708 0.11342560362297233
55945000.0 0.8844136553982055 -0.467025054164318 0.05168176952334306 -0.14734163867887462 0.0023806126022583563 0.00177376697363794 0.3886769283059316 0.10288482688825264
56944000.0 0.8805083325565435 -0.47324471482151337 0.05559852089046215 -0.1566846615332619 0.0002222316008964949 6.402957049075843e-05 0.39517328002123825 0.1004401966856697
57943000.0 0.875134599589799 -0.4846797680724894 0.053368383561830414 -0.16605196072722944 -0.00028673159413166436 -0.0020536451881293205 0.39827202122583505 0.08414292587430039
58942000.0 0.8679288300365642 -0.4901347718019613 0.05472416622396052 -0.18083811186136162 -0.0008019171741559158 0.00020830347221011589 0.4094921381420381 0.08479302617404304
59941000.0 0.8676333487221487 -0.496412020279717 0.05552706945934071 -0.19295878736729652 -0.003046347850792405 -0.003121644792168464 0.41479254648616415 0.08886524630317157
60940000.0 0.8593760605675729 -0.5036073635416376 0.05754428130004996 -0.19557973481143368 -0.0009474987461888491 0.0009942289288220085 0.41532524918124303 0.0690674400401405
61939000.0 0.856199290475668 -0.5118320936107493 0.05954376172655002 -0.20299807547497056 -0.0028662966210082287 0.0005224717049159798 0.41699462753225436 0.0626460319381559
62938000.0 0.850521707470716 -0.5220984150235451 0.05869095321005987 -0.22408761148330927 -0.0044722967869748435 7.994480339888257e-05 0.4429691748593832 0.0376504826582239
63937000.0 0.8458081977864929 -0.529668218345376 0.06366142477512582 -0.24458827452601037 -0.0005223172443251069 -0.001097529258544676 0.4372320253716231 0.04408925367976091
64936000.0 0.8401772296609787 -0.5342904019306384 0.061069043140697984 -0.26145138815282576 0.0034226508318954 -0.002705661960394485 0.4317376784985708 0.03874728746215273
65935000.0 0.8375212875141786 -0.5437795763557072 0.056829903877748285 -0.27476926526357687 -0.00032358914999021946 -0.0005315285381883153 0.4411310789922178 0.016504721959446078
66934000.0 0.8325430885280974 -0.5490611868435942 0.06153323176708354 -0.28889361856349194 0.0018250315990516006 0.0005778538720923811 0.42502379520808736 0.012654648960907821
67933000.0 0.8281378866338286 -0.5596809922622492 0.06122414658448363 -0.30092198388235386 -0.0016467472841036857 -0.001151725963976299 0.44605619121792317 0.0009511923935588727
68932000.0 0.8256419898961259 -0.558258863103279 0.055712406107665716 -0.3176610856087106 0.0017376591304463834 0.0011433456024213845 0.44946713095978746 0.0001552539121707886
69931000.0 0.8153731902242105 -0.575501517770886 0.05441471496693495 -0.33840386386834775 0.001678838520816366 -0.0007157604859337488 0.44661185802731185 -0.020007974930818725
70930000.0 0.8096522360310351 -0.581469414681413 0.0546978166444861 -0.35117587092597374 0.005065754504062974 -0.003264648259639266 0.4517650520769426 -0.03845516991416542
71929000.0 0.8050822755629237 -0.5903700897398382 0.05043068862553973 -0.3756148559491675 0.0006871659442781755 0.002279484070034332 0.44683221612340895 -0.048332493271122746
72928000.0 0.7995687889445229 -0.5998676976949076 0.04555211740412957 -0.39256811576815615 0.001429915386573997 0.0045819359295432025 0.4636536557178694 -0.046008099081199336
73927000.0 0.792187577394592 -0.6036945207915072 0.035577967149803144 -0.41093238574408747 -0.0013785549795161723 0.001345041761787033 0.45776746972015886 -0.07276457778344793
74926000.0 0.7876048369583704 -0.6147518989655736 0.03024707842743211 -0.4286072617486722 0.004414232185932972 0.00020169489764805063 0.47136922537533466 -0.051274718237616604
75925000.0 0.7816700078133346 -0.6203808332065888 0.018202797895164227 -0.4521558695653831 0.002930601673601105 0.0023772264967365647 0.46995692568418385 -0.08358068541517519
76924000.0 0.7743638463744177 -0.6291255155199296 0.006104298070245529 -0.47860101792027104 -0.0008060487837018254 -0.0022761241243501656 0.4640738559921871 -0.09508683242985239
77923000.0 0.7699463431887628 -0.633436565991617 -0.006989929344772905 -0.5054676275680224 -0.001574336672626995 0.0015752848899871295 0.463470666490699 -0.09115997048961379
78922000.0 0.7621725064303254 -0.6441722743953792 -0.019497589099051343 -0.5308583773637604 -0.002170219755937454 0.0011290448022283168 0.4541659402792846 -0.11644742950891321
79921000.0 0.7550892251657194 -0.6486955034556918 -0.03929675808416212 -0.5561660221168899 -0.0031402111313049152 0.0013661799054768393 0.45761866978985455 -0.11232235159470276
80920000.0 0.7503698859966461 -0.6587891113530795 -0.051097097126872125 -0.5846372672184155 4.119421201875847e-05 0.0007117392026001614 0.4704313433039374 -0.12988492319839517
81919000.0 0.7477623072258999 -0.6642608242717606 -0.06708585840501541 -0.6172104916501844 -0.0009137856896776152 -0.001239697478218539 0.47135017961902975 -0.12924273989322727
82918000.0 0.7359427625852083 -0.6711703172179558 -0.084584161949839 -0.6474179471819138 0.00011597268902968649 0.0012643011844130432 0.4769718278538104 -0.1550981424866044
83917000.0 0.7271981706825551 -0.6809518113464017 -0.10354913697350616 -0.6816669543714452 -0.0012137342709729472 0.0024472999485689872 0.48010604281156777 -0.14657005368020118
84916000.0 0.7233904779307776 -0.6861418048713263 -0.11998044852831742 -0.7182496454053727 0.001423262867048894 0.0017164572310954219 0.4656964963016092 -0.16818509883281973
85915000.0 0.7145820024723988 -0.6926408702802171 -0.1418380050231097 -0.7489184367072722 0.0008272229184188795 1.8101373346841898e-05 0.4667949362892184 -0.16955063179694868
86914000.0 0.7086003213858199 -0.7041738117765477 -0.16061874947200386 -0.7887771456495489 -0.0015423050844332116 -0.0008383760190991056 0.46559683336250424 -0.18096650864678943
87913000.0 0.7011095713888719 -0.7086260263375262 -0.1803204486779314 -0.8142404178899433 0.0007079113447545626 -0.0030988897338874105 0.45338448669572023 -0.17004886068321162
88912000.0 0.6961101802193226 -0.715153392423627 -0.19362201519586525 -0.8538253282027255 0.00288259202437289 -0.0006360562999340572 0.4576869289331286 -0.2095332172562652
89911000.0 0.6869224087245694 -0.7237574451679482 -0.2125890700891012 -0.890019694471786 -0.00029030038718486247 -0.0008560924072203415 0.46844320857668476 -0.20790447482048238
90910000.0 0.6806333159986198 -0.7300895535759451 -0.23291706378354218 -0.9270542173095666 -0.00018469025148644551 -0.0011004894497153863 0.4529602401408708 -0.21482277645893308
91909000.0 0.672502109928696 -0.7336895391393093 -0.25122256457477615 -0.9617843327552558 -0.003830000696053703 0.0008248114559874587 0.47056371716923 -0.22325782755342957
92908000.0 0.66692677517261 -0.7442840933506928 -0.27332195059441333 -0.9967987575756028 -0.004322118349126866 0.0009464794312825019 0.45697063363487317 -0.234520821524108
93907000.0 0.66019553043266 -0.7485773715299835 -0.2900782087329281 -1.03129391550726 0.0019739927034758144 -0.0010760318438709166 0.45910190238499804 -0.2536838148236417
94906000.0 0.6451014429675824 -0.7565420877823935 -0.3176218173374506 -1.0670410780753734 -0.00039827035503972775 -0.002986793770495802 0.45508931437551153 -0.27100896094820703
95905000.0 0.6419172421786388 -0.7622198724795693 -0.3369047773141027 -1.1089051246066701 0.00088007535534528 0.0006807816577162455 0.4613409426995929 -0.2694837742389157
96904000.0 0.6312270835196689 -0.7731456665087459 -0.3684013408015986 -1.1435065002528775 -0.0006593900587062094 -0.0009347680125386306 0.4482036144318396 -0.2663551466824602
97903000.0 0.6246779837896006 -0.7762523223601716 -0.38388786325102026 -1.1863492154136428 -0.0005300801010913133 -0.004522680869910128 0.44790496782027406 -0.2897415435296073
98902000.0 0.6186895303734578 -0.7842623383041354 -0.4127222024871408 -1.2218263607301834 0.005390285730408125 0.0005276758508824871 0.44674703517279474 -0.29870577108137314
99901000.0 0.6085898253173868 -0.7900328482671798 -0.4453152433871116 -1.259088689506453 -3.2000410729748686e-05 0.0008352778598918671 0.4598510156857428 -0.320763169010706
100900000.0 0.6003866378123615 -0.7941478997531685 -0.4834214742530638 -1.2880583953093876 -0.0012441964666482248 -0.0032941225103022614 0.45958750760134676 -0.32012531753327794
101899000.0 0.5907931492224586 -0.8018221184631973 -0.5108064046959362 -1.3316139249972612 0.00013000444520254066 -0.00037861412275140983 0.441395972684623 -0.3232703286891569
102898000.0 0.5830183565258638 -0.8061371280042129 -0.5469280845661931 -1.3709907173751232 -0.0019362578993763495 -0.0007892202128833801 0.452949336364604 -0.3377039481318879
103897000.0 0.5740504636500371 -0.8134147348039483 -0.5961155192912785 -1.407943708620515 0.002110837328595502 -6.851624181029193e-05 0.45718503852057424 -0.3346642969857123
104896000.0 0.5660984140086956 -0.826419443140612 -0.6422225789134726 -1.44561708558758 0.0021710235855034697 -0.0015400153152445137 0.43659774284788566 -0.348355834435325
105895000.0 0.5548295771898323 -0.826994645310568 -0.6896541721527262 -1.49291970957461 9.408715321756768e-05 -0.002338352862406231 0.43152825757363955 -0.3630020469039515
106894000.0 0.5478138135540761 -0.8335243766923316 -0.7467869835808302 -1.5328194253020297 0.0021025944356646647 -0.003530944929620397 0.4259622164569417 -0.37287619576622155
107893000.0 0.5376748934869546 -0.8389839770357908 -0.8034113792179567 -1.571159238679231 0.0030615549173899055 -0.0018300711065982354 0.4286240361974534 -0.38859135721964294
108892000.0 0.5276087531778262 -0.8441141041471465 -0.8666602061493127 -1.6106100271565524 -0.0007412492225163155 0.0007193626655171631 0.43182721145880915 -0.37527745923744066
109891000.0 0.517296142796216 -0.8492247261079702 -0.9249138350727752 -1.6529958165074017 0.00239770672607071 0.000134286667012359 0.4460467409568123 -0.3793536643170939
110890000.0 0.511509796920083 -0.8557202585563669 -0.9848327085257604 -1.6680731069763741 -0.0016239848697809402 0.0018037693929165621 0.42836343067131655 -0.386488485547112
111889000.0 0.4956793301416435 -0.8568725664941851 -1.0603206182188305 -1.720187857148177 0.0001503289735997406 0.0031953547360281374 0.42673823106087355 -0.4020451784054081
