! Created with skrf 1.9.0 (http://scikit-rf.org).
# Hz S RI R 50.0 
!freq ReS11 ImS11 ReS21 ImS21 ReS12 ImS12 ReS22 ImS22
1000000.0 0.9777253480466445 0.003527712308357101 -0.016707385715579618 -0.05980874993176873 -0.017617122576347462 -0.007959745540684612 0.3027601783757798 0.3494034747964966
1999000.0 0.99492069289733 -0.010122025066995482 0.005010384547678645 -0.029750931887387713 -0.006505378486171106 0.002573294226912681 0.2805099347413555 -0.05599029581642257
2998000.0 0.9984837486159401 -0.01936419850316419 0.010004228643865907 -0.017084169922690212 0.0035754474827446063 -0.0005546110816015659 0.1843034085646635 -0.14797555308714586
3997000.0 0.9979991296216085 -0.028274148950441235 0.014152143960404791 -0.010894564037811617 -0.005454853449728867 -0.001983578710306471 0.09781348064393648 -0.24036602440979105
4996000.0 1.0004104272723298 -0.033191030060610444 0.007064284936169676 -0.006060218463108916 0.0029252054688586786 -0.0017734642908610477 -0.0403571365986923 -0.2105445212992124
5995000.0 0.9975784084499365 -0.04371113579457149 0.009069461491348919 0.00033243258627134193 -0.002415020735501374 -0.0023858170977672202 -0.11678870472730112 -0.11714639656480808
6994000.0 0.9967426944237062 -0.0543407918945812 0.009401698589511247 0.005110701340763538 0.0002172733113729413 0.002110182366362926 -0.14601871006936246 -0.03263352673140713
7993000.0 1.0008671333725536 -0.06368179672910472 0.006263192878179023 0.004141868752245485 0.0005235333087980702 -0.005456079186273596 -0.15798220304894828 0.0327943420827569
8992000.0 0.9998087689201192 -0.06997867406235837 0.005279268164347237 0.007905925548005734 0.001256233312678406 0.00713114823834963 -0.15412667446317976 0.04726159687961258
9991000.0 0.9980962181512951 -0.08031491047328912 -0.0005638729722023199 0.003975989503962972 -0.00021708543113877594 -0.0006133177422358591 -0.14709451544772226 0.08430554664201993
10990000.0 0.9963443558859152 -0.09015882460131538 0.004907844923462771 0.0032590180943714783 -0.0003710547823540718 -0.005397193877602339 -0.14913063559693973 0.11592454525445756
11989000.0 0.9951067067570484 -0.09723625192870047 -0.0006211436646319717 0.002423939927124549 0.007877309510598061 0.0020184911630327556 -0.12624370794467288 0.13279698870599488
12988000.0 0.9929024834143672 -0.10745078176812993 0.003907369567472384 -0.008976831848090432 -0.0019971990068969356 -0.001450616799623489 -0.11550739040788044 0.17446754739538667
13987000.0 0.9934163957575395 -0.11161550595280081 0.0008941872884486268 -0.006262310264815845 -0.003580868208999548 0.004208095332733846 -0.0834212456946764 0.1877327289609045
14986000.0 0.9893574756548236 -0.12139440255182793 0.0007916183497080908 -0.001345985545675153 0.001331862709302896 -0.004005948184658452 -0.09294255394223225 0.1949052437435567
15985000.0 0.993072209391513 -0.1321016842256708 -0.0038198050416225655 -0.0017440960437415218 -0.0004287610766083149 -0.0006528555844707762 -0.06840727361556243 0.20751593676401237
16984000.0 0.9889287949538053 -0.14064253288822223 0.0032746871957655406 -0.008807056459855883 0.0001851813202967856 0.0005550602457987235 -0.05858411738881431 0.23023296311296007
17983000.0 0.9874436700082271 -0.1470187575810773 -0.004016915060959994 -0.0065057546064029165 0.000854631254015677 -0.00038722274018656417 -0.05011159912146244 0.22881715026511856
18982000.0 0.9869246189057707 -0.15984800872922825 -0.006381073579374316 -0.0063838732023992345 -0.002385201484514943 -0.0017920232527140136 -0.020343965130282755 0.2378259828797893
19981000.0 0.9849847849277081 -0.1605750680956305 -0.0029634827219763103 -0.008408871375936718 -0.002821458011290299 -0.003085149381687342 -0.012973406743658966 0.23574983506919614
20980000.0 0.9841879219198947 -0.17175281163346157 -0.005310303369267863 -0.0037410444740930814 0.0011328215851207542 -0.0032497289561876546 -7.847351196761421e-05 0.258918601418709
21979000.0 0.9839854164507064 -0.17980970696080323 -0.0026875545681942863 -0.002394194569678501 -0.003126107338230772 0.00367692613855102 0.013904473314059643 0.2426437687320006
22978000.0 0.97949189427086 -0.1926343078028482 -0.006501705906893059 -0.004486312160825627 0.0002511232169287359 0.001940476083597879 0.03256592085330429 0.2488136521530447
23977000.0 0.9809069090856839 -0.1969896157160821 -0.009080839434649848 -0.0028363769693410335 -0.0006914079286672866 0.00034616198187844394 0.043619330388290294 0.2525504133153759
24976000.0 0.9758087652883747 -0.20647164466671408 -0.005224197800715438 -0.003428706957659107 -0.0012905956896273128 0.003892261736178003 0.06728840315466604 0.2462951276376679
25975000.0 0.9719323572751026 -0.22045991807052454 -0.009102227136705632 -0.0017734817850543576 0.01480867149840778 -0.0222454294195964 0.08445418248239847 0.25380239365640295
26974000.0 0.9734978213272392 -0.2221421227865591 -0.0033592601462568983 -0.003884365403868447 0.0017037277137051455 0.0014698823151371805 0.08872746986730275 0.2622671462897838
27973000.0 0.9715736585993143 -0.230985145065528 -0.004334508526929384 -0.0012457147264829398 -0.001903644262139882 0.0008413097064642156 0.10600847011614381 0.25737673066661376
28972000.0 0.9692361062774982 -0.24047839381539912 -0.0009726245393965587 -0.00333212483977771 0.0025627515623145116 0.0006313202074854951 0.1124286263817546 0.25780220010487076
29971000.0 0.9689488950432094 -0.2502029111572123 -0.001758331135456544 -0.004200375590228104 -0.0003168710251237007 0.0015223985191076133 0.15076817833814338 0.26924583555850556
30970000.0 0.9644497417207487 -0.25338444377029357 0.002857660344444914 0.0015008821802816414 -0.0023293357816017326 -0.002414503617692433 0.1726301186599133 0.2517510199293426
31969000.0 0.9636099269863474 -0.26115597440105814 0.004557725609412301 -0.004290294080900197 -0.00052600585352254 0.0014554260929240015 0.15600973532362417 0.2515766120573467
32968000.0 0.9636384598487253 -0.27056875156857396 0.007467896756974934 -0.007000448087155796 -0.0003078605320726848 -0.0004129995126727432 0.1556424939546235 0.25032254534616927
33967000.0 0.9604451609773248 -0.2791110571067379 0.010257882973895967 -0.01154486593487578 0.0016934456241829254 -0.0006244190757814033 0.18568169686931196 0.24795447726494663
34966000.0 0.9556552372080467 -0.2901031141625886 0.011264523122559711 -0.010102472463279354 -0.002116611285545935 0.0006100646539249619 0.1943444964868026 0.2508062713934625
35965000.0 0.9542108041172737 -0.29733579691296197 0.01532373253719244 -0.014620073954279087 0.000403950254427871 0.0006159048952928191 0.2151358854878662 0.2504839205864355
36964000.0 0.9513339447849154 -0.30657967954509235 0.01449308374890249 -0.01391113728087314 -0.005029843747925155 0.0012284108634973208 0.21964779084634406 0.25198038612622353
37963000.0 0.9487411900998828 -0.3152577108396527 0.02421098368720803 -0.019735089001009006 -0.0004927808031241095 -0.001435004603382288 0.23196937722138683 0.23863235282023668
38962000.0 0.9475484103491327 -0.3229688625577266 0.023551890002245477 -0.025511875006007094 0.0018855333477987245 0.003807292646269647 0.242113118545627 0.23011348472679988
39961000.0 0.9433780090742093 -0.33157166724583237 0.024298778591264572 -0.030284868544913687 -0.00451496560023845 -0.0013182807349208469 0.25355769483609436 0.2302407624844177
40960000.0 0.9403919625955547 -0.338987264940264 0.02154599176958808 -0.02275456576832093 0.0007866599703662881 0.0003077444733806129 0.2743364650936708 0.22578355795077093
41959000.0 0.937904189903549 -0.3487193189563316 0.026826600974426473 -0.031186891899785407 0.0006516060982246787 -0.003761061355005713 0.27552843051166837 0.21987723631330452
42958000.0 0.93395851633224 -0.3560202230203795 0.03268032306238795 -0.042078016442531535 0.0008658609457349022 -0.0006886733169624485 0.2839020411082707 0.20501409286816782
43957000.0 0.9318913308986793 -0.36058028437629297 0.03485596143213135 -0.048841531271058364 -0.0019186506392712863 -0.0018133759862819082 0.2990109106368148 0.2208170545703904
44956000.0 0.9280995064725241 -0.3685159968067291 0.03402886111455131 -0.05112708481095493 0.0006041032938063938 0.0012317561536656784 0.31643893279908974 0.19218354684512712
45955000.0 0.9232811615714464 -0.3794734946900519 0.03742801047629963 -0.06071220054153864 0.00015234454982526293 0.00022312923039247452 0.3075697381662666 0.196973236865657
46954000.0 0.9206165744761224 -0.38800810133919894 0.036545352234066054 -0.06366059654085912 -0.0013065570308073845 -0.005078085641740181 0.33068102688978623 0.18059614390987558
47953000.0 0.9185021318178405 -0.3952625805639618 0.03740077600612318 -0.0702325847628421 0.001145000887521973 0.0014117054078220054 0.3476164494923541 0.1713770703896225
48952000.0 0.9107977136626928 -0.4074799939430296 0.03422304618914588 -0.07986485018151344 0.002266355680057111 -0.002320900316961689 0.34187488995995335 0.1686811137023638
49951000.0 0.9097018432129063 -0.41144391628634036 0.0367042081060768 -0.08535373916587255 0.0002862498413310258 0.0005026386648975212 0.35773798238033033 0.1536121766639952
50950000.0 0.9062135424215182 -0.4213387861339651 0.03911291409441898 -0.09580215321365487 0.00035206224464666154 0.0019467284653991565 0.35695087944072323 0.1365874740212083
51949000.0 0.902598248212316 -0.4285886860383254 0.04089472943822684 -0.10503963289318097 0.0024109714331486324 0.0017286788140488186 0.36494133621049674 0.1523225345800718
52948000.0 0.8999604058802594 -0.4360547409418211 0.03963223107722246 -0.11290812784672166 -0.0002806211827410738 -0.00025044860722910983 0.37776430115621956 0.1392238769893766
53947000.0 0.8962410119313062 -0.44350891043850327 0.04204186688213982 -0.12462907373925408 0.00031608263793099246 -0.0015238801022086957 0.37927024386754155 0.12824595387635274
54946000.0 0.8889762604413864 -0.4545192421753431 0.04297308722265837 -0.13003842975276114 -0.0022658196711179785 0.0007558121734636304 0.39236005089726067 0.11778725555822675
55945000.0 0.888051662979673 -0.4602469158626024 0.044474137927160734 -0.1417839679020371 0.0011422326616158805 -0.0009664385003392101 0.3905275401191889 0.1036712497494618
56944000.0 0.8829981270579285 -0.4697177485130731 0.04773630125733211 -0.15261880115070764 -0.0033554793948856578 0.0004252278539580633 0.4059206942504489 0.10055700861040763
57943000.0 0.8782287025709078 -0.48049389662889563 0.04622647578552491 -0.16274038405217767 -0.002508873384167445 -0.0017710832517745156 0.40219080468604707 0.09990050120910267
58942000.0 0.8712623346149849 -0.4853222766876108 0.04724083266936458 -0.1761896366758133 0.00010665659766029829 0.0023196469385946493 0.4263262554018988 0.08817711025858681
59941000.0 0.8697313022525225 -0.49081656560789716 0.04840596827289134 -0.1847977150638336 -0.0014708991193471321 0.0014974453823775448 0.4215706265698197 0.09468301472581889
60940000.0 0.8623878051361018 -0.5008472556354251 0.04810828644696761 -0.18851111248861835 -0.0009097632638553038 0.0022206743106181386 0.4138966052970265 0.08435077915376649
61939000.0 0.859897925276767 -0.5056072220772878 0.049578867089081755 -0.19507238836127777 -0.0011992897933550328 -0.0011241957269774881 0.4247196230371276 0.06973911908972026
62938000.0 0.8550134277845869 -0.5165275274262265 0.0573520070502196 -0.2115007661271031 -0.0013047776634187986 0.0002288019667056646 0.44711139644959064 0.050748898415009874
63937000.0 0.8510906152434957 -0.5231437647429699 0.05242841459143553 -0.23565016901907485 -0.0009098029041041437 -0.0027362230445787247 0.4340458288826193 0.04942072718091044
64936000.0 0.8432697955844833 -0.5300397909147045 0.05334559113801168 -0.24525323125760462 0.0007927159989193491 -0.00155268574863631 0.4402264566631963 0.04602236926731324
65935000.0 0.8411712492385368 -0.5421810093690844 0.05468371738370608 -0.2600284405792931 0.0001976650859994042 0.0004185843516268234 0.44630830836479585 0.029523532172081295
66934000.0 0.838114530175688 -0.5433862297541093 0.05551179217990957 -0.2730368264939082 8.311542974159269e-05 0.0010885877434983688 0.4430166699800256 0.019608325464524474
67933000.0 0.8336582395287425 -0.5545338623906008 0.0538666720331778 -0.290046752966328 -0.0017055149485993427 -0.006795335421088806 0.4498696568791104 0.015031709333321625
68932000.0 0.8253256112438333 -0.5612586205182001 0.05013001949616761 -0.3030705845302771 0.00416694835609743 -0.004772300214489542 0.4538003228455747 0.0020482889596403204
69931000.0 0.8198338797473423 -0.5702774823596143 0.04893921249653524 -0.3152813468879962 -0.0004046336228328402 0.002270737336890635 0.4461707054518855 -0.012231873377649898
70930000.0 0.8138438050449747 -0.5758578745896572 0.048765009739778535 -0.332642149145353 -0.0007900999018025114 -0.0031136400592169707 0.4467669288136119 -0.03194656330410268
71929000.0 0.8124351576537685 -0.5843983019038438 0.048327924872143775 -0.3493058090753751 -9.449238130227456e-05 -0.0015061799286711483 0.46178526072281045 -0.036482673938816025
72928000.0 0.804401161075443 -0.5934621009554689 0.04118067436657758 -0.36420848302971187 -0.000999441953439138 -0.0009709706658672856 0.46629879888748044 -0.037899941792871726
73927000.0 0.8002931486567141 -0.5988273923244682 0.0346683240385176 -0.38674623223303717 0.005039796296172037 -0.0020489920228225923 0.46000868065139655 -0.05657651778937511
74926000.0 0.7957757911772861 -0.6094766134612256 0.028338842719652625 -0.40578608705907404 0.0034458299867642975 0.003295206667269287 0.4706445823481034 -0.044697366137942666
75925000.0 0.7889017657881182 -0.6129224887123894 0.019853191672728646 -0.42139924133633505 0.0008547216639121617 0.00048343999367059573 0.4660730497317861 -0.06822852009733202
76924000.0 0.7814229265456237 -0.6212189637976876 0.006259271922990952 -0.4458316807871375 0.0012530419615414503 5.4240106223298206e-05 0.48026165665580206 -0.07197809869831563
77923000.0 0.7778469002602566 -0.6271863703178746 -0.0071963865602201514 -0.4664285907117143 -0.006098298226602316 -0.0019394892304725629 0.45857408173622866 -0.09227157192101296
78922000.0 0.7710486328443295 -0.6397996738096156 -0.020131894261647177 -0.49597180550221587 0.00030820325598155795 0.003118304106406456 0.47204710215692747 -0.10399780606458635
79921000.0 0.761721130398975 -0.6427392128334071 -0.03986003308085995 -0.5167520772334088 0.001419124081833286 0.00011691761730604641 0.4698883413971832 -0.09951010137671554
80920000.0 0.758543969453811 -0.6530821363544219 -0.055134275667241106 -0.5514407688875195 -0.0034524031282825124 -0.002681116182045292 0.4745148543686228 -0.12326507045195197
81919000.0 0.7525279447826322 -0.6576541997419524 -0.06918846660208249 -0.574673415166608 -0.003164775042489116 -0.0008949179571122795 0.4752767328884212 -0.12396184854586634
82918000.0 0.7448594114953728 -0.6679615707005657 -0.08557289605713475 -0.607179241016518 0.0030434637766965033 -0.003022353971068951 0.4824657295529334 -0.135626992799943
83917000.0 0.7367222348659397 -0.675505158573297 -0.10548998695507744 -0.6355902599766752 -0.0028097223914641625 -0.0007811932971428442 0.48325711311022346 -0.1478606767750395
84916000.0 0.7320534739192511 -0.6826340818914305 -0.12210605906843498 -0.6688515608591908 -0.001704526821424906 0.0032076066980761694 0.4784194314925766 -0.15937073441293992
85915000.0 0.7232786865336688 -0.6903363325091117 -0.14763349571253365 -0.6998966594988845 0.000609418193677958 -0.002865016063871771 0.47984004168815136 -0.16798969773981123
86914000.0 0.7179921272406693 -0.6974331191723107 -0.15826292895789792 -0.7375058942243562 0.0007446796474746334 0.00017102867153216033 0.47006957672986577 -0.17259972988972153
87913000.0 0.7107629643206486 -0.7034878431075583 -0.17610562967792528 -0.7633038488084163 0.00039402627112402943 0.0014091577674004757 0.46929488988191215 -0.1828721233122313
88912000.0 0.7055795974398446 -0.7111548848890984 -0.1887914895854118 -0.8017269032713829 0.003818283734805131 0.0021459468058464496 0.46777441915908546 -0.1988634057798976
89911000.0 0.6962534491384555 -0.7196128040743884 -0.2115551110218151 -0.8395589709469774 -0.0012898242185793878 -0.0014423632100362483 0.47954175948161715 -0.20942427507401049
90910000.0 0.69051528303355 -0.7252239020758322 -0.2249420368709069 -0.8737217218893939 -0.0003551919762063165 0.0015225264341687638 0.4622342091009982 -0.21114488076620438
91909000.0 0.6825121804718582 -0.729707860508265 -0.24588805305369424 -0.9075365898268035 0.00034314790268660583 -0.00023128555665190964 0.48015744767448304 -0.22187541083167833
92908000.0 0.6738444022454628 -0.7382669328342255 -0.2665279974412153 -0.9395872719407046 0.0010617535857109042 -0.0009781284170573095 0.46043481886957033 -0.23234452245005904
93907000.0 0.6699516608404034 -0.744336637576161 -0.2817844839612593 -0.9752695395677478 -0.003552951757100823 0.0037433248787427167 0.4594677747650818 -0.239784547670245
94906000.0 0.655947449770478 -0.7530963046447686 -0.29973809883454194 -1.0051359582345338 0.00044876431996476994 -0.003575773670441483 0.4655710490035027 -0.24314444867563403
95905000.0 0.6497122551540695 -0.7576520510390065 -0.3209356029246421 -1.03991695200934 0.0002262524332756487 0.0025166661736696124 0.46965761513456583 -0.25824358577922507
96904000.0 0.6436716132808621 -0.7658630125266609 -0.33976389643480287 -1.0787747206068745 0.0012299797965247626 0.0007226960593478448 0.453911384865149 -0.2643869519053514
97903000.0 0.6322209783799505 -0.7714387809809007 -0.3623848642736842 -1.1086210094393594 -0.002942796666998616 0.0014830318445676872 0.45496225087490366 -0.2812730952132486
98902000.0 0.6282239705064134 -0.778699693937372 -0.37950368277721935 -1.1486386365321897 -0.001811602122179977 -0.004924394523087382 0.44930394577388466 -0.27894083047488427
99901000.0 0.617125116245396 -0.7836296517393319 -0.40784992077449866 -1.1802523925200215 0.0008211837416290056 -0.0018120375189736517 0.47018231377342073 -0.30698469268625195
100900000.0 0.60890639853662 -0.7882491942001356 -0.44186016850122767 -1.2086967178560828 -0.0006223918292354332 0.0017598943188981465 0.46482596642484286 -0.30667696985951015
101899000.0 0.6016344010637922 -0.7968930067265066 -0.46141973052066604 -1.2503461348531597 -9.079759969335592e-05 0.00012122005801172137 0.4432168501887893 -0.3133538983780611
102898000.0 0.5907398583101542 -0.8037264342876244 -0.5007175893539589 -1.2878227953303825 0.004169339697915581 -0.0002529370287427528 0.46665473898761556 -0.32851194378348014
103897000.0 0.5821372040914699 -0.8113915232399007 -0.5355961506329848 -1.325597519193186 0.0006451697192865853 -0.00034902198127864203 0.46063006714786064 -0.33174291173943327
104896000.0 0.5754236202525882 -0.8188936410233048 -0.5804659956719083 -1.35877802949916 0.0007935990128805773 0.003574907025987525 0.4441591532672549 -0.33803598572180915
105895000.0 0.5661811770667476 -0.8229277677325709 -0.6263441614600123 -1.4002616802944208 0.0014150717749779596 -0.004403808221637351 0.4467944294583312 -0.353359016364383
106894000.0 0.5588915116407772 -0.8288509657217557 -0.6771720153570782 -1.4381784314187975 0.001365483571295118 -0.0012647443391544117 0.436281353576078 -0.35242742492011775
107893000.0 0.5506389432458346 -0.8338476017721167 -0.7306520845464163 -1.4675014871123562 0.0015109710247188791 0.0023924112649918662 0.4325294091235309 -0.37853338732963726
108892000.0 0.5393076227741339 -0.8398041617845868 -0.7890852938061342 -1.5061806688757118 0.0012259359162106612 -0.0014870150095223408 0.4264139050526441 -0.37511758818636404
109891000.0 0.5280920169193096 -0.8465471453121176 -0.8419562480621545 -1.5360644669967793 -1.4567637300201135e-05 0.001038636221992272 0.4411003386380526 -0.379871662484049
110890000.0 0.5196998496689528 -0.863851522662933 -0.927024939229018 -1.5597389996558513 0.0015802831887928458 -0.0019271069422631204 0.4273298830620101 -0.38623506033270577
111889000.0 0.5093667067661458 -0.8532726852268337 -0.966209693406459 -1.6102441859753436 -0.0008619851961425016 -0.0007629057183710011 0.4270719067620089 -0.4007598525609345
