! Created with skrf 1.9.0 (http://scikit-rf.org).
# Hz S RI R 50.0 
!freq ReS11 ImS11 ReS21 ImS21 ReS12 ImS12 ReS22 ImS22
1000000.0 0.9783233695345368 0.014060575918150922 -0.007825990928251063 -0.0331457830081495 -0.005671821465478657 0.01635084325262265 0.3215936557974655 0.30046103164939925
1999000.0 0.99432723344689 -0.013373941070013296 0.011299645287726564 -0.02176286399400499 -0.00916683619438552 -0.001124038287561245 0.25931777921608906 -0.060753432787256284
2998000.0 1.0022012345168514 -0.022679908776473193 0.008742566507989175 -0.02082295782250413 -0.010462614872332318 -0.002311265454172363 0.1848498087961438 -0.1533802151290351
3997000.0 0.9981265229869395 -0.02721540874601445 0.012688727846467844 -0.008329791099251622 -0.0038153842222395447 -0.008145321038951474 0.081882836032925 -0.231362628443954
4996000.0 0.9948401932013936 -0.03948770980512508 0.00986692135310754 -0.007745966162544893 -0.006371635624902782 -0.0016854340100014996 -0.05385008078035518 -0.20015317507648792
5995000.0 0.998147385810856 -0.04722747400395368 0.014342297655961464 0.004188450146271562 -0.0013596587570198755 0.00126772173388294 -0.13001888438890952 -0.10039997681724522
6994000.0 0.9946661912849113 -0.05862354811045136 0.008125355559966999 0.005289668866962598 -0.005623091617983159 -0.0019880769263455425 -0.13729425652116142 -0.012802138286689442
7993000.0 0.9965732347581644 -0.06782074959780793 0.005702709525118574 0.0006554285408203524 -0.0045501634781519055 0.0018045121846894123 -0.16176713572432583 0.043362556626513074
8992000.0 0.996658729079632 -0.07037693128243576 0.0008207845925276003 0.0027013141899672284 -0.0003883260159116779 -0.0020595206929019103 -0.15780828652844206 0.07355574910479214
9991000.0 0.9938170586103932 -0.08184081020246803 0.0010455385938505448 0.004372105020875989 0.00041349211470839714 0.004462845888036352 -0.14916835700764453 0.09819768757221278
10990000.0 0.9924461377287476 -0.0897268252388991 0.006575295626071366 0.0009714338386234844 0.001661570845803198 0.00017445931513635334 -0.13212141454953885 0.11476707069289913
11989000.0 0.98974867611566 -0.10078319535169764 -0.002574306529513912 0.002308202065613415 0.00217630270055002 -0.001113808148461255 -0.11373674307093071 0.13477907590059035
12988000.0 0.9903299850409475 -0.10976840492963678 0.0005983134776631107 -0.0016085307226604887 0.0034191720781547408 6.5334096000269425e-06 -0.1373590598468218 0.15644182747269741
13987000.0 0.9872038720734762 -0.11789902403385634 -0.0009539419697846024 -0.004165740704938735 7.820029060138546e-05 -0.004063331825969459 -0.0898138294703199 0.19190507313191668
14986000.0 0.9874197760404523 -0.12651857372426797 0.0006723317904116392 -0.0010382621783527894 -0.0056590319026526585 -0.00285272404190441 -0.08449285314974353 0.20164746802619632
15985000.0 0.9903571203493486 -0.13615005581102693 -0.0033998748585371465 -0.005653561948469921 -0.0013047591811811577 -0.0025248597454954748 -0.07539417937498265 0.22808638246333984
16984000.0 0.9882343693188999 -0.14317385172187122 -0.003302664229343221 -0.006980167881556772 -0.0033193621024021763 0.002789817486438173 -0.06760981987344239 0.21701090423739236
17983000.0 0.9873263860214062 -0.1479796683295006 -0.0028507171185071603 -0.00668357600983562 -0.0010323687903665082 0.007854897344293316 -0.05656753034152727 0.2329206057262869
18982000.0 0.9826349378840542 -0.16231274050610095 -0.003261104574321945 -0.00352172320856374 -0.001102284066588628 -0.004617604864715564 -0.035053275575509066 0.23614390189602064
19981000.0 0.9823676860070981 -0.16434918987953487 -0.00228691168302704 -0.009030908192254777 -0.002237915271108784 0.0010091468628193312 -0.0031048849524694957 0.23852025830069484
20980000.0 0.9829776101340783 -0.17465392010801292 -0.009248262773534896 -0.00481916113862658 -0.0002917798218162954 -0.0016615676851987858 -0.008385420783888485 0.25524994293676684
21979000.0 0.9795548544714019 -0.18483859565986402 -0.004473756343765164 -0.004598693029407481 -0.0010735762708799384 0.0003112259361437044 0.019767559716716003 0.2463349320276279
22978000.0 0.9750364703304594 -0.19296263616182058 -0.0034882434876722522 -0.0011349097721017837 0.0019482132226598579 -0.0001451622224867451 0.02790852363941164 0.25470622717183106
23977000.0 0.9786470989164104 -0.19834308385344185 -0.00858993133786728 -0.004465584365044023 0.0017778353152476784 0.0036124728420236164 0.04328507553213063 0.2656743659856324
24976000.0 0.974655578631316 -0.2088707387736599 -0.005622404821256841 -0.002567037995590994 -0.002503888339188587 -0.00486174638559802 0.06936152623312918 0.2590796670737033
25975000.0 0.9760874114807258 -0.22086802289570218 -0.007418763426400095 0.0008569384109189618 0.017640779479822597 0.015893306912794142 0.08581287503650467 0.2638278872718523
26974000.0 0.9692141206397853 -0.226466756576871 -0.002851172244657133 -0.003576499479238996 0.0021948152898296604 0.002667731494740418 0.09397020582237464 0.2598624780080043
27973000.0 0.9721404701567375 -0.2308866023926834 -0.006672419346261092 -0.001896482861652249 0.0006930250190815496 -0.0019841807935054756 0.10505568211522853 0.24754206264856093
28972000.0 0.9662157482298951 -0.24325482718652083 0.0012422664900032766 -0.00338703431786791 -0.0034675514027107065 0.0007282850180719166 0.11204657444322867 0.2491585676904128
29971000.0 0.9661860341360768 -0.25079168327598084 0.0018164518307138425 -0.0036639221102523906 0.0005907138453081165 -0.003744481326748779 0.14749731488678572 0.26246069736665023
30970000.0 0.9647391989464371 -0.25604973165615075 0.003782295566912875 -0.001767050420732588 0.0023820699918868735 0.00027787940056987054 0.1696986478027486 0.2518099742641635
31969000.0 0.9618118586953271 -0.26572866708927007 0.003370935045570367 -0.0029656909048222653 -0.001294305937821465 -0.00126824671740955 0.14816265435773115 0.2562428252237933
32968000.0 0.9606441696827611 -0.27273574635444914 0.008974937503850347 -0.009357227650088486 -0.005775742657094845 -8.886528350596402e-09 0.16234568169797026 0.24376682615774714
33967000.0 0.9582317913571041 -0.28213540429651024 0.00863237010430541 -0.005819553013925918 0.0006800737574026016 -9.808587101263567e-05 0.179622859431248 0.24736508868419996
34966000.0 0.9546693127172551 -0.29280469701315187 0.013703507773548104 -0.011442351055631298 0.0029052467113888794 -0.0016161800770223907 0.19297319900685844 0.2521111730071863
35965000.0 0.9518727538409134 -0.3004039082057953 0.013168122342535138 -0.014264799498837232 -0.0005554085464485615 0.0008978230953277467 0.21085957024414942 0.2540293302858011
36964000.0 0.9500222364543801 -0.3089902011184462 0.015464110261804529 -0.012949540342836569 0.002304972778214701 -0.0018046191148519963 0.2083124201207836 0.24596215320333767
37963000.0 0.9462875629908829 -0.31722513021791965 0.020402092853388575 -0.021888877678211616 0.0012645044247585433 0.0033462014075464836 0.22840321848731876 0.23756189502871486
38962000.0 0.944069221772557 -0.32594203575292136 0.022667117528727476 -0.02378459141605875 0.0008223733667638395 0.0015506594015329439 0.24514220795780187 0.24086964121195062
39961000.0 0.9399953838902941 -0.3350168718645949 0.025479229643902195 -0.025246930772141307 0.0005563351139274528 0.0018905982181879174 0.2527903198264084 0.22482145140324608
40960000.0 0.9366723942656235 -0.34310362114921533 0.022864203614937982 -0.023043407906485035 -0.001750615686190516 -0.0002116997283718371 0.2635632757028671 0.22773285534980334
41959000.0 0.9338371867252313 -0.35251118144692317 0.02648787437637096 -0.03051360565176772 -0.0008596589397744607 -0.002060920313526666 0.26726998586855066 0.2264347029031211
42958000.0 0.9305245675057908 -0.3605639906703951 0.03310444972990539 -0.039977554786156784 0.00010848504143016028 5.3448677742825485e-05 0.28229780808146243 0.2065971173138721
43957000.0 0.9269693588848256 -0.3677737224621349 0.03318720878409507 -0.041968729608732304 -0.00010698704708795104 0.0004475568530556655 0.28778434206854986 0.20753029942919637
44956000.0 0.9239620487568122 -0.37570879769725124 0.034689119085388166 -0.049454775550696405 -0.003658028084120043 4.0597161600852604e-05 0.29967818626505094 0.19396384699445776
45955000.0 0.9208886932072782 -0.3856109027037377 0.034135185705495424 -0.05589924800917577 -0.0020449686491718537 0.005033876651925854 0.30412331282350463 0.20007754312580087
46954000.0 0.9170469020386761 -0.39378556987562 0.03556145779171095 -0.06518206017378064 0.002021280944592638 0.003420679271303683 0.32160930380794683 0.18301482998426039
47953000.0 0.9139742099974841 -0.39990850017031976 0.036841315819192706 -0.07236883692474616 -0.0022031281619653243 0.0007252014808701729 0.34204348135125867 0.1601413123778845
48952000.0 0.9086593272878933 -0.4109432158117628 0.03745097775052108 -0.07701529980029925 -0.002984057036894249 0.0001700204930674922 0.3270120284817177 0.16313810525218267
49951000.0 0.9052287981626527 -0.4172936263627802 0.03784922635965233 -0.08496288419407501 0.002609147085736907 -0.0025485584559689044 0.35124954751040394 0.15847739792707496
50950000.0 0.9004976969981416 -0.4251745775902445 0.03846766356503088 -0.09191939698201677 -0.0028039792737177926 0.0016508281758744732 0.34768650140370366 0.14587451260125037
51949000.0 0.8968235055578911 -0.4353409501974919 0.03912667282204703 -0.10249931555828307 0.000907737464632242 -0.00039399936651729445 0.3504623996944877 0.1491458215988003
52948000.0 0.8963142747656482 -0.44089918868073463 0.04079906197799547 -0.10874515473378887 0.0014332796384607424 0.0008533449256155704 0.3632830793738726 0.15239166411138308
53947000.0 0.8886523029423432 -0.4513250333188598 0.046198972273281326 -0.12232446474705125 -0.0005779319297776154 -0.00024190045621395886 0.3815425215349504 0.12728132534567638
54946000.0 0.8845178513689387 -0.4582671021704222 0.04376190711332794 -0.12701983669968425 0.0006478102739920426 0.0008360260743734939 0.3848501581312451 0.12540822296945137
55945000.0 0.8829149283688834 -0.46572402253842277 0.0449155361394452 -0.13828538095039616 -0.0009230740786591203 -0.0003102355006968355 0.3879718312045061 0.10777925610089445
56944000.0 0.8790667375768837 -0.4758847748425393 0.048422461643257364 -0.14902389645589484 -9.031075396546357e-06 0.00030271832469263617 0.3916070183677453 0.10431332522844049
57943000.0 0.8735365911315667 -0.48530643143300917 0.045943551509341186 -0.16000590804863585 0.000729270988346708 0.002718674769312581 0.3953132130114919 0.10235791707909475
58942000.0 0.8666099119088339 -0.49182214252955636 0.04951992357341104 -0.1689289944245319 0.0010113176745230378 0.0013822046025090914 0.41981620280903276 0.08896367181251583
59941000.0 0.8658673497808234 -0.49649632768886937 0.05183396280537624 -0.18232412029199777 0.0005282120670934695 -0.0019954125496981427 0.4149897186650635 0.08248868403327504
60940000.0 0.8574053148955486 -0.5060900434437187 0.05110783999615613 -0.18228654475217665 0.0008621009520322711 0.00025352936065483976 0.40976015798465537 0.07577824198429459
61939000.0 0.8547573276639483 -0.5132351489373909 0.05488145991004062 -0.19207968400315692 -0.0017355046283128496 0.002365237162042039 0.4161304388286224 0.06311590546849657
62938000.0 0.8490558397041271 -0.5227369419931212 0.05333045657326177 -0.20683167850195827 -0.002976646664530173 0.0013429891137091902 0.4434371677264821 0.05484831353064337
63937000.0 0.8446164950469354 -0.5295409486296883 0.054957944461951416 -0.22842301969695844 -0.002395057185543701 0.0027706712368802417 0.4398681338452702 0.042737671601170646
64936000.0 0.8372901329793685 -0.5365556040741645 0.05598040013176815 -0.241464007019529 0.002048820207008138 0.004575998037210587 0.4391642079126976 0.039234975293772
65935000.0 0.8342960596914262 -0.5473373771499259 0.05655128855719178 -0.254112031506049 0.0008577097382776855 0.0002004383286540385 0.43612084519782857 0.023400523783489516
66934000.0 0.8306526140311938 -0.5509831223723143 0.05730008194175485 -0.2698283057728158 -0.0012769656789031237 0.002357861353388593 0.4343427269669505 0.014287664139573898
67933000.0 0.8268019736222314 -0.5607751450968409 0.05685886189239287 -0.2852814145894222 0.0026683346116690224 0.004174373885047808 0.4496437990802487 0.005636408694454694
68932000.0 0.8160580791921905 -0.5682138811654924 0.05078443745632305 -0.29700857585877016 0.0024427311291524974 -0.0024785523803965417 0.46542131960663286 -0.006554938921188809
69931000.0 0.8111398354253196 -0.5769813583524042 0.05692702098013697 -0.3132100052963459 -0.00015851059326326656 0.00020581438664079652 0.46077982659206324 -0.017296413205868364
70930000.0 0.807066568335891 -0.5821819619221542 0.05585911969120663 -0.32819399765433466 -6.7086716818773e-05 -0.006150759015323838 0.43925655837771277 -0.023460321643298268
71929000.0 0.805208790180574 -0.5946012886304035 0.05158980569518757 -0.34459633293293007 0.0023985693562460298 -0.002790328714789264 0.4502478264851274 -0.03845038168417323
72928000.0 0.7986418515379696 -0.600348214129936 0.046679827971100735 -0.3583920444566794 0.002750318365960019 -0.00018045257395506937 0.46584254135778036 -0.03983415566589406
73927000.0 0.792466899212469 -0.6074223297085599 0.03922306116141937 -0.3794917060775077 0.002511917374489056 -0.0008769118477019264 0.4630485729666296 -0.05795497681008888
74926000.0 0.7862798156209203 -0.6157966015334376 0.03296422959782268 -0.3926282464506287 0.0033191073366486534 0.0001593587887043977 0.4646090923116781 -0.06711578282847212
75925000.0 0.780903449533609 -0.6204124781711842 0.030519188167934856 -0.4152682610012542 2.2407508218708004e-05 0.0011149926929182937 0.47263386762203674 -0.07718412642917619
76924000.0 0.7728179649558719 -0.6297732042104243 0.011298875189420708 -0.43853918444109863 -0.0017054644568185696 -0.0011156584223804978 0.46676754520011665 -0.08193901457094199
77923000.0 0.7692109315722856 -0.6351421414822801 0.0006105103295712206 -0.46331147715071497 -0.001660799694336032 0.0004875210217850538 0.4637702618018521 -0.09025880921129836
78922000.0 0.7621097799649724 -0.6454874665450457 -0.012537224631113472 -0.4875363654566078 -0.0010191202358589171 0.0003542286862788851 0.4577021722240917 -0.109159299184027
79921000.0 0.754294863838616 -0.6499805614629439 -0.03116902773101799 -0.5136643284970284 -0.0034515474357834806 -0.005583129770974026 0.45663844982070745 -0.10982262784754884
80920000.0 0.7492472632723346 -0.6595152154908308 -0.047283789993773466 -0.5358116992753935 0.0003465730177503091 0.00048474698781575106 0.4621246390072151 -0.12562079694242945
81919000.0 0.7429516738874813 -0.6658242969716484 -0.060781864748256406 -0.570867617068804 0.001589432635335532 0.001182079432919102 0.47608887899320573 -0.1281765423312419
82918000.0 0.7357855130011927 -0.673579438544981 -0.07914114247893762 -0.5989308104440182 0.0008644298002288369 0.0009920544752549292 0.4739334207804454 -0.14493543042453527
83917000.0 0.7275774520345084 -0.6801586741224233 -0.09670983522572148 -0.6268744642235906 -0.0020059688753600686 1.4786276970905631e-05 0.4733814890977731 -0.14115627908660286
84916000.0 0.7220117622769261 -0.6888365752039938 -0.11182558040372498 -0.6634945490592745 0.0016273864643532828 0.0007815438215095308 0.46976567491349924 -0.16736057265098178
85915000.0 0.7148134995426852 -0.6940878098458 -0.13089908450101836 -0.6926806991744432 -0.004777725230922565 0.000736394098771794 0.4855516700907519 -0.17379691135656472
86914000.0 0.7074036781278026 -0.7034664491304873 -0.14652782700394887 -0.7276981208210591 0.0009441414660558441 0.0004358724321104987 0.47574795017038646 -0.18054749366766493
87913000.0 0.7008155072913781 -0.7099718206407409 -0.1680551049850086 -0.7569528125804658 0.0010765541493701323 0.0005175161043435763 0.46362824470414 -0.19625906129032136
88912000.0 0.6925186497417215 -0.7152165258415822 -0.1867010592456311 -0.7922295260021298 0.0012696691661659928 -0.0003234074802294345 0.47052302035831456 -0.20608100319507647
89911000.0 0.6841453258033419 -0.7260046824604088 -0.19642919057814195 -0.8319995695995377 -0.0022362194309823364 -0.0002830695584234319 0.4810020708315621 -0.21451687203049763
90910000.0 0.6784266992167252 -0.7301154645361917 -0.21250353384619697 -0.863143341838352 0.0007069477398441519 -0.001321997170160831 0.46351802168159767 -0.21144029616508284
91909000.0 0.6707480255645039 -0.7344471512058028 -0.23520069007980696 -0.8945991129992152 -0.00025895784604594503 -0.002011762905412128 0.4697701774693181 -0.22241163623660828
92908000.0 0.6627571410101938 -0.7464888917432021 -0.25017267780788965 -0.9298299626450149 0.0008855242959720305 0.0015051100453266663 0.4626976552028061 -0.23062678069735346
93907000.0 0.6561891094243122 -0.747219398148849 -0.2668308527608596 -0.9574984223568791 0.0016432234541198874 0.0038329565968753558 0.45879934073170325 -0.262660336223714
94906000.0 0.6461108039293498 -0.7580153357075101 -0.28344746954886607 -0.9928621691913458 0.0024946570360567257 0.0005606346578456165 0.4766012874147967 -0.2549851423035435
95905000.0 0.6371778474162988 -0.7631068686952909 -0.3111651979779372 -1.0293969039021593 -0.003785882832747287 -0.0009362749193663038 0.4546087397777016 -0.27660248464308845
96904000.0 0.6330287637679527 -0.7725098384793668 -0.32134177983592643 -1.07187456814353 0.0031750638447235633 -0.0022698353550267085 0.4483262518609747 -0.2787761862951889
97903000.0 0.6214427289079585 -0.7795033300271589 -0.3466392239551123 -1.101283282546229 0.005285008422581318 0.0035758522672706345 0.45803872991519684 -0.28600179236094553
98902000.0 0.61817112207542 -0.7830918354905867 -0.3677430512454934 -1.1392607663062282 -0.0025463218800977536 0.00017994332746573797 0.45196805868846374 -0.29232292191749415
99901000.0 0.6075831824624469 -0.7907500701035726 -0.3924701011357717 -1.1712621595486115 0.002471763833516971 0.004222728631361182 0.4623604398005066 -0.3119510523743783
100900000.0 0.5992906076436036 -0.7955683063390349 -0.4215129585397817 -1.200013744414638 -0.0013010710649892909 0.0017901213171870871 0.4704551348310999 -0.30869988089413253
101899000.0 0.590888923318138 -0.8028988692805161 -0.4426548497341878 -1.242403466909121 -0.0013303283331900896 -0.0013730503273775793 0.44953422648194447 -0.3190805352419352
102898000.0 0.5790469824790535 -0.8084760237223505 -0.4806459973132633 -1.273728162949512 0.001706761850670281 -0.0010109078628127083 0.4546168274192437 -0.33946259920094524
103897000.0 0.5716308846094303 -0.815493898642191 -0.5145344838289443 -1.3086178515746612 3.095710157780735e-05 0.0005400019121013845 0.4561644024829835 -0.3319970378909165
104896000.0 0.5633171202849494 -0.8259358790577341 -0.5608097631889476 -1.3450457329477525 -0.0013694304853600864 0.0003819915743775486 0.4418356998940153 -0.3348994766077811
105895000.0 0.5532276783860501 -0.8266576805906911 -0.6068566869977026 -1.3832740671577606 0.0031819364992364107 0.0002736916941501129 0.43283893195663004 -0.3633296788037605
106894000.0 0.5463923612189127 -0.8340237946123727 -0.6567991367239352 -1.4230714713937223 7.908904965675374e-05 -0.0013402859816772843 0.44067532956971794 -0.35422656331593844
107893000.0 0.5361504807199861 -0.8398335755974085 -0.7031952547077678 -1.4582193563649737 0.004584921026907354 0.0005822994146131462 0.4269650139076778 -0.3778233479773536
108892000.0 0.5286280067474007 -0.8441558073953351 -0.7575849402506405 -1.499245495490793 -0.0008068372986526455 0.001394766316924775 0.4333734077492693 -0.37714498755887704
109891000.0 0.5160501233158103 -0.8505551111854758 -0.8156278673266502 -1.5347228009256852 -0.0021881562881196728 0.0014306945698024914 0.45905459976145946 -0.37137735800913635
110890000.0 0.5106445395704978 -0.8675396952484851 -0.8926993445395458 -1.5592754813562177 0.003906481073031325 0.0017524764948346739 0.4285051082874558 -0.39067208835487055
111889000.0 0.495030563852034 -0.8590060489294224 -0.9435981936301804 -1.605039987875025 -5.428497894487482e-05 0.0013345529427179741 0.4227907974699054 -0.4029808845798538
