! Created with skrf 1.9.0 (http://scikit-rf.org).
# Hz S RI R 50.0 
!freq ReS11 ImS11 ReS21 ImS21 ReS12 ImS12 ReS22 ImS22
1000000.0 0.9822730832429349 0.01349166977279818 0.00718471052579039 -0.05105550875212386 0.004054723671151214 -0.017847570047339945 0.29599895390661773 0.2574176120357501
1999000.0 0.9968298726437066 -0.010358187442388526 -0.0029082841413913675 -0.020741309492424323 -0.01785581420788841 -0.005957356034665914 0.24765145458808427 -0.05454206867818664
2998000.0 0.9944317883885585 -0.020748267070368132 0.013607263335586064 -0.016749399111789506 -0.0024444208525904675 -0.001326806958498821 0.2004732845491463 -0.12872940813612488
3997000.0 0.9983329247806837 -0.03295491957592781 0.013654108720437312 -0.01059233578539114 0.0030835268382535595 -0.009252338012949484 0.08887000270301844 -0.2126701218926991
4996000.0 0.9966655410641506 -0.038220689916771314 0.015202570467762362 0.0018496059308997813 0.003464864733311959 -0.004498587513336941 -0.012582182000082974 -0.22212815781912204
5995000.0 0.9988006636388017 -0.048938807504262424 0.01044682567549671 0.0032524003001910278 0.00328209692650951 -0.005945105865625677 -0.12005874277655194 -0.1296555955326022
6994000.0 0.9959007614014869 -0.05743458718349814 0.009667286712478657 0.0032603237044093653 0.002316874128321822 -0.0011753080779153173 -0.15723387654788992 -0.0453192633113437
7993000.0 0.9952786180909527 -0.06923866981913647 0.004571340545668921 0.007739001109938114 0.0046585422269287404 -0.0006860446863745952 -0.1744679100802215 0.03168985368362797
8992000.0 0.9966876369658221 -0.07373688378230979 0.0007959996984263329 0.001641580525326183 0.0053390328155772685 0.003610078146964282 -0.18303769382823254 0.04557545242432825
9991000.0 0.9932518189245674 -0.08389096704078726 0.0006017578852492468 0.00448261545945404 -0.0005240861144745549 -0.0005091532501280568 -0.16094914534091923 0.09408069633180688
10990000.0 0.9946752393347679 -0.09075933249160803 0.005579923625419138 0.00011668514422236452 -0.0010386555448522298 0.0026980967363213126 -0.14543683813151873 0.11426057562565675
11989000.0 0.9909187895098754 -0.10124362232399214 -0.001750482504788911 -0.0007244508243552079 -0.0036157161550203296 -0.001823403761766714 -0.14025180593285386 0.13293668054217803
12988000.0 0.991380495919708 -0.11108937430282738 0.0030728376194978724 -0.0020748639929158374 -0.0010680968537876685 0.0036831271820735277 -0.13125829886845772 0.17440702633827182
13987000.0 0.9866365073313959 -0.11821794437776513 1.7458052598872331e-06 -0.004311474707429355 0.0034403379934599787 0.00024314622736075733 -0.10354171454497008 0.2004332922497855
14986000.0 0.9876001123566053 -0.12590688103205783 0.0004441040634002754 -0.0015161547626384862 0.00125406522785104 0.0012153915694931073 -0.10670581939014998 0.2107322189468822
15985000.0 0.9873521735170409 -0.13401106191346757 -0.00187778695954861 -0.005427828128473596 0.001051928582845218 0.00013977239961541463 -0.0681381570591833 0.22386206016667515
16984000.0 0.9869245367935969 -0.14534693014557978 -0.0027254780713495096 -0.004841621681739803 0.0011213086667245533 -0.008505007822743575 -0.07767956701520415 0.22153786495037459
17983000.0 0.9868776955155645 -0.15151986109711438 -0.005144574419459431 -0.004073222054239573 -0.0011403561721036613 0.0028887883179189652 -0.06106086372670256 0.2160251895798012
18982000.0 0.9835359018950888 -0.16315413420570785 -0.005928555479327867 -0.0011687312610825149 -0.0003965633856241686 -0.002564541945152447 -0.030142744282653153 0.23244784424784537
19981000.0 0.9833011171598877 -0.1677633783551008 -0.004035770784174408 -0.007657856357996294 0.0028579542094113366 0.0011343217599111904 -0.024922517886373622 0.24026471448634187
20980000.0 0.9802864880844869 -0.1782181337377966 -0.00226587782842612 -0.0021418517536577852 0.0015192632860156715 -0.004824786984289032 -0.004423917477464303 0.2603117804008843
21979000.0 0.9793410672460254 -0.18549744703746193 -0.004384511737815809 -0.00494542003019515 0.0017219431242051862 -0.001972273902454343 0.008748603482248903 0.24898482988260628
22978000.0 0.9751040629446246 -0.1964771751855307 -0.0052266499658644786 -0.006715629531237474 -0.0033738632874609686 0.004620962396852312 0.017776212708888225 0.2570243770516103
23977000.0 0.9783046635182898 -0.20150133741334314 -0.004224147634183958 -0.00285318322170485 -0.001535788938296523 0.0012170298482395733 0.038245229861072746 0.2575229573957897
24976000.0 0.9737677640984894 -0.21216328279565394 -0.004465981929504223 -0.003819281760153569 -0.0009915528119902658 0.0007684001317147185 0.044483066831661006 0.26662088620603225
25975000.0 0.9720198705477852 -0.2181449892738012 -0.01045642279575705 -0.0007803248153155836 -0.014296557138360163 0.022563930316981638 0.06107700191052307 0.26051586573587404
26974000.0 0.9695291551743345 -0.22877202044599151 -0.001870248256334232 -0.00044223210894140817 -0.001579341787109802 0.0015469174548077272 0.07503623701951505 0.26283747440064775
27973000.0 0.9685141520130818 -0.23920175128619203 -0.004154876625864472 -0.0021299371304911944 -0.0006555002656580612 0.0003562277092355553 0.09662979226143263 0.25594945061967295
28972000.0 0.9647316040956825 -0.2473572951500951 0.0010801191570874375 0.0008095635655071956 0.00014635903240111848 -0.0006066273912482096 0.11026494008039583 0.260215187748653
29971000.0 0.9644824331805643 -0.25570492083278057 0.0011104541363314796 -0.0005798577936600556 -0.0015438510510287578 0.0011215619522511452 0.13662814699283432 0.269488913156561
30970000.0 0.9616677604716009 -0.2610461182426117 0.002847483881083415 -0.0013094623516047073 0.002142789309588562 -0.0005287780319916612 0.1570014672072931 0.2634722286233547
31969000.0 0.9601035266250533 -0.26971382569333646 0.004736482187458157 -0.00046929507823179544 -0.001851992746332395 0.0009255043062829008 0.14968932870223325 0.2515894787161712
32968000.0 0.956580588795469 -0.2790216015377909 0.008636549080876592 -0.005950229787605658 0.001061708884992197 -0.0018626468105514867 0.15880460119502582 0.2523338260029535
33967000.0 0.9546676357208594 -0.2898192376433015 0.013148637953172847 -0.008558409610598372 -0.0010304544955119896 0.0001050986046916476 0.18088374754185824 0.24442360975407693
34966000.0 0.9515687791490062 -0.2994469033115386 0.012501665951186014 -0.012960906530214476 -0.0004654322636224398 -0.0014482851059802735 0.18569990108923554 0.25071601370763724
35965000.0 0.9495694450803039 -0.305731672279605 0.015483981109301265 -0.015990540165572942 0.002653597412389031 0.0035758905161459064 0.20617639608582358 0.25756812778187754
36964000.0 0.9479134590955842 -0.31361798850583217 0.017427550197364295 -0.015291268461718528 0.0017625411456776347 -0.0011728409332869357 0.21669341336043382 0.25284729223822855
37963000.0 0.9437787668203097 -0.3226379823225023 0.022877982506164612 -0.021551225382739292 -0.0005601449627221936 -0.0004807951609458569 0.22410632090228177 0.23361089516682115
38962000.0 0.941223361058576 -0.3325859074007759 0.024122242861762306 -0.024153982761817103 -0.0028034628281563083 0.0012009063211365963 0.2273689914878569 0.2421024520276382
39961000.0 0.939072635658798 -0.33825492697348625 0.02716940467011708 -0.02842549556861621 -0.0023108487670622717 0.003929226713027231 0.23721016079858023 0.23327353854201233
40960000.0 0.9350880650772946 -0.34777997676692257 0.02437782331536684 -0.023993738503300336 1.9316988154834166e-05 0.002200133561052289 0.26316703473481456 0.23087753032697853
41959000.0 0.9324065001845839 -0.357970144933255 0.028715140326153125 -0.03280330103342245 -0.0006225933521503691 8.723032933656982e-05 0.271248881318207 0.2207887733414479
42958000.0 0.9270339306304657 -0.3656313640893364 0.03487899158306064 -0.041258652725565156 0.0003110565769232134 -0.00016578800559091428 0.2751249163264813 0.20568941090962034
43957000.0 0.9247819429718992 -0.37207957352980164 0.03542664961823087 -0.04390596505803172 -4.046081741831309e-05 -0.0014360127896975157 0.28579654909242275 0.21389976967697366
44956000.0 0.9208831889389698 -0.38074091104397156 0.03277035775289003 -0.05412973487315083 0.0004466521986086965 -0.0004241554584607129 0.2940230805857535 0.1925813508646762
45955000.0 0.9162348777859061 -0.3915461010642882 0.0360108378185836 -0.05882953737922532 0.001451579135861394 -0.0016159475158345614 0.30636158372261546 0.18987392892382798
46954000.0 0.9136941591971806 -0.399548661374253 0.03720837986023922 -0.0665660249823147 0.0007240127154609112 -0.0007814291530778192 0.3314350301834244 0.18803130341863972
47953000.0 0.9125083911613542 -0.40681015969382717 0.04006598332857387 -0.07459778044214478 0.0011097263001935617 -8.469775363555473e-06 0.3306667751923835 0.17807100330449566
48952000.0 0.9055241277103079 -0.4166481483152012 0.0393903296952041 -0.0813090376927013 -0.0013205681637893842 -0.0012447169031092708 0.33836339068001725 0.1772481606802227
49951000.0 0.9017308678130163 -0.4251172385932903 0.038770424210721945 -0.08787107676477321 0.0016395370089623165 0.0011288249782596509 0.35457786868150537 0.15439993700543123
50950000.0 0.8991018677186284 -0.434143997205851 0.041375157894959186 -0.0969104486518724 0.0004684112397817141 0.0005341258620542142 0.35095075006247234 0.1624359313439859
51949000.0 0.8933269220218643 -0.4411469899624636 0.043330062685167425 -0.10435621255171856 -0.0021089753762048693 -0.001291907776066671 0.3548739617684246 0.15380447990804008
52948000.0 0.8928183346209948 -0.44798622677666483 0.043447931173987285 -0.11445030688814453 -0.0008362369076639621 0.003772722900106051 0.3733801521772028 0.15029121774118717
53947000.0 0.8855165023870027 -0.4585311595314864 0.04400373699885602 -0.12486025759762598 -0.0026216867620925326 -0.002136554536249607 0.3762450888385433 0.1382649361728296
54946000.0 0.8809805309030172 -0.46504233858417465 0.04441458254540892 -0.1340633007103624 -0.002481878991777405 0.0008918677202219914 0.38468852991542196 0.12898085697308548
55945000.0 0.8780546314010722 -0.4744987069288251 0.047666683104187695 -0.14466193041825118 0.0006999793884896252 -0.0002674621150045185 0.38768873954536986 0.11061791487246701
56944000.0 0.8738405506649581 -0.4831202406136207 0.050438086649224806 -0.15391433496648482 0.0025315056389021667 0.0012927593078011592 0.3942169538452143 0.1155365289304217
57943000.0 0.8686887126045353 -0.4919591756095978 0.0515876195904006 -0.16681953081520795 0.00024349138339760775 0.001083060715685007 0.39828457749906027 0.09767569047314217
58942000.0 0.8650939376427396 -0.49716493995331146 0.05080307096076432 -0.17668777224823892 -0.00159147375603779 -0.0004226712632850366 0.4137665100167571 0.09514075713443097
59941000.0 0.8592081050717997 -0.5050172629355628 0.05420568592892373 -0.18561325498254397 0.0036881822013308486 0.0012762887439707118 0.4097122108205125 0.09050035302570858
60940000.0 0.8517341209659778 -0.5138738544305529 0.05661345357384731 -0.19068559355979633 -0.001939954602991203 -0.0027090629497546277 0.40236093737738 0.08103388434498314
61939000.0 0.8491614811146071 -0.5205410361616524 0.05335738456388133 -0.19991319826780343 0.0009099508923476851 -0.001066654407258814 0.4138673403664674 0.07863312788180707
62938000.0 0.843580002603395 -0.5300769071112758 0.058290068258219994 -0.21727060858296515 0.002658962409276915 -0.0018123538146985272 0.4379558841569734 0.05755982076043772
63937000.0 0.8370348764278118 -0.5390808133039774 0.06105822345720716 -0.24019510237150918 -0.0023388504587680144 -0.002275935611571788 0.4377301416593143 0.05091968951276729
64936000.0 0.8330317912520647 -0.5429003442837151 0.05946290083192006 -0.25381480170906745 -0.0009341670799595548 -0.0009324820277950877 0.43536942953260366 0.05043293401751744
65935000.0 0.8285886771565876 -0.5543471719652732 0.058261361508663075 -0.26795056524694416 0.003380911405114312 0.0002432744974501238 0.44082682903347836 0.027808694347070954
66934000.0 0.824318610177648 -0.5592185426510736 0.057481921923947285 -0.2828006474235503 0.003774596340312951 5.0669682770651586e-05 0.43869931285394953 0.009525953728235984
67933000.0 0.8213475559700406 -0.5673055347236098 0.0587108304056805 -0.29513685946034496 0.000655088852423617 -0.0009220471464997374 0.4543381303700126 0.02014352390991954
68932000.0 0.8186114031577928 -0.5698849757451319 0.05602305092323916 -0.31234575975937656 -0.0006470310531454579 -0.00044497287800210886 0.46476089745463334 -0.00011539065735747263
69931000.0 0.8049069092517601 -0.5850668329847273 0.053018778341939674 -0.32942118604116566 0.00026950986876197346 -0.003705073590037412 0.44397875646874563 -0.012242408516149017
70930000.0 0.8026533846790975 -0.5891540203615595 0.05402635275890274 -0.3420730528758742 -0.0014649414867916235 -0.002880789718736296 0.44085986897223295 -0.021318412861786352
71929000.0 0.7977296788006061 -0.6014135613973813 0.044362109471925676 -0.36303731770582603 0.0033434721724911907 0.0010218612570760462 0.44977933089261124 -0.029450038034524145
72928000.0 0.789645555026354 -0.6088715359844974 0.04008560630558666 -0.3775814034911094 0.0036432708203837667 -2.7486707263666853e-05 0.46618100762907183 -0.04025821141311786
73927000.0 0.783989134624626 -0.6150499369705927 0.034656820953461544 -0.40235551716489665 -0.0020067924797942207 -0.0021407294294799057 0.44834981601115187 -0.036998153115747355
74926000.0 0.7772247303353739 -0.6252240938000593 0.027155531868596483 -0.42074941050970205 0.0012120827416897142 0.0018441642285593617 0.4624911944530837 -0.04928122098497465
75925000.0 0.7700318591461435 -0.6305062617840793 0.01933691687613513 -0.4427436894413803 0.0021618645073962087 0.0043919408743926126 0.4719626902155517 -0.06797445211150435
76924000.0 0.7667280198105367 -0.6358499370782489 0.0019452398943536708 -0.4660376688152508 0.0031322302948681383 0.0007980673764985357 0.46191465914592894 -0.08483427045775939
77923000.0 0.7595511345752486 -0.646162765472023 -0.009891877912044683 -0.4874070903415473 -0.0003184602702407507 -0.003164792657348533 0.4652752661673103 -0.09240791519095425
78922000.0 0.7542570330988679 -0.6542661362976789 -0.024474539385250633 -0.5179144461053773 0.004117735243540408 0.00016357923374992741 0.46362500398248957 -0.09861803653610501
79921000.0 0.7456242671350207 -0.6558369282743715 -0.04256910542169946 -0.5426808312073002 0.0001564374508861037 -0.0027667287257237376 0.46549811743226077 -0.09912105319769939
80920000.0 0.7385787239539623 -0.6684540305664534 -0.05450627091270997 -0.573480609289617 -0.0008068664646527576 0.001969789457941828 0.47025533344096354 -0.12220288973395094
81919000.0 0.7358334954496977 -0.67388413703268 -0.07439428279270391 -0.6041427376810543 -0.0017149281867872728 -0.0010276321664810402 0.4660545616124098 -0.11517202938328606
82918000.0 0.7264658002680559 -0.6815306203501742 -0.08876525715271694 -0.6340009865162767 -0.001026895551912574 -0.00032050786044365625 0.46676075080393686 -0.13133109126914733
83917000.0 0.7163619341818664 -0.6901198144787725 -0.10679978782481137 -0.6636054688507135 -0.003274296044996138 -0.0016881419235723783 0.4723883513805291 -0.14397402545246052
84916000.0 0.7126385772820737 -0.6978801867329246 -0.1276175202203962 -0.7021195392344504 0.0035032138288056775 0.0005116154448154041 0.46752299379671364 -0.16203874844109986
85915000.0 0.7050179759372821 -0.7030919813561366 -0.14486089923318474 -0.7297599229050283 0.00045713940338273495 0.0016020196884382778 0.4669158128682112 -0.15900663651438451
86914000.0 0.6975379847546951 -0.7139045129597927 -0.16142314721659917 -0.7692496380816102 -0.0004569694428544834 -0.0003967804273275877 0.46604615137828453 -0.17865850008742692
87913000.0 0.6915233777436626 -0.719808117139558 -0.1790954161064304 -0.7957879903810214 0.004021771440808654 0.002455868206540385 0.4655515863000171 -0.17332898178763337
88912000.0 0.6825340877610168 -0.7261132293783364 -0.19522559907569384 -0.8321890254158225 -0.00369650639026404 -0.001005785087241861 0.4612833962817102 -0.19965927246890056
89911000.0 0.6756582291660327 -0.7360142723576906 -0.21131973386357905 -0.871306953412416 -0.0007151338820425146 0.0005609207372372702 0.47277722992379817 -0.1958873602624224
90910000.0 0.6687141971385955 -0.7404701042299302 -0.23302255107448408 -0.9058989467902805 -0.0007481186794902239 0.002323464976265794 0.47092385603873904 -0.206256035503461
91909000.0 0.6592275432792832 -0.7458722818874293 -0.2527512179396529 -0.937149877869075 0.0038010132908511043 -0.0042164276945031625 0.47741335771687976 -0.2136819739086443
92908000.0 0.6502271135613183 -0.7544329302421232 -0.26744646374131875 -0.9744964891107938 -0.001321546921263754 0.002041988030963525 0.45808374650995615 -0.21641973535794332
93907000.0 0.6446240975264065 -0.7593345769937425 -0.28900154841586856 -1.0045628073969444 -0.00045198689801391587 -0.0015091568296647497 0.4636338631404473 -0.24512654138314957
94906000.0 0.631666076376571 -0.7692824797101697 -0.31107299304481734 -1.042174260650367 0.0020121319775038894 -0.0012629203919908368 0.4687848467295685 -0.2422560408776941
95905000.0 0.6282495689468882 -0.7740353235751254 -0.33058069475916885 -1.0774475584925445 -0.0024712757103609755 -0.0009107019761595198 0.4608452678247227 -0.2582431864533112
96904000.0 0.6187290240489205 -0.7833753158553507 -0.35605467019524306 -1.11759585077798 0.004498079625524866 0.0022425472692092986 0.4565993847139751 -0.26592592819019994
97903000.0 0.6090106228578827 -0.7868186665415698 -0.37745215704324186 -1.1511966236483686 0.0006364976254222814 -0.000805993696628452 0.4490313622458018 -0.2805953135971438
98902000.0 0.6047090344137612 -0.7940549546116923 -0.4043444363869845 -1.18591399690656 0.0014357758936858877 -0.002051787408848804 0.4504097514701699 -0.29577191424065225
99901000.0 0.5911848956276534 -0.8003444125367033 -0.43149009938186644 -1.2230677662568117 0.00045361740739975837 -0.004851849683585934 0.4609526137534762 -0.2993047160534538
100900000.0 0.5869172509280928 -0.8026209970864271 -0.4666016751815182 -1.2574238588872095 -0.00012215208691983374 0.0016245369579036637 0.46786805426331146 -0.29744130638474386
101899000.0 0.5775968227237372 -0.8105129920768968 -0.4925371551171588 -1.2975516101312101 -0.0019352456007268783 -0.0011871493786665029 0.453070484625011 -0.316442391072463
102898000.0 0.5666156053179133 -0.8188535822546144 -0.5377210455006414 -1.3329700169702607 -0.0011357877756770066 4.652219692445744e-05 0.4524012714386793 -0.33453080150214337
103897000.0 0.558643556792742 -0.8268965731353315 -0.5742464999248572 -1.372221928686483 -0.001598934303208128 0.0009210537711905522 0.4604025039279403 -0.32658152504219057
104896000.0 0.5483026789252828 -0.8333722206555474 -0.6231734513212038 -1.406327672760662 -0.0004556264524485443 -0.0018813576335681512 0.44031837064531754 -0.3329643818192162
105895000.0 0.5398705754159923 -0.8364973703222296 -0.6709218089382981 -1.4530355482822717 -0.003573800463646514 0.0003435462446148456 0.43908745049284026 -0.3449372837019762
106894000.0 0.5305825407036968 -0.8419018943994662 -0.735437332899349 -1.4936274306154436 0.001882500623670658 3.314531996502706e-05 0.42419738448175026 -0.3531565524067792
107893000.0 0.5226622532224241 -0.8489642792876851 -0.7955248715040552 -1.5285804550887914 0.0014021658230502659 -0.0018172913032229506 0.4302365749321542 -0.3832254179874409
108892000.0 0.5124926272246213 -0.8536137669791914 -0.8556851656223436 -1.5611823731498709 0.003774695639871055 0.00198246653725566 0.42571391800315517 -0.36790822969784587
109891000.0 0.4999579730424402 -0.858717722630839 -0.9128893703012949 -1.5936903488729879 0.0015375257080090948 0.0016930765019074394 0.4392236556820056 -0.3837946477718716
110890000.0 0.4808843360647743 -0.8655566948019877 -0.9815670694463139 -1.5954948811821914 -0.0027545265012318275 -0.0028093599477125647 0.4272367802989524 -0.3807962078799955
111889000.0 0.4798234512910143 -0.8660984971307707 -1.0419698368009973 -1.665287598043324 0.003041858721121727 0.002490382474266893 0.41829208072992735 -0.3917775630426376
