! Created with skrf 1.9.0 (http://scikit-rf.org).
# Hz S RI R 50.0 
!freq ReS11 ImS11 ReS21 ImS21 ReS12 ImS12 ReS22 ImS22
1000000.0 0.9854265689199787 0.010288129186637351 -0.0027199767022663343 -0.04726364466305501 -0.022630920692546973 0.002189004676959194 -0.6980603265176754 0.029261670554607752
1999000.0 0.9936568112362687 -0.013915776793990043 0.0014741208052674278 -0.024107689809560302 -0.0075414214894204525 0.0028980401404927773 -0.6943747046297152 0.07114291139421884
2998000.0 0.9990325702090274 -0.017826041197776702 0.011192942768727584 -0.018087892836258977 0.0012016232297078879 -0.005124236259544088 -0.6777511802353696 0.10444849754095775
3997000.0 0.9961787833432725 -0.031862850220242114 0.0037947122274088157 -0.005296082533047803 0.0005108902883144934 0.0028822877769291073 -0.6456930460448774 0.12982626447405718
4996000.0 0.9988836384896956 -0.037940777125369717 0.005249295719556126 -0.0039341328651749585 -0.005030916100037199 -0.007234680850084991 -0.6296007618404958 0.14963825279609205
5995000.0 0.9949771240834056 -0.0498442130257395 0.012677851752407236 0.009026557196937533 0.0027940431645224334 0.0038399651813116045 -0.6176056665795268 0.16973527898129598
6994000.0 0.9922622098189543 -0.060972464483695296 0.008233713215541767 0.0008756456522069014 0.002470511667076684 -0.004514255025919335 -0.6284434247235873 0.20015800417592314
7993000.0 0.9943539587152699 -0.06703897369263132 -0.0006287645797709784 0.004061836921142259 0.0016252256389533801 0.00018933552080256137 -0.6579015103371191 0.21626409321044843
8992000.0 0.9934118754905318 -0.07242529503311886 -0.0006111368497271504 0.004765421779151304 0.0003856053011330495 -0.0018202772396923746 -0.6509048424054332 0.23485306318027482
9991000.0 0.9910104528952406 -0.08373738536030491 0.0006047193765300906 0.004126026007481056 -0.0007106647000473426 -0.00017765045940728783 -0.6387557000946077 0.24908558744063797
10990000.0 0.9926285256615415 -0.09391517851760933 -0.0004946293760336377 -0.0011459633628146996 0.0015719105119785279 0.004218749247292544 -0.6126322182045664 0.2554174881145623
11989000.0 0.9903122953691954 -0.1003846753772482 0.007863148917624938 0.002495748788410755 -0.002650193981261582 -0.0017367847916724992 -0.6070112118286043 0.28161448024625685
12988000.0 0.989113392934036 -0.1089582215508274 0.0017470702891021952 -0.0022086595932004492 0.0032603044779343448 0.0025576551843556356 -0.5925318329065601 0.2867302079750098
13987000.0 0.9877162342806531 -0.12131040613420574 0.0020076493219208422 -0.00258897750239178 0.0004776929604790082 0.002553145586234518 -0.5841036087849908 0.2992682555039047
14986000.0 0.9846707146899113 -0.12806477846019673 0.0012372967110649002 -0.004519229919022485 -0.0009563539564107223 0.0004965043877374685 -0.5662584580566293 0.3185030379781778
15985000.0 0.9893830728537657 -0.1332684544235439 0.0011951691387904239 -0.005496231185283508 -7.221376296662368e-05 0.0019012469506897837 -0.5515082909969848 0.3379092488029665
16984000.0 0.9849679845325978 -0.14623067289659902 -0.0026904738200655477 -0.001968738185930749 0.0008110903208145434 0.002030992440942349 -0.5418819811753733 0.34115714186053947
17983000.0 0.9845913652797991 -0.15407919598200623 0.0010091516645896021 -0.004972690658273952 0.0028879429124729844 -0.004135179038554082 -0.5279422185636268 0.3608436773217949
18982000.0 0.9822267822530377 -0.1613972816897589 -0.0009352440443184539 0.0005191126176696746 0.0009252307526011384 -0.0017093801840088502 -0.49823382786004916 0.3677234823572231
19981000.0 0.9801058490836213 -0.17012362451192276 -1.1651673491253885e-06 -0.001538259029277998 0.0046139791339488865 -0.0023349032058704888 -0.4878032209999708 0.3778642493913041
20980000.0 0.9791445548867083 -0.17854379241158133 -0.002429939983303919 -0.0026763257719569474 0.003955335900646365 -0.00140728018981936 -0.4724972740051957 0.38567183853978637
21979000.0 0.9786205737936321 -0.18620793784321413 -0.0035508822305748604 -0.003789741946186799 -0.0008282546251711701 0.0018563004518791038 -0.44434889670063005 0.4018760926590842
22978000.0 0.973109552833076 -0.19783099179605484 -0.0022615674833690045 -0.005166518863758072 0.002467524428444378 0.0007520296325087501 -0.44784754002688676 0.39550424588348737
23977000.0 0.975312540792482 -0.20360488836202612 4.440373106118951e-05 0.002970677574475703 -0.0004437277449323333 0.004153716784580079 -0.4254330068730312 0.40879082581189535
24976000.0 0.97245224914211 -0.21363114430122665 -0.0073609022052264364 -0.00624037951163169 0.00025670726328953997 0.0011928561170918286 -0.4058682404066147 0.4036791942709439
25975000.0 0.9710147904837153 -0.22762777446934418 -3.328676149432608e-05 -0.002525315947522254 0.026625370298180517 0.0006726904310421465 -0.3895419457362841 0.4319625265320939
26974000.0 0.966852913401357 -0.23260573808981588 -0.003906217028002913 -0.0022852883840426114 0.001072360149677559 0.0003485517734390733 -0.38601276970289433 0.44173379345064856
27973000.0 0.9665616945381661 -0.23697945184447716 0.0009224754424334929 0.0011406093133269303 -0.0015860550621258523 -0.0019236263276439527 -0.36378203568547957 0.4314135511148537
28972000.0 0.9637585898319072 -0.24658709696619044 -8.275123087031792e-07 -0.002576564375257948 0.0003377293760816732 0.0006252888503175823 -0.3424819823186336 0.44142849142199597
29971000.0 0.9629431207863162 -0.25689850591685054 0.0010800997583705811 0.002066196194088986 -0.0015195046196295901 -0.0023432519697045677 -0.3104186109062763 0.4608676213372098
30970000.0 0.96025107844933 -0.2627230654832171 0.002698264417222774 -0.00030325021772530396 0.0036983922657589058 0.0032797323255678514 -0.28937166053928604 0.4736668396549797
31969000.0 0.9561966584886136 -0.273583404270452 0.004637802083279497 -0.00030383183153244957 -0.00040288352076036445 0.0006695504662120197 -0.29664674036956895 0.4497646873511854
32968000.0 0.9549000361401405 -0.2834287879160449 0.01098622979807621 -0.005120612803558023 -5.604941505682597e-05 0.0018197309734966313 -0.27357406281160807 0.45337016054185825
33967000.0 0.952422875176265 -0.2927822341160351 0.01322177391463691 -0.0034027895086571193 -0.0006322722502106751 0.001653120636878788 -0.2614038542745548 0.4649822415699414
34966000.0 0.9501736268277341 -0.30152262005532837 0.015548345168660858 -0.0038281833867097478 -0.0003997515412254042 0.0011007749830514472 -0.2501257517457981 0.4679990291481376
35965000.0 0.9468268176307774 -0.3064044870186705 0.018399727422424447 -0.008096230329392926 0.0030496753874779702 -0.0008819647854144127 -0.23536137363101375 0.47959340932765365
36964000.0 0.9465125549326724 -0.3170990694480592 0.017481180569717706 -0.005225119304267044 -0.0012856907922238537 0.0009990070245953224 -0.2283113381097351 0.476939560275243
37963000.0 0.9418767493736052 -0.32583347768823695 0.020345206095632104 -0.0108551618010168 0.003759555485630862 -0.0017732021968638822 -0.21525731172028953 0.4753629604417598
38962000.0 0.9392122451571976 -0.33682279007925825 0.027016981294052052 -0.009115058957946537 -0.00016391091697535908 -0.0023022879071472138 -0.19022628744150522 0.47611159705600725
39961000.0 0.9352911828113433 -0.34329113113559845 0.030453441690790048 -0.011171868756642753 -0.002688604406532438 -0.0003662464934976898 -0.17478193938314124 0.4773574990491591
40960000.0 0.9329273478093907 -0.34894666348073317 0.025228898383740317 -0.013781623067799564 0.0006420352506956245 0.0010512587796447678 -0.15265240511169823 0.4820293090400354
41959000.0 0.9284800149401803 -0.3627978611247352 0.03484337113893591 -0.014809906810117623 0.0045166609968631515 -0.0015862359334018257 -0.15069580922556652 0.4747554540043238
42958000.0 0.9249352052510574 -0.36992719983827127 0.041394930626731996 -0.022550236012247087 0.0018759448023043268 -0.0018690748726595684 -0.13774110429736347 0.4686032907395581
43957000.0 0.9246870081807018 -0.37392189282498917 0.03900416201608349 -0.025670539347530455 -0.0008040307712177296 -0.0011036485720826276 -0.13018683276346446 0.47865723890067485
44956000.0 0.9211437531639824 -0.38230061591497877 0.04299669017795717 -0.030399367370897084 0.0008340844520198583 0.0038971054580289118 -0.10330450053214489 0.48059052668692304
45955000.0 0.9155811315042028 -0.39421662925158746 0.04696769438381865 -0.0342891457216159 -0.0005041016479422105 0.0008357541524461291 -0.10258904935711675 0.47655790658202596
46954000.0 0.9111626398823759 -0.4030053227633351 0.04781159287841758 -0.04063011295244513 0.0009024067500445216 -0.00040782841804377034 -0.06440392877541869 0.4658706198413147
47953000.0 0.9095741694705117 -0.41006722402677936 0.050050238077789445 -0.04574812113613624 0.0003600479744274917 -0.001435327415967054 -0.04848082637586396 0.4646693422812864
48952000.0 0.9024640179861914 -0.4205647761346866 0.05344734782231655 -0.053237460799800684 0.003815264235083191 -0.0005226952002257853 -0.047202150413911736 0.4684914204252437
49951000.0 0.8990890406896151 -0.4284338354108221 0.05584349090736485 -0.06014002208645305 -0.0001853170353081158 0.0004916887007005658 -0.033191743034935925 0.46772087150276154
50950000.0 0.8950803431710053 -0.4378598976771856 0.057904916699526375 -0.0661403740079455 -0.0029444004204307395 -0.0007998750771009704 -0.024829324197247975 0.4630033766282402
51949000.0 0.8912156732991354 -0.444869151408556 0.06188254565570508 -0.07274929872850718 0.00029085450246117776 0.001420167018281322 -0.017993359014830432 0.4641143899618164
52948000.0 0.8890893503789797 -0.45506867653100863 0.06329893506277129 -0.08011527774562767 -0.003772855795938474 -0.0013988000267205686 0.008525353355150363 0.46420830913974365
53947000.0 0.8837286412472155 -0.4597143592377231 0.06772877336166347 -0.08661301827655254 -0.0038828751480789094 -0.0013389703973319149 0.009824865641589136 0.45000152415490186
54946000.0 0.8775756337458159 -0.47091621433608527 0.0706701877607668 -0.0957306220762613 -0.0017653360035632525 0.0006305484199586296 0.026742710186117156 0.44941815296780274
55945000.0 0.875959663571658 -0.4791718483555014 0.07324218225034017 -0.10230628463324215 0.0011623566445140444 -0.0007431915623969718 0.04405007997052312 0.4412661478860015
56944000.0 0.871398655397621 -0.4858823674215996 0.07802245449002064 -0.11213974962056346 -0.0036308755758055786 -0.0008537855107950182 0.06449551520395583 0.45411450486032295
57943000.0 0.8676042228334052 -0.49742997837850783 0.08262755299490056 -0.1208169906366025 -0.0026223096910741885 -0.0031453177506570607 0.07109275643409323 0.4432791765163831
58942000.0 0.8591640365900816 -0.5007125146890549 0.08883937439381132 -0.1304771092005269 -0.001116728197593252 0.002680937631009182 0.10143393032327837 0.441761076787184
59941000.0 0.8562792583190234 -0.5095585906818009 0.09308650114142461 -0.13725263861528328 6.0021597511826475e-05 0.00041775839402660524 0.10831801692012342 0.44418256130164757
60940000.0 0.8483572367038946 -0.5170720762303184 0.09395191213451934 -0.14111837015962012 0.0007401451844283423 -0.0007449143902788662 0.12050675401798563 0.4214975540973503
61939000.0 0.8459769245945701 -0.5244041926134012 0.09753981003761489 -0.15030242394943605 -0.0011806264111953928 -0.0013550667117112306 0.14085037945881848 0.42046067422329386
62938000.0 0.8393089573174116 -0.5346532932581255 0.10345822489075099 -0.16375429299622896 0.0015728789732969953 8.55949364504102e-05 0.1499835182399172 0.423903384447891
63937000.0 0.8352680441572684 -0.5425866924701448 0.11175960285698057 -0.1837523670500328 0.0015896679113461404 0.002239242201557571 0.1424337844842639 0.41658449309892737
64936000.0 0.8293286569985981 -0.5471669577769673 0.12043132372442818 -0.19647650800790914 0.0014491909121741773 0.0004128503281587355 0.14870570238956052 0.4046235880887661
65935000.0 0.8272715912576962 -0.5572508637076835 0.12011848497519055 -0.21037013185636624 0.007670821759432194 -2.9856583906920143e-05 0.16745478394649235 0.3929924353450503
66934000.0 0.8200600553471258 -0.5631118716579052 0.12466266265464108 -0.22099777511064486 0.003156489186449233 -0.0004436153297904156 0.16234992197510967 0.38675768910220226
67933000.0 0.8168288818808478 -0.5734240369484731 0.13003576090289687 -0.23438315419714925 0.0018090301551561818 0.0010077135111824195 0.18965810523746432 0.3810505189115151
68932000.0 0.8129073014449857 -0.5767321319906071 0.13005148898376637 -0.2507836719607266 0.0007146784256911441 0.0016991340592159372 0.20437012117557166 0.37543619442813736
69931000.0 0.8010977712185451 -0.5887526008075715 0.1353515480648457 -0.2670574675167309 0.0023533388670799464 -0.002055721599266514 0.19710164363069457 0.35938492427351304
70930000.0 0.7950450022954706 -0.5951594643505178 0.1382779054846097 -0.28102444429584655 0.0024733366893963994 -0.0012806118706640435 0.19817047624022074 0.35433427960151426
71929000.0 0.7917474439381381 -0.6061214675190317 0.14035376663400723 -0.2984182838712243 0.0025010201973824316 -0.0005394253064939959 0.2174226714781153 0.34389474980772755
72928000.0 0.7861746773109516 -0.614615991823367 0.13960413848156894 -0.3151784711854839 -0.0022216754628179972 0.005475138972776165 0.23580980671892693 0.34060941505657527
73927000.0 0.7771434803924846 -0.6192814305761607 0.13633965717659588 -0.33916642949880565 -0.0014604445122571033 -0.000930615501301215 0.24730536871246145 0.3267685165602609
74926000.0 0.7748539479673574 -0.6306731135250652 0.13388656239392446 -0.35629319107069357 0.003990702607229775 -0.002674351876184112 0.24791616250920634 0.32720589963921615
75925000.0 0.7667814156708984 -0.6336737949274319 0.1339706391698446 -0.3735686980374872 -0.0023885706702530683 0.002599761633632362 0.2641708194455452 0.3048622313332191
76924000.0 0.761297535740564 -0.6402336989063794 0.12474974672223064 -0.40135499708161015 0.002358418285282558 0.003554604121438121 0.2662683251019299 0.2982841687006083
77923000.0 0.753526904035398 -0.6493381714937358 0.1215252232829717 -0.42678688856434416 -0.0010458639150240576 -0.0010960908533144279 0.274291206874087 0.2935243362935292
78922000.0 0.7478088943320159 -0.6593668449193725 0.11112442730305194 -0.4526189760138419 -0.00011434131681607108 -0.0014558237044178005 0.2849361171925517 0.28457811189413795
79921000.0 0.7389020158138007 -0.6623759604026266 0.1027252144409851 -0.4812675993603284 0.00036188280197132437 0.0009960119301405898 0.28385518734464854 0.2750778884071464
80920000.0 0.7346860234901558 -0.6725007661766805 0.09617381569298586 -0.5061348421883358 0.0005480276855681441 0.0038126794482052674 0.28133831927520353 0.251311392532061
81919000.0 0.7284284144500293 -0.6793006402763186 0.08003333547888182 -0.537679191422557 -0.0022790379615324863 0.0017565702061386123 0.31440799725758317 0.24408447398078312
82918000.0 0.7198080352168558 -0.6874823637521545 0.07945886904214179 -0.5698231450036 0.011078548359652206 -0.0007678743316763594 0.3106909588562402 0.24783934759232654
83917000.0 0.7117338077963007 -0.6935234471204116 0.06265914125723987 -0.6007055781041722 -0.0028027796365067163 0.002099507564926424 0.3265852706812529 0.2345444704081782
84916000.0 0.7062387475014198 -0.6996120353922063 0.05868137811306447 -0.6385241374355523 -0.0022506950919859723 0.004168679717477737 0.32282022261615423 0.21574371541960752
85915000.0 0.7006102210280286 -0.708762522217461 0.04255245014189959 -0.6762677801076739 0.0023335710370557057 -0.00089969804802209 0.32468654572366606 0.20967943903977257
86914000.0 0.6913348963239389 -0.7180567142940514 0.040667667003796135 -0.7134156686499311 0.0005951277894174165 0.0013971441364294306 0.3293507339618772 0.20365116877585748
87913000.0 0.6843748185975358 -0.7236422416986104 0.031133752244415218 -0.7497204523314164 -0.0017256351591129907 0.003196059067857333 0.3347340077202475 0.19898788060718994
88912000.0 0.6768167119191733 -0.7306245696983635 0.016697632914188555 -0.7871019216973257 -0.00236121958165857 0.005470908637666336 0.34661856456294726 0.16629091253980766
89911000.0 0.6679029766306884 -0.7398718698111627 0.011505957430377349 -0.8259579441838732 -0.0006645763048748782 -0.0023764076241966263 0.35288741394340606 0.1749619606809868
90910000.0 0.6625356358137253 -0.7431687464727661 -0.0006941630299626211 -0.8650131108770421 -0.001590206080424395 0.002672395468260879 0.36019783385667725 0.1630332496331884
91909000.0 0.6510426015397848 -0.748746742831853 -0.016267484838455068 -0.9066318612965412 -0.0008853701251340436 -0.00042743520628292676 0.3702031591540653 0.14879943162979414
92908000.0 0.6440572549786203 -0.7577669040076931 -0.026225520234555353 -0.9414406311321106 -0.0016409858521581413 0.0025307393398405964 0.3577603599515544 0.13431594396546614
93907000.0 0.6398443554551919 -0.7636732334370048 -0.03905679105942392 -0.9814852234023397 -0.0017759888250436422 -0.0033895277826741744 0.3695104269279086 0.12361392322628832
94906000.0 0.6239551026924005 -0.7716382186265244 -0.04948036557394296 -1.0179770783994446 0.00016512321418159754 -0.0008712806775258466 0.37974185172857405 0.13104513944818283
95905000.0 0.6199885822868947 -0.7786864090831985 -0.06548578665463287 -1.064805819963069 -0.002119787823638367 0.0008444655838780611 0.3883616925944439 0.08817292372190359
96904000.0 0.6082169963023583 -0.7875213763536437 -0.07764815670304714 -1.1075535356007036 -0.0031811227881921055 -0.0033040500266256385 0.37745701854444874 0.08238839636463173
97903000.0 0.6008881369192726 -0.7924395649730557 -0.0966356027630813 -1.1486641967061633 -0.002084986666433867 0.0023794330125038177 0.3825477660687778 0.09098895135008236
98902000.0 0.595791640020547 -0.8000271935750853 -0.10803536895631294 -1.1911717228756202 0.001043445961575574 -0.00032108893486949315 0.39185158568969053 0.05895737882771822
99901000.0 0.5872812850469703 -0.8050128514015036 -0.12726836445940382 -1.2345170144752273 0.0015706269513205444 0.00010386814758732335 0.3994870216105333 0.04828744174042882
100900000.0 0.5784342690471465 -0.8079325467103633 -0.15773132181085292 -1.2763329545208026 0.0020380929331283862 -0.0015256785697951364 0.41237839592760844 0.03756933835464343
101899000.0 0.5659082437044326 -0.8184020037709857 -0.1785501613973596 -1.3199103058848267 0.0004226312272833239 -0.003811101637492282 0.40906826314880435 0.033587753901488084
102898000.0 0.5572886795637323 -0.8208090837186878 -0.20635955359329877 -1.363963064738109 0.0012035702262234442 -0.0013847818844671704 0.4117464771667781 0.016221266636975932
103897000.0 0.5496159788091464 -0.8286337008652641 -0.24711022808819216 -1.405681639889773 -0.0003991267160046914 0.0004627332500494323 0.42778362413262 0.002976528778844811
104896000.0 0.5398195787143131 -0.8383028949310039 -0.2782122588200181 -1.4508146334588246 0.00020045000969444468 -0.0007639912491557067 0.4211907333709104 0.009441482607867948
105895000.0 0.5302740428539487 -0.8396648456237336 -0.3227666548935813 -1.505680634169746 0.0004642042186993011 0.002618349600190504 0.41304800082292326 -0.02025806248574576
106894000.0 0.5216866945142238 -0.8471662919503011 -0.3710234383725911 -1.5524663711636977 0.0002788692824255401 0.0006500309030072834 0.41901490498023575 -0.03503667176550835
107893000.0 0.5111000316372972 -0.8523638792665688 -0.4099456518626962 -1.6046780179259852 0.002097215050307827 0.0027427739411884345 0.4083298443543728 -0.04767025925976989
108892000.0 0.5015331342195843 -0.8575700292395254 -0.4755817942251364 -1.6553743669788414 0.0011937411467648274 0.001414293670678263 0.41748111108736224 -0.04289814520770688
109891000.0 0.4879460860525404 -0.8644622539382543 -0.5242030789023464 -1.700960994039928 0.0016277194028040452 0.0030054533201723903 0.43712989340926417 -0.04255783719945511
110890000.0 0.4852113480548906 -0.8731987995014399 -0.5843076000382526 -1.737998147634668 -0.000656992436586638 0.0010372300687561812 0.43298775765684483 -0.05507042815257046
111889000.0 0.46726589408970093 -0.8705752657349923 -0.6408540714300528 -1.79478181873244 -0.0007600072121301556 -0.0008026183720935802 0.429014602016956 -0.08146412311093053
