! Created with skrf 1.9.0 (http://scikit-rf.org).
# Hz S RI R 50.0 
!freq ReS11 ImS11 ReS21 ImS21 ReS12 ImS12 ReS22 ImS22
1000000.0 0.9923626230981608 0.017400891500944125 0.014685984634808441 -0.05710852563108393 -0.010646075670316437 0.013512721753662228 0.3047196475190791 0.3296564041693231
1999000.0 0.999791420102461 -0.011979809981558837 0.00364903785672816 -0.024103912817985896 -0.004086195903405428 -0.004031191220469788 0.2670073693151184 -0.06065813279899031
2998000.0 0.9986183602134138 -0.019683895145086262 0.011658798717560658 -0.01632598366296518 -0.008412838887889554 0.0004893253892230035 0.19589119772811794 -0.11858660130741329
3997000.0 0.9989358644786729 -0.03330005284089758 0.01055828745326294 -0.00679195109672989 -0.000586346705414674 0.002045778554743733 0.11520077708761557 -0.21135142124530298
4996000.0 0.9940844499130828 -0.04193592421353906 0.018301795141236445 -0.006486255486844004 -0.0044191957385829065 0.0006860232050642871 -0.010781208879927208 -0.21310205849380567
5995000.0 0.9946510130045852 -0.048282593656536275 0.01471166036650844 0.0005954011262416086 -1.373881529601797e-06 -0.005842787019117951 -0.1298725839841087 -0.14563819925517696
6994000.0 0.9919197777293705 -0.06031688422619571 0.007238463515086419 0.009939481887953856 0.0012663078270782632 0.0005873822678676362 -0.16349982636390628 -0.054662158076520334
7993000.0 0.9948471244533917 -0.06490512463640856 0.005930964898179927 0.005787339790815601 0.001610671013928348 0.0012958016656074444 -0.17339189126540192 0.014545676203499206
8992000.0 0.992348583484675 -0.07511108578265265 0.003820661894214146 0.003505203366111584 0.002198391317832376 0.001615124525161831 -0.18009502719783854 0.040507045934871665
9991000.0 0.9929462954125057 -0.08242499487407418 0.0011468379053159764 0.0002830388456492563 0.001080557575362545 -0.00026815725000569685 -0.16540542171431136 0.09004440135572458
10990000.0 0.9901436024500554 -0.09146810053907711 -0.0013539146403189052 0.005364461635059955 -0.004459264814182056 0.004411749448359219 -0.15641872092675402 0.0950812155666841
11989000.0 0.9899831417959221 -0.09918602825436282 0.004552115486868458 -0.0006934411394728081 -0.0008395153977795574 -0.0028744322064915766 -0.14042900263180486 0.12611440076706762
12988000.0 0.9893700665594373 -0.10783737202924862 0.00014076123552759535 -0.005856164500244271 0.0009377531854477729 -0.004324845990527588 -0.13180787064183988 0.1648530334627301
13987000.0 0.9849839948682487 -0.11667498891530263 -0.0016125146927820425 -0.00933561455363074 -0.002158409048618139 0.0036526500419480842 -0.11665429754548806 0.18529984822489395
14986000.0 0.9864962014510873 -0.1227273285930063 -0.0018373579960140407 -0.005998601439884405 -0.00013602671188167205 0.001167438329872144 -0.10519501315860835 0.202136609280853
15985000.0 0.9875422756632637 -0.13441591148306284 -0.0006692232868738586 -0.004027679637258499 -0.0005012773606295697 -0.0017859812899213845 -0.08680410960017476 0.22017707048046772
16984000.0 0.9832546477860028 -0.144763972452484 0.0005984427175698216 -0.004435503845719406 0.00019476212591822958 0.0014826066239258516 -0.07199478661409948 0.22062971080529992
17983000.0 0.9841660819329673 -0.14982054806571782 -0.0036519922256500197 -0.0054444383897691235 0.0013742376155240013 0.002372820895280321 -0.07195648175673164 0.22555898878597844
18982000.0 0.980519214152963 -0.16034425928562557 -0.0026500418964178723 -0.00815188446822144 -0.007093579917423546 0.00010701732647729326 -0.036486374121037904 0.2386335344852849
19981000.0 0.9838889447358635 -0.16406450004662376 -0.006456387009108862 -0.0031839886430561144 0.002672889303041241 0.004311080072347034 -0.028644834051001603 0.24563535549189694
20980000.0 0.9799011104274783 -0.17916485336972496 -0.006408702269027721 -0.006586251591752241 0.0020935362867094717 -0.0011552378044068314 -0.02124677981095255 0.2571180371286209
21979000.0 0.9783174104652522 -0.18305276795930525 -0.004117471233718265 -0.0053749478218120955 -0.001061992159236447 0.0014403484724955656 0.008959187604416285 0.2539198946985424
22978000.0 0.9763149612255758 -0.19396595091175728 -0.006066393132115023 -0.0037635544389616167 0.0004690155845446707 -0.001333305631747733 0.00600403645031393 0.2629308187339653
23977000.0 0.975185878401476 -0.20084458373414454 -0.008792913641201975 -0.005816095564454235 0.0009540212813048881 0.0036801185596278528 0.02471286869969811 0.2607828698927931
24976000.0 0.9726572992363111 -0.2109673531196833 -0.007366078812885446 -0.0011764528542976666 -0.0008968718808477273 -0.004169133172440605 0.04186013794331592 0.25824049969903357
25975000.0 0.9731563150790687 -0.2205582871889612 -0.0025891183312997407 -0.000726397934763477 0.0023936453404961385 0.025088454658155436 0.0415251878768189 0.25262668111441616
26974000.0 0.969044878386892 -0.2280848050553429 -0.006305012256974787 -0.0030774954746835446 -0.0018415969536789084 -0.0026362634418435056 0.08181205100164518 0.26678730738060646
27973000.0 0.9681078679643517 -0.23572698837748193 -0.007114993599353831 -0.0025825321585904817 -0.0019299188124069322 -0.002092992517429964 0.08513064212568469 0.2628082471755949
28972000.0 0.9665025518893301 -0.24208919331810907 -0.003986568424440053 -0.006984814340106511 -0.0010795346785062083 -0.0026040390239208205 0.11126482724726267 0.25065479426022713
29971000.0 0.9625967628518659 -0.25367719466500865 0.002013263459870151 -0.001365163250330036 -0.0025773078997631937 -0.0010185487682969506 0.13992847006070422 0.27885429326885147
30970000.0 0.9615332763695441 -0.25919120287357356 -0.00042683053647588087 -0.002439171972951418 0.001658404828349743 0.001214746328130388 0.15511004177828294 0.24964083065183731
31969000.0 0.9600229499768407 -0.2675112255471994 0.005498243461436381 -0.005510547991195801 0.00022609946644404052 -0.0015193647235350438 0.14264086380695346 0.2405764460902317
32968000.0 0.9565534559870651 -0.27821699678344985 0.009497214762255434 -0.007120689307194735 -0.0024947725740368603 0.002086234832571228 0.15439878758047648 0.25100196287415544
33967000.0 0.9546765155495063 -0.28834314884223183 0.008654835337414358 -0.009774240490244945 0.0035144024229199883 -0.0028377863137090007 0.17485881470217693 0.24439643849481468
34966000.0 0.9515455512923489 -0.2958237035562567 0.015071121438001288 -0.01259599319629135 0.0005815361714628241 -0.0012978684375684465 0.17917255463856596 0.2529389393278348
35965000.0 0.9493439319580853 -0.30369944349531247 0.01623166305870329 -0.015175375303389598 0.00260932477670076 -0.0009352344624186658 0.19720130759037519 0.2503361106705268
36964000.0 0.9477420728531676 -0.31257044816965873 0.020761467468122182 -0.013892585294685234 0.002809142960420559 0.0018904944297245675 0.20212892952548472 0.2528351011961781
37963000.0 0.9432469656176995 -0.32212849976058067 0.02419525036029907 -0.022048967294239604 0.00350915443733934 -0.0012655514413099213 0.22197404733751558 0.23562499631745865
38962000.0 0.9413442818150075 -0.3302137939611058 0.027627913206964037 -0.0280919917956784 0.006126239957070419 0.003547728805840976 0.23957334327151253 0.23500841456362795
39961000.0 0.9374282613796137 -0.3391352014931431 0.02839566131426435 -0.031921576932469845 0.0006120378870667772 -0.0002459381409152205 0.2392443186331439 0.23434556648198557
40960000.0 0.9347772006455839 -0.34484095800122927 0.027411640207847993 -0.024827554449955214 0.002462180876912972 -0.0006087822298359797 0.2540977319533453 0.24246059831685204
41959000.0 0.9329400465366774 -0.3566856242871898 0.03452566194271397 -0.031068813442380327 0.0020352755014057746 0.0016695475409455925 0.2538950830345735 0.21432719032093675
42958000.0 0.9274246714929538 -0.3645499379113741 0.03941436810469498 -0.04003182689970073 0.004922959631775848 0.004774797172991269 0.26545814244534566 0.20800951171152385
43957000.0 0.9251402404355327 -0.37187816864516915 0.03628861998891661 -0.050848096348929346 -0.0016442588384490496 0.0024851117144873347 0.27663415376047257 0.20606231570383565
44956000.0 0.9212402517699574 -0.37896495211012005 0.036278471662528095 -0.05417773859179752 0.0036761430266050344 0.0017010654956359503 0.28559252910329885 0.19475077376067448
45955000.0 0.9173255787876226 -0.3889386250193638 0.03743847466102107 -0.06111853496465768 0.0009031160704200759 0.0037182022070684916 0.2909348102502044 0.1974012790705206
46954000.0 0.9138853360939994 -0.39709281133931135 0.040043504611909406 -0.06810963793330567 -0.0012948207937502466 -0.0012744444947003306 0.3162556968345156 0.18832023954082833
47953000.0 0.9090464199623914 -0.4069566090623907 0.0408446541941294 -0.07492034324709136 0.00042428076102802675 0.001731166544514559 0.31879937918116297 0.16986006122012637
48952000.0 0.904273588679267 -0.4174867054878752 0.03761462772329564 -0.0851331949341024 0.0037743378172153657 -0.0009588400484637396 0.327346868703158 0.16347714896962648
49951000.0 0.9025726065011678 -0.4214184224339132 0.043412618201527094 -0.09099978764974367 -0.0006425845659436494 -0.00015532175271999632 0.3415599412976374 0.16819087484983983
50950000.0 0.897888421502206 -0.431920785951865 0.04183747851363874 -0.10040894799524003 -0.0012179078131999632 0.000590421700727949 0.33387106622239643 0.14649310446406735
51949000.0 0.8937457603611288 -0.439738852737062 0.047247417957766186 -0.10900560890804727 0.005416002012945692 0.002512754445835927 0.3484764721312955 0.14812965265579478
52948000.0 0.8926102565567718 -0.4476146093400593 0.04663182877858084 -0.11562159270017483 0.002570166250325773 -0.0060504425763481424 0.36285565311826246 0.13997285345422936
53947000.0 0.8858753112045827 -0.4557702379041259 0.04949295760667311 -0.12391167317401562 0.003029788862561204 0.0033129938507036327 0.3620041380422184 0.1297564560255498
54946000.0 0.8796210974158952 -0.4644640457568876 0.05137304075778109 -0.13540756420635947 0.0010686620744034354 -0.00047151947144603325 0.37399027382869354 0.12997194460936115
55945000.0 0.8772951615556683 -0.472808923938639 0.0505812122737994 -0.14787999978970395 -0.0002751738867873334 0.0004895797276525569 0.37171101335733514 0.11262487024571001
56944000.0 0.8743590849793473 -0.4807945890565724 0.05541804511658039 -0.15826618072126672 0.0019199486859970646 -0.001312100296295274 0.38638872780008415 0.11656607883030322
57943000.0 0.8675301037327998 -0.4916158820292094 0.05576354225898052 -0.1679712764581519 -0.00036660201627906934 0.001557155266755734 0.386515078305205 0.09550045830717926
58942000.0 0.8621280550218487 -0.4984054915560662 0.05677550869602871 -0.18079243446435242 0.002333351134950793 0.0012577127841935313 0.4114781513813795 0.09504941056420368
59941000.0 0.8605912132541936 -0.503408738843174 0.057409239185810555 -0.19161372827140125 0.0020328949338451166 0.000748049089821557 0.4078802185892429 0.09092003827034746
60940000.0 0.8531635612698215 -0.5120685529549686 0.05715570436604843 -0.19725377212682366 -0.0011049548688288784 0.00015733932877814096 0.399196574704918 0.08669011967664401
61939000.0 0.8491254327683138 -0.5188206994164976 0.06093126852345505 -0.20551770641811526 -0.0030944523733346502 -8.035837918070802e-05 0.4068197559964403 0.06874198387126161
62938000.0 0.8431210084381691 -0.5293695356697484 0.06144173927347322 -0.2233675500269691 -0.0017911843280900904 0.0005079786756404752 0.43338515721189297 0.05815899755698056
63937000.0 0.8385675247308927 -0.5384262606482931 0.06288445785906846 -0.24612242548733962 0.0023328769821518765 -0.0016393637709629777 0.41598368274204145 0.040306677911465714
64936000.0 0.8325124062232028 -0.5425450061464514 0.06237516622852361 -0.2573442632359503 -0.00030809488708778856 -0.0013843944741768375 0.4249412712511592 0.046257156898568005
65935000.0 0.8293043773919198 -0.5516407244462651 0.06172130948272486 -0.2752203577905306 -0.0021925852825976306 0.0009498069332955353 0.4296591140282968 0.02277124291406018
66934000.0 0.824143920967945 -0.5598074608797042 0.06043819973211235 -0.2883305761763419 -0.0009168514457969889 0.0022049666097508076 0.4289484798344818 0.00923255082017614
67933000.0 0.8209810451967355 -0.5670541866521008 0.06033427679263167 -0.30434857755409356 0.0026535210798850194 -0.0011742020426680573 0.43580338275657277 0.0038936901286716324
68932000.0 0.8042459485351974 -0.5626819522489773 0.05502838011767233 -0.31107621722816575 0.003570277405443583 0.0029567187949108447 0.4404516535149718 -0.0016565168176791995
69931000.0 0.8076281013568787 -0.5808719171897392 0.057933214981334476 -0.3359200008959968 -0.0015876169529876658 -0.000991989610581764 0.4451813358359687 -0.015557512001038956
70930000.0 0.8027997833861487 -0.5888480082399471 0.053546746355188794 -0.3530691814995088 -0.005234222356316393 -0.0020019329127464952 0.4345360025607879 -0.020109857670577685
71929000.0 0.796398230000862 -0.5981719374072091 0.046712820033173924 -0.36979186200557246 -0.0008383256351890923 0.003010529528033367 0.4411613743559424 -0.04535409880943589
72928000.0 0.7904993361504069 -0.6082171585764132 0.04359121310175772 -0.3880104020074167 0.0001564221866855877 0.0040133814401277015 0.45003603126453057 -0.039873451555019535
73927000.0 0.7829082631224865 -0.6139546918857542 0.03608838707762121 -0.4122709967964952 -0.0008260225524696017 0.0015733595428053325 0.44399529861753817 -0.04748863972165443
74926000.0 0.7770301624558661 -0.6211581297888729 0.025868603334052203 -0.429193699419674 0.0013754007433982342 -0.002755624309636491 0.45024205567126674 -0.05601914220399968
75925000.0 0.7709033854351948 -0.6288334142334961 0.015040070919716085 -0.4510239364900381 0.0008704970962284886 0.0016884677476214252 0.45207028646982567 -0.0757331015414647
76924000.0 0.7647591796785527 -0.6361250398493894 0.004758843879404513 -0.4770900506447619 0.0008570692421843394 -0.0005798437129102651 0.45234485285798537 -0.08387886708156918
77923000.0 0.7598974858709706 -0.6419198800410983 -0.009266142862230433 -0.5021128157193527 -0.0032470437604588715 -0.00206620518597866 0.4488416948421837 -0.0951195223715722
78922000.0 0.7532921571647887 -0.6529504591215318 -0.02166926820096766 -0.53007795363991 0.0008365328330558294 0.002263375646466929 0.4531716425495892 -0.11709947759878062
79921000.0 0.7448006205185198 -0.656549294929351 -0.04029179568028192 -0.5556871673782456 0.0009541955224860561 -0.002293072968200655 0.44688365830840987 -0.10962390597808648
80920000.0 0.7403954005790245 -0.6667639483081143 -0.05498076269351885 -0.5849998878065182 -0.0054319985012425825 0.002443431704590562 0.4532928699579771 -0.1206958699635595
81919000.0 0.7354792383764327 -0.6720224380972873 -0.07129971651943169 -0.6178652585711941 0.004768211118095926 0.001219673693186173 0.45857655707925715 -0.131282721522426
82918000.0 0.7239600224938577 -0.6808833470336112 -0.08544755409295518 -0.6491286394541004 -0.003932580460068038 -0.0001359208418898861 0.47009254337211687 -0.1389340766224556
83917000.0 0.7180308205409927 -0.6883903919392171 -0.11082455077976688 -0.6774382871158545 -0.00026793800414022306 -0.0007933615142886336 0.4651174123988542 -0.14208944849071023
84916000.0 0.7126586063519631 -0.6953821997761214 -0.1205190511336164 -0.7159669728820268 -0.003700990503649862 0.002486520446003519 0.4574755652062676 -0.17021190913448445
85915000.0 0.7067749769947047 -0.7011351440393889 -0.14219015149557848 -0.7457981810561517 0.0016969910089169062 0.001211798382634331 0.45041155146151896 -0.1705625180220657
86914000.0 0.6962936183104259 -0.7119742170880734 -0.15565383769862176 -0.7882344580356095 -0.00146745343023897 0.00020140876136822013 0.4530260218031316 -0.17487860963316396
87913000.0 0.6924687691048451 -0.7171288685183581 -0.17800770971527693 -0.8188021565359497 -0.0010112367109117218 -0.004083660029251266 0.45042834967003914 -0.18038998765320907
88912000.0 0.6837900727054262 -0.7240685702821992 -0.19856674353784518 -0.851962843122149 -0.0021399304997107506 0.0004488462242502415 0.45486813703810774 -0.2004158984249534
89911000.0 0.678307184567248 -0.7328186315326961 -0.21134927944995072 -0.8903115647490977 0.0019925975934230343 0.0005074510697877508 0.4614658538319504 -0.20811693817454896
90910000.0 0.6696969002273475 -0.7380246757113762 -0.2285204513351645 -0.9274498591361006 0.0017534831361301522 0.0014379241594420639 0.45452321461379974 -0.20709767369803483
91909000.0 0.6597041111265188 -0.7428128968042824 -0.25035295906452576 -0.9592220695900588 -6.697951998671224e-05 0.0003061900465967331 0.4598426246810906 -0.23094678524804294
92908000.0 0.6530079032062238 -0.7511184689056787 -0.2682002372234754 -0.9939252896537403 -0.0032030152801252676 0.00044525530863208753 0.44718286798752394 -0.22354167051906176
93907000.0 0.6474557821759104 -0.7561692752631384 -0.29292373607582894 -1.0241768549129482 0.0014124278589718819 -0.0014864366946829948 0.4551555454257444 -0.25699796137944975
94906000.0 0.6339267593349847 -0.76508922589463 -0.306397293285972 -1.0636639757663273 0.0012331354812958777 -0.0041931434445381405 0.4546838259520384 -0.2513363969297255
95905000.0 0.6291791956759962 -0.7700087431221195 -0.3328279116602622 -1.0989532557888297 0.003400239939791737 0.00015443957355899896 0.4512349961699015 -0.2640448327472988
96904000.0 0.6197954582345295 -0.7804432435288614 -0.35810167195677656 -1.1428577340171266 -0.0021292864798555023 0.0030899529067616167 0.4367333212974451 -0.27169204771119565
97903000.0 0.6111009314426354 -0.7831992971185198 -0.3813762201028862 -1.1742702499152549 0.002456348535357389 0.0014149854631930353 0.44454696326107823 -0.28262436824052084
98902000.0 0.6056406256199737 -0.7936394707678336 -0.4041917126184217 -1.2138556343040088 0.006647843800950314 -0.0004440936841100966 0.4429217879902442 -0.29660256935759205
99901000.0 0.5970273429416634 -0.798517547904877 -0.4392457123352867 -1.251548822991363 -0.0001224553179090033 -0.0009474375302049231 0.45065429569919374 -0.3168166091051156
100900000.0 0.5862020843611877 -0.8012277703347527 -0.4721929262808716 -1.2766865971957675 0.003206158873771599 0.0030091867959692424 0.4554601253823583 -0.3134950748172712
101899000.0 0.5791159530345832 -0.8071893953657014 -0.4986981282423503 -1.3251059053708034 -0.0007950173884693844 -0.0003099239509239646 0.4433483335863178 -0.3169923839640868
102898000.0 0.5674928829446029 -0.8151402837255827 -0.5455998164139926 -1.3603254933853213 -0.0012553072843011189 -0.002525021355252377 0.45520160725558545 -0.3154175020142854
103897000.0 0.5584605038320344 -0.8237135136615585 -0.5876751928550913 -1.3976751391359623 0.0026591045673662705 -0.0020710222896704513 0.4486015513131795 -0.3350968763199812
104896000.0 0.5501716685831837 -0.8324620939288442 -0.6354874155234995 -1.4339315530970307 0.0001276967408733342 -0.0011786806091966934 0.4190610800757174 -0.3339759665361764
105895000.0 0.5378897616509731 -0.8339023686212068 -0.6890090728312238 -1.4780463244770974 0.002849547892829061 0.0010796928090723104 0.42813399443054995 -0.36100168948904077
106894000.0 0.5320877153796816 -0.8410521119597946 -0.7433217759271896 -1.5213470940178146 -0.0030824506060853677 7.710498315898716e-05 0.4256664454881131 -0.36285384015952654
107893000.0 0.5223463288813847 -0.847439449523174 -0.7982784595888726 -1.5591525788890632 0.003127592280314084 -0.0041546295114149165 0.4342906025135681 -0.36190535350890013
108892000.0 0.5138131869550531 -0.8484039743731117 -0.860878359821577 -1.5989611877687688 -0.00023176800286078966 -0.003541394761895223 0.41792763109372366 -0.3716614721845519
109891000.0 0.501206033701754 -0.8593075273363758 -0.9236859565062391 -1.6414221383462433 0.0020787942153000782 2.361315309172167e-05 0.4337896560284197 -0.37243006538777895
110890000.0 0.48169896607417295 -0.8619514877416667 -1.002180104895433 -1.6325627644448402 -0.0014893015276647185 -0.002298420360616294 0.4195105413193261 -0.390611481856289
111889000.0 0.48212069896691573 -0.8642203315056021 -1.0598176314830658 -1.7120907840992616 -0.0012313044607043914 0.0008400042706233512 0.41797538318291155 -0.3930433306610077
