! Created with skrf 1.9.0 (http://scikit-rf.org).
# Hz S RI R 50.0 
!freq ReS11 ImS11 ReS21 ImS21 ReS12 ImS12 ReS22 ImS22
1000000.0 0.9876655913282091 -0.002590250443791402 -0.012736419458517077 -0.04995751275580788 -0.00362321113284184 0.0023662438777418845 0.3577003803151658 0.35469257964381734
1999000.0 0.9936082865035685 -0.020163436964031015 0.006937615005281331 -0.022385882888673284 -0.008705373617607147 -0.0005677334692357442 0.23579773288519287 -0.04347044589377057
2998000.0 0.9999655332552924 -0.02496669027221692 0.00830397494275832 -0.015602193007857647 -0.0032523544680355034 0.0015225470292734799 0.20042963251032478 -0.11986749307788228
3997000.0 0.9951395742495992 -0.032543572975574184 0.013069659083788042 -0.008659559733407741 0.004332293334318748 0.003057994647251258 0.09507820988623512 -0.22325609836255095
4996000.0 0.9943791418308002 -0.03817157214264665 0.009731987358981202 0.0025583904729986153 0.003117615700257756 -0.004275939839100446 -0.02759107505555197 -0.21276481911652806
5995000.0 0.9940953183794101 -0.048798173227069704 0.008253440695560837 0.0002905059493784091 0.0026063833231213117 0.002441894400226002 -0.11966539168043958 -0.12372441176246092
6994000.0 0.9938751327336132 -0.060547959641121606 0.012181082777281766 0.004122707552750924 0.0035935666187808567 -0.0014290546262770792 -0.14763323510710202 -0.04250143224376253
7993000.0 0.9933945491492294 -0.06924304164180849 0.005812601767452781 0.004367447346197182 -0.0014996115425438181 -0.0012569838614991643 -0.1649575331011528 0.021692672887223395
8992000.0 0.9924733243903167 -0.07477178945720882 0.0006742205034253576 0.002397087027006291 -0.004926152512302948 0.002836913354780397 -0.14123673379323876 0.05923940486726559
9991000.0 0.9910829506316722 -0.08320021938203347 0.005651071525818978 0.0011461160125737556 -0.0006535275879690046 -0.0049960111254118925 -0.15944093473732468 0.0911404944637024
10990000.0 0.9911516134138586 -0.09295677609031465 0.0033809006737743666 -0.0022283029932376867 0.0016644892134856989 -0.003677720974080247 -0.14164177101038714 0.10609531417570268
11989000.0 0.988316535320788 -0.10095223403428799 -0.0025745377082242965 -0.002906936689013228 0.001881878272629311 0.0022091949287026983 -0.13917601439172583 0.13380521180818827
12988000.0 0.9864659626224643 -0.11110468672533443 -0.0004411451173328792 -0.0018552337673173051 0.0005481157151117898 -0.001108603434090158 -0.1203279395977729 0.16284963254841786
13987000.0 0.9870510623550818 -0.11742467952140453 -0.0016655394718777927 -0.005392188048660492 -0.002435782925202479 -0.001947998885880599 -0.10882935382994413 0.1896096143262699
14986000.0 0.9847665648285597 -0.12638739992482637 -0.003358539238279717 -0.003514840901752951 -0.0020348632624429576 0.00029635776419895663 -0.08451230975931717 0.20192951339255794
15985000.0 0.9867649878941762 -0.13731802170220117 0.0012407085300301358 -0.002350051183083138 0.0013529706648578708 0.0013906492338954678 -0.06296921088058842 0.20915912559418962
16984000.0 0.9845187577240694 -0.14496399011290798 -0.0029762126844192624 -0.007588505425550006 0.0011781149519106316 0.0013372467312671248 -0.05922072355418025 0.21265293338950053
17983000.0 0.9841072418821091 -0.15066229496854255 -0.003070246087801949 -0.0031836643543779585 0.003016052000905198 0.001457743093530458 -0.05432955696132967 0.23305713024551647
18982000.0 0.9792920161764562 -0.16216049140913233 -0.005711911480599089 0.00012302192528700407 -0.0007706688674973542 0.0003566341407371782 -0.03546047067461401 0.23693762778719812
19981000.0 0.9795829033732506 -0.16609066731105826 -0.004448983070182285 -0.004634666236486874 0.0017782961698794802 0.0013208273959499665 -0.00712295505837326 0.23796094986621083
20980000.0 0.9782722731766745 -0.17691169265410928 -0.008884205951386325 -0.004699905721762067 -2.220357398899906e-05 0.0012092255208659539 -0.004102145677620574 0.2613439698868191
21979000.0 0.975532773767945 -0.18915628042869614 -0.0038593468984504642 -0.0008023197020202008 0.001143974305255537 3.4095633203022254e-05 0.015758076323073668 0.25653741826697757
22978000.0 0.972683186140754 -0.19655103654540018 -0.006350924666924837 -0.0059181032451154185 -0.0007084378148287286 0.004216095826525495 0.028294946764261423 0.2537618499770358
23977000.0 0.9752224143236048 -0.2031256418496677 -0.0032282265386120042 -0.0030468838822477564 0.0005572591213239161 -0.0030232652014312764 0.04587254668143581 0.2646173683735811
24976000.0 0.9736464763043721 -0.2115561499675198 -0.005362669953365592 -0.004927058490394636 -0.0019138238799733785 0.002449739969679158 0.0699100040544426 0.25325989562042356
25975000.0 0.9726467904145961 -0.22437832509666508 -0.001645881437219644 -0.0028817567881443086 0.0031773103645381883 0.02569562182376403 0.07099687697593125 0.263057911897275
26974000.0 0.9660071667327278 -0.23005783746920636 -0.0015687082342718448 0.0034754751004470908 -0.0017201264129841688 -0.0013763726150480536 0.09296075701758158 0.2747923070970476
27973000.0 0.9666503370220798 -0.23689191608009696 -0.006554731338748277 -0.0017328188261417354 -0.00019081769335190833 -0.004079070534071195 0.10440913760636504 0.25840191754183084
28972000.0 0.9638468885079439 -0.24496418497109954 0.0016843580142878417 -0.0011146602848421212 -0.0014744050333178058 0.0013758959115889255 0.11087589025095312 0.2600698953225048
29971000.0 0.9612537339006954 -0.2571155242356459 -0.001093449003737506 0.0026664310770626444 0.0026019416210121215 0.00022621147267504812 0.15070140296406717 0.27049171940313044
30970000.0 0.9597246958008109 -0.261686896429762 0.0002195965830445176 0.0014782526296445993 0.0018611427578517302 -0.0028517928935839743 0.16643352940433653 0.25072239894954707
31969000.0 0.9581693406964062 -0.26892553019453946 0.0019101950314764121 -0.0044726238546319574 0.0020868956721900203 -0.0010073784128094882 0.14922387869659964 0.25258263595057856
32968000.0 0.9557289566530213 -0.282150202454167 0.00911947552309436 -0.0071895909189176295 -0.00435708554555525 0.0007474712601046984 0.16989336147712752 0.2484495552340597
33967000.0 0.9529606319702635 -0.2886810534774253 0.0073095420319022235 -0.01014501761770056 -0.0022177324721287623 -0.002836446028495104 0.18505614382947314 0.25284160703484965
34966000.0 0.9499123856031899 -0.2985388259902832 0.013293633818676476 -0.009618137099508461 -0.0015735346740213744 -0.0014003092423291528 0.1944068057367855 0.25853378682141287
35965000.0 0.9467148537795634 -0.30571224277274184 0.015002645994626662 -0.013701211609558934 -0.0039857191496201795 -0.0013636851218851776 0.21530891557498677 0.24960739805527243
36964000.0 0.9448888620334815 -0.3143423265566894 0.01577650251245836 -0.015457459743579963 -0.003177266903890114 0.0010298072563079603 0.22883382352384538 0.24750282911606805
37963000.0 0.9417574586998211 -0.32342040770683395 0.021124859584693477 -0.02083150939555231 -0.005500217550563143 0.0028483351093010773 0.23074056041544325 0.23398227648300027
38962000.0 0.9387750450781167 -0.3342618086090301 0.02122615148634285 -0.024229986348713144 0.0020158180959702634 -0.002005144840892753 0.24077531117926554 0.2391826077969045
39961000.0 0.9360648272322435 -0.3389150553467198 0.026151153164283392 -0.03009430543521798 -0.0029809930469730625 0.003233683762877603 0.2532740753036262 0.2221748674154957
40960000.0 0.9340863761274124 -0.3485997018718719 0.022208445121796625 -0.023846659533824595 0.00266607823631161 -0.0014266140600616456 0.27239911268946904 0.2243507576452327
41959000.0 0.9307412846991331 -0.35743593581033134 0.03119095104197582 -0.03042598527832859 -0.0012857802208030298 0.001499293583622538 0.27289418188643977 0.2170626176763994
42958000.0 0.925141025177606 -0.3662391748711872 0.029886911686779597 -0.04111126714571854 -0.0028921075071646793 0.004958689041087544 0.28232847298622965 0.2014447252381253
43957000.0 0.9231142735782424 -0.37288460507791665 0.03327157548250542 -0.04524305466966111 -0.005303359942548047 0.002828849237724905 0.285402833573697 0.206497699825215
44956000.0 0.9205073624368035 -0.3798487723550507 0.031004735899292132 -0.05200915215368489 0.0022681926772696462 0.002603974950125357 0.3036252164369783 0.18479730820712206
45955000.0 0.9162057707543811 -0.391856613190808 0.034128248877112785 -0.06080956833288534 0.00166250948029757 -0.002084324182947726 0.3100056746398756 0.1912421154559727
46954000.0 0.912187816123265 -0.40049159273106905 0.0369677667480411 -0.06561738181429086 0.0019366452300000137 0.002418098034472175 0.3196730587027047 0.17859555019556655
47953000.0 0.9100426974396081 -0.4080011607309982 0.0352452480852571 -0.07560980253372362 -0.0016237899049302154 0.00045535797120806106 0.3403093891091024 0.16994411417930763
48952000.0 0.9037238258279262 -0.41987593565830367 0.03626183286706047 -0.0812503680557902 -0.00020656310314931485 -0.002009393454961304 0.335695917412164 0.1592278428316028
49951000.0 0.900904869848335 -0.42286943603026517 0.03561241051095995 -0.08886578391872132 -0.0025876515748007424 0.0007951365499807173 0.3500295055321046 0.15205742966047514
50950000.0 0.897024384138251 -0.43353743972855613 0.037749926289835076 -0.09711000994373349 -0.004177106330778668 -0.001372856264569883 0.35648576897639306 0.14383677215270685
51949000.0 0.8927205739696349 -0.44050332697645495 0.03853663267304111 -0.10324814462562076 -0.00310316137351354 -0.0018963042542623689 0.36740903003563746 0.13918935690013098
52948000.0 0.8897168862730319 -0.44983787662070074 0.04012965797314496 -0.11307879320809186 0.001081070248065283 -0.001521548113349383 0.38272590853145716 0.1402023742907755
53947000.0 0.8853011439209099 -0.4563201041881985 0.041560104820918715 -0.12371188118331337 0.0009707387522025481 0.001065381639682344 0.37097500891529606 0.12580857143015342
54946000.0 0.8781746346806265 -0.46476102312215073 0.04093340913031521 -0.13159123176633095 -0.00045737288895553424 -0.005345660697822531 0.386772679376582 0.12845613511957982
55945000.0 0.8766106553862733 -0.4727653199931742 0.041559389588104165 -0.14073574408054332 -0.00027799225695124085 0.002312108642403327 0.38337122438731297 0.09842845745140233
56944000.0 0.8716346858472533 -0.4835993370611255 0.04502998762308239 -0.1532632385347349 -0.002525943697587563 -0.0010307124387246276 0.39868179869582243 0.09445769296967667
57943000.0 0.865487010505961 -0.493710229198722 0.044330793299498246 -0.16332884915775647 -0.000979646619931891 -0.0024098319419528034 0.4023381854503181 0.0953635202398982
58942000.0 0.8599861483826498 -0.4982765072587459 0.043631059028194884 -0.17426882441930963 0.003578588503187265 0.001637794940111835 0.4228212598896536 0.09441075990890031
59941000.0 0.8582432253648921 -0.5058470123864202 0.04829203276939169 -0.18687869465268106 0.0017049002385701238 -0.0023469888510650274 0.4190530347226731 0.08769686981391167
60940000.0 0.8502950642120434 -0.513347503161004 0.04696869540495531 -0.19011749519367366 0.00038540569476418755 -0.0031263998768518617 0.4130706388276733 0.08243647726011759
61939000.0 0.8472626318789587 -0.5207521938758782 0.050666405899065986 -0.1953283211499835 0.0019287079659916647 0.001932495685589051 0.4259008016238403 0.06621905595808661
62938000.0 0.8413759584071125 -0.5317311701438171 0.04879142452127086 -0.21182926119022163 -0.0033590577354069284 0.0009096648514166506 0.43974588798711506 0.04614575035378268
63937000.0 0.8354852405610441 -0.5388744406303327 0.049937634470473995 -0.23547567771609307 -0.00022938589977010684 0.002096328360286627 0.4365356622521843 0.04841558201588496
64936000.0 0.8292594456818978 -0.5460656949592709 0.05084512595327751 -0.24820833589707525 -0.001976132772260182 0.0017225052594982949 0.43448105277301535 0.04350783874214228
65935000.0 0.8249887172338796 -0.5579220381942245 0.05337868937254971 -0.25976344494910913 -0.0007912031351230316 -0.002505315773764155 0.4439143251028802 0.02202700262223571
66934000.0 0.8224465663086521 -0.5612625770814478 0.04874546491541435 -0.2751188648974659 0.0011054870757068109 0.0013719078907292587 0.4399742852562136 0.0012355671912001526
67933000.0 0.8172680336609461 -0.5688426735363395 0.05217343239857337 -0.29003130637603847 -0.000995865111895889 -5.1908542655316826e-05 0.44400680044238017 0.0025300100810861383
68932000.0 0.8134668568359299 -0.5747068305897126 0.046748943018403245 -0.3000525663170907 -0.0021709028861248408 -0.0013241786755626434 0.45628566036022883 -0.005247115268404872
69931000.0 0.8028000028514823 -0.5879755831322079 0.04547256012259932 -0.3160127009803507 0.005156117197304244 0.003861361123834888 0.45118359703198224 -0.01911988154178424
70930000.0 0.7971573962908844 -0.5946144720495272 0.042030772452753946 -0.33214728791196657 -0.0015729920997754122 -0.0009360411623262837 0.4442938433328709 -0.027057156721768356
71929000.0 0.7945788507470334 -0.602489594657471 0.03998713249219781 -0.34872867083350256 0.005635382057002916 -0.0005981791221779568 0.4535676379906113 -0.046164178383978016
72928000.0 0.7878328491602178 -0.609565804983427 0.03192628931831828 -0.362300567984169 -0.00034467027924257464 -0.006901748564068953 0.45415017538295405 -0.0480808260543854
73927000.0 0.7813048089802946 -0.6170548344331039 0.02813800695548534 -0.38536874053284426 0.0016788954001428792 -0.005126846011377665 0.4637723647168628 -0.06143599009163324
74926000.0 0.7769068601702913 -0.6250795650549931 0.02150321040561436 -0.4024172334685754 0.0034240013261443137 -0.0004020739859602739 0.45718699949466296 -0.05338608793568859
75925000.0 0.7689365456200103 -0.6292412759029448 0.009298509438500127 -0.4239521481899014 -0.0007142448550346702 0.0009626632080912322 0.471550271908054 -0.06866327973844796
76924000.0 0.7636416856225761 -0.6377444632143118 -0.006711649179734264 -0.44577448611240433 0.00035170217758926834 0.002110779039113987 0.46491492734223966 -0.084793875529781
77923000.0 0.7561819691557112 -0.6447369266396886 -0.020034104710765693 -0.46889198794341547 -0.0015102162202358146 0.0017538668518267428 0.4598043264420701 -0.0870442304012981
78922000.0 0.7506608085829996 -0.6543630601413234 -0.03630824082288088 -0.492501475125088 -0.0027897959670039885 0.003977116165085989 0.45509117904017954 -0.10703990401630246
79921000.0 0.7403592695359746 -0.658703393917291 -0.05131733009298756 -0.5208507880341714 -0.00024742671215160513 0.0005583818866571934 0.4643167093291697 -0.11747246744548834
80920000.0 0.7364112762897571 -0.6694845215285348 -0.06514762403409577 -0.5487810463634036 0.0024671824358721887 0.0005959444109585843 0.46516672981410356 -0.1341040137619034
81919000.0 0.7290427400967383 -0.6764879184628798 -0.08483076252370939 -0.5745118107494797 -0.002327680530641432 0.002580676321678645 0.4754828650210823 -0.13414247968985535
82918000.0 0.7225623115149205 -0.682495993622098 -0.10007600503836532 -0.6089652964665238 0.0003540336606404345 -0.0006894952155965504 0.47614184167229595 -0.1514740908997781
83917000.0 0.7131873423385204 -0.6915646742048918 -0.12003468614626914 -0.6380219567497397 -0.0020814488571041755 -0.00036665149054070567 0.4763167292852371 -0.1562390336888133
84916000.0 0.709087235756831 -0.6986284396120275 -0.1355360010254949 -0.6696728856359775 0.0009659882535143076 -0.0010204136799535656 0.46324375225587167 -0.16311099460459608
85915000.0 0.7023957782466816 -0.7032314635105844 -0.1595232937763274 -0.6988764168984037 -0.003657038560389961 0.0009267036026264924 0.4633250137225608 -0.17405299971269914
86914000.0 0.6963619868136858 -0.7151795979933266 -0.1712045014261173 -0.7391282615056974 0.0015649908130427996 -0.0040979346907303975 0.455455481485083 -0.17771430349071846
87913000.0 0.6870055144646686 -0.7194517810730168 -0.18930603942374366 -0.7646543086766047 -0.0006540063271310331 0.000717807797506809 0.46745417765332387 -0.18339203336964977
88912000.0 0.6817870024290594 -0.725683615008495 -0.2043736361264458 -0.802036475554856 -0.0012928608256012086 -0.0008433536038351654 0.4636490232623434 -0.19927000265437572
89911000.0 0.6709492512521603 -0.7369565902481404 -0.22520417240071455 -0.8357724420817603 0.0012689640711062331 -0.0004613259063942702 0.4623956059362219 -0.20531261953634064
90910000.0 0.665826554319969 -0.7410430719009504 -0.23522177223215662 -0.8723961442910918 0.0048566355391905175 -0.0013731946555283528 0.4581974692375298 -0.2144727745759889
91909000.0 0.6573395335153661 -0.7452452419115473 -0.2611216409157242 -0.9005837278912382 0.0007260979494273376 -0.00047754069164566016 0.4640973860482023 -0.2304393468685977
92908000.0 0.6488613797727885 -0.75443903096894 -0.27767430171033897 -0.9311824897632449 0.0028641303112574693 -0.0008760351474319919 0.4530661005219838 -0.23886701113339953
93907000.0 0.6410503914490246 -0.7579539112584961 -0.2935429363084174 -0.9608678348599419 0.0028657922418705113 -0.0009824412626385304 0.4563715732000929 -0.24249276181336266
94906000.0 0.630499221085648 -0.7656076249198353 -0.31062919903021546 -0.9972713960772397 -0.0011773691906628307 -0.0026298275382385726 0.46689107947416864 -0.24589382957171893
95905000.0 0.6231617806782377 -0.7745133356391793 -0.3366759566550327 -1.0278014995510654 -0.0028379397157592677 0.00032531431541850034 0.46098494994246036 -0.2621033357905757
96904000.0 0.6166997346223844 -0.7809735880557555 -0.348712028163633 -1.067746594374342 0.002975037378971165 0.00043403098735042214 0.4521531191584136 -0.27899763269303457
97903000.0 0.6055738690045486 -0.7888722421918912 -0.37607817570180085 -1.099921267235435 0.0018096205254759835 -0.0031816629907606532 0.44516805270827725 -0.28551628143053503
98902000.0 0.6008625257645249 -0.795093503701216 -0.39569119516776463 -1.13447706856318 0.003735526890420938 -0.0028138688863275194 0.44524646065077017 -0.3018073154629657
99901000.0 0.5923560364399718 -0.7994596034060301 -0.42209439329249027 -1.1670295458346565 -0.001790613131767811 -0.00271270141662157 0.45107655215920656 -0.3145601870519577
100900000.0 0.5806663172145365 -0.8035680323068528 -0.45805810787802376 -1.1897583463809804 -0.0017231906921674996 -0.0017873652643003038 0.45368135373714547 -0.30396823040612503
101899000.0 0.5723405404101227 -0.8106119175012472 -0.48265343753380635 -1.2291967733547793 7.243663740345026e-05 -0.0019162619827942844 0.4408439178526897 -0.3282947318101388
102898000.0 0.5624978041470825 -0.8181622686372859 -0.5205668142917316 -1.2641169264032335 -0.00036371258028158453 -0.0006885851995722185 0.45161462627826987 -0.33637449057343616
103897000.0 0.5555727817218097 -0.825575492720012 -0.5605306881588923 -1.2984533222769767 0.002254740878537687 0.00039498987072088384 0.45594896344120367 -0.34717990719062636
104896000.0 0.5462525470475298 -0.8338228993479888 -0.6030136430826333 -1.3319370200697216 0.000559852362336262 -0.001899835053091585 0.4410140644664872 -0.3412827535413254
105895000.0 0.5377345600377664 -0.8372044652974503 -0.6465416905106024 -1.3739066488494378 -0.0002646617960539838 -0.00345055679664391 0.4301450822526394 -0.3623312848304298
106894000.0 0.5280957805793753 -0.8430897227052767 -0.7006544916193509 -1.4069234440376026 0.0030397693995046775 0.0002027700365709209 0.4303209787121546 -0.37314112092104434
107893000.0 0.5201035419146459 -0.8493059903402543 -0.7497129280360281 -1.443448053286174 -0.0021677562446689755 0.0009645772524265029 0.4344341148267843 -0.3790044052140666
108892000.0 0.5080313313300938 -0.8531222052419997 -0.8171096833008317 -1.4780511828079619 -0.00016373002905230037 -0.0017379520751305351 0.4195891656209903 -0.36396150380703884
109891000.0 0.4955479756501788 -0.8614797508711448 -0.876439233652267 -1.5128885813287862 0.00011819981525311516 -0.0005233867720125237 0.4341096289366772 -0.3887850133344397
110890000.0 0.4760519977429024 -0.8731061935497834 -0.9564088774390024 -1.5140243025975069 -0.00030434029341129055 -0.0037814663240984085 0.4178484887580142 -0.39316874177335576
111889000.0 0.47394902203859635 -0.8672748444257208 -1.0031277174702176 -1.5795941235782665 0.002663522338628884 -0.002724573589467703 0.4172889226689563 -0.4026361441149836
