! Created with skrf 1.9.0 (http://scikit-rf.org).
# Hz S RI R 50.0 
!freq ReS11 ImS11 ReS21 ImS21 ReS12 ImS12 ReS22 ImS22
1000000.0 0.982528431241388 0.0010938779343111727 -0.0006068958743968313 -0.06751123897953348 -0.0024401108046346086 -0.008019908572876964 0.33967032671258046 0.3154295130151407
1999000.0 0.9970725865642291 -0.011685613735176403 0.014849849242760471 -0.022728277786653487 0.0013265780663710162 -0.00901284791705282 0.2732877574348083 -0.04232702726560638
2998000.0 0.9984089917701879 -0.02436411462124133 0.006818735167700229 -0.017568701866466065 -0.005502591379819492 -0.004653622057251342 0.1866224272821137 -0.11943434208104543
3997000.0 0.9968167516824042 -0.033822212822790555 0.014112609858974435 -0.005455544117865568 0.004088216564966125 -1.1751572655149367e-05 0.10703254150926704 -0.20905147156398357
4996000.0 0.9963134507608655 -0.04092691738472973 0.016631663080254853 -0.005121584893300872 -0.004541265371180806 -0.0023025998059180977 -0.014468546978808066 -0.21825050930784107
5995000.0 0.9946895769520351 -0.05025703963248929 0.009157896523641858 0.0004064177121735381 0.0016816662548610366 -0.005012097212800412 -0.12932946225468042 -0.1323561114755008
6994000.0 0.994297391547968 -0.0577111914546637 0.013610749073919971 0.0018344505507608072 -0.004272337151208419 -0.004778708779629109 -0.15119153419347725 -0.034755237122807904
7993000.0 0.9962200932400643 -0.06748763078370483 0.0017832920258991298 0.00531511937676517 -0.002106403662748122 0.0014825887535190917 -0.16417130068709687 0.02672209475072697
8992000.0 0.9964584674782488 -0.07189682150456878 -0.00025386487347010676 0.007563127547094457 -0.0032240154209124115 -0.0016316625776854007 -0.18713736671139955 0.06125843722764375
9991000.0 0.9919017313447802 -0.08582552972442009 0.001221779372621711 0.0018755461043749625 0.004757075917173708 -0.0012455049969975714 -0.16675344957799795 0.06744271762820721
10990000.0 0.9929524970356217 -0.09215498859922651 0.002284431090598541 -0.002128719224629393 0.001607096251231875 -0.0013385078858850457 -0.1645041367859878 0.09569744074732106
11989000.0 0.9900522239491658 -0.10091911326557929 0.003131620718483969 -0.0025915057458477594 0.004440783816486227 -0.003348560108380021 -0.13620725983001666 0.13056471240958764
12988000.0 0.9884909748680487 -0.11086684769314355 0.005351341290303963 -0.0017568432473296868 -0.0028785116047959605 0.005389849525464972 -0.14272007378000898 0.17328342815523012
13987000.0 0.9862437598841702 -0.11762151630775355 -0.0025788327604794464 -0.003882207182193908 0.006158491439793877 -0.00014003068607107907 -0.10104936718532707 0.1915946404267482
14986000.0 0.9869031588612204 -0.1262025596164546 -0.0007934668436778477 -0.009582671507502954 0.002447625233088305 0.00018857727379888582 -0.095691578790151 0.19293257303340028
15985000.0 0.9880510586877375 -0.13484764037253788 0.0015039963147226317 -0.0064556609483228545 0.0014622449673219508 -0.003215692474295642 -0.0723114333504891 0.21987427065913775
16984000.0 0.9847653361708153 -0.14780493292641206 -0.004197433762485042 -0.0035259896460498384 -0.0013257472955666718 0.0014277256910196915 -0.06937648356053225 0.2125073691996002
17983000.0 0.9884119048407306 -0.14892543866686647 0.00016491209476897687 -0.004834019608420258 -0.003613804614147028 0.0014908671761326188 -0.051111359344160716 0.23139643595190068
18982000.0 0.9829860904932164 -0.16335680739675965 -0.004763778237735202 -0.00532891517644825 -0.002538377737242288 -0.0015225331796295016 -0.03094751299011279 0.2297938665581325
19981000.0 0.9834760852351482 -0.1675093878579565 -0.007653577675380554 -0.003673357923959545 -0.00310116412110175 -0.004061299923385517 -0.025250276281046802 0.24853519305742358
20980000.0 0.9803668058422842 -0.17822778038397158 -0.0026405063506884405 -0.0063759293639417 0.002396161369505399 0.0012733799961873167 -0.008225562852938986 0.2481656618575077
21979000.0 0.9789467278010003 -0.1860778472460227 -0.006529093326873809 -0.002048396100043129 0.0027081214439160953 -0.0011000277311058136 -0.00019649143370391789 0.2443359262290343
22978000.0 0.9789642688923204 -0.19558161946902056 -0.006007039887785344 -0.0010926614378753618 -0.0003452931420372088 0.003865765721841156 0.02469759687526536 0.25378127202996453
23977000.0 0.9778958462313903 -0.20261667835939154 -0.006241727728968981 -0.001090695312057735 0.00482528387148639 -0.00039703629108976663 0.03338059095900537 0.258077254466405
24976000.0 0.973505416951699 -0.21356030247145344 -0.0053085625623685686 -0.004473896492054644 -0.0002774320612189966 0.00046466885061598314 0.055581039124663376 0.25203301937109873
25975000.0 0.9722466683345394 -0.22699659386076304 -0.006926348466522246 -0.0003694292383785224 0.025508911990815532 -0.009247594711319675 0.06957623417885027 0.25865788757426245
26974000.0 0.9709872661127156 -0.2301519818553699 -0.004186204216045911 -0.0024636376159775293 -0.001510632414671242 0.0020131210011682193 0.08550259967326233 0.2534440742899187
27973000.0 0.9675387486715369 -0.23731947863822014 0.0002901856841250954 0.00257766224522412 -0.00016603110809982325 -0.001236669754276842 0.10249479848002427 0.24931543297906614
28972000.0 0.9636681072958325 -0.24709518151689586 -0.0026776199939132347 -0.003053788286488782 -0.002370601597658396 -0.0003360130759054807 0.10904286937031916 0.260938912267771
29971000.0 0.9630676531510028 -0.2565269582211969 0.0018398364779638882 0.0005202603396401024 -0.0002896496013929466 -0.00039337723782891545 0.14605277805582048 0.2621317268515531
30970000.0 0.9609636269264049 -0.26043504872894757 0.0027071138024191924 0.003295405810147136 -0.003277813704707149 0.0017405299725181396 0.16319001944241346 0.2573344972645229
31969000.0 0.9580130953961611 -0.27109268510505036 0.006085051032180152 -0.006154869083600661 -0.0010534920555430299 -0.001524346224093372 0.1433702992475729 0.2556473061830721
32968000.0 0.9580685145335006 -0.2792242021254098 0.0097084263072425 -0.0020898677251304128 -0.0012569252772966458 0.0011844381297867565 0.15368771210057183 0.25426550169909357
33967000.0 0.9550181363194495 -0.28994773017377706 0.00804492059013448 -0.007353500502565448 -0.0011939123625699733 -0.0008540446433129737 0.17032937903922268 0.2521150233764597
34966000.0 0.95198963419044 -0.2991269376350986 0.011165551307291095 -0.010433348841778945 0.0025527477059023016 0.0037308708343911524 0.19076694525934557 0.24947611517221016
35965000.0 0.9479235311834376 -0.3067687800098348 0.016439132640335623 -0.015114484395223404 -0.002054213321618519 0.001268304723079202 0.19947983691988153 0.254573222551818
36964000.0 0.9467388605860246 -0.31564842967497253 0.015497564550546863 -0.012996856806614174 -0.0022132035986311828 -0.0003013455476939785 0.21137503410748737 0.24842491865362165
37963000.0 0.9419424907717988 -0.325619685572939 0.020276116967931496 -0.02189168356072142 -0.001201572214558491 0.00012378417492556976 0.21888684764197916 0.23193857555472958
38962000.0 0.9401554087954401 -0.33279941843951416 0.02621039997179454 -0.023193623045970047 -0.0007254146407938094 -0.0005776074838954121 0.22578175344930962 0.23020125051648865
39961000.0 0.9379502023894973 -0.34198248187663216 0.02600710457209124 -0.028594223403098588 -0.004122385559035868 0.0039725615007388535 0.2416894839527924 0.22063586019193004
40960000.0 0.935685754003145 -0.3481763906263117 0.023192418434483882 -0.024473728126499488 -0.0024692252034409453 -0.002533051099601431 0.2683633392489509 0.2284403474457883
41959000.0 0.9316232273763803 -0.3588406055629957 0.029638470208768957 -0.031205124908000537 0.001403101609014663 0.002568340879805573 0.2627530856607096 0.2168757692338538
42958000.0 0.9258270485685817 -0.3688657067874286 0.02901370487638083 -0.040514168999453454 -0.0021820414975752436 -0.0028048520711901346 0.2706541815079477 0.20183065720118668
43957000.0 0.925270020743665 -0.3737577454782944 0.030062069554494454 -0.04532569284523666 0.0006830259891834649 0.0005527108411094802 0.2774940423047678 0.20452277788637557
44956000.0 0.9207548066984054 -0.3825205014463697 0.03521044007034456 -0.05145387262444562 -0.0021947884240635825 -3.8245288111547034e-05 0.3002698631842917 0.19216195467179947
45955000.0 0.9173110238688568 -0.3915760110651182 0.03159879032226338 -0.05788923416205845 0.00027784186339025173 -5.21556621957068e-05 0.29620002339221263 0.1864034216624059
46954000.0 0.9141931014041136 -0.4007955942810851 0.036365293458207285 -0.0655800956903729 0.0030523782117578995 0.00037450311235241734 0.3154618864596858 0.18224476070465312
47953000.0 0.9101058512333621 -0.4073003493452927 0.03671072809576582 -0.07167066296539157 -0.0015633496463752646 0.0016118121051717953 0.3335213622334446 0.18226564927585084
48952000.0 0.9042004099056516 -0.41865545476256677 0.03755552143099214 -0.08040688646170979 -0.002607165853008111 -0.002901998777292728 0.3262081534343479 0.16388192487871547
49951000.0 0.9012325049920482 -0.4260172405369974 0.03718039964313974 -0.08740518566753586 9.992212680776707e-05 -0.0024924531203458114 0.3515874013212707 0.15643601238895002
50950000.0 0.898109757755186 -0.43379879028176327 0.03847831191985598 -0.09629766957542779 0.000769707257237114 -0.003344549385328391 0.3468359759576507 0.13854078275549014
51949000.0 0.894010278989023 -0.44152636214836505 0.04085651178363098 -0.1044844513036941 -0.0017364702551339547 -0.0009578649513496242 0.3611492111140947 0.140576444882018
52948000.0 0.890038280035482 -0.4521684804157415 0.03792685562959738 -0.11222766532389275 0.0037705593390816175 0.0012231874303987084 0.37041375139335053 0.13261481054431706
53947000.0 0.8852653041881976 -0.4578882727102518 0.04404606984785673 -0.12201421959016796 0.0020991880118645177 -0.0002959714153229887 0.3784383293535491 0.1250229595438162
54946000.0 0.8795669995010533 -0.46696458778125155 0.042301784610624664 -0.1313998399303299 0.0008385462111375529 0.0011647526646420922 0.38587158537421434 0.12561367569174323
55945000.0 0.877848810325263 -0.4761458467786109 0.046305913657714144 -0.1427200377323532 -0.0019217983194781435 0.0025557857412058195 0.3782297278609959 0.10080113588723583
56944000.0 0.8726962916087193 -0.4833510505185536 0.047042725827309485 -0.1510935194374219 0.0003643227622161182 -0.002594989319656483 0.3877805174990355 0.1053172528718357
57943000.0 0.8682645681659691 -0.493382201082045 0.0460403997813844 -0.16667890051812284 0.004745838580903567 -0.0014888319370591236 0.3970306049858305 0.08796481868807239
58942000.0 0.8619017268342662 -0.501566882950928 0.04713429625272858 -0.17494316112203417 0.002279433917771638 -0.0014146133386237522 0.4231527702957801 0.09399026836245751
59941000.0 0.8599318433301795 -0.506487801249704 0.05148158728043281 -0.18322440761126008 0.0009476856469350214 0.0004160147960293603 0.4203027150861721 0.09328587888073961
60940000.0 0.8513296607759345 -0.5155764876719382 0.047633023671297826 -0.1874507020043659 -0.0015208211533717195 -0.0005703784814893644 0.4085513810134348 0.06653242365204506
61939000.0 0.8495625476457844 -0.5221995447198363 0.051269745126822315 -0.19524536895742414 -0.0018466443244320257 -0.0011199852769425084 0.40587543486821576 0.066852868669166
62938000.0 0.8435229362348747 -0.5316590576823605 0.05406505676458453 -0.21020742585570626 0.0009255234573728533 -0.002280461597631848 0.43440967637123346 0.06574978320420735
63937000.0 0.8373347634846653 -0.5406442725305426 0.05479863090480762 -0.23455374126199452 0.0017555420079491434 0.000304105001803472 0.43649851491347114 0.03660454120166259
64936000.0 0.8316891274818282 -0.5445961697464602 0.05769341682952479 -0.245928437047497 -0.0010493634745349003 -0.005770448924920143 0.4319734336575306 0.048101931695234905
65935000.0 0.8283048871755311 -0.5549378294350914 0.05503693098642899 -0.2632633660782204 -0.003002610012402774 0.0015263866373296823 0.4328948845403297 0.017398333617984336
66934000.0 0.8231445033379744 -0.5621060015908738 0.05230125122781633 -0.27286606740533875 -0.003330392809334949 0.00338927019807068 0.437214357794881 0.0160970038897358
67933000.0 0.8213612365036399 -0.5680285000360561 0.057780561929441296 -0.2895522519072473 0.003000201991560315 -0.00012723386883420747 0.446733834158465 -0.002368223265880534
68932000.0 0.8135145987157055 -0.563539325464891 0.05319124166732451 -0.2955687796798713 -0.000513593129992558 -0.0014873639081964599 0.44573101494138 -0.007892284354186114
69931000.0 0.8080237095690611 -0.58520901519906 0.051387749530699876 -0.31462021506433757 6.96683176090701e-05 0.0006442545158138371 0.4571437051744381 -0.021829221118181398
70930000.0 0.8014120106324477 -0.5921588112821237 0.04693791856551606 -0.32934705334357706 -0.0007886015403386451 -5.099978255471481e-06 0.44254818020197645 -0.02874988643245334
71929000.0 0.7972020117290555 -0.6003984429503018 0.04427555146282289 -0.3495808452125959 0.0019464785865650066 -0.002956964946705303 0.4513655677011038 -0.041795435895564635
72928000.0 0.7895188345669432 -0.612827021659502 0.04024889351089117 -0.36153088669053624 0.0011369988583889961 -0.0005485109294864777 0.45731599134015155 -0.04558607894592857
73927000.0 0.7829319981622634 -0.6154713482897849 0.026959329583524354 -0.3852067910168612 0.004223976012830943 -0.0015444673060731368 0.45077159125423066 -0.05678872861703105
74926000.0 0.7782044039423713 -0.6257524730424151 0.023916052861946844 -0.40467684039034724 0.00024849927752247154 -0.0009373768632134088 0.45719936021959895 -0.05781701738925464
75925000.0 0.7707677260977562 -0.6289192835770695 0.010064891117848682 -0.4246121130083265 7.166970681148114e-05 -0.002472762710942268 0.46812681018167146 -0.07231082930055042
76924000.0 0.7632422119300737 -0.6400979988033774 0.000809488411718303 -0.4473652028503684 0.0030449994019297313 -0.001294683872398038 0.46430868569250494 -0.0798277188606729
77923000.0 0.7579452434406619 -0.644661602035266 -0.017976045096115945 -0.4678926742626587 0.0004558580260469772 0.001432515263370186 0.45764528020181944 -0.09501004262181016
78922000.0 0.7524029226832754 -0.6550935144257384 -0.027691471032865244 -0.4979161261753289 0.0028625606084870642 0.004705711160678922 0.45209381567715257 -0.11567262258405296
79921000.0 0.7446618706814837 -0.6596149285478256 -0.04755394764326165 -0.522575169531142 0.003895762934380045 -0.001481029183477011 0.4634097836813594 -0.12075524521276775
80920000.0 0.7390595485833744 -0.6700448909235401 -0.06300654262486483 -0.5485962021072157 0.002416391568658425 -0.0003082303353751506 0.46994775401844063 -0.12658238683965162
81919000.0 0.7347822480880367 -0.675070156840525 -0.08419802178706745 -0.5791248300601042 0.0015107231194982013 0.0029626908276790577 0.4600216146167768 -0.14339061360623884
82918000.0 0.7254656860763979 -0.6834795001832178 -0.0946415856698042 -0.6086588537694207 -0.004141516766058882 0.003727063067544361 0.4652143935984538 -0.14736981208450695
83917000.0 0.714908598732941 -0.6917815184454574 -0.11619654656908858 -0.6365982522206747 2.2071078711792522e-05 0.0035378184549239517 0.4707280102612536 -0.15422754725560908
84916000.0 0.7102174393217179 -0.6989678580881253 -0.12847427386738433 -0.674231031042215 0.0012144019601516834 0.0030676656176284517 0.4575754591758206 -0.16685678258026226
85915000.0 0.7039916287084056 -0.705118697015961 -0.15472244294329893 -0.701602180512331 -0.004370915292147482 0.003816802721057416 0.46360228169279255 -0.1823039355670543
86914000.0 0.6981144987043099 -0.7158519565830844 -0.17020807487286904 -0.7374318962372538 -0.0007959335611030829 4.055384897596192e-05 0.45974269389094125 -0.16859864115674322
87913000.0 0.6886103527822274 -0.7219839970935205 -0.18585765027412438 -0.7687445492896723 0.001461453496128245 -0.0005725054506077036 0.45074445268011265 -0.17578718417195743
88912000.0 0.6821342596274386 -0.7271790823060892 -0.20294249846331416 -0.8024471883366953 0.00043158889397924095 0.003004994029248274 0.4588412081115104 -0.21843315757404957
89911000.0 0.6722298029389686 -0.736370276017192 -0.21421605324731607 -0.8406191276988307 -0.0009595755223693958 -0.0020024781393487173 0.460578826627114 -0.20407492088885107
90910000.0 0.665836443796204 -0.7429885364208685 -0.2362450144121663 -0.869674716459778 6.5790376678439e-05 0.00033216653370511174 0.45237674756640567 -0.2208472060978821
91909000.0 0.6572932306982625 -0.7486220667588156 -0.25458682793436394 -0.9014281183806718 0.002792342004196303 0.0027910123182460114 0.45808284175294994 -0.23060547007723345
92908000.0 0.649264273331464 -0.7557387689349846 -0.27350192702857457 -0.9342609617080531 -0.0013583077638374883 -0.0023470849153149113 0.44753188338444544 -0.2388270902794972
93907000.0 0.642839033052782 -0.7619701814452874 -0.2883528315915208 -0.9638703040150952 -0.0001013031415787983 -0.003909406474600367 0.4567168466711052 -0.2621696506993175
94906000.0 0.6307842612757804 -0.7692065710280743 -0.30412402530451027 -1.0001379403030273 -0.0017340440373757734 0.0033469507857364035 0.44653133323852223 -0.25263500678494233
95905000.0 0.6241413138700089 -0.7776878213811883 -0.33005678696421087 -1.0336273325047387 0.0033675840965328445 0.0005808387428839997 0.4562931685393339 -0.2707378778899159
96904000.0 0.6163441030052216 -0.7855203961837585 -0.3475348578383562 -1.0749002475687097 -0.0011232739921059492 0.000827613529545865 0.4431759388904491 -0.2723032191685749
97903000.0 0.6063778431103573 -0.7893368007320012 -0.37236942803328293 -1.10304608510713 -0.00044370423030277176 -0.0016471779364392982 0.4399318672328262 -0.29164734705297585
98902000.0 0.6023202743099035 -0.7951428816157776 -0.3909134101961969 -1.1403649879550757 -0.00019639590810029237 0.00025026920066692493 0.43598318971274885 -0.29667397624479497
99901000.0 0.5902904829440468 -0.8021839774177019 -0.42020448631079693 -1.169137654133712 0.0017114913973162748 0.0005304266158418007 0.4577554722716704 -0.3273224130384902
100900000.0 0.581850931815281 -0.8066510130475814 -0.45262776383453446 -1.197030966236943 0.002531706261890919 -0.0008739073163112381 0.45629213837819393 -0.31893135630140723
101899000.0 0.5725745837972772 -0.8124533462109531 -0.47467396305127363 -1.2339503899761117 -0.0030353583398647146 -0.002617436467732068 0.444235296166578 -0.3183536309590213
102898000.0 0.5627770361958756 -0.8202972952092346 -0.5172889163060684 -1.2738189370090607 0.0013747259594198249 0.0018835906695716144 0.4440898949659552 -0.33643808835226563
103897000.0 0.5543964434835689 -0.8271222222856609 -0.5549418003098661 -1.3085615779430655 0.0007924919718350041 -0.002080977321213777 0.4457447925553366 -0.33218930234852534
104896000.0 0.5458302767736276 -0.8370725986903557 -0.6029291135271192 -1.3388567223576997 0.0011683928760307693 0.0005979612949050694 0.43070178204824533 -0.3399706253744076
105895000.0 0.5374864387355159 -0.8389289932964603 -0.6459023856149798 -1.379047063059444 0.0005084521216388198 0.0007315852186061326 0.42801785526083536 -0.3746673015021655
106894000.0 0.5288336271189307 -0.8450466211400622 -0.7001373376324738 -1.414446573489756 -0.0007901666926222266 0.005058888655534084 0.4290988814038668 -0.3708408343803986
107893000.0 0.5189442256538289 -0.851452767181802 -0.7533285351868273 -1.4554851802661095 -0.0005077772585720657 0.0014295836620142372 0.4305916530394651 -0.37784958600181223
108892000.0 0.5087601630768237 -0.8533158267412153 -0.8103407331065664 -1.4875936307783495 -0.00286019073863962 -0.0006554429141619779 0.4122982718432235 -0.3766628092486587
109891000.0 0.495756683500782 -0.8619645044509114 -0.873286365279678 -1.52227719256928 -0.0010460074198661668 0.002709411428039109 0.4424444862262888 -0.3748201470278183
110890000.0 0.48867672833980264 -0.8655746567639944 -0.931134519944236 -1.5374127389117787 -0.0009225607399895202 0.0011520830556947656 0.4229075190615116 -0.3936293743691358
111889000.0 0.4770870503554278 -0.8683436251716008 -0.998829867917732 -1.5852514806665365 -0.001752093237740366 0.0007634602509394199 0.4210302153373367 -0.4116236462801863
