! Created with skrf 1.9.0 (http://scikit-rf.org).
# Hz S RI R 50.0 
!freq ReS11 ImS11 ReS21 ImS21 ReS12 ImS12 ReS22 ImS22
1000000.0 0.9794731922479561 -0.0009811393817676698 -0.00046791036203208295 -0.04640080925239868 -0.009358740910006982 0.006714004025092754 0.3023287781216708 0.3377941140983033
1999000.0 0.9983124121931092 -0.01054124603335961 0.00410857404790344 -0.015107524964632505 -0.008621788506624713 -0.00046686348916465445 0.26290922547238327 -0.03561196180725692
2998000.0 1.0017526916834432 -0.019337744176008694 0.009839479683493817 -0.018741289905206966 -0.006035105048536533 -0.005253159155377728 0.1949221482224518 -0.1208311450427601
3997000.0 0.9987926994515319 -0.03166846477620575 0.010382288002969043 -0.010228712650348776 -0.005800731684862573 -0.005861101382601346 0.09728238305853217 -0.23174473267857243
4996000.0 0.9974509712544256 -0.037081969146241414 0.013635422899739213 0.0024545925572623064 -0.0009633164149366195 -0.0013959534210028852 -0.051165173901432486 -0.21036417024549636
5995000.0 0.9993123095157345 -0.05092746908122233 0.004610723922691108 0.00447062636855552 -0.0032339878446994218 -0.0018302326220555657 -0.13601830464692977 -0.1158627077664552
6994000.0 0.9970299496518307 -0.0558923068554872 0.010614519438465116 0.003586707574718934 0.00046418608595995704 -0.00488823827609111 -0.1563817625377999 -0.017784211813323778
7993000.0 0.9964100413758173 -0.06882028472973584 0.0027341852971803603 0.003381696669718138 -0.0002091991436307333 0.00496079768750996 -0.150929917568214 0.0492660135397835
8992000.0 0.9960210868857964 -0.07264388550178832 0.003969512116885885 0.004925751515413272 -0.0007364512092022382 -0.0036561046608774156 -0.1538708155447978 0.05817520101270649
9991000.0 0.9938006811497062 -0.08167914382135726 0.000142197178359889 0.0026747470348104855 -0.0019988685282701655 -0.0018967155309089082 -0.14189802169518417 0.0777309534249583
10990000.0 0.9941632004499594 -0.09100639546808721 0.0018473117968085724 2.7834879667844075e-05 -0.004010185261260359 -0.0009401318045179522 -0.1431069431060681 0.12698974316391298
11989000.0 0.9926195568665788 -0.09762569052763104 0.0028029301099781034 -0.0002769596447537745 -0.0016880867079827476 -0.0001270349792654342 -0.13071102213803068 0.137950954547735
12988000.0 0.9905608366270581 -0.11092792014954132 -0.002528271048523723 -0.0012268351198497513 -0.0025229290418222676 0.005628240789654417 -0.11309839007628353 0.16488986696626573
13987000.0 0.9901842920642611 -0.11665840052991579 -0.0016215524166850938 -0.0015172786838424683 0.004711790085601131 -8.558409931689358e-05 -0.10153304050768253 0.1887083180862871
14986000.0 0.9908106749740235 -0.12570619054970966 0.00037336315903870016 -0.01110748131598526 0.0018338890615313198 -0.001189998194660721 -0.09565566033130393 0.21127888077756896
15985000.0 0.9892550266822879 -0.13622407978703957 -0.0002982935221194769 -0.004285269663877707 -0.0023175248199829076 4.81351108950643e-05 -0.07235180413405383 0.21257624093260638
16984000.0 0.9858980110811382 -0.14385674789614886 -0.004348805364219941 -0.004562690687865206 0.001400015046302987 -0.00759802752751826 -0.06644232830091906 0.23012159318489192
17983000.0 0.9880900915206641 -0.1506292728113815 -0.004522660260313213 -0.0055992577039089405 -0.0024026759230636892 0.0023651307076840485 -0.05927395460641559 0.22223618053358593
18982000.0 0.9835074265043708 -0.16060539970607948 -0.002565838927312038 -0.0030566329047646873 -0.00036722296267270756 0.0003688840115739354 -0.040110583248555404 0.23171497803799976
19981000.0 0.9821452622250201 -0.16397392375907352 -0.005981345070047568 -0.0049924007574630525 -0.0017423653342213778 0.001711889533966379 -0.001725010506077818 0.24249059814286
20980000.0 0.9821072682497995 -0.17654378703572773 -0.00837714698930517 -0.007928378387544035 -0.0028967701852226986 0.0022083144138470984 -0.00036495229046778176 0.26456348112775235
21979000.0 0.9812623756070673 -0.18356938268669673 -0.0038666426668577175 -0.006405336852581246 0.0017785181452150923 0.00030370896996412077 0.020142507176718397 0.24288017562344574
22978000.0 0.9785520637235524 -0.19326483658280022 -0.007479346532071554 -0.0032693572329418534 0.0012720811471354794 0.004128740676041846 0.033434290815958764 0.26149744035878036
23977000.0 0.979329193480699 -0.19990646992392094 -0.006766239441207217 -0.0047587698832000525 0.0024974464828953287 0.0005210532783446934 0.04567407575420174 0.25721906730675986
24976000.0 0.9756412060570366 -0.21128530282906766 -0.0045808300321282846 -0.001158176052442623 -0.0019317672964029526 0.0024388065607891143 0.06279592035497265 0.25385996473997613
25975000.0 0.966720844703563 -0.22044930125910972 -0.005494707126110722 -0.006280897637087238 -0.007463002686609665 -0.021670114310002077 0.07593270406971747 0.2536493397371078
26974000.0 0.9729691848092334 -0.22633938670866732 -0.00753244413965873 -0.005389443949863553 0.0034490624510882246 -0.003090299718311039 0.09473043652537308 0.2614478279498842
27973000.0 0.9690647774937476 -0.2339978215496747 -0.004298700432330219 -0.00019693763729219225 -3.67380171999093e-05 -0.0001950046260401511 0.11157891886344802 0.2585458828182419
28972000.0 0.9678056060830941 -0.24181212624501514 -0.0030976462609443676 -0.0023359007821732026 -0.002735757665001413 -0.0031631026785240495 0.12248875274324093 0.2498188989336179
29971000.0 0.966136121857536 -0.25322275171690356 0.0021806815515573986 0.000722437071184901 0.0020622767168256236 -0.0006471190614584971 0.1478982086638332 0.2608961513687568
30970000.0 0.9615671727488387 -0.25787109921975515 0.001871077328560041 0.0002528771451685984 -0.0023109432334123157 0.00020851848818469822 0.17009103187173735 0.24984737834487605
31969000.0 0.9625364712423412 -0.26636515876769934 0.004933387712829145 -0.005491343829310491 -0.0032272816407149813 -0.001438910216797427 0.15723178411331246 0.25514716128059256
32968000.0 0.961667624827124 -0.2753710280410014 0.004629870214999942 -0.006346191203702926 0.002510896945143654 0.00018552224144900858 0.1605482651907282 0.2472061097894783
33967000.0 0.9558751814141337 -0.28563709854025765 0.00808374455255964 -0.008779402249963398 -0.0011592984261313676 -0.0002546879067512517 0.18882375742375465 0.24753355272038385
34966000.0 0.9535132430497613 -0.2937255596108834 0.014584965554775935 -0.013952156645694581 0.0007688427167011708 0.001955873101650402 0.1961246611646467 0.247609399215887
35965000.0 0.9519657667764879 -0.3019687924167886 0.014157328437530363 -0.015005168509280197 -0.0012584167027333592 -0.0020516026845570513 0.20686838985213463 0.24186927370376177
36964000.0 0.947716942450587 -0.312064354750924 0.0182586277203339 -0.013705882562982016 0.001477436412822664 -0.007322377550779917 0.2156295323237217 0.2548069038504511
37963000.0 0.9451004246882337 -0.3210415393482912 0.022676119918681317 -0.018665663897477227 -0.0009824868917779218 9.547031336786394e-05 0.2344265429099655 0.2350016866583772
38962000.0 0.9439985737137196 -0.3286038497681716 0.02682330141786068 -0.025477049300234776 0.0013150683385062816 0.0009194615754746513 0.24162643317471538 0.2244148500350741
39961000.0 0.9394123214604707 -0.3379024039130962 0.026496986177284815 -0.02725251587598432 0.0002580701579072483 -0.00039054006121104647 0.2560285198737759 0.2210853959361485
40960000.0 0.9379046157060339 -0.34546604518435237 0.022865404937078136 -0.022743889464940752 0.0018279453525190132 -0.002030574234718874 0.26994659013544303 0.2174961471457532
41959000.0 0.9347473248096557 -0.35205134053173576 0.030458792821016937 -0.03090407307162548 0.0006913165454844868 -0.0010354210655884857 0.2633227716465636 0.21403431335739542
42958000.0 0.9288050295016269 -0.3626293298803641 0.032318059432748625 -0.04023047900511909 0.0017245956363418137 1.5145367879813966e-05 0.2808971107670757 0.1990175900836637
43957000.0 0.9283591176211924 -0.3657392307185557 0.032095985877446304 -0.04522931802464821 -0.000307900902993205 0.001822239129269254 0.28143038213212335 0.2027082083758994
44956000.0 0.9265823504512074 -0.3733957069012923 0.032610738533448466 -0.05143942679495039 -0.0005656068922821104 -0.0021410110609307873 0.2955754192132002 0.18884983032277514
45955000.0 0.9204363589504089 -0.3844877563552762 0.03369728211493836 -0.05934480629563345 -0.00010060929876681113 -0.00012233936491027952 0.312161938418501 0.18457875338132498
46954000.0 0.9153420521014292 -0.39519792099749773 0.036885083322211056 -0.06421283482072372 0.0021356741938038295 0.0014980040644538867 0.32579544541288574 0.17819769281957437
47953000.0 0.9149721597444516 -0.4016731920138232 0.038564166043214686 -0.07143362682771587 0.0007100559275401435 -0.00010183775905874306 0.3279688530793344 0.1611141247992429
48952000.0 0.9076860093065734 -0.41435979394013034 0.038183119718677314 -0.07796982055359084 0.0017247110368743524 0.0010925553713125005 0.33253398862665995 0.16166936390066108
49951000.0 0.9056494892540439 -0.41624376684569037 0.0397645896455835 -0.08558722107662074 0.001025531906206217 -0.0023325002679061035 0.3517992847764454 0.15985127016943423
50950000.0 0.9021190224877649 -0.4258378073066311 0.037037712052857684 -0.09472652254437298 -0.003104529415984057 -0.00016253075536972158 0.3521712980691278 0.14438308245880305
51949000.0 0.8975431587328945 -0.43375854022921334 0.03879741269116334 -0.10366778497431861 0.002427261007995944 -0.0030255031416877615 0.3608255527044569 0.14093528174493156
52948000.0 0.8959704424885601 -0.4431269712924884 0.04055591661787321 -0.11033353081767172 0.0021947528856600326 -0.0023522292224583386 0.377000677652492 0.13908432003127388
53947000.0 0.8879217415571853 -0.45132962271055854 0.042823998019414035 -0.11952842454781717 -0.0010261415558555037 -0.0027346216001937905 0.36409912418854135 0.13331444750715196
54946000.0 0.8852948416049315 -0.4584409129099401 0.04374845918874621 -0.1303560070255706 0.0022417480838682583 -0.0025407828009833887 0.3888899502862252 0.11718222003093004
55945000.0 0.882213780686187 -0.46892608842266836 0.04498191870404832 -0.14114341659837482 -0.0019844541277261266 0.0003599969609868103 0.38701511838245367 0.09923106748481206
56944000.0 0.8774874699936123 -0.4761236867518873 0.04791691134785582 -0.1517171381065492 -0.003410029253975522 0.0004958923249054635 0.39639491725736586 0.09775732560727132
57943000.0 0.8739032105418617 -0.48684921178289525 0.05036487998048298 -0.16176796471919755 0.002057743113117995 0.0012043321567223313 0.40371895477142183 0.08185288027650965
58942000.0 0.8676940462452305 -0.48986622465279217 0.047529432708226974 -0.17348805091415986 -6.0922906862116655e-05 0.003203228358203834 0.42516260268700484 0.0871358800971335
59941000.0 0.8649803601849849 -0.5010615885200678 0.05091419986883032 -0.18229235331926788 0.001030067825712312 2.1001787746757213e-05 0.42455618562356506 0.08840812937653965
60940000.0 0.8567466082318687 -0.5086356807963721 0.049709229038131034 -0.18805062516002075 0.0016021102505869823 0.0009667436918439742 0.4070178599870213 0.07204226844287699
61939000.0 0.8549591608038137 -0.5135108813867907 0.05223672151914777 -0.19595841661623264 0.00044609716639930217 -0.0028564518071430007 0.41874952076898886 0.06234147532984887
62938000.0 0.8499088943031867 -0.5245798480816192 0.05500872838792918 -0.210465099578037 0.0027257810159786503 -0.0003028124191746394 0.43986369721188817 0.051015830465928315
63937000.0 0.8451669818563284 -0.5307647775689949 0.05575449850321427 -0.2325602367832796 0.001737462316323345 -0.0003622573128555395 0.4347879276805448 0.039352475399487934
64936000.0 0.8392642881285459 -0.5359434435993083 0.059181897662226056 -0.24633276615533267 -0.00029386652517772856 0.001768763375668144 0.4358183934175337 0.03360789374789484
65935000.0 0.8347690377154823 -0.5477865160914127 0.05561269205249481 -0.2612148526808619 0.0034448321153985337 0.0031626089656988684 0.4369481688830948 -0.0008418334458180034
66934000.0 0.8308624063030812 -0.5538317943791722 0.05430815473448023 -0.273329901808393 0.0022076766006239317 0.002232177531707002 0.4393655316358489 -0.0001937394845984499
67933000.0 0.8278204842491359 -0.5617738708364124 0.055822065221973693 -0.2864424117273204 -0.001324274959191117 7.439072982143355e-05 0.4461777270124364 -0.00965250995470855
68932000.0 0.8163280722069796 -0.554838940987235 0.05683384670614961 -0.29943869631218656 0.0012922068001012291 -0.002228629929502011 0.4507116403755931 -0.021145340889946154
69931000.0 0.812686668771022 -0.5775031289922671 0.05030873944362786 -0.3207914716943129 0.0012691001273881484 0.0012595390854052073 0.44929257253016885 -0.0270542223799346
70930000.0 0.8078286035997433 -0.5833841109381442 0.04791192981338622 -0.3355961649542455 -0.001738398865723819 0.0011220242709719516 0.44633105151395347 -0.03315559305544981
71929000.0 0.803620572149926 -0.592851321920113 0.042459968876981065 -0.3536288849107999 0.002580062626539241 0.003790084808237862 0.45115018204214224 -0.05240912613841139
72928000.0 0.7972036996382234 -0.6031589925120319 0.04215914315109342 -0.3685948243385623 -0.0019357919012530733 -0.0006653244116699854 0.46688344402374027 -0.05392132969513063
73927000.0 0.7908841288378852 -0.6077616819464184 0.03517517479547747 -0.3875743847311734 -0.0016218939377226653 0.0006452814368842997 0.45954203502160984 -0.06646680073508505
74926000.0 0.7858723929464896 -0.6188267848223428 0.029938624257836638 -0.40342282954663794 -0.0008103741348009124 0.003283906843937823 0.4578510104482194 -0.05777891090652785
75925000.0 0.7777601052461873 -0.622673514369641 0.016759427276181946 -0.42224606381097785 -0.0011838013220247434 0.00442868756056255 0.4613177973609734 -0.07215120214535484
76924000.0 0.7740763148420556 -0.628760572212144 0.005465220615443633 -0.4472849646413733 -0.0018124034250574024 -0.0040852033793851925 0.45678173792241394 -0.08400595579230748
77923000.0 0.7667337768745895 -0.6383105539560091 -0.004869686964814538 -0.47189816636278076 0.00047059600831010336 -0.0017833968217193272 0.46084987080118445 -0.10039489003197156
78922000.0 0.7630930597043574 -0.6474518081533498 -0.01872682421902423 -0.49890119079188394 -0.001326467669622164 0.0012702385678080895 0.46384994257679507 -0.11683671539590591
79921000.0 0.7516309842402525 -0.6509250986434839 -0.03637300539153235 -0.5245778603414346 -0.003510576691228392 -0.0011717565817045419 0.465787501506362 -0.1344000824198438
80920000.0 0.7493972457522653 -0.6611347293857122 -0.05013319821047894 -0.5543649703633868 0.0012472765410984352 -0.002680161138910406 0.4754966970808666 -0.13218839017548614
81919000.0 0.7457687457020334 -0.6681203316821122 -0.07094734146481577 -0.57930425625838 -0.002081565432367702 -0.00025238890942523915 0.4643219544416958 -0.129905986345679
82918000.0 0.7340826270689165 -0.6740518837816553 -0.0830911382326833 -0.6125947099805851 -0.0019388236942893596 0.0028022285876177482 0.47865552344153195 -0.1561452495336092
83917000.0 0.7273780264574724 -0.6823284772100844 -0.10809896734259253 -0.6402134179166077 0.0025640430992914876 0.0007260784565050137 0.47542130541122757 -0.1518997017445534
84916000.0 0.7210798794969131 -0.6904481925544573 -0.12042858540555451 -0.6761255372208751 -0.0016193767008624497 0.0005557407507281141 0.46052299486598436 -0.17933454782797587
85915000.0 0.7160630426246689 -0.6964547224099363 -0.14295940785660985 -0.7038219681128798 0.0005244419504362688 -0.003866546042065399 0.4627930682491221 -0.18114795619482835
86914000.0 0.7083435491941866 -0.7078880080612914 -0.15502892180000327 -0.7388005322829218 -0.0024459780309593546 -0.0033369312384980607 0.45920207250434764 -0.17872090771007149
87913000.0 0.6998198756035805 -0.7132997054858421 -0.17638103599758143 -0.7741557141024149 -0.002271847371224471 -0.0026354599704151195 0.4688887444838152 -0.19844274763868666
88912000.0 0.6946620122837978 -0.7183492232436983 -0.19494561478634118 -0.8053470128016713 -0.0033547531366810383 -0.004797428794169719 0.45698066040221885 -0.21870387180009393
89911000.0 0.6878853475780498 -0.7272589930777243 -0.2084105955326815 -0.842960485953353 3.957245742671252e-05 -9.897752065041089e-06 0.46660309854214277 -0.21809531065768323
90910000.0 0.6780672475950755 -0.7327973419628638 -0.22948029404056003 -0.8762912975084586 0.001102756107382139 0.0009566503289710363 0.4687152464871215 -0.22078134751494957
91909000.0 0.6697461049333886 -0.7375410600682204 -0.24578430444986005 -0.9090079705481677 0.00045570906683635584 0.0024435069980428006 0.4691461498962331 -0.23845031494116592
92908000.0 0.6616593394160858 -0.7478620503866129 -0.2689392097960082 -0.9446957241505324 0.0036961402208915495 -0.00026174169997874994 0.4581720370878721 -0.23786748430113264
93907000.0 0.6566626855681853 -0.7517721078514277 -0.283539947932097 -0.9709403660615123 0.00019994823534606775 -0.00040276653114179367 0.46440563358749803 -0.27163748245261454
94906000.0 0.6438549326397583 -0.7606201623283808 -0.30030688488433904 -1.012597918595562 -0.0006473083126970874 -0.0021185131705312218 0.4546386786305813 -0.26554647713354984
95905000.0 0.6362963975155127 -0.7667620589875198 -0.32543617893170257 -1.041122897532435 -0.0017000151933820584 -0.0021670662969254456 0.45700597066829945 -0.292983055727674
96904000.0 0.6306430959415514 -0.7730123979505473 -0.34093954488986733 -1.0822718460993477 -0.004961691595934844 0.00193477227335145 0.45025610775566616 -0.2781848131255873
97903000.0 0.6185066110537729 -0.7822516518689986 -0.37018674981870553 -1.1129864003659986 0.005565688380387863 -0.001790211574260299 0.4561517023554578 -0.29815921182351185
98902000.0 0.615308543198696 -0.7860795025025766 -0.38792378908114067 -1.1499516139998807 0.0022169284339003128 0.0029497312129691255 0.443891246644538 -0.3026321894087903
99901000.0 0.6042528587726977 -0.7932042333258328 -0.41621387567122764 -1.1825612975603996 0.0010368214910757918 -0.0009486942446791651 0.4567484664056291 -0.32616861006250425
100900000.0 0.5995415417689243 -0.7966858809740144 -0.4459530854651114 -1.2166114594644204 -0.0007891394728900305 0.0012798619139746462 0.46104855903762126 -0.32899240170455774
101899000.0 0.5885538781253836 -0.8043830407489774 -0.47249418794267384 -1.2541966233686779 0.002239657450472515 0.0018165121897314516 0.44474754933083605 -0.3247755951056291
102898000.0 0.5806452019212148 -0.808819334972818 -0.5085264928425784 -1.2940599220972062 0.00033329601958100843 -0.0011491050706508331 0.4397383636945779 -0.355716845236791
103897000.0 0.5720258973962494 -0.8165731895660152 -0.5466033615563661 -1.3293809611034304 -0.00012836285116762648 -0.0030801982279459092 0.45976577260428847 -0.3351446214480873
104896000.0 0.5637070404705787 -0.8293778105284114 -0.5912366073056489 -1.3581430066372635 -0.0006313394817731813 -0.0009307418640973291 0.4246958209706564 -0.3409661258058639
105895000.0 0.5530739890059085 -0.8293414625442841 -0.6352898426974589 -1.4025551238184681 0.0010390141941312289 0.002735230997556483 0.4323696320267296 -0.3668572363973081
106894000.0 0.5441700630939956 -0.835968080353716 -0.6872757786355949 -1.4388467850764504 0.00048559268580448484 0.001127033490768658 0.41979988835825854 -0.37263524472517856
107893000.0 0.5342689920015207 -0.8420597876722763 -0.740292062830873 -1.4745927128650171 0.0009884889151313841 -0.0010806715670301404 0.42145936780464743 -0.39720900004242965
108892000.0 0.526337056348486 -0.8444353628812632 -0.8017851954098343 -1.5177586227215492 -0.003248856036365545 0.0020956204567314095 0.4191913528839824 -0.3818312547085381
109891000.0 0.512827552281599 -0.8529771683543843 -0.8570016746443502 -1.5519483602210415 -0.002270979249081875 -0.002466747247356227 0.44262068609325533 -0.3892614392979813
110890000.0 0.5015293560458635 -0.8704480376135164 -0.9458112738767408 -1.56560110085796 -0.000649220049254206 -0.0018164514015671781 0.41996125632560993 -0.3972360041567424
111889000.0 0.4919790239298411 -0.8600805465344747 -0.9858381888717249 -1.6203501577628574 0.0020061836532065183 0.0011170539595699695 0.4152624986831771 -0.40737421616052766
