! Created with skrf 1.9.0 (http://scikit-rf.org).
# Hz S RI R 50.0 
!freq ReS11 ImS11 ReS21 ImS21 ReS12 ImS12 ReS22 ImS22
1000000.0 0.9870979715129531 -0.000718362859632362 -0.018190631745549874 -0.05589006035510959 -0.013184150984979093 -0.00555374620213913 0.37253577459063375 0.3407767811869765
1999000.0 0.996658750747623 -0.01102986871850151 0.0006251704885117868 -0.027133840432349843 -0.007343209871772722 -0.006178830046869685 0.25311102517492895 -0.05935326050737617
2998000.0 0.9963002664489692 -0.020619927724243363 0.008938853575627344 -0.012788897564356132 -0.002853813415413525 -0.0012335214263667217 0.18880230830047143 -0.13849559200716005
3997000.0 0.9997413312402108 -0.0340964604664622 0.012266321755572416 -0.0030145763545929394 0.0014383698261786323 0.0006852135096915784 0.08314965520408699 -0.2283205755759464
4996000.0 0.9968089898893934 -0.03570952575556312 0.010701403786435798 0.0013413248002096863 -0.0037965336436101794 -0.003953117571605481 -0.053015080157163816 -0.19946476397554405
5995000.0 0.9960263443099197 -0.05236950051754586 0.01082706240718951 0.0011354899103134643 0.0042776899232830606 -0.0006293692037775316 -0.12068529250331379 -0.1141897191448932
6994000.0 0.9950831716145161 -0.06095475691523569 0.003919671324424239 0.007693228643949584 -0.0012483468669803796 -0.005878263044726756 -0.1411597789707218 -0.03420286572535942
7993000.0 0.9964350545013755 -0.06945004937975804 0.004366201402129084 0.0007509805897272056 0.0017156613361530826 0.005919265855199395 -0.1529581163557832 0.03502769385687109
8992000.0 0.9942641895848394 -0.0749087679410936 0.003892867113459806 0.0036993668910427257 0.0008474646099452332 0.0020580423386816833 -0.15905862959435133 0.06640057090460103
9991000.0 0.9949858760038471 -0.08359679692707767 0.004682659155383426 0.004589255519155996 0.002379891872782218 0.0017236914532378312 -0.14948325855946054 0.08908497940980549
10990000.0 0.9932177431672419 -0.0948352267397022 -0.002721588693721153 0.0026734526814980644 -0.001243472130981883 0.003013695021244083 -0.14259468083221838 0.11967564126570525
11989000.0 0.9912610335580853 -0.10101684928444613 0.0007081088327939653 -7.943350544938765e-05 -0.003506541497813408 0.00428018937584688 -0.12877445631168646 0.1423347122336275
12988000.0 0.9898898730998413 -0.11051836851573517 0.0019227786456320424 -0.003882712281691938 4.874320027245311e-05 -0.004063784469650348 -0.11614600050999073 0.1659061891839278
13987000.0 0.988956598332477 -0.11625816435268505 0.0019330834168770482 -0.006343512641966985 -1.216773788573176e-05 0.0032639035612313586 -0.10393812572933882 0.18062682090396254
14986000.0 0.9882749516124987 -0.1267029061439137 0.004587154731054589 -0.002420356294239239 0.0011558888896937968 0.00040754554154283346 -0.09870323491568915 0.20036005629972328
15985000.0 0.9871041678686373 -0.13535494479465918 0.001334837130245587 -0.006829428768375706 0.0025320737011152905 0.0010569683835481138 -0.07377484766041542 0.21159360783738837
16984000.0 0.9855423485892019 -0.1461550030183029 0.001945178661616392 -0.004521887980356464 0.0003251400453683697 0.002508145155089285 -0.05783257989317269 0.21662237480818963
17983000.0 0.98542846763617 -0.15029693691566004 -0.000906333718199712 -0.0062978309333654135 -0.0026830660734735627 0.0026882997735697477 -0.04812508698131506 0.22205204426143177
18982000.0 0.9825596963290077 -0.16214270319335336 -0.002866877416014625 -0.007399198165209883 -0.0006236443961968915 0.0014942122399957828 -0.022977040112828032 0.23530733664170675
19981000.0 0.9818046148639342 -0.1683744519007612 -0.001368407608740536 -0.006991756135252502 -0.0007095899911019175 -0.0006404377510054982 -0.018266835669938756 0.23799173915127275
20980000.0 0.9794284769030568 -0.17884358782287477 -0.0071920305657539796 -0.004354589285634237 0.00043817053745858793 -0.005563131884766643 0.005033482876339111 0.24589789420333497
21979000.0 0.9771817062592081 -0.18815310215976447 -0.003290732471876726 -0.0019723119136272776 -0.0008672643882209464 -0.0014806571228423372 0.012915452587867549 0.2363629395986193
22978000.0 0.9755743311510119 -0.1971934278044168 -0.006181646981435756 -0.0025147837458330694 0.001734733505903242 0.0046437917492063155 0.02143028314640976 0.2525751884146079
23977000.0 0.9785312062172999 -0.20252731568091276 -0.007388016901439665 -0.005602118640919866 -0.003000446237909986 -0.000373991841953555 0.0373146970535356 0.2515877443672543
24976000.0 0.9734898744538213 -0.2158632517611165 -0.007512259832899066 -0.0004628071201432629 0.0015694826570573678 0.0012508586569217742 0.06006394683815513 0.24560109711781275
25975000.0 0.9744091403443242 -0.22124621658558385 -0.0070085979870141415 -0.0030396429261051908 -0.007227950747553273 0.023626753471718116 0.07558470587914741 0.25545895974814187
26974000.0 0.9696145483736153 -0.22954935177915428 -0.005608327689306149 -0.0005122764663255132 -0.003311760222454595 0.004416119219650608 0.08274597842051672 0.25718096236409366
27973000.0 0.9697760740071895 -0.2368495687080772 -0.0025975104448078706 -0.00618463419574788 0.0001851783834550697 0.0003889712011434358 0.10295864925447894 0.25876491277739566
28972000.0 0.9652010495935895 -0.24767953407464458 -0.003386664497756087 -0.0015581574504967438 0.00023879122317491903 0.003189362162965916 0.13181317126184988 0.2511778929680999
29971000.0 0.9636891122488573 -0.2562386500706116 -0.00043027198361168985 0.0004864578389787359 0.00024806478958472463 -0.00016791155151831062 0.14271600342797894 0.2653398495242377
30970000.0 0.9630881089498305 -0.26259303879661267 -0.001400698952034534 -0.0031016975534970135 0.0037104826040064262 -0.0016256215982404052 0.16415322067703986 0.24783644033788704
31969000.0 0.9595211161553705 -0.2703885449273915 0.0040534246033990745 -0.005249496760477051 0.0015236420718958788 0.0014118729360494285 0.1493319147493704 0.24618712031762904
32968000.0 0.9580554666661432 -0.27920177996767637 0.007428330412011102 -0.006735036148885243 -0.003889890303414188 0.0025763944194172363 0.16299993152449604 0.2479200380122785
33967000.0 0.956065357444886 -0.2885804317738513 0.00984673984924143 -0.012034715095629013 0.0007636402904163507 0.0007732151709057652 0.19140975958149362 0.24213480863963943
34966000.0 0.9528755047063213 -0.3001658555476848 0.016565368034684735 -0.01500873100183507 0.002813624359645744 -0.0020111790622687176 0.19236478400735485 0.2469035986347784
35965000.0 0.9488783828209958 -0.306344210403937 0.01564271040484677 -0.01759636775928767 -0.0004476830067440625 -0.0020203283674327787 0.20505169127923487 0.24941894714220364
36964000.0 0.9478777239748609 -0.3150167064906836 0.016237879951083903 -0.014253364764299952 -0.002587998434203651 0.0006175093962972949 0.21713581865286694 0.24983321600209463
37963000.0 0.9447121993688572 -0.3237890451693149 0.023047922167591297 -0.020386042323527483 -0.0004734362070853968 -0.0010446845434606531 0.22941813710651462 0.233262180939338
38962000.0 0.940956002195558 -0.332861886092645 0.02581154899526307 -0.024596401666608352 -0.0005428757630194715 0.0027963958029461828 0.23081639140274438 0.22952043506584574
39961000.0 0.9376799460628557 -0.34010665392132544 0.029037221413529355 -0.02896044099857031 0.0016061895753996939 -0.002251925689088641 0.24559937634607956 0.22689388435878297
40960000.0 0.9338392335419571 -0.34834243636222395 0.024861337826870385 -0.026679427109070834 -0.0005340997520730187 -0.0004040012549058974 0.2725810657068118 0.22808587385486795
41959000.0 0.9305037210889813 -0.3581831630389115 0.030528383381303155 -0.03360206099295359 -0.003580754221846786 0.002212565054055229 0.25915342710360056 0.217254604649611
42958000.0 0.9261413993080885 -0.3679631927362518 0.035320880972939124 -0.04256581127261017 -0.0007120931838871849 -0.005630350489007004 0.2799737465674577 0.19987554822684284
43957000.0 0.9250680248477854 -0.3735688045932332 0.032717434505699305 -0.04936564544098736 0.00136159035017452 0.0004022602249000366 0.2769750217768396 0.20254495845791678
44956000.0 0.9214429994965327 -0.3831063979155567 0.03544656873028722 -0.0539347105042664 0.0014678303628777904 0.0034366361534375525 0.2983392721980413 0.19716171351036446
45955000.0 0.916915864236616 -0.3937649274328781 0.03742246630793155 -0.061601845354191526 -0.004927494882228124 0.001303051408700229 0.3102451498355269 0.1898417381387229
46954000.0 0.913650577760642 -0.40094252996862956 0.035507412295678914 -0.07025313402115717 -0.0003037112637764666 0.002821858565523138 0.3254242804371698 0.1854348572921236
47953000.0 0.911281393163351 -0.4084621454422209 0.03931966650290825 -0.0739199072713168 0.0009757718644826217 -0.0013894055260736903 0.3367082288409116 0.176853723627229
48952000.0 0.9045736058574732 -0.4205303085652789 0.03887955975329824 -0.08408239852686 -0.00011102549477409904 -0.0009494767749840786 0.32552532606732926 0.16214152498591772
49951000.0 0.9009702627157754 -0.4255504151000991 0.037279849266915674 -0.09168840263989797 0.0010236965334199813 0.0004109622334958691 0.35004605720058346 0.15098810836064494
50950000.0 0.8964057521577233 -0.43312946978766786 0.04367019682066232 -0.09984114970614379 -0.0017243193925367936 -0.0008284617392749913 0.3585475258009036 0.13932361496548368
51949000.0 0.8938626491155787 -0.44270720228168836 0.04506477476672878 -0.10937097714779732 -0.0026365796976067103 -0.0020715734512365496 0.3568838368558296 0.14124296677732892
52948000.0 0.8923949445404701 -0.4495097456770114 0.04588094630978412 -0.11513618614062525 0.0015174664957841746 -0.001054555776510895 0.3781988101634908 0.14011896945424573
53947000.0 0.8836317997650093 -0.46040964243709165 0.043275802573378715 -0.12729482423508015 -0.0010859581125441493 -0.0014207199663549283 0.37170188819170913 0.12293315154472431
54946000.0 0.8790197964428159 -0.46857136399873034 0.04601565264577879 -0.13462176500975997 -0.0027550420989744966 0.00011778847482754849 0.3811179655870237 0.1269007840472557
55945000.0 0.877601800099787 -0.4757589786505487 0.050383445955133936 -0.14859311863197466 0.0018462366732949747 -0.001679264716172142 0.3907393033101478 0.11311307774431006
56944000.0 0.8729582070747279 -0.48340236609772236 0.050097138576682514 -0.15781783514732634 0.0009356254495748552 0.0026156024140736394 0.3987992983412535 0.10082512688950054
57943000.0 0.8664530276959542 -0.4949430425619841 0.05169180624668456 -0.16786291961170346 0.000616211720515431 0.0012047428242908992 0.41275774902257284 0.09123816881562649
58942000.0 0.8628178791897243 -0.4967119058282642 0.05417313750542101 -0.1817691158229823 0.005747498344900813 0.0006790009856387629 0.4167256780048542 0.09405216257803192
59941000.0 0.8587509071628524 -0.5074691838298933 0.055838088498719816 -0.1891947596733301 -0.00035117415309774823 0.00011136728706886649 0.4268438266476625 0.08395267423388136
60940000.0 0.8518789613990402 -0.5139949587201147 0.05291307487770985 -0.19646458310340792 -0.0009096920567078002 -0.0023424672952173167 0.4192611691266531 0.07521793616254026
61939000.0 0.8481017840788336 -0.5211681176494773 0.05615409542104638 -0.2041757749147876 0.0004792952306760032 -0.001225824288738087 0.41734234023599764 0.05826178274907799
62938000.0 0.8412540478811724 -0.5331815131458911 0.05857689827073012 -0.2218337993858928 -0.0013118774409041267 0.003116077404453689 0.4414644797686215 0.04452264545004461
63937000.0 0.8370504270780879 -0.5407651601142501 0.058550144474030945 -0.244735666254349 -0.001571630268572752 0.000126800515483729 0.43000808266785606 0.032735944960765956
64936000.0 0.831462550790344 -0.5447654269556894 0.05998826414811796 -0.2563086716086399 -0.0026943467017306265 -0.0015320923420516453 0.4430841490266203 0.03909903016144737
65935000.0 0.8277841408227334 -0.5585682455594562 0.057897791539658336 -0.27166856703387726 -0.003820520193060487 -0.004356299089137139 0.4465386691820648 0.021092458334281035
66934000.0 0.8225894808741405 -0.5620034586016459 0.05522555840652044 -0.2887558401187723 -0.0010987425134161863 -0.0003226911164811971 0.4357899190661108 0.006070660890098313
67933000.0 0.8191706045390831 -0.5710128922012822 0.057804973949754826 -0.30260881596726186 -0.0004273824416122336 0.00010446624256459948 0.4442253539734908 0.009906705164525543
68932000.0 0.8023302061406232 -0.5714994309746467 0.05064239043683346 -0.31216032993428766 -0.002200775656079441 -9.213293925082548e-05 0.456127911531207 -0.02350235149659272
69931000.0 0.8042136373488772 -0.5878207364087189 0.053567464387738774 -0.3313785773620684 -0.005858152532154732 -0.0008827101909081436 0.4557656685018351 -0.025648755237542214
70930000.0 0.8010991954622352 -0.5923376874104497 0.04859545283358462 -0.3460787396348682 0.0029960710911360777 -0.002557701541962759 0.44289108289280604 -0.03128890850888786
71929000.0 0.7966267541389799 -0.6014897663235786 0.04412698771360184 -0.36723287084203615 0.0003283416142080246 0.000265524984517971 0.4533163394316289 -0.039447793960476533
72928000.0 0.7896357635334128 -0.6109061175450808 0.034815667531412575 -0.38410055507367424 0.004112762132093468 -0.0011159740099204798 0.4691125496071758 -0.04827891728171909
73927000.0 0.7809676255259996 -0.6181454816346085 0.029066669821576085 -0.4095307145888097 0.0016656161804455135 0.001108222670958819 0.4609362812287725 -0.06201465861383052
74926000.0 0.776406246426534 -0.6268486676183176 0.02111848831746472 -0.4270417140063429 0.0008827057820307297 -0.0017808583804083127 0.4673120319411995 -0.06734677281167448
75925000.0 0.7687243683890328 -0.6325987043567848 0.011459700614729873 -0.4528446060067744 -0.000828828749419423 0.00464550847580594 0.472953121669522 -0.08162813563995142
76924000.0 0.7641885053858238 -0.6396587976016438 0.0010074524641884347 -0.4723887509298061 0.00011635355469490118 0.00020921335142351846 0.4656758003744437 -0.07840884520652766
77923000.0 0.7583030844863476 -0.6464050152926502 -0.014725674078032904 -0.4961574957284809 0.0009349854288911758 0.0012672508511582007 0.4599402448643424 -0.08992373490424421
78922000.0 0.752731008428233 -0.658070490869037 -0.026409071708282876 -0.5292813447822876 -0.002096481185997806 0.0011825216686628766 0.4633458781569737 -0.11178812468210958
79921000.0 0.7419712480790576 -0.6607814820233734 -0.04599281713274577 -0.5549650040736207 0.00018716797518669487 0.00042323713514117914 0.46667264066437947 -0.10890531199319398
80920000.0 0.7365814510087464 -0.6712022937966242 -0.06062758076238699 -0.58320954714142 0.0037743086490440204 -0.0026646980075332176 0.4709457160095825 -0.13185322822070605
81919000.0 0.7306769763350485 -0.6780049576572955 -0.07986298639074635 -0.6145264482874202 -0.0005448679345245016 0.0028403187334507026 0.46489992493272325 -0.14049948087643713
82918000.0 0.7228285181443053 -0.6845036746302445 -0.09486351139213885 -0.6443324745132388 -0.0028772198369711953 0.0022304534782728487 0.477195963936723 -0.1468537672908044
83917000.0 0.7146034102715723 -0.6923441462114338 -0.11480882453726284 -0.6746556143673393 -0.0011641383467465448 -0.0021291365210653404 0.47948435535514333 -0.15706692141142464
84916000.0 0.7098113984205742 -0.7003920318087783 -0.13342319342068382 -0.7126366574562571 -0.0008104619787794173 -0.00013106192697256346 0.47600442212454835 -0.17297844384452873
85915000.0 0.7039920982255197 -0.7070737511787792 -0.15553478703693396 -0.7414786533888723 -0.001725244167972336 -0.0005782831207128926 0.46521021547314934 -0.18233315812661718
86914000.0 0.694460243363272 -0.7169131134529659 -0.168259465747999 -0.7784964253040588 -0.0031037030030324347 -0.005392753314724071 0.45520013108658536 -0.18810813864305695
87913000.0 0.6881312804771982 -0.7220210609108376 -0.18809557767274507 -0.8101046639045824 0.0028334986858579883 -0.0033505149971968565 0.46025172752433546 -0.18866930208930344
88912000.0 0.6799193085001606 -0.7282683556894831 -0.2032077400721414 -0.8472389505356639 -0.003264990734228384 -0.002446957859527376 0.46514019084603814 -0.20443627086628052
89911000.0 0.6718299762903749 -0.73871598457775 -0.21871738498419457 -0.8820277544038372 0.001888507404598177 -0.002901803947560527 0.46232678749453787 -0.217336619038257
90910000.0 0.6663390873335951 -0.7423546472552263 -0.23949412238409185 -0.9201020670384745 -0.0021569944780724807 -0.002252619302071441 0.4581400281919254 -0.20637992893763155
91909000.0 0.6573880590110474 -0.7461273027236622 -0.2618863894680801 -0.9528550896838265 -0.00294054719615978 -0.001265709082635443 0.4691565442632132 -0.22136349990230927
92908000.0 0.6510575049884874 -0.7565572066077793 -0.2779283472683568 -0.9852197973095546 0.0006873643235300678 -0.0002656310370910224 0.45043792277378314 -0.24492886379771456
93907000.0 0.6435650885511217 -0.761556485405506 -0.3001243217957468 -1.0172423989652826 0.0008859041511010207 -0.0008595905800472571 0.46612348666225284 -0.25599962524742986
94906000.0 0.6289797612040376 -0.7702668372640171 -0.32429286128095597 -1.0540074600832816 -0.002441962072244877 -0.0022076483469559882 0.4617482178098351 -0.25407601509280864
95905000.0 0.6234150088442189 -0.7758807494375424 -0.3452715329522006 -1.0920651947305333 0.0029921313906538767 0.0017521072648567202 0.457551517847955 -0.2746167011673407
96904000.0 0.6171246145465883 -0.7829190098737704 -0.3660641575549116 -1.1306038908608145 -0.0008864682077480737 0.005365252496131093 0.461559709464584 -0.27439704449022184
97903000.0 0.60532664666411 -0.7899420263357202 -0.3921071764584776 -1.1628286184015941 0.0019056124762466956 -0.003917443369261761 0.438148362217441 -0.2888128363614991
98902000.0 0.6015254349654281 -0.7967286897430345 -0.4152946125417471 -1.2072275650306368 -0.002995512879913205 -0.004238719985558624 0.443209820045252 -0.2974545420891322
99901000.0 0.5913099280720848 -0.8018789599904625 -0.4476739838672006 -1.2381128288344603 -0.0018091150078229908 0.002758043174837845 0.45532980734872164 -0.3023943369257699
100900000.0 0.5803499615199855 -0.8061462020209184 -0.4841690221313552 -1.2636600261511668 0.001473914713783518 0.0020806004584716527 0.46431328893700596 -0.3098773213604062
101899000.0 0.5721251943836533 -0.8127290020741644 -0.5140584578802057 -1.306487081712569 -0.00047476359212159916 -0.0022241499983660716 0.4451644495986326 -0.321392955703056
102898000.0 0.562553796568128 -0.8199214374321392 -0.5565398678154932 -1.3464449867543469 -0.0018213154918558492 0.0018369978854984805 0.4499964471618632 -0.34698500160482504
103897000.0 0.5540356975164707 -0.8277784046895871 -0.5970213336821413 -1.3867771246084921 0.00031936798395044405 -0.0007505715531696023 0.4559817678657755 -0.33233241242316713
104896000.0 0.5430907419512732 -0.8357045471719151 -0.6547094837551045 -1.4187246883018296 -0.000988361407299558 0.0007182176230599172 0.44250757973026555 -0.346880878777229
105895000.0 0.5358686808988308 -0.8385223723650711 -0.6981560752754421 -1.4692982429568175 -0.0010508549689310085 -0.006095649715393184 0.4358823489873042 -0.35816472144853956
106894000.0 0.5262707576326959 -0.8454945296089788 -0.7604980506778138 -1.5070769566081372 -0.0008933813764085076 -0.0006498500227471262 0.4347837582148101 -0.3793461518726736
107893000.0 0.5181428844462541 -0.8509991271603724 -0.818341554008392 -1.5464878111330622 -0.0005649779557539505 -0.0017260017153398447 0.4294895991611322 -0.38773484058878427
108892000.0 0.5056880208164262 -0.8564878650341555 -0.8801168992425992 -1.575722833675895 0.0006934286556367667 -0.002984069116759494 0.43124543869426585 -0.3823164903785739
109891000.0 0.49527691343046837 -0.863844164175338 -0.9463515778484698 -1.609967350011705 0.0009341577598963916 0.002079316286096311 0.4335351951771563 -0.3842936448507899
110890000.0 0.4827105802066958 -0.878448340830874 -1.028543763469003 -1.6311288862714128 0.0012636876913236627 -0.0030264174828377646 0.4175263371613074 -0.38526903093379083
111889000.0 0.47429914249738614 -0.8689669483422511 -1.078792652371624 -1.6801529353570752 0.0018552023890052085 -0.0015837088065769433 0.42730707432270076 -0.4056277335658571
