! Created with skrf 1.9.0 (http://scikit-rf.org).
# Hz S RI R 50.0 
!freq ReS11 ImS11 ReS21 ImS21 ReS12 ImS12 ReS22 ImS22
1000000.0 0.9772816052255339 -0.006895424566756495 -0.014997949201067728 -0.06207520958290992 -0.022850966038386693 -0.004759931773187279 0.3082533143618256 0.33901855368983785
1999000.0 0.9964827489426429 -0.014604575000791528 0.006422295591737064 -0.02140785956153615 -0.003177718061089637 0.0020930937342184936 0.25449737452416815 -0.04606207232979534
2998000.0 0.9965604525391766 -0.01851831775841654 0.010469352997939193 -0.013196947360830899 -0.0010778055475570193 -0.0032636782015473455 0.1752385204570873 -0.11798571983935595
3997000.0 0.9990351696820005 -0.0288843283831679 0.013851872615738892 -0.00988462349800654 0.0013545276193532023 -0.00036573511596556653 0.07206661287310934 -0.22931201843348156
4996000.0 0.9957083171533234 -0.036189331901910114 0.012429949403503476 -6.05193257776222e-05 -0.001875080650487506 -0.00015562040034439872 -0.039328636486681764 -0.19083280644873
5995000.0 0.9971848524695799 -0.04670308303433824 0.009062323518957324 0.001640730887334352 -0.005494357436910383 0.002302007935687357 -0.131461331855887 -0.08235777712321012
6994000.0 0.9935140871332891 -0.05993196343619279 0.005815495707780971 0.005398333631194083 0.0013790036954273955 -0.00025723452584477583 -0.1516273260688727 -0.027562611073767174
7993000.0 0.9926120575093612 -0.0708128912631214 0.0035833783495157067 0.002599126229566792 -0.002568367268457983 -0.001053594317948649 -0.15428073770560832 0.03412655976308324
8992000.0 0.992357160372419 -0.073964687127299 0.003870155039415688 0.00418519884490395 0.0034420733201510102 0.001894321053809148 -0.1443919720375554 0.05263563575322158
9991000.0 0.9918116203544567 -0.08352916503878698 0.0009014304466020878 0.006933883124095383 -0.0008261386927255629 -0.0004571444103417406 -0.1451215037635833 0.0904811292551451
10990000.0 0.9894977878630853 -0.09402133329761218 0.0013331334772131813 0.0037607490729818036 0.0031048430717537947 -0.00036861575928256524 -0.12855967140443428 0.12004997181750557
11989000.0 0.991235178138317 -0.09822389001204909 -0.0011880692073847343 -0.00048110535445909257 -0.0005977377004292763 0.0011963293246654624 -0.11833250929689212 0.14277018271509265
12988000.0 0.9888184934360468 -0.10940665469644194 0.0010994818360722373 -0.0015423139489569632 0.001950929261639003 -0.0036276255591475666 -0.10522963916228828 0.16152711337659262
13987000.0 0.9859841792134002 -0.11713450308887492 -0.00030945812608723855 -0.005905681727097607 -0.0013968652506949706 -0.002225590415463024 -0.07793729656760685 0.1876771158242072
14986000.0 0.9861702599993574 -0.12683506594707897 -0.00310023079700088 -0.0014617476698552622 0.0005006876119672283 0.0018205868867339327 -0.08464188327248909 0.20329090593869745
15985000.0 0.9859256070785609 -0.13784692703056986 -0.0006562573747329645 -0.002823860847073134 0.0019432282560482973 0.0013016347578700762 -0.06072829570508786 0.2226033750777499
16984000.0 0.9864150588202016 -0.14423872384952074 -0.004876759616749104 -0.006382936528882699 0.0018428357092917125 0.0020972233491355443 -0.06193942688660446 0.21314188450184768
17983000.0 0.9844672100034402 -0.14668197802744035 -0.0026707719783896243 -0.004317981685423037 -0.0005468531843316615 0.004841159017212957 -0.04689924247959243 0.22646923422990678
18982000.0 0.9807649452055319 -0.1614981402369387 -0.0015220409129357484 -0.001882755306737897 -0.0021144839461671463 0.002219480576396516 -0.013286435488940448 0.23677729572518103
19981000.0 0.9815567501958445 -0.16666571315352308 -0.004135265023343954 -0.0060152622450237465 0.004255663362514041 -0.0006768386232269018 -0.0024868856822832628 0.23223450545012847
20980000.0 0.9796785979781698 -0.1764592188397297 -0.007720820968173773 -0.0069039631722010355 -0.0012544518653870706 0.0018347240066906244 -0.005441095930830419 0.2481136558983949
21979000.0 0.9775523924950534 -0.18514528140138226 -0.007140835453477142 -0.006878364923611127 -0.0005561664290520793 -0.005990327923113347 0.019892120798842384 0.24054724139389808
22978000.0 0.9777731814646917 -0.1924873097334341 -0.004248253483123724 -0.002757917576438272 7.232392839756647e-05 -0.0016762376697734584 0.034088654297994465 0.2523980720722562
23977000.0 0.9758032713582214 -0.20361843501656055 -0.0017148811036012631 -0.0008542713853965338 -0.0033755740795819865 -0.00206991973645217 0.048305541432782984 0.24466575237136415
24976000.0 0.9723630533752247 -0.2131119438436289 -0.008426432241405749 -0.0020033885721441264 0.0007248022973880494 0.001743772898068153 0.06877597747432268 0.25159327108094814
25975000.0 0.9746616683962587 -0.21899955649046793 -0.00639493826410113 0.0011961239146657135 -0.0075710265433255675 0.024699527869835078 0.07448089200654749 0.26117296507668825
26974000.0 0.9701987248062421 -0.22763494458747238 -0.004198899912342375 0.0032502942717592812 -0.0013365560930211173 0.001226580417383274 0.0939683991519321 0.26028431887231157
27973000.0 0.9690697380454677 -0.2342482162695986 0.0032261412166757725 -0.0026441653671746344 0.00012362065334789254 -0.0015261244711826916 0.11220915839634234 0.25930141777858556
28972000.0 0.9653385090833372 -0.24470251713000385 -0.002242047114517377 0.0009003156410061446 -0.0007880854220272156 0.0010248009432998124 0.11850366163855149 0.25501992961385533
29971000.0 0.9643615635050166 -0.25466107049794656 0.0019763879999604096 -0.0006796827640866674 0.0015402680066165166 -0.00014988802293239466 0.15667267188919135 0.2620150050972307
30970000.0 0.9590457946886844 -0.2603650665314946 0.00010734518958440706 0.0002691530372076223 -0.00044084363463009506 0.0008727655118163912 0.16797201613546245 0.24945632960778513
31969000.0 0.9592638857862683 -0.2700537128243733 0.00511111827341861 -0.003455906526170283 0.002052970630787819 -0.0012226838385791582 0.16067101817915186 0.2463448523965432
32968000.0 0.957243062594821 -0.2768697626810982 0.004898429334891302 -0.007218466549758083 -0.002475823192742494 -0.0003864118938637398 0.1721196481111774 0.2492562334989528
33967000.0 0.9552278365517728 -0.28671611775695427 0.009069484919929253 -0.00910248365691891 -0.0016571083617459483 0.0005655661504905147 0.18603365717631654 0.24609207574321595
34966000.0 0.950824899829489 -0.29795449835376253 0.013906037883607423 -0.011215310046078762 0.0011617767727778974 0.0005046346395500147 0.20748388909205923 0.2512482567844682
35965000.0 0.9478679994678468 -0.3060837061243571 0.016192729039540246 -0.014912955425804437 -0.000498840153320014 -0.0001838116892383748 0.21218824145885357 0.24311217011001168
36964000.0 0.9454453355282795 -0.3130217913433811 0.013422521131487262 -0.012288000651236065 0.0023986750470488044 -0.000747434442290036 0.21128564691649962 0.25259923763162123
37963000.0 0.942013493925968 -0.3237532830032617 0.018657560815579653 -0.019140403271168213 -0.001003796437672953 -0.000707829731234207 0.22490398149600238 0.2199320367869261
38962000.0 0.9397318972325859 -0.33364575345363606 0.024498342133213207 -0.025031486299139944 0.0005853256955461074 0.0025503942647162356 0.24433847208128393 0.23136747245666073
39961000.0 0.9370541203960503 -0.3384810887166142 0.022640361511095074 -0.02802738966095353 0.0005708012438952045 -0.00019239485549173916 0.2511082247003421 0.21858956531326584
40960000.0 0.9329503681022808 -0.3472355351786718 0.020569478433435737 -0.021536842178611564 -0.00039960275442739164 0.0009789158094310468 0.2727234907159277 0.22223417622795844
41959000.0 0.9320353939308473 -0.35758726094503196 0.02843581859514161 -0.03295118298155924 -0.0018139245213829468 0.003411130199409816 0.2710486846588484 0.21313195590222542
42958000.0 0.9266138669936311 -0.3655264091418146 0.026268255274599858 -0.04275943969451023 0.0003015282522620456 -0.0032836575940844983 0.28305328651192246 0.19722635311691875
43957000.0 0.9247780814835355 -0.3735786456057565 0.02997034583888865 -0.04517842000322067 0.0013036499439025276 -0.00026143518362863207 0.28258037059196894 0.20456279731687646
44956000.0 0.9214697047386533 -0.3783763636841749 0.03217690495160564 -0.05205030944706609 6.319035520449753e-05 -0.0033666667397498863 0.30490876905147646 0.19273201813791443
45955000.0 0.9166097579893766 -0.39090969645003254 0.03155893101808648 -0.05553096757707054 0.0018032388840342063 -0.0014690029888353086 0.31404183933206603 0.17929119304063104
46954000.0 0.9130925523828305 -0.3996353460956727 0.03311237492193027 -0.06394359445409308 0.002252165615680406 0.0002873350030467896 0.3324381352357454 0.1720882950057332
47953000.0 0.9106010836730564 -0.40554218842243195 0.032566277637784025 -0.0690204631236184 -0.0014574623749104938 -0.00013656771528100197 0.34774674552014445 0.16154186105201304
48952000.0 0.9042145013598444 -0.41668386696819426 0.03549687244256112 -0.07775162033711287 0.0013970845559874013 0.005737314542529587 0.32636689923851475 0.16469461225382315
49951000.0 0.9013274017159129 -0.4235495880874415 0.03255297191069263 -0.08565428279445025 0.0006726042530640271 -0.0007265569678732577 0.3502416800046937 0.14985368307949506
50950000.0 0.8981708713382269 -0.43016219927781907 0.03729922282244479 -0.0934570708004569 0.001585927647093892 -0.0011965778155570291 0.3539087557813185 0.14049248523433225
51949000.0 0.8940783079639893 -0.44002345261730036 0.037161080284919025 -0.09982885425515912 0.0017627294954858776 -0.0008372947417989102 0.3590748428330924 0.13672943237426977
52948000.0 0.8924055067021873 -0.44751749859375595 0.03966779695340803 -0.10599977087174854 -0.0030356528755323105 -0.00180753442929102 0.38112676761648506 0.1305112603540775
53947000.0 0.8845348031334435 -0.4562517024523639 0.03873677047496865 -0.11666269005375969 0.0014896019148970083 0.002611090686980283 0.3790381295146751 0.1279160901607627
54946000.0 0.8811480826025275 -0.4634026253690083 0.041166560014774575 -0.12503661448115894 -0.0014754464771782022 0.001607094436765442 0.3882970587172056 0.1130650612302802
55945000.0 0.8771633430669789 -0.47394170144814374 0.04392103180925025 -0.1379919757267459 -0.0007274161416408141 0.0019133784042578699 0.3902470352347818 0.09297920500452213
56944000.0 0.8740375354395467 -0.48249658285604813 0.04535776802151303 -0.14646845530784644 -0.00026295354021833487 0.004143130661398901 0.4040756919984172 0.10290486462889036
57943000.0 0.8662303336010321 -0.49327660404223994 0.04214621193450412 -0.15772432222413213 0.0017103858354359763 0.0010143889072840738 0.4025823470369203 0.08691056586822271
58942000.0 0.8611871340366883 -0.49768054210977036 0.04522795449077049 -0.16773929946479685 -0.00036233454564747205 -0.0009940114502717964 0.42642054145630487 0.08214485423324944
59941000.0 0.8592770163172613 -0.5062427980188015 0.048644767366985746 -0.17650008633780281 0.0018289565538305926 0.0006848736579429253 0.4164306166887313 0.08255377838314193
60940000.0 0.852080665572431 -0.5123508062252297 0.04761833379929536 -0.17911043977241775 0.0005016000720001379 -0.0017517369818398699 0.40768950936087334 0.0728875388755883
61939000.0 0.8491367737332055 -0.5201758039816569 0.047210097004640864 -0.1857761829267207 0.0005660345883243489 0.0032566538503932966 0.4184219435200178 0.07357655877581548
62938000.0 0.8425160801605559 -0.5301246672999587 0.0549903290633119 -0.20636184238070437 -0.0005077412402423029 -0.0003279390543412115 0.44076911137961433 0.05040253150026442
63937000.0 0.838405158259642 -0.5356536789760942 0.05299182990769435 -0.21975524596021362 -0.003141137787289339 0.00022123159666520063 0.43767942980886493 0.03182321854078338
64936000.0 0.8309064190750853 -0.5449104873406445 0.05343036090273749 -0.2344282828309187 0.0003242337765209619 0.00036556745586957675 0.4366506569085384 0.02915977294226453
65935000.0 0.8277337669753168 -0.5542465062712187 0.04954408030198662 -0.24921155989117022 -0.0003006610720326642 -0.0015563834291035643 0.4405156608209303 0.010023289317837024
66934000.0 0.8245646372728528 -0.5580845639614921 0.051401956459293636 -0.26091985521237526 -0.0012192814344260522 0.002147076407178829 0.43784889092522894 0.005158558103478465
67933000.0 0.8211434728979427 -0.5663345212841133 0.05118891677378651 -0.27351086202382596 0.00010708647575064798 -0.0009854589989094198 0.4443318068137957 0.003234641579487477
68932000.0 0.8041016274442377 -0.5705253074890966 0.0451112713982516 -0.2847791333492033 0.0013629946122111652 -0.0013765813496787378 0.45269027945128004 -0.019390633397907378
69931000.0 0.8053170058093261 -0.5840036825657025 0.050439119352613734 -0.3007947982610284 -0.0016322307708576955 0.0008193697230489378 0.448467528981878 -0.020296341225412663
70930000.0 0.7991490463712043 -0.5901421165227871 0.04547683664632352 -0.31420466944158165 -0.0008984217709264102 0.0008063665470785932 0.4444044100140383 -0.032498223515055824
71929000.0 0.7965592591218669 -0.5991195531638258 0.04538905418907096 -0.33246828326183475 0.0015092542576921923 -0.00021630708260939982 0.4514764501991298 -0.03883647616085525
72928000.0 0.7883819756552145 -0.607624768896052 0.03725770019851056 -0.34971716985782136 -0.0008080663933428841 0.0009911092456363342 0.46757887166866485 -0.05923109282546039
73927000.0 0.7814219160502636 -0.6128080409445807 0.029202605414399414 -0.366929763589812 0.0010709038052527245 0.001268219010421794 0.45464288555994775 -0.0682980482058913
74926000.0 0.7783388598325761 -0.6231601685437905 0.022628791774155194 -0.3825126370360226 0.00017715827768113792 0.002412133837510898 0.4663576635195941 -0.06764314306295216
75925000.0 0.7734633649366093 -0.6279992530066716 0.016598770390178676 -0.40632088954857354 0.0007746245465247424 0.0016129503941898948 0.4610561384890675 -0.08151239366838532
76924000.0 0.7657176811478034 -0.635519564884222 0.0026419955491527405 -0.4293130969457585 0.0020269253173804238 0.0024095542657849123 0.4735010901460978 -0.10336888547071085
77923000.0 0.7575798727832442 -0.6424542531089071 -0.01229632537524753 -0.4497114143741807 -0.003610458121906823 0.002860478340410403 0.46902687811693 -0.09824491277357071
78922000.0 0.7534606885861431 -0.652401541859992 -0.02524513370532454 -0.4732889698520771 0.004632301187660559 0.0019027410424959504 0.4535583736397911 -0.1108428922630027
79921000.0 0.7454686513235711 -0.6565749043710216 -0.041832563668389805 -0.49713304670261066 -0.0053567813377547865 -0.0028180422650453695 0.45713804740218467 -0.12255765583315455
80920000.0 0.7396440217328801 -0.6680953696649984 -0.05882916638359019 -0.5266446766764209 -6.148021800107867e-05 -0.0012688470122873522 0.4803352813778372 -0.1354407102339395
81919000.0 0.7332728522904881 -0.6727314468699765 -0.07066483336120638 -0.5515373752838814 -0.0004531287625657993 0.0031287966607334177 0.47556382747644416 -0.13407038890804668
82918000.0 0.7250602364208225 -0.6793959821439783 -0.08687806520429907 -0.5819076206953794 0.0016369851962137283 0.0008680687977332798 0.4720800623471274 -0.15071858926931433
83917000.0 0.7175691909843364 -0.6887962677236898 -0.10657097755627741 -0.6095141284914563 0.002097117733299421 0.0006212833988785612 0.47456523511239557 -0.15340385165541545
84916000.0 0.7112243120939702 -0.6956168761095858 -0.12790338098718929 -0.6455894077237063 -0.0014568272482536507 0.0021623866721855495 0.47406895614204864 -0.1771104181221092
85915000.0 0.7059462569067599 -0.7012040281147386 -0.14125347494815277 -0.6731772592082056 -0.0033532926766318954 -0.00014321220739831124 0.46738264881912794 -0.18445436305714136
86914000.0 0.6987663031237717 -0.7129998163342942 -0.15993023457609046 -0.7065050404508355 -0.005175672342938286 -0.00023561789139348732 0.46242315703958364 -0.18552609428202965
87913000.0 0.6902381352641199 -0.7173996205610305 -0.173670200286992 -0.7347118946207937 0.0005611023397938028 -0.000912227458626367 0.4665204167023149 -0.19137447287686626
88912000.0 0.6821479535798123 -0.7236541384092778 -0.1912870919378179 -0.7655409221380479 0.0012383874429372941 0.00449904213563012 0.46381694626508174 -0.21767635454346962
89911000.0 0.6754072027859827 -0.7319335181680195 -0.20121197443679484 -0.8023907246025758 0.00023591894646942375 0.0029083004997691965 0.4712680152319347 -0.2159934055228376
90910000.0 0.6686657807362932 -0.7376716352106291 -0.21689916123690073 -0.832287763990754 0.003169426250219703 -0.000831895951197188 0.46463050029430825 -0.23034265158945452
91909000.0 0.6597840917233424 -0.7428075954712661 -0.23948078882371004 -0.860211781966728 0.000582526793402102 0.003122080713251607 0.4658407955286557 -0.2311682970613167
92908000.0 0.6522717193556319 -0.7513115345373368 -0.2543017608513797 -0.8952493106693173 -0.004760376730796779 -0.002001975245423522 0.45711872852550284 -0.2430886305223419
93907000.0 0.6454112996445824 -0.7562619476921281 -0.27047704971274156 -0.9215711797662138 -0.004237826187852023 -0.002741525491720912 0.46346112284345625 -0.2742737600804764
94906000.0 0.6328737563766822 -0.7646003478220944 -0.2880543090303342 -0.9567456615559105 0.0014649655084358374 0.0030444663180257603 0.46394285249179656 -0.2495707422250755
95905000.0 0.6265472959079939 -0.7713822235956573 -0.31184168393174405 -0.986947520695814 -0.0008823652754488903 -0.006408842961064189 0.46031734305768585 -0.2789175118943104
96904000.0 0.6183192646967844 -0.7792104784907785 -0.32312044524472255 -1.0256366855201955 -0.002300410944904186 0.00280263279963056 0.45778443254803186 -0.2897725031566599
97903000.0 0.6097397256038045 -0.7853634640862772 -0.35185176561657433 -1.0559962080620835 -0.0022723172965663325 0.001424903436631926 0.44759575331235973 -0.2911854767682296
98902000.0 0.603796556187179 -0.7923676984112255 -0.36490186532496655 -1.0946033155816586 -0.00028061135132333376 -0.0037201500922979564 0.4459252123782784 -0.30346906787906286
99901000.0 0.5955610475008564 -0.7984673614498483 -0.39281528009644817 -1.125648118473419 -0.00198170357182224 0.0016957696791802168 0.4550261597480885 -0.3297484149240251
100900000.0 0.5869138646459255 -0.8014174986306353 -0.41959500910696096 -1.1515610033591488 -0.004077978238368452 0.0012368499113042527 0.46163724306280796 -0.3199519913539686
101899000.0 0.5772844460241333 -0.81054672333161 -0.4505480569061982 -1.1883425655083848 -4.568896101994004e-05 -0.0011498818331419616 0.45173976083261175 -0.3357794506262924
102898000.0 0.5664719423768048 -0.8159461108515991 -0.4833800375420271 -1.2209677197480975 -3.341202088018719e-05 0.001177059874290472 0.4550669086910062 -0.3500590655081102
103897000.0 0.5583650790655494 -0.8236830158921106 -0.519613111921884 -1.2534704231831142 -0.0015634519592506715 -0.0018464573190613523 0.46218421065506676 -0.3464609376627514
104896000.0 0.5482492908646877 -0.8331546897037592 -0.5644307066628023 -1.2814918644923694 0.0004930159369453139 0.0005467773706948141 0.4454699405996096 -0.34482669765576496
105895000.0 0.5418125823162749 -0.8342399290274769 -0.6007513907486571 -1.3247385560685376 0.00022983947523801102 0.0005657908189705059 0.43828699603264165 -0.3564859118740643
106894000.0 0.5311952236271972 -0.8416659608595634 -0.656870738986943 -1.356935332756778 -0.001030007729503805 0.0015343686134323838 0.4274154545290653 -0.3794517491957476
107893000.0 0.5253450960856965 -0.8463267859377431 -0.7016912591053363 -1.3957183444130725 -0.0015557999459982095 0.0014181233111869955 0.43015188929466275 -0.3865277611468964
108892000.0 0.5130780340223092 -0.8514963830080561 -0.7608208372783819 -1.4296168841193162 0.0028400475325793023 -0.00043038778679955385 0.4307157337205296 -0.3899907904535514
109891000.0 0.5026527768922234 -0.8584174407446161 -0.8124858536846163 -1.4675059706203515 -0.00011244631525585922 0.0007514286552400168 0.445762634029077 -0.3753656606929556
110890000.0 0.4958260839097157 -0.8606405012197342 -0.8683153576537672 -1.475673012243095 -0.0020424312410577735 0.0008105586111140901 0.4273028754370855 -0.3951204345059853
111889000.0 0.48324162423563966 -0.8649656693765949 -0.9368960588132983 -1.5254908206148303 0.0026427811992249636 -0.0014709537113801595 0.41464862168254774 -0.41034692531413386
