! Created with skrf 1.9.0 (http://scikit-rf.org).
# Hz S RI R 50.0 
!freq ReS11 ImS11 ReS21 ImS21 ReS12 ImS12 ReS22 ImS22
1000000.0 0.9979784809983182 0.016077048256734505 0.0015484840120649683 -0.05909846609509657 0.0014597976349497908 -0.0171449401297845 0.27010426673298793 0.30647957899774475
1999000.0 0.994732118833102 -0.015096773649274902 0.0023743427055154627 -0.023403927939881494 -0.006633127305776035 -0.002788056248063938 0.25272125161223974 -0.05329964455822408
2998000.0 0.9951882106204994 -0.02346951784290369 0.004692095585877003 -0.017091697590675234 -0.006573461996792212 -0.0009256282832204002 0.18747084136504466 -0.1210870836046614
3997000.0 0.9970577859796449 -0.03436407323613858 0.011766930748295478 -0.011912784489984634 0.0015831693159758034 -0.002623233585091634 0.08048718780321629 -0.2186949884468773
4996000.0 0.9935574237417366 -0.039645252498797696 0.009929643844733002 0.0045668637462438055 0.002269295451833487 -0.006922074780352191 -0.03671298918662626 -0.1990442542511405
5995000.0 0.9917757586593738 -0.05303277978555717 0.011310121142730509 0.004057453819128481 0.0031683653874784844 -0.0033340648872552422 -0.1147267236877884 -0.11353090910349416
6994000.0 0.9910651119488828 -0.06117268920612003 0.006453513402996652 0.005125143036934928 -0.00036487085323504435 -0.0035792859853908754 -0.1451850837507891 -0.022923809841218785
7993000.0 0.9906575527554773 -0.0714939931696269 0.0029472615386513996 0.0052144853279385275 0.002793221780857655 -0.005030112963039935 -0.16442526637241506 0.049061553180167035
8992000.0 0.9926657440297068 -0.07408861439005766 0.004074541597466766 0.006958259593857717 0.00188895910714684 0.002261733666908421 -0.1589622410875934 0.05710814475930587
9991000.0 0.9869452162865623 -0.08303354683090905 0.0026318995943504864 0.005496440407550848 -0.0033965749282441537 -0.004105745007891165 -0.1512603435207314 0.07536993104202984
10990000.0 0.9874628915150859 -0.09378359635706848 0.003406411337187981 -0.001802138331337856 0.0005428137816626444 -0.0006137147105635477 -0.14707546958691997 0.10072289602561563
11989000.0 0.9868995177063424 -0.10006888015256744 -0.004005667723340896 -0.00137857355813354 0.0013045567286790996 0.0013746831831946173 -0.13159806946367394 0.13497515696391701
12988000.0 0.9849684245721436 -0.10877751660094694 0.002990715618821221 -0.004393151173035001 0.000782283842177617 -0.00017275150846758248 -0.12428270808352662 0.15943367847611403
13987000.0 0.9838030356964844 -0.11811937717149484 -0.0025546545686147308 -0.002565301261052176 -0.003082620270481365 0.003990715881958699 -0.10415431925948859 0.18224725459823124
14986000.0 0.9813936449180878 -0.1260450473616096 0.0026937173865032014 -0.0034364965849758037 0.00047636983431857574 0.0035831790909247466 -0.09710486927048267 0.20334164501452345
15985000.0 0.9831018380752737 -0.1356085216570786 -0.003319801024999026 -0.005181752643422436 0.0021514804735850387 0.001459721786088807 -0.06363663435822284 0.21300001705210694
16984000.0 0.982802814038938 -0.14380843947816374 -0.0014645566853161646 -0.004556303905140188 -0.0009245264044191433 -0.0011134243580665057 -0.05930534686559505 0.2082951558429563
17983000.0 0.9821136523380224 -0.14835872497183994 -0.002032293453171034 -0.007446691789049561 -0.0014945807890065566 0.003951211858358463 -0.05925758922392894 0.22917174195362328
18982000.0 0.9778321082943666 -0.16229631105356032 -0.0025704273674096536 -0.0013116497670382426 -0.0025250051851445727 -0.0035608938371556407 -0.020566880240886303 0.23297472982707168
19981000.0 0.9784869088994379 -0.16667853558998819 -0.006125043332723763 -0.005778379037468568 -0.0008318717412977895 0.003375857099340282 -0.01247860525367303 0.2331199233620812
20980000.0 0.976411627498641 -0.17773466146324787 -0.004529141572782445 -0.00784917898286781 0.0024954016609128604 -0.0029899362944907936 -0.014689579929119942 0.2621283742277186
21979000.0 0.9756721514847465 -0.18367040047630387 -0.005317502254979662 -0.005667850694468426 -0.00016343790986059347 0.0007116745089332626 0.014032058966184159 0.22891135999722584
22978000.0 0.9741137694665452 -0.1930932609095371 -0.005624433150574511 -0.00454059923279059 -0.0023819080891415074 0.0009670378482160109 0.02336937547325559 0.2509185049843873
23977000.0 0.9745027703063323 -0.19799089185688284 -0.007145369352772259 -0.0005797956338633013 0.0013259836331699342 -0.0009635603229219545 0.030894522479862165 0.26392452468480704
24976000.0 0.9709697995080766 -0.2107822027288959 -0.009631131366917015 -0.0023900358107122924 0.00012521659391841961 0.0011013797541758563 0.05884243103949277 0.24460769385447087
25975000.0 0.9712592206530324 -0.2221312623123188 -0.006692115809702261 -0.003915250808918001 0.01437416233335329 0.018331054536343715 0.06128671452782207 0.25932839722759876
26974000.0 0.9663395517441972 -0.2285512219893474 -0.00427861856572651 -0.0016486922925520173 0.0009345924493443275 -0.0011035618385503237 0.09053331087614748 0.24810232674878893
27973000.0 0.9660852093805129 -0.2349575488066101 -0.0050942786576445714 -0.0019047281704398207 -0.004445349669294652 -0.0013780116161346135 0.09124907119489688 0.2518552006512247
28972000.0 0.9634991869074581 -0.24621230219196444 0.00019244046814518204 0.0005220913710817898 -0.0016232151591793064 -0.00413658006540554 0.10088658605875002 0.25514464134371007
29971000.0 0.961844215804863 -0.2520102795675765 -9.261902283806768e-05 0.0004539340707504576 -0.002170223000041291 0.0005884630374227237 0.1383180189544579 0.2596955101855137
30970000.0 0.9582871186066716 -0.2581268322715072 0.0012909883540118598 0.00024919632482392 -0.0012319108975816146 0.0024783616736504905 0.1600575104322899 0.24221939818110647
31969000.0 0.9565662405373572 -0.2692945869382209 0.006272144960702853 -0.004512233748868714 0.0010859010526962603 0.0023555585783107055 0.14345777845930655 0.2460028899027825
32968000.0 0.9561846364604827 -0.2769716798933325 0.008293737968146298 -0.006986322231834752 -0.0013679323046340223 -0.0021889524025977933 0.14872360383587002 0.2429849707658299
33967000.0 0.9525608082734356 -0.28764187591249474 0.013220953522254294 -0.007705934051495105 -0.0001157938403817434 0.0024902309459949867 0.18924707694605697 0.2348150754601867
34966000.0 0.9489687014420145 -0.2964214450127673 0.012703422108812645 -0.013812915369875037 -0.0007151948112679293 -0.0003527792839516387 0.18813961987872058 0.24934928321912328
35965000.0 0.9480507797034615 -0.30474281411324333 0.018021843838083904 -0.014088471615321415 0.0003970958830205632 -0.0034873109617388747 0.19783947478519076 0.2456241247164453
36964000.0 0.9430820574020874 -0.3136578216085901 0.01877757926618927 -0.014064861823067399 0.003647965615913149 0.0014006397725737341 0.20446884423804035 0.25327132262844126
37963000.0 0.9414403189077543 -0.32156162440792907 0.0247211989949809 -0.020537891027575236 -0.0009565780179510596 0.0012104147745272374 0.2214031138236824 0.23117416303336655
38962000.0 0.9378058562157221 -0.33246795550773944 0.024641197821721517 -0.02458547323625858 0.0013615778123573813 0.0030683000657360892 0.23193811116044008 0.2337869009083429
39961000.0 0.936393337736179 -0.33855713657268854 0.029178764842147188 -0.028730727986716154 0.0018265797857580576 -0.0004360196826108288 0.24102597940948048 0.22696426518221033
40960000.0 0.9326810652358075 -0.34699356417605115 0.026732760477177875 -0.02634374119349483 0.0008575697992207963 -1.0758175228312472e-05 0.2549015448685892 0.22766806895919023
41959000.0 0.9294602516433847 -0.3563822886634742 0.03074094017084186 -0.03119467872558911 -0.0028577110536636635 -0.003594876632732828 0.2598783259051106 0.21828839705022599
42958000.0 0.9241489167268508 -0.3650686601032583 0.03467741164389137 -0.04225676829408642 0.0005987882393248384 -0.0011586564419305923 0.2643505955070438 0.20175159058870212
43957000.0 0.9230626550853985 -0.37237180830413924 0.03785832545586749 -0.04687220982552044 0.0053948843451495955 -0.0017904212751639818 0.27743998199746644 0.20260619564624746
44956000.0 0.9205766664347416 -0.3776721104713697 0.0350064937380057 -0.05656312816155917 0.004262043736716784 -0.00011004918550010305 0.29829968611495883 0.19012749692697536
45955000.0 0.9153307546405575 -0.39130870827154834 0.03802964236285155 -0.05987382777085165 -0.0017465766353625283 -0.0013232404276267067 0.29389390373690794 0.19039344097757435
46954000.0 0.9135896348172677 -0.39735078179292826 0.04014257339062048 -0.06601238660189956 0.0005405455245087021 0.0004128849673294151 0.3154070415823001 0.17470188008519316
47953000.0 0.907972704138984 -0.4065196166933905 0.039563625543600975 -0.07456859918313957 -0.000993997111317441 -0.0010992130636016762 0.32944304915487244 0.16590069075365632
48952000.0 0.9026930036562668 -0.4178537463371927 0.04415169736630639 -0.08353715806659986 0.0001423236950815348 0.0019921384158103415 0.3206187717293843 0.16294253030974132
49951000.0 0.9007157563970192 -0.42097000556232705 0.04267830706671732 -0.08714134745618173 0.00020029367991962862 -0.001530164079167085 0.33788470442059865 0.143099692894865
50950000.0 0.8949639476626873 -0.4316674585708525 0.04214611156773098 -0.09823726437925871 -0.0018950549909038995 0.002440002517181124 0.3493690436536201 0.14133150775943387
51949000.0 0.8911935857176659 -0.43987055539179837 0.04468447723631953 -0.10767958967049812 -0.002845633009526929 0.004529300380808355 0.3433906543062032 0.15118780210439484
52948000.0 0.8896489909066124 -0.4468156113743634 0.048122031273330035 -0.11419470316883637 0.00020394474434579286 -0.0025576728256403655 0.3697338479985766 0.13196004694287386
53947000.0 0.8827296969580449 -0.4577240260226223 0.05075886760246345 -0.12710363027469196 0.004353274179880082 -0.0007472150332999164 0.3687289174620538 0.11440409308023877
54946000.0 0.8777552366734458 -0.4652536916837345 0.049796933022437845 -0.13204298166812517 0.0002114993026866784 -0.000992698656686433 0.37088762714633483 0.12487814606952385
55945000.0 0.8751404507895356 -0.4733189881643122 0.05046494010763991 -0.14430912062157514 0.00048674689498797244 -0.00175836328002622 0.3771265250007386 0.10069738551798298
56944000.0 0.869812704433848 -0.4822902046273338 0.05429642663163111 -0.15620085700227737 0.0017418201939109288 0.000952237546039902 0.3850941972244021 0.09763786598601641
57943000.0 0.8662265571553662 -0.49076064503254646 0.05283899188038484 -0.16996550592665743 0.003752115598175674 0.0009600767168762127 0.39242685912622544 0.0978682208721791
58942000.0 0.8611493914751875 -0.49611934465299196 0.056204412542638464 -0.17976760732108246 -3.545071598341414e-05 -0.0007669634085462639 0.41062147466754984 0.08640277826902759
59941000.0 0.8564196933109192 -0.5067288785033186 0.05875159753259486 -0.18822271132086585 0.0005084990406588118 -4.965328643773953e-05 0.4081237717381813 0.0853852503002765
60940000.0 0.8482471901156711 -0.5135185373254489 0.059093293456476056 -0.1985288146816648 0.000403288829748481 -0.0006132154736478041 0.39821592617674556 0.072290859679193
61939000.0 0.8463928893981154 -0.5198571195677804 0.059766620814580985 -0.20321944143682732 -0.0012610517131639379 0.000410091821946375 0.4060749343490557 0.06615981026098917
62938000.0 0.8390826344400546 -0.5312600489469708 0.060947795252530516 -0.22490309082557225 0.0007650413224310991 0.0011128895014483131 0.4285240794269185 0.048452842733445724
63937000.0 0.8336097233099228 -0.5396129628309106 0.05797816642252015 -0.24351522553535038 -0.0010474725239253573 0.0021009468353840946 0.42655224103614797 0.03634378996527394
64936000.0 0.8292118204305845 -0.542920040045674 0.06255174288039031 -0.2586327075871023 -0.002094619205932548 0.001937529430315447 0.4230127678199295 0.02912701978511397
65935000.0 0.8249135075234977 -0.5532993069128862 0.06169521967710626 -0.27290473211222194 -0.00047536224750274026 0.0027985521580056612 0.4344321761112442 0.019978371116567514
66934000.0 0.820584052775331 -0.5614726826220603 0.060006957762920504 -0.28668876959394324 -3.146145188376693e-05 -0.005137311621958158 0.42730390912865235 0.0009146506504501436
67933000.0 0.8152994975932193 -0.5682458186544309 0.062341199914885334 -0.30087516610835846 -0.0012049814762590684 -0.0018217785140824654 0.4376428118687109 0.0027675060267510158
68932000.0 0.8141022480027442 -0.566394000983307 0.058372353398090424 -0.3176901994280095 -0.0006054572963506155 0.00397325684078651 0.44081050287294454 -0.01062759577053
69931000.0 0.8019091139911148 -0.584980290652587 0.05388406938448357 -0.3358214878232454 0.0006985478477880427 -0.0016844931825257393 0.44243812957885986 -0.023129750246165624
70930000.0 0.7977706385473229 -0.5898633265102999 0.055639676483941664 -0.3541299229742134 -0.003746683358569833 -0.0002547315658822825 0.4315252225621526 -0.03862284192514392
71929000.0 0.7940469227940058 -0.5981380195802388 0.04803349322157113 -0.3708909634428605 0.0016739754369070492 -0.0033285266039393253 0.43165898291338783 -0.05152821351783466
72928000.0 0.7861552828076777 -0.6085071888429753 0.04348048272034529 -0.38782398628213516 -0.004292260720100845 -0.0014955292545046977 0.459834513331953 -0.04919618847152644
73927000.0 0.779956309895399 -0.6150473478906745 0.036246934807838395 -0.41200765277274876 -0.0001595307294465128 0.002238265675643773 0.4458779033216908 -0.061820356149839266
74926000.0 0.7736843590951489 -0.6233231528537413 0.0277405800152876 -0.43399598762374 0.000838167514787172 0.0018189696142257288 0.4486831380284401 -0.06189361162964857
75925000.0 0.7697283687828368 -0.6273868562959486 0.017909227097370046 -0.44843108971704315 0.00220268227661144 -0.0004042091674156388 0.45291132455146255 -0.08103540528090065
76924000.0 0.7626970183281535 -0.6364021798229044 0.003983667562493366 -0.476866356818964 0.0008823791711279882 -0.002371347318657367 0.4552872366727524 -0.08261456431458766
77923000.0 0.7567600373423253 -0.6430610700910471 -0.0065588979422703 -0.5048605678612589 0.0017845109652241573 -0.0005098092893531328 0.45039221268798824 -0.101536482665188
78922000.0 0.7501696163358529 -0.6553139860986634 -0.023604130709212145 -0.53156458617157 -3.0972560529244914e-05 -0.0019066806986811561 0.4547149366856623 -0.10804680107691358
79921000.0 0.7400876044397301 -0.6557824654560853 -0.04126633888718291 -0.5577518386227499 0.0050564321701407865 0.00588674585883112 0.4490606504508774 -0.11791612553690395
80920000.0 0.7385671857199976 -0.6667151996749756 -0.05385443892935343 -0.5881943980629232 0.0003902811037000259 -0.00228953481289774 0.4528534239390655 -0.1324038657013646
81919000.0 0.7314835825164614 -0.6734437696028401 -0.07023204249928844 -0.6178009998230646 0.0023230250911869563 0.001177301646868734 0.457832559773907 -0.13675848612744984
82918000.0 0.7218710479944961 -0.6802619972601202 -0.08412863144642894 -0.6526103075963104 0.00229043285877763 -0.0012371264308597295 0.46682322040658336 -0.1521080646423012
83917000.0 0.7126173899785124 -0.6885768712817858 -0.1083278185764192 -0.6788272134295106 -0.002053469808830703 -0.0028162861354487398 0.46947957948248625 -0.15885062086421908
84916000.0 0.707574456589102 -0.695160311991872 -0.12109425147309509 -0.7139321926556967 0.004265926221802458 -0.00022200918417760118 0.4566256050565783 -0.16858946753493761
85915000.0 0.7018353824985484 -0.7007437156122889 -0.14243504214550834 -0.7476953960069616 -0.00022276135827674413 0.0033292453135639766 0.4548024521346461 -0.18116400146914666
86914000.0 0.6924585113833585 -0.7123139859182489 -0.15973776323646274 -0.7859116299745231 0.0013796977705069582 0.0004854040543785446 0.4481871371009455 -0.17980237291331355
87913000.0 0.6863011532817446 -0.7159144785238997 -0.17609827164793437 -0.8167097306072766 0.0006132004724636468 -0.003161690009849062 0.4441650933098913 -0.19094096968177246
88912000.0 0.6813440416106609 -0.7228909978286145 -0.19411291462325334 -0.8519311413943416 0.00032889742157998233 -0.0016187092539285861 0.45940355383051223 -0.2173402708954226
89911000.0 0.6719963798690469 -0.7321975863965243 -0.2111051132541106 -0.8870984738900012 0.003530502338127532 -0.0004214191075461938 0.45560423102920244 -0.21398440117982695
90910000.0 0.6673991530935025 -0.7357215684388188 -0.22345043651859958 -0.9284566251266924 -0.0018509520695336845 0.001931409802162392 0.4587730902656033 -0.21532302244104917
91909000.0 0.6560129619857862 -0.7425581851616986 -0.2530929748596366 -0.9587663027170382 0.0016232755642711088 -0.0003939217014386403 0.4524067354500521 -0.23075086346843113
92908000.0 0.6482345888409955 -0.7500845409726464 -0.26867515631399913 -0.9917564501351368 0.003358911199926359 0.0028977929663813575 0.44675974013904984 -0.24361424693126768
93907000.0 0.6424391306456181 -0.7564943728232897 -0.29121330295119385 -1.0257665135323226 0.00027381219304456174 0.0011320329239121658 0.4549099320864527 -0.2626893474221956
94906000.0 0.628323767504867 -0.7657186506730066 -0.3096248116691772 -1.0653840775325238 0.00013904021553545173 -0.00019688668327709502 0.4509836716886877 -0.25400316040394066
95905000.0 0.6254742480738082 -0.7698096520247742 -0.33286544797187706 -1.1017341108777023 0.0007914485918635462 -0.0025219168230063045 0.4578333388818871 -0.26970076250775255
96904000.0 0.614046322098664 -0.7800780535902184 -0.36305281453336735 -1.138217320653398 0.002592641870264003 -4.106574896397425e-05 0.44211198582353295 -0.2724193220169454
97903000.0 0.6046816062040287 -0.7836299796941897 -0.3834285617875878 -1.173434540869452 0.0004316617669853092 0.0011495289669304209 0.44081946572763997 -0.2925575392920135
98902000.0 0.601844548996123 -0.7913068322905176 -0.4090718712554335 -1.2189193970035828 -0.0046091057587095 0.0007693353003280932 0.44472862446660516 -0.29594112703380926
99901000.0 0.5902002336362061 -0.7979038015962625 -0.44096031025304605 -1.2482328195262842 -0.0016254151645579743 0.0013691531662034647 0.45072641975778605 -0.32103688245173334
100900000.0 0.5827851468352266 -0.800510453846946 -0.47726418077809896 -1.283164215108577 0.001292737192524878 -0.0016968806140276625 0.45320249765735443 -0.3121180424809429
101899000.0 0.5731071634395805 -0.80872483002826 -0.5075487737640073 -1.3215014893501453 0.00010593894823252805 -0.0017884240718362592 0.4496616060103401 -0.33251629379054737
102898000.0 0.5637642385594033 -0.8140247425794478 -0.5471619434816632 -1.3661091531284641 0.0005746405789320266 -0.0016527910950960092 0.44315037307491284 -0.3437888514838222
103897000.0 0.5552977470203347 -0.822944583007957 -0.594247903585614 -1.4014315679790088 0.003990143903762237 -0.00011137447029305458 0.44562489975893776 -0.3433370262290927
104896000.0 0.5453470249315573 -0.8315064247209997 -0.6419760574774666 -1.4376052909201775 0.0028353586325382076 0.0012223627293369444 0.4287408278065443 -0.3464758214100359
105895000.0 0.5361065674287727 -0.8334779768612597 -0.6948284896104978 -1.485152194188055 0.0004464047457092606 0.0016975095281963075 0.42413138975348974 -0.35619110368280305
106894000.0 0.5287083452720911 -0.8379005025810925 -0.7512735639635543 -1.5247934741513354 0.00018548976100866033 0.0016019195769628855 0.42128738453193515 -0.37158643857821483
107893000.0 0.5190351440610248 -0.8450290269283957 -0.8043031990593984 -1.5704609518185473 0.0019757970617000414 -0.001731911363862909 0.4253444191302736 -0.3821868032320453
108892000.0 0.5089757430271643 -0.8499298777922482 -0.8678152954308052 -1.6083464914054884 -8.288901806651636e-06 0.0004017255279150177 0.4078534995646547 -0.3788231537562932
109891000.0 0.4976967202656861 -0.8567356727122896 -0.9312094734991249 -1.642585277227786 -0.0018369461095465406 0.0033963737545685143 0.43208378564444955 -0.381289042486355
110890000.0 0.4816877523782521 -0.8595179850699971 -0.9966129948337106 -1.6408748451446813 -0.002549763315035242 0.0003386811432077271 0.41801162937025044 -0.3973017855839921
111889000.0 0.4775726278102788 -0.8627808754436928 -1.0601920355125694 -1.7138026315289971 -0.001290795348111988 0.00030298309334590267 0.4069927816468038 -0.4041736486034154
