! Created with skrf 1.9.0 (http://scikit-rf.org).
# Hz S RI R 50.0 
!freq ReS11 ImS11 ReS21 ImS21 ReS12 ImS12 ReS22 ImS22
1000000.0 0.9707769152077198 0.000513238028245608 -0.0046368506581674395 -0.03178710467383672 -0.009167726867297568 0.0026958329991174025 0.31213126131839064 0.2973062060246818
1999000.0 0.9905872701098206 -0.009877609059551807 0.004301760530287131 -0.029778921365337656 -0.01011607395867056 -0.002645363743818102 0.2595775028468068 -0.09506895034776594
2998000.0 0.9988697574023246 -0.016628103068638184 0.016248233311217768 -0.016676950247099538 0.0045083488398078115 0.002453146893849523 0.16912133775778324 -0.15482321159315163
3997000.0 1.0010913433369244 -0.02803811168894996 0.011612117306829593 -0.008149683397195788 -0.0037460869850348727 0.0024956514662012276 0.07626535383347462 -0.2254471627692283
4996000.0 0.9975220014106064 -0.04061099864553905 0.007285110062074833 -0.003917963245827611 0.0006815633704305688 -0.005588850000870602 -0.05767917066031932 -0.17561878456070057
5995000.0 0.9987460898821912 -0.04736371615956938 0.0063070361102795765 -0.0012984477318819859 -0.0037638920199072447 -0.004691366334414588 -0.11884238380040883 -0.09563191291716551
6994000.0 0.9946486900003354 -0.05937816586470724 0.007173011607419688 0.003031337107865505 0.001596581726841536 -0.004169165673766839 -0.133709573119797 -0.017405583705284333
7993000.0 1.000536301432692 -0.06502848213689953 0.006471045382527593 0.007353096080547862 -0.0036077491738611034 -0.002332125961543357 -0.1494171862470405 0.050975949199374454
8992000.0 0.9974124446091236 -0.07268522175388932 0.0012914270603800132 0.0012899774651978376 -0.00044129861385570294 0.002605852329052826 -0.14492329486191338 0.050472517413508396
9991000.0 0.9954936348163752 -0.08295807179920121 -0.0011878756258196458 0.0013212112385926728 0.004999509427406793 0.0016278788652017689 -0.14104551165702314 0.09268200672848292
10990000.0 0.9941159353011995 -0.09076482766039606 0.003119920751161005 0.0045743752315015596 -0.0010622019747824594 -0.0014676344325710825 -0.11801913358004969 0.1054468419157937
11989000.0 0.992934310791598 -0.09730645712291755 0.008602669551433972 0.00030162218381083323 -0.004222523190701235 0.00014396222085763692 -0.1208650272761074 0.14455688901448388
12988000.0 0.9903759635930821 -0.10967589021327442 0.0004845727279284521 -0.003416328631706408 0.0002666257560979836 0.0015426194333257243 -0.10924373702967649 0.15572473620395347
13987000.0 0.98911627653456 -0.11624410494905901 -0.004073683945359498 -0.0033051706236925616 -0.0007016648583880998 -0.0011394891686208378 -0.09484404809773402 0.17735192159005417
14986000.0 0.9907930124692821 -0.12792459719320992 -0.003243993738156798 -0.0033054712081334917 -8.777168586923231e-05 -0.00017459626316322698 -0.08288461553571039 0.20165439744240013
15985000.0 0.9906253007248851 -0.13058388483932862 -0.0017997804392900598 -0.004007017367113458 -0.0020586773739310416 0.0002728332688005446 -0.056846193588773936 0.20688269312670315
16984000.0 0.9877419139184384 -0.14210986973022086 0.0005413598115747378 -0.007228834952182872 -0.004093089226242203 0.007085450462244444 -0.05121049422432364 0.22062756934549344
17983000.0 0.9895247898970653 -0.1470758628197324 -0.004956629761376713 -0.003619704701979794 0.0035047889588045215 0.0008497430209880632 -0.04476236665402256 0.2217329088872936
18982000.0 0.9833975624350827 -0.1595640410328648 -0.0025282842279296144 -0.00199815990626435 -0.0009097251107306667 -0.002937952487452967 -0.01558200425813965 0.24507161802532199
19981000.0 0.9852756408315116 -0.16414563217476738 -0.003346805748884454 -0.005525786559435133 -0.002793483219808261 0.002187542032224678 -0.007267523943346841 0.23952462137705546
20980000.0 0.9831891778993939 -0.17446010555572306 -0.0029786445266825117 -0.00590146621185484 -0.0018392374363625445 -0.004088313573098636 -0.0011475503179201355 0.25083083832924025
21979000.0 0.9808228350990676 -0.18295751003505467 -0.003744360843724893 -0.0037924452700177236 -0.003230084916678404 0.004861469029619202 0.01578127750583762 0.24542833699938513
22978000.0 0.9778979664858186 -0.19367472657241797 -0.002675959438624649 -0.0018425701242926011 0.000637196911293341 0.0009223410853600886 0.03101352520477432 0.25968311930237753
23977000.0 0.9804896228513456 -0.19923061219056207 -0.006676289893894444 -0.0030838596112636044 -0.000346225856060882 0.0004466944354252798 0.03429213839807758 0.25502998424957235
24976000.0 0.9748311128346216 -0.21251082678680874 -0.004329206392167819 -0.00044041359327033803 0.0024381636078284383 0.0012809807049526595 0.061243101865937954 0.24603422787051057
25975000.0 0.9779132875262788 -0.2174547602825598 -0.0013985548617227947 0.0015114084718736809 -0.00473834895485433 0.025677168749979638 0.07277239925373553 0.2663173868920595
26974000.0 0.9712017959212046 -0.22699519576507943 -0.006522550239867395 -0.0006107816234390078 0.0001145112371929507 0.0025579394862321396 0.08535818068565741 0.25698768705133457
27973000.0 0.9714653691140275 -0.23248415320005436 -0.00600560984737054 0.00261529247818786 -0.002362747869723777 -0.0016513474614737367 0.10002851844037718 0.25285220948139475
28972000.0 0.9692266457970841 -0.24329448623208402 -0.0037208656018624534 -0.003325223196760898 0.0018647914955702448 -0.0013825284085865616 0.12217443464677685 0.25609016907085763
29971000.0 0.9665476631819503 -0.2522209115408779 -0.00018031288381991145 -0.0003514715738968759 0.0013467055381464707 -0.00038981677489126175 0.1433023852588813 0.26829753618718744
30970000.0 0.9628007507930806 -0.2582176568755134 0.0036206206221179077 -0.0017743467503265917 -0.000774597571061148 -0.004326573889468568 0.16854550735155077 0.24859839317382637
31969000.0 0.9621160877041521 -0.2666137059077347 0.004967358677938462 -0.004730878058332243 0.003119477366773603 0.0021123493177709093 0.1455864041461528 0.24293908045597162
32968000.0 0.9592852672148052 -0.2764594016933042 0.006497139354308437 -0.006293216731679955 -0.0056506831950276434 -0.000340394778034538 0.16298098121756174 0.24156332450800716
33967000.0 0.9565671715237207 -0.28669750916272135 0.00880201304160936 -0.0095794844087685 -0.0005942045521228784 -8.805515659664437e-05 0.18831357432250512 0.24689197170196187
34966000.0 0.9537067407626739 -0.29494733562763015 0.01314337076900629 -0.01191599857873569 -0.0030035149913526927 -0.002915227637204277 0.19517665589656022 0.24628143761565893
35965000.0 0.9516753228888056 -0.30163253753116154 0.016171930047744996 -0.013895132526926202 0.0031200989849056154 -0.0015932166642647666 0.20323034708982213 0.2571518528335941
36964000.0 0.9497626150234565 -0.3108473022768663 0.017873165246991597 -0.015859181701895333 -0.00288621639009126 -0.005092130309032614 0.21102363231417073 0.2524100227307419
37963000.0 0.9446009567040367 -0.3206024701820291 0.021715626185225007 -0.02461439821311035 -0.0014864476128434204 0.0015739044779058534 0.21469173205193268 0.2362789029273268
38962000.0 0.9436810722758179 -0.3290156201373464 0.02577628489929646 -0.02386113226651873 0.0002660359385593684 -0.002441124292579105 0.23715251343012372 0.2281586768364837
39961000.0 0.9403091593639481 -0.334770042060614 0.027475681838934462 -0.031245129892123143 0.001268302331275765 -0.0011761728856679444 0.25450570146855117 0.22759263721834397
40960000.0 0.9381877617477691 -0.34108248894323384 0.022743541526986 -0.025943071885385187 -0.0033252005680270377 0.0037992848794072636 0.26463204528153333 0.22058194655527114
41959000.0 0.9350157425138462 -0.35437923076455974 0.030732170297291132 -0.030716927258244712 0.002102899962669299 0.001197027137831663 0.2744224229660195 0.2180997998702867
42958000.0 0.9298918919234705 -0.36102146045905403 0.029879739088227292 -0.04325477973379893 -0.003725191662855962 0.0011105103017479995 0.2755711440306629 0.2032300962643861
43957000.0 0.9295196582214159 -0.3673869107588648 0.03246895605775657 -0.04576632064531158 0.002706062802324459 0.0028952894855395544 0.27752621491423096 0.20525601200544674
44956000.0 0.9254177664699803 -0.37614334336754274 0.03356967665739076 -0.05426284818122096 0.0004610789036508523 -0.0017201644724944554 0.3006504050338356 0.19758147987600103
45955000.0 0.9204270558266997 -0.3861654078244107 0.03265159913397429 -0.05932913487827249 -0.00038778621831047033 0.0017434478535675979 0.3094296642534553 0.19208837167302423
46954000.0 0.9181714247690189 -0.39425094459446747 0.0348278412594637 -0.06551323383458947 0.004019509455395323 -0.0018270664687655982 0.3290939589484393 0.18422527388130797
47953000.0 0.9126672960857526 -0.40328973323346734 0.03252664368612905 -0.07397922617712085 -0.0008723746598671567 -0.0021275612616191955 0.32990344683193107 0.1679231691530721
48952000.0 0.9093622560135224 -0.4094646045691823 0.0337265266883208 -0.08038319118442601 0.001319506363538046 -0.0005405338568337806 0.33463890908604826 0.16853416884032607
49951000.0 0.9055995243301127 -0.4192526210306546 0.03734913149314108 -0.08445120342983904 -0.0010101204174354594 -0.00044688090680741006 0.3491660832038577 0.1481775799440547
50950000.0 0.9013928229036626 -0.42670115206050974 0.03882404888606079 -0.09653397719618084 0.0009381562485441266 -0.0016138430114461602 0.34795043579431834 0.15065387026075347
51949000.0 0.8978101107761137 -0.4343162692015835 0.041459154583280124 -0.10415417792220187 0.000517202222703113 0.0004934508526681857 0.3531941909079775 0.141012632447803
52948000.0 0.896216309368652 -0.4420768082207353 0.04228873078999589 -0.11315730673032677 0.00037840971644959417 -0.001565468616350241 0.36928183334448034 0.14158486848084958
53947000.0 0.8897218626144326 -0.4510515756295554 0.0386614272996002 -0.1225450113628365 -0.0025441753971513965 0.00027020504372519564 0.37048315498540507 0.13240223273819945
54946000.0 0.885672865001863 -0.45796268878740726 0.04377173357626672 -0.13078639157790206 0.00011588804945578043 0.00015262724792557388 0.3814027358715332 0.11303176927005738
55945000.0 0.883110169145673 -0.4664795740185211 0.04433260911329136 -0.14063034125756116 0.0045303288589462615 0.0018409587486683853 0.3853100295967386 0.10784312949822258
56944000.0 0.8793260923894639 -0.4756178758331903 0.04778191014426384 -0.1512370419859351 -0.003795070068308691 -0.0007851483833183813 0.39256038272885063 0.1100853980827082
57943000.0 0.875371037111127 -0.4865663953007749 0.04470051312851031 -0.16237116134242519 0.004498866239987801 -0.0029239105514358723 0.4043797444436679 0.09907729640620917
58942000.0 0.8684334136780673 -0.4891381719079579 0.04713586658053351 -0.17318314813763533 -0.00012569609338045716 0.00044374790811776385 0.4250889192012009 0.09381882650601034
59941000.0 0.8648214946804593 -0.5012249156503058 0.04831113993254116 -0.18293112211788462 0.0024114488111048223 -0.0019035005533020314 0.4129110621717954 0.09464122086897293
60940000.0 0.8574603589997718 -0.5063976001809076 0.04716686683052249 -0.18645457216424532 0.00027007398929640355 -0.0017542024052869514 0.41602861880131026 0.08196233797643941
61939000.0 0.8554361046183531 -0.513383533054361 0.04846497055669223 -0.19583432504836568 -2.7297335204257644e-05 0.0006786455716730677 0.41340978780380505 0.06202368788433105
62938000.0 0.8491806650674967 -0.5231778826111864 0.05171199560734199 -0.2114546248851423 0.0008603605314874435 -0.0005013780281470694 0.4400323338531856 0.055640765135003316
63937000.0 0.8451261843919146 -0.5304575438356625 0.050586891221829015 -0.23121359451624127 0.0002860777531395207 -0.0005540651238244864 0.4387332625906652 0.043689228365358344
64936000.0 0.8377735610682854 -0.5380501469082265 0.05310734088883749 -0.24752859703671984 0.0010911388638005055 0.0013701816224151243 0.4377392600553969 0.040593155286988716
65935000.0 0.8344920203959229 -0.5482568206785305 0.05154673287913113 -0.2596945170729978 -0.0007571590813473462 0.0012523306878110283 0.44137519805634456 0.015811885763343515
66934000.0 0.831703323719072 -0.5511935461157437 0.05456978849511267 -0.273114865380555 -0.0021987990481416894 0.002066047958976558 0.43072083898003594 0.0129561718796098
67933000.0 0.828070453677597 -0.5610922607683861 0.05145811728117923 -0.28853060117754653 0.0008164813327090474 -0.00036381329275008356 0.44344481645640926 0.010110624767616122
68932000.0 0.8108265903739179 -0.5564227612549714 0.0515573322824524 -0.2985574588716999 -0.0016381379628126547 0.0007484155358275274 0.4577936069031853 -0.011481688818805331
69931000.0 0.8139795216665072 -0.578016015325323 0.04937443988696589 -0.3179494035831619 -6.994137910400325e-05 0.0010026334688076149 0.45577242702383064 -0.011741728281944815
70930000.0 0.8092504802646074 -0.5838189853452029 0.04877304014204319 -0.32998295618457724 0.0016786815383690252 -0.0005806990274135154 0.44669988851069165 -0.023435257296339575
71929000.0 0.8059894831776819 -0.5916348752330048 0.04828168053604884 -0.35158776123775254 -0.0030303130996165856 0.0021715780813252195 0.4572347867867094 -0.03560071148674388
72928000.0 0.7972823267304806 -0.6030378736432987 0.03748378234363383 -0.3630505546292073 -0.0020535490264051437 -0.00010621343028420579 0.46617865169031997 -0.04209901589212438
73927000.0 0.7901200455905979 -0.606911113435824 0.031058080763899626 -0.3871379485923786 -0.0019243507679546153 -0.0006835739307291366 0.4553025791792974 -0.048239854974177036
74926000.0 0.7876363725267677 -0.6164513513797134 0.02701440101615752 -0.4009858609212298 -0.0025863800970044315 -0.003533141786769864 0.46103735659961326 -0.06204640874056334
75925000.0 0.7812803156847076 -0.6206455916717718 0.014872967837117494 -0.4228625014759243 0.002350274593119049 -0.0022327911544833493 0.4636708337241797 -0.07284293104704162
76924000.0 0.774267839140962 -0.6280755499913886 0.00384936506200904 -0.4470187073965243 0.001739696529647242 -0.0006325465561477217 0.46743636979501746 -0.07644037949837572
77923000.0 0.7687690728572885 -0.636816162353112 -0.004502701370322972 -0.4687704788682514 -0.002096294233347942 -0.0013786534514997474 0.4562905662510422 -0.09550531990576897
78922000.0 0.7625505987524344 -0.6464219459705124 -0.0251429836384276 -0.4945675609836514 0.00054750726373412 0.0005874978660066577 0.46443698542457545 -0.09555011713092072
79921000.0 0.7539466481788493 -0.6495191962558755 -0.04118234342383345 -0.5180236103697702 0.001757383920962537 -0.0015733954908866172 0.45674536722291176 -0.10839444940312887
80920000.0 0.7505319487200416 -0.6604528978999916 -0.056411793724984914 -0.5459989484547839 -0.0013401554580310603 -0.001996726756997451 0.462449135935658 -0.12181859103750647
81919000.0 0.7444277059851091 -0.6663034746493132 -0.07510612374924651 -0.5730633369422291 5.514891221516947e-05 -0.00027370278741681373 0.46665865409273305 -0.12872912112788962
82918000.0 0.734040516229891 -0.6732588776800164 -0.08597465983479773 -0.6070528849048417 -0.0008805574470658172 0.0006962800647339621 0.4745342584704437 -0.13692845177648846
83917000.0 0.7253833891051475 -0.6823069869166885 -0.11003271347695674 -0.6319761224934831 -0.0022515826487684693 -0.0022087138361192842 0.476558139041148 -0.14106981442760125
84916000.0 0.7218392497543783 -0.6901354533466864 -0.12493720817403035 -0.6698207196397249 -0.002199726870076241 -7.751731474595766e-05 0.46492683984895783 -0.15802606354668688
85915000.0 0.7173506576590551 -0.6966209497338715 -0.15102401791997944 -0.6991932135799844 -0.00012716597973474536 0.00363731486093342 0.46096897954549193 -0.17095572717457527
86914000.0 0.7075903039112142 -0.7060888289307767 -0.1650636470854725 -0.7362494249850674 -0.002425939704799513 -0.00163762684552289 0.4619385338426938 -0.1731560414633647
87913000.0 0.7022786421442496 -0.7117352234314592 -0.18381934954398912 -0.7673076527281771 0.0015111404308304952 -0.00023748655947321737 0.4638754792130977 -0.18215485209244076
88912000.0 0.6946440777519259 -0.7170829458836518 -0.19936127249774901 -0.7972578358981982 -0.0026652612344394617 0.0001737127262759907 0.4642816212056061 -0.2011591748136139
89911000.0 0.6880571167698916 -0.7256952500218695 -0.21344573331201297 -0.8382167472861044 0.002532794539340625 0.0008682846402892952 0.47513779367733827 -0.20086475463214332
90910000.0 0.6813716295343438 -0.7309820731124074 -0.22773669972123334 -0.8716036780860212 0.002419059997486717 0.0033638963681212842 0.466434640736543 -0.21163178843210698
91909000.0 0.6703686212692298 -0.7380087719577539 -0.25092317816270326 -0.9044867076755349 0.0016034158108863014 0.0010173695223879204 0.47452422831666075 -0.23054214381860344
92908000.0 0.6617013495048015 -0.7454210751404367 -0.2673251494993949 -0.9398602272413308 0.0009185516429222664 -0.00022463797757014527 0.4584911681068934 -0.2350035428923922
93907000.0 0.6573957277257223 -0.7506177932516442 -0.287324449011796 -0.9672620423158699 -0.0007042498522000824 0.0035915357607174342 0.4723075433544716 -0.24518678707357758
94906000.0 0.6434467328240188 -0.7598917682657811 -0.3071950999226343 -1.0050312502014664 -0.004293527648437016 -0.0008470229795323788 0.4644540082680628 -0.24869811611214554
95905000.0 0.6397152530457918 -0.7658979786306781 -0.32555856179579007 -1.0371699317553786 0.0005811817960183672 0.0008262262764097164 0.4629083917711223 -0.2643655117008895
96904000.0 0.6285847489382477 -0.7756141075065874 -0.3499933724249368 -1.0731074067839712 -0.002637951714250257 0.00012037439557119289 0.44805656263414695 -0.27787889441350655
97903000.0 0.620703635409018 -0.7782254936527259 -0.36591481036382945 -1.1082797168952443 -0.003135377500915462 0.0011443644352884762 0.4525250856601061 -0.2822724583683532
98902000.0 0.6167859145319595 -0.7876366251514554 -0.38582124730993805 -1.1447593125736972 0.00202188219071975 0.004808718714143125 0.44633526107564253 -0.2921274224213435
99901000.0 0.60556749110228 -0.7923914683917855 -0.4176192451039768 -1.1786653493115782 0.0034431590787384874 0.00023545559200618008 0.4739129531797528 -0.3199631171907872
100900000.0 0.5993035607851721 -0.7946708759984938 -0.4431081977382172 -1.2091037891319294 0.0005903123175383916 0.0025101773703677705 0.46193507835394004 -0.3055750587190311
101899000.0 0.5901441990103816 -0.8034876975283411 -0.4666878899681347 -1.2470241894839451 -0.0028630388794249075 0.0016481192404985048 0.4494614158710249 -0.31969183190881434
102898000.0 0.5785553196872857 -0.8085242803197334 -0.50696204434296 -1.282351243184022 0.0009966174510062415 0.0009960174038890193 0.4477279779546755 -0.33679238609062656
103897000.0 0.5717774230921802 -0.8186703873440557 -0.5462891586199065 -1.3186728617148964 0.0029470524260352747 0.0058648896218769205 0.4578788494745453 -0.32227908231820857
104896000.0 0.5654551959753604 -0.8272632532860787 -0.5851291762973346 -1.3505463171952317 -0.0019140056895915467 -0.0013713819448319961 0.43964579217104405 -0.3368655816825091
105895000.0 0.5529605648401748 -0.8292975084929624 -0.6284730825551438 -1.394839308491353 0.0003256841995254192 0.0032285255735905963 0.4402617780216518 -0.34441003395257497
106894000.0 0.5459518589302846 -0.8347087199613805 -0.6793605539381037 -1.4275719079601252 0.0010137956585643368 0.0021937034177791906 0.4293303707731222 -0.36755208105085385
107893000.0 0.5375987320984746 -0.8405536061139186 -0.730286614572455 -1.4720771872443723 -0.00034033307982068805 0.0008530006306291721 0.4390973739045287 -0.3620556487822646
108892000.0 0.5262653424051629 -0.844430991344572 -0.7960325823386248 -1.5026402159320442 0.0003826965579963621 0.0017558675154574553 0.4302309299503116 -0.3729997730550114
109891000.0 0.5142538169788307 -0.8526031162010279 -0.8496828490009047 -1.5364580885578059 -0.00012347190426476091 -0.0005790754652877583 0.44050603583817377 -0.377592187723922
110890000.0 0.49979338406221396 -0.8541511346785418 -0.9117584638684431 -1.541028509815525 -0.0010668554167020123 0.0004929577670648629 0.43764547826663386 -0.38277595400673925
111889000.0 0.4959494160940678 -0.8601366808577304 -0.9772976436593718 -1.6069498485322558 0.0013013281595450387 0.001935567289601455 0.422485492662224 -0.39485232493041983
