! Created with skrf 1.9.0 (http://scikit-rf.org).
# Hz S RI R 50.0 
!freq ReS11 ImS11 ReS21 ImS21 ReS12 ImS12 ReS22 ImS22
1000000.0 0.9747720912693776 -0.004383958067108983 -0.014710137126605972 -0.0325934632890776 -0.016121492123041727 0.0016511536975107658 0.3360861049047567 0.32290102326866177
1999000.0 0.9952981967389501 -0.01511208902846552 0.012048047459924317 -0.02307420963442543 -0.003723051323882529 0.0019636835557534584 0.27462974464975876 -0.04680570317566337
2998000.0 0.9997165589951056 -0.02241875785911426 0.006868614801100901 -0.01118754469662569 -0.005798729320658434 0.0008782813143362273 0.2014391293812269 -0.14824507321032063
3997000.0 0.9996381220971615 -0.03120408152903086 0.012303300888620815 -0.010646467713944483 0.003685448310929058 -0.0027166362258628134 0.096016929720717 -0.22489287776987713
4996000.0 0.9987917223218578 -0.03678585643935494 0.014186631599085961 -0.0018132826614225678 0.004189510931511445 -0.0001916715776298306 -0.04658253894129045 -0.20895922633840117
5995000.0 0.9987334409575629 -0.04880219958481478 0.005346257736399045 0.0007529018374219594 -0.007056732121730866 -0.005831966472728714 -0.14270634342467667 -0.1148628501229107
6994000.0 0.9934751178396891 -0.05777613422214958 0.007575201025004158 0.004134328059815279 -0.0009195159932047525 -0.0009421352738809206 -0.15507631819742887 -0.030998382930885155
7993000.0 0.997421244713881 -0.06840638521404513 0.0044419609082641375 0.004006422489248136 0.0008875294247895808 0.005311856296449734 -0.1625201912197324 0.039585996859895056
8992000.0 0.9972493257251235 -0.0704525064922219 0.0013861638320841136 0.006830920698428718 0.0018796311061963862 -0.0006724913408475607 -0.15491387882304453 0.06194554953738869
9991000.0 0.99469345168741 -0.08599279679499897 0.0068419313121685765 0.005764530765549542 -0.0019940278171978023 -0.0029195309138184116 -0.15766704825178238 0.0948570611000052
10990000.0 0.9956135498847623 -0.0918908470026367 0.0009875857809589657 0.0019664471169720454 0.0016387921126847353 0.0005231569611945363 -0.14806269103392264 0.11516521896733045
11989000.0 0.9918405706990213 -0.1003707949975473 0.006972613918240332 -0.0038900955727669733 0.00176243644638731 0.0015380199352887692 -0.11909372888597163 0.1333388977944346
12988000.0 0.9930532745327699 -0.1091472162757402 0.001520430215931767 -0.0005923411108902372 -0.0022397144006469282 -0.003696175098197429 -0.11867384332294524 0.15782558086685775
13987000.0 0.9901639207859618 -0.1177177187120596 -0.002398206402441737 -0.0017079731137776908 0.0008030960183759762 0.0004626377289204306 -0.08686197729894868 0.1879749505895052
14986000.0 0.9899377206590171 -0.1257153428123625 -0.0003603752497063687 -0.0075224901980001325 -0.0001935410720172857 0.0008553333695188092 -0.08623032799971903 0.2041121269043583
15985000.0 0.9918483727079417 -0.13314945747019713 0.001228549601565659 -0.0017932620950359879 -0.003209230713535129 -0.001747771323400978 -0.0694497813691687 0.22365456698450106
16984000.0 0.9871704046498293 -0.14346028527955884 0.0018658325800789272 -0.007389773497720754 0.0012163591434133808 -0.0010774735148645959 -0.05675983696128526 0.22914347545275718
17983000.0 0.9887260312982665 -0.1512075924455483 -0.004418308954306784 -0.0022215970029896264 0.0014447739685536538 0.0023405420213894316 -0.05406293537453573 0.22920043717482036
18982000.0 0.9840470168692724 -0.16119374589507493 0.0017792757923653507 -0.007138218382902183 -0.0014090287803033323 -5.4598306381366405e-05 -0.021258445871180916 0.22624120232880232
19981000.0 0.9853854727398762 -0.16454581957075204 -0.004653182027753993 -0.00457313935978199 -0.0010232491564710886 -0.001333674599211219 -0.009779040613612025 0.2458419890452366
20980000.0 0.9836537770114061 -0.17672615932055682 -0.003942298061043273 -0.007682617887067822 -0.0005555402191680303 -0.001217445060685178 -0.0037542289646864705 0.25504525265147626
21979000.0 0.9797381539040132 -0.18533324838451473 -0.006355387818083411 -0.005041352542865553 -0.0021307914435672996 -0.0005354543806911873 0.018344044915176265 0.2401600417565545
22978000.0 0.9793037431901497 -0.19324110939383787 -0.004646549158645734 -0.002204726035948371 -0.0018281769958178988 0.00418736843782133 0.03265042028104562 0.2525619342044265
23977000.0 0.9802907472922375 -0.19987481131504883 -0.007640078548940432 -0.0026579959462196797 0.000328302212531734 0.001399802946990314 0.04245802822579216 0.25645315696278304
24976000.0 0.9758796745808347 -0.2095198259067723 -0.003144337155488825 0.00010375212962365069 0.0006604296153869256 0.003350816252903742 0.0703138424248653 0.25263395913190534
25975000.0 0.9689555878139672 -0.2241617328383447 -0.005274696211802223 0.002372038612122341 0.011994289798889996 -0.022029356724839775 0.0743928670785322 0.26424571235468675
26974000.0 0.9714576581159501 -0.22807359807280136 -0.004164923380877882 -0.005347807081824919 0.0035794983304883077 0.0030974514302941738 0.08441544089245498 0.2660449138858746
27973000.0 0.9687106993068959 -0.23429234767346657 -0.0040086333849682805 0.0016063755573706116 0.0021224953554897417 -0.00019628080318888878 0.09922209262274155 0.25657955470294996
28972000.0 0.9668409734161452 -0.24402562253321056 0.0013321792659893314 -0.0008898363081781536 0.0024271323174862277 0.0012228613292658884 0.10837758348275577 0.2554594853483392
29971000.0 0.9657397082478143 -0.2538770920335795 0.005223248754305676 -0.003487799824594898 -0.0018494297129520107 -0.0007636457047651374 0.15508036034901007 0.26820237434448857
30970000.0 0.9632798512461381 -0.2573817186266696 0.0014429041375644616 -2.2162982782039318e-05 0.0016796469149205214 0.00377514048677635 0.16652381749214462 0.25074732921577236
31969000.0 0.9617854729824059 -0.266705748863818 0.004474567558925022 -0.007222502472870174 -0.0019274477933801835 -7.699598191478309e-05 0.15300347549555127 0.2543841303290798
32968000.0 0.9598618625281425 -0.27657924677930046 0.010523275636610877 -0.006988823747406419 0.003262765534944403 0.0018618634944804532 0.15889882348466824 0.24503534240021016
33967000.0 0.9571478946621268 -0.2855742257450036 0.010813006026782097 -0.009426073470155753 0.000885061768042677 0.0012825513952969569 0.19080243925219068 0.24394070479404228
34966000.0 0.953940495171518 -0.29684821355015595 0.015369915975321374 -0.014187615107605675 -0.0008919026219280496 0.0006421930662619075 0.19229196766639978 0.25217850695684646
35965000.0 0.9516468475029983 -0.30311810851647436 0.016606703494157767 -0.013828074191915818 0.0006208810612788585 0.00026584439611592023 0.2078874943798264 0.2518689990480719
36964000.0 0.9480093917419271 -0.3128675399176164 0.01584122003009802 -0.01431029291132859 0.0008712007174512376 -0.0005502901300672665 0.21667693968599813 0.24954145431432895
37963000.0 0.9462346839197726 -0.32028944560701367 0.018639255580690635 -0.019386890627888037 -0.00011237848623200316 -7.309398777083842e-05 0.22475633196690503 0.22880311550715907
38962000.0 0.9433090571822483 -0.32983442522413836 0.024903688081126234 -0.024165937799472445 0.0017414601918512233 0.003563819764339592 0.23699963657180642 0.23190869839191386
39961000.0 0.9388670566588773 -0.3389315716818022 0.022158006793950524 -0.027027854083505082 0.000371840283683627 0.0016249792444354729 0.25246831947870535 0.21827824112265146
40960000.0 0.9366759279758128 -0.34561102608517846 0.02375089480427543 -0.024985065985228906 0.0005115814986573611 0.0032622707679744317 0.26785426221500985 0.23179249261840373
41959000.0 0.9343285708086028 -0.35589677484876703 0.030066318585747112 -0.03504516781512621 0.0009702046075838371 -0.0033651130587117116 0.26039235463217353 0.21731063097352687
42958000.0 0.9289740215958536 -0.36374589142013203 0.02995890304876443 -0.04050993935276543 -0.0015737055253078596 0.0032207923346616926 0.2774354689755412 0.20229671879524272
43957000.0 0.9277476404398217 -0.36966189163388646 0.029800147451367873 -0.04732206304766026 -0.0008027786793893862 -0.0007603255153517033 0.28805632454855495 0.20915925938283866
44956000.0 0.9236859105117804 -0.37824223758594616 0.035995158718499634 -0.05342961770815902 -0.0022492378240565425 0.002071970576247016 0.3082810224751239 0.18729397179752513
45955000.0 0.919094252836293 -0.3881881579792155 0.033945075781284834 -0.06061779455517027 0.0017163612790857458 0.0006375772207161596 0.30746908374626575 0.1928034024939182
46954000.0 0.9155181597874643 -0.39707137451518093 0.03631554607172346 -0.06535717304009202 0.0007113054059697267 0.0007907013497517519 0.33244558087408843 0.17796265378525328
47953000.0 0.9137937775545198 -0.4031806071571901 0.03460625269789019 -0.07287681949707855 -0.001486742817694654 0.00021805799474992955 0.3426072497693413 0.17234225230769204
48952000.0 0.9091340340015269 -0.41327544275955996 0.03680941963598417 -0.07943870990708513 -0.0003499094263782967 0.0020438777375634803 0.3322932067218574 0.1693689271398533
49951000.0 0.905281567044891 -0.4210457811363826 0.03598219037189378 -0.08663484044661705 0.0009406138314872412 0.0007715239729320741 0.35654003235241294 0.15315031550454072
50950000.0 0.9016265241084134 -0.4285547530820076 0.033929517381372995 -0.0960440612854179 -0.0007919513759721851 0.0016473466478491292 0.3589705948958483 0.14406817983552345
51949000.0 0.8976573695176098 -0.4358615459107688 0.0361949042649925 -0.10647394100200307 0.0012047562222130329 -0.00019814005932163584 0.35820656145374513 0.1368270220368927
52948000.0 0.8961181449133728 -0.4447349445490149 0.03908014829595057 -0.11680651721191124 -0.00046348982048381856 -0.000653782705948909 0.3701037862932253 0.13573223596632678
53947000.0 0.8889282683051948 -0.4546678810746671 0.03748890661085968 -0.12308566085601622 -0.00012992875971766198 0.0006905348170691106 0.37142399738610415 0.12854735419574875
54946000.0 0.8829352398216104 -0.46098218019697385 0.04148234279175422 -0.13241571359818818 -0.0038922006748074544 0.002289405337271755 0.38481711788051715 0.12404331368974379
55945000.0 0.8818731575819381 -0.4710607537127904 0.04363998528385066 -0.14432594274999663 0.00034275748217129666 0.0022285939120837137 0.3871763423942896 0.0932617368709151
56944000.0 0.8781852637950645 -0.47836947320893425 0.0458908879763406 -0.15327775855626594 0.000591026475547556 0.0016138634850091363 0.39876968104213023 0.10081379393797127
57943000.0 0.872551667393007 -0.48796530322932086 0.042138839688965236 -0.16667383825327145 -0.0019674649459547797 0.0034294017947506758 0.4006119670876368 0.09733293566216018
58942000.0 0.8682648365455545 -0.4923166498063227 0.046100946340284624 -0.17846181161775254 -0.00013091802121636216 0.001950852014287048 0.42431675383823225 0.09125826550063837
59941000.0 0.8640753117674568 -0.503844445390611 0.046200435557303986 -0.18764327884812554 -0.0023808103499148546 0.0004038048356846505 0.4177877800514922 0.09359715809219855
60940000.0 0.8559572573075067 -0.5089190500223102 0.04781844038374083 -0.19040041036604052 -0.00027839960027425037 0.0002832031748606248 0.4086173128797354 0.0751507797335093
61939000.0 0.8530703790444066 -0.5162934401849711 0.04901870473845488 -0.19745372861015864 0.00297965004954066 -0.000304721541634886 0.4169493613269006 0.0670449830882203
62938000.0 0.8491911880814009 -0.526730430044533 0.05167589226379402 -0.21907717394950288 0.002872974945008867 0.002890324821858487 0.449590404263055 0.0597328218953598
63937000.0 0.8421399300008668 -0.5349398791323519 0.04830065250689096 -0.23696556323123952 -0.000816726562154518 -0.001379874295106718 0.4417005145236332 0.03407429935593255
64936000.0 0.8376464642579846 -0.5385399289013738 0.05374817098819433 -0.2512952706280678 -0.00019605378630995084 -0.0026042148555404433 0.44061166715422073 0.042432770001712035
65935000.0 0.8338287614102469 -0.5506027849830161 0.051580561702735936 -0.2642986996943425 -0.002583047129961983 -1.609512411146409e-05 0.4449061837878156 0.014293611744021665
66934000.0 0.8297710708480721 -0.5563821802175584 0.05152000476303763 -0.27829936869597205 -6.670312055741587e-05 -0.002314581624735646 0.4413195557204738 0.015044261796462182
67933000.0 0.8278732233337466 -0.5622516192942377 0.05564336539865275 -0.29099400252429947 -0.0011267531472616268 -0.0026247463641914087 0.4497971991237901 0.009997300069694563
68932000.0 0.8094337737691091 -0.5585442189861951 0.046922218670234564 -0.29946411141916934 0.000738101170117771 -0.0037652874192379755 0.45621692925300494 -0.015797721282471696
69931000.0 0.8131977715193381 -0.5800912762022734 0.050662880844080924 -0.31882730334397097 -0.000579090704471765 -0.0031818784255641186 0.44482126942547756 -0.02536150933987796
70930000.0 0.8077282355299438 -0.5857144343600247 0.04730538967184603 -0.33519355434000336 0.005391530041895003 -0.0010343926129587667 0.45050560642333526 -0.03292318479708407
71929000.0 0.8026409784310965 -0.5961355206269561 0.04090051577140963 -0.3542301106766514 0.0028510751753847057 -0.0014046686343778974 0.45709417227682814 -0.032516015339696204
72928000.0 0.7953914125283811 -0.605930939919812 0.039319677671462674 -0.3685875800314659 -0.0048922788125496395 -0.003516478197924436 0.4654954756447325 -0.04241536483038006
73927000.0 0.7914333345002288 -0.6095736913670478 0.032102460418012756 -0.38797276825821936 -0.0010181405828769354 -0.0018404151814465709 0.45732798022660903 -0.06709012807664293
74926000.0 0.7852553910602398 -0.6186427911475489 0.023672442357939052 -0.40435464251837416 0.0005257101771596776 -0.0030442501880548092 0.46662458519791944 -0.06276524123166943
75925000.0 0.7810466883131778 -0.6237512043732001 0.017995054517311208 -0.4292044787426257 0.002607236732180657 -0.0020472633261424695 0.4672506105523102 -0.07304572863277728
76924000.0 0.773540785253042 -0.632692113393321 0.0009523766006636375 -0.4484556947119977 0.003324031388538723 0.002247682031340138 0.46769522903828487 -0.07831772147366285
77923000.0 0.7679069220042415 -0.6386654673324461 -0.013508362451209871 -0.46983357684407434 0.002834164224743927 0.00048483550538471853 0.4647067175377169 -0.1035140178348835
78922000.0 0.7603673210275332 -0.6500018180877745 -0.028507327717257766 -0.4996134258380882 0.006599345063828827 -0.003113520990922993 0.4596446007127554 -0.10462497105668248
79921000.0 0.7513128829474954 -0.6518158200182955 -0.04383154239710654 -0.5225594692255999 0.003506089060070071 -0.0026193457349034635 0.4527379733008879 -0.1167433205815413
80920000.0 0.7474624638674667 -0.6625394258149291 -0.05886134420084187 -0.5526917032206654 0.0020897383583878873 0.001543623848054408 0.46411776647919106 -0.11758454508721394
81919000.0 0.7446610162357392 -0.6694097662207775 -0.08270969545649504 -0.5756590800521554 -0.0024697567821904136 -9.433390377321542e-05 0.4561842869095482 -0.1329788548974121
82918000.0 0.7318854855765493 -0.6787718417541925 -0.09168960257335233 -0.6100557391295821 0.0018746811238335831 -0.0007580913222501981 0.48369690788898273 -0.1402434897299585
83917000.0 0.7259320296839448 -0.6859200138353949 -0.11604419459577595 -0.6398368679262063 0.003921378141796084 0.003979440022395599 0.4681323834108912 -0.1421446102496974
84916000.0 0.7196722185611242 -0.6941817767158034 -0.13748783031409811 -0.6749338408877731 0.00035509838871443616 0.0007392973564124325 0.4629287788915673 -0.1762110604785137
85915000.0 0.7139499720944723 -0.6983624556026062 -0.15433358513944373 -0.7055202190185665 0.005198553182604634 -0.001058589491791424 0.46819199053294613 -0.17479870157926697
86914000.0 0.706179811251812 -0.7076475124964089 -0.17119533625073904 -0.7456114382290526 0.0020957944613971984 0.0012598787505457923 0.4544518573854157 -0.1827183315459776
87913000.0 0.7013718956735658 -0.7133486411820441 -0.19041745614985622 -0.774356470942432 0.003542374658527415 -0.0021142215818174747 0.4563027622553986 -0.1942608488658823
88912000.0 0.6901131193936727 -0.7200946783345469 -0.20682874613042398 -0.8066068641656333 -0.002873290609520139 0.005447330279553773 0.4596427494029087 -0.20857395905849513
89911000.0 0.6845319945323743 -0.7286889557873986 -0.2202285923165296 -0.8455281691536243 0.004726108197992731 0.001190778342390764 0.46762275882485244 -0.20313624514850573
90910000.0 0.6768784987967377 -0.7348746077846715 -0.24098206338270772 -0.8760647759862352 -0.0015336028349037497 0.0010394125827962555 0.462249278366752 -0.21577883651882326
91909000.0 0.6697316793376975 -0.7383155650082879 -0.25663177516864494 -0.9151666144739931 0.0014626944294195612 0.001880076050149298 0.46701477018020815 -0.22600120872802282
92908000.0 0.6604634967610715 -0.7487203518164429 -0.2789311502193656 -0.9484739256507275 -0.002738482461644945 -0.0008381024984165373 0.4559617194259381 -0.22802008140324415
93907000.0 0.6563071723876311 -0.753355607576231 -0.2956774338092075 -0.9784587981841655 0.0024140369120682357 0.000518267272535183 0.4585026511113281 -0.24852174586720524
94906000.0 0.6417891693088604 -0.7618822335865582 -0.31833388654556194 -1.0131407041022473 -0.0018885532717715235 -0.0025447768878393002 0.4510057979078189 -0.25660877923900344
95905000.0 0.6346091840890856 -0.7690203848837723 -0.3406555180255263 -1.0437456782223151 -0.000903465699055098 -0.0013014546773249091 0.45705438821662897 -0.2672232575580259
96904000.0 0.6271960344093945 -0.7781473309387688 -0.3593674306022503 -1.0856809169656325 0.0013122926432449448 0.003083583498672477 0.45043759097608715 -0.2817065868038218
97903000.0 0.6193656386305998 -0.7804286980510836 -0.3769242331765577 -1.116009856501395 -0.0051442190003460715 0.004934890263266091 0.44889039656088264 -0.28745636887606707
98902000.0 0.614333798535168 -0.7889618225474231 -0.3989936032025294 -1.1553685297568317 -0.0003316417491672451 0.00026288913656195476 0.4499576412019743 -0.30140952752850303
99901000.0 0.6011619185536687 -0.7939127088457975 -0.423172422650781 -1.1843506214364345 0.0006222542715027741 -0.0009388658118184685 0.45889361999494377 -0.316326037224153
100900000.0 0.5952822204770537 -0.7987162886012208 -0.45760824126661703 -1.221204219771973 0.00034103870946377413 2.546092848848108e-05 0.4648784468813258 -0.3100523381063371
101899000.0 0.5848363711705856 -0.8060026576916611 -0.4864200245968418 -1.2559531251424982 0.0030895092888954348 0.0014278671895974167 0.4511440135751805 -0.31436432039160755
102898000.0 0.5760006554429008 -0.8119392050038898 -0.5211687592260607 -1.2938500895709553 4.823918276068115e-05 0.0006147569582595886 0.4427701870497612 -0.33467606632670865
103897000.0 0.5691296611431708 -0.8176937570857806 -0.5586047331819445 -1.3287642901175998 0.000210265566989019 0.002573306661023475 0.4513617342783015 -0.33919970983372605
104896000.0 0.5599776988822768 -0.8279842710356944 -0.5991241433061079 -1.3580866165542322 -0.0019908839183480254 0.0028467668899583637 0.43773448046089536 -0.3347863432289765
105895000.0 0.5502716375275256 -0.8314275814746438 -0.6482624963979258 -1.3999267212679132 -0.0007895699545250395 -0.00048333284187330685 0.4289971098380393 -0.3688628605113413
106894000.0 0.5401360011398888 -0.8376019408589082 -0.7057809805369227 -1.4366968672661398 -0.0019225139864931166 -0.0015960617386048522 0.4284400853533145 -0.36661401022662043
107893000.0 0.53388628216329 -0.8434960074255597 -0.759986022827568 -1.4688207876533936 -0.002280097776587947 0.004540174885937622 0.4316552200878507 -0.3881214112412625
108892000.0 0.521147483612475 -0.8481333130996478 -0.815607392696454 -1.5078091253387786 0.00026744911870051703 0.0022553912302816373 0.424994832534201 -0.38160849037230093
109891000.0 0.5104525316507466 -0.854392532266255 -0.8709742071099699 -1.5447953921309967 0.0015033069514333072 0.0016102082827300003 0.4319324857902356 -0.3776122769125336
110890000.0 0.5066934380196667 -0.8649179245615216 -0.9370423799597535 -1.564320241977122 0.0008491962209189572 0.003884402644574447 0.4235869940818373 -0.3988578175624912
111889000.0 0.49199107480870086 -0.8606580236130836 -0.9956631208342888 -1.6022118692016125 -0.0030552108682662697 0.00014003385156335907 0.41420656095058966 -0.4047395054544162
