! Created with skrf 1.9.0 (http://scikit-rf.org).
# Hz S RI R 50.0 
!freq ReS11 ImS11 ReS21 ImS21 ReS12 ImS12 ReS22 ImS22
1000000.0 0.9719620106689582 -0.00077133220500449 0.0018973893553775368 -0.043741322221438395 -0.006123374433284495 -0.0009619450103861379 0.3179986421423058 0.26661504732600844
1999000.0 1.0010641372704543 -0.013311760992479896 0.01098579663652471 -0.01809998563482641 -0.003013314331568938 0.0015549942866972988 0.28371543210730454 -0.05689349838887998
2998000.0 1.0011983396870547 -0.02154846811944902 0.00956877718401569 -0.01412865674454089 -0.00920538916649539 0.0006633938563887365 0.18544633070584557 -0.13503467993348287
3997000.0 1.001060851055969 -0.03376354881730986 0.015128528402876318 -0.004750382499364078 0.0007761256836945393 0.0016291340026009782 0.08385241402169215 -0.21873604972142732
4996000.0 0.9997118091046042 -0.03492582108425667 0.013327570300938042 0.0016321638708028873 -0.0007506750585342044 0.0012527819217500182 -0.04029809497018057 -0.19687816076188924
5995000.0 1.000688253969361 -0.0479778989243123 0.012328277970186836 0.002478860198297996 -0.00012398360098436393 -0.003649680356976889 -0.12294819356328791 -0.10274075401477392
6994000.0 0.997921597616302 -0.057675622550324865 0.008416108673169699 0.006989385678805951 -0.006928315998257141 0.003912439653246316 -0.14944049119494687 -0.028704350464224117
7993000.0 1.0011931767432403 -0.06750296390817859 0.005900091700810257 0.0034390459666206754 0.0009365333856432951 -0.0009457327491471928 -0.1674931370459932 0.02110292474379176
8992000.0 0.9969334347289796 -0.07412083561030211 0.0019065805815618622 0.0030520223004609965 0.0064645436442049035 -0.0019296355895272023 -0.14212913465958968 0.06081707936719934
9991000.0 0.996764256567954 -0.08290824846716953 0.004603648578267458 0.0038458559827840677 -0.0009953062276368732 0.0031854523317154278 -0.14698496667510424 0.09489131294949234
10990000.0 0.9977864029196766 -0.09410658834328625 0.0008158858057384041 0.0012518422520444 0.003646889655518676 0.002029229704141665 -0.13188201001604158 0.11659432176194821
11989000.0 0.9949223637427019 -0.10190037946266241 0.0011270819589098723 0.0020369192619492517 -0.0013273723510401228 0.0006630832770762787 -0.12903925453257845 0.1313252022830212
12988000.0 0.9955107306001382 -0.11179417106888552 0.00044853500724444036 -0.005588290803009559 -0.0028567730980112757 0.0014692727175303628 -0.11859174722235516 0.17206328367420234
13987000.0 0.9917084158092935 -0.11632420476419125 4.419288958621668e-06 0.0008613023029978848 0.0019423604632822563 0.001980828328043079 -0.09200137177205893 0.18763348690217693
14986000.0 0.9921488327921121 -0.126023122173074 -0.0004924768963653363 -0.003970331221013603 0.001309313533614573 -0.004587887995700605 -0.08501625878901292 0.2135638970645778
15985000.0 0.9947671574159153 -0.1334807169281745 -0.000792928573825817 -0.0003725151422164687 0.0013513845336188433 0.002185775001205701 -0.07699741208702841 0.21256883571422303
16984000.0 0.9893688471449967 -0.14402751679793693 -0.005622815435662125 -0.0011918361023982081 0.001388968759617572 -0.002283034583576522 -0.05491754922717334 0.2172231725625307
17983000.0 0.9890130923338595 -0.14801281671604172 -0.007019460934481052 -0.0085956694493096 0.0033647693577620085 0.001471863734611951 -0.053485696671138505 0.23047316129626236
18982000.0 0.9868044972578743 -0.15879081395544875 -0.006295096023102915 -0.007967914086441562 0.002956637418807755 0.0026815038495787793 -0.020453180661356818 0.23297767141518927
19981000.0 0.9859824011767497 -0.16729605164118752 -0.0045874414247267774 -0.001870686093042005 -0.0013584373320864986 -0.0038007052134168095 -0.017629739838825723 0.23607894929625836
20980000.0 0.9850007254708701 -0.17374759492683498 -0.0030833045808606203 -0.0018633432780204289 0.0021943349002569606 0.0016863261083237353 -0.006562740226187513 0.2568007956250254
21979000.0 0.9822765652722669 -0.18522467248700428 -0.0111216564831718 -0.0025000977791323807 -0.0011114414578679594 0.0008281111845599871 0.023808541832058567 0.24369293508715248
22978000.0 0.9811053541489482 -0.192335648763475 -0.005415228225889282 -0.0026895663705757493 0.0033907558003265703 -0.000848739263291572 0.017672549086916126 0.2629762406519086
23977000.0 0.9799166708470326 -0.2031531413492496 -0.006271492510983172 -0.00278708023228288 0.001055927060727062 -0.00375136272025091 0.03991501019221704 0.2520758799814953
24976000.0 0.9774617221234244 -0.2108204402127776 -0.010553511270120932 -0.000200734212526147 0.002054815242710598 0.0012668686724456426 0.06737977540365914 0.25686326840471463
25975000.0 0.9715779267642701 -0.2260901455093578 -0.006124670716960077 -0.005181635026332107 0.006447400769037957 -0.025496753221724306 0.08209565892827102 0.25780566227649654
26974000.0 0.9731989155966785 -0.22858669882880103 -0.004200501408335345 -0.002445558442293454 -0.002010658204594305 0.0027580208645326828 0.08287014876567819 0.26715272446666977
27973000.0 0.9716444714914703 -0.23508662266930744 0.001808190878604293 -0.00027216455092688894 0.0005689255493337732 -0.002788047155243122 0.10466049237065152 0.2609054971646493
28972000.0 0.9686363353350342 -0.24361316092262988 0.0009599263920595324 -0.0027326585584497324 -0.0016619471541602906 0.002233334301818362 0.1140388370265317 0.25576718863575165
29971000.0 0.9669804223326994 -0.2536543240835336 -0.0018191292056986773 -0.0045517267296240555 -0.0016760095824569943 -0.0008282323197801036 0.14231586605851373 0.27076784808395393
30970000.0 0.9653424434927818 -0.2593089433733157 -0.0011845684181050983 -0.0010719235056793862 0.0031828668841778216 0.0007545308349757266 0.1668634093061645 0.26201471961461137
31969000.0 0.9639570962994177 -0.2671027226274472 0.0057379754067400516 -0.0063191165240202955 0.0026147708808604785 -0.0017748877095760498 0.14941719788291602 0.25453638959845704
32968000.0 0.960479977796146 -0.27789139597640466 0.0061435354898884105 -0.00728283329842044 -9.309208752691215e-05 -0.00021575836263617158 0.163468058188534 0.24442866602767785
33967000.0 0.9588112088607519 -0.28825519476322287 0.00930968978102705 -0.01235883710721363 -0.0006288098138747178 -0.00028490997536036346 0.18175912953718804 0.24838248488748899
34966000.0 0.9556264979840634 -0.29705805996086804 0.012501287457314082 -0.012443775047372143 0.0015869797584978132 -0.0030217249038120963 0.19336975713141977 0.24801592568207334
35965000.0 0.9529018599000305 -0.30290353712207246 0.013446679577504197 -0.015189810372744339 0.003396648915418328 -0.0008316151243835674 0.20750791528845708 0.24761182959955386
36964000.0 0.9503565548533889 -0.31239135683497615 0.017277404218786048 -0.016842843680052195 -0.00018890220011877774 -0.0005991307523456672 0.21736897018133308 0.2608398810540802
37963000.0 0.948588875758162 -0.3197009655410294 0.022582016642770413 -0.021628968516220093 -0.0023647801255561834 0.0009302638487410341 0.22835239941332272 0.24023161531775603
38962000.0 0.9459550791216893 -0.32744223942533496 0.024951450498760023 -0.02697968115689895 0.00029821755462418976 -0.0008826717004787048 0.23860050872513633 0.24292798499988866
39961000.0 0.9415453664830555 -0.33789675310557277 0.02613763067831623 -0.02704525491641634 0.0012911880800251542 5.778938235494365e-05 0.2556802537985782 0.2249620061488042
40960000.0 0.9386519602025254 -0.34514776197153113 0.023730925686335443 -0.026370572027918256 -0.0006099584058592291 -0.002546910547575369 0.2671414768144515 0.2233875344404738
41959000.0 0.9344946969403662 -0.3540796719049729 0.029638458820203856 -0.030980016320897582 -0.002233158082142993 0.002984889784742383 0.2607344161635998 0.21356724388310752
42958000.0 0.9284406998741586 -0.3640746374332915 0.03474845909410199 -0.04106287264763049 -0.0005320865835687726 0.00327754328931749 0.27634103683315364 0.2013602593536709
43957000.0 0.9280610196103529 -0.37081396042327236 0.03440217685831215 -0.04779616457436111 0.0001233774963134411 0.0030620383243474317 0.2879054201982396 0.21394193456280394
44956000.0 0.9250610093958295 -0.37727884563087966 0.03368799662776902 -0.050895984288128505 0.0019982104756814043 0.0009953198576227126 0.2942366656016584 0.19487223505573553
45955000.0 0.921724114367468 -0.3854010230117543 0.03583121432423631 -0.06031540620090892 0.0011245765426981308 6.404176901998875e-05 0.3026802627795863 0.19181275283380028
46954000.0 0.9186841389527111 -0.39603285541317884 0.03856053148839054 -0.06644913305719527 -0.0006094004770557189 -0.0009084891900453534 0.32629151973517584 0.1780508382426473
47953000.0 0.9145807824328601 -0.4037519225879889 0.03961505232966216 -0.074400629015608 0.00037836715482079573 0.0009236665549243493 0.32894572225181706 0.1774576974386584
48952000.0 0.9104297383647757 -0.4122585046085113 0.04155201563722208 -0.08020016834261666 0.0013256900650293803 0.0014116881908843742 0.3355151771980433 0.16412201526232126
49951000.0 0.9061403643759 -0.42064686241752886 0.03629396915591135 -0.08968284803188264 0.0034466559937146274 0.0008539181204893327 0.3505649893993759 0.14803922729268576
50950000.0 0.9031369628443234 -0.4287623676890629 0.04228043047602812 -0.0932586556173836 -0.0017534922890042174 -0.0032138551109847425 0.3438083585705894 0.15023604102210972
51949000.0 0.8981901301442674 -0.4363864755390842 0.04327383718404908 -0.10495580817267053 -0.0009971754731972987 -0.0029315020232218406 0.35462242695566204 0.15081801213408208
52948000.0 0.8974011288027205 -0.44366396539904296 0.04398778626210565 -0.11440102169473536 0.0028552712630733087 -0.004258095968665779 0.37860803677074545 0.13801464780812903
53947000.0 0.8916135867768852 -0.4512848580617987 0.04825757200093991 -0.12313908141842744 -0.0008455579728897611 -0.002290728948571515 0.3732800874231347 0.13112068565019377
54946000.0 0.8843830728390427 -0.4605389042630085 0.04576990319515732 -0.1329945844621725 -0.002409739129815069 -0.0011089418166734966 0.3802524628416423 0.1244163731703565
55945000.0 0.8835355295345234 -0.4703366815539156 0.04683385900404243 -0.14379037211089438 -0.0011124165859191758 -0.004567866620597839 0.38566869046592533 0.1097184220809718
56944000.0 0.8795080811151423 -0.4766642778131799 0.05071070725185814 -0.1551044758719307 0.0009423476691053799 0.0005638142984473322 0.3996711769624874 0.10515844316035729
57943000.0 0.8756953517803189 -0.48741541826592183 0.04871616052823911 -0.16603720112958673 0.002620819153708411 -0.0032102369852792995 0.4118049543477655 0.0990211646853075
58942000.0 0.8682731894976174 -0.49236328914799726 0.05221621617073568 -0.17705054776546442 0.0024065745159261545 -0.0015879158998809715 0.4201456832541856 0.08623198023287842
59941000.0 0.8668616944449645 -0.49806358761909597 0.05208408646258768 -0.18603723867902816 0.001372949067269801 -0.0002027517136967839 0.42154333562240026 0.08831023596265843
60940000.0 0.8583917426667411 -0.5084029434096101 0.054635094124800165 -0.19366803092762683 0.0014134281857412086 4.656811070427385e-05 0.412960705609551 0.07205613050547308
61939000.0 0.8557372484328427 -0.514268873894374 0.055633841745887536 -0.20424201648435011 8.859869613036895e-05 -0.0013593722422690882 0.4265486768424908 0.06124902504212065
62938000.0 0.8496615448297257 -0.5250648101811471 0.05536709028454454 -0.2166207638022336 0.0039748425340537475 0.0005803669680695 0.4512579399866548 0.04909706737485122
63937000.0 0.8442442365183087 -0.5332176874819681 0.06039092798712345 -0.2370579224326706 0.0010480486809820015 -0.0006673153218987911 0.44009320160982474 0.04143664750018004
64936000.0 0.8392423849074523 -0.5382051195816069 0.05919858151748503 -0.25380195719646786 0.00114537554551653 0.002539645425769651 0.43695217607937126 0.039884190333917255
65935000.0 0.835558876581353 -0.5506096036858666 0.05723578404275625 -0.26935250587334614 0.002507879472718319 -0.00045877695595799943 0.43448161184191675 0.009927754121151074
66934000.0 0.8324003057993435 -0.5534705048285403 0.058931172838372396 -0.28101534575204945 0.0017614254163315563 -0.00010599589556772735 0.4406620177776078 0.012197757774580004
67933000.0 0.8276028419455466 -0.5638769927605263 0.05883332317125887 -0.29712210684529383 0.0014466240861259493 0.003121480445436149 0.4476923818202161 0.008456594994550263
68932000.0 0.8248179685067603 -0.5630164668856329 0.055519900561336995 -0.31326886644015434 0.0017692815726503004 0.0012923644631372682 0.45330240495307134 -0.0018466029274760594
69931000.0 0.8146096221254949 -0.5789220850862044 0.05384499516801604 -0.3281486234537734 0.0058542652888133725 -0.0005590006843420469 0.44952566719904113 -0.014556561048095619
70930000.0 0.8075315551798703 -0.5863214284620512 0.05034853882539563 -0.3476635264522116 0.0012775163207000557 -0.0003235908155773152 0.45321229436417715 -0.03495381303260649
71929000.0 0.8062715744954778 -0.5941082374160311 0.046590046626714184 -0.3641497743708769 -0.0009334018776982748 0.004372371730110597 0.4490182064312996 -0.03755128498012827
72928000.0 0.7969306198109208 -0.6045987395064445 0.04168664486769445 -0.37976167077666584 0.003228180800964152 0.002012650230091271 0.46015860587734053 -0.048867036859854135
73927000.0 0.7918501679870195 -0.6089862742713739 0.03682390837609729 -0.4031390834619595 -0.0011369408365787164 -0.0015179939763120566 0.4616497267698716 -0.06104480791838844
74926000.0 0.7873530602254617 -0.6174895513315187 0.030489143805712875 -0.4219138000427207 -0.0014949653327142425 -0.0039978213304226835 0.4722577625313464 -0.05464747370049655
75925000.0 0.7818957787537786 -0.622936582114923 0.019800230397646938 -0.44104853326233945 0.004591676688178519 -0.002397737666913948 0.4684229297441436 -0.06888597951624886
76924000.0 0.7766927719509219 -0.631840743992656 0.00843162871964948 -0.46686031367655784 0.0006191098714865026 -0.00017024657863512645 0.47381682580746354 -0.07300384736943513
77923000.0 0.7666511199390446 -0.6399907458590387 -0.00827494182346938 -0.49058680439120883 -0.0027510186465475816 0.0003926364733077041 0.4691339381609137 -0.0889316841549288
78922000.0 0.7634465633719482 -0.6513298164252596 -0.017405645341410106 -0.5181078600328883 -0.0001774716996282038 -0.0035296498760436675 0.4667534765338267 -0.1074884609834306
79921000.0 0.7549270788545691 -0.6517396035811445 -0.040670731005773446 -0.5425705555176636 0.0035856746617741386 -0.0004671154583525548 0.4643764756480913 -0.11715361695507998
80920000.0 0.7504560245291232 -0.6635033856507019 -0.04847408602412225 -0.5731526782555988 -0.004634523133039388 0.0008237617675777192 0.4747577789061436 -0.12807158401888075
81919000.0 0.7449918056098391 -0.667775702761183 -0.07058107340423987 -0.6016579442026053 -0.0019213337031688713 0.0009448382608507086 0.4636334205732015 -0.1416074283983465
82918000.0 0.7343731785804039 -0.6767821813513667 -0.08122058367254781 -0.6316266895317919 -0.004102480138820727 -0.0004535023403274475 0.47544559839293016 -0.15069536227033864
83917000.0 0.7276937910897862 -0.684510488827143 -0.10337449677933641 -0.6619838147640914 -0.004341646188655319 -0.0007355673053900255 0.4785662768561173 -0.14488175192919936
84916000.0 0.7232081743924619 -0.6920344210492152 -0.12134708178719289 -0.6993820657106761 -0.00039883789176146803 0.0003320166922087917 0.4726854409792623 -0.16279346677075324
85915000.0 0.7153095567720078 -0.6982386391876588 -0.14292155048866764 -0.7281254537028047 0.0010249032888420672 0.00011657461149463184 0.46579598253137555 -0.16657202803181115
86914000.0 0.7092218105574107 -0.7086290303132298 -0.16094191328649204 -0.7663770835480948 0.0016680066913769174 0.0009943517532271103 0.46754685807085333 -0.1781672545252728
87913000.0 0.7012933528121114 -0.7131840598376743 -0.17867173375175785 -0.7975794484075809 -0.0040688429020867035 0.003886851163942177 0.45681245636742485 -0.16860205871684825
88912000.0 0.6953799549073083 -0.722045471935189 -0.1968006566611053 -0.8337043688956881 0.002551659763732563 -0.0024555061861555715 0.47413107520053727 -0.19833905478039993
89911000.0 0.6887970228314669 -0.7291918609553371 -0.21008859717500483 -0.873955337646632 -0.0035600434988441124 -0.0010349032232715148 0.4767627603471106 -0.21172204634426606
90910000.0 0.6799123224529853 -0.7354263894650421 -0.23398932064024047 -0.9053638237853988 -0.002320426557498321 0.0007075581017079018 0.46866728220114556 -0.2175347806471228
91909000.0 0.6705402906507549 -0.741332531820236 -0.25340162606241223 -0.9409071933670853 -0.00307591051552482 9.138092306295854e-05 0.47045766991971005 -0.2173608569768649
92908000.0 0.6633422541555155 -0.7487928215613979 -0.2706658643743017 -0.9767818779238854 -0.0009265750791335612 0.0013285491893989605 0.4578064351186117 -0.22261655884724388
93907000.0 0.6565707386468496 -0.7541149631102213 -0.2922583698082111 -1.0061906463439456 0.00312303023422064 0.0034285044072807857 0.46845872816945044 -0.24393358091673428
94906000.0 0.64419788672496 -0.7615956373385391 -0.3134469652213346 -1.0427917755326492 0.0008968412609159875 0.0024616766349824706 0.4584398777075173 -0.24638148264939982
95905000.0 0.6374697430373631 -0.7688612512813209 -0.33987562264039234 -1.079639263487488 0.0011594575675270891 0.0006981380951790023 0.46596117537745074 -0.2573496142349247
96904000.0 0.6292186791958392 -0.7773928661828866 -0.3584617737332522 -1.1216764002188913 -0.0006268633192935152 0.0008004116840784598 0.4636391944104664 -0.26361982645926635
97903000.0 0.6203474196432235 -0.7810088756473863 -0.38182624139574045 -1.1526360734015755 -0.003142921721023598 0.0011146345438833604 0.4501590360325531 -0.2867946084277781
98902000.0 0.6155497634718182 -0.7904657691132417 -0.402594509647061 -1.194301402715011 -1.9612042516402438e-05 0.0004158182194742612 0.4488110057205914 -0.29335728479291473
99901000.0 0.6068528792497974 -0.794328154817158 -0.4356806149727368 -1.2282931525519376 -0.0010346082651456212 0.003790472138268842 0.46237209225109105 -0.31361877813732486
100900000.0 0.5974685289333765 -0.7979506409447813 -0.4662910358271754 -1.2604296760423486 -0.0036156529297342323 -1.2007068970466486e-05 0.4604196103694137 -0.3127362671217992
101899000.0 0.5888794820683546 -0.8061625022046773 -0.49911054682528083 -1.3022670609455531 -0.0015488127866037326 0.0015805031998869159 0.454161251828563 -0.3074197462273895
102898000.0 0.5783018595822407 -0.8116464875478254 -0.5389811745785196 -1.340701962322335 -0.0011220069381668138 0.0016442712516694232 0.47036253561964375 -0.33861237848380465
103897000.0 0.5701241143992404 -0.8197237530762921 -0.5777414391860185 -1.377175772302239 -0.00041534146701317065 1.3461776300224346e-05 0.46592031443731435 -0.33485143238701265
104896000.0 0.5625229566638518 -0.8299337696443966 -0.6246896462716511 -1.4144339180612149 -0.0012930905608108411 0.0032352342813530377 0.44494128677522776 -0.33637598807852587
105895000.0 0.5503376387173016 -0.8318905165056667 -0.6747822671665652 -1.4556920021098387 -0.0018468675916622967 -0.0018449016480472633 0.44741005661374844 -0.352984743461927
106894000.0 0.5424117992438228 -0.8385839271063326 -0.731473917418714 -1.4929965154922902 0.0001244614461462138 -0.0029034513822792335 0.4406013047130603 -0.37293212455639835
107893000.0 0.5351837123283781 -0.8438111787547116 -0.7863792265187127 -1.528563628219588 -0.0003564548868341216 0.0022062386521256206 0.4381783787995117 -0.37025614632795983
108892000.0 0.5231390011183852 -0.8491360329127826 -0.8505061474908884 -1.5727770115503366 -0.001670165807333446 0.0007778061827597017 0.4451555487510573 -0.3649501070586842
109891000.0 0.5119964091589754 -0.8560614358702973 -0.8998260373844174 -1.6082939999095491 -0.0018263818676427168 0.002631387239926101 0.4440882181491528 -0.370047996720845
110890000.0 0.5017763118376928 -0.8569595091972331 -0.9607454953147643 -1.6083046315087164 -0.0022666667664804183 -0.001814007080976589 0.4202264155397355 -0.38113909887680847
111889000.0 0.4925641264878325 -0.8624897746259249 -1.03471813078146 -1.6730682132932062 0.0001448695078188889 0.0015663584666127076 0.4218872958735597 -0.4056799032654877
