! Created with skrf 1.9.0 (http://scikit-rf.org).
# Hz S RI R 50.0 
!freq ReS11 ImS11 ReS21 ImS21 ReS12 ImS12 ReS22 ImS22
1000000.0 0.9641767866305354 -0.012036876663614074 0.006572888313218038 -0.036220999415923924 -0.004432197930712455 -0.011028580986935184 0.37532801116811 0.26749823790931987
1999000.0 0.9953411605429113 -0.01654087573559446 0.002991666332683778 -0.024973619394352643 -0.0064056277651228935 -0.0005545498004568106 0.23064157580098035 -0.0697973634196209
2998000.0 1.0004773134239688 -0.023482930312199977 0.012917442791136357 -0.01610356274206796 -0.0031689699041705546 0.001098860706259564 0.19012802185287034 -0.14475607606008964
3997000.0 0.9995669887081325 -0.03135369263605648 0.015117079746138526 -0.010735643384487414 -0.008766678931735116 -0.005178136605688539 0.08847452640532902 -0.22847162914321056
4996000.0 0.996469967476888 -0.03728103414364732 0.007984117736854781 0.00245191241447179 0.00014127297063649998 -0.0007969130726751436 -0.04503250018213329 -0.190134168177727
5995000.0 0.9968439112669367 -0.04706915589093959 0.009018168433456446 0.0037468974607146265 -0.001155372640406964 -0.004348791415496844 -0.12235716557755263 -0.09323224339914474
6994000.0 0.9939054537337066 -0.05935440575588921 0.004059924101410931 0.0035841798510234733 -0.0008437565303231173 -0.0016210373245860484 -0.14627136004097357 -0.027058653468417165
7993000.0 0.9964979073321995 -0.06586002189634549 0.005765241470574765 0.006956372380584936 0.0019122331296550325 0.0005198894378526258 -0.1514558595850929 0.027267486895396736
8992000.0 0.9932143477885416 -0.07333835256523087 0.005123588008464228 0.003033339928976238 -0.0014965749800846487 0.002499237536126695 -0.15894657922404345 0.07201624778940431
9991000.0 0.9936530425762741 -0.08197277066363731 0.0014026345688748143 0.0002909138956914297 0.0029609029988545807 0.0022637717749309336 -0.1287476899095131 0.10361698194776692
10990000.0 0.9916533691289721 -0.09579839643834691 -0.000895101152763896 0.0022579678886549175 -0.0019083562060100987 0.0011450425811220916 -0.12693824815894061 0.11418855461183146
11989000.0 0.9914703018844006 -0.10174644147711354 -0.0013519475909053932 -0.0011548928752248425 -0.0031502750373994053 -0.004059436640377354 -0.1335069363274511 0.14544638025904227
12988000.0 0.9908034234720968 -0.1088344888533626 0.0002617100115891497 -0.003248708103014952 0.003533713022941834 -0.000814694656761221 -0.11800700122468884 0.16753878109248702
13987000.0 0.9881651344967174 -0.11823503207630362 0.001937560941669881 -0.0030636905338684785 -0.00019944205938828862 0.0019535071514504266 -0.09536318900665842 0.17419609288592078
14986000.0 0.9876520523147513 -0.12585578073119974 0.002901791089273299 -0.0027406448141111023 0.0019805839752956352 -0.002024702213858161 -0.08088301055227227 0.209479602819561
15985000.0 0.9903642443550004 -0.13635028107103153 0.0010634388608576825 -0.0011307807022662324 0.0015581547565979904 0.004335276642209935 -0.06663570112948478 0.21876692422939986
16984000.0 0.984153653131096 -0.1436172857518139 -0.003723330727388165 0.0012981192449798744 -0.000484246143804151 0.004081977150625271 -0.06620048314761061 0.21413857441879294
17983000.0 0.9840922516092714 -0.15054363456351944 -0.004778190007366003 -0.004675457783148905 -0.00044248727404842727 -0.0002233457465146628 -0.06878194643865385 0.22730003143745964
18982000.0 0.9829233098543465 -0.15963816307505002 -0.003053026042709852 -0.006428803702488933 0.002677894083146285 0.001803580933268623 -0.020735995945051256 0.23264282476744652
19981000.0 0.9824919954356729 -0.16737684629251906 -0.003047955613257499 -0.0016344381545999548 0.005121593048150923 -0.0018452553481109687 -0.008690499348212017 0.2357147126877513
20980000.0 0.9804243913159639 -0.17838315706568758 -0.00035678302475047397 -0.004425684316167489 0.0012563581986707053 -0.00033670721212041276 -0.008593418737432284 0.25800450776390565
21979000.0 0.9769331885209562 -0.1860587535894987 -0.0036693973703758763 -0.0050920157091252785 0.005234274691755583 0.0007501443764522937 0.009225225375511363 0.2455895052175907
22978000.0 0.9769489162715023 -0.19572748177999216 -0.006679530462407557 -0.00397247286563036 0.0016674565870951398 -0.0005988262959139557 0.03853170627347862 0.25143875179562986
23977000.0 0.9769033480390324 -0.20443699490828252 -0.00490215328969954 0.0011666135403328637 0.0015195551614999635 -0.00011342268268657663 0.03345965542782016 0.2612516651282084
24976000.0 0.9733230251776439 -0.21100511515136178 -0.006702489940734036 0.0014552079938136204 -0.0001205675639264332 0.0009918456574456761 0.060450946858852064 0.25970618769653575
25975000.0 0.9705771009466426 -0.22596558137913558 -0.004737278612036785 -0.0030838849802219967 0.01887426529436691 -0.014564896709824504 0.07549612130822479 0.25892583836352406
26974000.0 0.9708217980249289 -0.22791663371426882 -0.00418655136512949 -9.536877239834756e-05 -0.001533964529513055 0.0037236760818706817 0.082430318005493 0.26338517174663284
27973000.0 0.9680248135203801 -0.23682608025686994 -0.0040754317838308275 -0.0024539596883081604 0.0016906301798415813 0.0012673580263717205 0.09636823281063743 0.26038631343631485
28972000.0 0.9658872279490032 -0.24762067607126492 0.0009087203604928463 -0.002981897002159825 0.0007114635290654772 -0.0007794497710915675 0.11785118163740575 0.25274234518114924
29971000.0 0.9646512295655114 -0.2540984315609742 0.0012949787417691158 -0.004507141355511947 0.00180774492905714 0.000758803900871098 0.14754935129401722 0.2679027067980365
30970000.0 0.9614181910312584 -0.25861464726921984 -0.0012455258895167974 -0.0005379183146792741 -0.0012209998346111586 0.0022832958444931137 0.16410177486155358 0.2580088881420327
31969000.0 0.9603095090803059 -0.2678527528231543 0.00868711154111026 -0.0056448224207683384 0.0013244569049691126 0.0024056805081056876 0.14010476592982513 0.25087544898165887
32968000.0 0.9580348147146797 -0.27793037975653084 0.010517676388507887 -0.0034503825497361443 -8.080609921072228e-05 -0.00024194419209831616 0.15767741013631342 0.24629214640890362
33967000.0 0.9551650004311474 -0.2867631562725 0.011025530008486632 -0.009888268414235162 0.0026293291888496583 -0.0006151095349709655 0.18463793782088925 0.24119964071749656
34966000.0 0.9506765194135885 -0.29613057257342573 0.014334715002932655 -0.014252388478942658 0.00022137238750750173 0.002911060308125757 0.19009114824907353 0.24945907401886339
35965000.0 0.9496267814907164 -0.3026158434113837 0.019910214853330527 -0.014819066639104381 0.004631779919975248 -8.807067379714568e-05 0.20705532929404927 0.24858766156817358
36964000.0 0.9477691802697277 -0.31386778166108165 0.016622344980617747 -0.016208851558186715 -0.00044735395813498915 0.0014583614796013227 0.21212504058786408 0.2501695390362244
37963000.0 0.9434048356121938 -0.32425011024906303 0.02053232624299776 -0.022372006178729382 -0.00025989387350823533 0.0028372178233582786 0.2275724359094963 0.24011772993933245
38962000.0 0.9420688746474765 -0.33079216946813794 0.02382169368281524 -0.024336765121562905 3.0768332335381776e-05 -0.0009156467381957626 0.23863754972450593 0.24187809457345233
39961000.0 0.9383408298270097 -0.34107022522137415 0.029502091305292077 -0.029213747756736196 0.0016745916983248912 -0.001888277272648632 0.2601579677145582 0.23104432124731153
40960000.0 0.9352459200977538 -0.3480173241758316 0.022427536679050213 -0.022603924441562295 7.193129928645288e-05 0.0004972831077611653 0.2588697739480114 0.2264449222087028
41959000.0 0.9325801176884042 -0.35584529624161426 0.02993183341274135 -0.030010161125890354 0.0027189427374925902 -0.0014372199422274586 0.27530769850608533 0.2191021729040641
42958000.0 0.9259418652602216 -0.36701146054506456 0.031379945636358826 -0.04311770058478495 -9.274372252183078e-05 0.0017177076005941143 0.27874480193180573 0.1979151278427154
43957000.0 0.9254734249346305 -0.37219628983207903 0.03377394970320282 -0.04913060672621015 0.0019561019309905264 -0.001574914346805925 0.29076761100029985 0.20029483345852506
44956000.0 0.9214697818043857 -0.3808432380210759 0.03651703000426551 -0.05396278239256732 -0.0016422599160888427 0.001810738325658312 0.30450116962057794 0.19006457372351115
45955000.0 0.9181058027755409 -0.38939944117432895 0.03511049672978251 -0.05892280883153765 0.0005244514208555758 -0.002967738556803575 0.30619791572697924 0.20350564113422928
46954000.0 0.9147952268824814 -0.39750295857267454 0.040303874314243995 -0.06257575751192809 -0.0017289073468067055 -0.000730009402650266 0.3183189103716189 0.18433797888884765
47953000.0 0.9107533420394555 -0.40503383579889046 0.03812196416881604 -0.07389989105513961 0.0027417666922143575 -7.904146241017693e-05 0.3502467825640031 0.17621592343362147
48952000.0 0.9049325485104169 -0.41832557135375054 0.040602908349366744 -0.07935175059381439 0.0015239927390348674 0.0005759746806631366 0.3322997358479005 0.17040549964251614
49951000.0 0.9037035722017515 -0.42061948777819785 0.03902309027506627 -0.08734357467005817 0.0010915225070613542 -0.00204155592099445 0.35297855205416995 0.16579911014761697
50950000.0 0.8988515499924615 -0.43120035031195114 0.037038705551732255 -0.09843932881883176 0.0005966445341405399 0.00536701579560152 0.3545049228320068 0.1434135209834585
51949000.0 0.893769733327685 -0.4389389994399665 0.04242070387016105 -0.10456062036852165 0.0010326874465986817 -0.0011485239482651177 0.3687701556849731 0.147199847394896
52948000.0 0.8926463085914312 -0.4466412706267654 0.04219193048861003 -0.11170835410986188 -0.00104977410592016 -0.0005504510560799467 0.3702162046530576 0.1401558783258318
53947000.0 0.8868142767025868 -0.45573432420815924 0.047153422065847904 -0.1221426892104886 -0.003214344107052668 -0.0006522287932963285 0.3749792281058464 0.13312824291690942
54946000.0 0.8810746708256312 -0.4653399871604693 0.04636794054015595 -0.13425890332884655 -0.003362381022267774 0.0007789277768789115 0.38600990664858953 0.11972039000165022
55945000.0 0.8793403413076607 -0.47000740778090583 0.047270511827133994 -0.14057190031087574 -0.0006354491419185036 -0.0043673215653463205 0.38372459108701595 0.10931695099897543
56944000.0 0.8754008409707207 -0.4799710573604987 0.05005910832625452 -0.15178550038373334 -0.0003776610939655352 -0.0011607062672049095 0.4008732241886656 0.10660223868861227
57943000.0 0.8693976135204479 -0.4918674614262974 0.050646420762184674 -0.1663498822596209 -0.0017521152846180007 -0.00216376132896121 0.41135008124499606 0.10287106215425776
58942000.0 0.8657988420261071 -0.4945248947244736 0.05107153394492554 -0.17388830155074356 -0.002076853629169424 -0.0006170361674414162 0.41723065164880746 0.08838414638990115
59941000.0 0.8605015507496522 -0.5056009565867569 0.057733007227955255 -0.1831676537592456 -0.0002266219965579931 -0.00028721191939240433 0.4185144405487819 0.0920058765296004
60940000.0 0.8537021577280255 -0.5115829174381349 0.055304183982603575 -0.19111189248947416 -0.0003500918512090199 -0.0009697888277182006 0.4073783626863359 0.07822992698456394
61939000.0 0.8503001325695293 -0.5181655579226015 0.05533652889888873 -0.19517006715626872 -0.0005484130683863739 -0.002209784995099533 0.4128090017512725 0.07264049211650418
62938000.0 0.8443581547132437 -0.5285776562003413 0.05822602750768456 -0.21128368640272338 0.0021855184670824396 -0.0018767321728583501 0.4391728227436038 0.05648788790975628
63937000.0 0.840337979306542 -0.5356770841178458 0.06209686230317885 -0.23623153846542178 -0.0009458862545400124 8.456296120800701e-05 0.43722979495243897 0.0454974443898575
64936000.0 0.8323206423951048 -0.5433939081633139 0.05661819522695446 -0.24938283032930006 0.0012498188214408379 2.306129597561075e-05 0.43545859162578304 0.05003462011976859
65935000.0 0.8308170789391073 -0.5518281571785634 0.058143184418841226 -0.26403131781083594 0.002042406548575388 0.0012026469277540985 0.45158999334126765 0.024320580118159973
66934000.0 0.8248943342079237 -0.5590389129181138 0.05673562586391192 -0.2788461719651898 0.00167160894225927 0.0010972975387554848 0.4409571255931343 0.017354304872300417
67933000.0 0.8208194257677841 -0.5664337254041687 0.061177667411955905 -0.29000069291860686 0.0019803483611323075 0.0005705747231183518 0.454921317567501 0.008510113941007343
68932000.0 0.8067388660324906 -0.5732248775712818 0.053361334057568516 -0.3051511899308875 0.0032234836626904126 -0.0031531006800398884 0.45733379723780165 -0.007385861416471967
69931000.0 0.8071127601675226 -0.5815896974197212 0.056866083184411456 -0.3202210603388128 -0.0018384059288911363 0.003157488291841779 0.44850816346657574 -0.017846066375798164
70930000.0 0.8022991891423711 -0.5888265046798539 0.0541482503017102 -0.33719308809331094 0.0009342667918283027 -0.004669166918799417 0.4486493107456325 -0.03328172004913292
71929000.0 0.7976352656396752 -0.600209956746741 0.04735433144586511 -0.35781752904931186 -0.0012341776913916615 -0.004309950839867104 0.4472329189015156 -0.03260374719384818
72928000.0 0.7914132408928716 -0.6056466887513227 0.044953466422666156 -0.37351432027545645 0.0034038887637710576 -0.003648555613400068 0.46040980227457756 -0.03695898382984075
73927000.0 0.7854029642496013 -0.6142778192389333 0.03789062069749836 -0.3966457395329816 0.0003774370937326007 -0.0014391769148175244 0.45995295136972325 -0.053207561266900474
74926000.0 0.77730288687346 -0.6249634838318033 0.023397931702950743 -0.41443309123094174 -8.051461482399606e-06 0.004192502437756357 0.45817173641867065 -0.055194674464029383
75925000.0 0.7738994410099945 -0.6268545580000341 0.01933985729744808 -0.43250277732556164 0.0006610588583428825 0.001256476633684608 0.4728647248667551 -0.08202501220169395
76924000.0 0.7672593726611019 -0.6360480005736142 0.0070538260170023535 -0.45974501201009443 0.0009426641752678437 0.0020881033564616944 0.46918102289027663 -0.08198938470700776
77923000.0 0.7619159185413786 -0.6434402653722002 -0.004003310435662577 -0.4848674147646094 -0.004506034471414292 -0.005320710897438998 0.46127272083106374 -0.08480606621644211
78922000.0 0.754678808756019 -0.653115644970013 -0.021710062548404463 -0.5112388001389901 -0.00023119146956178632 -0.0016170839826400057 0.46025081922245525 -0.10473099189379836
79921000.0 0.7474500989586377 -0.6585289860657028 -0.038582758665515644 -0.5362457171213291 0.002975898383601027 0.00040517470132868947 0.4565316564291054 -0.11676410571360193
80920000.0 0.7424032221816023 -0.6675601903644155 -0.048692157808052305 -0.5636556758136971 -0.0008590966084592031 -0.001315055284420733 0.47318577164559367 -0.12382617896537103
81919000.0 0.7362341842197299 -0.6737272787859407 -0.06639719547009218 -0.5924163712210411 0.0015907647302901748 -0.002531253555743641 0.4721547987134774 -0.12413437044523849
82918000.0 0.7278462257481955 -0.6805039142121864 -0.08208221978389482 -0.628197456855206 7.302760072210784e-05 -0.0013700057605313281 0.4797730652635602 -0.1431125180674548
83917000.0 0.717958676180871 -0.6891530958078992 -0.10533641407229857 -0.6539264813902166 0.0023094360203990386 0.00177260548633458 0.47832177965820194 -0.14158751694132696
84916000.0 0.7127849996100896 -0.696457800884479 -0.12012746148275959 -0.6891031446450583 0.004299748560667175 -7.397571161912792e-05 0.46593364332128745 -0.15920769650475844
85915000.0 0.7073014917662503 -0.7023084684597196 -0.14079878458849646 -0.7204158967592276 -0.00038045180395747375 -0.002377708102361285 0.46257212339206505 -0.17124331411636526
86914000.0 0.6991458429907871 -0.7136818093616383 -0.15587195113620195 -0.7601864108927452 -4.663933018392921e-05 -0.004631698938394096 0.4633510667759361 -0.17629073827799915
87913000.0 0.6918566599871775 -0.7181436445665916 -0.16936563661605583 -0.7852229957729449 0.0008158821102559503 0.002965163667298029 0.45516298418096673 -0.17540355234851157
88912000.0 0.6845703223320732 -0.7253355412842813 -0.18718104999177232 -0.8236454316148288 -0.0011567636729703614 -0.005743267908943142 0.4607541417827913 -0.19893084012792847
89911000.0 0.677102033069615 -0.7339931334985321 -0.20649149945719433 -0.8581060194107251 0.004785647743922632 0.006301666352948894 0.4700698006934025 -0.2101605360815034
90910000.0 0.6699226203439059 -0.7379292690607648 -0.2202410803186097 -0.896853247794806 0.0031643838485462803 -0.0003014347975672885 0.4712285405968457 -0.2143789916968706
91909000.0 0.6615601503794117 -0.7429509992724755 -0.2396830313099887 -0.930036134043756 0.0012458640430732563 -0.00016791929810822695 0.4691266358336769 -0.22068065988748686
92908000.0 0.6535088079108925 -0.7537618391931792 -0.2623888936555638 -0.9606865638818987 -0.00291755402596395 0.001270754263648778 0.47027667727176464 -0.22850270889253915
93907000.0 0.6483497292202918 -0.7580715467163864 -0.2774102768707288 -0.9957864810603253 0.00011157518456349295 -0.0008462346965821199 0.4707186981160556 -0.24742697468329047
94906000.0 0.632752206541004 -0.7669077581968321 -0.29677908012991006 -1.0262897160053026 -0.0017866349456448685 0.003697414656581077 0.4617697835332332 -0.24173417082545637
95905000.0 0.6278973826839692 -0.7738931657888066 -0.3244930406498195 -1.064241042243173 -0.000979532004691361 0.0005599378611259679 0.46129161821548975 -0.26328247978955005
96904000.0 0.6201820803439099 -0.7807174976893372 -0.33832149891981717 -1.1017352380370922 0.0021181061613173686 0.0031162761533422225 0.45160150524625425 -0.27835276209212906
97903000.0 0.6105974276918206 -0.7868108935761705 -0.3635259973989685 -1.1350377439358943 -0.0005235739175587524 0.0010656390479971071 0.4494021923588123 -0.2777281508833648
98902000.0 0.6061491860915751 -0.7926296612577157 -0.38400988280922527 -1.1774021764906182 0.001844554882858233 0.0017805005471001267 0.458337319181496 -0.29315468303528674
99901000.0 0.5966850454003161 -0.7980082735257966 -0.4097159169067748 -1.213953521277582 -0.0018340914795259072 0.0023234139678564533 0.4630672882124335 -0.3116818100957819
100900000.0 0.5887040598290729 -0.8022943122974059 -0.44623901045791947 -1.2429506487956539 0.0024303677225305264 0.0022747037839423805 0.4680143113534538 -0.32223012436510723
101899000.0 0.5761134827191723 -0.8103491127589306 -0.4761610117447167 -1.2803487726546419 0.0025777182974332383 -0.0002699729773567852 0.4496751022761056 -0.32269669548660385
102898000.0 0.566771344737283 -0.8150700867500242 -0.5130501365875305 -1.3171510652224052 0.0005929357191005361 0.00267677076684178 0.44971804894550116 -0.33691424461077907
103897000.0 0.5583227491270175 -0.8229797291964424 -0.5554895802423084 -1.3531113000201516 -0.0024654821157313943 -0.0015640635794009932 0.45951353865528527 -0.3350789529909297
104896000.0 0.5527181193693544 -0.8338506040633442 -0.5994289525913417 -1.3917483010297682 0.0006674521421397397 0.00187107851162854 0.4305751503939881 -0.3323663014449488
105895000.0 0.5385531491889871 -0.8352036902472502 -0.6476501807923438 -1.4348579900184004 0.0003069528164236522 -9.032103577012213e-05 0.4416613311405098 -0.34800160473795655
106894000.0 0.5294212153537533 -0.8420940959384259 -0.7053972659573873 -1.4696514042115032 0.0007889746693947907 0.002110363944525536 0.4278347634842045 -0.3607543123393188
107893000.0 0.523167727092994 -0.8492151102390668 -0.7583143925975009 -1.5111937958195445 0.0019385195221778648 -0.00010172651068576956 0.438086319630683 -0.3790604058424502
108892000.0 0.5125547776855013 -0.8513238031541032 -0.8173036763148034 -1.5534906582217698 -0.0009070770044248576 -0.0007684630734242388 0.427392441428386 -0.37378335208899244
109891000.0 0.5006434766599581 -0.859765087796562 -0.8787547468526825 -1.5878313061165779 -0.0014143247621523428 -0.001044514930905116 0.4478230385562559 -0.377541819277338
110890000.0 0.48781447474687545 -0.860612294449382 -0.940454682144715 -1.5929797846903404 0.0014566745375984742 0.0024373173584932 0.4282223963067438 -0.37657350790424715
111889000.0 0.48155714750854983 -0.8656911920543197 -1.0057747759071936 -1.6573693553788291 0.0012198084472791841 0.0019582234630772725 0.41950264511765767 -0.39830955805665585
