! Created with skrf 1.9.0 (http://scikit-rf.org).
# Hz S RI R 50.0 
!freq ReS11 ImS11 ReS21 ImS21 ReS12 ImS12 ReS22 ImS22
1000000.0 0.9866523062730637 0.007099793383118099 -0.004416317726059899 -0.04998792591323018 -0.0057044121739706945 4.783133956285723e-05 0.3031540837076986 0.3144477885696538
1999000.0 0.9965700469000125 -0.01267571820122974 0.01439811383340186 -0.022396864050362092 -0.003210702821507971 0.0008688009998162713 0.2658645452378939 -0.060001510008147844
2998000.0 0.9977133680651882 -0.019607568113064303 0.0075547083978508315 -0.013245824076252943 -0.005072212599497625 -0.0020948452046147823 0.19303375268155737 -0.14205289172584745
3997000.0 0.9987345847358767 -0.029286948962732248 0.01492338344898748 -0.0025622486817025655 -0.00785967802573062 -0.008746887855891786 0.09692559555124874 -0.23610593573674876
4996000.0 0.9979906341883535 -0.036766867959724496 0.015237470336575609 -0.0014150708612569228 0.0013633144410025936 0.0006787931128685572 -0.038430167837423916 -0.2113075670600261
5995000.0 1.0005987183292775 -0.05002578322992012 0.009216442163084771 0.0009266469946502347 -0.0006217570449336731 -0.004751790041093603 -0.11557221776969163 -0.10372620116824374
6994000.0 0.9959999299569434 -0.05572434484149524 0.009817320081060059 0.004444170660777432 0.0022377553636920545 -0.004234311386656329 -0.14952665673281873 -0.030577980126159282
7993000.0 0.999998574459394 -0.06756540486772672 0.004817627930976929 0.008929524661552314 -0.0006494495435290863 -0.0014171307028379074 -0.15234492615667375 0.04517757182018113
8992000.0 0.9976280565024009 -0.0708073138883439 0.0006459431047446712 0.005929056083645508 -0.0014926500446327308 0.0017426396777182333 -0.14393747320273165 0.062335275426141375
9991000.0 0.9976777059658735 -0.08143071529074317 0.0016321270171185875 0.0007045319329999047 0.0015631741297101476 -0.0024804836013174775 -0.1488283671938621 0.08706441647084619
10990000.0 0.9939761746282049 -0.09442029739139975 0.0026770740158287235 0.00024382127742195037 -0.001344659958859115 -0.0021713709037244197 -0.1319342413509531 0.12069101626943265
11989000.0 0.9931830508896271 -0.10031307205729682 0.0021302380441057607 -0.0024436992566075847 -0.0017874456327202051 0.0023299542976138966 -0.14039238404519808 0.13229069866814372
12988000.0 0.9935705879869985 -0.10826943510137259 0.002410787781489679 -0.00033968225509889796 0.0004994477990935346 0.003255400337897111 -0.12208474600721472 0.17670003733263293
13987000.0 0.990401183703394 -0.11740286746462428 0.004147407313317758 -0.005136205721253617 -0.004271511013621319 -0.0010953015614486162 -0.08616981154189793 0.19098215712959626
14986000.0 0.9890758504674215 -0.1283925711875369 -0.002665073056471925 -0.005151982777666031 -0.0013629594484475364 -0.00013100563313303597 -0.09520233021098931 0.19814148963427056
15985000.0 0.9920021107182163 -0.13489052427655376 0.00024104072388161864 -0.008373869078258067 0.0033520727846805937 0.0010899492767113934 -0.05544214357130151 0.21394686865102558
16984000.0 0.9883135865447442 -0.14574397421528074 -0.003174653527016835 -0.002600817040508534 0.0001467899282489168 -0.001062014676859354 -0.0464061280753023 0.21759474168864615
17983000.0 0.9904995709116385 -0.14985924744526072 -0.0033854993129516903 -0.004644338413133095 6.242534991819965e-05 -0.003022702010368022 -0.04653550947057941 0.23548206278133718
18982000.0 0.9843886954037695 -0.16234536813307832 -0.005831584287776857 -0.006716377610219224 0.0008569287374790121 -0.0052718818000215655 -0.022107126451316395 0.24107170855458238
19981000.0 0.9845833637209543 -0.16748190695394824 -0.006066036500163857 -0.0009678361906029479 0.0014478429490419353 0.0006539262763840828 -0.005428283244560147 0.24398361744428032
20980000.0 0.9840095804124633 -0.17805400868693697 -0.007220060904879173 -0.0058294699837236775 0.0035579292784602107 0.0013092280800439638 0.004698854007631406 0.26941805703950106
21979000.0 0.980696582693594 -0.18609442592970538 -0.008400846071398486 -0.004496767237201476 0.0009428287462609305 0.0032405410604132204 -4.415546943801912e-06 0.2524256089599257
22978000.0 0.9789347635968202 -0.19498167024014762 -0.006638870849514179 -0.004294562788686512 0.0023035384614598117 -0.0010050149888809433 0.03161520675752383 0.2579792434415587
23977000.0 0.9817554562213766 -0.2002859618384588 -0.00983797446586909 -0.0066551632578102675 9.8007256442341e-05 0.004621959741431079 0.03788151040264189 0.25555624884352673
24976000.0 0.9755630476179294 -0.21339244431895305 -0.005356924602805055 -0.007663381486782575 -0.0009791267077864673 0.003956567474273658 0.0647799336803129 0.2557973506294861
25975000.0 0.9748873432453063 -0.21690362127246354 -0.006430657317265969 -0.0009900603332800746 -0.017552834879613597 0.020604391800512344 0.08071323697277664 0.26718313459194315
26974000.0 0.9723079905173095 -0.22742587605897283 -0.0063375647735901715 -0.00015810714453235673 0.0007821137971490914 0.0008312061786061445 0.08990633225069868 0.2684559781699543
27973000.0 0.9695207943165038 -0.2352513049589639 -0.0059598483999677015 -0.0032404379966915636 0.0020884103555698225 0.000865006413970283 0.10320696184138026 0.2617330997265571
28972000.0 0.9674258267194193 -0.24466037336121255 -0.0015388252798335196 -0.0028982791851623426 -0.0010762469675540177 -0.0035051266238227087 0.11965848876006144 0.2582285133591143
29971000.0 0.9670763797433202 -0.2546692039657596 4.19775754547708e-05 -0.0018583921584271923 -0.0002938664157398459 0.0006594251340533026 0.14631269754286821 0.27114700911263834
30970000.0 0.963968207281834 -0.25958331508563315 0.0006353577841291531 -0.0017178702884302682 -0.001470199144893486 -0.0027550995542002586 0.1732467283747424 0.2455257679296579
31969000.0 0.9617661857855413 -0.26695236598414235 0.004943992968399336 -0.006103159598438986 -0.0015400370468315497 0.00010924600976859173 0.14803584356931332 0.2536235581461663
32968000.0 0.9605712213624492 -0.27622617448614933 0.007818765215905167 -0.003310072471933421 -0.0035721210657585632 -0.0006513073423422349 0.16083166861862086 0.2512673438995806
33967000.0 0.9592042595461949 -0.28507348183483466 0.009943044414262843 -0.010866668523889763 0.0014834501909049363 0.0014963829197114315 0.19164310167093976 0.2549316490982276
34966000.0 0.954572308683912 -0.2941481847196513 0.011668641622760255 -0.01401459520391463 -0.0022921409828062273 0.0011170833167853246 0.19858573944214275 0.24982147283853998
35965000.0 0.9524461234586805 -0.30288649904631293 0.016615480691247853 -0.01581761631532292 -0.0028840613691914533 -0.002777449139199046 0.22281383014898956 0.2495238029995079
36964000.0 0.9495630311685644 -0.31191111818427997 0.015534642954532498 -0.016175105059170216 -0.0028153296927735066 -0.00032501846812732764 0.213127017223669 0.24555810402701417
37963000.0 0.9469711319927604 -0.3207858771086256 0.02239359367673105 -0.019673380332100306 -0.0003130256123688809 -0.0028454520985119547 0.23112168800460353 0.23191843868675618
38962000.0 0.9428720398370269 -0.3300820738461327 0.0256136716004901 -0.023157174615057143 -0.0016370372413452474 0.0021238694086380978 0.244257970000768 0.2289729838564015
39961000.0 0.9405896775310346 -0.33657153326457095 0.02743535556861528 -0.026270082323313158 0.0028449748620584443 -0.0005244235939005183 0.2568798245018164 0.22665956443290894
40960000.0 0.937755425963948 -0.344689780138858 0.024673251641232644 -0.024191480050803224 -0.0017863972827036883 0.0007049519669579477 0.27606895235470846 0.22405623577748
41959000.0 0.9350028872219448 -0.3537682997197845 0.03101379596423097 -0.02923078476382478 -0.00022224518688503843 -0.0007519622050478564 0.2797668317668036 0.20688044148532989
42958000.0 0.9285780116988515 -0.3636163029890267 0.033269323958576034 -0.04199532143488509 -0.001228059814010824 0.0008812595669198155 0.2860832443799283 0.21059407828819451
43957000.0 0.9284736733106742 -0.37026311477918405 0.03580414310209824 -0.04895632021102557 0.0046590532222787395 0.0020985649474043197 0.2946244634274642 0.2006343176430165
44956000.0 0.9239152426858183 -0.3779072051189359 0.035254967835760466 -0.052238203507677175 0.0009605989963557624 0.0025057277535080105 0.3117875191240278 0.19033239346859476
45955000.0 0.9200427200153132 -0.3872623016132918 0.035452283765304154 -0.0593394980743379 0.000741652052010479 -0.0023695425219211926 0.3227046854864333 0.17875808595725717
46954000.0 0.9157290693505842 -0.3953405486556027 0.036075795677284514 -0.06473143679504434 -0.00071038975683774 0.00040596869336442267 0.32779079971198616 0.18214311994741003
47953000.0 0.9147218583482712 -0.4028944410511085 0.037637526581592216 -0.07307846121395783 0.0015119369041771136 -0.00043526888146446413 0.3409716141229137 0.16319422076904203
48952000.0 0.9065318060306169 -0.4148823987600196 0.038089623884847636 -0.07812028961704408 -0.0003963503638379981 -0.0024304098400793404 0.34539059457342614 0.16349613934651533
49951000.0 0.9042329771220139 -0.4197152112683784 0.039845253451087234 -0.08668410347710025 0.0017793799198164008 -0.0015917995935274577 0.35730635791006177 0.14707978182621437
50950000.0 0.9027241679306054 -0.4293518465769025 0.03788401296614567 -0.09758204020920504 0.00032107363702280534 -0.0006270919100968756 0.36191865969070947 0.1462893191749843
51949000.0 0.8978003896836776 -0.43750782846005926 0.043288958272845145 -0.10657268680530614 -0.0008369661496019726 -0.00012523293757513816 0.3694884524940281 0.14312632196269262
52948000.0 0.8970191457119833 -0.44402757084233396 0.04327396121616519 -0.11523757408029654 -0.0034213872832869526 0.003065526667468793 0.3799281197224818 0.13767610238941091
53947000.0 0.8890214980334702 -0.4512990336133288 0.04253385634410836 -0.1242864436627694 0.00173773755249451 0.0028312136706102544 0.3733158332727216 0.1254986867855339
54946000.0 0.8855806985285077 -0.4589651035424808 0.04470359228916594 -0.1325202586861874 0.0020866752632649637 0.00020631138646980804 0.3851544222803159 0.11332206954590132
55945000.0 0.8808790541923729 -0.46936221361881125 0.0475883780474831 -0.14340251308613744 -0.004705135775558766 0.0011196085534047203 0.39053650623216835 0.09787696525016269
56944000.0 0.8780505579011697 -0.4778223650640944 0.04822720325269151 -0.15305483610452686 -3.0081887780277674e-06 0.0019412649012705827 0.40582002734733874 0.09765825718701546
57943000.0 0.870796844092798 -0.48701979162968645 0.05227349803906719 -0.16494389855296143 -0.002018791929658826 -0.003472792174136597 0.4117288785207745 0.0811486097748156
58942000.0 0.8676627553580167 -0.4911554231946688 0.051934000337636475 -0.1759111143652395 0.0011330438765620682 -0.0012384022648094604 0.4191928577157324 0.08967394565735198
59941000.0 0.8647734952787604 -0.5013044710237041 0.05247533119656626 -0.188002043292249 0.0016215986988177096 0.0018140498187736497 0.4194816363439189 0.08128976595167559
60940000.0 0.8570353753842656 -0.5083733326847024 0.05175949033368095 -0.19008742489980127 0.002296139218116199 0.0008803165805054057 0.41382760939261604 0.0759114909388058
61939000.0 0.8539614153948046 -0.5148684295807057 0.05203757258389512 -0.20302232098361955 -0.00019626767121791209 0.0015771194493632047 0.41962213314834407 0.062078404245546226
62938000.0 0.8467321701797967 -0.5270757935625688 0.052828525116328545 -0.21894510386485794 0.001501375147375272 -0.0011714380986393945 0.4453389017551929 0.04688686310725673
63937000.0 0.8446009890701837 -0.5325242232675125 0.05426655804598391 -0.23730491689428151 -0.0015910021090374705 0.0033583141397937034 0.4443185286537405 0.030983100305813246
64936000.0 0.8375552396733326 -0.540689268119635 0.0563222362334272 -0.2545217832149462 -0.0008192678365917008 -0.003381744552642372 0.4381232224230935 0.03579705010255074
65935000.0 0.8358711663601015 -0.5483274564307385 0.05686252936484121 -0.2675113392362884 -0.0017473711464777223 -0.0013186028834175703 0.4422957019822515 0.02002993679987567
66934000.0 0.8288593984179446 -0.5558703370969197 0.05441303747378395 -0.28384761742638703 0.0003195267435745209 -0.002692161924211964 0.4418751782280497 0.002539379794221013
67933000.0 0.8266071594788742 -0.561924346754318 0.05764801262304009 -0.2931161671422677 -0.002688425958677587 0.0012650776868273737 0.44911071183487966 0.004607755983951833
68932000.0 0.8082639896604641 -0.5618686548991225 0.04768536025934486 -0.30369004169249025 -0.0037670529945061262 -0.0011679721787296248 0.45509009991889393 -0.022397735423501004
69931000.0 0.8144793666934603 -0.5786363377810106 0.05405247952585782 -0.3297201555887458 -0.0036452741652345717 0.0016837357721071907 0.4562529127682374 -0.030146322056582225
70930000.0 0.807120981690064 -0.5866718787573404 0.049848623009525625 -0.3420333002234493 -0.004308115061083556 -3.420120762655018e-06 0.453910096243462 -0.02969276173583448
71929000.0 0.804225354057201 -0.5936778156252511 0.048576943048066305 -0.3604250526066618 0.00245521284945041 0.002487283321878229 0.4590765473642004 -0.04681305762728023
72928000.0 0.7961393568734271 -0.6055687724768887 0.038801833328156246 -0.3782223298718149 -0.0007393390415771462 -0.0004389978170808904 0.47307058869509516 -0.05250927396828227
73927000.0 0.7915358352423553 -0.6082445978421731 0.030298025117080244 -0.40078438222671103 -0.00042172161146504283 -0.004618587106366981 0.46224690558745024 -0.0715216944740325
74926000.0 0.7864269767825002 -0.6192412323688863 0.026933406303146726 -0.4179124411658855 0.0016278497505663849 0.004029448655508711 0.4619393703273951 -0.06906031613408467
75925000.0 0.7819538690221813 -0.6233226333041672 0.017117889992716396 -0.4386695909425307 0.002297956199277658 -0.0011461067190717356 0.47383619615340994 -0.09564005217411363
76924000.0 0.773996529500626 -0.6325359142230474 0.0044007961314021125 -0.4604691627117063 0.003186640569561496 0.0028146261730867183 0.45906056848541354 -0.10158164369534954
77923000.0 0.7681000100539258 -0.6392479353616711 -0.004900409762726907 -0.4845472416412226 0.0038747371470628142 0.0023749664851680594 0.46919434921997577 -0.09896862325526927
78922000.0 0.7613218233686564 -0.6486235324567129 -0.02169052235306628 -0.5179572770159824 0.0037859278380880036 0.004910886143782025 0.46671169402364443 -0.11289068591597856
79921000.0 0.7543658094389359 -0.654266674938086 -0.03995835350972025 -0.5387361542980313 -0.002862482316725535 0.0017877025560572469 0.45363973538480656 -0.12263062065407088
80920000.0 0.7494319431287304 -0.6626960509708016 -0.05436063275716272 -0.5665370774514594 -0.004741863278759966 0.0005806269183423923 0.47305227871174904 -0.13899406309127635
81919000.0 0.7426151315218549 -0.6685083208605395 -0.07308933616645444 -0.5950477088879067 0.002601988819758003 -0.003081057571493002 0.46218707194744124 -0.1428922753358303
82918000.0 0.7355979676672175 -0.6741872014491667 -0.08641859146375042 -0.627495296546055 0.003928397801482089 0.0008179005947177735 0.47480690401380143 -0.15153910304218113
83917000.0 0.7273401961394453 -0.6845288085185554 -0.10964297766549085 -0.658547620738732 -0.0005475866423348545 -0.0006442034878277516 0.47122142173410697 -0.16160927285241683
84916000.0 0.7235585748460548 -0.6894001804523597 -0.11999761196796571 -0.6897113544541553 0.0005679863915198174 0.0025131701663127187 0.4658458402991303 -0.18504617093308676
85915000.0 0.7150928728952227 -0.698264564031755 -0.14859176184851233 -0.7236655536888259 0.0011223011147601472 -0.002765900426300291 0.47489028360234875 -0.1829046763483119
86914000.0 0.7080707659358764 -0.7058476023923164 -0.15860208951046903 -0.7606662736495639 0.00023547453284234065 -0.000283462878182808 0.4677298478201734 -0.19037362559744833
87913000.0 0.700262233124381 -0.7126868655199528 -0.18148072304365798 -0.7879072753240391 0.002428272710655884 0.004150823498016258 0.46370412526639376 -0.19559379281799455
88912000.0 0.6946089455686819 -0.7199087186504715 -0.20069775005795515 -0.8266223186236109 -0.0008471586780134451 -0.002670677475242286 0.46747165979889943 -0.2256149155460738
89911000.0 0.6851746413553415 -0.7280328223703786 -0.2168483187662399 -0.8602401199666609 -0.0021531088889799516 -0.002372355302288323 0.464441301979513 -0.21959202326262853
90910000.0 0.6792210660065242 -0.733744858756067 -0.2345718134884351 -0.897420112305127 0.004092203218748726 0.0024024523493427646 0.4605994554749687 -0.22859895151151147
91909000.0 0.6713097391011408 -0.7376028677492774 -0.25125244104117767 -0.9334593283881465 0.0016678248518970933 0.0003823642424121787 0.4647453339621045 -0.24328240559779893
92908000.0 0.6625167068143702 -0.7473777001575855 -0.27401285735845315 -0.9676098254292667 0.0017133109075833331 -0.0007635955623626783 0.46364704115099803 -0.25094685265395283
93907000.0 0.6556823584372545 -0.7524075350434496 -0.29168273424534047 -1.0016311362059198 0.0014457179854868122 -8.310086716727894e-05 0.45490136902238526 -0.2608913892054693
94906000.0 0.6442338525718991 -0.7598118964779168 -0.31305954058500157 -1.033762277919207 -0.0005950434024478403 -0.0012667092545853992 0.45139695328714635 -0.2602051826464681
95905000.0 0.6366418989637319 -0.7676969668702968 -0.3374488732193589 -1.0672438795383112 0.00043988933733379816 -0.0008651870746936942 0.4663432047904574 -0.28003063514509535
96904000.0 0.6291628430419938 -0.7776031905132048 -0.36113782804687766 -1.109493598311673 0.005421177042076236 0.0024761679569378072 0.4425900328352504 -0.2915463190779331
97903000.0 0.6202794207076896 -0.780531883881455 -0.37800462051343237 -1.1429997196392905 0.0022730897085236714 -0.0007409554800072471 0.4411619232559139 -0.2936125220884544
98902000.0 0.6158237251478091 -0.7879718408865101 -0.3982458485588154 -1.1813861686195877 0.0010654349348648883 0.002018755731724235 0.44845020652296097 -0.3001805650846065
99901000.0 0.6046749701478562 -0.7934462064378965 -0.43439155358592496 -1.2156005159172178 0.002923796822430287 -0.0019964554407365465 0.46053829925911743 -0.3299728645154319
100900000.0 0.5955517128812441 -0.7973019089336337 -0.468337976695717 -1.2442448395253896 0.0007105476737426527 0.0008828519087887303 0.456191307484897 -0.3346278012781068
101899000.0 0.5884275349236993 -0.8054680925428509 -0.49139867199234477 -1.2850149059914286 -0.005142907835131108 0.00452085503574789 0.44898420667216027 -0.33872050609753585
102898000.0 0.5782040201540221 -0.8128968656691494 -0.5346728436495517 -1.3282938942371534 -5.128918051944319e-05 -0.0013234327093077473 0.4453453888222164 -0.35010101705049196
103897000.0 0.5702786888009531 -0.8194068386488276 -0.5718452344367443 -1.3643532744740217 -0.00010146098020300739 0.0006722944931968468 0.4517371405738013 -0.34996821442411835
104896000.0 0.5632188677195384 -0.8266093435582017 -0.6217855588331533 -1.3925937973621536 0.00037800728727341624 -0.004165154533735784 0.4424231480558585 -0.3455566513111041
105895000.0 0.5521547497933323 -0.8308113143293504 -0.6684477721218156 -1.4439631584529369 0.0004626430347942883 -0.0027435957772748397 0.42738448280619085 -0.373660271694068
106894000.0 0.5448185067478065 -0.8366137535123902 -0.7236480290771612 -1.479992686376774 -0.00011277042164103667 -7.068043449684509e-05 0.41805193310368777 -0.38236453151445643
107893000.0 0.5374043779071535 -0.8415386195393681 -0.7768312415664407 -1.5202055298502706 -0.0012759283847390418 0.0013934290496531282 0.42718747550836283 -0.40462010462505676
108892000.0 0.5255681036863433 -0.8462193185430955 -0.8389256375827567 -1.5468111647652292 -0.001264846546742211 0.0014054012776407681 0.4162872935298888 -0.40349114298774913
109891000.0 0.5149282772516011 -0.8540624257433985 -0.8992864305635819 -1.5841716591342658 -0.0010206656257136107 -0.0002923351503183354 0.4452141301175266 -0.4019865992613362
110890000.0 0.5023907545587711 -0.8701996234392823 -0.9787539841067275 -1.6064710744657706 0.0016153005861979017 -0.00015781690507900314 0.42283593255142393 -0.40106486255014623
111889000.0 0.4944927558402952 -0.8598842587804886 -1.0273085816201075 -1.6543806885447143 -0.001322798555001195 -0.0015309771872522302 0.40552982260608167 -0.414679666001457
