! Created with skrf 1.9.0 (http://scikit-rf.org).
# Hz S RI R 50.0 
!freq ReS11 ImS11 ReS21 ImS21 ReS12 ImS12 ReS22 ImS22
1000000.0 0.7647200718036556 -0.6214963409261649 -0.10630403973455566 -0.25723835199502043 0.002911870081427229 0.00033458615522759293 0.34073704088288104 0.33991087498839734
1999000.0 0.31971011118908244 -0.9228905395161794 -0.19633708900490104 -0.1913518249954297 0.007178485595134776 0.002266592413832386 0.3048697679947761 -0.03893030589979191
2998000.0 -0.08105901701203651 -0.9627913017858711 -0.21596547733145494 -0.13276108274263518 0.0013551143019748793 0.002300028593449033 0.1953486969424801 -0.12871611182705553
3997000.0 -0.3522867843803144 -0.897285531430758 -0.19642556257973715 -0.0832919111203109 0.0015947563220853694 0.0019881635067490666 0.0824112957426302 -0.21422478819655938
4996000.0 -0.5295444854254896 -0.8099225812856766 -0.15036118331044118 -0.06058120219584544 0.0005322529007359214 0.0016118569979555251 -0.057017033005089854 -0.20264027970762993
5995000.0 -0.6442175663935931 -0.7140025397118113 -0.10519813317051484 -0.0504979921905676 -0.0004591331153115304 0.0037677465265653592 -0.13831636743867642 -0.12352119406631822
6994000.0 -0.7290149774369149 -0.6388767375281827 -0.06631828270206264 -0.04753548607282037 -0.0017088347396030852 -0.00042650480216482395 -0.15082373848906314 -0.03817560869812948
7993000.0 -0.7859379802706126 -0.563913135896966 -0.03210986554566952 -0.05336470751282186 -0.005250122594012183 -0.0017709361240718959 -0.17372430513127893 0.02186425682830986
8992000.0 -0.8312133564533531 -0.5007160829078201 -0.009224099055075485 -0.055387523729022725 -0.0026580493812484907 -0.0023543862495020895 -0.1747324510798194 0.07109414135214313
9991000.0 -0.862016455651293 -0.4455717095848685 0.003233769845397115 -0.053499654077597554 0.002606436053293903 0.0007576064148921279 -0.1628011842505403 0.07790636663528613
10990000.0 -0.8898950611975623 -0.39644318240724824 0.007671708175674455 -0.04802385066605644 -0.0001920345955866348 0.0010543428072533514 -0.1432979693520127 0.09287939866531021
11989000.0 -0.9052370828506981 -0.35804807207546635 0.003915811206029851 -0.044710846060761714 0.0008014415083117299 0.0016046992208136762 -0.1391722933518504 0.13289282382125261
12988000.0 -0.9172132946197615 -0.3218135436767113 -0.006480453096130663 -0.029507227558150065 0.0007594388894176602 0.0014243467937862153 -0.13217581486622562 0.15439837611014326
13987000.0 -0.9263205292135568 -0.28368161310792805 -0.016267162695720462 -0.01924837437917708 -0.003176166932657441 0.002079121447918188 -0.10852809664916883 0.18838739369105534
14986000.0 -0.9410406566571193 -0.2527019014220861 -0.026855076882889843 -0.005217253294644194 0.0016933069243391225 -0.00036420777625029036 -0.08120960371104052 0.20787763160055425
15985000.0 -0.9471008501525026 -0.22310888807577103 -0.04367335137970913 0.004799434122566782 0.0011847564000351937 0.0011280332608463494 -0.07500200687310421 0.2110760801139173
16984000.0 -0.9512995726182739 -0.19783316413657623 -0.04861065848413079 0.02116423339124767 0.004121065683491627 0.002939797947163663 -0.05480470653428081 0.20473852608068507
17983000.0 -0.9590247389145228 -0.17313222526996955 -0.05538816494449272 0.03019001464874882 -0.0018671176465383387 -0.0004056595692525145 -0.05231543425453688 0.22513797296628846
18982000.0 -0.9635327919896456 -0.15088217869794474 -0.057106133619264685 0.03516600231059379 -0.0019334844462434034 -0.001190927380714223 -0.029490629956900802 0.2287112962417579
19981000.0 -0.9654296478137975 -0.13019004629819794 -0.053481519461232425 0.043470166688176125 0.0010417745598382013 0.005061860106509654 -0.02604990694898986 0.2382771335758196
20980000.0 -0.9661737334423225 -0.10802057462429973 -0.05242586202084857 0.04883336613536843 -0.00219733329064721 0.0021663988856195212 0.003777693853402218 0.2543268060601203
21979000.0 -0.9713080152248138 -0.08676127016545435 -0.048829359745035834 0.053919472112121745 0.0027479226425036426 -0.0009062774339416146 0.010910730752409229 0.23717145772434006
22978000.0 -0.9716812827152086 -0.06888047752656049 -0.04232956260313392 0.051587939402416204 -0.0002496444994023263 0.0004050200040679003 0.03399336003008001 0.2488777844897076
23977000.0 -0.9709401844476928 -0.05502652613167822 -0.037387792444150934 0.05334963455210438 0.003793676221638812 0.002800200398430845 0.04505452905063267 0.2512936198559679
24976000.0 -0.9721395157524422 -0.03625365131910413 -0.029016888334597205 0.05231721181960595 -0.002377843740010809 0.0009156212552946819 0.06865531670804755 0.2541240259782763
25975000.0 -0.9703624372935549 -0.013162711450388836 -0.025816703366279902 0.04048169322789638 -0.029578615737262046 -0.002940047685037445 0.08363618026406325 0.2618626843745346
26974000.0 -0.9743458519551595 -0.005424332162965683 -0.02068650726254898 0.030811303485028155 0.0006032048668980473 -0.0014400282226121504 0.09354540630721303 0.27044363565081064
27973000.0 -0.970696614724677 0.00602490231387651 -0.021436897932369914 0.014654771199754519 0.0003199400991826929 3.926360580650566e-05 0.10437066464928552 0.24991285303814686
28972000.0 -0.9772645533722661 0.021604986685143764 -0.0187041323965142 -0.0009785077093226898 -0.0014103549746736378 0.0019472995946215681 0.11524201434025481 0.25377043768689944
29971000.0 -0.9767791763588749 0.0343460337511923 -0.01698570140772213 -0.014969257600085132 0.0010625126358487131 0.0015464460854364823 0.14951766828271973 0.2705422450622057
30970000.0 -0.9777424537690111 0.05154851872598447 -0.018942955429284918 -0.028838204059443873 -0.0006055030525385238 -0.005931159626233856 0.17000706651892802 0.25011831711937615
31969000.0 -0.9754493747578675 0.06063361011827929 -0.03164601461191708 -0.04853438004881005 0.0007563897044965373 0.00200703494618321 0.14873783198932192 0.25094717826689394
32968000.0 -0.972590493257075 0.07318325752492394 -0.03918446789997495 -0.06546276881530319 -0.0015558705130992948 -0.0002296179426637578 0.1650565200499643 0.24190202578522513
33967000.0 -0.9722607898778547 0.08459944814294117 -0.04439773482016033 -0.08185920630991192 -0.004007015856767202 -0.00021438837323233662 0.1951390740029282 0.2521687400418214
34966000.0 -0.9693098158332576 0.09855809402223643 -0.05621488149841876 -0.09209853758105357 -0.0007042005514251326 0.0007098734199394557 0.19364198276235906 0.25358112174383607
35965000.0 -0.9703829883443803 0.11248219413680687 -0.06788352229707434 -0.10851418567336076 -0.004179188487485904 0.0030817867291338136 0.21325196821098566 0.24322269061528934
36964000.0 -0.9682235281829813 0.12137564333464752 -0.07731801484863213 -0.12137186170260678 -0.003068502493014498 0.00199834785824786 0.22097067709985255 0.2443802650113808
37963000.0 -0.9644995028067662 0.13689945045726368 -0.0944433858746665 -0.1317199550401489 5.428099141582378e-05 -0.0006051834369875594 0.23063886001262116 0.2288467708775427
38962000.0 -0.9633839162958634 0.1429097091013942 -0.11194351757929821 -0.14330232729782638 -0.0009564155635307889 -0.001154922127243687 0.2448943550304457 0.22360069541533636
39961000.0 -0.9631478851739588 0.15344700379913115 -0.1266407173131145 -0.15463060108665372 0.002391001877868512 0.0023200696159014823 0.25765856463268777 0.2268013699637263
40960000.0 -0.96133308728564 0.16471700663519828 -0.15060273026866614 -0.16178837955991582 -0.002375309840898313 0.0012922256382813459 0.25918655507186605 0.22454981756834838
41959000.0 -0.9567670493759652 0.17793754504434808 -0.17291498713700906 -0.1698893308492561 -0.0009969573666045565 0.0005231159921068254 0.2765255165264298 0.21112855912877157
42958000.0 -0.9582930612108634 0.1875813784044469 -0.19907051765842823 -0.1791296272429701 0.00244982403206294 0.002240225557555953 0.28316198321612357 0.19030453018546817
43957000.0 -0.9551479067619363 0.1987444364033653 -0.22985047211328183 -0.18308450358591644 4.127608163084179e-05 -0.00335807400163893 0.29243427754199136 0.19724248483654214
44956000.0 -0.9537075187214246 0.20771580523451677 -0.25847112208512485 -0.19075450647378292 0.003741397644433829 -0.0031956374570224636 0.3122920950493067 0.18316919752435112
45955000.0 -0.9504412650196404 0.21762361514519898 -0.2856560139260569 -0.20090856493658107 -0.0004278729456968343 0.00024160041064889343 0.31202195023744644 0.18802392221741487
46954000.0 -0.947778142174829 0.23071324344438862 -0.31508362072147555 -0.20690115280018462 -0.0007890022724583063 -0.0003235448220194983 0.3352978810798246 0.17849977624462107
47953000.0 -0.9456952718334681 0.23695105426189345 -0.34626736612379805 -0.20964966805289154 -0.0006050508745126988 -0.0009517633161014447 0.3488374112474308 0.1556110790984718
48952000.0 -0.9417527985225644 0.24754841569058395 -0.3754661946442374 -0.21505045565023947 0.002795264125873675 0.0010984239416671861 0.3392168811316179 0.15320787480197545
49951000.0 -0.9422889246892358 0.2554233349970276 -0.3998431496921945 -0.22397761843145253 -0.0002596876467336915 -0.001314835201656435 0.36470517562805577 0.14445206164021684
50950000.0 -0.9389542598862185 0.26515794529586273 -0.43231331200059997 -0.22877176923753492 -0.002993877263180462 -0.0015567984648987383 0.3528042924672041 0.13841344594625019
51949000.0 -0.9350290738749307 0.27310956540844433 -0.45791683649205855 -0.23839800165921127 -0.0017758209918602153 -0.0032962431176520642 0.35996341955027 0.14192116785623035
52948000.0 -0.9276250376268018 0.2865972961646264 -0.4873136364630008 -0.24531391829899563 0.0022659588858661103 -0.0009503892589694062 0.38112820647342543 0.12995523010771828
53947000.0 -0.9292564476880382 0.29414325002489583 -0.5168340364200169 -0.2580483429878842 -0.00016968210998657572 -0.00394464002655179 0.37298529743836867 0.11554694641149835
54946000.0 -0.9273958871058041 0.3016727445283026 -0.5478246543777645 -0.2601068218941651 0.0009169967471354592 -0.0001643503916879627 0.3825723206616009 0.11590765947290628
55945000.0 -0.9251743594811142 0.30889010813509415 -0.5765353111839333 -0.2691882458095915 -0.00017576549068199485 -0.0003290006416138388 0.3974591187388997 0.10278114810989025
56944000.0 -0.9209959964620783 0.3202439164462354 -0.6122916316885098 -0.27293132625116945 0.002998070518886237 -0.004276129960955959 0.4040493774427239 0.093062718663046
57943000.0 -0.9150813064463482 0.3258287280465679 -0.6421303212802387 -0.2769553294243266 2.1823288385755877e-06 -0.0027577572570487126 0.4033355247375257 0.09266792754451113
58942000.0 -0.914764236293715 0.33513490165450727 -0.6807678527776317 -0.28259811425155085 0.002599314554225573 -0.0008621349114379432 0.4261672668004316 0.08950714374109901
59941000.0 -0.9095695100341277 0.3450726344761012 -0.7168448547611179 -0.28582640656788827 0.0017412258997813203 0.000675593578122033 0.4295747551137454 0.08638158809587664
60940000.0 -0.9078073639368913 0.3532357211154506 -0.7494183299021385 -0.2867103298220862 -0.0009463045013154749 0.0001591249422405876 0.4188866351760836 0.0634120500840231
61939000.0 -0.9021098206317282 0.3620944782370914 -0.7826262434806444 -0.2963519030601545 -0.0016547922759135535 -0.0014120344383820255 0.42566989198767025 0.05905415689598113
62938000.0 -0.8972183234950051 0.3724579592340759 -0.8221528246821641 -0.29293968101323986 -0.0008173154858727598 -0.0002231707519312837 0.4423629979078893 0.0394835309154931
63937000.0 -0.8943633909231359 0.3782272445322653 -0.860946938984131 -0.2927368714987149 0.0026643293545959863 0.0012086915045362626 0.4360980018600517 0.021560165738665666
64936000.0 -0.894355626655378 0.38548999363779374 -0.9001344066017026 -0.2992806707771165 -0.0003466806573527765 0.002239174186921028 0.4353783752002177 0.03478887993681919
65935000.0 -0.8883317516256248 0.3941128681110898 -0.9382972706076365 -0.29274615424845435 0.0005277390829582005 -0.0006696090181915397 0.44285953536158357 0.011075116447799871
66934000.0 -0.883020537349844 0.40267940029059446 -0.9766807526523568 -0.29149686532864466 0.00019774367403684344 0.0017159073401202091 0.4430265198945179 -0.00979932247210563
67933000.0 -0.881818729554741 0.4106212363376526 -1.019219161126541 -0.28956768913763475 -0.0009063667376935702 -0.0002996512580646291 0.4425114937758939 -0.005102673572455818
68932000.0 -0.8811939516487737 0.42074310827703243 -1.0698343760210742 -0.2678929051311337 0.0024004664734953666 0.001678063446990226 0.4651989826264864 -0.022300577746821114
69931000.0 -0.8713546113138102 0.42759256317452327 -1.104307015192238 -0.2657582722065491 6.394851339499789e-05 0.0030660472135501386 0.4563185262938236 -0.03259472244770703
70930000.0 -0.8675169321534534 0.43527664935884236 -1.1467513889867973 -0.2525381527232093 -0.0005510593111775191 -0.001757476996553172 0.45086210258357884 -0.05045814002878431
71929000.0 -0.8629308026283353 0.44243327573682434 -1.1952955564295162 -0.23233537946006685 0.001715462400644603 0.005948011710309139 0.4463040501499453 -0.05709318132312387
72928000.0 -0.8596548778729363 0.4491936389512513 -1.239461616499262 -0.2114707944588012 0.0030792450629926085 -0.0011693785473642178 0.46209720848646435 -0.06345311490996405
73927000.0 -0.8553968428276764 0.4554314635304016 -1.300274674887699 -0.18569636216600735 0.0004934406860975766 0.0022325205646597196 0.46352012580064367 -0.06724692485582899
74926000.0 -0.8509685529816903 0.4648238629225569 -1.3479147632788098 -0.16576419251792543 -0.0016188969281096127 -0.0018638713449584603 0.4639782625477852 -0.0713533729418487
75925000.0 -0.8463236177201644 0.4725577254357959 -1.4027963433801514 -0.1364546453415053 0.0014591721995795173 0.0027260010191440267 0.4717894341337707 -0.09613845184803227
76924000.0 -0.8433240335097543 0.47764521406043503 -1.4691926676403537 -0.10056375850820638 0.004039656501223158 0.0017648864230384563 0.4726807916788357 -0.09647953774178826
77923000.0 -0.8382447374048699 0.48527841240059366 -1.5252241339494625 -0.07233523194545312 0.0042238417266701155 0.0010771261025253364 0.45593435750044126 -0.10910247373758226
78922000.0 -0.8329130750785069 0.49145717248226795 -1.5921299651295402 -0.03525723459119889 0.0018201392176525918 0.002785775649556692 0.46140002112504563 -0.12148738737748642
79921000.0 -0.8272835319899583 0.502738211595478 -1.653993593238817 0.008658540809326423 0.0004396280160386708 -0.0017628776302936917 0.46551588715552217 -0.13305207698794902
80920000.0 -0.8219731238455028 0.5067111526754328 -1.7048856915809412 0.03640448285000382 -0.00032865280149104733 -0.0007506719238582766 0.4670495208229084 -0.1426085179226391
81919000.0 -0.8211480989865818 0.511425830986002 -1.7783326514762792 0.07634411551879394 0.0003921916452616042 0.004143193750237973 0.4623499314935675 -0.1435347251535091
82918000.0 -0.8143246534571902 0.5209274717432621 -1.8439151822801039 0.100875347523223 0.0028373266713341617 0.005126438391820953 0.47410649928832055 -0.1643141066907334
83917000.0 -0.8101371700934815 0.5282232222554449 -1.901000240946988 0.14591099115725936 -0.0006534383104617294 0.0016957125580182866 0.4664919943355788 -0.16211340624949658
84916000.0 -0.8031752749500568 0.5354969961137976 -1.9753979900651717 0.1762819686510198 0.0003307393999464365 0.0027821717718643957 0.4610683842492345 -0.17940646041823638
85915000.0 -0.8013588267691566 0.5411390413111595 -2.0295138091034426 0.21400230760072603 0.0017580730994508065 -0.002215643693599545 0.46027886381930994 -0.18940525454750481
86914000.0 -0.7920381853913805 0.5479359526796259 -2.0947884876840064 0.23990179301446077 4.07236232852508e-05 0.0016818562198090896 0.4509083372833178 -0.19567824181904775
87913000.0 -0.7878176114488961 0.5528207758966338 -2.1459182528844023 0.2776088720872497 0.00043530563361185215 0.0029177606696824507 0.4558872936278734 -0.21055706679580524
88912000.0 -0.7829507952657608 0.5613151292399954 -2.2167188812258884 0.30251450243855144 0.0003890790892468912 -0.000166236337672633 0.45434719137516344 -0.2200740173702944
89911000.0 -0.7757304734745228 0.5656573093667159 -2.276095145985884 0.32935732566393067 -0.0053472259014060814 -0.0002498607688852384 0.4735853942759225 -0.22427473808148568
90910000.0 -0.7723889514198549 0.5724949678394885 -2.340305136850973 0.3599458492786753 -0.0016824871326438955 0.000940420217502645 0.45362738075488673 -0.23698225599707048
91909000.0 -0.7649966843098336 0.5805845419574661 -2.4113623039060417 0.3991700578261667 -0.00048715818273922665 0.0026795568621007493 0.45297513777001425 -0.22951634724401793
92908000.0 -0.7609709969648236 0.5850434765078253 -2.4663569747251946 0.4318487984565706 -0.0006910012671171345 0.0022346341869439196 0.44974285703802314 -0.24620201660278154
93907000.0 -0.7530640233740274 0.5931864801727382 -2.514369133008086 0.46904230858224805 -0.0002955332995877709 -0.0027547888418960106 0.45947310899122223 -0.2656089544310214
94906000.0 -0.7503123167668606 0.5963445651910866 -2.5779614531972705 0.4807407127527446 -0.0009689056347039461 0.0021974227861390134 0.45970766485421605 -0.2596328765666701
95905000.0 -0.7445762683432968 0.604451470982552 -2.6424443699208475 0.5275930952709822 -0.0019988851262709084 -0.0031066029253306476 0.4516445441566627 -0.28340770185638986
96904000.0 -0.740717683544958 0.6073299809928631 -2.705069194850477 0.5516741718079526 -0.0026480389346528756 0.000634825621000338 0.44254278688432735 -0.2965922922070849
97903000.0 -0.73282661874779 0.6141397607195624 -2.7627249850771625 0.5956917145893462 -0.0033432350263852485 0.0015351058767885777 0.4477131716239197 -0.30261220812857276
98902000.0 -0.7273563347117724 0.6205250291137788 -2.825917207254771 0.6424085499722098 0.0006749443310716742 -0.0026574414281368853 0.44065755852754235 -0.30879094035049925
99901000.0 -0.7220254457970822 0.6253625243093199 -2.8789167127236635 0.6864313901799466 0.00036916922487503935 0.002259897796849487 0.45695589678626874 -0.32869812002239523
100900000.0 -0.7153674793277016 0.6344710564275808 -2.9301962777866732 0.7605078107061923 -0.00272071062164711 0.0038784286558162435 0.4428054384443757 -0.31762119776564696
101899000.0 -0.7115875115641912 0.6381987554875691 -2.9896020818093394 0.789572616952528 0.0018463677176778544 0.002958018282434554 0.4388836560594383 -0.33755946547815924
102898000.0 -0.7061821475613441 0.6430064664633226 -3.0547603301868995 0.8528442242968088 0.0017280074722406452 1.2613519750493845e-05 0.4396766668469971 -0.3596884568113283
103897000.0 -0.7008199783230218 0.649817606933145 -3.1048112082642416 0.931642213694045 0.00026493958420454363 0.0019042559766014977 0.4461919771584856 -0.3528034900187376
104896000.0 -0.6933357976744865 0.6514019974448063 -3.132452070879147 1.0205092479957947 0.0012671428408191855 -0.0018612004039223408 0.44194816317648267 -0.3499984988281137
105895000.0 -0.6913661813351369 0.6565150833142149 -3.2225370935940503 1.0715696677819948 0.002066909617043873 -6.014667700689219e-06 0.4219591637384 -0.3695148533783049
106894000.0 -0.6823856201457972 0.662774536025816 -3.2572064634421616 1.1851771390853798 -0.0010952350714639625 -0.0027858570118969367 0.4253341723399472 -0.3839709513555578
107893000.0 -0.6748289894228792 0.669493879454843 -3.302914204274216 1.2807220671572828 0.002158902075696189 0.003056996105910946 0.4249770094153094 -0.40213216076486596
108892000.0 -0.6697891746141593 0.6736814308823446 -3.342002834437864 1.3719927534827883 -0.002243493777042202 -0.0032040005390406717 0.4067026499294805 -0.3983220745945904
109891000.0 -0.6623372905215246 0.679940427688048 -3.3997147499475653 1.4465863530010794 0.001613327010087154 -0.0012135971144590135 0.43237907724156127 -0.39302634688368665
110890000.0 -0.658518727507088 0.6731493929927037 -3.3892526769643885 1.5151086596642909 0.00038122870118743776 -0.0005626334950746705 0.4025953257423713 -0.39576196786881124
111889000.0 -0.6541309774341845 0.6884940901728922 -3.5100723419484 1.629868427600484 -0.002895909758078337 -0.0010241850426029795 0.41651942660035884 -0.41525981602426715
112888000.0 -0.6474710101557756 0.6948108094386987 -3.572203343456795 1.755740469060304 -0.00020544495675522227 -0.002697032399476292 0.40048446472982135 -0.4283627649995602
