! Created with skrf 1.9.0 (http://scikit-rf.org).
# Hz S RI R 50.0 
!freq ReS11 ImS11 ReS21 ImS21 ReS12 ImS12 ReS22 ImS22
1000000.0 0.9630996238576991 0.007374595107542683 -0.0036153297415624976 -0.04939297101406913 -0.0023324715818388926 0.008831665688782266 0.32898776371147354 0.3115640014413148
1999000.0 0.9924080082077216 -0.01506047432429724 0.008890803613917034 -0.021412910752794907 -0.0006168576834721821 0.005097141756593133 0.2760412130765943 -0.03864712142051786
2998000.0 0.9997824012506271 -0.023266943550241177 0.012837698756291743 -0.018305349386796895 0.0006210831208167337 -0.0011982855270032877 0.1904133193137728 -0.1306292643051747
3997000.0 0.9964560143393024 -0.02993656959041681 0.015701499246123653 -0.005209181491835196 -0.0006707920219044092 0.0002928608213868741 0.09065531736417237 -0.19898468260268473
4996000.0 0.9938906644454369 -0.0342426909171591 0.01033565798763197 -0.004037134914156253 -0.007185864183053993 -0.004901667152225023 -0.039574304466924226 -0.20415103081436836
5995000.0 0.9923153398998622 -0.05393428524029002 0.008359959753433916 0.002743386722933013 -0.0016327759292375566 -0.0009853985000000927 -0.1207568300975673 -0.10340894740198868
6994000.0 0.9923864894418969 -0.058956751722580435 0.009609292171854437 0.004272361819431614 -0.0010324896188608251 -0.0009659233814959799 -0.13781590508989133 -0.04075717281834033
7993000.0 0.9910769085615346 -0.068394009182906 0.004414316171475902 0.005334353697445112 0.001284649895727468 -0.0059395542620223115 -0.15834031848037963 0.033491057211469895
8992000.0 0.9930827751746184 -0.0752806617314723 0.006392369306084845 0.001374602146049671 -0.00022219508750757295 -0.004490995073356071 -0.1535792283901974 0.056003800130273236
9991000.0 0.991813239804974 -0.08407419565937632 -0.0007178358848134213 0.004861428100527162 0.004514006859475473 -0.0012749568931961497 -0.14577038388015848 0.0867545105351372
10990000.0 0.9901895988042819 -0.09114235472498602 0.00017474675278931866 0.001314582430367373 -0.0011075577645723747 0.0035555177674475827 -0.13650786310688068 0.11042274928651763
11989000.0 0.9887111628072789 -0.09943640088156111 -0.001257063818362443 -0.0028952645969866097 0.0011349248942894516 8.160241489396061e-06 -0.12013602513236775 0.13765564269362557
12988000.0 0.9867556963205079 -0.1111424277403979 0.0029636801410906225 -0.004236265782243257 -0.0018795193195026453 -0.0011117165806608777 -0.1112157712533962 0.15397939613309392
13987000.0 0.9863685264372193 -0.116279817642911 0.0030013831439992013 -0.0027961134368829654 0.00037673618674583767 -0.0004393804191599864 -0.10083052751666292 0.1757071336620158
14986000.0 0.9852629466079794 -0.1261619423255752 -0.00042172361884875706 -0.004527320596261116 0.0032680018686711922 0.0008364626716731573 -0.0956398101368717 0.2007009549863257
15985000.0 0.985880163605395 -0.13434006619917854 -0.0008202626390075742 -0.006012065552140739 -0.0012284213082587973 0.0017316624823607355 -0.06411236321617916 0.21315326294506198
16984000.0 0.9841620629799855 -0.1428348649734333 -0.0017565965544158086 -0.002184813308984204 0.0006311633896523996 -0.0005923033571131378 -0.06664984902154474 0.20890118169327163
17983000.0 0.9852746867296097 -0.14863828100415294 -0.004600004777063451 -0.0007053767099482551 -0.001622191642929316 -0.0013807447230064962 -0.05346681810007659 0.23141873144873845
18982000.0 0.9800958574872658 -0.16316049598263982 -0.001969326930071907 -0.005433002055539236 -0.0019696194690644038 0.001286567942505352 -0.011517009526351376 0.23517096565828455
19981000.0 0.9802305747718235 -0.16581945566036704 -0.0032840609210158206 -0.004510380476717759 0.0002832105825243737 0.00010998515577660891 -0.026734823319165 0.2416206936264008
20980000.0 0.9785069158769631 -0.17546518209306888 -0.004053311607215893 -0.0018325269855881828 0.0007496501489988957 0.0025035245139864186 0.004709465731049405 0.2559165902168917
21979000.0 0.9773485987646785 -0.1847323526963255 -0.006395921170171631 -0.0025281676302314994 -8.810306097968142e-05 0.0011725846514202122 0.012640060668302387 0.23778582383166083
22978000.0 0.9745745320768537 -0.1910253801545269 -0.009393612052372585 -0.0070342252181260535 -0.00022874792021625385 -0.00390418689511731 0.0385020480171954 0.2602119806441117
23977000.0 0.9764959376907563 -0.20049644344838286 -0.009190721305326372 -0.004511711779648595 0.0026126051803207523 0.0029087665968862424 0.03717496269850645 0.25111465415384393
24976000.0 0.9715772486742228 -0.21247301037926553 -0.004056027099913843 -0.0024699907582953623 0.0015624896038312847 -0.0010260118205552774 0.07906609153677498 0.2544237487494207
25975000.0 0.9654385902835113 -0.22475150182454062 -0.006756836157095466 -0.0007440401460918452 0.00920903408845456 -0.022617608744484506 0.08183829500351121 0.25876243790814824
26974000.0 0.9668083764010814 -0.22957125749907115 -0.005932747664179873 -0.0032442118009723517 0.005633504856843877 -0.0018909148328564258 0.08145901312166569 0.2703288516292782
27973000.0 0.9690719558756719 -0.23417707499304843 -0.0075190371549784295 -0.001924861111289301 0.00018085363764369083 0.005098163971031144 0.10439971885505922 0.24785641332026212
28972000.0 0.9626078777048812 -0.24745644764383165 0.00016475370989270266 -0.00020760499520385144 0.0005918758831280643 -0.00039452757313573645 0.11282348360492585 0.25448826571032507
29971000.0 0.9625450100238853 -0.25337409790686694 -0.00016595655374815622 -0.001075315571073457 0.0011090997552158117 -0.002159225721729951 0.14990391735707562 0.25951653755012044
30970000.0 0.959724504426439 -0.25921258178457723 0.0008088096536781132 0.001196670640628026 -0.002012248426901542 -0.0010251243362915888 0.169045718047834 0.24864762125283282
31969000.0 0.9577413110136476 -0.2697394851015691 0.0012322109990841289 -0.006244496591546519 0.001936612561724961 1.459896756535993e-05 0.1572697410828178 0.24433825225851039
32968000.0 0.956637345971258 -0.2776705469041818 0.004956093804810728 -0.007849069837656989 0.0012435982739293552 2.086499238481478e-05 0.16409376132053505 0.24535203073477765
33967000.0 0.9561166081719505 -0.28553255491233354 0.00975611460763968 -0.010891874208854032 0.0007109526570303453 -0.0012951414301478783 0.18426181031462538 0.23904828530775327
34966000.0 0.9511145294887935 -0.29873727013432894 0.015416687578591808 -0.011743582020580135 -0.005333365411654989 0.00014027785671019282 0.19668757571682657 0.24826279576416121
35965000.0 0.9478035709623428 -0.3031942890607129 0.01583247349990802 -0.01317701225675647 4.460376780215165e-05 -0.00017163958692507895 0.21231653529436326 0.24707230668490027
36964000.0 0.9466658779586016 -0.31305873962863606 0.01456564623020665 -0.01390499165574963 -0.00018127022305183186 -3.144937147340969e-06 0.21246518640546294 0.25178160287576984
37963000.0 0.9420528061381509 -0.32296708674915375 0.02223804777093096 -0.019736713838372198 -0.0022629257957885555 0.0021735605178496258 0.22081299072853922 0.23359460508650035
38962000.0 0.9378696489977688 -0.33371032521155497 0.022424490027808587 -0.025558777513658853 -0.0007733991837817605 0.0031931520289793136 0.23951564219561006 0.23410487010659237
39961000.0 0.9364543790775331 -0.34100755489506657 0.024996221611980077 -0.02638283709108594 -0.0021303082645860723 0.0005766454660675631 0.2509387285932196 0.22723200501913998
40960000.0 0.9327685929381548 -0.34803025260625664 0.022533717110889633 -0.023706159024531995 -0.0007574978937532979 0.0014126473251534924 0.2627978241235857 0.22651517046968156
41959000.0 0.930581522784278 -0.3569675031785028 0.031173281777619865 -0.029412765061842 -0.0032852212112341158 -0.0018017150293144167 0.26844818974977763 0.21518527303016668
42958000.0 0.9241099544344207 -0.3680834454919333 0.029205036792589192 -0.03933834235073349 -0.0007266003955104784 -0.0004573158997498517 0.28281262985410627 0.2017114313072125
43957000.0 0.924538922882365 -0.370362264228574 0.03257287002910756 -0.04542753206500289 0.0006261918114605292 -0.0004687447694084501 0.28475918204846046 0.19954919914420036
44956000.0 0.9200322137817915 -0.3808476175661021 0.03273407320089396 -0.05348945367610811 0.0025455981737983226 0.00329431886340024 0.30704793704683125 0.18624741566068811
45955000.0 0.9166301483243813 -0.39236238851452465 0.03181411382461565 -0.0596640672159919 -0.0012752526706677004 0.0010240704270971298 0.3046189918297094 0.1937158723766625
46954000.0 0.912408319737542 -0.39942581641490754 0.03069976087641437 -0.06542094514955418 -0.0008211927359176916 0.0020364126496800732 0.32404778520859745 0.17845423848819816
47953000.0 0.9107971833421883 -0.40692415004265386 0.033336936846092666 -0.07471605895501736 -0.00086730911767107 0.0021692712349608632 0.3362230683328907 0.1682241564722984
48952000.0 0.9035029049942064 -0.41900802092445677 0.03442499602200316 -0.07991925710074554 0.000784689789875658 0.0011987810459649817 0.3382608979875606 0.15811352885078858
49951000.0 0.9002972154170779 -0.42270948262400676 0.03409472362132655 -0.08801703295110191 0.0003816621535991281 0.005743499353832215 0.3476166268937291 0.14943657737992389
50950000.0 0.8969117527910142 -0.43285873863115043 0.03544758777976854 -0.09277624859992781 -0.00034845270547991187 0.0024370620372376095 0.35352440097462595 0.14150610024140958
51949000.0 0.8918983411586133 -0.43985533144832256 0.03708928201581036 -0.1047979054733046 0.0015952837852503715 0.000284119723766666 0.3574976473641813 0.14098006249848036
52948000.0 0.8900536738360181 -0.4481473098111905 0.03681288688091421 -0.11191857655515912 0.0006365768164840967 0.0011120428513393592 0.37457606522008025 0.13364007324617194
53947000.0 0.8849472977535209 -0.4555796807351501 0.0411711514021257 -0.12463364321768516 0.0043905762527324055 -0.0010513626682749726 0.3707563398529822 0.116756136117422
54946000.0 0.8790198176171401 -0.46601982485547755 0.0410183865799817 -0.12843665200936677 -0.0013243841355164406 -0.003139216008383681 0.3823232490142836 0.12037991747447774
55945000.0 0.8767211528584409 -0.47402052288858376 0.0433547629562093 -0.13943717929236413 -0.0011724025796101532 -0.0013050283384369317 0.38352197147679845 0.0982364241079131
56944000.0 0.8713589545772854 -0.48288501761804575 0.04546609883019407 -0.1496431412963956 0.0004286097622971796 0.0032172529894605047 0.40237715216662023 0.09697177405147635
57943000.0 0.868707618271649 -0.490685460344811 0.04116372210370217 -0.16053762988103187 -0.001671101046038001 -0.00212432484778828 0.401393700871436 0.08650453885769327
58942000.0 0.8610210056458311 -0.4953673652125679 0.045433763019118785 -0.17071218810375713 0.002611619027179957 9.572014567280964e-05 0.41749965270184847 0.08448258509684642
59941000.0 0.8582093885666128 -0.5068172577528518 0.046139321675585425 -0.17740800545724217 0.0025769707347515743 0.0007952249405186775 0.421143733955984 0.08367105011156123
60940000.0 0.8498399545192292 -0.5133773723341869 0.04650807693890383 -0.18281383756281963 0.00010935536176483613 0.0006152199767426946 0.4158982378187482 0.06271408641023145
61939000.0 0.8485200594187043 -0.5201480829735687 0.04463160239684813 -0.1912766782178362 0.0008476982076492332 -0.0009138106701550807 0.41605689562645526 0.05950452731084371
62938000.0 0.8400723000159965 -0.5304508690857559 0.048844584367571726 -0.2107265736593493 -0.0001354803167706567 0.0028359447686349556 0.43810427069755137 0.04573577543429931
63937000.0 0.8369386982132472 -0.5381205660696449 0.05003333187800192 -0.22896424641674018 -0.0014662939377811939 0.002190559774766742 0.4307788781566524 0.030247794917992968
64936000.0 0.8308460284343636 -0.5435533687126267 0.049718222448142356 -0.24172913469244256 -0.0018503707917756765 -0.0008901549221727955 0.43570053666523584 0.031003658517148924
65935000.0 0.828114901837003 -0.5538938928607995 0.05007151219037452 -0.25470743542224905 -0.0004060583368169302 -0.00017125343288082863 0.4489968380762674 0.012706853053535054
66934000.0 0.8220388527674785 -0.5602261646788088 0.04923280686289278 -0.26665372248660074 0.0003288693102657078 0.0012393906990510932 0.43696395213871164 0.003418369692955834
67933000.0 0.8185004035353475 -0.5665121848552539 0.0533343058414253 -0.28377120066289907 -0.000774412145076235 0.00010651138282561291 0.44849122139191133 0.001450874784931971
68932000.0 0.8012006272827074 -0.5658991840511844 0.04550349817543082 -0.2895249828796102 8.693970872654646e-05 0.001987106721197315 0.4448625054554972 -0.01379706245610761
69931000.0 0.8053031686061741 -0.5836784787345305 0.04837362920334195 -0.31172196663775165 0.001248322402508389 0.00258309852144584 0.4462588487822497 -0.01386058701430656
70930000.0 0.7979369626135681 -0.5906858940181604 0.04334258357524545 -0.32351545042862 -0.0005447398596355134 -0.0034030547222347577 0.4465836021222884 -0.04141778685892756
71929000.0 0.795717772283221 -0.5967983569419641 0.04059535970261549 -0.33887024430283824 -0.00045075858803639377 0.0009492462436541093 0.4452868494329798 -0.04201015503019213
72928000.0 0.78755952492184 -0.6096551126578745 0.0345693726299995 -0.3557894912744448 0.003471692597932367 -7.092145698925699e-06 0.46260228431903555 -0.05771897722422141
73927000.0 0.7828244361598204 -0.6143383988577137 0.030318743319751904 -0.3771038308611561 -0.00664752147709879 0.005098621910086127 0.4524031301296319 -0.05729061656075398
74926000.0 0.7784088038130026 -0.6227546221967448 0.01964131895658376 -0.3945979905850203 -0.005508950444826022 0.001487616358625832 0.45959493679344665 -0.07589955708584681
75925000.0 0.7702943648346474 -0.6307045438142864 0.010975394675800595 -0.4124662283459828 -0.0001243258573779504 -0.0004150579462969448 0.46406029815824673 -0.08595864542487383
76924000.0 0.7634368062180132 -0.6365837559171925 -0.007699076895477518 -0.4334826988434112 -0.0029857350436173443 0.006218273171622113 0.4621004955005316 -0.0833641082730641
77923000.0 0.7557744984791219 -0.6451316108776812 -0.022093266828370855 -0.4598143348511553 0.0025827663724027365 -0.002502325417204087 0.44758539701382366 -0.11185084332260467
78922000.0 0.7512888567002991 -0.6542561931101281 -0.0334054597064114 -0.4820700331729959 -0.0022993922517876575 -0.0011619594018565736 0.45295441573570333 -0.11689021099530794
79921000.0 0.7423054489572253 -0.6568576759918484 -0.05319433689924734 -0.5066539001759379 -7.235380826595519e-05 -0.0034339621041523465 0.45791452665271287 -0.1192310404400712
80920000.0 0.7373055008178949 -0.6698075547981475 -0.0639697806811768 -0.532616792435802 -0.0010302271538584625 -0.0034189954106363892 0.46788096474952384 -0.1371355168074806
81919000.0 0.7330375632608538 -0.6742724709037066 -0.08574723244206922 -0.5649064240894466 -0.0014122023584767652 0.0004794708615929255 0.46456377496212375 -0.14674056276960806
82918000.0 0.7224799481706319 -0.6825408297628509 -0.09935797062803962 -0.5938753141078332 -0.005286911690481794 -0.002765913684308846 0.46740451113828624 -0.162436320743175
83917000.0 0.7147817237612661 -0.6884695760030889 -0.12195877785246642 -0.6194096948746708 -0.0030027021270820757 -0.0012593486267403384 0.4651865160892541 -0.1546021915424944
84916000.0 0.7091204381728385 -0.6976496022406674 -0.1306692442382119 -0.6577392060955577 0.004059985867518343 -0.004670759956158241 0.4618994012396478 -0.1824226787969491
85915000.0 0.7033674804502552 -0.7028703225027075 -0.15698543790324637 -0.6835350794219167 -0.0013801703339609858 0.0033212273640408933 0.4589764686710323 -0.1869068526733809
86914000.0 0.6951678438284558 -0.7140229232201833 -0.17094040711605465 -0.7195954285520425 -0.0018941661901977084 -0.0004336164931606026 0.45837880641452833 -0.1715378595820536
87913000.0 0.6876066201673193 -0.7185028527647442 -0.1920735881918235 -0.7455185378842821 -0.0007854975709204092 0.0008249250356093799 0.4557249424972492 -0.19658746104947514
88912000.0 0.6834382118926021 -0.7245267743507087 -0.20476445791601072 -0.784677346419764 -0.0012836307950860658 0.002231724757851361 0.4507143887800738 -0.21793518914715101
89911000.0 0.67278780450147 -0.7339602114420726 -0.22231915797465962 -0.8162165307309319 0.0008184911911056017 -0.004252660717569477 0.4609118462162201 -0.2138546050838173
90910000.0 0.6665272973081039 -0.7399795798866037 -0.2384612809613313 -0.8503423513022746 -0.0027543534878706703 -0.002363061402345413 0.46042359252137494 -0.22604869735238659
91909000.0 0.6581354442368405 -0.7445383281095584 -0.25672533083201615 -0.8794541907536697 0.0012290272944251424 0.0017399626789267677 0.46117355460440185 -0.23361995163628635
92908000.0 0.6495393805483725 -0.752443296280083 -0.2713945834050594 -0.9088496672142178 -0.000823864294686604 0.001348853505922917 0.44961614631719193 -0.2396276332372321
93907000.0 0.6446311734848925 -0.7582967027572323 -0.28791733603486014 -0.9413244305873452 -0.001991225235311155 0.0010468581861742482 0.46013399528327825 -0.2599806656919857
94906000.0 0.6291123744351765 -0.7675362359143274 -0.31135159309989774 -0.9728950039568277 7.906224746969485e-05 -0.003911700365266369 0.4414031031152635 -0.26008936133801414
95905000.0 0.6263450363366265 -0.7727990228283612 -0.3292630566149571 -1.0065201651475124 -0.001259741410046228 0.0005933090986018513 0.4549884717011708 -0.2825943230215937
96904000.0 0.6147274983892441 -0.7811427454992473 -0.34853834519267196 -1.0422335504119764 0.0007459919655869244 0.0008592704901634622 0.4583202482455005 -0.28045067117263733
97903000.0 0.6053264261175777 -0.7873921675256371 -0.3702791090073959 -1.0731748984823906 0.004362063092921979 -0.001321587972088101 0.440396136001469 -0.3004874891621539
98902000.0 0.5990952270637403 -0.7929811040462726 -0.3871893454131218 -1.1099092689110033 0.001884632422023004 -0.001316791521942523 0.4454744801111348 -0.2993979321132899
99901000.0 0.5910654263157321 -0.7987202154786129 -0.4157842931925911 -1.1406773464439175 0.0015657133638418718 -0.003742056124857959 0.44928953104238517 -0.33290139575062405
100900000.0 0.5841016860914876 -0.8014374179167586 -0.44160860594812634 -1.169618363579143 0.000427163275460015 -0.0001839235375972074 0.4442348817196196 -0.31640475980230703
101899000.0 0.5738608328237498 -0.8108361583919604 -0.47589884727345627 -1.202901949312493 0.0016339795543490211 -0.002393576164731211 0.4496526804038566 -0.3365135380079488
102898000.0 0.564254523483086 -0.8171345730721932 -0.5090762460637065 -1.2363340284658852 -0.0010407516124152244 -0.001955238371159668 0.4336210990753407 -0.34856256461314605
103897000.0 0.5562478462191744 -0.8225861635436921 -0.5454013453343382 -1.2712862116154229 -0.0009756262384926115 -0.0019148313288550399 0.4495865083945351 -0.3451307937776788
104896000.0 0.5492895750823268 -0.8330049374198673 -0.5847929165813789 -1.3017973000019027 0.0016868064724009837 0.0016901052262998741 0.4378873099320282 -0.36073506731324567
105895000.0 0.5359751177295662 -0.8357876926395709 -0.6338762858564182 -1.33630915177921 -0.003592003929421602 0.002990768761960672 0.4257321598115591 -0.3674694989685336
106894000.0 0.528681181240878 -0.8417131188895359 -0.68205019525602 -1.3787015401892553 0.001404907138509467 0.00039257199768468035 0.4287158656449551 -0.3749739275233637
107893000.0 0.5214592605099693 -0.8478717800731405 -0.7358954049959363 -1.4119558793212579 -0.0022588377639198996 -0.0016386745999402523 0.431754100460906 -0.39005034093715885
108892000.0 0.5097432802312354 -0.8536171001398111 -0.7947082774031936 -1.4456747620235502 0.0030020597007608457 0.0008668279072968887 0.40828574648335564 -0.3877934328267165
109891000.0 0.4967738878301466 -0.8589167486614294 -0.8564489417360389 -1.4773597208192795 -0.0020140189116246215 -8.014979627782141e-05 0.440701325327758 -0.37950078780466007
110890000.0 0.49241473865088586 -0.8684677331394528 -0.9131514729141662 -1.4953778484097886 0.0004498470054138677 0.003396248022545641 0.41659263844094097 -0.3944397043932259
111889000.0 0.47784005066874446 -0.8654113508788128 -0.9765672488477127 -1.537889791590415 -0.0004970041252601856 -0.0017580462081763831 0.4054622481977874 -0.40855858524622357
