! Created with skrf 1.9.0 (http://scikit-rf.org).
# Hz S RI R 50.0 
!freq ReS11 ImS11 ReS21 ImS21 ReS12 ImS12 ReS22 ImS22
1000000.0 0.9978264461824721 0.0022480670050678392 -0.01049323957130851 -0.05069092882705076 -0.015268887045639109 0.01164928313706531 0.3748505237414363 0.3695740939010348
1999000.0 0.9883578353171385 -0.01197171115715311 7.034773922332158e-05 -0.029188323037993402 -0.007166512978706792 0.0009549392206397742 0.2728347070766896 -0.049809274461860856
2998000.0 0.9980049659263615 -0.020232424934551574 0.011757743694275697 -0.022009771307301678 -0.005475451493559646 0.0026075545991360257 0.18043257728536144 -0.13594711219868583
3997000.0 0.999394386551849 -0.03128211244566788 0.011606556859233725 -0.006939855245340105 0.0037938081496563672 -0.005588708724974038 0.09600389722648704 -0.23350596788923
4996000.0 0.9986530534275084 -0.034281024289740926 0.010069934269471418 0.00013214160274263635 -0.0012904383960361488 0.00944857971645663 -0.03221416555399629 -0.2027748145116146
5995000.0 0.9975344810812844 -0.04372546046850458 0.00941967888790445 0.004155949974382172 -0.0016347482432056237 0.00037695368670451706 -0.10812500055853047 -0.11908247173794213
6994000.0 0.9936873822528542 -0.060503517176357456 0.006890749957046585 0.0015306235953893063 0.0009795925342639391 0.003352190644318779 -0.14457043209167 -0.039247961415439556
7993000.0 0.9998725037157056 -0.06946340791766785 0.006554830594440859 0.005800043427137602 0.0017638761629247554 -0.0034234388356542667 -0.15780667904221163 0.030748757517636435
8992000.0 0.9983649200148826 -0.07235221110627559 0.001097339044509154 0.008664822250825216 0.0038869207457345326 -0.0024091611515999725 -0.15487400763582634 0.060752613022552374
9991000.0 0.9960554964982063 -0.08340910294057603 -0.002036252735842897 0.0047240938303946 -0.0047701047995749105 -0.004147393018134694 -0.13629863424091881 0.09041664604053966
10990000.0 0.9952578599620275 -0.09128515262519456 0.003281178094630381 -0.0012265336878038622 0.0017599749749763391 0.0025140980012634817 -0.1259490678597908 0.08889759436283871
11989000.0 0.9927783272274234 -0.09907014335570029 0.0024747547722950534 -0.0019121741608710378 -0.004248065316644361 0.00213972422195554 -0.13278211607383275 0.12947700600475437
12988000.0 0.9905572907989268 -0.11096896192219877 -0.001285705011428294 -0.0029032439563681472 0.004200567935996451 0.002327427871165616 -0.12096371820713414 0.17288585686083474
13987000.0 0.9888200590119032 -0.11496954613155741 -0.0016761263972848975 -0.005298660409011391 0.00453255793437815 0.00429012771935821 -0.09502554384779931 0.18517534573122846
14986000.0 0.9894103305147509 -0.12224379666752574 -0.0021563817862900745 -0.004556024679943736 0.001131861767011947 0.00041784941636023956 -0.07393274304188031 0.19626491303160454
15985000.0 0.9888123656327034 -0.13148167120118567 -0.003987680836782162 -0.006151776283811068 -0.00029414704359806865 0.0014908162844440344 -0.06740438145833064 0.20449692902454517
16984000.0 0.9858411428626261 -0.14524771698485042 -0.004655421370829986 -0.005536362236895221 -0.003460909799540091 0.004658128911531686 -0.057456651526407033 0.20900970398013352
17983000.0 0.9874136302201314 -0.14753827910241318 -0.0031945230623153507 -0.007987155878160596 -0.0035595024552901406 0.0014289766179974611 -0.0609159671440416 0.23100773397560967
18982000.0 0.9837172791075798 -0.1604709865931535 -0.0035319598620806455 -0.005242698731107031 0.00033918355182528854 -0.0004203424433449254 -0.02633813885103102 0.23777089299423051
19981000.0 0.9839200701544936 -0.16471080218424142 -0.0030820856119396327 -0.006083273851214878 0.0006641329315647569 -0.001943181428079273 -0.020978111316311877 0.23442140215099908
20980000.0 0.9822056019497027 -0.17505178988979775 -0.006858905920561479 -0.004547589130405989 0.0013869460462696092 -0.0050325290405060855 -0.004455664993545906 0.2603708857663901
21979000.0 0.9792215334224076 -0.18311653814680082 -0.005345740666309484 -0.006392000251898074 -0.0002979476642341608 -0.001488331860690487 0.015084388698402845 0.2446565445207536
22978000.0 0.975691340153223 -0.19320485613464197 -0.0054705745652108015 0.0015449339872851053 -0.004658650875914519 0.0017443555146072953 0.031780935718300984 0.2547108022425221
23977000.0 0.9783788141424775 -0.20033798367049427 -0.006038058217323053 -0.0007836157924126832 -0.0005024537629064866 9.889582672242565e-05 0.04118035057131723 0.2519199353598548
24976000.0 0.9774201894216904 -0.20901091429843244 -0.006931522076173173 -0.006274215785484585 0.004183595990350994 -0.002375551133257099 0.0754769056953503 0.24934788298017532
25975000.0 0.9738944239291739 -0.2219768486704471 -0.007998291552896398 -0.0021198084857283975 0.02416847472338352 0.0004664868953582388 0.08879793774875673 0.2671907741512943
26974000.0 0.972264712745896 -0.2260225001170024 -0.007988483385915143 -0.0015151984317434272 -2.1663129441444436e-05 -0.0009135249267664748 0.10129498638021589 0.2679528566356998
27973000.0 0.9702720065840584 -0.23575453664424953 -0.006334234813337915 -0.0004833654014542186 0.0042537575098697865 0.00021867489505290194 0.10430093361279068 0.25353220844796076
28972000.0 0.9659624505837787 -0.24284095606833075 -0.002065531310550344 -0.002085520712732477 -0.000577465874855441 -0.003576514999454978 0.11002795788991251 0.24586226594289665
29971000.0 0.9636243724982546 -0.25275576439785696 0.002676628588210698 -0.002089188521716795 0.0014022506744744779 0.0013819029396943449 0.1461251916491144 0.26587874473622297
30970000.0 0.9638368005871771 -0.2569178550351729 0.0011774910644005985 -0.0009735020933499555 -0.0022474100714263757 0.00346090313001553 0.17898823643189363 0.24593092127058883
31969000.0 0.9615030327207287 -0.26669344038772586 0.00550008664886827 -0.004056376375466285 -0.004198316546279061 0.00211821826055283 0.1530487798291798 0.24786605043409884
32968000.0 0.9610627412137063 -0.2741025242711138 0.01096251881595511 -0.009928772331956765 0.002577387854638991 -0.001247528410802503 0.1583569035269668 0.24429129417633963
33967000.0 0.9577771601586504 -0.2832600377805363 0.01103192523401823 -0.008305014492981445 -0.0009593701355750959 -0.004633643399892424 0.19060256594397584 0.2379157151126683
34966000.0 0.9539693396412026 -0.29496351675847604 0.01574718699199865 -0.01476018670136081 0.00038287102046077783 0.0005106956672924909 0.1968340040649433 0.24629335603658062
35965000.0 0.9513728225454418 -0.2996308695911014 0.01712817592578732 -0.015206957313521983 0.001699302493577862 -0.0011633808924509895 0.21447934625890266 0.24716292958361238
36964000.0 0.9499284918633746 -0.31045988406100805 0.017571674407387602 -0.01440763872849259 -0.000292398009154532 -0.0002322958490771332 0.21963633913362834 0.250097156491188
37963000.0 0.9460383787053852 -0.31870696866790704 0.02057502785267831 -0.021551494608066324 0.0007086140419224414 -0.0029344862906434477 0.22622018219046083 0.22570853645291022
38962000.0 0.9435333636818484 -0.32923764754841883 0.022047084394601263 -0.02514500051356789 0.0010990924186465789 -0.0017791109699716917 0.23823926781160207 0.23029479245000686
39961000.0 0.9412934041616754 -0.3331455780942093 0.02786419326940283 -0.02847873886437681 0.0006854765304447722 -0.0011712328239566192 0.24882095881887276 0.21965148881229288
40960000.0 0.9367762109739998 -0.34252364348493686 0.021629406983755834 -0.02271867618702847 -0.0018395346759630198 0.0025986016444291007 0.2678978461568603 0.2249840636189933
41959000.0 0.9339321326107849 -0.3531231775897348 0.03288907461931867 -0.03086073993369064 -0.002374416731037004 0.0019245859634663119 0.26258837497462906 0.20890174854745375
42958000.0 0.9296653545068194 -0.36090167398712597 0.030044351761183783 -0.04018254483914942 -0.0009818195976189958 0.001654208552437169 0.2826865156664209 0.19523675550566386
43957000.0 0.9273945422399835 -0.3660355739890474 0.03367534283672306 -0.04768671122785849 0.00047534585365584296 1.6581999536530173e-05 0.2965421222430825 0.20180678071999641
44956000.0 0.9240270005558929 -0.37667201639713 0.03658078685415635 -0.051575095145145224 -0.001608593166548429 0.001320022607963098 0.3098865272510805 0.18792908077587492
45955000.0 0.919539473835771 -0.38568279907047137 0.035082287484455923 -0.05824765898264055 0.0007281013701579191 -0.0008141804608581324 0.306978091518782 0.18860872066658602
46954000.0 0.9179478677470798 -0.3939166225073393 0.03583815082848245 -0.06784792570178505 0.0011425881805858685 -0.00010580085307064078 0.32898940071879035 0.17357218641444597
47953000.0 0.9141425174250566 -0.40475767294614695 0.036429902390212654 -0.07303013407463783 0.0004821580430592664 0.00015962930508919287 0.3422532423560394 0.16519660161994307
48952000.0 0.9079444314003189 -0.4141248087885481 0.03685333421238893 -0.07982022759996342 0.003268892492122108 -0.0017777348719501772 0.3357680748629638 0.170554518722956
49951000.0 0.9053398227530304 -0.41724485608154804 0.03866563788917989 -0.08925792899296296 0.0005291804067320114 0.0011994837284560985 0.35957195350021737 0.15108375068496785
50950000.0 0.9032871061821742 -0.4251234170191446 0.03722539456054178 -0.09445554768149929 -0.0026452860394954713 -0.00016541068481562595 0.3512252114545125 0.14726178913327437
51949000.0 0.8992556713739301 -0.43474869903177643 0.04041749068098845 -0.1042556979924465 -0.0014909760231570648 0.001361208302674776 0.3628948594309279 0.14032057883149962
52948000.0 0.8958667687367999 -0.44205055280825656 0.03951725178016689 -0.11432864175416806 0.0019821376532133663 -0.00014982653032693616 0.3746988507753445 0.14497021146992964
53947000.0 0.8913649956319702 -0.4506686345287606 0.043539892521108646 -0.12136489073657303 0.0014325048321710708 0.0020205203099960493 0.3724356638718993 0.12741133882546588
54946000.0 0.884036484967719 -0.4603849632111369 0.04284380284163663 -0.13252003316765723 -0.0006542605805026644 -0.00012999886633227473 0.40129611745689564 0.1175925285653022
55945000.0 0.8825147969478252 -0.46914999288941567 0.04859763608291869 -0.1437995577535348 0.00044859642712173923 -0.0017619682814164418 0.3876424275806467 0.09128127212519038
56944000.0 0.8777431893342875 -0.4758849973746527 0.04869925781282171 -0.15056542839540002 0.0002676959464845022 0.0018138780179231366 0.39628238617512673 0.10571154532045063
57943000.0 0.8725247300471962 -0.4868532769799001 0.04712416189701227 -0.1697770525114162 -0.0008923195307333278 0.003341066267032256 0.4016246452956937 0.09164310832849472
58942000.0 0.8690108837060083 -0.48963079079394345 0.05171709422571067 -0.17532612887088156 -0.0009741353144440051 -0.0001330346034153878 0.42850031159834256 0.08237924597380882
59941000.0 0.8639878862788327 -0.4991197441530787 0.052264308205630314 -0.18643066994791085 0.0031257253736137755 -0.0019752962317958842 0.41876585831655294 0.0841335949647388
60940000.0 0.85798443719715 -0.5051336824450431 0.0532948708470849 -0.19049743031325264 -0.0005911453048390394 -0.0008468692154995122 0.4129005999405091 0.07477655626416398
61939000.0 0.8545208879791514 -0.5128540960861312 0.05634737249043307 -0.1973355846678049 0.0021619822315104495 0.0009475939464106439 0.422159001821701 0.06032938712323436
62938000.0 0.8492124606666704 -0.5222408292296369 0.05721454196968251 -0.21667324885801995 0.0006759902752439236 0.0006436285173022126 0.4519628760048102 0.05167332676014363
63937000.0 0.8430925090775935 -0.5313817027591822 0.05623603135927789 -0.23177827070439178 -0.002279730323039106 -0.0029228833835642527 0.44043062046996895 0.044049028851135326
64936000.0 0.8392665772713869 -0.5346833869498576 0.05593015214523925 -0.250417050957199 0.00016770261598462785 0.0010395644677728805 0.4320368162488317 0.03977752718977385
65935000.0 0.8341855175739387 -0.5490753315337523 0.05461491528050672 -0.26215550692301526 -0.0021269131222027005 0.0008131100175763182 0.44351869643420094 0.009750569381687876
66934000.0 0.8310931725995393 -0.5525936195464369 0.05718415860892299 -0.27739877119978296 0.0036322754075509157 -0.001924040315820028 0.43332635136131364 7.61856377301708e-05
67933000.0 0.8267990243413669 -0.5614845048798441 0.058051415835109546 -0.289337022121434 0.0018691722848540124 -0.003993652064268197 0.444036270905504 0.0008217799850478414
68932000.0 0.8181876654678601 -0.5518145122967073 0.05467703492135431 -0.3014698660281306 -0.0027830028542182176 -0.0023355436252644173 0.4480792173302851 -0.013717746113672265
69931000.0 0.8137487009517904 -0.5768006080694381 0.0518764606273886 -0.3235011387015276 0.0012643953346003808 -0.00010762633176779325 0.4529406390232845 -0.021309181734142174
70930000.0 0.8061960989719676 -0.5840539830455583 0.05304695841388744 -0.3382341887376929 -0.0027931795484109675 -0.001533568296013811 0.45622847908657893 -0.03297490413870811
71929000.0 0.8039582009854184 -0.5927043567220418 0.04891647846824662 -0.3555015807718238 0.0018953206100864742 -0.00154877129747469 0.4611146459234967 -0.042699831849062585
72928000.0 0.797391737507031 -0.6000633301015137 0.03922752198902432 -0.3709065663488456 -0.0007283170108962139 -0.002644668484184588 0.45839635617159963 -0.05921996414563257
73927000.0 0.7903127280910276 -0.6074239969060471 0.03575191405509451 -0.3914871427400996 0.0022172727071219037 0.002279318838305055 0.4574172626414003 -0.06267252184018306
74926000.0 0.7855096083890029 -0.615394942698228 0.027703402816584972 -0.4089823622270139 0.004284483436945784 -0.000754336942842683 0.4605900437882301 -0.06701343554628651
75925000.0 0.7781826750312477 -0.6213544219631911 0.01896522158689555 -0.43139812631931024 0.0001935084551575 0.0005313597887595163 0.46795842570896573 -0.0864246783562798
76924000.0 0.7759693444934009 -0.6295993306631461 0.004678024285267305 -0.4567625391321255 5.035762516689305e-05 0.001200363538896259 0.46999122264598286 -0.09632018148204533
77923000.0 0.7671808362527499 -0.6374830547642277 -0.007516999615051817 -0.4778209309150733 0.0009404746859349875 -0.002477289222044831 0.448601265282428 -0.09208333808026661
78922000.0 0.7611953707910917 -0.6467467877362921 -0.02431536165403799 -0.5094995309424664 0.0010932147955445414 -0.005046824335730688 0.46365937553726744 -0.11927232809160399
79921000.0 0.7527290993227768 -0.6527696225022434 -0.04395408903193331 -0.5312733008674376 0.0008567437860311886 0.0018443627112726348 0.4538222619614183 -0.12553991765658376
80920000.0 0.7487074062989726 -0.6614510291307021 -0.05716639392611237 -0.5572832201874417 0.00428495758712047 0.003044129782298829 0.46409299263892656 -0.1334867888049048
81919000.0 0.7417041372735922 -0.6665481079946414 -0.07068180827883376 -0.5910878717106571 -0.0019241891063078768 -0.0007976145543695241 0.4714648683508366 -0.13402093542028518
82918000.0 0.7348893075031817 -0.6741321126852616 -0.0852368459046101 -0.6208670254718266 0.0034947554810691936 0.0029525176038826305 0.4779918001313612 -0.14972062655887086
83917000.0 0.7239030202085828 -0.6845094275924125 -0.10792428129937069 -0.6516224307917999 0.002663957540221123 0.0006634906287529789 0.46812542156077114 -0.1505392959813161
84916000.0 0.7227125271241336 -0.687826247718018 -0.12267491209099433 -0.6856056579174844 -0.004329073311741185 0.0039495544605018685 0.4718893380622129 -0.17108675834560247
85915000.0 0.7141370564951904 -0.6965118050610377 -0.14847362140907083 -0.7112878434063639 -0.001433899909691268 -0.0027762745572776793 0.46973968837486124 -0.1864321856399485
86914000.0 0.7076804959207679 -0.7070337450124541 -0.16289752255333684 -0.7544810114906705 0.0010175789445974772 0.0007590975130455139 0.4681814894147806 -0.17645426063815436
87913000.0 0.7000162687087429 -0.7110938098064763 -0.17933478023841795 -0.7847764820576865 0.0001415933026644838 -0.00042458254443342804 0.463654341771502 -0.18765443927985076
88912000.0 0.6930504022699459 -0.7193531371659306 -0.1979905980199029 -0.8135319325390499 -0.0009337770159435554 -0.0011490295084529156 0.4600920361310363 -0.2028164019866175
89911000.0 0.6866552002069201 -0.7279572347588795 -0.21013364474990764 -0.8578608902899815 -0.001905698122347836 -0.00013364664841503468 0.47296852924042976 -0.2091136753374698
90910000.0 0.67927148424929 -0.733360802769528 -0.22943975398249924 -0.8860265561338724 0.005053373369982051 -0.002221804108389452 0.4554443785336865 -0.22240061054561897
91909000.0 0.6697648587617988 -0.7371283261419193 -0.2510946889337701 -0.9208426131550674 -0.0019506505482560213 0.0013461464122035479 0.46895454251690794 -0.22833466288051318
92908000.0 0.66352045520631 -0.7469429241627578 -0.27039512876638133 -0.9552111718800257 -0.002303753826446768 0.0032031920328528343 0.45673507263768137 -0.2354476348907585
93907000.0 0.654904321879879 -0.7516754065606083 -0.28908378128871093 -0.9890613597349867 0.0026333671860925756 0.002125745681922198 0.4568561529037249 -0.2597814027293107
94906000.0 0.6421929284529821 -0.7599201865551295 -0.3050176325307257 -1.0223107485957248 0.0009835005493121904 -0.001840197241750628 0.4556882114616134 -0.24403197677131544
95905000.0 0.6376791787511392 -0.7659313622592253 -0.33209582587729675 -1.0569097771025093 -0.0008257033729201608 0.0028379354229293645 0.45804437865617803 -0.2822681144842183
96904000.0 0.6285724882348352 -0.775247870322304 -0.35198317313049216 -1.0960751252852106 -0.0023521729156616438 0.0009392463786077653 0.45913799816867384 -0.269394655408497
97903000.0 0.6195614649759986 -0.7809702587978589 -0.37363207208258997 -1.1296255035418907 0.0012527510196045097 -0.002084530555060266 0.4444748335257548 -0.2900148285851132
98902000.0 0.6173990107107622 -0.787540656012991 -0.39451752484657004 -1.1753159821894434 0.0008730640925272737 0.00023783782164434685 0.4469619566242936 -0.2965660620428155
99901000.0 0.6036169510954322 -0.7923271435778624 -0.4271353697560205 -1.2001883525315464 -0.0025144490971279743 0.0009446347599216928 0.462627608984719 -0.3169229620303362
100900000.0 0.5947085400750273 -0.7949847767365296 -0.456600022045523 -1.2273208416339338 0.0007873169868279978 0.0041936568432875 0.45672562464375444 -0.32305401040502857
101899000.0 0.5864685263456594 -0.8040085424782193 -0.482628358496478 -1.268354463464766 -0.0010804678087445157 -0.003689230851866934 0.4438287364528475 -0.31743789056706645
102898000.0 0.5779384864812785 -0.8084048575582218 -0.5144197074702327 -1.3069666159555264 7.726694378539592e-05 -0.002812664345094712 0.4379809778100229 -0.3438673276578865
103897000.0 0.5692331127713647 -0.8162810696608264 -0.5584770492803678 -1.3441115308083977 0.0020469011207285234 0.0013528504986362372 0.44605540623177564 -0.334634195222792
104896000.0 0.5618635653175639 -0.826375436740853 -0.6005494254912569 -1.379404629962913 -0.000639833165583529 -0.0007490818164662392 0.439755468013594 -0.3391657278103803
105895000.0 0.5512862337043668 -0.8289701123297838 -0.6470759627147366 -1.4231229951458155 -0.002834536306088127 -0.000365895410533226 0.43227640028706377 -0.364217275063743
106894000.0 0.543656440289374 -0.8357428835185414 -0.7009522328329939 -1.460529975007511 0.0003343400625732782 -0.0008309720361453183 0.42606790316686427 -0.37030783922567934
107893000.0 0.5357604424897048 -0.8407221537756905 -0.7543269463423676 -1.5018241473813767 -0.0018735068542114542 -5.843090095747029e-05 0.43000676136100946 -0.37417180673697986
108892000.0 0.5232920030560345 -0.8449106600999913 -0.8193202981712374 -1.5340678278569024 -0.00022838028883008824 -0.00208193942665436 0.4218343952146914 -0.36473131095897915
109891000.0 0.511830123980731 -0.8541204801161658 -0.8756742844176383 -1.574314045103345 -0.0019038914513319018 -0.0005218881921123582 0.4321200512079823 -0.38309788902186703
110890000.0 0.49319245073891443 -0.8655460514953225 -0.9619691252864501 -1.5722924040062085 0.0003723656423723372 0.0005126222283569418 0.4214137604225146 -0.398496296523011
111889000.0 0.49301074118957955 -0.8600913398637969 -1.0008393043817982 -1.6406570096472202 0.0015476404841587744 0.0007935470554880757 0.4123893135512993 -0.39851076016424963
