! Created with skrf 1.9.0 (http://scikit-rf.org).
# Hz S RI R 50.0 
!freq ReS11 ImS11 ReS21 ImS21 ReS12 ImS12 ReS22 ImS22
1000000.0 0.9798292900828581 0.0035966058367409097 0.0013554493227468372 -0.031153372839671234 -0.01612491023686883 0.00977105368990586 0.32888587952324716 0.30986806487636015
1999000.0 0.9917057583590324 -0.00898950181581643 0.007516476944225979 -0.02144531366471051 -0.010796000106754532 -0.0023324745716633423 0.26721803015703255 -0.056663968148685386
2998000.0 1.0005222091017316 -0.023063401012877183 0.011341188861744065 -0.017380505256241904 -0.0017054489546250008 -0.002660111651579402 0.18406479912530402 -0.152167157497804
3997000.0 0.9987111422127222 -0.02857012467595889 0.012851218842838791 -0.008326835731528827 5.1156658948556666e-05 -0.004648264487566304 0.10564200665103649 -0.22795608215343227
4996000.0 0.9986403462245069 -0.03834151523136263 0.011177131276176184 0.0012793896182258827 -0.0010553152603249613 -0.0062917424374274306 -0.031229532713540883 -0.19772170364606886
5995000.0 0.9963325468020107 -0.0486333669344335 0.008484787457218609 0.00365525752064417 -0.000918756100978755 -0.006854691735578948 -0.10869950012899798 -0.11091421933956874
6994000.0 0.9988774632829016 -0.054966575537551576 0.009984309644662667 0.0017492048648446129 0.005804671044383685 -0.004328675643322518 -0.1559490518570537 -0.017041296860742943
7993000.0 0.9993741046708894 -0.06837917862820629 0.0006959461675641554 0.002681291237245362 -0.001190381547480158 -4.846344645559453e-05 -0.16040714249714585 0.02793560845838777
8992000.0 1.0018110214336482 -0.07065624640688432 0.0030106356865887843 0.00485940979459832 0.0040792690555703235 -0.0008665558885192601 -0.15508052153517737 0.06256932770829002
9991000.0 0.9990054716909634 -0.08092788885023278 0.006709662468498333 0.0051320688878097554 -0.0017257612901747453 -0.0012336710640743743 -0.14286177491337013 0.08144941821898771
10990000.0 0.9967828897373407 -0.09426999670561285 0.003699691662247461 0.0012988658605093198 0.0021938927298566437 0.003195801196942977 -0.13077737907672457 0.11168815763017442
11989000.0 0.9955494488744144 -0.09848079217212787 0.0033049532465556893 0.003203042430421584 -0.00013670034974236608 0.00017417969798261447 -0.12407658467533743 0.12664217037110434
12988000.0 0.9918979126676869 -0.1105660946922058 -0.0032911377851629485 -0.005344799478004083 0.0015563143985264122 -0.0002459161735538583 -0.1027072835930871 0.16381840252221114
13987000.0 0.9934868666223682 -0.1178611096751971 0.0006918778801996464 -0.004437390393423418 0.0015084385746103742 0.0022015274284749265 -0.07951310571926079 0.19609548879797736
14986000.0 0.9900918438321339 -0.12611540661665924 0.0005221669741305991 -0.005263616240900955 -0.0004918518724622146 -0.0007542707394930638 -0.09352113662013306 0.20571390398638204
15985000.0 0.9946563717209325 -0.132543139448823 -0.0042980230024730936 -0.003399983782786643 0.0006220568804677171 0.00031621165228968434 -0.07764095771671323 0.21604063276798544
16984000.0 0.9890608163286833 -0.14651423693019974 -0.0019619584408930805 -0.0073482760006145925 -0.0004815691124121564 0.0014465096123201422 -0.0568011385368371 0.21629062789200795
17983000.0 0.9892287487459255 -0.15020676870091626 -0.003454768597180826 -0.0038680558386395138 0.0057492930444991075 -0.002187348588742587 -0.04981995940315907 0.21845334104626915
18982000.0 0.9871002531780476 -0.16007119609984255 -0.004837089770834381 -0.007186206913872533 -0.0023829802264566822 -0.0011433254524921856 -0.02079982172501788 0.23584458378444367
19981000.0 0.9861194026378984 -0.16535743703285427 -0.0033277632052982433 -0.001550657621031529 -0.0010742214337896932 -9.177846740421275e-05 -0.010898263023705022 0.2442682827506423
20980000.0 0.9853524549187528 -0.1768047937092978 -0.004859101055032087 -0.0057751719182883255 -0.002959366188569052 0.005723177137434616 -0.007627897813200959 0.25936870401850987
21979000.0 0.9821381226405693 -0.18824479626554858 -0.007613675983107398 -0.004077679221267115 -0.0015336662493431752 0.0002495398076973646 0.017760096975885178 0.23683387996039998
22978000.0 0.978708242569751 -0.1947530631005051 -0.005554315261962966 -0.005381680844608427 -0.000257026660929721 -0.0003673971869248841 0.04405310141675963 0.2518554529539805
23977000.0 0.9812708657494611 -0.2003598812170319 -0.004390481006576192 -0.005257833122959847 0.003429531166630671 0.0011292609273807661 0.04907075134826406 0.2618793241096304
24976000.0 0.9799854531191542 -0.20862021343783071 -0.004639432060743059 -0.004193462416518051 -0.000454494025561202 0.004708854606285182 0.07085389685829506 0.2547045536115012
25975000.0 0.981017948346966 -0.2214700056285493 -0.0019102559642479114 -0.002300357792704275 0.010987011426904008 0.028488390905684384 0.0839315597613492 0.25512947522565294
26974000.0 0.9740416287374241 -0.229086455331925 -0.006033084412191232 -0.0031390998945358827 0.004917766024879319 -0.00038214552721661967 0.09361717026018737 0.2537040722904642
27973000.0 0.9727183024016491 -0.236660466427863 -0.006624562622435343 0.0009343919755287708 -0.004275204715232957 0.00011093531096491835 0.1052884155365506 0.24893981947812735
28972000.0 0.9688273841103574 -0.24551602333632339 -0.0009713954243568663 -0.0036342343334653786 -0.002110217569692048 -0.0013112886080352355 0.11550920255844041 0.25547732797513206
29971000.0 0.9682518456489183 -0.2513450907148645 -0.001461961619522158 -0.0025255476014409525 0.0025964478377183222 0.0014109521720483118 0.15380862827691133 0.2700724341127301
30970000.0 0.9672397371656379 -0.25615075944597077 0.0004502194827781705 0.0007239743624742224 0.002403096676784056 -0.00048820088239415047 0.17080060716255832 0.25135704317743207
31969000.0 0.9647787326448451 -0.26671118882830247 0.005582126041719159 -0.006880461833631576 8.424849023077589e-05 0.0015004518397718851 0.14750418279833893 0.24214049292713147
32968000.0 0.9604619957697674 -0.2760061568279868 0.004802353610302766 -0.003311304254038275 -0.0007073023718393664 -2.9864577092210855e-05 0.17508962488064844 0.24375920010566537
33967000.0 0.9599845419840181 -0.28565913729431996 0.011517375419780039 -0.011866078965683929 0.00037422443989833855 -0.00011260584233411167 0.19735326071851836 0.24485803958369123
34966000.0 0.9561037231323991 -0.2930990790114575 0.009035507123706226 -0.009731327533561599 0.000765807351443879 0.0014075376734508783 0.19517625645471776 0.24228275472745112
35965000.0 0.953104809781052 -0.3007783172873746 0.016395263685189048 -0.012617806677197162 -0.0017255331866691823 0.0015375794888405924 0.21684715410237304 0.24888609934205178
36964000.0 0.9511742940399174 -0.3102435280189818 0.018426801640605603 -0.012423145819709864 0.0012538737964373793 0.001959535162074851 0.222762805419942 0.24433801475299957
37963000.0 0.9466951989823272 -0.3195561612984673 0.01773848646784462 -0.022153905059607286 0.0019118327852112812 -0.0008820313906813498 0.23922415196962077 0.23840294411859886
38962000.0 0.9467423537319789 -0.3267146951394022 0.02552738797945885 -0.022779995099783932 -0.00021733641251400242 -0.0024968050795958303 0.24533636075671025 0.23177217416388302
39961000.0 0.9418541139364143 -0.3365334468266889 0.0274107323691938 -0.02813876025919463 -0.0020049179854453136 -0.0014123162493357875 0.2563738875028032 0.22755733932286162
40960000.0 0.938778073662967 -0.3444899585091691 0.024396996098732398 -0.02254280449896233 0.0015563531257658575 0.0038476529878770055 0.2726725594294711 0.21588953723416415
41959000.0 0.9367353402525674 -0.35408554961605926 0.028843264312038392 -0.0337649552024861 0.0003988190008028981 -0.0007893155099822745 0.27689979442061424 0.20619757483981618
42958000.0 0.9310646384812729 -0.362604586010349 0.02872261593475487 -0.04166117259661045 0.0033106346269321622 -0.0017203472163949184 0.2941130582155221 0.18880751236408183
43957000.0 0.9308862805323808 -0.36558945214761024 0.032246301992027986 -0.04763881222794007 0.0007052014586332784 -0.003936818394865389 0.291183992449422 0.20000687485737828
44956000.0 0.9268466016599372 -0.3738409094379932 0.035675228211794544 -0.051410453336227055 0.0007002452785343388 4.222540438238979e-05 0.31243933667039286 0.19317458256966646
45955000.0 0.921687442466302 -0.3851292507326953 0.03688588946912998 -0.059076096506464656 -0.0018411675945029773 0.0018359483167976489 0.31448173599119683 0.18912917107882427
46954000.0 0.9197775834588746 -0.39262337024501337 0.036111485819285374 -0.06538503795306348 0.0010666305314807763 -0.0011531236987908265 0.33335607419517277 0.1775296700531561
47953000.0 0.9174716583484486 -0.40031291089265114 0.04127821303878327 -0.07170309325576424 -0.003807649964477841 -0.0014973878534340717 0.3441646866329871 0.17455673360491658
48952000.0 0.911797367892684 -0.41013560318018416 0.039957325770305196 -0.07900668993126914 0.003618964974213247 0.0020760955904576524 0.341406264864846 0.15166120745937187
49951000.0 0.9069781984271006 -0.4181819634129753 0.038191118408942855 -0.08844701266998284 0.0009787313006263993 0.00043723426044988393 0.3572964178999849 0.14945139418834266
50950000.0 0.9038259736580881 -0.4259147664005193 0.03779847874090607 -0.09613107075869526 0.001488271715063449 -0.002650774119713353 0.3598422323639395 0.13141666525725185
51949000.0 0.9006271884295018 -0.4335327907431807 0.043335786344696245 -0.1048730280331737 -0.002978111486053382 0.005128082405454979 0.36376211690743043 0.13299806714018422
52948000.0 0.8994191900518334 -0.441425630572698 0.043019286510071954 -0.11062233245237756 -0.0009899555490999437 -0.0008863301121152485 0.3818232862877728 0.1345380450779835
53947000.0 0.8912800371640537 -0.4503451982000508 0.043062476064000335 -0.12042354382045646 -0.00040613609931443594 0.0026173238794107343 0.38532488154165856 0.13011581767758604
54946000.0 0.8875668169034281 -0.45783186755611105 0.044537149267732 -0.13076907166858592 0.003425670758475516 -0.0012795874346936144 0.3954903243391318 0.11358109101328603
55945000.0 0.885174213992407 -0.46783671950470557 0.04918611048830733 -0.14217312960750364 0.0012138999072593265 -0.003579766034136281 0.4022684795038002 0.09918691149093543
56944000.0 0.8816662039443517 -0.4724926457759496 0.045090440114958545 -0.15094635257891906 0.0025639884401326726 0.0015097751810339256 0.4003922371770549 0.0968673936606276
57943000.0 0.8765156278515088 -0.4836132813447901 0.048605169925635495 -0.16472004042331978 -0.0009130636345592635 -0.004712652981129145 0.4168165028246976 0.0832827322975708
58942000.0 0.8693518838513756 -0.48972177925947324 0.048797743891086806 -0.1716760860404847 -0.0007161483330138919 0.001161873288789455 0.425617587834482 0.07996342955874879
59941000.0 0.8700682908642371 -0.49613329323638944 0.05383769154831948 -0.1862933391540288 -0.0004933342079118302 -0.0014707921703724855 0.4243913185013362 0.07663440124811713
60940000.0 0.860571898460924 -0.5049020162876763 0.04868240911346963 -0.18858484391888117 0.0020489233770445937 -0.0016427223625129655 0.4189985618196009 0.07229055829128805
61939000.0 0.8577082574169651 -0.5128148269265945 0.05526434060889076 -0.19770939202937354 0.0017088507896783516 0.0005699640827979204 0.43404280390321026 0.05620367496925229
62938000.0 0.8520651145281454 -0.5226053781928948 0.05559041421322508 -0.2152560618447064 0.0001455920260829541 -0.0011362056466739196 0.45246351992758604 0.044330728762664286
63937000.0 0.8455695565115484 -0.5300117286682091 0.05681382216920695 -0.23487472729539405 -0.0026106806960672557 0.0037967991297910117 0.44436173408478546 0.032872663805759254
64936000.0 0.843831510465077 -0.5352607100285119 0.058155565145282355 -0.25210527842683667 0.0015025747172573215 -0.001392731860466716 0.4492190806807986 0.028924253710031985
65935000.0 0.8388522809521158 -0.5460383725988794 0.05743480036978921 -0.26620466996409453 -0.0011927688857495174 -0.0006048267651955018 0.4490362194272391 0.007359094735931472
66934000.0 0.8336671820988135 -0.5522222274387582 0.05515443313685792 -0.2812258308750494 -0.0011177628824743167 0.000764024700786373 0.4514250436447097 -0.0051294639702380174
67933000.0 0.8308973536165555 -0.5591944668556768 0.05716991279468296 -0.29296317526625826 0.0019237490959076568 0.0006311023504911657 0.44621143780568095 -0.00045591082120170735
68932000.0 0.8250573290329062 -0.5535650974854601 0.05302686077405279 -0.30737822036107115 0.0007510200823875188 0.001650339064124292 0.46209138666277716 -0.014795727953764768
69931000.0 0.8184051299184005 -0.574134454608192 0.05501248133261605 -0.3226766775827447 0.0009661004322453416 -0.0036671739199949827 0.45899117284748503 -0.01593531231981831
70930000.0 0.8110756279114248 -0.5814163057853537 0.0530824245646889 -0.3378293598823141 -0.0008478419353839923 0.0008062502304355183 0.4566230147440666 -0.03884086378866912
71929000.0 0.8084506849787835 -0.5920849048923099 0.04878744665813628 -0.35468488006655924 0.0007050538745867563 0.0003226557880562542 0.46013411210628674 -0.04122280655364356
72928000.0 0.8023183657846256 -0.6018356753879649 0.04025828269412059 -0.3715426782720395 0.0009122682712961233 -0.0029603698748275334 0.47276095319641487 -0.06062178200636501
73927000.0 0.7962107445921212 -0.6070478089838229 0.03553916853915539 -0.395473017362494 -7.918135989705375e-05 0.0004927329944272692 0.45879031288584976 -0.06534853679459145
74926000.0 0.7900898588553976 -0.6147041897285701 0.03239399068925615 -0.4138911657259483 -0.0014113899939097118 -0.0017074654638063822 0.4757794176794742 -0.07099017905725022
75925000.0 0.7862067754065658 -0.6204004496539389 0.022767533689281184 -0.4332596647035913 0.0013196530544883637 0.002213922030849219 0.4754802878330667 -0.08224951654073127
76924000.0 0.7788783140597907 -0.6296408042911275 0.00923120395286044 -0.45549500366334505 -0.00281231502757095 0.0014536860054697523 0.4766063655494633 -0.08928445221163323
77923000.0 0.7723493355624504 -0.6367463629116707 -0.0036653194130261144 -0.47887835661521655 -0.00022687812254884685 0.00250483572712224 0.47245435023074567 -0.09948478060509519
78922000.0 0.7661709415194726 -0.6455465836174529 -0.0201220157144852 -0.5060933681569796 0.002635718781850243 0.0009433096803287201 0.473407191135779 -0.1044761260094001
79921000.0 0.7590816481125892 -0.6480221536110284 -0.0393342461666432 -0.5322537117966036 -0.004548838045896055 -0.005512582723135188 0.4697508151605242 -0.1210241482887735
80920000.0 0.7553516757808997 -0.6582514604017119 -0.0464715288638663 -0.5620801656270259 -0.001149381578279495 -0.0015454930201109732 0.47485873662514266 -0.12763385403478722
81919000.0 0.7491835901515826 -0.6655337566521966 -0.07010915210118632 -0.5898846668643395 0.0018436003397196848 0.0011536114324959957 0.4793869053055234 -0.13914546276322884
82918000.0 0.7397466898085563 -0.6723516163669747 -0.08263683133236407 -0.624427773879691 0.0008471097844016375 -0.003984621988154838 0.4820217678876066 -0.1483412843665117
83917000.0 0.7328571326150811 -0.6797973903459774 -0.10314677166204143 -0.6534355691387627 -0.00046080276299973654 0.0007777601660806554 0.48179064473040434 -0.1599043408143172
84916000.0 0.7289852216492085 -0.6886457313329214 -0.11981629056999815 -0.6901585731373955 0.0017113328639999288 -0.00023966951231811054 0.4729806477649622 -0.17649752540145372
85915000.0 0.7208677206423192 -0.694784674163116 -0.14119307916272178 -0.7145565749033098 0.0014276831591986307 -0.0037239909752227675 0.46466901477741307 -0.18299645656620858
86914000.0 0.7121893500337788 -0.7049733381139061 -0.15732132310311792 -0.75352587972417 -0.0034027538035641355 -0.0047798555251314665 0.4646213159327142 -0.18007525798385784
87913000.0 0.7072015358792653 -0.7095324576078309 -0.17679490917396531 -0.7846538281708497 -0.0011127615044852189 -0.00223356087757549 0.46079012220466764 -0.18800339525553114
88912000.0 0.6995385204772634 -0.7187521287401388 -0.18622602471778732 -0.8218415808480427 0.001607323854417955 0.0005895497093706421 0.47485692652240774 -0.2110390461921505
89911000.0 0.6931837336870263 -0.726956409799593 -0.20944031909541297 -0.8564866819590434 0.0031985994520072527 0.0031377212860639655 0.4668321570270109 -0.21633744001098887
90910000.0 0.6830302276339006 -0.731984675897236 -0.23081597996277292 -0.8942454431054289 0.00272348856813307 -0.0034212366919943553 0.47108293495372444 -0.2159879879076266
91909000.0 0.6772896240084931 -0.7349777836563728 -0.24619418533745366 -0.9299468948676733 0.0014374021015794306 0.002101575354555491 0.4722115319196443 -0.225458064710719
92908000.0 0.6693498702804522 -0.7448591890804206 -0.267444755252885 -0.9603488640789473 0.002404541324438835 -0.00022105921964472714 0.46061944295190316 -0.2368406145252086
93907000.0 0.6634855975169172 -0.7515477921367474 -0.2857014967277089 -0.9932098269396789 0.0022857539879564113 -6.045077324040875e-05 0.4609509430477275 -0.2598258850469111
94906000.0 0.6490857932026085 -0.7608893142780627 -0.3052377037169176 -1.0307099234166823 0.0008671502802057972 -0.001432465471578288 0.46608553842230954 -0.2549675035109098
95905000.0 0.642944620703987 -0.7653173190675922 -0.32751260758744316 -1.062980766322361 0.003297208627780957 0.0009194994038295073 0.4629810188944388 -0.28156280876470047
96904000.0 0.6359070330599332 -0.7734485481697623 -0.3414401961748028 -1.109843762033698 -0.00037878070206172413 0.0014808026015460762 0.4625017018818757 -0.2764520527566553
97903000.0 0.6241960314823949 -0.7784922944523145 -0.37104253035728774 -1.138854030111876 -0.00627791355772756 0.0034391260602368873 0.4550299007743401 -0.29007043773761965
98902000.0 0.6209799480558204 -0.7861300984172979 -0.3893059269527184 -1.1805918596892344 -0.001235264908324449 0.0029824726912349407 0.4427672067803826 -0.29512492230392523
99901000.0 0.6116924699406475 -0.7920362047860628 -0.42024886920506843 -1.2093937254822604 -0.0005553490319002471 -0.0005130628053245123 0.45963095671994875 -0.3201171240807099
100900000.0 0.602355833756159 -0.7941236441366815 -0.45285454621670757 -1.2330644926344525 0.00042786934990994444 -0.0011529181009471755 0.46276061155528064 -0.3179302400181252
101899000.0 0.5926264160101956 -0.8036359127969024 -0.4811601803884915 -1.278134774402729 -0.0027800216903272495 -0.0017037381573205496 0.4460039261261608 -0.31838217330285634
102898000.0 0.5834447035071213 -0.8100377749058912 -0.5194407563967672 -1.3191654065790819 0.0008427605286870848 -0.001809384424983001 0.4562987163246163 -0.34832071072146614
103897000.0 0.5759040921538403 -0.8163583165286313 -0.5546306055394383 -1.3569753129718154 0.0007039181080862645 -0.004846278377856276 0.45323606431632507 -0.33976395881118415
104896000.0 0.569514933096667 -0.8272466549161133 -0.6035571419867849 -1.3934436257419043 0.0005453452294071806 0.0012129433040529262 0.4435217389078817 -0.34335721066861086
105895000.0 0.5553460213842628 -0.8273866853519399 -0.6512211144368062 -1.4339137173737773 0.002297693147895988 0.0033777208273200773 0.44069781746884185 -0.3629840655720294
106894000.0 0.5506952602119113 -0.8342331179413434 -0.7040663687033661 -1.4758407468293642 0.001060427663577235 0.0021152274354121186 0.43113146544821784 -0.373432041847606
107893000.0 0.5406119524311462 -0.8407657575380815 -0.7580111476641419 -1.5093282372409558 -0.00019712652702093554 0.00017495110479406631 0.43086634026605575 -0.38494807882458043
108892000.0 0.5332396469797963 -0.8433659464158262 -0.8168981230427527 -1.5446809997035724 -0.001964496553849887 0.000980433132300168 0.41824271479658603 -0.38154439624319153
109891000.0 0.5198664662697587 -0.8532770664492241 -0.8733442783654047 -1.5813693673352884 0.00045266940318573886 0.0003242192934473009 0.43583699364288253 -0.38998099383987167
110890000.0 0.498618113982786 -0.8556447334333622 -0.9448554724524844 -1.5784177518884512 -0.005528232467228653 -0.001670668625903714 0.41802653388538713 -0.3950780963553527
111889000.0 0.4993193148795566 -0.8582632329199534 -1.0006051028021172 -1.6529492490534499 -0.0012966365412017036 0.0019119810717212874 0.4073229469516746 -0.4062529569118276
