! Created with skrf 1.9.0 (http://scikit-rf.org).
# Hz S RI R 50.0 
!freq ReS11 ImS11 ReS21 ImS21 ReS12 ImS12 ReS22 ImS22
1000000.0 0.9733361476681525 -0.010316184291225905 0.0015391449446102562 -0.05564552722848335 -0.0055676550597067685 0.02194063268957898 0.39655096373992565 0.29407301239307254
1999000.0 0.9941581905149762 -0.013935729942428931 0.00510741936470388 -0.020495555974482563 -0.0036285817023855673 0.0015529115461006332 0.2561748518052832 -0.052935417340200366
2998000.0 0.9999448314530837 -0.018612162045933064 0.010328043662739445 -0.0127955411761499 -0.0027764471198034276 -0.004870854740539411 0.1990587201654694 -0.17067204333482786
3997000.0 0.9971549838374737 -0.030874240244055225 0.016567950067178906 -0.008598063193293395 -0.005938117421156437 -0.006854798072121339 0.08506888059648156 -0.25424422306056743
4996000.0 0.9964422237780766 -0.03996109133346434 0.013253735870435199 -0.005225056204371331 0.0018819848589545125 -0.0058732167032356265 -0.05371161468491412 -0.20237162197249722
5995000.0 0.994042351876916 -0.04781836012767014 0.007213135642169224 0.001733411857282618 -0.002468005926045458 -0.0019081477656105418 -0.11508671888637004 -0.10947386502709053
6994000.0 0.9959828460391225 -0.055878049427477205 0.002856189536021275 0.0012429949347936109 9.058473559256524e-05 -0.0036870316049258086 -0.1421237575818534 -0.018089657530604795
7993000.0 0.9971741996013698 -0.06854737174667973 0.006796360023070883 0.004848843030425294 -0.0008028660912780971 0.0035443613856343476 -0.16124710496468353 0.04426741350416051
8992000.0 0.9947773273736006 -0.06967943201323056 0.003942580004691669 0.00774964866188174 9.078212550854003e-05 0.001255371217908134 -0.1516633593076969 0.060408376297202596
9991000.0 0.9961420464353713 -0.08112498297910799 -0.0007623658324196142 0.0022632840505475995 -0.0024798143588016016 0.0029761212199575135 -0.14309878880481905 0.08883371211991423
10990000.0 0.9931265319047616 -0.09126011840240246 -0.0007270213660465544 0.004869058402442181 0.0030270128568852216 0.005711566302202187 -0.13721841758956518 0.1132036865398637
11989000.0 0.9943573140912516 -0.09641886791096467 0.0032683260279626697 0.003301918723627484 -0.0034165498703467834 0.004033750850007146 -0.12226230457500335 0.13923177519879976
12988000.0 0.9918539383778718 -0.10912349313188664 0.0008428551643835687 -0.0019089417278798605 0.0014817727441214748 -0.0017408239885694113 -0.1043514791466717 0.16727294358891923
13987000.0 0.9882065812730171 -0.11635895934003472 0.0035890699435602883 -0.003922099284596471 0.0003810472863448677 -0.002263220943622212 -0.08842193939982088 0.1907380933027653
14986000.0 0.9900122479335332 -0.12497333022126096 -0.0003635019202018276 -0.004532812847284739 -0.004226925692176673 -0.00020892738917086166 -0.0786924339144478 0.21502137224990048
15985000.0 0.9905861788679826 -0.1338777237061089 -0.0021260836390495845 -0.005368689623284781 0.00016757209043368824 0.0017385057314799638 -0.06186782170272351 0.21252581138217075
16984000.0 0.9863882272124149 -0.14442070990252515 -0.001878924465574442 -0.003562716937656681 0.0008500844176774226 0.000672272103844892 -0.04405822691417213 0.2091518824604247
17983000.0 0.9857229227296753 -0.14867933001351047 -0.002467332378303099 -0.0036815348978621915 0.0017069059694407814 -0.0020187169122953884 -0.05126484312615036 0.21599358400195873
18982000.0 0.9842941886623086 -0.1613877719364388 0.0012770746853756944 -0.000687187115484983 -0.004132728989188063 -0.000806616391378586 -0.019602383172193955 0.23399115017295097
19981000.0 0.9848525829075859 -0.16672921244118133 -0.00253657286749661 -0.002605622417538662 0.004036718012074391 -0.0028890932074777686 -0.005356473872534858 0.23372140313758272
20980000.0 0.9834123176707558 -0.1731239013638285 -0.0033093013305946785 -0.008372264302154124 -0.0028418799554905186 0.0005965742487990999 0.006589082352810347 0.2594643502899539
21979000.0 0.9805175008744325 -0.18246214349271817 -0.001996076292692133 -0.004531397798411924 4.806327201983336e-06 0.0038118278305583043 0.02074475042090294 0.24764290716793091
22978000.0 0.9785220854421496 -0.19347046319256686 -0.00510427962631519 -0.0038143666073391087 0.0034702980100349114 -0.0020588908999866246 0.031422377824527455 0.2559052053892078
23977000.0 0.9788703484180011 -0.19864658452895922 -0.002840869327568849 -0.001492993916993138 0.004183437383438491 0.003688246901015346 0.05162353523384654 0.26266708920374815
24976000.0 0.976425337209875 -0.2070086400722971 -0.007825944510931696 0.0001294010708728939 -0.003712069882092557 0.0020864556036641066 0.07289036855651876 0.2527852003396062
25975000.0 0.9752347948556771 -0.2165588439842748 -0.006776487051364118 -0.004284237013015786 -0.009949913591734045 0.02648120125537031 0.08122662852282352 0.2547712979024624
26974000.0 0.9711355205922624 -0.2264185671317515 -0.0051924160814380655 0.001623320716809643 0.00252576203903959 -3.276647953763447e-06 0.09293136063438955 0.2654036867818551
27973000.0 0.9701139646691604 -0.23067986219625436 0.0023774834766924417 0.0008124911557644304 0.0019691449964134864 -0.0025334811098565017 0.10318436955335772 0.2544516292989222
28972000.0 0.9673736374920486 -0.2450987958566966 -0.0020114316588640785 -0.004638210069134353 0.003250516728092975 -0.0013276546903798966 0.11644726093479882 0.25444250215281033
29971000.0 0.9664224267048143 -0.2500994184758893 -0.0003059785399720237 -0.00468996452098367 0.0009616383505246708 0.00020752978266309254 0.14732669438009538 0.26010274515282217
30970000.0 0.962793648711053 -0.2567743414004939 0.0013385654402018761 -0.0023253209069711554 -0.0033297324565789662 -3.858755925949756e-05 0.16379354724262785 0.25415953515396
31969000.0 0.9618860048212537 -0.2656596210755541 0.006320398406792516 -0.00452753855222842 0.0008941541587008159 -0.002007713785307566 0.15046775315709904 0.2428390712897212
32968000.0 0.9603950870444719 -0.2729498300747617 0.009558259349559834 -0.009739768440094047 0.0015600459533459288 0.0016225922152990231 0.16499411314619772 0.24951015166341367
33967000.0 0.9570559700940572 -0.28392019373993677 0.0132902743219311 -0.010525775163275098 -0.0013471814585518643 -0.0038466327364506834 0.1903814579884688 0.2474592698105789
34966000.0 0.9545371364053338 -0.2939751560780349 0.013894520971640503 -0.012564127133177309 -0.001886972972020371 0.0004809822876422865 0.20041548987117286 0.2550105392639641
35965000.0 0.9516415603588751 -0.29974868719433206 0.017134737278743373 -0.015583130715887681 0.00301238849900405 -0.000634717892109659 0.21424587801334388 0.25295955054571745
36964000.0 0.9503893229493964 -0.31032029641772996 0.018042970105925378 -0.016275612728456134 -0.002614143397630458 -0.0005421876648625327 0.21161516091748248 0.261269238661707
37963000.0 0.9452763175858971 -0.31865559892813156 0.02219063177205617 -0.0203869114913714 0.0020565384140033157 0.0018247216600700304 0.2318358648210576 0.23749960419898028
38962000.0 0.9432973114700793 -0.3269212086104542 0.028161510776273144 -0.02301886140402804 -0.00018377712121075637 -0.0013891946729960084 0.24294217151772649 0.23012519666314585
39961000.0 0.9403832509671599 -0.33665060964364135 0.0283432514141384 -0.02796868024621365 0.001620002963968531 9.237267552655527e-05 0.25612594972135866 0.2233138313569763
40960000.0 0.9374806688703017 -0.3433265407836856 0.02360112396848478 -0.02663739324904397 0.0007272138045012701 -0.0005564027199284603 0.2723278621252955 0.23066934131840336
41959000.0 0.9342604497846019 -0.3519516875840682 0.027951039721837927 -0.030043974464744817 0.0014961733402987182 -0.00175798854324463 0.2694365996854788 0.21913246642596587
42958000.0 0.9276358536960156 -0.363219530639067 0.03128585560022769 -0.040784163670004335 0.002113434044498116 3.052190002828831e-05 0.28654596751403644 0.20827304763325663
43957000.0 0.9286957086552774 -0.3655084592390059 0.03327509064867011 -0.04883356220595409 0.0002805701030672274 0.00037697718771013906 0.2940305394373109 0.20934448752045984
44956000.0 0.9244103137163501 -0.37458479790808286 0.03392060402133483 -0.05284199208884733 0.0016572833933702963 -0.0005313442045228648 0.30505067386876905 0.1918980936336
45955000.0 0.9201100879911197 -0.38688737554613223 0.03445339878598612 -0.05851411853855281 0.0016280436108988545 -0.002403492673841845 0.3051063141654152 0.1874617810258799
46954000.0 0.9174959449359038 -0.39382763502092244 0.0340378836634032 -0.06772949317104499 -0.00019663952804104993 0.0003355409916743305 0.3317638266545271 0.17333169997592734
47953000.0 0.9126213074439642 -0.40223873463935483 0.03360522137278805 -0.07347750215552995 -0.002847914476450135 -0.0011853114533006731 0.3380461457601226 0.17285984598722154
48952000.0 0.9095980774270985 -0.41024644743120703 0.0367371405441443 -0.08324189238796646 -0.0011786287051100495 -0.0010086246365673447 0.3372983894620092 0.16005084306974068
49951000.0 0.9063009659614825 -0.4150899890942733 0.037221498540683975 -0.08707886610214824 -0.0012013421179747261 0.00018186202683627788 0.3500524081405025 0.1537579388130417
50950000.0 0.9025545540530188 -0.4242283793785562 0.038238764966019925 -0.09754293217185696 -0.0012232645147086984 0.0013592964150818958 0.35739038400234463 0.13639481437230902
51949000.0 0.8985405428522284 -0.4353489458122332 0.039036913920614806 -0.10797844151956681 2.6584577323340933e-05 0.001959142847964267 0.36454715548290784 0.14135048501975733
52948000.0 0.896904570708005 -0.44106972812027057 0.03980281270391476 -0.11529790786769326 0.0009100583677422351 0.0028352289178481403 0.37650825739884647 0.13638718242006462
53947000.0 0.8888580566284128 -0.4511844259909258 0.04280391140814771 -0.12321711793952755 0.0002452885469945375 -0.0009329596909370247 0.3739822763953925 0.1254363444704932
54946000.0 0.8854217183636651 -0.4582217319616502 0.04253248008820574 -0.13539745351115873 -0.0027973342387579703 -0.002140092231720952 0.38803569387102155 0.11210457973871915
55945000.0 0.8830835256156093 -0.46508225547133664 0.042707079457069745 -0.14560416077848712 -0.0026723364768517794 0.0004126710816284789 0.3891470890318752 0.09383178386936776
56944000.0 0.8790724326286337 -0.47542495687161435 0.047270976387890115 -0.15590579877405308 0.0014846937086305239 -0.004088309401164856 0.4005244398972653 0.09996795316671178
57943000.0 0.8747034958452387 -0.4859035456509023 0.04724545163648228 -0.1672962179665303 0.001098501576022421 0.0017871797759252586 0.40595724242942616 0.0909619376547473
58942000.0 0.8663727905370328 -0.4908898751564089 0.04953423054060195 -0.17787724374329195 0.002550884639850289 -0.001371701808913243 0.42498186531741583 0.08435517228018581
59941000.0 0.8668442974820738 -0.49703813779307715 0.052876049779642866 -0.1888569657783126 0.001075679417349609 -0.0006523006297363248 0.41412271245506244 0.07265815457236502
60940000.0 0.8579008425405346 -0.5066650889663121 0.0512242325717258 -0.1902720437727985 -0.0004454215117502793 -0.001218186791213111 0.41192976592771996 0.0723267450143711
61939000.0 0.8540083529774097 -0.5122132522112368 0.05018603572673212 -0.20054021778943787 -0.0033136355459239403 0.002534265847713959 0.41403998375713985 0.06674344039377478
62938000.0 0.8491483262444965 -0.5235080919395327 0.05227225537184675 -0.21498295616299548 -0.0007698029058755526 -0.0015667908388762538 0.4479873583581327 0.05434793949490649
63937000.0 0.8456910575075334 -0.5292099191472038 0.05285016045779702 -0.2387630227313792 -0.005480197059863197 -0.0008329859127636978 0.4356745347634807 0.03815335306607572
64936000.0 0.837525145605942 -0.5381941113415731 0.05284657484088403 -0.2523639944638435 -0.001948331801144544 -0.0015821322663572908 0.4337514250141306 0.04352004503100858
65935000.0 0.834298675808151 -0.5498582109714883 0.05203760826864841 -0.26614824245853796 0.004223208078476795 -0.0015472252850791768 0.43967930153147794 0.01908513134180923
66934000.0 0.8300678809075664 -0.5510395597192838 0.054279804904304556 -0.2798417764307371 -0.004438334778641571 -0.0006555269604109948 0.4404429548247683 0.009680183945932019
67933000.0 0.8274751005804775 -0.5596002169721958 0.057102971886110306 -0.2935168922289382 -0.000999247039061579 0.0005636246171200004 0.4512179969578986 0.008241901746067511
68932000.0 0.8211755074583146 -0.5531202983588466 0.05363576306473144 -0.3045913292956712 0.00019045769077913818 0.0023958498368320327 0.4454491533793142 -0.005471387192681539
69931000.0 0.8120405517647014 -0.5774365045662416 0.04915546295973962 -0.32223664350475983 0.002838543612044776 0.001437119329151131 0.45181391296602236 -0.0216406542547024
70930000.0 0.8052696805294463 -0.5853493312108622 0.04659756532275742 -0.33659016265332437 -0.001468190602343043 0.0004362560251361262 0.4451171121831526 -0.037849424482028174
71929000.0 0.8017873742694548 -0.5929859084388879 0.04353836731553767 -0.35575166273660247 -0.0007679676517937665 0.0024563438238160732 0.4581262233681111 -0.04019093826015486
72928000.0 0.79823740052567 -0.5995648282871678 0.040595857136927635 -0.3718946792032365 0.0008910901733063459 7.230705912672946e-05 0.46440024178877726 -0.05736114100830972
73927000.0 0.7921902233632526 -0.6058165665023366 0.03383169557248702 -0.3935993318844597 -0.0006629954842097858 0.0017882051334750248 0.4593916306696943 -0.06292918139845133
74926000.0 0.7870339087817534 -0.6172153627905859 0.023357510226650953 -0.4121087839990013 0.00150418468527047 -0.0030119573275691966 0.46516557964419275 -0.06347253618725351
75925000.0 0.7797051774103946 -0.620122371434401 0.014800544104190355 -0.42866891135147633 -0.003500675380698251 -0.0004490114065390222 0.4692342087677313 -0.08220532027868475
76924000.0 0.7724455102293214 -0.6298547853152846 0.004803828597895017 -0.4506125943742497 -0.004173040962644806 -0.0038733427133018465 0.4672051359380793 -0.08168268012914895
77923000.0 0.769313674213702 -0.6358128008217622 -0.013357173521506092 -0.4754537175422718 0.0003017797574900094 -1.57380086386785e-05 0.4648307298933786 -0.09732919763251358
78922000.0 0.76138208627965 -0.6469296492312341 -0.02904567438489223 -0.502644729233568 -0.002312238629580598 0.0001632913867178499 0.471968160169334 -0.10510531189418493
79921000.0 0.7547014591986657 -0.6502986199688607 -0.0410643676989402 -0.5264717150192366 -0.004870665632374486 -0.0003064189835119414 0.4601383650920993 -0.12141079241718965
80920000.0 0.7483880588418275 -0.661152329948221 -0.05623549077179087 -0.554582785643285 5.36727894347502e-05 0.00278084088302141 0.4712617067432766 -0.1374152540383124
81919000.0 0.7442449207903624 -0.6657969940745806 -0.07965752312055267 -0.5852610064230305 -0.0037241340571001888 0.00022474726229141764 0.4694053328981482 -0.14108554324514846
82918000.0 0.7344462519297916 -0.673056717986145 -0.09386321391789533 -0.6142912153392749 0.0022649878148775027 -0.0008715201637119106 0.46513750565328926 -0.1520838528432138
83917000.0 0.7284054904385863 -0.682060354537575 -0.1109097619048467 -0.6431987202344313 -0.0011726599872496721 0.0016238884774218943 0.47906822056973175 -0.15361797408230207
84916000.0 0.7217040565125201 -0.689902621245472 -0.12648176009870105 -0.6809570529389755 0.0026562095193298275 -0.0013972170217334187 0.4741191715885029 -0.1689821264430996
85915000.0 0.7155033082006328 -0.6954128868305147 -0.15216609853249066 -0.7104016867085835 0.0015177518528709949 0.0014089620480008192 0.4683834545567293 -0.17362916041812865
86914000.0 0.709205345492516 -0.7042732996165914 -0.16712917203206312 -0.7466447037064395 -0.00047167273113454664 -0.0017009196772052692 0.46916999148081795 -0.1688917551892016
87913000.0 0.7014679247122908 -0.7105806822907811 -0.1853778298104716 -0.7759822173431296 0.0027540653053413156 -5.389673185125746e-05 0.4671209622314818 -0.1922868865365877
88912000.0 0.6955077888664566 -0.7174425777935768 -0.20223124477136972 -0.8120862077625887 0.0040230282421009084 -0.0018386510886131914 0.47149518754175146 -0.20418246271158702
89911000.0 0.6875784273857939 -0.7246989782348796 -0.21588335176819134 -0.8534680473376441 0.005006621778912938 -0.00322918527108846 0.4722701274414563 -0.2008547366691426
90910000.0 0.6792911803397572 -0.731328177357894 -0.2349476364612101 -0.8847960100759332 0.00359741275088145 -0.0016987240642009982 0.4609716431088628 -0.2080158668455733
91909000.0 0.6719219827842833 -0.7376841983858928 -0.25836463835156037 -0.9165453175563483 0.001952143784377478 -0.0007119987829634114 0.467087077637464 -0.22681907951954505
92908000.0 0.6628303387934348 -0.7442260072820489 -0.27453232415166734 -0.9470297157538847 0.0012186277268864888 -0.0022321667292931925 0.4613423130530397 -0.24255699518230997
93907000.0 0.6563948288811307 -0.751084324604176 -0.29179917584308135 -0.9805307453717595 -0.00029920919908575 -0.0014586309824827057 0.4565311087343662 -0.24471120461223328
94906000.0 0.6439790952500825 -0.7590208972952491 -0.3140265601570104 -1.0142292684698837 -0.0024000240446541985 0.003262647359121378 0.467947309540406 -0.2536414626729933
95905000.0 0.6391631961387978 -0.7650381896033929 -0.33073922979090015 -1.0519646232061808 0.0019127713470296513 -6.247231976926797e-06 0.46858872976440785 -0.25532107930952097
96904000.0 0.6305740590817871 -0.7736813754628703 -0.3509960664926749 -1.0911887276872272 -0.0030709862683961815 -0.0008820817224532523 0.45832364104411416 -0.2829152250146075
97903000.0 0.6199725220307671 -0.7798621360168797 -0.37787914612886087 -1.1212258838454112 -0.0031577371973260052 -0.0023661670532580128 0.45342319454060837 -0.2914870093307584
98902000.0 0.6151373964388526 -0.7877950079052481 -0.3980250289161584 -1.1665467097451743 0.0005431819844092714 -0.002403516076060696 0.4441268742056651 -0.2967422542094492
99901000.0 0.6060153737299775 -0.7918654663463458 -0.42518794742381844 -1.1923777205942419 3.646458031098794e-05 0.00029484398944328765 0.4614854427041602 -0.3115388472295956
100900000.0 0.597496605147477 -0.7945396192904668 -0.45481355460569456 -1.222381951263979 0.00040355655991007806 -0.0011118582282802713 0.45297467911749767 -0.32069138947499043
101899000.0 0.587908763561152 -0.8031302841089966 -0.4822782833975275 -1.2621618928010518 -0.0014014771472317218 0.0008117449285559072 0.4498470995619054 -0.31563196822999595
102898000.0 0.5771325194615096 -0.810746464946971 -0.524488089432055 -1.2959945267893351 0.0011955942152841374 -0.0011973539961427897 0.44692437733680207 -0.34504453405627483
103897000.0 0.5714171253779379 -0.818004646736077 -0.5607757086529803 -1.33594073836894 0.0014911279439444203 -0.0024044327648092153 0.46340510247352357 -0.3289785964641213
104896000.0 0.5626375672708261 -0.8247618723707871 -0.6014464804754153 -1.370258083436743 0.002284436381023294 0.0001956356151001829 0.4419617970327185 -0.34137088205881033
105895000.0 0.5533913559423875 -0.828776552615508 -0.6536892960661091 -1.4131207492488373 7.679364853323606e-06 0.0002958958962802451 0.44241632784897705 -0.3523490280980302
106894000.0 0.5415473882065819 -0.8345197235485988 -0.7101772251833351 -1.4458276855213066 -0.0022324842355232895 0.0003298613634013447 0.4320962959226056 -0.37363666871703594
107893000.0 0.5361005038683729 -0.8405220756441062 -0.7558497643356249 -1.4822315706912266 0.0008904868316730388 0.0014752136294845278 0.43902844037235755 -0.38863650990767096
108892000.0 0.5277046332118737 -0.8436552414017955 -0.8199679191546214 -1.5160416610968315 0.0023388949012036735 -0.0028874539605028265 0.4208219784176781 -0.38523441212024556
109891000.0 0.5139080335982901 -0.85313479171649 -0.8716261491202643 -1.553161052392758 1.915313995764491e-05 0.0032634982379363656 0.44819191784280826 -0.377307558472376
110890000.0 0.4951572780007319 -0.8607260780689208 -0.9468449420145333 -1.5513052822321902 -0.0016529101076793256 -0.00052582533604565 0.4206824799747939 -0.3810861155674097
111889000.0 0.491883724722489 -0.8593784311158448 -0.9996130365181379 -1.621798802756676 0.0014626841296814389 -0.0011633119559164048 0.42401631736737844 -0.39716076525282124
