! Created with skrf 1.9.0 (http://scikit-rf.org).
# Hz S RI R 50.0 
!freq ReS11 ImS11 ReS21 ImS21 ReS12 ImS12 ReS22 ImS22
1000000.0 0.9977120742665779 0.015652875068893173 -0.00212698267309679 -0.04995736759785533 -0.009397989730985056 0.0022656231312377195 0.32098354948865604 0.3264038816522614
1999000.0 0.9947496595778474 -0.013502518349056719 0.008983721673563027 -0.030099420867092344 -0.005296626853974481 -0.00620839681638959 0.26294826194901005 -0.042619727776638555
2998000.0 0.9966454479685901 -0.022807898948577047 0.0113583616094361 -0.018267926186332377 -0.00182162429275735 0.001830899048155382 0.1893686473933743 -0.15360913431304749
3997000.0 0.9980279601231422 -0.0301012805574725 0.013872384570890324 -0.007985779767575868 0.0026711324256563965 0.0028642518898845076 0.08793392024986092 -0.2395436228654211
4996000.0 0.9983880510359651 -0.03614189765033399 0.010405780490456065 -0.004635363657194972 0.0007782240268820906 0.0006068566996609851 -0.045290607224446174 -0.19474236171909526
5995000.0 0.9942838526640998 -0.050887665228369676 0.008080413577082453 0.002157554478269682 0.0010076188282679493 -0.003059877043695698 -0.11437988499358437 -0.09363827473370283
6994000.0 0.9943247800466337 -0.06081627211547444 0.010157149120175492 0.006529410467639344 0.0022885243825651893 -0.0008744404114229967 -0.1412190918276864 -0.018894938302452074
7993000.0 0.9963318409455216 -0.0690738801998828 0.0031543890267372167 0.010382996874968221 -0.0013815501879496696 0.005163175137517245 -0.1612132833660733 0.04008108110031668
8992000.0 0.9938227792202062 -0.07162026139100217 -0.0003235792883492287 0.00039589823766266846 0.003774473671686401 -0.0021259904013767746 -0.16429613869371892 0.06069676214868699
9991000.0 0.9920201196844797 -0.08556634937982732 0.0034589475705764532 0.0005542260770689616 -0.001637169460807408 0.0016868460928903917 -0.15454214826114 0.0992813876002538
10990000.0 0.9930419374743928 -0.09127250890659194 0.005150246323967951 0.002693955756476822 -0.0018415732748071204 -0.0009238489842394037 -0.13191444648304615 0.11684199657260036
11989000.0 0.9923619542498253 -0.09671077547754284 -0.000584213956814271 -0.0018676836392827383 -0.006127493326839316 -0.003912402094013298 -0.11809384465553296 0.14889307869566956
12988000.0 0.9891650237067181 -0.11141368876977217 0.0010484706008761187 -0.003507839600880073 0.0014274509897439583 0.00282810517350027 -0.11148893496658371 0.17570068970842678
13987000.0 0.9896760298732804 -0.11969674345721315 0.0005437751383948912 -0.0034271829544470804 0.0030145206943144117 -0.0032418002219369037 -0.08467678321724058 0.19580982982319975
14986000.0 0.987702891491761 -0.1262768073076542 0.0014860713538262529 -0.006388607415120842 -0.0007583362078451458 -0.003719186065982185 -0.0812300188915948 0.20705675785909805
15985000.0 0.988765918076904 -0.13434152570794058 0.0038906317105815266 0.00034974963047652093 -0.004376513101300905 0.0026593545812173187 -0.07391928639407518 0.21087147935697872
16984000.0 0.9862695769825935 -0.14422017567100676 -0.00299212958798871 -0.003972791505425689 0.0035345974453582165 0.003646406056882196 -0.06189621285648129 0.22319468692642563
17983000.0 0.984402274829756 -0.15185224856419358 -0.0039542368162271135 -0.002979947783971065 0.002213557072890421 0.0005140711074995295 -0.0429526893260436 0.22359904482566642
18982000.0 0.9825153852634974 -0.16314823465953096 -0.007020569923719142 -0.0025081747099973293 -0.00013109118822105854 -0.0014854490269836898 -0.01667383706936602 0.2345437374321136
19981000.0 0.9824617453094843 -0.16790489830687516 -0.004178991415588414 -0.0020655491504532964 -0.001693782717579718 0.006453059040503834 -0.009055538018099937 0.24496368295423968
20980000.0 0.9807250473212091 -0.17918467747497852 -0.005023865157490044 -0.009090887650645427 0.0046730621959107195 -0.000415353244570314 -0.005025257890538691 0.2557447531239236
21979000.0 0.9790657246463532 -0.18770195615579324 -0.006253590179090917 -0.010278279865720608 0.003742605218272454 -0.0013216825282418617 0.014256786240227224 0.24449073905745483
22978000.0 0.9774689256750188 -0.19447511792701075 -0.006998103052269965 -0.00359635154638834 0.001809151063206529 0.0031787622078096192 0.04245714748093871 0.25443467154368293
23977000.0 0.9782298301925266 -0.2033558912608642 -0.004513116525366217 0.0005373293306365945 -0.0016841570612614646 0.004008589477996363 0.04815745045877736 0.2554210416428537
24976000.0 0.972035984978544 -0.21400291593291831 -0.0036347850254397217 0.00030046375062420087 0.0009866748536290952 0.0021264055365136734 0.061686326089459946 0.26068789629208877
25975000.0 0.9647313157061294 -0.22285795207019318 -0.004515848777701498 0.0012274440647670594 -0.012109459057047332 -0.02371280273282124 0.07756248133088349 0.26639461333046194
26974000.0 0.9676048587878511 -0.23001952171531623 -0.002317634548827195 0.0012988354383379616 -0.004171857560130855 0.0027288305831031407 0.09472214905492417 0.2648017195722428
27973000.0 0.967464771737039 -0.2372192967378473 -0.0009808714712123245 -0.0007936931064874951 0.00033937961171601194 0.0010036773440506113 0.11442406176806331 0.2603368901606118
28972000.0 0.9641480885934867 -0.24760314603721417 -0.0017938909528008873 -0.00529033409927569 0.004560854349743757 0.002738082039607919 0.11810643481525904 0.26417473031353506
29971000.0 0.9638248200829281 -0.2567774342424019 -0.0012874302474160468 0.0024249649127643593 0.0005916053979144907 0.00038465797340811366 0.16710013907252888 0.267684209110178
30970000.0 0.9614342614054665 -0.2608780760273372 -0.00020975426838569015 -0.0024643334064565984 0.0019058073002323674 -0.0006793445931050125 0.1776081778953163 0.26246091432002916
31969000.0 0.9593346662927592 -0.2700024964217186 0.006014593797324022 -0.005343954027533488 -9.501604040704927e-05 -0.000765067754732459 0.16098240947023004 0.2452812827167193
32968000.0 0.9574670077478254 -0.2783379975289499 0.009472655692317894 -0.006791741714736905 0.00033114703438152514 -0.00020689075206330756 0.17415531984059124 0.24640074096524422
33967000.0 0.9562062462381026 -0.28769073331485184 0.007361562446299865 -0.00930437995943994 -0.004340665106190305 0.0010946686353421793 0.1870203539456898 0.24165187783261463
34966000.0 0.9521694216413018 -0.2997929417435789 0.013983903054575723 -0.008641452513589817 0.0016178129281991392 -0.00048822358088864033 0.20060672812466235 0.24745137885273102
35965000.0 0.9484382439571069 -0.30651156266862006 0.01295292658087784 -0.011886739095327545 -0.0028462205917247226 -0.001296457155575212 0.21646430169316527 0.2481456351066654
36964000.0 0.9449576804699902 -0.31621327070946276 0.01705098489334221 -0.014361565701796438 -0.00280501921346718 0.0006287740797305215 0.2159513666348178 0.25013140791502875
37963000.0 0.9441070179471076 -0.3250259220616406 0.021673510893392953 -0.020841482933658468 0.0037402570574656424 0.0032601216443836046 0.22763462613483207 0.24322060318454772
38962000.0 0.9408603667399843 -0.3357523919064494 0.02442681617821856 -0.02681104518767443 -0.0008054163621267755 0.0046104339582861914 0.24932402082666413 0.23919507232555012
39961000.0 0.9384699376064942 -0.3392792106537961 0.02830078077272626 -0.02850624285615499 -0.0005779902731789597 0.0030865377770749078 0.25696066016343805 0.2325705671067818
40960000.0 0.9343836007369757 -0.34784443600380294 0.02402220410587595 -0.024148877530759824 -0.00022373138977510557 0.0010175516828693763 0.2707739439745129 0.2214455790538329
41959000.0 0.9309769660216733 -0.35941752086129575 0.028175106243411952 -0.03334665697521191 0.002480946293750933 -0.0008860914937090357 0.28044847804833256 0.21652635794603378
42958000.0 0.9259829344604747 -0.368459608783606 0.03086478402137656 -0.04226859758134611 0.0013075966109961565 0.0020834353979452703 0.28092277708822944 0.20276994938608867
43957000.0 0.925347374472535 -0.37293142810547086 0.031892421229487856 -0.04834635223779465 -0.0011436647206617342 0.0004987636166188524 0.2947786231409559 0.2116964821817366
44956000.0 0.9212755997395782 -0.38084645138491224 0.033548729959152895 -0.05590734833184129 -0.001380568109900553 0.003444943540150639 0.3020716616312976 0.1921780592167244
45955000.0 0.9173642619660145 -0.3934454536839249 0.031528084565239936 -0.0603708852567782 0.0023650931632561633 3.0404985101076445e-05 0.3158119842232249 0.19592550974028253
46954000.0 0.9138020751960151 -0.4002901761328354 0.036738690108813206 -0.06581196992636364 -0.00043343692626626545 -0.0028215311930683755 0.33134070263695903 0.1895687045744796
47953000.0 0.9096067119019507 -0.4105962325240231 0.03465980914050254 -0.0725941811563016 -0.000613831229632623 -0.0028106025120697344 0.34040012605136816 0.1721079579369085
48952000.0 0.9036410422873261 -0.42020336944612297 0.03570295265703663 -0.08235550484860985 -0.001845514069837692 -0.00020948332781183023 0.3402915716500057 0.15586986544540626
49951000.0 0.8999429146068864 -0.42648344074988703 0.03602156017049761 -0.08784533305949281 0.0008971298293744231 0.001338478855496275 0.3617344297796419 0.14806781309250608
50950000.0 0.8973545980398687 -0.4346096415655152 0.0384608690878588 -0.09690301569758594 0.006034674568647738 0.002067298453783642 0.36882835516841084 0.14540502471291897
51949000.0 0.8935470034015284 -0.442434406051506 0.036270054331708886 -0.10453913769787317 0.001237353145177759 -0.002798346383173232 0.3697092392007253 0.15556921034260252
52948000.0 0.8908898997236759 -0.45011882046670587 0.038287837137681906 -0.1144318464849639 0.002062471664817193 0.0033856418010218088 0.3769614341145343 0.13827261479885886
53947000.0 0.884734491777336 -0.4589583508309866 0.040950588455235803 -0.12360729911044861 0.003861372641201343 -0.0027485586708458245 0.3815819536047729 0.1355630293522718
54946000.0 0.8802113817824302 -0.4660854970717979 0.04153713314815723 -0.1323998819999182 -0.0004960965825256691 -0.003466518751629991 0.3920012182052221 0.12550525817917685
55945000.0 0.8770983029472088 -0.4753631407830505 0.0447537293902406 -0.14269031552167483 -0.0017890595367244422 0.0015061390960184665 0.39605586078611293 0.11476089988724883
56944000.0 0.8720167932088545 -0.48407543365238637 0.04501610253918427 -0.15471923540782398 0.0022197889134798875 0.0002920715549326577 0.40577604494979014 0.10813123919361087
57943000.0 0.8670144858094445 -0.49418508096216784 0.04293466048336523 -0.1656996005575697 0.0009042005266366222 0.0023221784953207313 0.40645072015966055 0.09811632529555564
58942000.0 0.8621962358599595 -0.5011481975872178 0.04849608749568603 -0.17330561923841584 0.0014983775864956914 0.0025869913774087742 0.42261607482582864 0.09663966606430101
59941000.0 0.857967785524176 -0.5058771934093703 0.04692589332612851 -0.18312853710111596 0.0009244673194076314 0.00026921239845755337 0.4201981228135761 0.09432537992283298
60940000.0 0.8518610686808572 -0.5160047850436155 0.04537351156755675 -0.1865810850697058 0.001995274723302772 -0.001079435826276416 0.4182287157603271 0.08504621149885243
61939000.0 0.847683443029665 -0.5218870277736101 0.04598283240144241 -0.19467047745095006 0.003210281099461352 0.0031185593483275594 0.42589695554011636 0.0654540813391351
62938000.0 0.8424714087978271 -0.5322337698269478 0.052266254653614015 -0.21313250312914164 -1.9346112118991975e-05 0.0003262196812493205 0.4469701278975656 0.057218788686880545
63937000.0 0.8380008215002024 -0.5389138428960475 0.052050129907652135 -0.23469811632436793 0.0026606723736114966 0.001804557315798134 0.43722157204632034 0.04520229862279491
64936000.0 0.8296759756810628 -0.5459423914321697 0.053030318866600167 -0.25024366877686777 -0.00189071133287005 0.0005931283586381267 0.437984944626416 0.04324754627265358
65935000.0 0.8291144328493036 -0.5558832673241546 0.05083797795919761 -0.2612582897417423 -0.003713870158122108 -0.00022575961331538076 0.45355212794437 0.023983827333897742
66934000.0 0.8230384692859606 -0.5617684385896229 0.05026267695598749 -0.27330640776033416 -0.003442584574754356 0.002663352260096919 0.4370379709163647 0.011413266997521711
67933000.0 0.818806576771632 -0.5713881371673036 0.050079998408408107 -0.2877309888569075 0.0030046327719706503 0.0012641344530151708 0.4469265514669391 0.014866031439473407
68932000.0 0.8034317564581583 -0.5737779374806585 0.045263337170860944 -0.29774649782163176 -0.0006125437378479562 0.003452026277646834 0.4586583790007822 -0.0015171814871199304
69931000.0 0.8043849824869519 -0.5872733783507184 0.04771356893757295 -0.3177450397408738 0.0002216988366449288 0.0001962804345427357 0.46720200407535795 -0.016297025287432647
70930000.0 0.7983238444060172 -0.5958831358326877 0.046044909761805454 -0.3274943795146219 0.0011731235376151122 0.0029531192579192274 0.4533444489631637 -0.01709829086591351
71929000.0 0.7962018721829688 -0.6011839096194569 0.04219973078795551 -0.34818886065241106 -0.0010351964179174872 -0.0005279282550117992 0.4644200917778898 -0.03060263341456753
72928000.0 0.7883366979624878 -0.6114331931017494 0.034358359582303 -0.36442114942894804 -0.00377529667092142 -0.0018588162012231461 0.46534021713835366 -0.03891693427892153
73927000.0 0.7813932953947113 -0.6175101312093542 0.022193796678379105 -0.38613894324846176 -0.0006320089656971828 -0.0019507833120465678 0.463239151392715 -0.042534537663024716
74926000.0 0.7777812436552608 -0.62643249022706 0.02027932995937044 -0.40333846554753366 -0.00021266151263736718 -0.0009113281193635951 0.4737512607645229 -0.05082694492604316
75925000.0 0.7702429637979292 -0.6301659577641289 0.010685088340197789 -0.42102774620156824 0.00024564188635462024 -0.0005932281441175425 0.4716570300036996 -0.07379378446108627
76924000.0 0.7635831343752131 -0.6412983203796228 -0.004612341682630115 -0.4468942009522642 -0.0007954227003477153 0.00321748320808556 0.47687846888173785 -0.07519975509939754
77923000.0 0.7585687946207297 -0.647554929691415 -0.018807408582528305 -0.47211050524474646 0.0023269688122518058 -0.0023012735663774132 0.4667832960749977 -0.09527027117816485
78922000.0 0.7514936828781101 -0.6563302536774412 -0.03527186339885851 -0.4967814253391649 -0.0002806174793903058 -0.0009101210573932631 0.4559510856509878 -0.09878918104066645
79921000.0 0.7420384675838789 -0.6601882750290017 -0.05073148058345821 -0.5214527813166789 -0.0009854866184935483 0.000624866280468991 0.45985477851746653 -0.11396077633840418
80920000.0 0.7366459786248005 -0.6713449163290879 -0.06504816442038282 -0.5477976299789356 -0.0035531448008351693 -0.0007298197813035787 0.48345404462368424 -0.13133759241740614
81919000.0 0.7317097238138647 -0.6773052451127468 -0.08157538191601849 -0.577203806867432 0.004026960022565537 -0.000927774162799857 0.4748863821608617 -0.12578572863472254
82918000.0 0.7245720657103122 -0.6836037847008244 -0.09959466715035636 -0.6077009848603256 -0.0025538342437359685 0.0019978060304297646 0.48156687462177294 -0.14204030494200434
83917000.0 0.7152789207072553 -0.6928807034323182 -0.12281535710826191 -0.6352398413673139 0.006678150327798267 -0.0013304301888591946 0.47431311602740234 -0.13718643515441312
84916000.0 0.709993578081904 -0.6991426269220431 -0.13364773388820125 -0.6725924034417491 0.0017927697310411413 0.001225431806165759 0.4700480258118217 -0.16664420198257426
85915000.0 0.7032859692385075 -0.7060228511579871 -0.1549309382046216 -0.6994381955941752 -0.00013000350205433705 0.0026913206381445165 0.47396082562317005 -0.16335704284971306
86914000.0 0.6951823042435654 -0.7167130382542284 -0.16958733160193315 -0.7372071257062943 -0.000697973711584979 0.002079031636227859 0.4744757746844841 -0.16488570763580052
87913000.0 0.6891734752056179 -0.721241287771999 -0.1875085738887222 -0.766121141540434 0.0006754701232395872 -0.001424865915591603 0.466998884916435 -0.17617955220685036
88912000.0 0.6815428235648379 -0.728703254338327 -0.20428717131612237 -0.8002454208832795 -0.0010004836426004222 -0.0041590299055776206 0.47274274537896327 -0.20237166979733287
89911000.0 0.6732254835271714 -0.7377714145422052 -0.21969504672704837 -0.8383611118775728 0.0026944666253494254 0.0012858453356753604 0.47869462667460927 -0.214202863850735
90910000.0 0.6663309423582812 -0.7438043943570949 -0.23889602272884422 -0.869831958009327 0.0015654256370920586 -0.00016091578303858897 0.4636645965571791 -0.2110987496989698
91909000.0 0.6580583103670025 -0.7477235245503019 -0.2553471775826939 -0.9015124357115393 0.000493115848043591 0.0008641490261206398 0.4759381725248385 -0.21988228346939873
92908000.0 0.6503636401459086 -0.7564028544771385 -0.2746758290883581 -0.9359823050654447 0.0010814744174011076 0.00019477428519415742 0.4633591361987921 -0.23972457195103963
93907000.0 0.6426268945235779 -0.7617541137604589 -0.294663239517952 -0.9630969032121255 0.0027273900662136818 0.005968916355630973 0.47975442630091286 -0.24553686855680543
94906000.0 0.6283303149320623 -0.7708277682221726 -0.31345712691859623 -0.992934458349059 0.0007637077317532001 0.0007649077526848464 0.4743383671786334 -0.24528619576182425
95905000.0 0.6231318803758549 -0.7763024214313976 -0.3346588802208168 -1.028512777034563 -0.000854590448344244 0.002905980852331065 0.47088913457235665 -0.26221014785415336
96904000.0 0.616517642588413 -0.7849799768900007 -0.3479065888076352 -1.0699912260688098 -0.0011490777925744974 0.002809602306828516 0.4616424158335536 -0.27601493498606255
97903000.0 0.6064185170879359 -0.7913087205142306 -0.37549978668818085 -1.1007417275628877 -0.0028563112995431154 0.0025909450021376983 0.45216616694260653 -0.26814116551255407
98902000.0 0.5990940721018075 -0.7964958665796542 -0.3956464647398972 -1.1401281954586604 0.001596816732296233 0.002524656310066537 0.4489882463013938 -0.2920645503449519
99901000.0 0.5896588880744377 -0.8037957006944102 -0.4260883360570802 -1.1678808660994102 0.00037791387384379085 -0.0016829888426193977 0.4604980783999685 -0.30794322828719006
100900000.0 0.5798205399634213 -0.8076516802889268 -0.46033201100458804 -1.1957302031752282 0.001009638377389356 -0.0001280346422207219 0.46920042233905235 -0.29912457324140873
101899000.0 0.5715292980310409 -0.8150734705719146 -0.4831962681965313 -1.2337408308887023 0.002113239102719901 5.500729370355092e-05 0.45858376009466684 -0.3133251250274019
102898000.0 0.5617449666927746 -0.8211239345143544 -0.5213924599572632 -1.267980730905921 0.002493073443426155 0.0005454576327857683 0.4541648406587701 -0.32822503932727914
103897000.0 0.5544838438081987 -0.8290721302791967 -0.5595513945070033 -1.3050638236152543 0.0015228140692480907 0.000899777503497432 0.46596861707245507 -0.32982228335814995
104896000.0 0.545377120707527 -0.8375287780188616 -0.6061716936593806 -1.3390968849814855 0.0018397224888347494 -0.000922560337146398 0.4472303079057111 -0.3323511931790871
105895000.0 0.5346629123180168 -0.8391553195425842 -0.6490087556894765 -1.3763630090435435 -0.0012232264913734536 -0.0004657385915963909 0.43738619929371153 -0.35281239445405216
106894000.0 0.5238763633765421 -0.8475502844937103 -0.7086218391718611 -1.415076920717983 -3.0080924517523813e-05 -0.0022575525867339547 0.4377382756050684 -0.3550575283630826
107893000.0 0.5167933225854111 -0.852207846641376 -0.7561319365792152 -1.4504522105033193 -0.0004980214239151442 0.0013549671403106174 0.43603638630290126 -0.38094267663902803
108892000.0 0.5081637568261 -0.8534509140614849 -0.8197923271129519 -1.4846156558391572 0.001258733717131125 -0.0014696732017211382 0.44033757537553025 -0.35476612944501795
109891000.0 0.4950933472729651 -0.8641549461983372 -0.8718087459330475 -1.5208102089066364 -0.0003391014742376207 -0.0008934922757309501 0.4491426470422299 -0.36586308709256105
110890000.0 0.48978173574716233 -0.8735577944071571 -0.9441819288555472 -1.5407110901212524 0.00021263120672798363 0.001179540143372154 0.4293068088767924 -0.3772850944259862
111889000.0 0.47389624178127554 -0.8702049111902224 -1.0040783382849157 -1.5854434671368771 -0.0011655122642315818 -0.00012561338592495544 0.42399880845958543 -0.3902937114262178
