! Created with skrf 1.9.0 (http://scikit-rf.org).
# Hz S RI R 50.0 
!freq ReS11 ImS11 ReS21 ImS21 ReS12 ImS12 ReS22 ImS22
1000000.0 0.981845365328913 0.009001796888303036 0.0049536451779136305 -0.051113262803094785 -0.003072019716387331 0.0036669157066160523 0.32562898027979054 0.345018024575447
1999000.0 0.9950038380826001 -0.014638511825147896 0.01099544693680001 -0.028762213824912976 0.001408631057145821 -0.0002697872588619523 0.2678059285968323 -0.06546711930693444
2998000.0 0.9998257969349175 -0.02240765394563457 0.01578008580850047 -0.011827913097261162 -0.00395495453142819 0.000688015822100499 0.19523378212211956 -0.12592538204545078
3997000.0 0.9960282886640757 -0.03445683247953639 0.005450063740531825 -0.011204480233448595 0.003345240295164711 0.0019002562149632136 0.07570207383380184 -0.22589406080307117
4996000.0 0.9940799204433407 -0.04042971907349211 0.009894270138615017 0.00359698557713416 -0.002201198439639503 -0.0026013615134826253 -0.04713918134957339 -0.1984846204947427
5995000.0 0.9932156499969138 -0.05325220901350389 0.008528887465406799 0.0005964654702719828 0.00434377862445314 -0.00664842639657265 -0.1076353362930443 -0.09128724584701446
6994000.0 0.989437736245408 -0.05991605498338847 0.0033244287809863615 0.0009502228332478297 -0.0010060384584045523 -0.0046830347424625185 -0.13651947923347427 -0.008057277044578093
7993000.0 0.9908285720721329 -0.0692594407215222 0.004977912137839266 0.005561420029601478 0.003353435921932803 -0.0005197392710693417 -0.1479827758746739 0.045256655484868076
8992000.0 0.9907196552000576 -0.0701992918890153 0.003438856322129256 0.007242091257382197 0.003684855046914574 -0.0034847348676374495 -0.14327743645773386 0.07106174793135922
9991000.0 0.9871915633777663 -0.0831997192433467 0.003729684292491528 0.005266230665299609 -0.0006593982798104933 -0.002562819127492021 -0.12791049652516115 0.08628444258600006
10990000.0 0.9862015996483282 -0.09566021348020544 0.0014656390185336765 0.004381945215934544 0.0013709895041233203 -0.0016629738991588813 -0.1406370443213346 0.11154540484286644
11989000.0 0.9860235801482072 -0.10043762585660794 0.0011537958230167654 -0.0041217735044018445 0.0007845363974282226 -0.0006530545373170192 -0.12126446706608449 0.14265688381980907
12988000.0 0.9842647304857769 -0.11045158100616329 0.0030023173996439495 0.0007616920655594324 -0.0028650303836290046 -0.003976215245957221 -0.0983186892628393 0.16504825437452297
13987000.0 0.9844286268525406 -0.11911432476080007 -0.0015068148461875614 -0.0036854979482030315 0.0004613123745695922 -0.0010602898648001708 -0.0921550424841512 0.18964023627201135
14986000.0 0.9842413313029669 -0.12418792936498858 0.001198614731112492 -0.004498460428731159 0.002476717829869766 -0.0012570183760411762 -0.09107176976714261 0.2015079678366108
15985000.0 0.9839306404795818 -0.13371251095705258 0.0010738778993947971 -0.009142571017420232 -0.004299281113835328 -0.000856859923336281 -0.06545670680826039 0.21614043538675828
16984000.0 0.9812598868415265 -0.144587323720839 -0.0023877406617447716 -0.003921081673346098 0.003004399233442041 0.005587025129905259 -0.05674566338712236 0.21489661091968248
17983000.0 0.9817063642160878 -0.1499024611493427 -0.0014270535043474663 -0.0015715083027873623 0.0052091365398562245 -0.00044610053843356537 -0.06026912169700118 0.2323889611046791
18982000.0 0.9778509078168953 -0.16089531762818224 -0.0033698192152122677 -0.005706306401209645 0.0016207114933240098 0.001627909051976632 -0.023095321230434247 0.23465424471309498
19981000.0 0.9779666809999246 -0.16631993841687054 -0.0028858449783631217 -0.00534644147067527 0.00118045217951758 -0.000527447530220964 -0.01663146129855879 0.2554755934138612
20980000.0 0.9766048222908238 -0.17555805291500742 -0.004094084665684877 -0.004837732807525023 5.937714389758632e-05 0.0009362769300725375 -0.0018871748130394207 0.2663122035382732
21979000.0 0.9741966504194671 -0.18354671294112165 -0.005935917534576661 0.002488242793701077 -0.0014360897389899014 0.00026414071299956217 0.015697918721571214 0.24347074004705563
22978000.0 0.9728359658361169 -0.19190672482409157 -0.010243562045292672 -0.005546605178588019 0.0016246936663504546 -0.0004053690824677165 0.027413195377497136 0.25417089976855173
23977000.0 0.9735922060232375 -0.2010301459901123 -0.008413118523341413 -0.0002740245758899992 0.002353253454052053 0.002292026581497711 0.04380667544403613 0.2610144543695442
24976000.0 0.9686325834896822 -0.21110306295291872 -0.0007380661136398201 -0.0034561219186181225 0.003896527594747854 -0.0018695324947880687 0.06804587728884157 0.24553554156576177
25975000.0 0.9682760214672842 -0.2160706626210216 -0.00765723220920154 -0.0010952606445935665 -0.01851704220527298 0.016671648426239655 0.07721835222968171 0.2568771119266425
26974000.0 0.9675014842797123 -0.2265399443399634 -0.005655358644717623 -0.001081094638642541 -0.0015756183213843245 7.66745421052068e-05 0.09044410118372999 0.2627824170932241
27973000.0 0.9648329888633861 -0.23507864288774763 -0.006317319580333895 -0.002464002550978791 -0.00270098252442145 4.116071702401824e-05 0.10360350759814999 0.25588707752905404
28972000.0 0.9643235059322995 -0.2421815822630579 -0.0007550684085551996 0.0018208935723514755 0.002261094485575997 0.0006537756074669801 0.11461871101248114 0.24550657586068309
29971000.0 0.961617680040634 -0.25362419609191256 -0.002058162867026015 0.0012839152692040294 0.0015411100389174696 0.0010479357888118885 0.15479292206944978 0.2616057110523416
30970000.0 0.9577139927211676 -0.25788243153630946 -0.0014502593322910996 -0.00031885553798322855 -0.003860069472027552 0.0024559912117352815 0.17236481927569078 0.2533329003308857
31969000.0 0.9578124248557685 -0.267034599185036 0.0019258443262753222 -0.002273258624827618 0.001400175499179152 -0.001141564230912309 0.15032466048418425 0.24543706638222912
32968000.0 0.95451791166192 -0.27627880295919743 0.005167951863372354 -0.006046772812324456 0.0010691228439216954 0.0026590327001947125 0.16348085291010753 0.24540806893984515
33967000.0 0.9531893337360765 -0.28677503524500614 0.010700659292705675 -0.010299208042438588 0.003189359764104887 0.0029318091025182427 0.18488838902608962 0.24433064426169987
34966000.0 0.9504158755075655 -0.29387462027910455 0.014725849694528493 -0.012106317596369058 0.0017544774055812552 0.0018226882876138937 0.1969433766295272 0.25794444727064825
35965000.0 0.9454674780981736 -0.30180003688482177 0.018831091124095763 -0.016711486293145852 -0.0011144574215087167 0.0012911538085929738 0.21484885614956883 0.250414084069211
36964000.0 0.9457617439985854 -0.3115514669982386 0.017411059500870314 -0.013481045669648684 0.0008909637092958317 0.002215142328217041 0.21122032835822777 0.2539148008136635
37963000.0 0.940491611605997 -0.3208389768758688 0.020242894287921344 -0.019840990725718346 -0.0015948505044898367 0.002243891114008992 0.23153742276945813 0.2390901190205844
38962000.0 0.939598233999453 -0.3292695349787301 0.023483160495589902 -0.026034647832808608 -3.429449314083452e-05 0.0012879717924819524 0.24411299710147663 0.22924337569957054
39961000.0 0.9358041578502027 -0.3400734337275895 0.029139089351434954 -0.02643824407064679 0.0014016743795807229 0.0036364319799120394 0.2503990905227473 0.23024872024482784
40960000.0 0.9313725289013444 -0.34693442314638395 0.023823208667738013 -0.0268994279021583 -0.0013569534521150864 0.0001536540143860539 0.2706464508290615 0.2263942207359375
41959000.0 0.928066784098851 -0.35757410794605476 0.0298623397126814 -0.03130949638503327 -0.0008636070869181794 -0.0023746541331968107 0.27439708364539095 0.2161561110283591
42958000.0 0.9222553211467822 -0.3661643935467312 0.032173429577336286 -0.0394340425882534 0.0013647102414271926 0.0017731077405910038 0.28893285489719756 0.20103793711873139
43957000.0 0.9230827649292773 -0.3712504517175981 0.0319914766256869 -0.046824042992442756 0.0010434569373250855 -0.00014764148390324688 0.2943470506202467 0.2076384914031161
44956000.0 0.920151736648466 -0.3798340992957478 0.03282522226528316 -0.052967073299312654 0.004798812384987921 -0.0020938478791656615 0.2895807462577817 0.19832420753348862
45955000.0 0.9142166514062383 -0.3902691506813785 0.03698980339987528 -0.05639549333881721 0.000260757941127818 0.0006752745669761164 0.3061702253170411 0.18454864658759298
46954000.0 0.910172205075559 -0.4013557895283121 0.03681630382691169 -0.06434898728437402 0.0005158232766306661 -0.001380431167067378 0.319458959278238 0.1843606392179879
47953000.0 0.9092595046125762 -0.405623321797074 0.03415842702361772 -0.07311677751379762 0.003352895759835759 0.002863755917492863 0.33633165330802034 0.17528922726480828
48952000.0 0.9022183048516149 -0.4170854345223271 0.03798699940359514 -0.07940705057059645 0.0006628947625351435 0.003335864085553318 0.34303259957338517 0.1652942265867916
49951000.0 0.899102511967592 -0.42424466621816953 0.04032166433373149 -0.08760869410382675 0.0030570777663135825 0.0026073143029583454 0.35207832277929846 0.1508923554621509
50950000.0 0.8954626075883988 -0.43154663109678565 0.035779265714710275 -0.09459320402796471 -0.000613974087415038 0.0025077043902509465 0.350476066270953 0.1535522714395282
51949000.0 0.8895399446463157 -0.44157415194237715 0.03950868778763631 -0.10289374539567057 -0.001715717288564433 0.003020418040126418 0.3668116191309995 0.13834083099538816
52948000.0 0.8901492948196678 -0.44686872441025477 0.043211050925829136 -0.11000549366506839 -0.0013353174950214938 0.0023527033478297943 0.36841908127934136 0.14554919016362153
53947000.0 0.8833639116877645 -0.4564034365040335 0.042897220896589 -0.12222552547548833 0.002264474826983349 -0.0010298374312767687 0.3736095550233026 0.13073472883778745
54946000.0 0.8772770704225774 -0.46694942811270274 0.0433968002938893 -0.12906839895672484 0.0004515998564061302 0.002446835331993954 0.3792170346615721 0.12378511018488471
55945000.0 0.8751348550597795 -0.4746926324733707 0.0442880748374362 -0.14196062117645036 -0.000379358643119986 -0.0005056002005895202 0.3904595916192335 0.10950477836926287
56944000.0 0.8713423193492084 -0.4829405177908997 0.04614886845882272 -0.14905241066893307 0.001254979395473661 0.00621235443975443 0.40184563540657553 0.10042207342599324
57943000.0 0.8644965476211768 -0.4922506507411306 0.04755183953555401 -0.1595700871600781 -0.0022146273940656792 -0.0006124269431000384 0.39886654635225066 0.09637246351519653
58942000.0 0.8589558205629058 -0.49750175401811925 0.050572728406317595 -0.17332364750209603 -0.0009009985718027601 -0.0004669442978840051 0.4248591956548663 0.08260619905909031
59941000.0 0.8566884228323605 -0.5054729507807542 0.050250999962146256 -0.1826484257607888 -0.00011481030635261902 0.002783217811780362 0.4210850900531537 0.09346846795774195
60940000.0 0.8499706330127946 -0.5124639238510639 0.051178923865542625 -0.1852381550415977 -0.00122038082252534 0.0014817179277151148 0.4098749156727958 0.08057425064732848
61939000.0 0.8460007200654557 -0.5204382471050054 0.0561932841891669 -0.190617931966868 -0.0002170827022674674 0.0002555037075137151 0.4075751480209018 0.07240277939264489
62938000.0 0.8397523305166826 -0.5318183106821354 0.05334550742434668 -0.21171212707088596 -0.004432379009223662 -0.0016707437615306134 0.4435528357906202 0.0594317910514995
63937000.0 0.8337873559459167 -0.5386271496403772 0.05756708405727093 -0.2306528497186911 -0.0013582728360086195 -0.0007830764258213255 0.42742158319952533 0.0436926467779336
64936000.0 0.8300974833084176 -0.5440222239082069 0.05310349374636496 -0.24267332793401458 0.002814596867977506 -0.0035690644524820807 0.43469843590648605 0.03701695564865781
65935000.0 0.8251169206792486 -0.5540216386151308 0.053857079392713524 -0.2572813036097395 0.0013380422125328386 -0.0015976203353676448 0.43230358443295375 0.017045167198406944
66934000.0 0.8201634860039071 -0.560074888434501 0.0543965900174887 -0.2719018447357782 -0.00018618755116398222 -0.002026939461797653 0.42546492691377225 0.009087640887404705
67933000.0 0.8167167508887634 -0.5691503865602671 0.057334912338476825 -0.2846119425351459 -0.0032178495545940153 -0.0033761419126865947 0.44361609575604677 0.01722215550161874
68932000.0 0.8001843262859349 -0.5731929603216741 0.04617829999845908 -0.2950750601348957 0.00018399953278772207 -0.0007776284734286034 0.4508228176700783 -0.014092086700392019
69931000.0 0.8017803548203754 -0.5843237290972471 0.048719712875330556 -0.3150629908717229 -0.0077484624629626546 0.0014846851046800157 0.4488824590651808 -0.02272543201539363
70930000.0 0.7960348973620645 -0.5917586427208035 0.04809020567189313 -0.3289733624760446 -0.002797568319250724 -0.0013695172266257485 0.45277411776160265 -0.024178891728165657
71929000.0 0.7925650260673796 -0.6001842725195438 0.0440194629849997 -0.34807781552176265 -0.0020814757634215275 0.002457860722679129 0.45429922299202863 -0.037617347472131156
72928000.0 0.7847965391762534 -0.6092957037407825 0.03689892990775946 -0.36340375439504524 -0.0003797632913449615 -0.0010732353496190116 0.4628106556915706 -0.04366074087035726
73927000.0 0.7798505583633443 -0.615316707526604 0.03183479889688773 -0.38361799618966014 0.003725502706063576 0.002921671706423049 0.4555285133532879 -0.056189992194637335
74926000.0 0.7761777002897664 -0.6244665048062141 0.02374832738927891 -0.4043650627038167 0.003264413862072884 0.003063352071882434 0.4642670270347303 -0.06423761646958132
75925000.0 0.7659432430078509 -0.6278226852389267 0.014386650596953158 -0.4204643022297626 0.0031002251481735527 -0.002415881789560961 0.46996724490051356 -0.081982611196648
76924000.0 0.7616712225038959 -0.637715983433394 0.0019378126515663644 -0.446038833079237 0.0008741398069569725 0.004082062916870982 0.46719491907835947 -0.08600169285174045
77923000.0 0.753668273411196 -0.6434065636426058 -0.013543372519441568 -0.46520811983631544 -0.0006300214440749747 -0.0005659531026911005 0.4531140496771618 -0.08852753138522824
78922000.0 0.7498390670172673 -0.6519972112874978 -0.023663100952947276 -0.4948009689563074 -0.00039343220588156514 0.0016197794537748545 0.45762267252476085 -0.09920886821396303
79921000.0 0.7409350476143799 -0.6557748453681924 -0.04162694048293364 -0.5225545799361826 -0.0038654183264617563 -0.00017576059194993957 0.4579733570372172 -0.11351539760782046
80920000.0 0.7365998227938274 -0.667566939140265 -0.05842354650282459 -0.5454648459241276 -0.0019607186068252326 0.0017196849085949785 0.469637008773263 -0.12477707069210307
81919000.0 0.7289801981563094 -0.6737239333859143 -0.07054189271599584 -0.5748010798598459 -0.0010792767676486644 0.0012362590258104694 0.46031665302908803 -0.1298481198057876
82918000.0 0.7212756520457996 -0.6801290286011227 -0.08889557924791873 -0.6084493157068852 0.005368256779581877 -0.002030548171817948 0.4758939993476692 -0.14665825460873538
83917000.0 0.7139809224906747 -0.687255028216866 -0.10634292222745051 -0.6360998303773759 0.002975828070669212 0.0026080251774699484 0.4736439073300876 -0.13905760182775848
84916000.0 0.706552629564033 -0.6963951462037558 -0.12371392476633374 -0.6705204998893846 0.0013306100477323403 0.00021247505439403656 0.47012728690097655 -0.1724838939847047
85915000.0 0.7017518528987644 -0.6999772008988228 -0.14221634615992865 -0.6986860798204866 -0.0024158407477149198 -0.0014538137958418939 0.47097957723533673 -0.1715688488660557
86914000.0 0.6908527056156888 -0.7122402510111897 -0.15550539457432022 -0.7373711670131162 0.0009326378521279701 0.00220107514521384 0.45609362685721944 -0.1750911284138277
87913000.0 0.6873587413057737 -0.716326824945529 -0.17617338473282387 -0.7611129698381053 0.002855181620772339 -0.0007619791238635356 0.461489045937816 -0.18597732360802577
88912000.0 0.678089566915408 -0.724185855140429 -0.18908580084013696 -0.8011183817368343 0.0016218766612787637 0.004146854420461279 0.4650638563297295 -0.20999972564201297
89911000.0 0.6696726945517933 -0.7315893491513805 -0.20564540971265802 -0.8337894009545294 0.000812130878752368 -0.0014612616331396327 0.4695689023936019 -0.20519167767204385
90910000.0 0.6656184136079676 -0.7372558773662048 -0.2189908317281344 -0.8694420667100368 0.001260584839991723 -0.0006304745786374277 0.4719635372987784 -0.20669241249360026
91909000.0 0.655143962867362 -0.7434328579760574 -0.24315650759819757 -0.9009530920523264 -0.002654166095595322 0.0003124119931697342 0.47921882910400626 -0.21640351796859772
92908000.0 0.6478421267677091 -0.7517958593302383 -0.2595679609464568 -0.9287335534345137 -0.0015766869301591967 -0.0011244024004515324 0.46121225737267024 -0.23718826828113934
93907000.0 0.6407588917832003 -0.7556109061486374 -0.28126237800703335 -0.961265510363723 -0.0015059086968588283 -0.001258367748523835 0.4692558089266318 -0.24298662185727912
94906000.0 0.63076787624774 -0.7633289899328569 -0.2946553995534887 -0.9969635401412501 -0.0016988246883462657 0.0027340057454155456 0.4632539735706365 -0.2512839870505401
95905000.0 0.6227448602732996 -0.7728602544627253 -0.31295203310358993 -1.0366645031235175 0.00014680795218565809 -0.003970771039175647 0.471418129305068 -0.2629497319080402
96904000.0 0.6147169522548653 -0.7796746961884102 -0.3342172039721556 -1.0722697676695145 0.0014130259340501496 -0.00018663114429993277 0.4553052839647285 -0.2744531396482793
97903000.0 0.6053834087247966 -0.784107613677323 -0.3577116508950999 -1.1028656263379968 -0.0006143870279039065 -0.0014508352996737445 0.44472429814014613 -0.2756012736704139
98902000.0 0.6022270879581296 -0.7919946374537338 -0.37439675760509367 -1.1403287638636468 0.0021490535709609597 0.0016526934536204671 0.4544836459029042 -0.28945019761057966
99901000.0 0.5907519146764892 -0.7977049950828076 -0.40995347956768274 -1.173405764928036 -0.004615395548903225 -0.00042644752717455444 0.4649114571368717 -0.30897832882561627
100900000.0 0.5814670525235583 -0.8021664089748246 -0.4371855908874927 -1.204460783440189 -0.00021332900489381366 0.0021453895505592117 0.4661453410989905 -0.31012999679603037
101899000.0 0.5744250040102775 -0.8086295975221244 -0.46567131269570256 -1.2402353312308358 -0.0006066565467063241 0.003651650329560918 0.4568430482311624 -0.3169838602198222
102898000.0 0.5638131077453509 -0.8143339299056189 -0.5042317883847383 -1.2778322692213278 0.001457541096175477 -0.001599221100367172 0.4602237456150092 -0.3254210395535164
103897000.0 0.5558103061534352 -0.8225107533926986 -0.5414995691083558 -1.3096341544322463 0.0012726062962230764 0.0031516675001042518 0.46132128738115613 -0.3299038660791849
104896000.0 0.548574080127269 -0.8316934775580007 -0.5847352901033183 -1.3451828123209826 -0.002049251115746452 0.001360987687347656 0.4340386045820853 -0.33682075293609237
105895000.0 0.5374092705961374 -0.8324038849388724 -0.6268045226298679 -1.3821705433942455 -0.0007670385775621786 -0.0007342165350061179 0.44289444878308687 -0.3467017567162382
106894000.0 0.5264401781620878 -0.8405925519790604 -0.6860206280561472 -1.4201662307992151 -0.0006433348374695694 0.0009978246063221748 0.4275876501238407 -0.3598808405383259
107893000.0 0.5188473176115808 -0.8471787271923602 -0.7397285961120339 -1.4592786085522254 -0.003466163731265888 0.0009099212404142107 0.44317114566715987 -0.37860565956289793
108892000.0 0.5091035401145195 -0.8483309563106038 -0.7933520894464284 -1.4945655018750388 -0.0003188532254028801 -0.0011239445376401722 0.4402850829564298 -0.36386593370367853
109891000.0 0.49650749484790374 -0.8578378196651502 -0.8561256065983972 -1.5312449604901648 0.003051529795660434 0.00010117254260711913 0.4545026996214985 -0.3682017348530149
110890000.0 0.4784193030044597 -0.8647904409200687 -0.9265746307898646 -1.5346734121879566 -0.00031530338101178377 0.0005236648899664153 0.44191105723776525 -0.3742400137612233
111889000.0 0.4791244278303483 -0.8634723714290119 -0.9742400350381147 -1.6048107193775012 -0.0031286086452293384 0.000486554624580062 0.41986510762547485 -0.3938715151399608
112888000.0 0.46646969263332705 -0.8720341507209276 -1.0555543882885197 -1.6537481051130034 -0.0038941568691293546 0.005410568495787912 0.4240090975728021 -0.4071703057352021
