! Created with skrf 1.9.0 (http://scikit-rf.org).
# Hz S RI R 50.0 
!freq ReS11 ImS11 ReS21 ImS21 ReS12 ImS12 ReS22 ImS22
1000000.0 0.9725053934084185 -0.0035662700144121775 -0.0016759987546375195 -0.050592925137165706 -0.003969725733614568 0.004363968241575354 0.3765402170892223 0.282874461483184
1999000.0 0.9951531280738771 -0.0092035276534425 0.014332128137812924 -0.02633748035977077 -0.0007327231199570804 0.0009943815114881016 0.2633724906261305 -0.05513082270018106
2998000.0 0.9957036512999103 -0.022068712262308988 0.012197769022522264 -0.02050975885385287 -0.0035462552712790434 -0.0005426189078216862 0.18539753969744135 -0.14560683337719993
3997000.0 0.9959240305068761 -0.03089003448005383 0.01626569364167974 -0.003486698836710656 -0.002131558229329601 0.002176938340646619 0.09114667361873531 -0.22500497532163535
4996000.0 0.9970503245403944 -0.03716577618971607 0.009842074125555189 -0.0005953534779213609 0.0015641594710559756 0.0012763429210074738 -0.03165266594939441 -0.20335449977452194
5995000.0 0.996209186920663 -0.04660647088636544 0.012364988303207189 -0.00036386402427065383 -0.0014370037117453513 -0.0038170520333537616 -0.1401096295455647 -0.11459697415553617
6994000.0 0.9952531434747146 -0.057775133626319364 0.0020387320347882007 0.0032477688358053384 0.005353163537237093 -0.002142329502339744 -0.15220037963471478 -0.031152352874360925
7993000.0 0.9960907082698134 -0.06730482535139212 -0.00023040900024244598 0.006758065816224068 -0.0009199630087292699 -0.004724230739948123 -0.16130067720650174 0.03300641345199345
8992000.0 0.994113919522094 -0.07249889996172004 0.00022820703981742217 0.010512322682079436 0.0028948063203965385 -0.0038639134055374813 -0.16646632903929223 0.049321102252809515
9991000.0 0.9930798583902394 -0.08229010502260879 0.0020389775990326564 0.005612512768345656 0.0030940119877951424 -0.0003377117863148288 -0.15567090154400487 0.0828643431111159
10990000.0 0.9936991650327797 -0.09143176134777531 0.005166427215708879 0.0007100997490624827 -0.0006062170304516764 0.001008698810438156 -0.1367549116485138 0.11557099645675459
11989000.0 0.9941655629839836 -0.09918397198004805 0.002974178492170827 -0.0040189533410713366 -0.00039965111805904106 -0.00135755197530082 -0.13666963394527235 0.1351587456854541
12988000.0 0.9896406937286305 -0.11092010692527811 0.0003846223876528581 -0.004693624601423213 -0.0030940808664032342 -0.0030171020441074597 -0.12182516410560858 0.17106049991930208
13987000.0 0.9895289379285793 -0.11562614089356221 -0.0025294197600149253 -0.003137232698071031 0.0007351403049082882 -0.003231569143507276 -0.1006760519613227 0.1903743412168012
14986000.0 0.9867138533605995 -0.12324132408927384 -0.000610994496716257 -0.00414443632435081 0.0018620747997816955 0.001588846471663628 -0.09630235486697095 0.20060604763038922
15985000.0 0.9895514003747586 -0.13558898244457052 -0.0006602401340970908 -0.006439811741072285 -0.0021523141747008937 -0.0006906412997805814 -0.0764900536295168 0.2138236514798203
16984000.0 0.9859924369468793 -0.1416751522058618 -0.0010566591669828125 -0.006141963192443535 0.0007464796329485904 0.0016178997930245674 -0.07234776097097781 0.22718436895283148
17983000.0 0.9871494022941663 -0.1463511899721706 -0.0040758517069732075 -0.004971259577588319 0.0005662273415859535 -0.0002762888144143804 -0.07171694694543317 0.23287633246911535
18982000.0 0.9830782868043695 -0.159364180902692 -0.006217095955275303 -0.002860672190464939 -0.005121893616011493 0.0002015942458620964 -0.04018932311459032 0.24034980584598162
19981000.0 0.9821324634634304 -0.1639271349601814 -0.006984947204879014 -0.004207337547802986 0.0004629721219151163 0.0013248636761514047 -0.01825767734646968 0.24291550782350685
20980000.0 0.9826237430393228 -0.17360208025363902 -0.004629428395351546 -0.0018023796621169483 -0.0038890123702382284 0.0017716677550077033 -0.009261421181544757 0.2594123727198269
21979000.0 0.9800812401703434 -0.1824523150611184 -0.005583384360310543 -0.006176699127652214 0.00218489740164264 -0.003455857831985459 0.006446726354043537 0.24132401628158784
22978000.0 0.9768676624102268 -0.19213761157612816 -0.0041130211198598604 -0.002136760051593708 -0.004448854686557813 -3.8025747426053023e-06 0.028460569621727213 0.25317743986046
23977000.0 0.9820147124857254 -0.19799618495207968 -0.0068814897165971915 -0.0029021437922968425 0.0027175561234952005 -0.0032851469264941163 0.03233366603509655 0.2538339214404191
24976000.0 0.9755847078922383 -0.2088199468796408 -0.006499017834246049 0.00030227013208682335 -0.001066108702497434 -0.0012243858601597936 0.05061342683691332 0.25384037462914444
25975000.0 0.9687999434946452 -0.2229148732448608 -1.5380787711550174e-05 -0.0017257859054313376 0.010989740275348985 -0.024871740932640246 0.06670947477413704 0.2656900267445482
26974000.0 0.9695201522269161 -0.22620365076606821 -0.005174985098766041 -0.00472996406312452 -0.0011577955141594994 -0.0034114662686141484 0.07883217637685085 0.2657703208255186
27973000.0 0.9703682909778455 -0.2316970874066727 -0.004236220863330108 -0.0030127337355443013 0.0018408672978084168 -0.002681554709260943 0.0966736655616863 0.2581250253479256
28972000.0 0.9663467974203417 -0.24236431940458786 0.00092113116372824 -0.00028804390348982986 -0.0036224391712522683 0.0034490454550610344 0.11920868166620728 0.24857196720749677
29971000.0 0.9652478556440665 -0.2519710348423634 0.00343706198354375 -0.00016665668346124907 0.0017647696739363338 -0.0009883754015831464 0.14918524681724976 0.26994982547332064
30970000.0 0.963068917834291 -0.2564399585214588 0.0009519295022332758 -0.0025900236905136427 -0.004585365847297737 -0.00034668563704817924 0.164457644610102 0.2515086712029973
31969000.0 0.9620466725543995 -0.2656452377683595 0.0054911127425333675 -0.0038875764258066593 0.0010467419868523118 0.002244933851644737 0.14667802315993503 0.24380023545290835
32968000.0 0.9600925555053279 -0.27325545184725714 0.008865605973835742 -0.007025510471367046 0.002096454963518203 0.001071868486914272 0.15868164336721785 0.24566265555692238
33967000.0 0.9569815974516779 -0.28318303791511706 0.012884530813240109 -0.009727021105285328 0.00047412509294287686 0.004851814143295053 0.1810409670594294 0.2476660334547041
34966000.0 0.9548021951535053 -0.29404028564135154 0.011880879361393691 -0.01428528141024913 -0.0009223891839933093 8.341227857550077e-05 0.18926951973156073 0.24319137251470155
35965000.0 0.9501358946065859 -0.30059824039595234 0.017517581627683004 -0.01652269933205416 -0.0010285623426513715 6.56862423477156e-05 0.21243326826915604 0.2443438419901037
36964000.0 0.9476961704304436 -0.30870734275762113 0.01959928397364015 -0.010590177432442406 0.0020608862263260244 -0.0002514627774615529 0.20746488462701995 0.24668658994095582
37963000.0 0.9457823242858251 -0.3170713971671087 0.02236232187576734 -0.01937982787603072 0.0006739331800336013 -0.0011611307154260444 0.2169979104978843 0.22996917781640255
38962000.0 0.9439819142612379 -0.3270785617748264 0.02371316365604768 -0.02584777952903304 0.003644379643929913 -0.0007957720532402999 0.23492934250632366 0.23806220247352677
39961000.0 0.9418100009076227 -0.3332130229018427 0.026498245213394604 -0.02893542094010056 0.003519542180388601 0.00043695303815679415 0.2501039674175707 0.22381915217869702
40960000.0 0.9381514761002664 -0.34270774626187145 0.023074722307562377 -0.022647734910115916 0.001388381904735245 -0.0004310073111209751 0.2650851250309688 0.22513490084239635
41959000.0 0.9348293593038914 -0.352274549720067 0.030285725675771355 -0.03067242557382647 0.0008074257943930625 0.0011804540046036237 0.268846705454816 0.21277717840758067
42958000.0 0.92896177650315 -0.3611445957703251 0.03200194194037428 -0.04035215834196375 0.0003839601936605144 -0.0003605187062084023 0.2744242495605897 0.19949000494537858
43957000.0 0.9289231726844561 -0.3645022315732017 0.033841443158364216 -0.048296096937529065 -0.00398044621854834 -0.0014204015017748384 0.2773392597343088 0.2122958680239105
44956000.0 0.9257766308485128 -0.3728181526425135 0.03590123979858825 -0.052787004382369176 -0.0015008593594012494 -0.0013200923586998267 0.29715818012765444 0.19415932350835097
45955000.0 0.9200138238308918 -0.3852739077864743 0.03667466011710284 -0.05710677932255492 -0.0031788001449257475 -0.001267725118754081 0.2975719485486817 0.187433518800509
46954000.0 0.9174907394150331 -0.3936226791657915 0.036866456046880124 -0.06556982357329824 -0.0025416026812039878 -0.0007738574349146617 0.32990924425186063 0.18191517975464883
47953000.0 0.9139869278132539 -0.4008067307961403 0.03537480003035267 -0.07355313035590368 -0.0009047069652530984 -0.0023000125522273846 0.3309498166964677 0.17002830456595877
48952000.0 0.9096103028918232 -0.4096043784800715 0.03740445413760942 -0.08013304497164371 0.0018142980101624759 0.0024918085958637514 0.33522453000436525 0.1680364599494777
49951000.0 0.9052662604668883 -0.41662242328191623 0.039451704426679335 -0.08740904276103205 -0.002677245076120141 -0.0005900112117972526 0.3460203365700086 0.15244131857530624
50950000.0 0.9024727549242134 -0.42692947821098104 0.03825062194321731 -0.09787602984836002 0.00037867015892039107 -0.0019402701392136625 0.3500045824995374 0.1365668874995857
51949000.0 0.8994000573463176 -0.43360218313961546 0.03710516658762666 -0.10473559392964014 0.004120679586824844 -0.0028981776686782044 0.3650681624215278 0.13954519369426166
52948000.0 0.8962254209443333 -0.4403946839746736 0.04087538534089361 -0.11626118956501977 0.0036731872751642777 -0.002087258811975944 0.37372152505440825 0.13839913739979498
53947000.0 0.8889020556674186 -0.44900810246613304 0.04461272608678465 -0.12183379092889429 0.0011991034128752461 -0.0022349239179513328 0.37442193547451763 0.11150589241989045
54946000.0 0.8862100128237347 -0.4563727950118805 0.04438541364011333 -0.13287931537709713 -0.0013808213918182009 -0.003819719051867198 0.3896615669392005 0.10782901407249786
55945000.0 0.8825287689503665 -0.4672611792979925 0.046169626048325696 -0.14434617669934235 -0.00012130837492514415 0.00040692343231868655 0.3849703721199163 0.08823654553241053
56944000.0 0.8776190187499848 -0.4735763030107331 0.04665843334209654 -0.153835710266996 -0.0009474289420827576 0.0025532443376817555 0.39237672041626254 0.10055619076232028
57943000.0 0.8740544211846571 -0.484905375282182 0.048464094813883835 -0.16131487201296993 1.0928067222939345e-05 0.001293562216895523 0.3959629027452501 0.09131415992449156
58942000.0 0.8684388019972293 -0.48964353906757213 0.049023133609199444 -0.1765599157595647 -0.0028368518867751317 0.0005424900158909622 0.414116884519454 0.08324841147950629
59941000.0 0.8649521873578596 -0.49763255202393475 0.051740405159135645 -0.18560698442668716 0.004420857496953105 9.76118648450546e-05 0.4160269802079553 0.07665591226578423
60940000.0 0.8576300065157924 -0.5062515942895605 0.052938959276064165 -0.1910283292806782 0.003081526050837371 -0.0010079161699817279 0.4091950096547512 0.07384121628100447
61939000.0 0.8552191966711922 -0.5124246441439765 0.054637128795928615 -0.19700604689241677 -0.0023531422533187183 0.0004526348422847115 0.4156034198298672 0.05704756668964192
62938000.0 0.8479194603209537 -0.5230773709835119 0.05456617867096191 -0.21444002591169553 -0.0008817639966307712 0.00156287440303907 0.4411865888586467 0.04532384115629881
63937000.0 0.8446011078331805 -0.5286714957939043 0.05718433988045611 -0.23508314530241525 -0.0017221040596499017 -0.0021549643101075548 0.4196146408038338 0.03456654799541789
64936000.0 0.8357027567941686 -0.5372615090583234 0.05629570505232048 -0.24790339324937072 0.0020000559010700946 0.00041958042964810905 0.42745638479222725 0.035395778129027916
65935000.0 0.8341013927628871 -0.5481676239728244 0.0552110389242312 -0.26382007029260873 -0.0017837209693826151 0.0003509097064213871 0.4327081430691087 0.017448283724302363
66934000.0 0.8301949537352704 -0.5512827088431961 0.053219183704071554 -0.27596723744401674 0.0011594298827072207 -0.004745904422627001 0.43312262082726327 0.004693285545626418
67933000.0 0.8271117648387253 -0.5584473131866328 0.05768378056182327 -0.29280762614895367 -0.002380799823700126 -0.001159467637698202 0.4402989919527388 0.002663155264348121
68932000.0 0.8236910696173974 -0.5585389185728671 0.04978758028141258 -0.30510580234274776 -0.0020013675260918736 -0.0016775553314287114 0.4495060635948163 -0.0168866056462791
69931000.0 0.8135142436101995 -0.5764810087030838 0.05402690387327061 -0.3249143737443427 3.8364945077818115e-05 0.00037584124396124495 0.4405621427837162 -0.03131351178102653
70930000.0 0.8066946682748646 -0.5840648757132261 0.05135725913244273 -0.33461033977032617 0.0007680372531346796 8.372423163234144e-05 0.4330245537272727 -0.04083881976387514
71929000.0 0.8060196277381332 -0.5900370253322084 0.04839282231353006 -0.3537189385638562 -0.00019579163323358653 0.0008810323427188838 0.4420971803450458 -0.049986786832622754
72928000.0 0.7971461609464441 -0.6027658076967752 0.040047203729261814 -0.3669039011798962 -0.0022986538301733236 -0.0009930841283242369 0.4628694150421992 -0.05512042824627146
73927000.0 0.790561187368569 -0.6034855315974017 0.03663825486386903 -0.3903399489418681 0.00037988311781533195 -0.003325639194323988 0.4569933179959732 -0.06111501255044715
74926000.0 0.7868123395810355 -0.6147224217384762 0.02538422336590378 -0.40776276155659674 -6.728341967535102e-05 -0.0031786589941415213 0.4516090895186484 -0.06916594308348173
75925000.0 0.7790343915057142 -0.6196217076049884 0.01530533893098994 -0.4319363890549713 -0.0022076506812479064 -0.0011625299879511291 0.46631746946358954 -0.08171134878995824
76924000.0 0.7732147522683422 -0.6289023323319815 0.004963780958443452 -0.4516354028618733 -0.0020881741696122356 -0.00372429083035472 0.464908770322969 -0.09638037603570991
77923000.0 0.7656742721432153 -0.6349785319386455 -0.010088383502044591 -0.4746552835696298 0.0027582682498699406 4.777793171972964e-05 0.45763196713499565 -0.09885389522499488
78922000.0 0.7618545943166495 -0.6461180482486257 -0.025319291600647748 -0.5007949052324029 0.0010973520540356898 -0.001190766320485952 0.46039793874570517 -0.11372922290997123
79921000.0 0.7557010722051136 -0.6472915945553765 -0.03875716355319691 -0.5300300086538127 -0.0033167904067138974 0.0005740529140764459 0.45472430311861406 -0.12046827613231127
80920000.0 0.7505390969167889 -0.6590039593563386 -0.05251555716424618 -0.5565277101779289 -0.00037086505077295985 0.0010341365384823077 0.4600011583582666 -0.1443196262088178
81919000.0 0.7457393654260766 -0.6637447172339022 -0.07510780740118907 -0.5842128190003929 -0.0017522749192055338 -0.005032757922404299 0.4659371210974647 -0.1482617572822017
82918000.0 0.7340421920537521 -0.6729710405878715 -0.0844073800260844 -0.6148938490675705 0.006734889373775334 0.0015229346202342681 0.467885808659319 -0.15278220203025986
83917000.0 0.7269460680347124 -0.6817568891407488 -0.1118703448029385 -0.6442469513615657 0.0018226783996738473 0.003483620497451234 0.4587405438283252 -0.15465992383966976
84916000.0 0.7204056926543448 -0.6863772912904487 -0.12238169630101792 -0.6790852006865453 0.0006327694870680342 0.0025957552747475363 0.46322202221063075 -0.17465064119004517
85915000.0 0.7158089868427971 -0.6937300081754345 -0.1418987967723092 -0.7083843878796108 -0.0001271070009966315 0.0013954880350065823 0.4604104297839607 -0.17950494130008957
86914000.0 0.7083322883975685 -0.7035078250520485 -0.16028293463243543 -0.7453831513024791 -0.000397323500303722 -0.001295178470065959 0.4555791879974075 -0.182570999637464
87913000.0 0.7013437051703167 -0.7103553503015035 -0.17871005394402004 -0.7753126338944345 0.0018260484430275715 -0.0014874967882374007 0.45907423761271154 -0.1923354654381445
88912000.0 0.6938189502322418 -0.7156994529938038 -0.1937830291791378 -0.8121221703427123 0.003657194467709805 7.00237836580811e-05 0.46495439252410586 -0.22370265785756704
89911000.0 0.6874282419107679 -0.7248067943890087 -0.21174239596737984 -0.845024665902714 0.005337655196530197 -0.004356408062607794 0.4548765822309277 -0.22194398630039539
90910000.0 0.6793909254724578 -0.7309593482531551 -0.22771516388133062 -0.8839359488099229 0.002595821163059503 -0.0007433905413094841 0.45138458115118946 -0.2282680871934693
91909000.0 0.6716809059248764 -0.73572505700563 -0.24965424082432283 -0.9138146398167579 0.0022285119653004835 -0.00320903877997954 0.45506179241998773 -0.23243533925698132
92908000.0 0.6631412179751771 -0.7427206929845152 -0.2636429073189745 -0.9501515567241883 0.001183310306368671 0.003968349511174851 0.4475051545262521 -0.24329518818183654
93907000.0 0.6586823559908905 -0.7488984012930524 -0.2852980464678889 -0.9815327642573152 0.0006522513074767958 -0.0006575672898516245 0.4680846513669439 -0.2640181235439844
94906000.0 0.6439404953427932 -0.7570104408676792 -0.302533238563256 -1.0133605707419389 7.559897637432826e-05 0.0038731600833479827 0.4585244730510326 -0.2599064787539411
95905000.0 0.6398545347758371 -0.7644507707673511 -0.327173212388106 -1.0505531899335927 0.0022431882229719145 0.0025793766590632133 0.4589375144499042 -0.28069441265287765
96904000.0 0.6305506902086442 -0.7732779279498428 -0.3485990736458146 -1.0874615720301477 0.0030759335165162867 -0.004138565355382436 0.4547915938048573 -0.2857921797065792
97903000.0 0.6210145201894097 -0.7762677641889539 -0.3617417157245322 -1.1197758686918877 -0.0003454532531025295 0.0012578110107742259 0.43996971750172503 -0.29597065746193885
98902000.0 0.6180200872252928 -0.78503345040453 -0.3893109536937236 -1.1583857469332415 0.00019825975171335918 0.0005915875663505422 0.4421278206168612 -0.29947971028198994
99901000.0 0.6093833661141457 -0.7901347207555134 -0.4156491011350637 -1.19091334513709 0.0010671885046051998 0.0006132733986074379 0.44974799764119733 -0.32863366139629335
100900000.0 0.5993444052285194 -0.7934799646955633 -0.44971104885193586 -1.2195600433929 -0.002242428502303657 0.0010176406376792243 0.44571704774454945 -0.3154790970950104
101899000.0 0.5908855178986837 -0.8002662389602627 -0.4754496766536718 -1.260963950424404 -0.00345126371566714 0.00024419174021339437 0.44673331798683874 -0.33462240493647466
102898000.0 0.5792626714394209 -0.8074813045296254 -0.5175295786454336 -1.2947494052561215 0.0016617927909260092 0.0024554018685393124 0.44333174949625676 -0.3401421168770316
103897000.0 0.5715279586490409 -0.8162228597156909 -0.550541672814348 -1.3289524748898207 -0.0026726045961331293 -0.0016329630379246416 0.44479508528196393 -0.33840223822990667
104896000.0 0.5651267260377576 -0.8267575651409821 -0.5977823571301838 -1.3654370797952873 0.0012754316317650854 -0.002443438294860963 0.4371153973854793 -0.34774067691102023
105895000.0 0.552504557121282 -0.8266889957058918 -0.6399678916426973 -1.4032131375462535 0.0029694955624201256 0.0015971229656063385 0.43249402644090096 -0.36653612733527
106894000.0 0.5446277119132849 -0.8339872182792132 -0.6931208615199348 -1.4440617085730316 0.00200849018915171 0.005041096061957294 0.4202823680557093 -0.37705992701225266
107893000.0 0.539425168968046 -0.8401150056562464 -0.7395612709258246 -1.484637791470559 0.00172490001130342 0.0007348571967576166 0.416593398277714 -0.3821627122423457
108892000.0 0.5273774235529687 -0.8433984655479477 -0.8028456740664022 -1.5209889456185617 0.00021460655706880132 0.0013900014168309598 0.4099967887368592 -0.3765787715677335
109891000.0 0.5157083774252388 -0.850894566258022 -0.8657085632250058 -1.5510166696908505 0.0004611653864416189 -0.003781383732938533 0.43179320468181204 -0.3787285214076315
110890000.0 0.4988950665484524 -0.866575392026346 -0.9493773103308764 -1.5641965781604659 -3.171914689183709e-05 -0.004138205031844659 0.4106370295971532 -0.4069877695823632
111889000.0 0.49677915973430126 -0.8581938294759999 -0.9862997381870787 -1.6272840363477112 -0.0010301869024591178 0.0007125005664662226 0.4040661333212284 -0.4068062208420998
