! Created with skrf 1.9.0 (http://scikit-rf.org).
# Hz S RI R 50.0 
!freq ReS11 ImS11 ReS21 ImS21 ReS12 ImS12 ReS22 ImS22
1000000.0 0.9827782257483191 -0.012749936285171966 -0.006090120870237287 -0.03071562457714315 -0.010590998325226834 0.017976613294362277 0.38825802623078026 0.3133431614705813
1999000.0 0.9963891232770092 -0.008612820604361294 0.010150726574957686 -0.016450384991557123 -0.010870635553233364 -0.009639310141876273 0.25232162056831803 -0.051588784860837164
2998000.0 0.994811591524428 -0.020872588139583266 0.00991941800309703 -0.017679885308854084 -0.006928457271553789 0.000701258825511262 0.1891399053171811 -0.15099357233209554
3997000.0 1.0023623342841916 -0.028326782802788438 0.00919382626389019 -0.00504872218296897 0.0033076588369488928 -0.000259284320216048 0.0997780248715389 -0.23296349085851317
4996000.0 0.9977492357745275 -0.03996112500101004 0.009681997785114319 -0.006150757885296855 0.0011516097544115895 0.0025149731629669687 -0.045294596240652296 -0.20214084736610333
5995000.0 0.9979466010286301 -0.04727010065320596 0.01146474000165875 -0.0027801233595590156 0.0006139686462078553 0.0014807993921523246 -0.12244657789879677 -0.11758944980683382
6994000.0 0.9983274265471797 -0.05881982333640338 0.009670854992096852 0.009064300188692748 0.0011610603069238676 -0.0027994497338023148 -0.14677207194989297 -0.036550049205102846
7993000.0 0.9995490989881817 -0.06705685559697852 0.004075367125665502 0.006260092850361319 0.0011172015822842282 0.002563295838669742 -0.17142684609415837 0.0401095402753477
8992000.0 0.9974757532520007 -0.07546491814481712 0.004813278493221746 0.004402287305877366 0.001616139893047298 0.0008497876057710353 -0.16600224234668925 0.053345864231082125
9991000.0 0.9969292954538788 -0.07927221100639817 0.004378357256227387 0.003777123563843389 -0.0002694146181443269 -0.0007401072007264532 -0.15839058293997513 0.08511435108097139
10990000.0 0.9982864606952047 -0.09048114456615579 0.004146108917462588 0.003260488897855229 -0.0029170729206323166 -0.0006124096683908953 -0.14604091771931588 0.10661623904781116
11989000.0 0.9948517947788835 -0.10057303134655059 -0.001614641954763066 -0.002480429878331356 0.0024641484540866873 -0.0011397517925944174 -0.12563592526960402 0.13877330774198068
12988000.0 0.9943161046966992 -0.11093134434767624 -0.000181792376474312 -0.003870732725762891 -0.001888779511913082 0.0005700947396340185 -0.11720979854371294 0.17263415830982648
13987000.0 0.9893741646171156 -0.1188332142045513 0.001549807627742666 -0.007109878899467322 0.006227779021048461 -0.002513512276534307 -0.09758736572400054 0.1982095881904056
14986000.0 0.9918549707789642 -0.1254878324223514 -0.0004896461875689333 -0.000990103656114454 -0.0008786934252313624 -0.0003303748472268677 -0.10072683304702136 0.20248136457540353
15985000.0 0.9920493119715601 -0.13277668486882127 -0.004914391587268698 -0.005380104968137949 -0.002194156085936602 -0.0038863097541301786 -0.0667688553473131 0.20877370287433133
16984000.0 0.9903145123147363 -0.14323774316787477 0.00013098061902715595 -0.00301518874197167 -0.0028376656312141457 -0.00019234246687100526 -0.06780745640760022 0.2163000585717475
17983000.0 0.9917765848553072 -0.1519379163433 -0.004646818411526586 -0.00996340993813351 -0.0037322425112587196 0.00017994295730093196 -0.0510970519181534 0.22956657966505825
18982000.0 0.985566236232585 -0.16175123717405265 -0.0014890533290393896 -0.005896291658744224 -0.0009404030750480648 0.0027230076181303906 -0.02683101411974977 0.23456076150011917
19981000.0 0.9859959772257596 -0.1669187656874425 -0.0051501007079438445 -0.00315995719626648 0.0020122601059822487 -0.0015275156012205932 -0.010332800689581671 0.23868986375265663
20980000.0 0.9857923013910469 -0.1745555680468063 -0.0026991946500761546 -0.0017702625218312302 0.0021532843638557343 -0.001297730044375334 0.005508030546255121 0.24733877184069447
21979000.0 0.9828352887655493 -0.1833898828374656 -0.006071902956437068 -0.0026932011600715577 -0.002147930455928965 -0.005480321752323744 0.01617556943136886 0.24416129346522342
22978000.0 0.9801049819368326 -0.1909989859648505 -0.00844742909941787 -0.004652121778372552 0.0023410283431740267 -0.0009828775778070583 0.024861363414415045 0.25377516430972197
23977000.0 0.9824296500929398 -0.19749960083823886 -0.007404984033579104 -0.004112267834776638 0.0022132972020627974 -0.002215351676244878 0.03786662054820141 0.2520802704586349
24976000.0 0.9766223391013542 -0.21090532921242022 -0.006051581928717003 -0.002244547051172195 -0.003057625468659595 0.002074986975743268 0.055687822306413816 0.26206192151699426
25975000.0 0.9706731329614074 -0.2201927325024283 -0.004856353033139661 -0.0031776877297675452 -0.007455037430154333 -0.026821365786982174 0.08472582456912602 0.26170004951220716
26974000.0 0.9722018526316005 -0.22689917714192703 -0.003835616849098626 -0.0033573985680450166 0.0005940963375238726 -0.00044675674524926966 0.09288696144034839 0.25845796880589544
27973000.0 0.9723047607419841 -0.23156787884435287 -0.002800594439459544 -0.0014428933114296028 -0.0023715291133070224 0.0026243056911757078 0.10201679360607643 0.2555439165355638
28972000.0 0.9678572112408629 -0.24442764950197376 -0.005488595816550635 -0.004729668434525075 0.0014632204094014375 -0.002534757477631951 0.11139091022258359 0.2555236878330155
29971000.0 0.9676652667771483 -0.2534437603475587 0.0008671253810211021 -0.0033760892283525336 -0.0006854741740360745 0.00018384336824199378 0.1491832576910293 0.26208035954205333
30970000.0 0.9647139712471402 -0.2563445003166087 0.0032068970287284317 0.0005063947687099037 -0.0026372778439199044 -0.00210806710101201 0.16298931610289116 0.2459572519795093
31969000.0 0.9643104282882083 -0.26582562063242204 0.0023897894008994593 -0.005783740595449333 0.0013514740428001288 0.001985539557031659 0.14668778371777966 0.24672251448330754
32968000.0 0.9627342300933421 -0.2736693846570705 0.010642476403715581 -0.004519628346142751 -0.0015752161171886687 -0.004209593287414956 0.1608923012043981 0.24933727947331347
33967000.0 0.9597581752715315 -0.28426810777936423 0.015129126831037638 -0.01011917026936384 0.004710781762044893 0.0013884145209861558 0.18810053440167362 0.24368572405211755
34966000.0 0.9561774741656013 -0.293727160045323 0.012701947749830517 -0.012102237264678605 0.004340477677377973 -0.0006093134755472921 0.19037389066147506 0.24378254664231547
35965000.0 0.9540930396099555 -0.30057492897584787 0.01758401907056033 -0.017340966382706897 0.003839935248351025 0.002658286923541429 0.20863342895365497 0.24717410366994397
36964000.0 0.9509862909762582 -0.3108177360370856 0.016775046896773317 -0.014612459062767497 0.002955362813361108 0.0002955118945800953 0.21287219752444667 0.24610457170299163
37963000.0 0.9473248036823156 -0.3172775968552811 0.020984691685600777 -0.021587756488812768 -0.0018460459320963209 -0.0018490553416787253 0.21968488149027918 0.23673484665887695
38962000.0 0.9457631338882758 -0.32576068596874497 0.023527447078184088 -0.028323579091337436 -0.0011882710749218867 -0.0006632509677248755 0.2458697176752348 0.2313971603008566
39961000.0 0.9420714682902792 -0.3362758947254433 0.027208679674229613 -0.029216645488918887 -0.0015363488827132394 -0.00011732168078313945 0.2438438582260872 0.23373774451383733
40960000.0 0.9379665588845305 -0.34257011769171075 0.019959304811147764 -0.021377612048722693 0.0003855460087013753 -0.00010198774004966997 0.27710584953427775 0.22750232548017219
41959000.0 0.9354426749197584 -0.351125882685921 0.02889720836622175 -0.030165521272127287 -0.0015588017750647826 -0.002993786420330429 0.2636944091972871 0.21116848040153557
42958000.0 0.9319599651606706 -0.36016617215352353 0.028934426575545943 -0.04304133181657302 0.002497443506650125 -0.002019207837913454 0.28893624400951584 0.19583409095372928
43957000.0 0.9294012798329832 -0.36620451549620847 0.03480031180249897 -0.04755670974309357 0.00020402358874974205 0.0010338729177851967 0.29088112038021624 0.19944749885709312
44956000.0 0.9260155029685765 -0.3749765854328167 0.03315415172721195 -0.0503934734303859 -0.001838034895979561 0.00019702053261120824 0.3000834623858249 0.19493257877670217
45955000.0 0.921984142798349 -0.3848093852719729 0.03211548298541363 -0.055290110444668195 -0.0014288311333394107 0.000775249801313109 0.3142117386120723 0.19146660095269552
46954000.0 0.9195274505764939 -0.3923501605432239 0.0350002051142603 -0.06401967925856633 0.001171196940827441 -0.0008861045941628133 0.3262472500442213 0.1739350178876679
47953000.0 0.917080089562727 -0.3993771310648879 0.03582016179814718 -0.07300165565495456 -0.00015870923155839888 -0.0036061616325192836 0.339895726965074 0.16188353971569786
48952000.0 0.9097485780577704 -0.4127243260723369 0.03319517901331178 -0.07765522136453018 0.0018099607327713497 -0.0005412665204414535 0.3432211025090007 0.15963418114083844
49951000.0 0.9077329124358045 -0.41524617582442847 0.03475690737794022 -0.08452646295794758 0.00034333256447236177 0.0006504421628898542 0.35810610919021457 0.14642424701409984
50950000.0 0.9050460448777258 -0.4255674650630443 0.03497481924810296 -0.09613163529646486 -0.001841149782166713 -0.0007822291728946613 0.3547989906215526 0.148956815818973
51949000.0 0.8998718985812438 -0.4336333255387409 0.03383247481410626 -0.10329593570786252 -0.00249609507068271 0.0025489381970957 0.3629130159087626 0.13759284216123385
52948000.0 0.8986327125567745 -0.4397484084199211 0.03658780030197108 -0.11058113724624596 -0.00452682383410271 -0.003025543048280696 0.37462183329486576 0.1325629501964777
53947000.0 0.8919019231150088 -0.4487839589922404 0.03926705298727338 -0.12068567971774724 -0.0033368756586968722 -0.001072976382557097 0.37049681001859286 0.12987632883265027
54946000.0 0.8890331467872598 -0.45662989348326993 0.04237363266717109 -0.1319461069990231 7.085730714064923e-05 0.0007157766610261722 0.3930335287535514 0.1079945385799267
55945000.0 0.8857443484986165 -0.46579121427498127 0.042659602855576476 -0.14158095195687337 -0.0012077563440258084 -0.0007405675058773595 0.38544904160637355 0.10205086112467693
56944000.0 0.8808124589627073 -0.47348724343647236 0.041116835761167723 -0.15274433184452102 0.001165818959672527 -0.0013142500078250207 0.39404441690108133 0.09694778989150189
57943000.0 0.875753750822789 -0.4842827142339651 0.04196006242129603 -0.16181378182061917 -0.000782620110647188 -0.000872428613321791 0.3990526659759217 0.0896810708827091
58942000.0 0.8696887857178596 -0.48945251891638575 0.042520780350178394 -0.1702919262425905 0.00097709807469956 0.0019054824369220548 0.4223891584405369 0.08915044910854356
59941000.0 0.8691436209970264 -0.49549769065877314 0.046883779150800275 -0.18227810566422664 -0.0007245507112938879 0.0038676456566582623 0.4279950679678985 0.07795997883628461
60940000.0 0.8608966991143521 -0.5050052903673511 0.04673238873668755 -0.18466545295469622 -0.00018315202027677422 -0.002548924104504592 0.40480016525375084 0.06463475880535209
61939000.0 0.8582274749071218 -0.5113083256163012 0.04747387225369447 -0.1915069965198397 0.0010060659368224495 0.0013737383162617136 0.41673341709235195 0.06852286572482079
62938000.0 0.8531840620727473 -0.5216419876218235 0.050972737708845736 -0.20876592107112504 0.0016427109676772664 -0.0003212142831410503 0.4351943359773011 0.04867135329160241
63937000.0 0.848406018167434 -0.5273362365126066 0.04896416533533084 -0.2308541534121801 -0.0020118110039533807 -0.0021365236479084643 0.43460258730032725 0.03333647483570299
64936000.0 0.8404743668957996 -0.5363270819407734 0.05030816522289574 -0.23950422230212526 -6.731935055117152e-05 -0.0015107539940209884 0.43472786920655326 0.03899172454995998
65935000.0 0.8379206985078644 -0.5453065501138716 0.052012750100827454 -0.2583536750990566 0.0034512816086730933 0.0034311573271470466 0.4396940843948436 0.010134616720439643
66934000.0 0.8336611036082727 -0.5498537196697288 0.05342987716608475 -0.26950620020878385 0.005843154625613838 0.0049178257190009905 0.4359760302324655 0.0009868607553057864
67933000.0 0.8319358515284583 -0.557669805881239 0.050609357639528244 -0.28452647731823544 0.0013686988964499763 -0.004268171053045627 0.4491575063332886 0.0041318325500691745
68932000.0 0.8276734135824948 -0.5571165917666611 0.04968986026559681 -0.295771824382708 0.004073102890093232 -0.0017604953874447251 0.44711262800723583 -0.011874318509840956
69931000.0 0.8160060944052643 -0.573785763331112 0.045112286062589914 -0.3076708166988983 -0.0005420973041079983 -2.4878492418990564e-06 0.4483614777763198 -0.023999628716391972
70930000.0 0.8109787267616956 -0.5821324699894167 0.04586734004695512 -0.32465145975323595 0.0031246963758699924 0.0034960108285766126 0.4480259031373488 -0.03726581023032927
71929000.0 0.8094469687200109 -0.5885993049859859 0.04131097190587101 -0.3418347340316404 0.004086177659446879 -0.0006745638709723649 0.44921121871438396 -0.05278705366269162
72928000.0 0.8015062623393336 -0.6008452159015926 0.03419937526340229 -0.3580511828265381 -0.001937386328031136 0.004231437242930354 0.46440984604799607 -0.06027455815115159
73927000.0 0.7958163231174364 -0.6064183991806681 0.027296776774195227 -0.38048446673600184 0.002634159765026461 0.0013481670505971204 0.4644426796993217 -0.07069790951444947
74926000.0 0.7898664993235348 -0.6156613979188432 0.024257478578636475 -0.3947588754519307 0.0014839894684320616 0.001841294732649482 0.4581898840152037 -0.07026688971438941
75925000.0 0.7836895677566449 -0.6197829622879311 0.012459412355953754 -0.4136495516318545 0.005782890385850688 0.001983654802538908 0.47016770126971974 -0.07262086777743403
76924000.0 0.7791813073236973 -0.6268990575701434 0.002780117358621492 -0.43499765612973396 -0.0021162919934991638 -2.8523935148142934e-05 0.45981119294752165 -0.08588318093886013
77923000.0 0.7731254584235193 -0.6326999227101446 -0.015038422148313715 -0.4559679480677333 -0.0041194489499280455 -9.078494562825116e-05 0.4636546896204254 -0.09716458209135169
78922000.0 0.7655788461335744 -0.6449700837874458 -0.03018629310714329 -0.4837908776087553 -0.0027007181042597414 0.001627739469762796 0.45515194380232576 -0.11716665829904223
79921000.0 0.7567767351416039 -0.6477494299483518 -0.043302403611487475 -0.5095847817093029 3.69210201436997e-05 0.0003445644169404445 0.47301220669985666 -0.12843294132321376
80920000.0 0.7538108751025898 -0.6592650714068414 -0.055759340404502325 -0.5339618748525916 0.00042221254866548266 0.00395436063709083 0.46430796165065624 -0.1295756625829585
81919000.0 0.7488300198949726 -0.664162083923868 -0.07862691630253744 -0.5606750302864876 0.0016293355706098688 0.007550361759124222 0.45888418017863086 -0.1367417349560324
82918000.0 0.736266136986396 -0.6743925250009297 -0.09325620446767036 -0.5943185968697968 -0.0024286660494751973 -7.831362003526275e-05 0.4740321624051611 -0.1561379881722797
83917000.0 0.7309286745291561 -0.6813010706347459 -0.11178373832003247 -0.6193821513962108 0.000579423637220706 0.00032601638750211253 0.4686617908697165 -0.15398740458813542
84916000.0 0.7268637724749925 -0.6875272326064054 -0.1321377558211625 -0.6494639747726941 -0.0022539632994503555 -6.069266656578284e-05 0.4732941754250835 -0.1756103419895603
85915000.0 0.7198880201733678 -0.6924330574870533 -0.149500385759958 -0.6829701957645178 0.00013916394096807455 -0.00437092822214438 0.46482784469124044 -0.1799454858914112
86914000.0 0.7110300080263999 -0.7044848147163837 -0.1647556243420636 -0.7183272593238105 -0.0007696975006581133 0.0009300219814271345 0.4558039043194645 -0.17953703085473052
87913000.0 0.705614722594386 -0.7095944382413435 -0.1857017254243048 -0.7459352763735176 1.2538263872144163e-05 -0.0020459471450853936 0.4593659533270419 -0.19753902113997115
88912000.0 0.6973622899384735 -0.7168374168448299 -0.20478233026609163 -0.7807812862996841 -0.003276703447358792 -0.005099919818493915 0.4677408258882992 -0.21583271668199844
89911000.0 0.6919603506054075 -0.726332251297601 -0.21635378551401163 -0.8191146740376204 -0.0021498796864965874 -0.0018315512594490318 0.47041361682524957 -0.20499607864148825
90910000.0 0.6839051825124755 -0.730503492599849 -0.2351162544767641 -0.850281358216689 -0.0023160796275331877 0.0008728549681509114 0.4568841215349374 -0.2191874057450578
91909000.0 0.6741444492393442 -0.7366320235638558 -0.2567871037711866 -0.8802255899465806 -3.3996811134940314e-05 0.0012020467542010564 0.46291408380998095 -0.22335592683509856
92908000.0 0.6678459959667341 -0.744793966012884 -0.27421930096676983 -0.9149136406903637 -0.0012515343765415008 -0.001558015524452461 0.452782054567957 -0.23537782700844956
93907000.0 0.6602760176455575 -0.750130910331739 -0.2892515725210767 -0.9395848436682471 0.0004219942312254948 0.002705366617195792 0.4575163115850745 -0.25790152626649765
94906000.0 0.6498617096167802 -0.7588027844512404 -0.30447118429939346 -0.9785794614967784 -0.001958424913682078 0.0012255263895850402 0.4527888014268599 -0.2572148604638302
95905000.0 0.6435788100267262 -0.7640814012293344 -0.3290812188192342 -1.0116455850155466 -0.0008307006820108101 -0.0035067480748560732 0.45152428832465363 -0.2787766735111011
96904000.0 0.6359632455838115 -0.7737760266456339 -0.3430856839619886 -1.0479326674387692 0.001572684927253669 -0.003869306347213816 0.43915108576501366 -0.28076599862591917
97903000.0 0.6254619465264708 -0.7797100054612087 -0.36947964442741965 -1.075230832207572 -0.0023430580965620117 0.004598761268367299 0.450395148967256 -0.2928332923640399
98902000.0 0.6197272401500286 -0.7843101234441825 -0.3900357505514448 -1.1110527438010183 -0.0016150492500942662 -0.0036863737171738227 0.4350519619531591 -0.2985345916802725
99901000.0 0.6102358762521286 -0.7910214216434324 -0.4161949388861461 -1.1405720654836138 -0.00045841405913956253 -0.003023600691775319 0.45915132496108413 -0.31614214554292025
100900000.0 0.6028179464845541 -0.7950363197779995 -0.4456253867685405 -1.1708495854363141 -0.0010742105176046904 4.546587723186235e-05 0.45786339457283415 -0.32349572704325047
101899000.0 0.5944617415065884 -0.8032140996602052 -0.4706056381027311 -1.2077252279893473 0.001211515592819887 -0.001809816874066069 0.45560503335343816 -0.33154783887700495
102898000.0 0.5848729445775046 -0.807443683842557 -0.49781890659549044 -1.2484558070881284 0.0029877723555429662 -0.0008113802043143738 0.4405365794638424 -0.3456365410952635
103897000.0 0.5775000955504954 -0.8147839775696185 -0.5395817288987544 -1.2773312235937988 -0.0011426757707692775 -0.0012968025915291955 0.44615453908805935 -0.33675250178153293
104896000.0 0.5686779167352856 -0.8267464013696193 -0.5872254785790674 -1.3116198221983324 0.001288748636691869 -0.0029780291768256484 0.4366489390065435 -0.3467282804566998
105895000.0 0.5589934659586888 -0.8284692850362603 -0.6273465694549742 -1.3473516691603107 0.0016817308833548643 0.002507444822617333 0.4272400664817856 -0.3671098038538871
106894000.0 0.5503618601665068 -0.8337384034684155 -0.6773307813706747 -1.3758919327344683 -0.0017655255020516414 -0.000971387300199719 0.42040845892768175 -0.3814619817702044
107893000.0 0.5422906512287587 -0.8382027469359001 -0.7290329136694002 -1.40935654739555 -0.001163175158487319 -0.0015329108098248903 0.426659662247765 -0.39519564892926523
108892000.0 0.5308311617914322 -0.8450584794575807 -0.7859339561282104 -1.4474576310554519 -0.001399339116828342 0.002989186968159415 0.41142943420295186 -0.38538461922531225
109891000.0 0.519153631562719 -0.850981680712482 -0.8415275440730985 -1.4805186648341517 0.0027658099763303136 -0.004240220365892758 0.43061435238144335 -0.3908615551689756
110890000.0 0.5142496508098339 -0.866543972921723 -0.9164435265212906 -1.5034412953944096 0.0003048955962756356 0.003181500063328732 0.41721753385966254 -0.38951279394143323
111889000.0 0.5008421131763697 -0.8583144417787856 -0.9646510595317972 -1.5396968425778437 0.00021290171450154743 -0.002210887429346112 0.3965903876199926 -0.409860971766554
