! Created with skrf 1.9.0 (http://scikit-rf.org).
# Hz S RI R 50.0 
!freq ReS11 ImS11 ReS21 ImS21 ReS12 ImS12 ReS22 ImS22
1000000.0 0.9744660482377093 -0.006679789787350541 -0.024717636172770497 -0.03831526839682253 -0.012592935740579764 0.023141334129510097 0.3884891994778477 0.3530413662024056
1999000.0 0.9929264017064022 -0.0158212317035185 0.006509547584534134 -0.02715991186449591 -0.002405893894461615 -0.00044056395803256814 0.27568424992893165 -0.05437007042125613
2998000.0 1.000343375577052 -0.0196071467600117 0.00753182379127197 -0.015798289772571257 0.002317495102164677 -0.004726291014277764 0.19496455960667522 -0.1274510602442176
3997000.0 1.0004495783574467 -0.027521195331000302 0.01232058064907389 -0.005664531661326117 0.00020480011632252205 0.003070454641526281 0.08843009303326965 -0.21218688402212155
4996000.0 0.9986986359751233 -0.03535693991903207 0.00800787754278403 -0.0015439903282000152 -0.0013501794504477515 0.0002592522427764266 -0.05116669617202015 -0.18980800111691865
5995000.0 1.0002539734832638 -0.047141407352690026 0.008291159902616753 0.0012326821332931583 -7.886524719224417e-06 -0.00010161098704460786 -0.1128856797054865 -0.11189698358056982
6994000.0 0.9952642030549974 -0.057617364885169636 0.00796749441664332 0.0031200343843069264 -0.005416779290768434 0.0033504067396067324 -0.13713504573620905 -0.02857288125859647
7993000.0 0.9987349111782735 -0.06805942639756908 0.0018837889416030802 0.007971902610568819 0.0009978630260048694 -0.00525583120864706 -0.1571136470000037 0.04920464119733254
8992000.0 0.9960843082318386 -0.07423804773362191 0.007938917850991312 0.008432541781361744 0.0031602615187185145 0.000744148216528769 -0.1428687867946577 0.07112326458186966
9991000.0 0.9938049405025945 -0.08300115549222593 0.002481573221897573 0.005382447668817682 -0.0012810518971819948 0.00027140062761609775 -0.1410799965137122 0.0904407453415271
10990000.0 0.9952660652824501 -0.09088005797857877 -0.00017491729422796642 0.0031248389232176378 0.0007522156596118711 -0.002248564334389985 -0.13971487428919532 0.12072531029719638
11989000.0 0.9921858430077684 -0.09814515013980099 0.0008538852846897394 -0.0028277274363641067 0.0006958573151504985 -0.0011137714161584232 -0.11543140867646365 0.1450257791013971
12988000.0 0.9918807080801935 -0.10729608475305132 0.0020450501625405744 -0.0038877988181608334 -0.0036347252355624308 -0.0006346233841221377 -0.10029715821736167 0.1707006834583023
13987000.0 0.9877359590241312 -0.11756765644802067 -0.0011197069962390251 -0.004365531282555811 -0.0013990914517626354 0.004194787914472521 -0.10659947681593897 0.19681826348834627
14986000.0 0.9904856311917668 -0.12413921494695883 0.0026088608074084658 -0.0036846441461921464 0.0029158213340334718 -0.001740467708547121 -0.08317912403861276 0.20275883276496015
15985000.0 0.9890578722651174 -0.1342325813221167 -0.001244094566312225 -0.004862026038574083 -0.002802668850178384 0.0034776361896322293 -0.06576423063639239 0.21880285790355522
16984000.0 0.9903192160466435 -0.1415594991823631 -0.0009162106489211022 -0.0018073895335725427 -0.0017378321481056013 0.0013102806534520273 -0.05117078060982737 0.21749381802817044
17983000.0 0.9875811707750389 -0.1477027301968494 -0.005357334719591711 -0.0029501887730715138 -0.001663873256800149 0.0014340700286615245 -0.043833751537585355 0.2281074219554051
18982000.0 0.9840411495716457 -0.16064576909372424 -0.0015806799821093697 -0.00680762777327453 -0.00121554125577068 -0.0061496045659879175 -0.018540594877134435 0.23851737331222223
19981000.0 0.9832612121749849 -0.16566416211775956 -0.0030795121436431113 -0.001984953873936271 -0.0013615434940198853 -0.0011782982442455402 -0.0112643607651463 0.241894910232197
20980000.0 0.9833416706471046 -0.17504547207500445 -0.00443935509709008 -0.004174929552991324 0.0015154921780081883 -0.00020476352233734886 0.009729426291709057 0.24793709337621145
21979000.0 0.983106599935423 -0.1810553901197426 -0.007742428711306025 -0.006550776413429488 0.006983769937594744 0.00660602532989754 0.02258736200300548 0.24020316544072684
22978000.0 0.9776653288625189 -0.19124481695759163 -0.005363683614080118 -0.00029724364803548913 0.0009390408023798619 5.3386211423410375e-05 0.035986044016180344 0.25694510088932526
23977000.0 0.9808981667045975 -0.19670873572253872 -0.005118734703884462 -0.0034394955527444503 -0.003937666433321677 0.00010075775688620853 0.043555176837602044 0.24535972814552354
24976000.0 0.974957348003299 -0.2105476944218906 -0.005763664496582915 -0.001815565003443723 0.0027868101639517908 -0.0004362046836016241 0.07434988593725834 0.247647245724653
25975000.0 0.9711188046775034 -0.21547570878810673 -0.007541976775213406 -0.0016092953195239192 -0.0216752172783121 0.0007869235353327405 0.08974138781163528 0.26036346212247535
26974000.0 0.9727875263543908 -0.224573096470404 -0.004928396307593247 -0.005647304712320848 1.2625169201639177e-05 -0.0019601668322869457 0.09027508417773507 0.26718888733804563
27973000.0 0.9702923483361083 -0.23434265024190568 -0.005518531247862684 -0.0036311108989485756 -0.0019182029963096653 0.0003131150806790098 0.1130841519953594 0.25691025993426275
28972000.0 0.9702156398122473 -0.24093334332281935 -0.002351805035662224 -0.0011235796319949052 0.002340538739501792 -0.0021289468135656576 0.11693401276991035 0.2532898314925541
29971000.0 0.9662002568638951 -0.25201371875583134 -0.0009109342736139023 -0.001611952604396144 0.0011925705265626021 -3.786858870737091e-05 0.16234113176700168 0.27039997676887656
30970000.0 0.963062942877162 -0.2564031034012269 0.002934531779765178 -0.0025605622185661133 0.0007229737199107768 2.4910563684307652e-05 0.17157057170746348 0.25183691670200803
31969000.0 0.9626387242062421 -0.2637674079460513 0.005928523381176058 -0.00677474627320085 -0.0011039701189022248 0.001336130270247257 0.15979786188943895 0.2568805945348223
32968000.0 0.9618959207001871 -0.2723534213743958 0.004826998037605534 -0.010315345630750929 -0.000329907595168729 0.003912537521321167 0.17244269688334743 0.24511455326152698
33967000.0 0.9582019206821631 -0.2853526176470325 0.011376902988802793 -0.010610174106176115 -5.537847908840643e-05 -0.002113508836825116 0.1925075618278032 0.2400790682236053
34966000.0 0.9560968949265526 -0.29169565912574796 0.013594224315310915 -0.014135619929278287 -0.0007235686687486832 0.0020927508426444984 0.1970577185027405 0.2501114194004238
35965000.0 0.9527498528671733 -0.30094827783953165 0.017846520206131276 -0.011322696222285048 -0.0005657497353965192 0.0014928481545203344 0.22276621727850185 0.24974548523732576
36964000.0 0.9504775956330516 -0.30778825851648905 0.016663780089187334 -0.015536857222398738 -0.0018850919184815991 0.00020410538068449735 0.2278541664066865 0.2532387700750302
37963000.0 0.9478752983007303 -0.3181802577412713 0.02122313341166766 -0.020756934953662015 0.00012252255668281846 -0.002464366989531727 0.23829873755453326 0.2373183639415957
38962000.0 0.9442417862325613 -0.32661867857387156 0.02474934998106104 -0.025344316720222585 -0.00014528037499246055 -3.253969789487979e-05 0.25164909390656415 0.2267599218579096
39961000.0 0.9411925477718731 -0.3344727830477248 0.025912858269453228 -0.02614368812232179 0.003627925185449962 0.00048220155617527725 0.26285541174476745 0.22680106390951688
40960000.0 0.9387026509201688 -0.3426744849043296 0.022389806260371015 -0.026361082807674102 0.002141807846752181 0.0015834356855239766 0.2726390495768041 0.23134826868566993
41959000.0 0.9359391512482991 -0.3507108631018061 0.032391057688896885 -0.030934328159741144 0.004200227043053913 0.0024437187930076132 0.2805193094028994 0.21388476003942034
42958000.0 0.9288695210997918 -0.3613851346248812 0.03128992488110737 -0.041476467252945466 0.0011333890519545607 0.00039009931055250806 0.2929409532353485 0.20681024223806072
43957000.0 0.9296631957278718 -0.36510293024576046 0.03548796937631236 -0.047293554976507286 -0.000622232331997366 -0.0002444747601003419 0.29257721345458243 0.20423629884070982
44956000.0 0.9249095804247601 -0.37377307335266186 0.034412758430265256 -0.05403977163775035 -0.0001207633332528729 0.0019040788882989212 0.3116835875364491 0.2001763318687019
45955000.0 0.9215115894317497 -0.3827363019847614 0.03607085842316486 -0.057968614274502 7.543167084473205e-05 -0.0005168327372965185 0.31392716444015295 0.1933451457460599
46954000.0 0.9165138887666631 -0.39379590679285736 0.03757699244459983 -0.06590177496660075 -0.003182643176328229 -0.001053125773196802 0.33785405782356204 0.1736243248342616
47953000.0 0.9152981703634828 -0.39944000369299604 0.038734815843979906 -0.0749714249417267 -0.0014767650056501877 0.0018929181714714986 0.3443020495950836 0.17576112574066144
48952000.0 0.9112233463494015 -0.40942793357659246 0.03892623949603081 -0.0800454371358396 -0.005291486319704629 0.001693180184764386 0.343803820975101 0.17181073702455474
49951000.0 0.905697360488565 -0.417837173367864 0.03779359340800047 -0.08659214980615011 -0.0038252054932875583 -0.0016021419444364746 0.35654991681883874 0.1544368209640408
50950000.0 0.9046276343924607 -0.4268108043835117 0.042038143397501386 -0.09901368372952858 0.003256054234212544 0.001630518866148615 0.3588911332333166 0.15103401437592046
51949000.0 0.8983756992971947 -0.43336830157301104 0.03681542844337383 -0.1052547222545897 0.0015406215258259763 0.002798973836098087 0.37602224620775493 0.14296876338163722
52948000.0 0.8977843848019403 -0.43998192291706895 0.04058375506126985 -0.11660449022043214 -0.00038696615152476553 1.0569748460687669e-05 0.3865196610690646 0.13824215157127526
53947000.0 0.8902628120347087 -0.4489715086295039 0.041041135525735656 -0.11861121651327163 -0.0011031694808082918 -0.001984690362427642 0.3878015618500334 0.1311873299967445
54946000.0 0.887807525216224 -0.45594052292644904 0.04345355270899419 -0.133903383155642 -0.001866292641387224 -0.003449935812330992 0.39675137106158687 0.12155679845549987
55945000.0 0.8841808339786718 -0.4671182592425397 0.04654911472479637 -0.14392389059439625 0.0006982877063611144 -0.0016691807703990403 0.39247104220334345 0.10649484783327029
56944000.0 0.8794105546781841 -0.4731728974852732 0.04767044883167903 -0.15272807355360793 -0.0009980356341477113 -0.003175652071271564 0.40559549385349486 0.10133966888908603
57943000.0 0.8754700663219199 -0.4841745888254492 0.04837818531614906 -0.16817817185475153 0.0005206491920510303 -0.004615730588911859 0.4145767524652903 0.09061497353320501
58942000.0 0.869972384225271 -0.4882427487371392 0.05237008997069995 -0.17573031867410016 -3.832705873430855e-05 0.000641455337591279 0.427617511706619 0.09113843752275744
59941000.0 0.8662953741053928 -0.4985221105443543 0.050511931281779394 -0.18772747420328437 0.0015532375014008278 0.0012289696526530316 0.43320761477325914 0.08827080018145034
60940000.0 0.8591804188968138 -0.5056222402963456 0.05117962941858564 -0.19092417870418155 0.0017341057617685058 -0.0015972550598452554 0.41464403436946784 0.08058905243034951
61939000.0 0.8559403091705621 -0.5114792697402335 0.05452893733304811 -0.19998870430106427 0.0004365849327486196 -0.00040383597993973164 0.42630551142450934 0.07230166997170641
62938000.0 0.8510571948647059 -0.522410147682851 0.05743244924247052 -0.2187916959096278 0.001377044373499758 -0.0018636119977915625 0.45471827572722884 0.057850327768699104
63937000.0 0.8463121889995243 -0.5292321153103178 0.054744733011433545 -0.23781899832014441 -0.0016773960387672043 -0.0031197953499112873 0.44770121646253846 0.03404937466097291
64936000.0 0.8394258333928089 -0.5354427389682193 0.058145194283905195 -0.25277584017286325 -0.0018978831713867066 0.0008365866657389041 0.443415942596893 0.04261473890461968
65935000.0 0.8377904541942062 -0.5456974841476416 0.05791650999866276 -0.2668890627193531 0.0027978599376379237 -0.0012905350283354245 0.45030676345048304 0.01863243527489769
66934000.0 0.8327265432851548 -0.5498179565259369 0.057371525572024344 -0.28251632664952053 -0.002463866951289566 0.001806127752719353 0.4573719077554602 0.005702805096687302
67933000.0 0.8278380744235561 -0.5606950443509368 0.05626123344513882 -0.2952837543081597 -0.0019562561575120854 0.0016229214475124948 0.4516925015176401 0.0041675159539775585
68932000.0 0.8225376829830694 -0.5532705609282349 0.056938072401352596 -0.3056731073159991 -0.00019381719088679524 -0.0025408169443393107 0.46694063062206964 0.002557915861390167
69931000.0 0.8138711189120401 -0.5763004262594847 0.05350292749044369 -0.32555723173040146 0.0009327048161313886 0.0004423500010346022 0.4619269779599551 -0.022871933718712326
70930000.0 0.8091509833136259 -0.5813314519571364 0.052654278777785155 -0.337817824061729 -0.0034774168413472164 -0.0018007901369162225 0.4522501548548095 -0.02757592592825786
71929000.0 0.804999399517055 -0.5909131887741048 0.04737891924973395 -0.35876934708072145 -0.002896439288750861 -0.00022932132701117502 0.45678675108687056 -0.035075114966902035
72928000.0 0.7997206518119689 -0.5997320007181872 0.04350111035189302 -0.3757070295290766 -0.001726633168081766 0.00039473357607369166 0.47820807859576214 -0.04667123368403066
73927000.0 0.79429448582886 -0.604245927945623 0.03625235696081334 -0.3958214457126796 -0.003404013100971199 0.0022481917065536117 0.47693797065717675 -0.05090756932337278
74926000.0 0.787043352380417 -0.6138378732171832 0.03018698049455284 -0.41180179193486266 0.004361036382398009 0.0016365162356362024 0.47850354665662764 -0.05835887204349139
75925000.0 0.7839581723943084 -0.6190260048593886 0.01885697471379582 -0.43465263424699513 0.00032427863457566047 -0.0019053811808923547 0.4710186008549613 -0.07415450231533276
76924000.0 0.7764066968310048 -0.627469094072344 0.009310435126023798 -0.4604552331571486 -0.002438011320546594 -3.7998581587385826e-05 0.48076693712431123 -0.08503939483032884
77923000.0 0.7708249328533893 -0.6352542568897653 -0.007869151877451826 -0.4866197837195068 0.0033842574551435967 0.0033307122297648274 0.4738765534000626 -0.08790316935513583
78922000.0 0.7659797188797928 -0.6429465569056527 -0.023923037619279785 -0.5127426696600903 0.0002946034558096507 -0.0030752413071649925 0.47944419377628683 -0.10177968240374075
79921000.0 0.7571159983316256 -0.6495926102129751 -0.038267193630417466 -0.5347567919241533 -0.00011287764393558551 0.0006395893394281921 0.47887028271850557 -0.10737410666030492
80920000.0 0.7535966552279056 -0.6589500875258406 -0.0540556654858623 -0.5628779283354168 -0.001044205571902302 -0.001365556935396026 0.4834311776512608 -0.1280265483863215
81919000.0 0.7459054210621314 -0.6646282841672662 -0.07203596183061377 -0.5909576366992294 -0.00026332359276377186 0.0016242323724821456 0.47730735502191735 -0.13656330095227395
82918000.0 0.7387571471487088 -0.6719966159101555 -0.08678596325147575 -0.6254759615145201 -0.007698606848480823 -0.0007844866929866704 0.4762910203123313 -0.13632467381159752
83917000.0 0.728931079227057 -0.6808045769197486 -0.1087348322617533 -0.652012465581762 -0.0005938160699959346 2.007674806195862e-05 0.4822641693954871 -0.148775725833487
84916000.0 0.7249907158792642 -0.6878846343260415 -0.12292948435456116 -0.6868559710633093 0.0019520836442372454 0.0021691817262510385 0.48115802444008277 -0.16434284680787528
85915000.0 0.718951596957791 -0.6926802407416007 -0.1396654757746838 -0.7204477908125135 0.0010894291053658565 0.0011819687666693016 0.47220847128854826 -0.17507128246612086
86914000.0 0.7101527544573876 -0.7052839431013479 -0.16379131958358192 -0.7575473449475413 0.0007402398688343484 0.0009844120500995032 0.47099961151958275 -0.169516987557006
87913000.0 0.7018570023630539 -0.7099126766158976 -0.1753312287157743 -0.785070012644743 0.0003447028571611205 -0.0017944545290324188 0.47426561819450086 -0.18289414699106127
88912000.0 0.6973801338982734 -0.7148272948104502 -0.1965345025903173 -0.8228502819690692 -0.0013609482112503057 0.0020029586655731547 0.47586648895464523 -0.21051948416946714
89911000.0 0.6880228337379235 -0.7256928680648844 -0.2162062823083048 -0.8632392375346603 -0.002133270812499505 2.1768375458713565e-06 0.48211743214399355 -0.20858363226265314
90910000.0 0.6793252876847754 -0.7299203113525455 -0.2305061590163524 -0.8957261277380089 0.0024142892495638145 0.0016349275780720661 0.46700177189417413 -0.20695197783230232
91909000.0 0.6723092668030326 -0.7354239530255788 -0.24862348544126345 -0.9306723471442772 0.0029937935373672954 -0.0019619656275322 0.4810250631724273 -0.21269704042360882
92908000.0 0.6647955718388582 -0.7440499729752333 -0.26995816197139433 -0.9649968802866807 0.003514324275204547 0.0023343445957930108 0.4683448019960685 -0.22751919013626828
93907000.0 0.6599344058591732 -0.7491240029936967 -0.2849229581619455 -0.9953441330802358 -0.0019468523846646497 -0.0007459284898531269 0.476282222126394 -0.2517572527085254
94906000.0 0.6459309350393544 -0.7578262532323523 -0.30150029095856756 -1.0310434603317649 0.003941629753224194 -0.002551940319403605 0.4622603491958342 -0.24830388156922842
95905000.0 0.6397854107319454 -0.764292888321981 -0.32513876536166963 -1.0701430196749822 0.0036069407421578602 0.0024031892746851427 0.4690401780578028 -0.2638039763640886
96904000.0 0.6325123109926971 -0.7721863488644937 -0.3487125338286463 -1.1071459210360688 0.0009747838955828661 -0.0003002483791684676 0.45981816560392696 -0.27940132030045883
97903000.0 0.6232195432931292 -0.7775795180195422 -0.3745367981275942 -1.140857727132235 0.002858239195830727 -0.0027567166121886598 0.454830781618977 -0.28671354563897133
98902000.0 0.620163839246837 -0.784476950386449 -0.38995327024242193 -1.1849907171164848 -0.0008007363407477753 -0.0024606617927512638 0.45510490919512536 -0.2850072148498993
99901000.0 0.6091955360524868 -0.7892394527130048 -0.4214158503023278 -1.2156133726682863 0.002678078124850023 0.002308233097782757 0.46897278880218246 -0.3086401422759256
100900000.0 0.5996118334872858 -0.7938343008726793 -0.4575057145346772 -1.24117718480647 0.0005700794311234907 0.0003280621809381832 0.46546606615643216 -0.3170788098089431
101899000.0 0.591077280122424 -0.8027449481504555 -0.4872775079788202 -1.2873211557987194 0.0018297194828308598 -0.0018416728574177257 0.45925923873547 -0.3200133721348478
102898000.0 0.5812300527270887 -0.8087006440512247 -0.5219131172031072 -1.3264760268019682 0.00023248220705681882 -1.16924244855561e-05 0.4575086840947428 -0.33461931374906745
103897000.0 0.5734880802776425 -0.8169061628702923 -0.5619379468758862 -1.3605957670307203 0.0031189015723094324 0.0006094332010440119 0.4602047479970983 -0.33280632963470996
104896000.0 0.5666495650670118 -0.8248399152013477 -0.6091259752010466 -1.393463566447424 0.0007084752068086707 -0.0009944939579712945 0.4490342822399162 -0.3413812258477072
105895000.0 0.555131909954178 -0.8271399825033405 -0.6631409731970208 -1.4424860754587228 1.0100423728521757e-05 6.170871079996984e-05 0.44684433040827676 -0.36362398172697413
106894000.0 0.5479192487289516 -0.8338320590348522 -0.712843202424121 -1.4813797660420247 0.0011546903839650528 0.0009977856076671175 0.4386229784965396 -0.3703085219986494
107893000.0 0.5395327606158062 -0.8396591975416496 -0.7675025178746426 -1.5144077682751382 0.004655939787617584 0.0011054741235232606 0.43199336608225464 -0.3874345507849334
108892000.0 0.5283546113227845 -0.8455883160137381 -0.8277261215077585 -1.5527333082695571 0.00018092384305215116 0.0003565871585296371 0.4222761034055869 -0.3835689066355536
109891000.0 0.5173025269948617 -0.8505007234598513 -0.8805684080599159 -1.5884953304391 0.0016661872464571305 -0.0004552633807507534 0.4469891392815569 -0.37725448557350905
110890000.0 0.5086348324375005 -0.8526358486899761 -0.9341082866659762 -1.5982142590973072 0.00023424930142089555 0.0021705924964130928 0.4387738441931441 -0.38340527613084635
111889000.0 0.49826887532806713 -0.8578152354326094 -1.007133475376553 -1.6546592348806888 0.0018584751961536856 0.0016894393234980416 0.42137240513301794 -0.40003332301499056
