! Created with skrf 1.9.0 (http://scikit-rf.org).
# Hz S RI R 50.0 
!freq ReS11 ImS11 ReS21 ImS21 ReS12 ImS12 ReS22 ImS22
1000000.0 0.9851614447248065 0.011629104145290229 0.005755777649566703 -0.043368482280895515 -0.014147924998018965 -0.006288101937693922 0.2995449271495473 0.29649579798535497
1999000.0 0.9908914586792161 -0.015856399389062376 0.007656407288783142 -0.026271085587167276 -0.00759055060050534 -0.0067619704052641364 0.25904544892777 -0.059948881847872074
2998000.0 0.9991732558554453 -0.021909544683287856 0.008942580133257081 -0.014603334609751835 0.0003630326689696585 -0.004158139292635201 0.18741385053080922 -0.13725880914249367
3997000.0 1.000778488512548 -0.02720077279766142 0.017697089694643214 -0.006105139543020534 -7.767362342774213e-05 0.0014958277369075674 0.10421841337985202 -0.21083569383428957
4996000.0 0.9986962794719073 -0.03597765558412566 0.013944747739794358 0.0010905681808581098 -0.007636785849141852 -0.0014830295675901956 -0.019647852141536568 -0.19931487065804776
5995000.0 0.9985981232882449 -0.04619655708854436 0.009055302736682837 0.001561822889422585 0.0019602683621177184 -0.0009423242281085204 -0.10509077547849273 -0.10681527942822146
6994000.0 0.9952855551914538 -0.05750863565143397 0.007283117123682502 0.004421907702329698 6.0678312607151134e-05 -0.002482436463440875 -0.13267738674121562 -0.022449198532952186
7993000.0 0.9972400363238216 -0.06367991017662325 -0.00044832349583794957 0.0038820485065311386 -0.0002871344585073326 -0.0028826620296633285 -0.15472396070722247 0.04154376835723829
8992000.0 0.995467354105692 -0.07098488120756904 0.00522368577465635 0.010013225949575537 0.0017477380121386464 0.0012160806553537695 -0.15761367822927147 0.06540527080595017
9991000.0 0.9958228135156446 -0.0821557391786832 0.0009338048449299561 0.002388327862867521 0.003044669991682975 -0.005635006132059236 -0.1458953323419371 0.08307791187190325
10990000.0 0.9934111787590572 -0.0897266844591432 0.0009540058236704312 0.001509197773973611 -0.00017025877439691124 0.001153617980345687 -0.14358026582363084 0.12185122960403605
11989000.0 0.9903944424616938 -0.09977854325951345 0.0029804890943097855 0.0026614286876977243 0.0005506588714236632 0.001714360212015963 -0.12002952703248554 0.1350287036498456
12988000.0 0.9915850098482099 -0.10515722745168646 -0.00042457848022860184 -0.006310165505744502 0.0004231574991620943 0.003129020835475354 -0.11676252591239478 0.17242494981747084
13987000.0 0.9890758708050645 -0.11604257237843099 -0.0021972972494363656 -0.007059092621585255 0.0015756970314178362 -0.0001207698280615572 -0.08392226170292982 0.191276171349243
14986000.0 0.9893884246490756 -0.12389521125297938 -0.0015790348303157881 -0.00346418342127688 -0.002288290418862922 0.002326870421454567 -0.08986005202669067 0.20835247383568653
15985000.0 0.9911889313727313 -0.1294520997480642 -0.0033975751010726675 -0.0032298727617928002 -0.00015204037180843787 0.0014785325157277913 -0.06052337700683569 0.2188561349489167
16984000.0 0.9878922674699059 -0.14054452893360142 -0.004265680374616134 -0.0036298104101749936 -0.0004266053503461277 0.0031852702414395012 -0.05922893451654515 0.20862577657440803
17983000.0 0.9869747936277969 -0.14918319929659532 0.0009580637238030468 -0.004370212043210447 -0.0007857904553709407 -0.0020971140260615134 -0.055781920610506915 0.2361336428005402
18982000.0 0.9836514839627165 -0.15961893964672838 -0.004436564586998303 -0.00641411522397225 -0.004946356605995017 -0.004628003479128928 -0.02511990987639903 0.23825007304949894
19981000.0 0.9850702405833529 -0.16089465897616112 -0.00718252286025428 -0.005466939522596228 -0.0022193587568761584 -0.0008215844767290294 -0.014315049864991634 0.24122141563230412
20980000.0 0.9826087114397913 -0.1748865544849942 -0.004953600766414246 -0.002733824670069424 0.0026159353917876126 0.0022412289410261043 -0.005283616412052214 0.26126165676079294
21979000.0 0.9797590608869033 -0.18020395643551568 -0.005770739408134615 -0.00605460583604764 -0.004525996077565777 -0.00034326339918523555 0.01348567621233754 0.24740494398897125
22978000.0 0.9783801546806228 -0.19000357804031096 -0.004412766944000541 -0.0020973657028844845 0.00042908309839474675 -0.0028919999954246135 0.02722202422731854 0.25481020273240096
23977000.0 0.9805682781666775 -0.19676648996523108 -0.0039213513721466356 -0.0026964196755445364 -0.000321632614363844 -0.002133337336546304 0.03988842570358576 0.25776447099377275
24976000.0 0.9767337808379186 -0.20594583269166822 -0.007615867691130332 0.0013038897153506278 0.0016488457360834894 0.0043407513205779595 0.06529940378951539 0.26309663510233994
25975000.0 0.968847051680114 -0.21871880165123161 -0.008208427064958909 -0.00108878509758862 -0.005835415576365164 -0.027038095090096765 0.07434310578786449 0.269988968380144
26974000.0 0.9708172445579887 -0.2260187792304751 -0.004061777541556591 -0.004265103376497045 -0.0017459181366835626 -0.0016200263363598127 0.10496875019162147 0.253522203793295
27973000.0 0.9714013685797941 -0.2314363813109402 -0.004624558340237018 -0.0010553983961899087 0.0011034211120852092 -0.003913224255917956 0.1089902419268869 0.24847131400771127
28972000.0 0.9663931221074579 -0.2417289816807247 0.0012141532971521895 -0.0005128117072088614 -0.0018723484760650468 0.0012450038942416594 0.1254923972799128 0.2581352375208401
29971000.0 0.9663337097104227 -0.25042479102375736 -0.0010244389434711553 -0.0027554108389130838 -0.0014940140331337376 -0.00035484279927238684 0.15559455365814787 0.2640848520020066
30970000.0 0.9633944140000795 -0.2561892789529714 -8.6970420029905e-05 0.001879263993693295 -0.0031990520614469694 -0.0003245743094283564 0.16615337564341792 0.24583923408255495
31969000.0 0.9618908043456266 -0.26491821500290175 0.004663460139920127 -0.005078149955828022 0.0035021614628316096 0.0017809013352393112 0.15254963143679726 0.239541948327422
32968000.0 0.9595988172661043 -0.2716346858088887 0.008666262962350289 -0.004505672645975914 -0.0036877702135977575 0.0029801379453812445 0.1767030879183262 0.2456718908872732
33967000.0 0.9579629466544718 -0.2828354810964876 0.011559470472357121 -0.01164438835571469 9.759833284193451e-06 0.0005102208368701485 0.18513145951994184 0.2423648196851518
34966000.0 0.9537940677597453 -0.291333127692884 0.011018538223547768 -0.012494524527816847 -0.0017785942327033046 -0.0021672664885275515 0.20073751320031694 0.24771579985974365
35965000.0 0.9520294407950936 -0.29774885750978414 0.017412358775185696 -0.01676198558596844 -0.00022763486895794696 -0.0021681418973036565 0.21264410982944976 0.24035034554757959
36964000.0 0.9505397495878488 -0.3069668926504445 0.015339394055679382 -0.014259241452987185 0.0012838459890622631 -0.002388999129461696 0.22072423469135374 0.24419464674909683
37963000.0 0.9459002738769073 -0.3166043362567731 0.020196225069307884 -0.0204969318260041 0.002348001526628079 -0.00028297176766633894 0.22549654025227509 0.2392264837580782
38962000.0 0.9442836715077413 -0.32592190341377825 0.02635181022101981 -0.023886120344780902 -0.0015413798924194333 0.00682961641655262 0.24949303608157777 0.22837230663063446
39961000.0 0.9423190169718426 -0.3302099445401668 0.027076886253498085 -0.027418654828695124 -0.0019410039381334814 0.0034619316479460307 0.2537355774062417 0.21814003350673877
40960000.0 0.939515131585596 -0.33766106609394614 0.023842573586128395 -0.022955913452530105 0.002247155514808783 0.0006582070509957126 0.2707085239013407 0.22861432581567864
41959000.0 0.9351225607406576 -0.3506530276210877 0.03161468052953674 -0.03270877710699883 0.0027976455823325694 0.002144527435276839 0.26696248231626113 0.2176227322628313
42958000.0 0.9312914518278537 -0.35732374169283576 0.03498952142922248 -0.04134586326688537 -0.0021439207791356185 0.0020435327969206963 0.2802878326432122 0.19847961223302177
43957000.0 0.9304002833430869 -0.3623954166543825 0.03491360315241547 -0.046830834746944716 0.0001996825784272883 0.002982119657819523 0.29060396847817765 0.2085824609710374
44956000.0 0.925098165533803 -0.3709397677467225 0.03751780930278987 -0.05288816765675943 -0.0018073985287819637 0.0028402727784768832 0.3031132783457632 0.18891302603177973
45955000.0 0.9219602128430947 -0.3814667579584302 0.03853058996984055 -0.055874163891158346 -0.0021355301381306437 0.0021714621873142794 0.30466923010072655 0.18532363193837564
46954000.0 0.9193959245593103 -0.3916898947582525 0.038203269288295684 -0.06345328681775252 0.0035263219274782125 -0.0005830502508938178 0.3334887541261185 0.16089828583427868
47953000.0 0.9154435430328056 -0.39802688240060324 0.03854644331482573 -0.0739697958885039 0.0033321233041747294 0.0008381095084651434 0.33852643473752564 0.1640079275794308
48952000.0 0.9094309520347978 -0.40904837643863257 0.0394865440278233 -0.08072758904828492 0.0011284274602566438 -0.0005165024525931517 0.33796655022688443 0.15954146482886133
49951000.0 0.9069364219529936 -0.41607383089194844 0.042272979134476966 -0.08796933797173918 0.002293079795017218 0.001814355732866021 0.3598133633161726 0.1450245512080765
50950000.0 0.9028229680247745 -0.42340294680119667 0.041546404152263246 -0.09514427424425921 -0.0001258471992402223 0.002005632835034519 0.3587943193559913 0.13181988644688977
51949000.0 0.9004397260651684 -0.4313579574479697 0.04085869209531303 -0.10451670694248076 0.0041746671542371066 0.0011721573484114094 0.35757974327753966 0.13643674396425934
52948000.0 0.8982633130351525 -0.4380413372458263 0.044374248160599136 -0.11286833097544043 0.00027810810155534004 0.00022393471426798635 0.37310485568914126 0.12935347750712042
53947000.0 0.8912775623244302 -0.4466804375154809 0.043006977486413335 -0.12290259993073026 -0.0002858674572926895 0.0008524495820809653 0.3728248692497759 0.12609238311209567
54946000.0 0.8878549291138793 -0.45455978911050665 0.04632690485960712 -0.13217302093097108 -0.001010767637567954 0.00043308258045123135 0.38633541490442047 0.11570486901539316
55945000.0 0.884462896433428 -0.4622462734285603 0.050943358666823466 -0.1434169838791535 0.0013581857046873025 0.002881317053238511 0.37913600026341215 0.09301825098130971
56944000.0 0.88009130634403 -0.47183228636736907 0.05157167049274076 -0.15473790589518835 0.002725215408567168 0.001057174985198327 0.3991606308464691 0.09797725194277934
57943000.0 0.8762669704648509 -0.4819655488106511 0.050143859430476945 -0.16693182456687689 0.00015189689905480814 0.0006149531127870915 0.39605086996993116 0.0844060451217844
58942000.0 0.8695724039606435 -0.4862222874561669 0.05298990244803647 -0.1788664954393572 -0.000407221352227205 -0.0008266723890914989 0.4196638508337863 0.079156102229503
59941000.0 0.867647027376255 -0.4947411409021372 0.05202785768143351 -0.18885263281913892 0.0026377798426388305 -0.0010790998646410188 0.4170618526732922 0.0711740530975378
60940000.0 0.8594280096124791 -0.5045679619471815 0.05362655557160397 -0.19049646412449675 0.0020702779562371924 0.001968646805274718 0.4165670246102212 0.07351052903249547
61939000.0 0.8567673315950198 -0.5095819793277125 0.05445969741061819 -0.20053604386033427 -0.0006546772886159471 0.0019014173148171531 0.42208631229399174 0.049636944169327075
62938000.0 0.8515651236864075 -0.5203439365822893 0.05559944967582071 -0.21976588079899 0.0024160292899478544 0.001177396063147004 0.44346579605859365 0.03932388293146839
63937000.0 0.8458699808972138 -0.5267254829092164 0.0593927247768707 -0.23730083680244132 -0.0019173533066432708 -0.0014649273505550082 0.4460341629209067 0.029105229919065254
64936000.0 0.8403654543318783 -0.5349580107032476 0.05947059453797708 -0.25511408292469767 0.00019458060709339874 0.001527504424113778 0.43854452048478954 0.03358557395454209
65935000.0 0.8381837088012134 -0.5417391415886825 0.06138327382939838 -0.267396002658501 -0.00040982365489291574 0.00262768817244174 0.4425057571159818 0.007795063130712041
66934000.0 0.8320697538366735 -0.5499806759788723 0.055510369243705136 -0.281125678551849 0.0001197628880659674 0.002773997586866849 0.4409888264019147 -0.005269811756785215
67933000.0 0.8297612622785481 -0.5550963508895645 0.057614410639822054 -0.2986160280783936 0.00048730137385981576 0.0006832047460749494 0.45083625650229187 -0.010884700780898779
68932000.0 0.8168859591336263 -0.5488778894711788 0.054366111311199894 -0.308384431789525 0.0020146406897676374 0.002819315183379215 0.4440160160915853 -0.018850261090155907
69931000.0 0.8162674867304198 -0.5725760414406141 0.05458105841243619 -0.3297622079449648 -0.00026960154546856415 0.0002792304482357927 0.4460633091703197 -0.028302341970653205
70930000.0 0.8104530437360713 -0.5791748308368881 0.050654783957198454 -0.3444345725458749 0.002303155114558644 0.0013530603886310315 0.46052380723169156 -0.04425010448663112
71929000.0 0.8079637207422894 -0.5867477150106986 0.04521726703237964 -0.36443014738202223 -0.004563785732119166 -0.003874807990946845 0.4468566888154622 -0.061259497891194
72928000.0 0.8001253453213395 -0.5990545494922872 0.04061713866946199 -0.3811897990979109 -0.0031655754263748247 0.0076146760355534394 0.4643673988183231 -0.06234247541078579
73927000.0 0.7944354551594748 -0.6014304612617806 0.03378164380332947 -0.4000709013105575 0.0027067621844786495 -0.0016153568948923855 0.4569049395915435 -0.07029425789783984
74926000.0 0.7891955881464683 -0.6121590789452933 0.028075117059649306 -0.42179433918348336 0.002628586660228808 -0.0027905154507486896 0.4659507397432831 -0.06897427742606113
75925000.0 0.7831329795798935 -0.6182457421991019 0.018157062094061073 -0.44117347248832856 -0.0034429518876881006 0.00172089732522453 0.46806595767353504 -0.09256603137305028
76924000.0 0.7776894390975232 -0.6256070381446964 0.00780238395611182 -0.46403704190119505 0.0036164470078137766 -0.0034939966919953977 0.4698124906037084 -0.09782458530318655
77923000.0 0.7717170977527333 -0.6305115787652897 -0.007094537510279298 -0.48963057909484703 -0.002465118472367539 -0.0047823317288214475 0.45581991867118377 -0.10156720507917612
78922000.0 0.76678018913152 -0.6421679829681877 -0.018396509156984094 -0.5188751599409988 0.002350594808471969 -0.002637170576201818 0.45054867417676814 -0.12333900029818798
79921000.0 0.7554051315107488 -0.6457160860325754 -0.03810373642744405 -0.5454519044786239 -0.0007377704991494234 0.00384258610416342 0.461649238706392 -0.12965701663931906
80920000.0 0.7510421084286036 -0.6559400023692088 -0.05034918834336286 -0.5729866043492244 -0.0007477105205124271 0.0038621363787292697 0.47255317434253674 -0.14781818230106908
81919000.0 0.7467077522255482 -0.662154271696762 -0.07016807508111972 -0.5995195012211115 -0.00016904787564982738 -0.0003669336356499367 0.4701556613254821 -0.14471407700565486
82918000.0 0.7386696559310783 -0.6697130929111826 -0.08310943994015096 -0.6310476912586198 -0.0007443200418418025 -0.002130011696544556 0.46574564326550727 -0.15742173057173153
83917000.0 0.7320336034581882 -0.6779866201430674 -0.10765613785431044 -0.6606058446246852 0.001731319150553059 0.0014217317290643244 0.478177360898382 -0.15565564678564836
84916000.0 0.7258513264394717 -0.6851933442146526 -0.11952215744183609 -0.698922888039481 -0.00019350600846373582 -0.0008189806904222056 0.46290605994373213 -0.18731902738742234
85915000.0 0.7204468527180656 -0.6900186939711372 -0.14371856831741026 -0.7297771978054631 -0.000761473972890898 0.0015243289323481832 0.4650652677107536 -0.19011428401654898
86914000.0 0.7118199739033538 -0.7019152906528171 -0.1604724304934918 -0.7690820513680653 0.002257233068294496 -0.0008661390746859388 0.4550953162119723 -0.1806126901381101
87913000.0 0.7038069319360757 -0.7072341649656979 -0.17856847541050516 -0.7992333370722019 -0.0009281103053413393 0.00026807132659836255 0.4609349533159289 -0.1990239834407965
88912000.0 0.7004773284389355 -0.71361629729712 -0.19627538069974196 -0.8325890827600199 0.003297265065691532 -0.0010769828018451443 0.4608375758174175 -0.21462654320406407
89911000.0 0.6919160250323765 -0.7202698475463177 -0.20780212827703928 -0.8670472035296192 -0.0018703041108934812 0.0005316101200541098 0.46404531211853606 -0.22013192883770955
90910000.0 0.6835730172065942 -0.7273367038147278 -0.2352973242764376 -0.9027780435380276 0.0008555977080182246 0.0018720003562293895 0.45867176362170775 -0.2266783036731841
91909000.0 0.6751560386094629 -0.7313997984209303 -0.2517787717275682 -0.9411798869824817 -0.0012827465164410698 0.0007101200591219067 0.4672304646736957 -0.23601172843908072
92908000.0 0.6685375821308681 -0.7408809843393288 -0.2670489477270459 -0.9727517402132352 0.000939992293480345 0.0019713730685736682 0.4570929355826747 -0.25083254955131484
93907000.0 0.6618787939449164 -0.7449742299912279 -0.29456603352092076 -1.0034549208114691 -0.0009003362565164119 -0.0009056134868021863 0.4546988729922483 -0.2709734796314563
94906000.0 0.6487459740041879 -0.753505625774856 -0.3130619326962798 -1.0366215425585512 5.9160700527074774e-05 0.0021537246627278397 0.4545901542325102 -0.26457228291123497
95905000.0 0.646280309504926 -0.7596911248633994 -0.3325871980756865 -1.078368847663991 -0.0015837034529362951 -0.0023815650312678125 0.4504380506722015 -0.28923058348595715
96904000.0 0.6348144344853159 -0.7696688118886517 -0.3570441092143063 -1.115450575911081 0.0012859559046417637 -0.004402505392989426 0.4507695306456329 -0.2858152002020113
97903000.0 0.6284950130478155 -0.773130266524359 -0.3788464516448261 -1.148065955455576 -0.0004279559465894349 0.0017443393940124556 0.44160388503758485 -0.30597226220641566
98902000.0 0.6239751773304613 -0.7815295321921107 -0.4011996120002313 -1.1918673064648866 -0.004077249349146964 0.0014006871349022446 0.44234177548684306 -0.299274546168142
99901000.0 0.6113905994141825 -0.7875947856226364 -0.43235567350397325 -1.2210992718030445 -0.0010408451430084743 -0.0038338495930299184 0.4645029259163372 -0.3241328068557112
100900000.0 0.6017639989847949 -0.7895646327741813 -0.47024932526262897 -1.2496158475923882 -0.0029716603361494482 1.0296088584971121e-05 0.4500416880509317 -0.3277854986088736
101899000.0 0.5936115016279948 -0.7993061276607086 -0.4965423734695026 -1.2901532745179052 -0.0017222560665385658 -0.00045337234075327955 0.44648500835019217 -0.3302447717489692
102898000.0 0.5849904733143338 -0.8033807680181744 -0.5358998188833082 -1.3331679562777667 0.0005911477460446902 0.0026280357261312644 0.4426548984772452 -0.3544223009689144
103897000.0 0.5774411879962045 -0.809880970747265 -0.5741147352621937 -1.3656057783675424 -0.00022449908582531652 0.0009990790025216209 0.44714680375851124 -0.3550679102897747
104896000.0 0.570062498167631 -0.8226483868189859 -0.6193848321880382 -1.4007040560248247 0.0003653669336636922 -0.0014628812180451259 0.4327263162222676 -0.3547291799369007
105895000.0 0.5601008613186144 -0.8243858299407786 -0.6660445701907929 -1.4473832637844621 -0.0034478606201234084 -0.0006322071487821272 0.43553256980578775 -0.36754124634300117
106894000.0 0.5514631096479709 -0.8311303745997917 -0.7200380342252156 -1.4895475625229586 0.0010766057284363035 0.0009771503276846075 0.41722152021429704 -0.3767438945903051
107893000.0 0.544666362933251 -0.8365877268440317 -0.7710298208174649 -1.5275407471812947 -0.0006749592229952685 0.00028241147869487073 0.4275882875123788 -0.39042493450499705
108892000.0 0.5321808907853306 -0.8399654446409875 -0.8337490145565135 -1.564422067156764 0.002325132117156263 0.0009857998000757733 0.42443000950904325 -0.3889088558391972
109891000.0 0.5212286170061262 -0.8496869106905679 -0.8954964683018397 -1.6027715700494978 0.0027020922785063162 0.0010259436074855886 0.4294464219516145 -0.3993897247563536
110890000.0 0.5103108993538749 -0.8500993249483495 -0.9536754101241884 -1.611310292068061 -0.002217838419451385 -0.0003501791348929612 0.4074801549280871 -0.3888305560482383
111889000.0 0.5025341478616634 -0.8549369492734256 -1.02068617747615 -1.6738151312522913 -0.00267881202296588 0.0005222966930906696 0.4103771378441198 -0.4150323301236523
