! Created with skrf 1.9.0 (http://scikit-rf.org).
# Hz S RI R 50.0 
!freq ReS11 ImS11 ReS21 ImS21 ReS12 ImS12 ReS22 ImS22
1000000.0 1.0054090512002702 0.0132724647949229 -0.0019627334669442852 -0.04883676528329182 -0.007049638932943079 0.001686891158205879 0.31238069391362744 0.3391094265750226
1999000.0 0.9953355854916927 -0.011232319683366722 -0.0020487078633695645 -0.019061465646181764 -0.009270128673284868 0.002249373086271307 0.26722506668675133 -0.07302007886294902
2998000.0 1.00277218156912 -0.01913683807106722 0.007977679698929851 -0.01397276161006415 0.00021640846291800186 -0.0007399735674052607 0.19232186021400727 -0.15016468148610662
3997000.0 0.9994715534285861 -0.031624451507322605 0.01197047552912693 -0.011205587888931728 -0.0015152104726698357 -0.0022966682730668035 0.07545454233713539 -0.24329594011551745
4996000.0 0.9972504310357587 -0.035546709288530993 0.007024014958791808 -0.00022005900821806622 0.0020999502163573753 0.002814824114668732 -0.05137339580500511 -0.20750300604208674
5995000.0 0.9982985663399275 -0.04569698142389011 0.0065711681493857785 0.003221209134874339 -0.0033822279760560314 -0.007327358489966485 -0.11744870710138629 -0.10121147259679987
6994000.0 0.9941218180918424 -0.05738847170930523 0.008821457851992122 0.0005779756059960722 0.002397485864597371 -0.00714571354508112 -0.14399831847149994 -0.015404453912439582
7993000.0 0.9968812911427148 -0.0663603167325458 -0.0009381238007917003 0.0057932842536620914 0.001071335870271034 0.0008415782333399591 -0.15440863593283602 0.04875801005589645
8992000.0 0.9953431458777146 -0.07174095549366977 0.004714263979555666 0.006499109482072446 0.0018744448875414835 0.0006964655224191618 -0.14847005194262713 0.07194503906562012
9991000.0 0.9941020575412007 -0.08195688715728043 -0.000501268528407476 0.0019804044778269922 0.0017232504818504933 -0.003676162773790361 -0.13927007544284803 0.0990517919885522
10990000.0 0.9938559036111363 -0.09215032450996409 -0.0007717985140320244 0.004896826383630724 -0.002988999495714796 0.00020722149560721927 -0.1358959203672328 0.12162805275323091
11989000.0 0.9912041890446307 -0.1012173429229212 0.005786256047770727 0.0017242061445594855 -0.0012562932624054972 0.0009973037475787165 -0.114757854485573 0.13952618622992619
12988000.0 0.989963185547051 -0.10834337856802896 0.0004875071470227528 -0.002390725640561404 -0.001125538021609625 0.0015626083229367143 -0.11222928524471638 0.1678643724363812
13987000.0 0.9896975157465838 -0.11533811047975691 -0.00031655185737416926 -0.005735703262665962 0.0007078670183646316 -0.0006052453202632519 -0.09551178758084097 0.18665482092266547
14986000.0 0.9871087633900952 -0.12565847656038598 0.0007555793901734221 -0.000834656545555212 0.00045390674803601026 0.004183322751424683 -0.07322201103603868 0.2024401943900426
15985000.0 0.9896867101020546 -0.1316477728234391 -0.005404189332308621 -0.002373548148692522 0.0005495847962112166 -0.0054004600017845215 -0.06431752576801876 0.2183959445665607
16984000.0 0.9880648043300051 -0.14023499859275076 -0.0016118260063963544 -0.00301865261976339 -0.0013113270422575659 0.0027575000510505934 -0.05928057473420875 0.20772396241510485
17983000.0 0.9870287071400583 -0.1492423798102433 -0.005350591267250551 -0.004678914029539564 0.002747372068460318 0.0017279606124978877 -0.054217773811929944 0.22468263526921348
18982000.0 0.9834899607676436 -0.1615037999220415 -0.004929088097615638 -0.0005049525419560249 0.00023056646024465207 -0.0009777924029507753 -0.02638636026207035 0.23930732538959235
19981000.0 0.9831070049755699 -0.16535974441188717 -0.0020011436043980676 -0.006066576700798953 0.003803463006078173 0.0036372920400752516 -0.011195323566557001 0.24107793933546262
20980000.0 0.9818544093460433 -0.1751000781402813 -0.0026411823089073617 -0.0027207480848315925 0.0001834003445345073 0.0034433249878581926 0.001186302569964976 0.2620570146489053
21979000.0 0.9796607573295062 -0.18355138565965218 -0.004687105725701406 -0.0041173382639512505 0.0009140878127256747 0.0034604381147898583 0.012674978487690966 0.2483053593593714
22978000.0 0.9759072517324562 -0.19253449862558206 -0.0037938477538033842 -0.0062519381966683754 0.002637875275096703 -0.0019081727442853524 0.028421406933933014 0.25342774096689924
23977000.0 0.9803971708196472 -0.19676298628256167 -0.00963959073125054 -0.0023556381189793773 0.002561156064124281 -0.0023290217452397086 0.04924316347924491 0.2584000584375251
24976000.0 0.9751036416894492 -0.20854012495674315 -0.006605796441319091 -0.0020636893236037302 -0.0002957188204737339 -0.0030321080748320337 0.06592977532218951 0.25553604077776504
25975000.0 0.9749879146891648 -0.22045126420611402 -0.007510127092340437 -0.0027259062900059808 0.025449838952501306 0.012238745050933421 0.08382563924327702 0.26128462010890724
26974000.0 0.9738782548218344 -0.2251141615407126 -0.003128230675322518 0.0007077276767374747 7.257494580244952e-05 0.0002945201880092798 0.09500843212169054 0.2591644601633838
27973000.0 0.968902539140903 -0.23227019869822058 -0.004613299014593553 -0.0016462229297547013 0.0023974713143762134 0.003278521820720916 0.10389193064722131 0.2595373550385242
28972000.0 0.967321726360058 -0.24158000469574722 0.002938522297288527 -3.50594227299613e-05 -0.0009943622259986462 0.0017835300747290521 0.12001951525970875 0.2534727970233187
29971000.0 0.9655924688083902 -0.2518731994347913 0.0007889140383711873 -0.002399528063831899 0.0012330698327608137 -0.0010673997882870404 0.14652703375003806 0.26726212751981
30970000.0 0.9631869903107086 -0.2559486705302432 0.003000532587597891 0.0011034527622255082 0.0021757625519513743 -0.00204549754522611 0.17164953982198533 0.24273995588880845
31969000.0 0.961741632260369 -0.2642900464833308 0.00482058948409342 -0.006290599337451714 0.001114039168647193 -0.0035005998072787283 0.14893883060263585 0.25688956739564056
32968000.0 0.9605462960522534 -0.27316866753948316 0.007306835632001814 -0.009574982501321277 -0.0011041667901331533 -8.621178306530416e-05 0.16469377357203668 0.23994341020457868
33967000.0 0.9579419966975584 -0.28228485681505305 0.007735384309990275 -0.006315704618374444 -0.0015245538396244887 -0.004202545710410088 0.1871966361986789 0.24078519495579345
34966000.0 0.953950590918825 -0.29272408078363565 0.01198418351758065 -0.012195748263511684 -0.00011711908864843672 0.0017674235757075805 0.20487925915926142 0.25283467604613136
35965000.0 0.9519965148544788 -0.3008183092332088 0.016227827976032182 -0.014030006214549846 -0.0026304531980969816 3.0595777002102905e-05 0.20963868425210383 0.24792032534273323
36964000.0 0.9493875850966528 -0.30682111890374464 0.017712459909748516 -0.016892666624176055 -0.0009685895997791394 -0.001076176499278667 0.21600927988987575 0.2447428084223463
37963000.0 0.9477383451416471 -0.3179675776241536 0.021244724645477837 -0.02055864607696301 0.0006044207932210882 -0.00012060155901973416 0.23530002465947458 0.23375748947413566
38962000.0 0.9429548579250623 -0.32887065560114287 0.025940267285221842 -0.024053571418216662 0.0033817988200785273 -0.0009914227020880043 0.2476008590999206 0.2317310979712936
39961000.0 0.9413574695013917 -0.3339978906145017 0.027128129881555312 -0.027955637966776324 0.001533144314540133 -0.0015175600967649572 0.25618999363079925 0.2210737243555892
40960000.0 0.9367894689734496 -0.3414995564644886 0.019386199588828576 -0.02289081401942934 -0.0018694074250146947 -0.0002221257253087288 0.2678470308459159 0.21620730899076232
41959000.0 0.9325708174366142 -0.35202015311286566 0.02825043432194613 -0.03161130100488444 -0.0010793920324121927 -0.004277035664378434 0.27019378947381145 0.21161620913763116
42958000.0 0.9305175807776103 -0.3595265509441318 0.031451862132747775 -0.04243955376335414 0.0022140983076456002 -0.0038676085117396375 0.28120486658540916 0.20116987778661655
43957000.0 0.9278352024697115 -0.36537760395786356 0.03300006265300429 -0.04794360498698227 -0.002824770156162809 0.0018228635277639247 0.2942317936760203 0.20298460027842466
44956000.0 0.9255174945042871 -0.3713840280471239 0.032956377092670346 -0.05241167513584845 -0.0001204083479581785 -0.002327111993749115 0.3041369791978182 0.1918190806708913
45955000.0 0.9213794263631334 -0.38411353468960613 0.03295909492514248 -0.056889055933153326 0.00022652418985750155 0.0006962130903260887 0.3077414088244949 0.18616695743260955
46954000.0 0.9170787197466278 -0.3930056720403488 0.0353819800087861 -0.06519884753320307 -0.0017638627355824473 0.003121110881565025 0.3309625768464893 0.16811866902022424
47953000.0 0.9136546308573337 -0.4005370852267605 0.03321322796303927 -0.07283966457689922 -0.0011238132562450681 0.00048547320812981757 0.34448640315485846 0.17472161683497647
48952000.0 0.9095991916285469 -0.4091704642721589 0.03342772617163482 -0.07900220316810284 -0.00036064149428977017 0.002557500562511266 0.3360528522783249 0.15783962753884825
49951000.0 0.9060565309862345 -0.41635353946638975 0.033620428637266574 -0.08411675579179494 -0.0006763153271427767 0.000316392996314329 0.3538882295372743 0.14371876956394206
50950000.0 0.9018957206164738 -0.42302585099931084 0.03623677781476783 -0.0942518430669828 0.000218057702985169 4.625329300355275e-06 0.34953981721092076 0.14151370195198806
51949000.0 0.8995577080221593 -0.4323709970186709 0.038650245654142976 -0.10306863251190637 0.005077491861142338 -0.0001270913416496897 0.36602198596354435 0.1334455275844902
52948000.0 0.8954056385589865 -0.4406839672971707 0.03908071961237184 -0.11315188047570918 0.0012249984229996901 -0.00280006220053203 0.37659009874940946 0.1387230030453135
53947000.0 0.8912373831744544 -0.44741706336074244 0.03867180402711023 -0.12075770808316454 0.0015083372828121595 0.0027270889974070948 0.38385656398893786 0.1202234975976264
54946000.0 0.8843443370786256 -0.4590931323097375 0.04019157577732425 -0.13321809846498187 -0.002076609302440971 0.0019928059957546357 0.3876865719706185 0.11965111079998557
55945000.0 0.8828828509279791 -0.4633318319026696 0.04253020212516993 -0.14066401690411867 0.00023606291506760287 -0.0004326470979340849 0.39430949997368814 0.10189995131358028
56944000.0 0.8785147247409505 -0.47313632258190885 0.043832603855232695 -0.1502496765037457 -0.000749972769146227 -0.00367921105702026 0.3987292475087201 0.10793908850166307
57943000.0 0.8734083419034565 -0.48461592137841963 0.042681528600526576 -0.16057622931982313 0.0016872646288259138 -0.001763938329651281 0.406647207974227 0.08296170238589504
58942000.0 0.8685849262483076 -0.48914457042802983 0.04380620691978718 -0.16786536205754538 -0.0008405801981671579 -0.001786743203253971 0.42308824901675973 0.08452691844721595
59941000.0 0.8682042657597083 -0.49604337989095837 0.049517952435737436 -0.18017191328343063 0.0016200242080628294 0.003741351242183818 0.4294148590495159 0.08284342062405681
60940000.0 0.8597931440458209 -0.5038099798592741 0.04661217128055171 -0.18712381956755936 0.0002112758426324498 -0.0010691831743854503 0.4118996083204743 0.06480487768246972
61939000.0 0.8561020066317174 -0.5103892170208406 0.04729346019340882 -0.19394867686306722 5.877833929725272e-05 -0.0019171967344239107 0.42223242985615916 0.0652061414623164
62938000.0 0.8506671266644855 -0.5207596905343079 0.04613957430427608 -0.2077528095694982 -0.0008101669295616027 0.00013772070411425115 0.4453814215470419 0.0516837699551433
63937000.0 0.8456832796342695 -0.5285533679270485 0.05105817958731301 -0.22962601745777783 0.001394310540781022 -0.002010436773904351 0.4365318920613088 0.031621874111086974
64936000.0 0.8380769035610524 -0.5347402944444328 0.05087910290854681 -0.24124168922817119 -0.003266895445755457 -0.0005561561458109175 0.43696942068451383 0.0347375980988948
65935000.0 0.834927624575759 -0.5449621470985673 0.049767726173264186 -0.2574214773922001 0.0018944515469218055 -0.00017328416103492707 0.4377567676348323 0.012142826224296131
66934000.0 0.8318020630912887 -0.5493098498726159 0.05184044677882498 -0.2680531898392217 0.0012728201665136538 -0.0036643671665126786 0.4405320131892068 0.014399587633923072
67933000.0 0.8277609185048791 -0.5575672668709658 0.047871754657799095 -0.28115606904705703 0.0018825191236965765 -0.0009885334700538337 0.45485649608094025 -0.0009621331610601871
68932000.0 0.8228562436651203 -0.5520617664494871 0.048342484250675 -0.2954482261218761 0.001232958017545344 0.0030138518103866117 0.4516346649892561 -0.013834883615426842
69931000.0 0.8156183665524576 -0.572979430823918 0.04945920998152504 -0.31148829303844383 -0.0015587595653855618 0.0031977541468691767 0.45048935049027583 -0.029905320898786978
70930000.0 0.8105581091637336 -0.5798346878334487 0.04747932615286332 -0.32323399580506695 0.0042557223737489675 -0.0020885386756467916 0.4479072283813962 -0.04008962260056559
71929000.0 0.8042633220660329 -0.5891720216408012 0.038735712528649525 -0.34266368969995614 -4.6990905305788485e-06 -0.0021082377222868356 0.4569484476725502 -0.04857377336594969
72928000.0 0.7996115487648773 -0.5975124914199152 0.03537569703757667 -0.3544614660516931 0.0023364863258357803 0.0007716453437968866 0.46880370786166 -0.04976945135481551
73927000.0 0.792008343171385 -0.6033471188726418 0.02700430693262388 -0.3763857158090278 -0.0005553509298569137 -0.002644835306427049 0.4618335298444135 -0.056763782262101284
74926000.0 0.7852736191823492 -0.6138829221645239 0.022001983428035624 -0.39533582513592835 -0.0014122601047371797 -0.001392567167991451 0.4704321074544177 -0.07313739058781882
75925000.0 0.7806629953324169 -0.6183877908429457 0.012132270387113078 -0.4166855613719942 0.00011539660900065721 0.0018912539656640906 0.4720403412883966 -0.08044579157006292
76924000.0 0.7747985659528459 -0.6277029724140339 0.004339590849496017 -0.4381615951985625 0.0016990079195641258 -0.0008086400764984267 0.4578261330929123 -0.08630722147184987
77923000.0 0.7683599122641132 -0.6321720791702876 -0.013102476560754847 -0.45955604666197664 -0.0027975896292773347 0.0037271286426899604 0.46744537923043716 -0.09977090560936491
78922000.0 0.7636300759257811 -0.6435218159678705 -0.028464237788219056 -0.4836425162641781 0.001136032097358416 0.0032319429406738355 0.4609636341323179 -0.11488679525309499
79921000.0 0.7542150149841571 -0.6471504317555908 -0.045955666765978405 -0.5085022667103208 0.0009259176507916008 0.0016877488271815101 0.46622882225651074 -0.12630426485794877
80920000.0 0.7495738658845528 -0.6600640093808225 -0.060648955758401284 -0.5337463559881842 -0.00017921423206288117 -0.00012625902009405813 0.47815486189667034 -0.13295436981752826
81919000.0 0.7447322032432744 -0.6642361898552488 -0.0779943863528308 -0.5631343714305187 -0.003307812208008797 -0.002463065473560938 0.47274930284398153 -0.13931714142390889
82918000.0 0.735635770919851 -0.6713795207489996 -0.0939475726806847 -0.5882139036757015 0.0012460470290260638 0.002907960815288837 0.4726708836253134 -0.1629823343122361
83917000.0 0.7288621276936136 -0.6786810742270175 -0.11237521803453394 -0.6191973359549369 0.0017724696366445654 0.002548946134576618 0.4750922506620787 -0.1630012345653878
84916000.0 0.7238060598742004 -0.6865357803125671 -0.12797815144466512 -0.6517805231600637 -0.004441809416849343 -0.002257057611402178 0.4699193093496116 -0.1709987590755676
85915000.0 0.7172073265849381 -0.6904308437409832 -0.15061434822958705 -0.6803887741375343 -0.0016913656003507088 0.0027110203639866457 0.4627454721529865 -0.18494491281976264
86914000.0 0.7100442316979324 -0.7005931073750961 -0.16562360989135014 -0.7157396608066077 0.0032692495553508388 -0.003655993932617824 0.46755989548851723 -0.1823451036161018
87913000.0 0.7036558722097614 -0.7083476001722034 -0.1835450664582422 -0.7482916363002058 -0.0014722340507871776 0.0004887291976000389 0.46099294972677973 -0.20169281996938504
88912000.0 0.6957265432148259 -0.7158594686580244 -0.1999037203015841 -0.7783817151267017 -0.0016769672329474301 0.00037922732197145166 0.46668416891798353 -0.21927964648213705
89911000.0 0.6887181430110556 -0.7234500441719546 -0.21422177452304927 -0.8173107291564181 0.0003452164082724227 0.0014221588741629707 0.46873950827565986 -0.2129594303582084
90910000.0 0.6808127263602768 -0.7279953785779734 -0.23152271548318767 -0.8490497241388698 -0.0012810507719586595 -0.0018596599586387082 0.4536753298548737 -0.22401102067101877
91909000.0 0.6721470250293485 -0.7347245056673939 -0.2542383588608478 -0.8740406790028384 -0.00430863478581568 0.0025742771408803415 0.47944763956275477 -0.23109792678148974
92908000.0 0.6654963521018821 -0.7430082642717292 -0.2685121023883665 -0.9127944112580769 -0.0018715201255909916 -0.003564716705364941 0.45165648291376986 -0.23585662806451618
93907000.0 0.659128727377435 -0.747984781248792 -0.28260160238412146 -0.944666815547115 -0.003106701017724066 -0.0012549444869683487 0.4604365205269762 -0.2645068971671843
94906000.0 0.6462557888633174 -0.7572049682791651 -0.3033697776739318 -0.9733903142214171 -0.0012889739520206421 0.0001888448735027971 0.4672907063125217 -0.25772851860619655
95905000.0 0.6402616544583346 -0.7625130521179794 -0.3266169675076913 -1.0052094968811625 -0.003506909891589862 0.0007798729453373691 0.4511710640085283 -0.2786111362569924
96904000.0 0.6344406795145612 -0.7706931439743718 -0.34070693011810654 -1.0497152235108795 0.00409144105657329 0.0014481777716449174 0.4533919498834626 -0.2835540327289875
97903000.0 0.6229244734355882 -0.7764993556339859 -0.36680734508606794 -1.0780107856658534 0.0005728366477728826 -0.001684781442833855 0.4469225723621248 -0.2953904899945517
98902000.0 0.6194831483296029 -0.7824430465354286 -0.3820161763247601 -1.1141381489968871 -0.0019757077455466363 0.003512198157591201 0.44984020859163415 -0.3064278940537808
99901000.0 0.6085394227592741 -0.7895835069913819 -0.41023068838961985 -1.145158468978149 0.0004731068788963686 0.001250878383073645 0.45898490463144753 -0.3141079407169788
100900000.0 0.6015237091432839 -0.7929357373100963 -0.43881658775332827 -1.1715157985932265 -0.0015351550457189834 0.0018830559311139822 0.449884099322319 -0.318005610532182
101899000.0 0.5915027826928811 -0.8001502511426076 -0.4677910340036382 -1.2088989910682393 -0.0022294208267604797 -0.001490846022567931 0.4449637805084842 -0.3253514397702852
102898000.0 0.5842675963121318 -0.8066215533920749 -0.49600925463904855 -1.2463919464347544 0.001885198371258565 0.0014281886155210922 0.4458907535705296 -0.338197605846501
103897000.0 0.5731743731902734 -0.8157815025378653 -0.5364100573484325 -1.2762708446158486 0.0029186626773831854 -0.0010781986088149145 0.45328294041860845 -0.3323485864246459
104896000.0 0.5676378532510874 -0.8236007108335307 -0.5793128799086137 -1.3106299518632207 0.0015120666266103674 0.00150337697560896 0.4328737042925569 -0.3444999546604325
105895000.0 0.5552451524269472 -0.8246305566442321 -0.6210693221685707 -1.3435391834219321 0.0024055454573128927 -0.0032945913706105205 0.429890290064774 -0.3680596711920833
106894000.0 0.5479114861345511 -0.8330987229985576 -0.6693002461078955 -1.3803902133385728 0.0028644980688701605 -0.0005411565800395667 0.4257320755949571 -0.3708797175710876
107893000.0 0.5411777437976945 -0.8381025369070524 -0.7241967239840896 -1.4185567389874516 0.00044720965363480975 0.0027816372103171244 0.432888300723281 -0.3871918472862132
108892000.0 0.5297676801696126 -0.8433225820412418 -0.782249467362939 -1.45546465837766 0.002086097262151838 -0.001332681548961569 0.4253863215368868 -0.388201998494748
109891000.0 0.5184554996548997 -0.8500187617962255 -0.8394208071784478 -1.486951913209329 0.0010752222151087574 -0.002202777470734985 0.43753055511914407 -0.38092896453555963
110890000.0 0.5114284731295043 -0.867417154744719 -0.9116754276755671 -1.5121255877315782 0.00358152028250885 0.0008522930179684253 0.4270123601545027 -0.3896293952017498
111889000.0 0.5001499872604397 -0.8579366392953399 -0.9563126407017339 -1.5586883478213585 -1.5336817831821125e-05 0.0006854812795759514 0.4195986690188373 -0.4018067840935743
