! Created with skrf 1.9.0 (http://scikit-rf.org).
# Hz S RI R 50.0 
!freq ReS11 ImS11 ReS21 ImS21 ReS12 ImS12 ReS22 ImS22
1000000.0 0.993455072810133 0.002787005816882824 -0.008287029290230277 -0.0418660140125062 -0.01566691475374375 0.0017510264391283256 0.35920397609583943 0.33829791170792
1999000.0 0.9939230221679057 -0.010773219876466204 0.004212621312637677 -0.023007920269505256 -0.008605104747713534 -0.005107504904919622 0.23122779205806077 -0.05643209903241424
2998000.0 0.9960230626511546 -0.023194113237075945 0.01094689920960655 -0.010441492215900728 -0.0028289713634242824 -0.002268472264548403 0.20212071415284807 -0.13375902916567042
3997000.0 0.9992987932006868 -0.030783083680828806 0.011552250590066863 -0.0037655914863935843 0.0029642778825475814 -0.0026569146026244853 0.09828884779960699 -0.20982758899817175
4996000.0 0.9958083746044742 -0.03533891165493264 0.012892695247915665 -0.0036866351189767652 0.0005216041767353037 -0.007358907221645975 -0.03695492812905859 -0.19449428530200089
5995000.0 0.9919024449894766 -0.05061063185990004 0.012266683309969965 0.0025071019350047 -0.006181111607460266 -0.0011240357497072616 -0.11416175191826532 -0.10059540964697365
6994000.0 0.9920078533587198 -0.05817831988451348 0.0074418296834635085 0.0051882678178387645 -0.0058392716247690265 -0.0063319539117532506 -0.1420788458437238 -0.0181340766383451
7993000.0 0.9952061267601351 -0.06839042751474683 0.0014526894103022063 0.0063324869954067674 0.006244472575917426 0.0012064465834487627 -0.16047550942646338 0.037304760538127854
8992000.0 0.9933112549037049 -0.07221764458764228 0.002672761669152298 0.0021800273446702964 0.002974904421853182 0.001873351178673765 -0.15738052272230318 0.0581490396881549
9991000.0 0.9885925711683962 -0.08497880761118973 0.0052347153386998095 0.00199152945902915 -3.1636873290078327e-05 0.0014545833062254863 -0.1363252755612127 0.09161891028057154
10990000.0 0.9900623058724531 -0.09398564832739617 0.0014794466039084202 0.0029299740168103614 -0.002872848062172017 0.0028322223308516036 -0.130732697131182 0.11350039838170897
11989000.0 0.9888571286287944 -0.09961197701589981 0.0005751568379467135 -0.00262676394003575 0.001863249789955784 -0.00034496627495267824 -0.12127662709963402 0.14510789363896204
12988000.0 0.9879068332753898 -0.10822302648138853 -0.0008069024106069895 0.0018715502556705843 -0.005078421143301659 -0.002221638849018146 -0.13283196184151347 0.16130895583734559
13987000.0 0.9845149822164688 -0.11913163808286209 -0.0007400037533065636 -0.0025064794479093978 -0.00260485069611902 -0.0019195121690232277 -0.09025280397742656 0.17544182122829838
14986000.0 0.9845195438248298 -0.12615052733520019 -0.00019044626557131346 -0.0072581850133221285 -0.002032700777885796 -0.00357216538291307 -0.08017859858766171 0.19847202061300384
15985000.0 0.9858829519958385 -0.1357613593515151 -0.0008006623660102009 -0.004471498989607841 -0.0015718034455654956 0.0005252153557850683 -0.08138113930886251 0.22166539006293137
16984000.0 0.9811852124102003 -0.1459064706911596 -0.003364674877623891 -0.003938077680072684 0.0019421474979187136 0.0038670185800986374 -0.07695321753927957 0.21884153861833983
17983000.0 0.9808945448427349 -0.1515494081141989 -0.003923979136301438 -0.0043635681105800355 0.0013186469955141513 -0.0003671479744156318 -0.05087125653210025 0.23162930947903645
18982000.0 0.9786105102651821 -0.16297887927127244 -0.0028893001536414173 -0.001253314446684343 -0.0017506382575398197 -0.00046092859356080705 -0.026438256206495363 0.23486478676549133
19981000.0 0.980524230331676 -0.165624170197089 -0.004017880241518287 -0.004879080301585223 -0.0011676790313806312 0.005508814702862494 -0.00969244350793452 0.23369557173407865
20980000.0 0.9782415835784026 -0.1743334825873075 -0.004468695552295845 -0.005547183523031424 -0.0024539706316188212 0.0018802312133491255 -0.00759802372257684 0.25341729783117956
21979000.0 0.9759723020303631 -0.1865975551783936 -0.008442885970938157 6.136180118492263e-05 0.002051673460366467 -0.0039293580383858995 0.008708793237096824 0.24235078109590133
22978000.0 0.9730589807942511 -0.1949521296130233 -0.0026809293383833945 0.0012878542564650614 -0.003333508939611775 -0.0012328112515824876 0.015374989559994874 0.25873161840221626
23977000.0 0.9756530303501257 -0.19944012331929736 -0.005353985345483307 -0.005511221949155195 -0.0015710251150965824 0.003035367720760661 0.0412253277528212 0.24435656426343957
24976000.0 0.9705877221977184 -0.21187421963760628 -0.007804528400638328 0.00037144564347256135 -0.0006493439913738657 -0.0004256210084554766 0.06971823304355608 0.2537107434543804
25975000.0 0.9658610732859427 -0.225527662318676 -0.0044782053034333824 -0.0023499181466598218 0.01486869303235848 -0.025146562071374574 0.07979600638358543 0.25924434511178984
26974000.0 0.9689107360527759 -0.22837507361064627 -0.006455029696179213 -0.004562715061927985 0.0024430129000494374 -0.00021857859545947663 0.08221412457080551 0.26314491145278884
27973000.0 0.966406102983043 -0.2345396716765165 -0.003471217778210042 -0.003785587463781354 -0.00021349242949139373 0.0036958494188208415 0.09963494028775458 0.2699166097202163
28972000.0 0.9622961995102125 -0.24673048297322567 -0.0007199601287436234 -0.0007062139871508248 0.00033018491496112474 -0.0003085478679963854 0.12449268885452257 0.2648676569662121
29971000.0 0.9621286184010676 -0.25265792543012183 -0.00029669876274129577 -0.0009574450002442879 0.0004246600732436339 -0.0009860233399173223 0.15210652402885416 0.25937324815959645
30970000.0 0.9588651944918217 -0.2587623857869628 -0.0004742099715551452 -0.0016319140886742992 -0.0013112691157837056 0.001645205235036595 0.1696217051553775 0.253444322603964
31969000.0 0.9576762040470124 -0.2669656217158026 0.006733741488143514 -0.004972692999025253 0.0004614343636498066 2.5036065062220808e-06 0.15483937876725093 0.2505716175626677
32968000.0 0.9549564044889787 -0.27844788964271616 0.008137946707362547 -0.004391642815112252 -0.0037464663328078147 0.003026106203958738 0.17048406150904455 0.24161894775944273
33967000.0 0.9520314015838465 -0.2868881773275032 0.011470875592493551 -0.010963769018979547 0.001039808274020855 -0.0004209066986610819 0.18864639381320983 0.24547878929608427
34966000.0 0.9492749490691649 -0.29682795379602384 0.012424670213925425 -0.014494415964956792 0.0021413406064329276 -0.0016464494730302117 0.19756304976033742 0.24793988679999523
35965000.0 0.9482350697653655 -0.30452526831787285 0.018672089879788765 -0.014817225473113716 0.0005492012620412964 -0.0014482224739853498 0.20891336251426676 0.2530834450986128
36964000.0 0.9462406037135834 -0.31271626799984864 0.01662174761755295 -0.013783505833726518 -0.0018982023244281756 -0.001905983738869635 0.21107173752920666 0.25639225328859233
37963000.0 0.9429331463854442 -0.3204828407772348 0.022670618987336386 -0.01995913099764173 -0.001481087480350252 0.0008560141162099734 0.23420086965459627 0.22837899976580772
38962000.0 0.9389135944693103 -0.331900750993003 0.0246211334059436 -0.026728599174979748 0.0011947984357867291 -0.0026886814108669672 0.2489651284417676 0.22344115074214546
39961000.0 0.936405426515419 -0.3393456933946212 0.02852272266229757 -0.02955829417032817 -0.0005238819770012399 0.005364705395523064 0.25314588291090623 0.22858836589218132
40960000.0 0.93390660750982 -0.34576334219014443 0.025142915517821746 -0.025567206625552164 -0.0031086738091814707 0.0005335212173336345 0.27221988856117174 0.21700233899141091
41959000.0 0.9312071467954008 -0.35697680891364475 0.030210792550868306 -0.03529896695511641 -0.001876418472158221 -0.000264415559488106 0.27562514154052137 0.2100186914723724
42958000.0 0.9250550988022624 -0.367225117393863 0.03279586781649127 -0.04369159275219012 0.0010704164034152474 0.003878796899490816 0.2802508483010811 0.18986082034091287
43957000.0 0.9241525745384971 -0.3716374238096423 0.03591127611219141 -0.04707530069998438 -0.0016501173622601132 0.00233821109604495 0.28701743001298896 0.200839534810104
44956000.0 0.9206054020459074 -0.3804507999582773 0.03718235713859526 -0.05401422560713015 -0.0029053582372469936 0.0005843950473661124 0.301149928900671 0.19752646260215562
45955000.0 0.9157217127265264 -0.39003495328136567 0.03729357641283776 -0.061607330328458734 0.001222972632633491 -0.001406748864591512 0.30932464113613756 0.19670583317990264
46954000.0 0.9136243581732298 -0.3988076453035396 0.03928045271873737 -0.06755403028547621 -0.004250656216935575 0.0026998236998787436 0.32938991571644766 0.16621478500215167
47953000.0 0.9107949375257832 -0.40595111101141784 0.040571870618738716 -0.07530358725682547 -0.002812087736762483 0.0028848455920118246 0.32840918987277873 0.16857000096133712
48952000.0 0.9039863459008742 -0.41651408449989413 0.04195691233134237 -0.08318292867722349 -0.001896747747654612 -0.002435336791712217 0.32663161699771776 0.15816494537809644
49951000.0 0.8997681291639571 -0.42377202708743344 0.0464361364741806 -0.0903397138774043 0.002262164199360163 -5.943781127525829e-05 0.356404251909127 0.15382455773411327
50950000.0 0.8975653458344063 -0.4299517976042926 0.04316213201852074 -0.09920468355085756 0.001346580356997113 0.0032477774418592058 0.3528213274320637 0.1459467885432102
51949000.0 0.893558255590718 -0.4393394156818541 0.047059917938653814 -0.10926020276663947 -0.0012468631638967635 -0.0010643971556789096 0.3587387461469989 0.13825953041609487
52948000.0 0.8907866897743965 -0.4490525349953758 0.04795430163654848 -0.1179136928245016 0.0013821758285516308 -0.002263100353578606 0.38647034634919586 0.1296911333350611
53947000.0 0.8858399933035133 -0.45335402068585595 0.049805927151236745 -0.12802519931519613 -0.0039139421632400076 -0.002138952744992774 0.3712052590286939 0.13507831327581885
54946000.0 0.8797072027656907 -0.46629784941833463 0.04929285861863926 -0.13874892792167026 0.002542130740445515 0.00015091750299770838 0.38423878556042684 0.11630500478456773
55945000.0 0.8766826918792737 -0.47303150178007214 0.054666872308789895 -0.15023134075147057 0.0004420159103209689 0.000834872248962753 0.3836405847118698 0.09798601863579652
56944000.0 0.8706289126337762 -0.4821849042267175 0.05828272318043991 -0.16028786793753985 -0.0021070717680384777 -0.001689323723960332 0.39275142548422154 0.1004127386438194
57943000.0 0.8674841124159013 -0.4906424089690943 0.05649793100818493 -0.1720866498513013 0.0001705486309460122 0.0019275830934233267 0.40146268679909775 0.0871272240364029
58942000.0 0.8622849558004261 -0.4959943700025809 0.05832295421652751 -0.18392823701092453 -0.0016932178433545673 0.001718930088236781 0.4153885971141499 0.08116790130112074
59941000.0 0.857792510263994 -0.5053560450781169 0.05644135882870097 -0.1934995274718257 0.0034513319466895737 -0.0006932253522917047 0.423230067143098 0.08111438874909133
60940000.0 0.8506225084721316 -0.511941506981587 0.05842350868216469 -0.20430956234663863 -0.0011958054644810436 0.0005278979467721728 0.4095441198805355 0.0624516507470983
61939000.0 0.8480865543633958 -0.5184281517636007 0.058856683897754725 -0.21078591839095842 0.00023967897298692294 0.0024590088511845442 0.4116839230518836 0.05513758417495968
62938000.0 0.8414558074523354 -0.5289744639335044 0.0588853619321774 -0.22717043947302312 -0.0019209937436215675 0.0019709386560638554 0.4423841958729972 0.04653560898109828
63937000.0 0.8366046391582768 -0.5375752317246856 0.06411719060290365 -0.24904109418766798 -0.00013789331888865776 -0.0010643031636309605 0.43583255001042254 0.029975550020132215
64936000.0 0.8321436411767661 -0.5429280470587918 0.0595805218754914 -0.2661270680601544 -0.003010338745308782 -0.00013525031412916372 0.4297516108468772 0.029463037329684135
65935000.0 0.8278051053290066 -0.5516418564215665 0.05927795961035365 -0.2780596888123003 0.0020869466514322602 0.0008261155256619235 0.43155832828903795 0.022652885080786177
66934000.0 0.8213844887355914 -0.560146010366557 0.06112955587077166 -0.2948196940246737 0.0003126795381540727 0.0028557439281365468 0.4405658524788516 0.00816198924238216
67933000.0 0.8190735426978255 -0.5666865737896333 0.061159495088550626 -0.31008079235503044 -0.0025809876181020672 0.0005618262510810768 0.4494227471246592 -0.00043236684035901285
68932000.0 0.8034846461502239 -0.5733900409990127 0.05482780868850061 -0.32177231173559234 0.003985449674963406 0.0008265092983857356 0.4628093738262141 -0.021657922305650845
69931000.0 0.8049115117278058 -0.5837932911451263 0.05339140638580314 -0.3411850623934114 -0.0013550541927064886 -0.0012491917210054532 0.44803747778010017 -0.022832409900320618
70930000.0 0.7977640173250503 -0.5911794595428675 0.045209727239120825 -0.35840094670986056 -0.0024252137479043455 -0.0024863960583695753 0.44808141778806326 -0.02876906209192596
71929000.0 0.7941669338403466 -0.5983510391773564 0.0484172828712388 -0.37972633260010613 0.0005102881431875066 -0.0003912354821373527 0.4446374681582805 -0.04824468668863046
72928000.0 0.7899821092912038 -0.6094291525434441 0.04136253573151854 -0.3951671712833808 0.001208079537007814 0.0009125830004547456 0.46102243112738367 -0.0583890864189258
73927000.0 0.7806556548981712 -0.6130776051239413 0.032036741387291276 -0.42137003401961015 -0.0007514168557897776 0.0018460215449598643 0.45733644652212196 -0.05891208599666356
74926000.0 0.7756943956281164 -0.6223102426227061 0.024000637701329847 -0.4415381010396379 0.0025768106078019673 0.0014146968632605568 0.4603184756569363 -0.05646942331885951
75925000.0 0.7697892232521732 -0.6279103548475815 0.01148806670168798 -0.46033441581578227 0.0026017867885242793 0.000967035527468106 0.47174476341741745 -0.08275933117325712
76924000.0 0.7634204152952918 -0.635063719951285 -0.0019863213101048187 -0.487327922881034 -0.0018252612690252935 -0.002857705350800914 0.4587087564461156 -0.08813136977069036
77923000.0 0.7566285686900539 -0.6411892608076343 -0.015184992723469596 -0.5103598809743456 0.0035715051451778337 0.0027239948602866826 0.45319549007334065 -0.10268393458172807
78922000.0 0.7513004960734992 -0.6516027469499449 -0.027001394423799983 -0.5400456875866897 -0.0020653630852658584 0.0005809999802900994 0.46166788147600424 -0.1069469789356302
79921000.0 0.7436797312344996 -0.6550359300648954 -0.049690189919047514 -0.5692585830277915 0.004068110002724337 0.0041869015403439075 0.45207138233249555 -0.11493555519936649
80920000.0 0.7391670728597396 -0.6669811233850359 -0.06400115382142986 -0.6001271376854456 -3.5439217025963536e-05 0.0021550112183479665 0.4601493098974936 -0.13616850168398129
81919000.0 0.7321667480102635 -0.6725054749220079 -0.07477622420038516 -0.6306138117575079 -0.0005921015912053662 0.0030315962399734353 0.4657282153595434 -0.1362598601423575
82918000.0 0.7241644979219722 -0.6793725185194186 -0.0944073101646113 -0.6646868632645622 0.0027107339747336804 -0.001537714260330749 0.46869507842605196 -0.14284378655089272
83917000.0 0.7155608236258639 -0.6873576459688764 -0.11496844265839623 -0.6915257056550415 -0.003532776029501809 -0.0003164444308892037 0.46688622680174025 -0.16379296563904686
84916000.0 0.7099113960854063 -0.6943374889303252 -0.1291637081154339 -0.7286006196503478 -0.0003095401529882879 0.003084218116758437 0.466087781974502 -0.1761785238645422
85915000.0 0.7027003558286926 -0.7006664230632355 -0.15395876435513142 -0.7627165332620246 -0.0019061550094569967 0.0015125689674266086 0.45520571134453985 -0.1806677374168158
86914000.0 0.6946158943268675 -0.7113037998784247 -0.17049580189873167 -0.799051216731386 0.005233280603726 0.000617942866108225 0.4550766599630716 -0.1812501642422839
87913000.0 0.6881384773037849 -0.7164722476858598 -0.18734434246615456 -0.831837149856824 -0.0004972097195650621 -9.22183071646966e-05 0.45404500125528613 -0.19428776576019188
88912000.0 0.6831149942880538 -0.7226191382795174 -0.20347719545858656 -0.8679555440489497 -0.003958437244950115 0.002978069798878418 0.46083045659610383 -0.2219619153535724
89911000.0 0.6735928333081317 -0.7316862260374482 -0.225558681559029 -0.9047629756733818 0.0009238829740274656 -0.004614949634614354 0.4669687270228883 -0.22282804566666037
90910000.0 0.6666963056313006 -0.7373519074970751 -0.2397496561099783 -0.9409031528638573 -0.003107427117655858 0.0009441035960407138 0.46563857623365995 -0.21298534166249572
91909000.0 0.658226853780822 -0.7421730720356272 -0.26400299621012735 -0.9767374373259559 -0.0008870002522764483 -0.00034758182940067083 0.4605344739101082 -0.24000755313185423
92908000.0 0.6489479968839766 -0.7522936989489373 -0.28478518005060444 -1.013611117764868 -0.0018229081363207466 0.0009959649007046495 0.4492160621851789 -0.23994577422376387
93907000.0 0.6441053348967943 -0.7553330509930626 -0.3069168865059563 -1.046169176778541 -0.0026603645831053597 0.0015801324654466933 0.45772181783076 -0.26605530353613427
94906000.0 0.6333387702224361 -0.7635121952026255 -0.3252422600021019 -1.0816031053569166 -0.0004466959627402208 0.0028739090608451037 0.456860217973464 -0.255846823269782
95905000.0 0.6259583660100309 -0.7704133074097643 -0.35091632186985416 -1.119830841978079 -0.0005355772139353571 -0.0032535397220108194 0.4512640934345596 -0.274786478214786
96904000.0 0.6170511369527091 -0.7792068695150018 -0.37854676779528174 -1.1621395952383453 -0.001817784131160606 0.003951915399714508 0.44854567330266754 -0.2908123894995821
97903000.0 0.6078095949577915 -0.7829393391535806 -0.40275057771977635 -1.1946184191809477 -0.0032901402814304206 0.002412093469646015 0.4410231468702396 -0.28514667949087374
98902000.0 0.6038071287006006 -0.7911677679040877 -0.42672108220872207 -1.2346641446270388 -0.00010949597053140631 -0.0020728314126125607 0.4456598364776632 -0.3043407797760636
99901000.0 0.5942960011011743 -0.7985484145599145 -0.46703890618670996 -1.271540969562885 0.001998995161735479 -0.0023188264092764994 0.4552097597755547 -0.3256037272361632
100900000.0 0.584416774676007 -0.7996462573477684 -0.4935035727843991 -1.3032496193431378 -0.000597491287405747 -0.0010977044514509464 0.46083122444245345 -0.3156961370350755
101899000.0 0.5746767584470573 -0.8080469100385093 -0.5285820900237358 -1.3427639382241165 -0.0002562523717822804 -0.0016036921647223808 0.4418836451631548 -0.32525303604628053
102898000.0 0.5648169595706333 -0.8123857341985922 -0.5728183992381407 -1.383394085237556 -0.0031876210096820727 -0.0007595083778066203 0.4475272835769135 -0.3443196955828534
103897000.0 0.5553820748891253 -0.8195444993603765 -0.6153567003948485 -1.418829158998068 -0.002016199564518045 -0.0021029203207295435 0.4492798234094677 -0.3468374145088121
104896000.0 0.5499763238462793 -0.8313527349095164 -0.6696467943184783 -1.458278876160176 -0.0011594365737002525 0.0003731283289837684 0.43236363210490086 -0.3371995895772383
105895000.0 0.5366160942633158 -0.8339246483343588 -0.7218563713668996 -1.5018934433577547 -0.0006267772007391127 0.0003419473035229874 0.429080243164867 -0.37765958306334374
106894000.0 0.5298906618420598 -0.8383978721905155 -0.7813917813305106 -1.547650673709391 -0.003456388142724009 -0.0034750175208963876 0.42071717465253095 -0.3700958746938308
107893000.0 0.5211359354067414 -0.8469964510620694 -0.8340626991495707 -1.5873055449683695 0.00020659875353197936 -0.0018129482646891174 0.42663152950535377 -0.38462862056394403
108892000.0 0.5114108400598516 -0.8483874094971453 -0.9028238326866997 -1.625824778484108 0.0007785491107867699 0.0012945127584702014 0.41709500023141427 -0.38088034369071416
109891000.0 0.49910661133765527 -0.8585197826206701 -0.9650761980356782 -1.6656264831242928 5.1538989818979364e-05 -0.0033389987449725764 0.43792825264235596 -0.3806903309444736
110890000.0 0.4804704948405449 -0.8717176675694269 -1.0575395976167234 -1.6675226137814916 -0.0005287560651243724 -0.0011903991645003749 0.41756168371630903 -0.3902729097913422
111889000.0 0.47759936678581005 -0.8649512516846214 -1.0979100961740231 -1.7343992720302748 -0.00013462668378106863 -0.0040084222506759585 0.41131425645520575 -0.40042331682071314
