! Created with skrf 1.9.0 (http://scikit-rf.org).
# Hz S RI R 50.0 
!freq ReS11 ImS11 ReS21 ImS21 ReS12 ImS12 ReS22 ImS22
1000000.0 0.9819633932782844 0.0046939278229683945 -0.01794655215391261 -0.03560566765399709 -0.01447008537596857 0.010723642389234195 0.3841713731262541 0.3535891447362156
1999000.0 0.9933773400475548 -0.011602649459691548 0.005929679203891711 -0.016629274330861046 -0.008131350892704293 0.002473219060458875 0.2452329083059928 -0.029512433061754235
2998000.0 0.9996381585848869 -0.024878062820618187 0.009682034715056947 -0.014859659194504837 -0.0042364359576026345 -0.009516145303878638 0.1824553251233159 -0.12427248104123895
3997000.0 0.9966280794870498 -0.03245094658580367 0.01726315982916348 -0.005940073682434946 0.0007925064277522576 -0.0016367709786199035 0.11049718917845384 -0.21625318896529822
4996000.0 0.9915084044126107 -0.03492906124431402 0.012553293300168399 0.00168067157185667 -0.002678412732654961 -0.004142415973565641 -0.04410852338823968 -0.19403909729927915
5995000.0 0.99646260341183 -0.04870301196772051 0.00732525416256912 0.003192366394113272 -0.0019407402392699821 -0.0010994846615020569 -0.12563263752762238 -0.11507513555000944
6994000.0 0.9914560249412264 -0.05738108205447354 0.00578915481088728 0.006420035484549961 -0.0003401965611569572 0.0029778617271815997 -0.12970873829412233 -0.03465557691680931
7993000.0 0.9956429680310187 -0.06774790166775482 0.004441514834111395 0.0024821231646250806 0.008824480810529195 0.0017944079228542182 -0.15996694250538046 0.03146493146727481
8992000.0 0.9871600803274165 -0.0711297514991343 0.0071466214871454955 0.007405425482797752 -0.0014090637100707037 -0.00047515225295770584 -0.15683596615311027 0.05945584070703607
9991000.0 0.9906133673601879 -0.08509316892999882 0.001570088847142819 0.0027650578819579403 0.00117476820131363 0.003716778863906533 -0.1520476075687005 0.09507170820346317
10990000.0 0.9903765212814736 -0.0900303488852889 0.0021316651186433686 -0.001246091244836892 0.0009539910656365299 -0.001879147046484303 -0.14194549357374667 0.12129507014757625
11989000.0 0.9856432183747461 -0.10256530579524754 0.0032640490009042266 0.0029188606550837816 -0.0057916944323492155 -0.0008314654373448708 -0.13305756363500895 0.1386677902741496
12988000.0 0.9842249787966988 -0.10958516032126743 0.0034393261877602808 -0.002202529343864988 0.0012815741823235967 0.005196408115198575 -0.11628450960138983 0.15738701825997048
13987000.0 0.9825386941192065 -0.11801210007251195 -0.00019272501055099525 -0.003955462734013445 -0.004602148456163945 0.0037654579264583244 -0.09348582763495852 0.1914458060220877
14986000.0 0.9850484750763835 -0.12423401546956254 -0.001690627117201136 -0.0032698128265061556 -0.0003998326940556882 0.0008032263055192916 -0.09085607046316208 0.20401306835760039
15985000.0 0.9851587427747742 -0.1333009410935505 0.0008932227574771208 -0.002453746775555695 0.0023068210411015958 0.0019021482503556206 -0.07075174779674699 0.21358982868045356
16984000.0 0.9839476627526911 -0.14126351601711074 -0.0009520374537354086 -0.00375657875844298 -0.0012202826751491467 0.0009660938043771119 -0.06141765759570513 0.218366370438002
17983000.0 0.9827697725533461 -0.15014378190735872 0.0011452799192485839 -0.0025595472032111377 0.00532354803840261 -0.0009366253586785457 -0.061782875093472404 0.2353411064846819
18982000.0 0.9785912165580798 -0.16010637848748385 -0.0028291835192287753 -0.0031270505866909607 -0.0005611154371068659 0.0011194323880611863 -0.02846921995095692 0.240201230011576
19981000.0 0.9794999504226848 -0.1648414980639214 -0.0035716093076992852 -0.001994859059095612 -0.0030597011162889773 0.0032652648835094504 -0.013947128577773497 0.22902315470957307
20980000.0 0.9776675425205745 -0.17737264149462503 -0.0055362692192308174 -0.002923534199252232 0.0016708816791141193 -0.004335694885217453 0.0008994420647862611 0.2594290462806902
21979000.0 0.974767627528872 -0.18630145832691244 -0.006903694397372283 -0.0024565194213338848 -0.004527751312332193 0.0004133204588186972 0.00984342285079196 0.2420639255926841
22978000.0 0.9741101694732675 -0.19195478823088014 -0.0056117827354762026 -0.0007862257540778173 -0.0016652277704674767 0.00041373688770149147 0.028803213815880302 0.2482490929749325
23977000.0 0.9745848097335076 -0.20126998525786868 -0.006732604310595125 -0.0025856651492905908 -0.0011737737205667381 -9.686541575958441e-05 0.02921669923712231 0.252752168712313
24976000.0 0.9699825691334635 -0.21130801846415034 -0.0075911089280534 -0.0013696098238651598 0.0010859522971707703 0.0009571187291337092 0.05998447437848533 0.24994840478672162
25975000.0 0.9607942286304515 -0.22193640860484304 -0.00809714937181692 0.002005684161323726 -0.00552431881034292 -0.02724618502796477 0.06944748896732571 0.262165848581815
26974000.0 0.9684265165497496 -0.22771587601288892 -0.00410197132276069 -0.0035711449956770057 0.0020053545915745836 -0.00028952350242205906 0.08769017355463227 0.25724469591717236
27973000.0 0.9665901704939502 -0.23285117555528065 -0.005917615123089978 0.0012759419776685722 -0.004084078496035717 0.001587135196988156 0.09555657415120129 0.24723002386742185
28972000.0 0.9618352150718602 -0.24617270761737262 -0.004311325129290474 -0.003434470707335918 0.00027892771591031307 -0.0028365907899260082 0.10822882503536062 0.25212798826283706
29971000.0 0.9605954270536022 -0.25399738214538276 -0.0013419628371213563 -0.0029381719407626915 -5.499843972487542e-05 0.0002907935449559347 0.14731300349047713 0.2700491654432849
30970000.0 0.9586106191417658 -0.2579236269472812 0.004445244094667838 0.0015288046006016313 -0.0050269919402952295 -3.771896376889462e-05 0.16833260997255015 0.25270450464688854
31969000.0 0.956808500894197 -0.267371830084247 0.005418420804332505 -0.00306389034258354 0.0007867619549572217 -0.0020133217412706024 0.1495238291856716 0.24942589305574134
32968000.0 0.9548918820681841 -0.2762044784327025 0.007802795673103322 -0.009169060338213512 -0.000730260385012994 -0.001234962974566312 0.16782503097043855 0.24209212171768693
33967000.0 0.9525774266500078 -0.2864337220193337 0.010906172037453619 -0.009567545903096823 -0.0034357712486347025 -0.00203493015957677 0.18348180221099697 0.23734992599409965
34966000.0 0.9491736587779729 -0.2973765641102818 0.015495747633271746 -0.010578985473378487 0.0024944134171382627 -1.2880207475599737e-05 0.19662911908610695 0.24811590525281038
35965000.0 0.9477592588765017 -0.30301028515029677 0.015146324836795908 -0.014761896713778326 0.00019888840220683103 -0.0011132072231927951 0.21042169248324974 0.25737693024528185
36964000.0 0.9448093733056776 -0.3137546501643168 0.01733475956983026 -0.015142160214321413 -0.0010508558974465327 0.0017950535594134349 0.22015539473954787 0.2452150625554512
37963000.0 0.94222256323601 -0.3206037398580423 0.023015282285429848 -0.02142163811247821 -0.0016621634734707033 0.00025559346950931037 0.23844299195558322 0.24034417253445045
38962000.0 0.941050762867139 -0.3298452405358847 0.022835897293084124 -0.022750741525271505 0.001578108336004567 -0.00042498754466089564 0.2421999654308755 0.2327291311165895
39961000.0 0.9361762975095178 -0.33872352629596136 0.028132852972869635 -0.025824116225282523 -0.002272678890343744 -0.0010763012713896267 0.24924311407950403 0.2302556095602262
40960000.0 0.9321146448224352 -0.3460073908062448 0.024761539088610243 -0.022886335918255393 0.00039208185452503446 0.002182976868451246 0.27064825056620245 0.22077655202365604
41959000.0 0.9297228338667611 -0.3555664752191337 0.027576955715246185 -0.029559008191909132 -0.00241530589103441 0.0021516627987057998 0.26373089236664166 0.20723255856282546
42958000.0 0.9235543975915459 -0.3657936842392401 0.032711524275713104 -0.04268782531541555 -0.002388653277010932 -0.003353671830490416 0.2759581139011877 0.20533400719339973
43957000.0 0.9221897198792451 -0.3706752582383121 0.03434467792462553 -0.046798648176563165 -0.0016537663083713123 -0.0010695529012091551 0.28934651415409385 0.21154184727347627
44956000.0 0.919259935670683 -0.3802630095614505 0.036464502718876045 -0.05104762491238042 0.001054438580559517 -0.00113883670309998 0.2972619829506453 0.1857754925447655
45955000.0 0.9152396368208106 -0.389364545330094 0.0369189600425283 -0.05971511093708357 0.0011445797661368989 -0.003302153137189431 0.30832393586000584 0.19381748798752657
46954000.0 0.910273080231473 -0.3972533154939129 0.03869424137795444 -0.06612145539251686 0.0005585794800068777 -0.0032543804905448975 0.33109841821793523 0.17554733220012558
47953000.0 0.9102408992556871 -0.4054471243099378 0.03538913427722817 -0.07308129926820071 0.0012193055439577954 0.004230822160404971 0.3406150666470296 0.17166873072880692
48952000.0 0.9028309738354713 -0.4174102632713939 0.04028229142599246 -0.08012281822278478 -0.0014547597806240371 0.001747524171014153 0.3423114985489451 0.157155084229482
49951000.0 0.9000596025753427 -0.42220785214502604 0.042404441723550186 -0.08795643112293744 0.0012760690046248568 0.0011721134284853694 0.3509926411565652 0.1504336394126614
50950000.0 0.8964903027634885 -0.42970875769877986 0.040450254500975544 -0.09492508715285074 -0.003065160861200352 -0.000311041218505712 0.34540093567652874 0.1326646714230223
51949000.0 0.892176101005884 -0.4398832324741859 0.0431555249787996 -0.10664062420224389 0.0023747193235544627 0.0014727115120542226 0.36486738955953 0.14022596371576185
52948000.0 0.8909825667726773 -0.4463686735605129 0.042168451414737254 -0.11561695395802876 0.001143484342510734 -0.0015800948828892504 0.3682816686759557 0.14513025010056863
53947000.0 0.8836430971471522 -0.4571113979996436 0.04566713391183777 -0.12092008726249034 -0.00022778825712332657 0.0005324015889887231 0.37044071441976034 0.12526028921081722
54946000.0 0.8784032417003101 -0.4659058461785885 0.049953508080065025 -0.13241788104306337 9.32558912754534e-05 0.0014867720004665885 0.3848898913982663 0.12411087765554964
55945000.0 0.8754193991491902 -0.47342249088237326 0.05136195212513866 -0.14218836480100952 0.0017002810652187517 0.0006739855232329451 0.3891452099910224 0.09381198450247735
56944000.0 0.8722637122044378 -0.48071010276083637 0.05220752563187208 -0.15247100729173865 -0.0006614962288056117 -0.0022907355068617053 0.39777093763458127 0.09831959894174727
57943000.0 0.8658505137717656 -0.49165202843695227 0.05230731965510869 -0.16445262295539187 0.0033817103044213427 0.0010175700685159275 0.39912416623818303 0.09877203818675234
58942000.0 0.8615276485323368 -0.49664095619304516 0.050634661238223674 -0.174355820532325 -0.00027534680746863676 0.0022064561626376875 0.4204610347308273 0.08592579134975742
59941000.0 0.8585440188562706 -0.5043756411635316 0.05612200526816913 -0.18590655530650232 0.0009807820022457669 -0.00020898778830301263 0.4077893270023772 0.07824134348896569
60940000.0 0.8497065910806242 -0.5118993604285368 0.05947143577372407 -0.19287670871769827 -0.0010154415557580123 0.0018247976044111706 0.41123378845001485 0.07047046994229866
61939000.0 0.8469185621914755 -0.5191720457656824 0.05605762932235899 -0.20038408175053976 0.003428830311849003 -0.000979524662959269 0.4215876199460512 0.05724881170141307
62938000.0 0.8423475762397993 -0.5289439118516589 0.0590131168527732 -0.2162769813792742 -0.0009085653653665413 -0.0002609920971856487 0.440049279380626 0.050147219821658644
63937000.0 0.8374587709204292 -0.5352887748733799 0.06293085353708576 -0.23648122000612198 0.0013131614037668674 0.0035143761808971207 0.43202209642288675 0.04221497019570162
64936000.0 0.8296034369009321 -0.5422698235123925 0.05861101371589964 -0.2503525073683797 0.0022857836794701984 0.0013814836313426522 0.4366899435556905 0.03491954420975038
65935000.0 0.8257909014507985 -0.552514133749606 0.06169632380640606 -0.2661534265480441 0.00017752893098839758 0.0003984554930203834 0.44182285543920885 0.017251824134101222
66934000.0 0.8219037727748216 -0.5591089008802439 0.05707435549630652 -0.27998057138608967 -0.0013667467694394645 0.0005376590916517522 0.4323255285248891 0.004815321327313182
67933000.0 0.8193279627865098 -0.568048574677472 0.06132602271338363 -0.2944596436869534 0.0022153531457401944 -0.003239725016441831 0.44217015441087637 0.009781660701114752
68932000.0 0.8091864088376661 -0.561451444630256 0.059044348758527106 -0.3059216060967931 0.00018689357274738943 0.0034085691654086644 0.44475029891828954 -0.004258188752519345
69931000.0 0.8051106608115005 -0.5830583192800433 0.05724178045523231 -0.3250254028173105 -0.0017389735375667277 0.0029110906026165967 0.4471242894047709 -0.028756700827610022
70930000.0 0.8007526065605863 -0.5883423680072913 0.05573251945268661 -0.33989750140256386 -0.00269355983340195 -0.004075857833436253 0.43501815015188916 -0.03955729088193993
71929000.0 0.7951636332602193 -0.5977106523673537 0.045427258233772354 -0.3601027690991173 -0.0013441379642694532 -0.0028208195201411893 0.44539336515044886 -0.036498342706470274
72928000.0 0.7863842035567337 -0.6094960130390038 0.03861660838415589 -0.37679817162778156 -0.0009479566547779382 0.0015912242339316044 0.4563339295953357 -0.05831781599039227
73927000.0 0.7811651604896231 -0.6136952960274517 0.03506502336004639 -0.3996162095717944 0.0009990677236048299 -0.00015953775078351607 0.45637330814609295 -0.057603594319724005
74926000.0 0.776537590341152 -0.6220003012154874 0.03121188875868974 -0.41582280592233223 0.0019171849401918436 0.002892180483856704 0.46073549169072237 -0.07654497131430822
75925000.0 0.7696532113541218 -0.6272762020555918 0.018372336130291392 -0.4405210306765791 0.0017658795687510035 0.0027564535269740662 0.4695521279006898 -0.08500053943907812
76924000.0 0.7630076673229337 -0.6338782001870826 0.004314670698380066 -0.46389599082243055 0.0010685555161282154 -0.0032183759901504615 0.4606927073545036 -0.08389769007176336
77923000.0 0.7549893082805392 -0.6436472395117321 -0.009232830496906567 -0.48285327414909945 0.004858911662940546 0.00043292626413735043 0.45589938203948555 -0.10121798975486142
78922000.0 0.7498217670316984 -0.6528120816517272 -0.020028298261261703 -0.516086838415705 5.50225896692053e-05 0.0005925730774631044 0.46148271815565467 -0.10938699769473784
79921000.0 0.7412164447728082 -0.6554131830405601 -0.03858450199783934 -0.5424809537584419 -0.0003952708502162953 -0.0035346656329238962 0.4615069647678056 -0.12584739762429492
80920000.0 0.7383951277976915 -0.6669280025682166 -0.056358408029854944 -0.5707974296274821 -0.0002465190087302952 0.004413378670449165 0.4613207978404541 -0.12599078553547832
81919000.0 0.7309116934108636 -0.6723409423947524 -0.06771817232115092 -0.6006482361469838 0.002466865986981443 0.005107708352213747 0.46308199816991374 -0.13861793914555237
82918000.0 0.7235965228895048 -0.6781963619131398 -0.08477658565159457 -0.630790496108857 -0.0014835249502475581 -0.00014563755721025746 0.47016347322399443 -0.15334408734264982
83917000.0 0.7131675621462834 -0.6873509758597329 -0.10481325407343423 -0.6619412547254762 0.000523127158041394 -0.00047039133296600445 0.4797920403821685 -0.156260708087208
84916000.0 0.7090019814956303 -0.694759265060402 -0.12136229711761172 -0.6969028129684488 0.0008192865082173799 -0.0019022347928573313 0.4710835156786092 -0.17080889233550334
85915000.0 0.7014292986351597 -0.6999919909978886 -0.13779214677770385 -0.7295317196554182 0.0002673378018137069 0.0010039040959222225 0.46350113200006293 -0.18012028043410389
86914000.0 0.696217896107987 -0.7110908790168584 -0.15692272563590826 -0.7659995341454181 -0.000947609868775046 0.006858592551851739 0.46307652385702225 -0.18487163282260663
87913000.0 0.686639117145185 -0.7150131986411726 -0.17096129847231425 -0.795668160024429 0.0029742653282129753 0.0001063395587312782 0.45207918326746277 -0.19587632348301778
88912000.0 0.6823296397051811 -0.7232131847248069 -0.19444443897278726 -0.8318850815170074 0.0014915124653977457 -0.000351290785479976 0.4578257299549802 -0.21166325549842027
89911000.0 0.672528707576514 -0.732262302792151 -0.20513525435631833 -0.8680050607393764 -0.0009956020228581695 0.00020586227296355385 0.4616293365051715 -0.22522564319320992
90910000.0 0.6655777613947245 -0.7379627460934509 -0.21929003679639203 -0.9076337780794834 -0.001823966041663074 0.001861233475671426 0.4661211977270452 -0.21356722953324286
91909000.0 0.6570271143016875 -0.7427123930737909 -0.24682768228605673 -0.9410423190517488 -0.0024614622139092716 0.004578518137989285 0.4687646746635579 -0.22795156754137202
92908000.0 0.6500559649991657 -0.7514499456344403 -0.2616850722633152 -0.9724131100677034 0.0008798311705470195 0.0003986801992096692 0.4508277312536371 -0.24205383086763635
93907000.0 0.6451355742193446 -0.7550839186220804 -0.28413268415027515 -1.0056044242954385 -0.002101068513649889 0.005252057577249992 0.46478014122206474 -0.25400382765540663
94906000.0 0.630953743606604 -0.7635119908205842 -0.30108412573852494 -1.0399882782768601 -0.00017469211379856267 0.0019732723815471067 0.4586347081493403 -0.2690732562589033
95905000.0 0.6223679458713054 -0.7710625201849275 -0.3283882697845509 -1.0737349894722203 0.00020745826906625096 2.6940155229601386e-05 0.46124471756302793 -0.28270522710626095
96904000.0 0.6151065999123029 -0.7780329548253895 -0.3420994151282301 -1.114854102245636 0.00020552801336964566 0.0006862044559577901 0.45565710202545834 -0.28344225506928394
97903000.0 0.6070630599724287 -0.7831623784228349 -0.37297449277797795 -1.1465164792352571 0.00021991921528836874 0.0029600263288133005 0.4427806630237883 -0.29211815544435843
98902000.0 0.6011220490316872 -0.7912590431558718 -0.3933023540905996 -1.1894491351725773 -0.0004274239393840527 -0.0008245045740197065 0.4524118135159606 -0.29395583258918273
99901000.0 0.5926886266188985 -0.7977324150049337 -0.4210383190480297 -1.2207499457604776 0.0017206114563612432 -0.0026281238911319304 0.4558146218980402 -0.3173112306993666
100900000.0 0.5827529322316086 -0.8008665299895248 -0.4585807536978111 -1.249375831579092 -0.0030434494952697815 0.004427035244431889 0.45382051639283294 -0.3129599978494735
101899000.0 0.5737578345334594 -0.8078878759509116 -0.4845403184179535 -1.2908453271215063 0.0018987926791449415 -0.0027620399950264254 0.4473090222140522 -0.319038999608055
102898000.0 0.5642244092083408 -0.8141530429062455 -0.5293468024145574 -1.3287768160765312 0.0011675233734036263 -0.0001266418092109268 0.44545077063950717 -0.35124166813558605
103897000.0 0.5550487495049207 -0.8220239428842836 -0.5673848750395752 -1.3668800177050382 0.0019140935029756045 0.0018849348542500292 0.4532039300458367 -0.33864496016921375
104896000.0 0.5468698268245488 -0.8317008042330416 -0.6139256134707348 -1.3998935295316504 -0.00020519531181031978 -0.0020945432672272645 0.4284184732151587 -0.3479884705819898
105895000.0 0.5379090491946684 -0.8334829249531677 -0.6618894395333426 -1.4440473331128165 -0.0008798908863201881 -0.0016461728385168655 0.42262927397957095 -0.3670115475369961
106894000.0 0.5292684748196638 -0.8400672263498125 -0.7196189472743506 -1.487410119523111 -0.0017225644115124903 -0.002020910732662536 0.4241093273853218 -0.37677678726902747
107893000.0 0.5221040507023127 -0.8455675963548016 -0.7677030250172971 -1.532573308963813 -0.0005708132140367243 -0.003817916265082442 0.42828465189561443 -0.38241286801394686
108892000.0 0.510783060071769 -0.8487003188874855 -0.8302307526744561 -1.5653398437124144 -0.0006319031290066197 0.003284771922196828 0.4129977664833878 -0.37794613159646584
109891000.0 0.4988061073640526 -0.856783320020483 -0.8930557385828838 -1.5991651596330443 -0.0005685655934601777 0.0014817027797079535 0.4412015537927285 -0.3831132014690724
110890000.0 0.4789347917786345 -0.8601399054322244 -0.967074699459597 -1.5960143156516893 -0.0024934663350117386 0.0008992307038036064 0.42311879262759583 -0.38228833506577936
111889000.0 0.47987356473920106 -0.8635555813550694 -1.0234137558635856 -1.6736962162558622 0.0019837828302068095 0.0014406197490929595 0.411130282812083 -0.4019210356523488
