! Created with skrf 1.9.0 (http://scikit-rf.org).
# Hz S RI R 50.0 
!freq ReS11 ImS11 ReS21 ImS21 ReS12 ImS12 ReS22 ImS22
1000000.0 0.9820802025451499 0.0025271642363254776 -0.017663729594099068 -0.05535045138231981 -0.01396734892222518 0.010770775702093843 0.3897645616714632 0.33204541363351514
1999000.0 0.9955572916273651 -0.010472840783458873 -0.0029403818267975607 -0.023051467958191702 -0.011634619746452456 0.006197939806666291 0.24226151539610866 -0.029754784304730053
2998000.0 0.9987752236010234 -0.02072355803730913 0.011998239880004487 -0.020379260726333278 -0.0036254377267836723 -0.0027106851079042064 0.19240327648152275 -0.1341974305833562
3997000.0 1.0010469536906261 -0.026749855456944267 0.012316008009482097 -0.006298400577954123 -0.0015776728906651525 0.0037643862270707908 0.08084832150110131 -0.22924203608957616
4996000.0 0.9993716371310907 -0.03512097158626978 0.010631015968255655 -0.0026513359369935183 0.0004457716534865632 -0.004317667968009219 -0.032678105448985494 -0.2062517608246654
5995000.0 0.9983189757244884 -0.04792950627638824 0.012778946616342128 -0.0013279494321238557 0.00210664535092942 -0.0008340840158470007 -0.12317475752349707 -0.11392401457562712
6994000.0 0.9948811980666737 -0.05812085730707807 0.00878024022808173 0.0023381439008699403 -0.004497787045638872 -0.0009655747351806331 -0.14252424048025164 -0.024750785073152717
7993000.0 0.9984534549694504 -0.06520487785839255 0.006674761157958174 0.008048738988109434 0.005121121542162766 0.00022704256029531733 -0.1645675572499594 0.03781902631733572
8992000.0 0.9954830975338733 -0.07212549404042212 0.005500142766771776 0.0037460646501265987 0.0035678596800245038 0.0012624644897403833 -0.1610686936972759 0.07534675584219351
9991000.0 0.9949105240702961 -0.08083406095464155 0.0016228392193326606 0.007087483628919065 0.0016277993576335377 0.0019749253321044427 -0.14833594653181092 0.09948290844417311
10990000.0 0.9920178780406811 -0.09365060948367829 0.00527800552913323 0.006364276133586525 -0.0010741954695474374 -0.0011660522670119725 -0.13815096934636165 0.11964247774791631
11989000.0 0.9909142239855793 -0.1018093372341518 0.005016106239039254 0.0008223045408244239 0.003058120512247436 -0.002368744700273011 -0.12942345571565564 0.14052284542955182
12988000.0 0.9909923119376901 -0.11087814007004253 0.002768824937173729 -0.002300691281916132 0.005118251067557668 0.0047180878679338725 -0.12345034999815943 0.169299944377817
13987000.0 0.9881319245936233 -0.11848500058615906 0.0028209969715602716 -0.0060507865938279285 0.0007558723973093555 0.0016172687506972388 -0.09836109512738055 0.19396235536769088
14986000.0 0.9901315093217505 -0.12350568696716939 -0.000729777208948914 1.8630712013854227e-05 -0.004438910637300288 -0.0003870899231165208 -0.08037379031019433 0.2037176693893117
15985000.0 0.9904405996139722 -0.13258858768504603 -0.0003457330574232232 -0.005824305023625548 0.0008989417321233291 0.004277140755945624 -0.05753408172535946 0.21327015877996072
16984000.0 0.986701155465954 -0.14303203394747407 -0.0046188250688356 -0.0056557524910214926 0.0024648812487370266 0.0002229494379912092 -0.06418368354010401 0.21404172730844745
17983000.0 0.9865985420313865 -0.14753877364117682 -0.002944147863119766 -0.006015330574938282 -0.003402304696394441 0.0030740877533005353 -0.0550387319470671 0.2282178186633745
18982000.0 0.9840549929292023 -0.15865828491480566 -0.00026743432740384133 -0.0027041858861635336 0.00038869139823605886 -0.0011672032474930394 -0.012671895870500147 0.22831423010640423
19981000.0 0.9855916371805258 -0.164436292298296 -0.0018353160277180503 -0.0031008372348288833 0.00015807733837106336 0.0029270639981622405 -0.01000863058748079 0.24043145732031354
20980000.0 0.9829867957572112 -0.17555890056323153 -0.0026663132128149016 -0.005058623538885719 0.0032806869706749854 0.0024485210799671275 0.0028962506044094734 0.25564171291948534
21979000.0 0.979884488026085 -0.18502945351175112 -0.004704827688328397 -0.005384311068292625 0.0018082593281468658 0.001150335997641491 0.0074168985635331775 0.242346816772365
22978000.0 0.977488678805742 -0.1944298878763375 -0.006243816972736961 -0.004545967823925049 -0.0020131442036180926 0.0027087346603975214 0.02032675711482453 0.26957486062540204
23977000.0 0.9793261747383151 -0.19873128615650648 -0.0013305720811655037 0.0006592820200399069 0.0006448855723435988 -2.8953366869485192e-05 0.03642156137381346 0.25590237262662013
24976000.0 0.9739704644338356 -0.21051669732004272 -0.006573828984733496 -0.003080862633821536 0.0010914592043601943 0.002040066836678988 0.05408918096424047 0.2625510115895721
25975000.0 0.9770167441264646 -0.22078242597073366 -0.0013449159627340924 0.0008462620790553179 0.013414323921330802 0.019050283240246383 0.07311086199035927 0.2652984211291817
26974000.0 0.9723520839192137 -0.22638558726642116 -0.007043732027247954 -0.0021200772467109383 0.0008282727208918182 0.0012856881361786243 0.09651080445727334 0.26136151441061467
27973000.0 0.9698129837883231 -0.23726891178700493 -0.002314293504613915 0.0018085149111361624 -0.0024826605095728664 -0.0026749461011780023 0.10948016212594053 0.25894344684675413
28972000.0 0.9654830299165754 -0.24408517462785256 0.0010225772060989756 -0.0009264881596409169 0.000614570343558095 0.0021439236663043496 0.11486022491485083 0.26185561207182456
29971000.0 0.9659442588918946 -0.2523693745421354 -0.000386555812111964 -0.0019493643119536327 0.001351038587246729 -0.00028854567345805546 0.15155911674238035 0.2642138903639805
30970000.0 0.9633238325649806 -0.2590851512327896 0.0008621470080819161 0.000353800119628867 0.001209110440235134 -0.0041170627901350254 0.16525548154851843 0.2503927351745
31969000.0 0.9606806723183434 -0.2668749159193792 0.0030861648915663704 -0.005220956781717613 -0.00026201249634340366 -0.0025188400082944724 0.15644410110627296 0.24914724457446893
32968000.0 0.9603700171122146 -0.2752964611702892 0.009132558344370989 -0.01170920599093977 0.0008062747570925455 -0.0018185198497229435 0.16586567322807352 0.24385180632014586
33967000.0 0.9575733140886602 -0.28409729029904524 0.010259922887935057 -0.008358021648555739 -0.0005140591055543654 -0.0013182758465255463 0.18257336587619763 0.24375652723698715
34966000.0 0.9521891836892288 -0.29478348957538303 0.014117431377080871 -0.014659586474502358 0.001705938727483737 -0.00373598057295152 0.19163747173472623 0.24326185875948983
35965000.0 0.9509588983075824 -0.3026409723676379 0.01808738020620272 -0.012976977861053243 9.419689344943225e-05 -0.004159612379329117 0.20898246935296444 0.24616903810011787
36964000.0 0.9478467339993369 -0.3116430565740075 0.01864231698978209 -0.015446113721337227 -0.0011726593458021366 -0.003540286188488567 0.2107320083622848 0.25697424232128385
37963000.0 0.9440976511794266 -0.32128111040254137 0.023351526882667666 -0.019257538447528786 0.0005052447252896836 0.0007942853468476881 0.2297341551512835 0.2441799295251884
38962000.0 0.9415580591078901 -0.3307971015682923 0.025431599255239634 -0.02513288737532747 -0.00024827962795222463 -0.002609717644965429 0.23276705432382114 0.23716708526566518
39961000.0 0.9398715311030109 -0.3353462811648312 0.028033697887355893 -0.028616129637329672 0.0005627872755486883 -0.003932513136487212 0.2538394423833824 0.23061627589243022
40960000.0 0.9368014192895907 -0.34556561760396304 0.021944341055691065 -0.0253926280583856 -0.0026749117663022364 0.0005769663818922644 0.2629766631068138 0.21985647301638708
41959000.0 0.9342866413405397 -0.35497668576628216 0.02811582515973209 -0.034963322808728804 5.6297640491577554e-05 -0.003522342844488668 0.2665829570974946 0.22077346306826678
42958000.0 0.9284612177783286 -0.36228568689859003 0.030360819369797867 -0.04389164474515061 7.375583420905053e-05 -0.00019702829798251583 0.2807145358202609 0.19430012992073756
43957000.0 0.9274926641479647 -0.37014778471944215 0.034767912938099145 -0.04976050628850915 -0.00012805363868860639 0.0018572195718838328 0.28631010085116815 0.20451073028228606
44956000.0 0.9233796905452188 -0.37907758322224233 0.03617381061475869 -0.05299306444684598 0.002377096173255377 0.002521677246773394 0.3065334091747624 0.19446197233828957
45955000.0 0.9201809943545901 -0.38688359564938635 0.03661985603328234 -0.05998243419795228 0.0025309336620159416 0.0031253746352996746 0.30777995303345757 0.18267890362798508
46954000.0 0.9148621530424769 -0.3959847544571426 0.03406495305546991 -0.061776299877692835 0.0006253344306255661 -0.0021294465851178796 0.3339241107283367 0.18624728965353962
47953000.0 0.9148373648796011 -0.4025374225064639 0.03742759531423291 -0.07340237438594212 -0.00014392990368235412 0.0009649223067288829 0.3342669080705007 0.167771027707371
48952000.0 0.9081926016628599 -0.4132847245542059 0.03687635482134913 -0.07956716788060236 0.0001999179029051641 -0.0025692950454878185 0.33507718466964603 0.16272914967473998
49951000.0 0.9046515021337201 -0.4203059310112145 0.03817837376968067 -0.08763773532310473 0.0016057290663060355 -0.0015243515477802185 0.3466835742826858 0.14942213064864737
50950000.0 0.9013888193916505 -0.427092695125691 0.037719978432262644 -0.09559964185324986 -0.002193554221759299 -0.003011620909278251 0.3531029845137385 0.1469506021508266
51949000.0 0.8977556555472016 -0.4361594869391403 0.038355954834832784 -0.10414849274530222 -0.000341930871581274 0.0008150728472306449 0.3622309515278909 0.14486826332982236
52948000.0 0.8968169319248335 -0.4439165817244596 0.04175771962211569 -0.11361435900259605 0.0020113462881982415 0.0007364484150163927 0.36987938961162914 0.14501230768637768
53947000.0 0.8880973437970303 -0.45255684756907516 0.04189787447584967 -0.12147235598232195 -0.0031916264294582736 -0.002032950835235184 0.37291710575042675 0.1301255086281127
54946000.0 0.8845904576371018 -0.45900451137149273 0.04224443237143227 -0.13005405242169693 -0.0014737422512566194 -0.002549312753716396 0.38710676175841413 0.11963375805312815
55945000.0 0.8821838072211712 -0.46708141999951075 0.044831106025956025 -0.14218164388376403 0.0004948384529696588 -0.002545531218749162 0.38896247263396905 0.10194983155311688
56944000.0 0.8775046030887407 -0.4776716788245581 0.04411955594063361 -0.15292401771994907 -0.0016314938052160385 0.00024749017861460873 0.3993397706278927 0.10314100765918494
57943000.0 0.8714699604283586 -0.4877144047585586 0.044862971540668206 -0.16247738598325365 -0.0022604174847836826 -0.0019822896905054544 0.40835335566294634 0.0979278946322307
58942000.0 0.8661119764674372 -0.49249299742906966 0.04532106831471304 -0.17450154454781514 0.0027482662128647368 0.002427405088613377 0.4199983184560959 0.08919151513827894
59941000.0 0.8654177454702008 -0.4991587658503802 0.05087127877716164 -0.18383346426267524 0.0009226219201790638 -0.0003081010726987124 0.4203633601147922 0.089430949860781
60940000.0 0.8559759505966987 -0.5067942129553944 0.04815494491857717 -0.18642299286871458 0.00019266576790737542 -0.0008282396661460145 0.4090561999233578 0.06563470699456175
61939000.0 0.8526795370675649 -0.5147719466591425 0.04925391348527012 -0.19986576262638261 0.0006826062413962617 -0.0026925651724680447 0.42467163876995356 0.06887813345098767
62938000.0 0.8482799596493403 -0.525240150961742 0.052595697170072835 -0.21510203719910231 -0.0015507674186977548 -0.0017908366395362537 0.44924318318377465 0.046829288056829226
63937000.0 0.8430570398980395 -0.5334116492947594 0.05345849189628312 -0.2355046846349028 -0.0004446379914617263 -0.0017433514144193309 0.441587351604738 0.042930393824928866
64936000.0 0.8354911082935771 -0.5386293138368635 0.055091974376102394 -0.2499870913342985 0.0016128721293693581 -0.0020742837099113403 0.4381140632521733 0.04684868720071806
65935000.0 0.8328733396928314 -0.5493404639692123 0.05234114362617225 -0.2615774426065719 0.0012024283565446423 0.0025806716900600418 0.4437910554967047 0.03087249827161344
66934000.0 0.8291358432420182 -0.5554318587516812 0.05083572977824523 -0.27370655487597156 0.0017396260733270055 0.002199804368483903 0.43507230712631545 0.013845457442246807
67933000.0 0.8260212831389334 -0.5604057098937427 0.05126850767856315 -0.28975139657751975 0.0018419404092810641 -0.0018786646583830511 0.4491287203839443 0.004234077643449487
68932000.0 0.8101433025110089 -0.5567274146586964 0.04544027466959494 -0.3013489960917603 0.0009267890336623417 0.0014611101420437893 0.4519656059382572 -0.01240260385983638
69931000.0 0.811414892906984 -0.5789043870526009 0.04988243140704264 -0.31781335717369036 0.0017567720796571613 -0.0027571241801262877 0.4526549465297648 -0.022741587420093787
70930000.0 0.8078840468911667 -0.5838365875026602 0.04753429751546429 -0.3311447501401031 0.00039699459385511977 0.0031394669425865605 0.4457474503765291 -0.034220133783837835
71929000.0 0.8024674688674829 -0.5939620684348583 0.04553488723267838 -0.349858406066436 0.0017516847380628653 0.0010735351724851078 0.4618060819486475 -0.043847359532006996
72928000.0 0.7962792614654155 -0.6021344462394528 0.03974849945401974 -0.36646034987964765 0.0005741155465952437 -0.0019867592209861884 0.46448806612560667 -0.044081608603294076
73927000.0 0.7883246516861444 -0.6079141736173941 0.03010542410619306 -0.38474443678582165 -0.0017284361312715328 0.0010962676929085777 0.4560266675727831 -0.04140986046477812
74926000.0 0.7819647635874324 -0.6197721253917853 0.023779460076138282 -0.40373268356788666 0.00046870999087038454 0.0031896593811619267 0.46174599587974446 -0.06074273022932866
75925000.0 0.7758388212809787 -0.6229323191706637 0.014387700343710475 -0.42675231983541645 0.0011817328386796975 0.001877551864259953 0.47796003333691917 -0.07220614503330791
76924000.0 0.7705995562569806 -0.6303738603888523 0.0036339235880715882 -0.4474154407217033 -0.000335871414132165 -0.00197032809515823 0.4610567036019613 -0.08902937120800745
77923000.0 0.7669311666813925 -0.6385810484368589 -0.01161775216542101 -0.4685131363277052 0.003340380789146684 0.0007200110302597985 0.4733585371245027 -0.09212829291998634
78922000.0 0.7614319214581063 -0.6474164001480162 -0.028344860485319354 -0.49629438184793884 0.001465351774059073 -0.0022323133195996316 0.46152857422017035 -0.11209200318620748
79921000.0 0.7513044373643408 -0.653351958577191 -0.0433273181925253 -0.5202985680686462 0.0025542220153910427 -0.0011521832827687275 0.46563015285890447 -0.11218598065085161
80920000.0 0.7459849503135859 -0.6620751600525705 -0.055036900281862755 -0.5519894236462908 -0.004019814387047587 0.0008324472094885273 0.4757996105056089 -0.13060659642878242
81919000.0 0.7408618106205949 -0.6670601292926851 -0.0735283998890375 -0.5756530217533457 0.0003725431717799609 0.00293299139048534 0.47673602178896046 -0.12747713458042498
82918000.0 0.7326572687119361 -0.6765467788804893 -0.09018849998067553 -0.6059513658514483 0.0015537891044932412 0.0027115139566039653 0.4783778447503778 -0.14997076562444897
83917000.0 0.7260713719384471 -0.683653257179706 -0.1120833055838688 -0.6379202450537159 -0.004978130793211732 0.0012973135687554976 0.4759189851673846 -0.1547911532589855
84916000.0 0.7197469764038202 -0.6908987725633607 -0.1289215529610804 -0.6690596377663977 -0.0015666179039185216 -0.00011457816772823661 0.46779030918292613 -0.16994753964545178
85915000.0 0.7117702740297832 -0.6976811235640301 -0.14899245577026682 -0.6999046320446416 0.0042888589698698906 0.0020056813950292754 0.4728835369252818 -0.17831654984895723
86914000.0 0.7037778945350509 -0.7082780369493402 -0.16459438054406117 -0.7389102911810856 9.0070437300362e-06 -0.00022806332082710103 0.4685804000255847 -0.1658131451268657
87913000.0 0.6980859236813043 -0.7133386378789671 -0.18266219142213688 -0.7673484213562068 0.001521369092831191 0.004152773107331774 0.46735188252213733 -0.1887527800272471
88912000.0 0.6894561236119713 -0.7202649150603923 -0.20237130529681374 -0.799287001379019 -0.0033853006251058867 0.0028638638894608257 0.4591208327972403 -0.2055040033492499
89911000.0 0.6840954729851912 -0.7272100382985424 -0.21616880228218524 -0.8419116589743163 -0.000806377215762127 -0.0022043799589282972 0.46468504706679603 -0.2076920435007791
90910000.0 0.6762946312431435 -0.7335297737131742 -0.23434612462447846 -0.873948548966979 0.0010841251113495735 -3.0789035666526854e-05 0.4661845463810746 -0.20855087009281867
91909000.0 0.6676777686927903 -0.7382822174036273 -0.2506811710860903 -0.9060858091653938 -0.0017680410595847503 -0.0017765995255325363 0.46393390171238574 -0.23321896589240412
92908000.0 0.6595478205690655 -0.7489123989757385 -0.27165655890962886 -0.9351865758293257 -0.0006437522119327341 0.0007330354246308374 0.4586896252021613 -0.23018108627969594
93907000.0 0.6556215482081206 -0.7536503777994058 -0.28897179488527897 -0.9692269091238542 0.0029661180421264198 0.0012801590992420184 0.45465090700465205 -0.2489067034449801
94906000.0 0.6414703258315838 -0.7605606781253693 -0.30756671539994096 -1.0050508954814636 0.0036694997791851774 -0.0039037637503773117 0.4561794148097278 -0.24490816412046015
95905000.0 0.6338959689149375 -0.767957076783848 -0.3316597653638952 -1.0353247477481478 0.0013138711938991048 -0.0020238477567105046 0.4639120818556519 -0.27503854277056305
96904000.0 0.6268888079110028 -0.7755879534990998 -0.34496712586417366 -1.0766706701071649 0.000373156093723979 -0.0022394899347882007 0.4609149966801462 -0.2662001649498753
97903000.0 0.6163224596545416 -0.7820771162988827 -0.3720756813410102 -1.1047838081718175 -0.0005143854961415331 -9.258572001382704e-05 0.4476073864014653 -0.2894125309171138
98902000.0 0.6119610710823845 -0.7882219999776082 -0.389515747017998 -1.1479567929735035 -0.00039391703688201494 -0.00039602547440675237 0.45396802666690705 -0.29001281952036945
99901000.0 0.6028675207286661 -0.7944937400159119 -0.4194956648911496 -1.1783213583490424 0.00012016441106076053 -0.0025539823360336126 0.45546558161029643 -0.30852931414112733
100900000.0 0.5935463535814818 -0.7970813662419456 -0.4491297172707437 -1.2074975828813497 0.004090178195996475 -0.0026353222070735517 0.4573818653205038 -0.31406605395352194
101899000.0 0.5856693177108012 -0.8074066894082341 -0.47836680094392464 -1.2466709552563082 0.001242141501717774 0.001973510671825798 0.4484072283536983 -0.31879537350023496
102898000.0 0.574513061613869 -0.8134131892642624 -0.5128542091720449 -1.2807035546130559 0.0005080575102798782 -0.0018106419376489687 0.45776426648226154 -0.3363097085677978
103897000.0 0.5668276497797431 -0.8209160022165318 -0.5519160194389389 -1.3215942376447005 0.0005658959454841152 -0.00027842257992059365 0.46002982639474777 -0.3330361870536268
104896000.0 0.5592929977662089 -0.828331802878344 -0.5959158938724132 -1.3467504582732626 -0.0009274335019227649 -0.0017912957211223602 0.43370551956133496 -0.34256863299933416
105895000.0 0.5499384221071782 -0.8315400780685602 -0.6367810402299438 -1.3938130067454069 -5.525403396287193e-05 -0.001838118248338455 0.4293518191669701 -0.35221806666185285
106894000.0 0.5414346193673272 -0.8369560928122558 -0.6917130339072415 -1.4320371120553543 -0.0004605667579019072 -0.0020865025353535337 0.4333447492486509 -0.3712983305694006
107893000.0 0.534308755926011 -0.8433837313381131 -0.7405814726413082 -1.469859485428941 0.00019692889358921393 0.002816326152460103 0.4387767529007666 -0.378213479953927
108892000.0 0.5207413810726366 -0.8475253379956041 -0.8038058587606056 -1.5047889464101356 0.0038413163030858993 0.003992898359906808 0.42857512274598647 -0.3832853359225509
109891000.0 0.5098359741558018 -0.8549606958478294 -0.8592420717502821 -1.5397729997825276 -0.0012040244581730212 -0.0008790492327197397 0.44081329047509554 -0.3783413970325201
110890000.0 0.5059684449438825 -0.8620917373702577 -0.9149438012235919 -1.5578977488598296 0.003470896281213633 0.0010008750943216508 0.4343670456083184 -0.3794160367004814
111889000.0 0.4920703016882396 -0.8624626809494106 -0.9820932438038922 -1.606156237006459 0.0015990548491106164 -0.001013538120810374 0.4219758004230689 -0.3904415500754374
