! Created with skrf 1.9.0 (http://scikit-rf.org).
# Hz S RI R 50.0 
!freq ReS11 ImS11 ReS21 ImS21 ReS12 ImS12 ReS22 ImS22
1000000.0 0.9902992820194968 0.011211238288469504 0.003114284671454428 -0.05295706962003037 -0.009100893598079413 -0.002046179593031158 0.307865835657851 0.3092271969356723
1999000.0 0.9924438765766583 -0.015370875210426474 0.007702319239609893 -0.02791484745055103 -0.0063703461057410685 -0.005362181651265613 0.26014042002902404 -0.05675924696939646
2998000.0 0.9977872901528141 -0.028012254743132858 0.010435405623678028 -0.014698372708885465 -0.005087003496489203 -7.181379485601916e-05 0.18765515844189054 -0.138815654816555
3997000.0 0.9933746628040565 -0.03238554133509597 0.00991589848606789 -0.0013407533187341143 -0.00032113287364555674 -0.003544596464855788 0.08790324340300316 -0.211671555572501
4996000.0 0.991306043427858 -0.043031873871534884 0.011020320804964104 -0.0018780039179073398 0.0014143056935209232 -0.0004445706535279859 -0.03891206765399535 -0.19691801389446548
5995000.0 0.9909430402848337 -0.05342747890983175 0.013122552324777102 0.0009845496759367032 -0.0002390837876206315 -0.0010537855820787131 -0.1217500622610031 -0.10243123432060099
6994000.0 0.9916617569524613 -0.06379027561915492 0.0078970491775057 0.0028732282429623506 -0.0016470349099570595 -0.001230016080538275 -0.14385736586211884 -0.03026238532274822
7993000.0 0.9944938529343803 -0.06550871339860959 0.0024588424876886635 0.0005749201432729805 -0.004674826217819374 0.005302867954389267 -0.158701736376127 0.035234929645059455
8992000.0 0.9892467960841331 -0.07300154496014187 0.0015544285593517074 0.0011729625229613158 -0.0016523558488176057 -0.0015040380692915485 -0.1517823412001745 0.06739304903774435
9991000.0 0.9878322383970974 -0.08252819726336019 -0.0011054914202299352 0.004669871972977204 0.0014801352653448958 -0.0028327870351973856 -0.14673043058038135 0.09934786974915914
10990000.0 0.9882010581822248 -0.09235807681264792 0.002738177680615596 -0.00031326220487571814 -0.0022168227404512873 -0.001828443389339152 -0.13356860380354577 0.11725883294221985
11989000.0 0.9846493170609213 -0.10055269525707151 0.00018358041645396685 -0.006615973626318196 0.003057396585478606 -0.0038253205954016144 -0.12438685765524049 0.14698680552911864
12988000.0 0.9855186186253139 -0.10680219194311064 0.0023772661708753202 -0.008033874015399532 -0.0010023438567013801 -0.00043093595200331485 -0.11806554278218281 0.15054696842031912
13987000.0 0.9844058730202705 -0.11718540064017813 0.0034047786955669593 -0.003502745271628149 0.0035308342953124386 -0.001906302364984505 -0.09698137427061679 0.18130849548289937
14986000.0 0.9841317405261726 -0.12411321081547363 0.00021245499486605005 -0.00467919399487577 0.00020375568733551843 2.852300222067187e-05 -0.07637832114146581 0.20445825184575242
15985000.0 0.9841790838634579 -0.13381898107026877 -0.0021012567763941128 -0.007449795654785292 -0.002523969694102814 -0.0011904624473499988 -0.07482918907649894 0.20489892670769064
16984000.0 0.9808472472962101 -0.143260754610072 0.0002432858787196347 -0.001792629029369048 -0.004047997231642858 -0.0030351916573112406 -0.06488681494382295 0.2235955170590101
17983000.0 0.9833686522160848 -0.15128407491775467 -0.005146283238673967 -0.0018366733378157867 0.0017252689472697091 0.0026362725558042874 -0.05938469134308589 0.22484815319643256
18982000.0 0.9797812371106823 -0.15899938386943757 -0.003870659684558041 -0.0037115377125979793 -0.0027960215334805567 0.0011193624472944565 -0.019951957421315867 0.23136889134952432
19981000.0 0.9782312281556226 -0.16283017914115938 -0.0032473837328194704 -0.0030678542843850134 -0.002902181628478316 0.0012785678706361066 -0.019191210973170787 0.23754922733360606
20980000.0 0.9782478529500873 -0.17543277221928746 -0.0033690790290463383 -0.005374346869810339 -0.0019601861615547132 0.00020990852457772872 -0.004788407244177902 0.27509455146527684
21979000.0 0.9768989673190487 -0.1843610030455907 -0.003932435160212203 -0.0010608822806286446 0.0021542085426341805 -0.0030219912901499105 0.0037972330985023353 0.2579206651637122
22978000.0 0.9730463092710466 -0.1942781886419437 -0.0070255856619199746 -0.0005978740972759031 0.0028282536859611665 -0.000492577359504145 0.008430018058931975 0.25371651321294814
23977000.0 0.9760816891384919 -0.19957181858556178 -0.0045263888700654165 -0.0015480864201484104 0.0018376069370089926 0.001056149543131288 0.039736650594763515 0.263488148654678
24976000.0 0.9694625339968701 -0.21246089289647513 -0.009238848064396735 -0.00031090210279258754 0.003030912497321196 0.00046370942448713514 0.057966816045639795 0.25484475687188657
25975000.0 0.9714131353803207 -0.22308930211145228 -0.0025820895396231457 -0.003010437623912631 0.0183472088701725 0.013030432132675551 0.07701399524635305 0.2674732196419012
26974000.0 0.9669079950828542 -0.2270416968419131 -0.004709338761548315 -0.002117543678292985 0.0006509575215123306 -0.0036386171386512387 0.08259893292327139 0.27567676410480607
27973000.0 0.9654356124193686 -0.23528722105001557 -0.0015930773465312232 7.966585823950719e-05 0.00032250395669445323 -0.0014621340905308319 0.10555618710369821 0.254960412137118
28972000.0 0.9622112334918912 -0.24631358397378975 -0.0023064112833366085 0.00017288831286868073 -0.0011629490363870806 0.0009638070589419653 0.11321781369510384 0.2489355883579139
29971000.0 0.9605526788280571 -0.2533125722526295 0.0016552478934036383 -0.0045405828698398204 -0.0005499895164076935 0.0014262432875584838 0.15309865172063541 0.2682278679505983
30970000.0 0.9579960998929574 -0.25840970522579604 0.0019400369983423277 -0.0009935787656058736 -0.004729597643843664 0.00215727263611915 0.17016246287471157 0.2556370631469787
31969000.0 0.9578779823347616 -0.2673139470272472 0.005911162145441741 -0.006093580356506066 0.0005027853811498717 -0.001580522187285575 0.15208359902529353 0.24901356749485304
32968000.0 0.9563696422262407 -0.27724944394182743 0.008214207753611246 -0.01125908552734692 0.0024657337259295794 0.0031176350410709445 0.1667065957455575 0.2365018934890951
33967000.0 0.9535808951225223 -0.28755631412008514 0.011254751174379702 -0.007481718624701062 0.0037525888697468525 -0.0009155841158255432 0.19041990074888884 0.24194979650080986
34966000.0 0.9499707603281573 -0.29737958382771107 0.01654083715476091 -0.012904327044432843 0.002904313056082226 -0.0005866739920904286 0.192407303428071 0.26012532711856073
35965000.0 0.9469002639892865 -0.3024157426507746 0.015127794101037376 -0.01502878558921574 -0.0023863238076773886 0.004590250308884264 0.21265500235854193 0.24818771335803175
36964000.0 0.9444153257400474 -0.312854818782323 0.01752531490488321 -0.013035513636396472 0.0002458620720112833 0.0032795660728703606 0.22063550369134244 0.24877578627323763
37963000.0 0.9407259613348866 -0.32033081725078105 0.02176437398109677 -0.019202087584972577 7.202475867412041e-05 0.002247701263755247 0.22316584766146674 0.23935039428114385
38962000.0 0.9384724929927586 -0.33009410285698315 0.024261742447644136 -0.02554364490620285 1.8830626679539185e-05 -0.00032217580104278214 0.2404007026545425 0.23060045489374525
39961000.0 0.9361633533300483 -0.3392080068922889 0.02737387470586034 -0.028155562883520183 -0.004967689731823447 -0.00260766760321094 0.24788492159710113 0.22720036911457478
40960000.0 0.9316189273702071 -0.3459567034551932 0.02416002782936096 -0.023341830468163887 -0.0029978041737564946 2.9854303946689146e-05 0.26597156624853147 0.22383709262832874
41959000.0 0.9304317511669309 -0.3563281899042489 0.02981146036590251 -0.032571194483657244 -0.00024772018396546357 8.900458411293717e-05 0.2772594970987515 0.21169989904708836
42958000.0 0.9253962631093723 -0.36457082880451286 0.03597442727943765 -0.041553861948156544 -0.004170113350428939 0.0006046432643090762 0.2798671097224823 0.20245335593559335
43957000.0 0.9227141699026493 -0.3732368649944227 0.03382708817883986 -0.04584167088578897 -0.0014905262238673427 -0.0015251017797064431 0.2863180309991248 0.2040055965624086
44956000.0 0.9189026881182005 -0.38101796067658666 0.03653677316008781 -0.055524133941001606 -0.0014526695808788266 0.00017488720139945897 0.30325787358713924 0.19309625592539767
45955000.0 0.9145598608127108 -0.3903703055295511 0.03833837628079371 -0.05935477561748738 9.281917988326108e-05 -0.00014289800091337465 0.30555672153023317 0.1813698947722459
46954000.0 0.9120084642618149 -0.39790278240395077 0.04128857311497844 -0.06631475474137773 -0.0012465196809766164 -0.003833625542712532 0.3266241697594574 0.18350030860722052
47953000.0 0.9086224642836788 -0.4065240612818077 0.03760009275935306 -0.07583393767349843 0.00018796902179936712 -0.004752555588521273 0.3383076527303254 0.16689590954872902
48952000.0 0.9024221000022147 -0.4191793964457135 0.04102357065413453 -0.08178891556265575 0.0029285800594101414 0.0016538014028671312 0.33546577002674055 0.16647970143343604
49951000.0 0.899683954997983 -0.42258400490338865 0.042531222350246874 -0.0895605072971556 -0.00044960593064198215 -0.00215129120731145 0.3462822656465801 0.14757041525885636
50950000.0 0.8940984447055712 -0.4312560650472972 0.041854166507992396 -0.09749361792287353 0.003787175888386029 -0.0024093549167624713 0.3548891270277438 0.15603292049912398
51949000.0 0.892009558887851 -0.44068043302794957 0.04432200697137855 -0.10499037876262317 -0.0014851565027636374 2.4752543866877094e-05 0.3586218874006957 0.14325046429998997
52948000.0 0.8900471910022649 -0.44801943888851253 0.0459464900687865 -0.11461325552796632 0.0009768874428552296 0.0013017956749781319 0.3701762538791757 0.14314631741326797
53947000.0 0.8820631143172235 -0.45588505903462173 0.04784906460228329 -0.12468360021079966 0.0010078238089326647 -0.002564489173755556 0.3648458080312064 0.1257072081109754
54946000.0 0.8773086380096831 -0.4666691755704408 0.049223728569235334 -0.13513612891725973 0.0008706155060036615 -0.0030108789174760897 0.38789988140924 0.12195547487791424
55945000.0 0.8758276468381103 -0.47448381544370744 0.05117937439735268 -0.146699297319161 0.0016860908451993351 -0.0007538247337272717 0.38163501505191866 0.09603925963964842
56944000.0 0.8694995574882863 -0.4835320697530561 0.0511865696585111 -0.157638488115163 0.0038117377576917483 -0.002918950944960721 0.3961922398623048 0.10381906792555008
57943000.0 0.8653581658170524 -0.49248263152597244 0.05608828489064155 -0.16910324122049294 0.0011297800199721356 -0.00011957425055905857 0.40227859959131773 0.10055174892466212
58942000.0 0.8586674026682907 -0.4972536711326437 0.05333833669634583 -0.17947016910346758 0.002399295959264608 0.0008419067965235362 0.4182100249289303 0.0786598287650916
59941000.0 0.8563202919983266 -0.5061672314797755 0.0565128961561654 -0.187135646761066 0.0020419447152064526 0.0004931256756491588 0.40973598802222067 0.08143071143164991
60940000.0 0.8495550145336326 -0.5128266390007049 0.05751122695558691 -0.19236109002205456 0.0020942032083424568 -0.0007134318230582094 0.4045892510668299 0.06869566134037627
61939000.0 0.8458878829140289 -0.5204681264834783 0.05669800664708333 -0.20368801576501078 -0.00047508733388073904 -0.0004496756072226858 0.40061960592683904 0.06920878677873332
62938000.0 0.8402515471908041 -0.5304912603016754 0.06055849073714396 -0.22061900084002115 0.0027236406937732973 0.0022370376868131015 0.44516631431951154 0.04955785199574233
63937000.0 0.8342736578824324 -0.5392803130399495 0.060842750370072196 -0.2419605859734496 -0.003699932068077996 0.00030503424065027 0.4387748337226512 0.03321840391834503
64936000.0 0.829220233163009 -0.5433319759944975 0.06116271267152899 -0.2564097278101203 0.0012298953674826046 0.0029929962521768765 0.4412508240875265 0.03565926123349641
65935000.0 0.8243743465031372 -0.5565678806682303 0.058978541105301645 -0.2733749287705444 0.0006059870997203254 0.0029307203082130765 0.44206716336738816 0.017986731959837708
66934000.0 0.8199777433098927 -0.5614764017778625 0.05832465016615392 -0.2829385430354723 -0.0009029990399290104 0.0031754745351464065 0.4294396943428229 0.007849849638866452
67933000.0 0.8159538760538265 -0.5678499224176551 0.05943135634308199 -0.30042787417054295 0.0032733118161064607 -0.0018489209339065376 0.44799715491686254 0.0053251963678975405
68932000.0 0.802010936208052 -0.5724777252607162 0.05310999255700055 -0.3130435619913071 -0.0009242903367894137 0.00048803862446194997 0.45133217911885465 -0.018762139287301558
69931000.0 0.801661492246737 -0.5846277960119026 0.054995890885406816 -0.33240463485595445 0.0019255168925257952 0.0034139834403666643 0.4459045195466078 -0.020054530814727217
70930000.0 0.7973947301272318 -0.5888737039258242 0.051002810027822754 -0.34704566948721005 0.0043365368995200515 -0.0011490781096170168 0.44523506155540676 -0.03671350802583587
71929000.0 0.7922132103153349 -0.5997062027792199 0.04695888610659774 -0.3690420833065486 0.0021251295819523083 0.0008547410883859562 0.44817600638456706 -0.038841482847858495
72928000.0 0.786287454460665 -0.6104458096553432 0.04306100061795293 -0.38573468922193227 -0.0010750855572906226 0.001355171155269367 0.4649493441056515 -0.05963203552130765
73927000.0 0.7806828397451678 -0.6152182407734842 0.034085972182382074 -0.40536654520467275 0.0011924810641293423 0.0014646987361546235 0.46262648624098074 -0.06588518104713408
74926000.0 0.7753254202882766 -0.6241549846639112 0.03017971553265088 -0.42670222268867813 -0.0003674659673334221 0.006991441929011548 0.4591928879867624 -0.05786344670702499
75925000.0 0.7684274277904147 -0.6284467829605042 0.01658893541399175 -0.44502684855184904 -0.004032868389896237 0.0002001631557798116 0.46929841023258306 -0.07829135555838962
76924000.0 0.7605943107883245 -0.6371604601153728 0.0031814310613747037 -0.47480793382883957 -0.0016501671005182787 -0.0011949139155466796 0.4617276154357058 -0.08741211154100444
77923000.0 0.7554539781222251 -0.645024855546129 -0.009674559715377883 -0.49450997105935446 0.00182183060503275 0.0017638692124321476 0.4578799324941757 -0.08851916630950132
78922000.0 0.7489195117047537 -0.6549102988294759 -0.022442521568912067 -0.5264037339691551 0.0027590102208266964 0.002423681427740417 0.45406919136858404 -0.11297328805908166
79921000.0 0.7396420036255279 -0.6570923757256771 -0.04300439886095877 -0.5505946983322738 0.00025556648968140365 -0.003000128230941465 0.4562883028540271 -0.12288689617527027
80920000.0 0.7364041986043356 -0.66819204487251 -0.05575397103599246 -0.5824605229530305 0.0006603087771823842 0.0022214533320715755 0.4649686123255873 -0.1306222430255188
81919000.0 0.7310299671469127 -0.6734819022202331 -0.0707808786495545 -0.6105666058691689 -0.0015507488057418368 -0.0014541405032149634 0.46347036714550816 -0.13351708318416747
82918000.0 0.7225068815077728 -0.6811392889695272 -0.09081423937152876 -0.6435943701147259 3.171119579620367e-05 -0.0016111069779198945 0.46627522911392333 -0.15098943264599105
83917000.0 0.7120269197614809 -0.6892819010136402 -0.11172842453855142 -0.672186770741684 0.00031242332761137915 -0.0017326018300718238 0.46843941244308435 -0.16494324924039155
84916000.0 0.7069612002908191 -0.6966203016194434 -0.12397207416918203 -0.7128272824648274 0.0030422933019635403 -0.0023464186491177954 0.46311602720977585 -0.16398012308336077
85915000.0 0.7014605444952791 -0.703202414754377 -0.14722324918276455 -0.738997530155595 -0.002886819073354014 0.004708780813312451 0.4644268160790655 -0.1693099439922589
86914000.0 0.6920951006500242 -0.7133960656929872 -0.15648095733294048 -0.7776130881564215 -0.0034203646184418446 0.00134066276285693 0.46382662673293273 -0.1813250409831711
87913000.0 0.6856780268678758 -0.717467675057613 -0.18159556118334147 -0.8083939600618669 -6.624780757349014e-05 -4.682545604055366e-05 0.4607556530244029 -0.1909508873036625
88912000.0 0.6808380269079763 -0.7237282607029061 -0.19173441445629488 -0.8448960616538 0.001071885226496667 0.0009957256366902427 0.46604883960684124 -0.20757023599523314
89911000.0 0.6707389442466316 -0.7328152478373482 -0.21176072306630697 -0.8785516023703075 -0.002577352252618463 0.0007386554793938342 0.45767231520588275 -0.21666663119199306
90910000.0 0.664256927643985 -0.7368815767251705 -0.22844890128068976 -0.9158516764944232 -0.0017318321988739477 0.0012542404528013864 0.4639696041481944 -0.21043090587783864
91909000.0 0.6539144335300681 -0.7424786658524608 -0.24995221511738364 -0.9550468961458978 -0.0018793109288795672 0.000614925251341835 0.4702691478035602 -0.23491891636075887
92908000.0 0.6493484592890426 -0.7516695171948552 -0.2686176437799384 -0.9855221175879891 -0.001466079650866092 -0.0012975652233765966 0.4613746205231773 -0.23311894325020885
93907000.0 0.6430426254704594 -0.7571529789243772 -0.29198290678187194 -1.0198559677077979 0.0025716548017750795 0.0019164337682025898 0.4613061952771596 -0.2596466175302715
94906000.0 0.6265762026793035 -0.7661326883288457 -0.311555864505089 -1.053010508162899 0.0021977263608167516 -0.0007471977100708746 0.4556888383429323 -0.25774042902631505
95905000.0 0.621319803888985 -0.7697267453592561 -0.3344679505544418 -1.090089585362557 0.001988508598222334 -0.0039030639682813106 0.456383496446864 -0.27610873870259023
96904000.0 0.6140161006104566 -0.7787025130922139 -0.35400983517518253 -1.1324306628678154 -0.0029899406548765965 0.0019661781197073953 0.45661860778793073 -0.27459751947862143
97903000.0 0.605347659136541 -0.7848221904520222 -0.38236107993231505 -1.167236267038081 0.0018458361827027932 -0.0013986564402758742 0.44178995324621795 -0.2855705402955713
98902000.0 0.5990954829057177 -0.7914968786811258 -0.40291398542361845 -1.204380619094751 -0.0010069313192331015 -0.004357859946206106 0.44692068974866633 -0.2965276445520322
99901000.0 0.5890156405197509 -0.7977241014336397 -0.4340536877151021 -1.2365382959738531 0.00011516370380251198 0.002213108052818815 0.45661274943505403 -0.3227940110555965
100900000.0 0.5827299007633352 -0.7996456227238123 -0.4677213666859725 -1.2685369520630474 -0.0028063798028182276 0.0012441787929529777 0.46149486034448145 -0.31492650310291065
101899000.0 0.5732985916405141 -0.8080245213506848 -0.500594081346156 -1.3091581879533116 -0.0018813660568703634 0.0020817249149818187 0.4478107233614586 -0.3231303730887692
102898000.0 0.5619533861478654 -0.8149996592649277 -0.5404236792232798 -1.3486361905924718 -0.0006216909092656732 -0.0012437600018638726 0.45118329676390523 -0.34939955705503384
103897000.0 0.5531986775820138 -0.8220684274891666 -0.5826334655197476 -1.3878071953544013 0.00018851355003748736 -0.0014956982122583493 0.45141057630602693 -0.3469310152235753
104896000.0 0.5461078399593269 -0.8318458042924531 -0.631897239339433 -1.4225394472351913 0.0008064717490894484 0.002951844371104379 0.44524578377171153 -0.33771461232750105
105895000.0 0.5347157895453738 -0.8331830703013998 -0.6821876542740962 -1.4672824414477965 -0.0013798412698156732 0.0024409433614513616 0.4325247859606469 -0.36226900110787363
106894000.0 0.52618857609852 -0.840278538600988 -0.7436473734546967 -1.5073118887734984 -4.672517394412522e-05 0.002104734798292624 0.42627853599493537 -0.37576007393284155
107893000.0 0.5168979896334033 -0.8468784865663703 -0.7938065064418787 -1.5444597221535237 -0.0011465223788826183 0.0016757777455752721 0.4155916881902676 -0.37968659539831456
108892000.0 0.5080742492932876 -0.848928099848899 -0.8561740251296069 -1.585511933696296 -0.0018916727074345416 -0.0024407733752127157 0.4250826608655885 -0.36987857875988317
109891000.0 0.49565083767703383 -0.8580039867244527 -0.9175825678470696 -1.622254907276652 -0.00045899830540582385 0.0013638585603146618 0.43301325150287173 -0.38053163690278197
110890000.0 0.47750749624496736 -0.8686932411241971 -0.9957689561640256 -1.6262402355248766 0.002447855231225909 -0.0034477612101565195 0.4159862741240697 -0.39306577742456084
111889000.0 0.47360922785628895 -0.8660650291862441 -1.0521060542831508 -1.6958728934506677 -0.0008165819747805594 0.001613329712569468 0.41846265623935247 -0.4011972919663161
