! Created with skrf 1.9.0 (http://scikit-rf.org).
# Hz S RI R 50.0 
!freq ReS11 ImS11 ReS21 ImS21 ReS12 ImS12 ReS22 ImS22
1000000.0 0.9912553486521212 0.014022938827926412 0.002524932636891243 -0.049688542139427486 -0.010658548258673448 -0.0027593131862166695 0.3082051862110576 0.3200665033342404
1999000.0 0.998618815500041 -0.01140778765998112 0.005623110556897928 -0.018133479807111018 -0.003151608780413343 0.0024211843405493763 0.24019316764728962 -0.030786503743864994
2998000.0 0.9972462838249104 -0.0275351200523292 0.011806559220954934 -0.015352670823413234 -0.001029101253810324 -0.00299094944440825 0.1882923492729457 -0.11940288505423569
3997000.0 0.9973965343113046 -0.030026910844920356 0.01840854660008578 -0.008273077326537584 0.00436522087294947 -0.0022063297974614466 0.09652750666663237 -0.21490588849439013
4996000.0 0.9935025228048259 -0.03908742266172699 0.010043191336343307 -0.0028373279507308887 -0.004806048146164703 -0.009709575273494036 -0.03956299892003151 -0.2141800797261351
5995000.0 0.9931980342798543 -0.047575957069966444 0.00979052537113686 0.0030767921551715875 0.0018857290273771791 -0.0008749613612218071 -0.12223976560514703 -0.09986491130025957
6994000.0 0.9910145835795742 -0.05754250985326499 0.006117204323636814 0.00230715012586504 -0.0011474323945422998 -0.0018678265548104096 -0.15232858339294386 -0.017083874194952216
7993000.0 0.9909754816448391 -0.06880346915722538 0.005691524252147111 0.004255144802203711 0.00045863969344333606 -0.0007520869917923077 -0.1508728719992736 0.040060059079472174
8992000.0 0.9912284683269662 -0.07391678434521282 0.0030932074131417987 0.009594137957283325 -0.0017276344888283604 0.0017363487275057303 -0.15262495531345116 0.06621716627738641
9991000.0 0.9919537712387678 -0.08275210189715072 -0.000977535981376796 0.004341893942487506 -0.0035724276772136124 -0.0006659092485032427 -0.15346204262461371 0.0848830248261762
10990000.0 0.9890496502093767 -0.09512135449892091 -0.0007538895886733178 0.001133655422610405 -0.0028107386238673173 0.0015735640904330718 -0.129729448438906 0.1067338898979009
11989000.0 0.9885201749733044 -0.10051175600768167 0.002611367378792643 -0.007261115471246663 0.001863227195610751 -0.0029285749049728087 -0.12891475510573003 0.13805197090961668
12988000.0 0.9882639934173748 -0.1080635096077443 0.0033379246801005192 0.0024257146177520234 -0.00031448642497619524 0.0013486934480843643 -0.11082856290542381 0.15776912642630217
13987000.0 0.9846152002182614 -0.11791544387463845 0.0014299150113523172 -0.004693147293875328 -0.0025253264244111547 0.0015609772305740953 -0.09455439333415351 0.18331687064059374
14986000.0 0.9843693576138427 -0.12652475868347196 -0.0005937696096258684 -0.0020835923524791847 -0.004118229103836257 0.0003481975159015622 -0.0881866138400317 0.2078270202905992
15985000.0 0.9879839060953133 -0.13341078285373836 -0.0010309094829165748 -0.0034880173561111587 0.00031971879574403065 0.002575811396775196 -0.07808975395380077 0.21915997281135727
16984000.0 0.9852861154647334 -0.14248705610130355 0.00011334817185322864 -0.0018379837490827661 0.004990321143748058 0.0009172272933450404 -0.07135220876152208 0.21517280236705608
17983000.0 0.984673863800685 -0.1491695660576584 -0.0033017366475919427 -0.00529390662388829 -0.0010227524840115123 0.003953284693736245 -0.057016649742711326 0.22592019936563215
18982000.0 0.9806900592254029 -0.16048677230686573 -0.008163690893836232 -0.0032210306742555816 -0.002040583445578673 0.0023854854730495155 -0.024614810509578307 0.23080001850144544
19981000.0 0.9796927980993441 -0.16368865645571706 -0.003460486405089908 -0.005279496738325342 0.00020233298428024252 -0.0008459546739732874 -0.01607132807372918 0.2419744205840497
20980000.0 0.9783580313664416 -0.17751543559020697 -0.008645613717568395 -0.0053654779790427995 -0.0003402890146139555 0.0018490813672548494 -0.012158336521607188 0.2570217574321461
21979000.0 0.9748437689260324 -0.18471136509453945 -0.003590073987847389 -0.0035830725128835374 -0.002044067426357722 -0.004787359521960234 0.010703090627039481 0.24326997614074652
22978000.0 0.9759432619631524 -0.19317248972284265 -0.010810745764792178 -0.0026194401041115703 -0.00018109819240067583 0.002522049386217131 0.0292549983830986 0.25318736716687684
23977000.0 0.9766366064215959 -0.19982834891303322 -0.0047498243904600616 -0.000905643453407413 0.002773206071202298 -0.002126912593207985 0.039399007696798584 0.2508270578993973
24976000.0 0.9705121108624718 -0.21194390411207678 -0.006539186506906463 -0.0029084870419330486 -0.0019126338453518403 0.00042403807880735475 0.054733064270332914 0.25312443629254683
25975000.0 0.9718307862457479 -0.2232922596306722 -0.0028530245428491125 -0.005516440439558884 0.024046851373529476 0.012353586261057302 0.07567395414043322 0.2602152949326992
26974000.0 0.9680507588873319 -0.22820640448212828 -0.006730954698403907 0.00011032179167495881 0.0006270642582315884 -0.0031569151808289795 0.06848201986833204 0.2606354660956819
27973000.0 0.9664923677298091 -0.23566916111580546 -0.005748205995046093 -0.00264365354691498 -0.0005486651686859366 -0.0006542258131156496 0.09131306931298726 0.26724556608161265
28972000.0 0.9620382181902705 -0.24589725392994827 -0.0023415265334033424 -7.814159450651304e-05 -0.0020094079500681625 -0.0010349053684409345 0.1148222623841459 0.25809001048081337
29971000.0 0.9615707758413203 -0.2550824446976334 0.00012022236055456082 -0.003998549235973429 -0.0006198139433689407 -0.0009396322059670175 0.1503362260136027 0.26415872305109855
30970000.0 0.9609912706812384 -0.25915665097284085 0.00474978401653509 -0.00021834371777723136 0.0028555106372009707 -0.00019145629614381274 0.1694256544233866 0.25086793887662723
31969000.0 0.9588100669799261 -0.26816711946834504 0.0034898743666878286 -0.0025772568693739526 -0.0013923091374729588 -0.0013078780456179026 0.14297999825509025 0.24844828436512573
32968000.0 0.9566311825826092 -0.276019074224226 0.006069823746860232 -0.00915718896704942 -0.005030565347475853 -0.008302861442417016 0.1703658538781593 0.23900035119715968
33967000.0 0.9531115860760658 -0.2863822855774534 0.012068376515736388 -0.007075542774234528 -0.00028624731801673 -0.001220510120423927 0.1813438493537959 0.24680861086993655
34966000.0 0.9495382667282832 -0.2970733693831336 0.010424373714800213 -0.013506970230757984 0.0033990794827217113 -0.0010194967747571859 0.1945557572292062 0.2565134439166302
35965000.0 0.9476385286149601 -0.30224338737096235 0.015395965217878362 -0.010960300193876062 0.002779827923161898 0.0014018137574618851 0.20805050221854454 0.24766104414423235
36964000.0 0.9457811058337695 -0.3132988027185105 0.018742534960432742 -0.01522998720114224 -9.93390389202529e-05 -0.00015660941944979073 0.2134562563056963 0.2470846671243622
37963000.0 0.942456145861186 -0.3217008853165918 0.021962267488405716 -0.018907612170438588 -0.0016429722447573814 -0.0016024810927611258 0.2287001091539907 0.2380156333540987
38962000.0 0.939352573833808 -0.3330996117512002 0.02179433059408779 -0.02731191791536451 -0.0008804332768595447 0.0020827754374505582 0.24513828688712846 0.23098297762398834
39961000.0 0.9384691454072149 -0.3377799116934749 0.026233626224435265 -0.027159363636076274 0.00357153995870206 -0.0015710590544580078 0.24548614969288954 0.22535188152966515
40960000.0 0.9337355438740476 -0.34735575584008477 0.02212789926526245 -0.02504445134169238 0.0007329907027541807 0.0023151211213837024 0.2692334624674693 0.2221438832328673
41959000.0 0.9309755412693447 -0.35710962788932304 0.025328021690143424 -0.030720328199803207 0.0019705129632434444 0.00578849858898571 0.261137858525498 0.21532536725318038
42958000.0 0.9267060521469733 -0.36404519615999764 0.031102832702623418 -0.03895388879845784 0.0018058271016105896 -0.0029081477464511147 0.2785043095535346 0.2109224435310499
43957000.0 0.9238226957145873 -0.3720725237539493 0.03291499472751704 -0.046248462793346164 0.0015076865560250349 -0.0020045928772150644 0.2815216329475914 0.2057622953787248
44956000.0 0.9199777055520788 -0.37933004257523883 0.030402375254583745 -0.05331817108162539 0.0008944894946851354 -0.003049904753160979 0.29609174843547165 0.19997904397317579
45955000.0 0.9156043229286466 -0.39020384565938704 0.03277192346558558 -0.05960101571589029 -0.000990456702044484 0.0008927731440294139 0.30208413267540724 0.17815918088817917
46954000.0 0.9119834567469767 -0.3985889045681472 0.03581274609304488 -0.06325622498414761 9.206494004524352e-05 -0.0021362590562613104 0.332182812023466 0.1747469478708646
47953000.0 0.9099076428719406 -0.4054544851992996 0.03647469382116658 -0.07112609308813575 -0.0032256042298382547 0.0001092734483694882 0.33418685480401833 0.1693572899440647
48952000.0 0.9035066734818917 -0.41637458765237634 0.03840152959298717 -0.07893889848838107 -0.0018002485938451156 0.0010807772576061562 0.3392327066953661 0.1612608540382189
49951000.0 0.9005307371598377 -0.42308108132645134 0.035914177880717456 -0.08809718161287672 0.0015885505790555888 0.0002135731893898523 0.35094943370269993 0.15012241101432594
50950000.0 0.8974738379955971 -0.43171679939336716 0.038047898133714536 -0.09715401540083911 0.0019969973188059217 0.0018956022682994342 0.34604585782210867 0.14924396514821278
51949000.0 0.8937225356004221 -0.43979167896624893 0.03913675822140332 -0.10084823458226436 0.0004406397724081486 -0.0017388450125865428 0.3644007896590389 0.1472148650981582
52948000.0 0.8893910646357529 -0.4492714401629398 0.040524631105071734 -0.11267512637138621 0.0036865107585380124 -0.0022220495235668104 0.37538884746210355 0.14149509539935848
53947000.0 0.8857777000567361 -0.4543204706594221 0.04107195014436901 -0.12185947722581311 0.0011919963051969143 0.00013053181560793937 0.3726796799956472 0.13229288461720837
54946000.0 0.8783842890714422 -0.4658290751042245 0.042781955487649646 -0.12985860953260958 0.0008479584701694151 -0.0019760667320128504 0.3821385245009513 0.1231512000032312
55945000.0 0.8752701775159885 -0.4721723317308311 0.04371351502591846 -0.1423030946980381 -0.0005623420560223762 0.0012114540467048375 0.3868274632411592 0.10142233480279195
56944000.0 0.8718501871662074 -0.4794259430967929 0.047526484981056855 -0.15398314438387528 0.0015081180157242823 -0.0007895994245766988 0.3872041791643262 0.09966518763124049
57943000.0 0.8662722595868709 -0.49131075073852903 0.04703292945775496 -0.16234658703783042 0.00016075175752974582 -0.0007727213569852317 0.3966553111945429 0.08931846894209704
58942000.0 0.860187689891508 -0.49629617243346835 0.0463030354196102 -0.17288051342615315 0.001615729374417851 0.0013977073373361462 0.4078554149343642 0.09668435396550766
59941000.0 0.8595692606090786 -0.5040967713941065 0.0515587683181631 -0.18370424497684854 -0.0017759839024153042 -0.00028127789384469495 0.4170181023167484 0.08076046021648177
60940000.0 0.8511839758013335 -0.51213438890982 0.05054668091866917 -0.18555800321828278 0.00021853648760425357 -0.0014261759302489983 0.40404928435348597 0.07629686502390434
61939000.0 0.8474927416653694 -0.5191954323378776 0.05222956288528858 -0.19494762221851203 -0.0037156516493239374 0.0002643136129152346 0.41142552980801583 0.06453652848490873
62938000.0 0.8431016579517508 -0.5306170722658752 0.05723080056305568 -0.21395024682556862 -0.0015449587627734936 -5.666952920049682e-05 0.4389245632096104 0.058717684367682724
63937000.0 0.8376554370981509 -0.5376938221524454 0.057096989640387875 -0.2335459719766013 0.00021765254259727729 0.0014937955786308045 0.4267645826108018 0.04091417133510222
64936000.0 0.8304217847538071 -0.543140158960191 0.053254966980498794 -0.2442925501236294 -0.0004337972175555341 -0.00010160304629998375 0.4300431227209787 0.03747625554506787
65935000.0 0.8274030535515612 -0.5536896062520519 0.05335376297290881 -0.2575149225977413 -0.002131594667796356 -0.0007283680140273481 0.4352558895913316 0.021302944883340152
66934000.0 0.8229500181990556 -0.5595650538285734 0.05469034879504667 -0.2730096084247515 0.001107213772939274 -0.00166910252237979 0.433915303925383 0.014018128856322159
67933000.0 0.8188361578351155 -0.5673048960575131 0.05502839893486961 -0.28643664569154703 -0.004004889289834198 -6.995422712274208e-05 0.4440526939945068 0.015570924706674068
68932000.0 0.8155956670594076 -0.5627231155967558 0.05533728496086598 -0.2991888761125987 0.0002484089368412988 -0.0010378780413330727 0.4435749315731 -0.01056604439559346
69931000.0 0.8043535700519078 -0.5863801744216379 0.051323525463060043 -0.31975078196860224 0.00042785540374147937 0.0005942850203893884 0.4526924545779837 -0.00754608652217746
70930000.0 0.8001067969559973 -0.5898397280022893 0.04998615585475049 -0.33263765847311183 -0.0002990954434443296 0.00034283952001022266 0.44729017653547837 -0.02920225493605881
71929000.0 0.7962939314028942 -0.5977462628807667 0.046051731354573675 -0.3509263169670895 -0.00046957923811454894 -0.002376754491606729 0.43783010716629317 -0.03854932137654604
72928000.0 0.7879925304239993 -0.6090538754042885 0.040026305897406446 -0.3658605269616007 -0.0004654786576120445 0.0030752052437493815 0.4547915491974696 -0.043965745536333076
73927000.0 0.7817630914066105 -0.6148839080829644 0.030150106961269848 -0.3872313295960362 -0.002521625004709766 0.0012133469247179363 0.45358655873840825 -0.05601131854311707
74926000.0 0.7758870800967453 -0.6219722223636249 0.02642938033631452 -0.4048702434849156 0.0009044394994274055 0.0020264094764818647 0.46037303051844014 -0.052665127246379576
75925000.0 0.7690372108200275 -0.6268279952484196 0.014479640334898585 -0.4230198768322027 0.0020785726284319674 0.00037501476853908243 0.47123881933450007 -0.0758036197369653
76924000.0 0.7645065791373663 -0.6364681622278382 0.0004792070561172011 -0.4499884135388459 -0.0013485885955141319 -0.001494873827233998 0.4581576820041234 -0.086585454844382
77923000.0 0.7565144402987147 -0.6437398263743843 -0.011167736607004314 -0.47440605836902694 0.003161286854944064 0.000986281939790986 0.4606178970461229 -0.09009718092042235
78922000.0 0.7519019707722697 -0.6527896897399473 -0.024106675162186304 -0.5025997965656919 0.006504789201177293 -0.0025494551240308745 0.45565529256189125 -0.10875954494818971
79921000.0 0.7437068224964183 -0.655913387792383 -0.04664951560446359 -0.524678334749853 0.0025726389098813273 -0.002797217134111082 0.46135485151627303 -0.10608721767676638
80920000.0 0.7392335788155688 -0.6661321728812731 -0.057134328269468126 -0.552477658865222 -0.0007948044475073901 -0.00339989673700871 0.46184887955412557 -0.1363235758025691
81919000.0 0.7333892777766522 -0.6720989801861333 -0.07736215071412415 -0.5822414166021558 0.0014200928124780703 -0.0016696293531643857 0.4736597503212272 -0.13059789554059717
82918000.0 0.7246073079188013 -0.6816515797969424 -0.08906655866672547 -0.611200907253308 -0.00047156807710887154 -0.0009301604406277668 0.4699040218362024 -0.1313814124150056
83917000.0 0.7150278146783513 -0.6876108325835926 -0.11369452989968036 -0.6386467125170933 -0.0018015728153800159 0.0009527725424694623 0.4731242698791049 -0.14374445854836945
84916000.0 0.71002792678334 -0.695043654347518 -0.12369293162158342 -0.6748880815186014 0.004644682723162962 0.0012795325851136 0.4640190310559212 -0.1708445296166196
85915000.0 0.7047238246331546 -0.7007987068391456 -0.14408345798505076 -0.7070870149727472 0.00021961374007081985 -0.0026950998232206018 0.4668323087631307 -0.163753895941089
86914000.0 0.6961848975421737 -0.7110022274818787 -0.16035646982415858 -0.7423536692881189 -0.0010402312332623998 -0.0014625199323583208 0.4535402888641664 -0.16484885024472723
87913000.0 0.6885449152592392 -0.7178769915017801 -0.17717658500907976 -0.7764996130459567 -0.0025393062462380185 -0.00023890112712824166 0.46065676631156877 -0.1849703118783355
88912000.0 0.6826655096001915 -0.7229252812451028 -0.19782875183832727 -0.8078334745763446 -0.002676540854452758 0.0007609644746933343 0.45811293741918396 -0.20823982726454335
89911000.0 0.6736350740117013 -0.733183761587264 -0.2092996188666339 -0.8433775915794075 0.00013239631511542964 0.002191098608202711 0.45925072158601143 -0.21520775583776672
90910000.0 0.6682909747613346 -0.736333371603885 -0.2233235336371646 -0.8772272749389466 0.001802430220606544 0.0025735228131579186 0.45929359610894627 -0.2035323499552642
91909000.0 0.6582480933752881 -0.7425010566078664 -0.24321564667921852 -0.9086106473129234 0.00034817744706724604 0.0024064422874712234 0.4623447329611146 -0.2111099247314431
92908000.0 0.6510224306976367 -0.7505883859709933 -0.2632321917251754 -0.943593500365788 0.0013681763163974484 -0.0014579981879786785 0.4609742799741725 -0.23769466018254007
93907000.0 0.6435298198867849 -0.7568323816681485 -0.2823905610312376 -0.9762741954514945 0.002722938309605727 -0.0017729920276982377 0.4635184780142293 -0.26026404290330307
94906000.0 0.6314957770099922 -0.7655077936138509 -0.30133276746152177 -1.0073850121016197 -0.0009660993712871573 -0.0009007339214549207 0.4611698001543652 -0.2559204060534893
95905000.0 0.6254314741673326 -0.7708830253954728 -0.32163426073014717 -1.041346979118186 0.0024995204806826984 0.0004733918087343007 0.45844268986706854 -0.2621854254310235
96904000.0 0.6170807150111304 -0.7783510154746072 -0.3426327288431038 -1.0796064915396386 -0.0001697905520221242 0.0011966890658030858 0.4467024448636174 -0.2736192665162065
97903000.0 0.6073388215756602 -0.7841741988309029 -0.3623234387990385 -1.1109320156993583 -0.0009194387637837804 0.0020753602695425567 0.4405246376240946 -0.2926987391126927
98902000.0 0.6038365240610045 -0.7923429482786629 -0.3833662120778944 -1.1551369072807114 -0.003141954680213745 -0.003896221667716423 0.4496537549618003 -0.2809871208948076
99901000.0 0.5921021029019696 -0.7979563210778303 -0.4147635954787477 -1.1808835058249993 0.0035767511258352246 -0.001409021527421229 0.4573555214678426 -0.30188440035364156
100900000.0 0.5856214527332875 -0.801363828824682 -0.44577283556972436 -1.2143261885391947 0.0004235709898231874 -0.0010657353465359988 0.4475992698007427 -0.31620214233120236
101899000.0 0.5757210602464343 -0.8089385622979792 -0.46932704038073525 -1.2512858988222715 -0.002465099244553265 0.001704151459085408 0.4441872211327015 -0.31999975452398166
102898000.0 0.5655545033107678 -0.8155213537914937 -0.5076898663862291 -1.2913523515263883 0.001794073123144726 -0.002938733926593173 0.4582683054963413 -0.33237105444143605
103897000.0 0.558585151768487 -0.8233637667645914 -0.549955414228651 -1.3275843009302999 0.0007097378386433963 0.00255896259818267 0.46117594748594787 -0.33092465318473674
104896000.0 0.5504873160377531 -0.8317937439573293 -0.5936303206104963 -1.3579301530741112 -0.006132265485167978 0.0022063147862255578 0.438029596814675 -0.3299637291648482
105895000.0 0.5393025951692912 -0.8332951335353325 -0.636273880515508 -1.3981730771384266 -0.002021495572241984 -0.0004758196160637478 0.43374857117589805 -0.35510197949866024
106894000.0 0.5299197827470744 -0.8392621828828543 -0.6925779459564978 -1.435057982138589 -0.0013127664247366364 -0.0021138449552850816 0.42998102351413847 -0.36401211925255167
107893000.0 0.5214752314787365 -0.8463743456244395 -0.7435857134532015 -1.474711355774171 -2.504768126310298e-05 -0.003121534840261012 0.4338477028374024 -0.37829838964858004
108892000.0 0.5106137316657127 -0.8514518982323168 -0.8072961970743253 -1.5123975592847048 -0.00017049022373217466 0.003007186271908136 0.4279670777531595 -0.37557012294566394
109891000.0 0.49760980309198444 -0.8582184803211572 -0.8724443296718871 -1.5505348406673651 -0.0019293268362726291 -0.0003321922657761432 0.4436620857447284 -0.3727804672949446
110890000.0 0.4795167645630043 -0.8693799745703994 -0.950261562385935 -1.5486042869473924 0.00010232820525879678 -0.00418944447682894 0.4228214564551168 -0.38429842665586567
111889000.0 0.47641087920745334 -0.8649708035666761 -0.9980821847231077 -1.6174396503852464 -0.0035565241301735756 -0.000159390568281483 0.42543898269985636 -0.40413108441236156
