! Created with skrf 1.9.0 (http://scikit-rf.org).
# Hz S RI R 50.0 
!freq ReS11 ImS11 ReS21 ImS21 ReS12 ImS12 ReS22 ImS22
1000000.0 0.9749445719333314 0.010278642126183096 -0.0027953197488559934 -0.04022892630270607 -0.0023136545623196683 0.006947405994956491 0.39801008478905875 0.3280834544002581
1999000.0 0.9911203972909294 -0.0152013764781407 0.004722648196211663 -0.019461943862698266 -0.010784534432601592 -0.004673141075821554 0.2274843166589225 -0.03874853287691137
2998000.0 0.999743109284798 -0.020098480499893063 0.006438541881817481 -0.016131898211484048 -0.006579945567246414 -0.0048232504883402305 0.191928211971611 -0.13620724102036708
3997000.0 0.9999281631509026 -0.031383873124615436 0.016425146798005164 -0.006004708731818776 0.0011802107697099081 -0.0002815868310428351 0.08068294242334527 -0.21443826494884527
4996000.0 0.9978555746533803 -0.039937912763843064 0.009833313225767833 -0.004258051508887531 0.003790730428233342 -0.004276590210034843 -0.030301814111187673 -0.2206089530478331
5995000.0 0.997046676852222 -0.05204723014484781 0.008529409657190075 0.0021144948016802207 0.002562971463040561 -0.00048684849184908204 -0.11880787055275831 -0.12588086591582942
6994000.0 0.9925474246028307 -0.06119738406278604 0.006233048972480554 0.00527844284573198 0.003419118963818273 -0.00565671680727949 -0.15193737972712312 -0.037833940655131286
7993000.0 0.9940579168858802 -0.06819925721197112 0.001435596788360747 0.007108663091647283 0.004913462154576228 -0.00026191344896192895 -0.16691324634409474 0.024877737395421224
8992000.0 0.9948600965552243 -0.07267219330727372 0.004162291265596098 0.004837970507779314 0.0065816917915991905 -0.004100009116038138 -0.16486524004480105 0.05108809865722281
9991000.0 0.9935147067707983 -0.08273657917689403 0.0035369884807188194 0.0058977981190409 0.003563662946127503 -0.00261694370541245 -0.15746869788225168 0.09112263536261532
10990000.0 0.9914695568070523 -0.09639729378373296 0.0028264784914630615 0.0016243569996453044 0.001259507253864958 0.0007799719290375469 -0.1428797722175706 0.10353407951034843
11989000.0 0.9906185182040221 -0.10248183359145871 0.005766872077131597 0.002982445351385318 -0.0027648055649848484 0.001286447003505708 -0.1320600895838693 0.14959105835276523
12988000.0 0.9882862435993532 -0.11110360729193174 0.0002997587215397133 0.00032509958749724153 0.0004907108430092771 -0.001773240359906723 -0.11730322664086205 0.1646217232707839
13987000.0 0.9881890562290374 -0.11751542610723247 0.0020622178439864197 -0.004182358053735237 0.002696577971310468 -0.0007995977353914417 -0.08642965754749403 0.19005455781031116
14986000.0 0.9878318506719221 -0.12498581949599516 -0.002845255576784245 -0.003237835071413946 -0.00283852866884304 0.0011268825815745663 -0.09866398294244581 0.20399190315395554
15985000.0 0.9894025641427876 -0.13436329235203026 -0.0025709620593322847 -0.003133617626462089 0.0035726398002854675 0.0015924481234615502 -0.0734012291768728 0.2073714969342079
16984000.0 0.9849245317483996 -0.14654879528742595 -0.0021449729040632862 -0.0013580675660048406 -0.003139834857952689 -0.004535649455555975 -0.07324876804628655 0.21969964522818716
17983000.0 0.9866163607856672 -0.14844946435419182 -0.0023431013822023156 -0.0025817888440617283 -0.0037351748665138715 0.0012098092661916094 -0.06173998723264831 0.2268717077503328
18982000.0 0.9827625317652184 -0.16333873822035602 -0.0034342893304474347 -0.003248416946648768 -0.0023967313871514294 0.0025794228936611347 -0.02678060273489491 0.24626262923433134
19981000.0 0.9819930294945327 -0.16742081206991494 0.002415164306688334 0.0013793486870978852 0.002497607470584321 0.0037718000884698795 -0.023278271846616967 0.2392197952929377
20980000.0 0.980940435087574 -0.17582190642863887 -0.002445821869989966 -0.00056730094436973 -0.00011093198868673093 -0.004397332134816065 -0.00832539241979785 0.254103833128672
21979000.0 0.978636449384966 -0.18799229345956414 -0.004998258794431797 -0.007874417620667906 -0.004632645835138385 -0.0006383873329092436 -0.0007079809778035174 0.251666321945991
22978000.0 0.9763229534278256 -0.19570759413719213 -0.005445437905873685 -0.005922039355008882 -0.005406255381890463 -0.0011537493073802455 0.022462634437490078 0.2581614733851232
23977000.0 0.9794783255273869 -0.20039834761810382 -0.010694450884631697 -0.0016789434958628853 0.001923130392349718 -0.0007705083670083153 0.028427795733557963 0.25865667568174444
24976000.0 0.9740101911480249 -0.2140029355144173 -0.00859650732399154 -0.00117765509647087 0.005865383692788404 -0.0007040336767910093 0.05950265292143203 0.2552289978001551
25975000.0 0.9689423641011147 -0.22547966323183782 -0.0038010296257089938 -0.006275390615968264 0.022875668042827337 -0.014983117805195557 0.08642570219719056 0.25940768007150933
26974000.0 0.9693963571991762 -0.22928339574632767 -0.006625955393738193 -0.0014145814280880913 0.0011596429448589166 -0.0036231648224913727 0.0806473514921645 0.27319118803319636
27973000.0 0.9702393886192755 -0.2345997152527989 -0.002535757840665858 0.00046406646477269186 0.0002910863180239718 -0.0023627116714783985 0.097236018968079 0.2610081141961671
28972000.0 0.9641319941691037 -0.24570123568982555 -0.0007076881374762646 -0.0015008620547753134 -0.0015911906070852828 0.0005333459990283692 0.10998547305684514 0.2588725339650037
29971000.0 0.9638526958150395 -0.2562968429986622 0.0019774226339138888 -0.004810100053479663 0.0002044344523862662 0.0009714093132138107 0.1427162137704801 0.26484467889126756
30970000.0 0.9609633603060601 -0.2597364043781412 0.0024021802420583103 -0.0034828320856975974 -0.0025032873599839262 -0.0006047503000782264 0.16242586650928756 0.24731762478381336
31969000.0 0.9595255646613832 -0.26999595326829234 0.0019692817523205993 -0.004189942690738993 -0.0022586828759943475 -0.0003022679115716749 0.14688929030627945 0.2451551945305617
32968000.0 0.9582002058653148 -0.27930121117114454 0.010794660296046145 -0.006097706711425612 0.0011260496077914626 0.0022716547723834915 0.16053409692204287 0.24375488378784158
33967000.0 0.9556065517212085 -0.2875640822729803 0.008457514645993397 -0.008920415737946701 0.0013983386205350553 0.0032859627321563034 0.17228753248086706 0.25306566110923495
34966000.0 0.9523351547482299 -0.2994153844138025 0.013900865112811692 -0.01012904695987805 0.0001795996022773219 -0.002378037801392355 0.19782297600298654 0.24897447770870376
35965000.0 0.9495532358107165 -0.30578755841007976 0.015197906869512254 -0.014422686183427558 0.0015095769578048824 -0.002056829790348379 0.20608917759916418 0.2603537634248834
36964000.0 0.9476558150258454 -0.31465669757642334 0.01862642578332177 -0.015326785491367912 -0.00031396062955553494 0.0005681203967004636 0.20474248907570064 0.25422884417014247
37963000.0 0.9419397147157879 -0.32377823552107415 0.020361674476847013 -0.025364545487528787 -2.2373035376978605e-06 0.002934553482882512 0.22325232729215955 0.24034388372420565
38962000.0 0.9415132647905734 -0.33081447836573846 0.025302068932186915 -0.024830250411159004 -0.004482672801921574 -0.0015750152383112305 0.2356871635082747 0.22978450531405245
39961000.0 0.9383572196968218 -0.3413988228053086 0.02710829948833587 -0.02652209865867875 -0.0010569950714159873 -0.0020722035931592993 0.24649435932575342 0.2250265350432841
40960000.0 0.934650693926288 -0.3485192442937809 0.02245677690837355 -0.02316306844715398 -0.0011010832393168646 0.002650613490901961 0.25898222681411565 0.22566650435632213
41959000.0 0.9297646041678114 -0.35912315249461857 0.031069100764220762 -0.03273760190091353 -0.004170931718947549 -0.00031196645577087677 0.2601538641924147 0.21078145042378527
42958000.0 0.9271387060982343 -0.36642350050521044 0.031002104565390584 -0.04290441604458203 0.004110643680825631 0.0007121292756967036 0.27675966209853237 0.2018040722807797
43957000.0 0.9242586940129809 -0.37223803654438514 0.03165894238369106 -0.04672834786247134 0.0020013784688317693 -0.002662603770916094 0.286188522523825 0.20554971202273709
44956000.0 0.9212891865856867 -0.38095080366142225 0.03432392581429603 -0.05210043154969738 0.002090401761486913 -0.0002990662182133106 0.29783580706306295 0.20246181349601203
45955000.0 0.9176072875871093 -0.3904656787683497 0.03359208749266324 -0.06066466070774037 -0.0008132614883155589 -0.0026301321363419675 0.3086702129033717 0.19056592986729592
46954000.0 0.9115988413554751 -0.40081596092141264 0.034847416480792925 -0.066842366240388 0.0012175107750269677 -0.0021083845061072785 0.3198686328695883 0.1783705263185051
47953000.0 0.9119380232587077 -0.40649569434497196 0.03611176298716132 -0.07257899441297795 0.002046578392851701 0.0028998369875412903 0.3313137116583163 0.16646403771442664
48952000.0 0.9071633899702556 -0.41621593859398753 0.038354504277767945 -0.08236781470633223 -0.0016000848727583696 -0.00030257533061013326 0.3314508718551145 0.16847868934522386
49951000.0 0.9021383424675544 -0.424150420923867 0.035251837821021946 -0.08627816150707181 -0.0003092023473344636 0.0007652276952664859 0.3420050581267005 0.15481343761363928
50950000.0 0.8974939216089541 -0.4322507250890164 0.039344597625644996 -0.09474192663845342 -0.00032648342608972874 1.8308965409128323e-05 0.3530315443848137 0.14424857364727495
51949000.0 0.8945565332451272 -0.44039470129471314 0.037365499787193085 -0.10476643321929631 0.00058156517515819 -0.0021923810407041984 0.35476319040810683 0.14231107006997493
52948000.0 0.8926992667533726 -0.4478276050792212 0.041576057888577406 -0.1106577313657101 0.0007397121988440713 -0.00021389661015142143 0.3735849791459509 0.14541845672582085
53947000.0 0.8845719736883151 -0.4572868470557168 0.04198968144708776 -0.12562802188071776 0.0015987771602763447 -0.001233370033679555 0.3697642497338452 0.12825326490879904
54946000.0 0.8816926092264439 -0.4639223365925222 0.044074613236430304 -0.13454061440066745 0.00302263666442048 -0.0031478780760221692 0.3785083715725969 0.11719587824813184
55945000.0 0.8776722989752711 -0.4748035395323652 0.04472815241073901 -0.14218992660481158 -0.002943476088829494 0.002409429029664295 0.382454025339906 0.10702685762047075
56944000.0 0.8739661348944372 -0.4818913457437045 0.04509142718908334 -0.15489369926401655 0.002023299688045618 0.0017288406964363445 0.39630625651183554 0.10386109938555058
57943000.0 0.8681543362247502 -0.4919885505092201 0.04703995742050498 -0.16593902114547102 0.003166042286424166 -0.0008583069087302269 0.40407000844163865 0.09413157491370325
58942000.0 0.8625240685721685 -0.49658066436754594 0.049438981638629094 -0.17582477910734112 -0.0004536162644585191 0.0025021696486009293 0.42394947892790363 0.1015098041270842
59941000.0 0.8607116814704928 -0.5048416838556787 0.05199202427926871 -0.18380978772726966 0.00011775951609384048 -0.0030120440902570975 0.4213025476570199 0.08617238109692946
60940000.0 0.8532135654422585 -0.5118786040598969 0.04960855494934939 -0.1873276993237449 -0.00011881722346092649 0.00029921468583041884 0.410758924151523 0.08052431218981865
61939000.0 0.8496117052629757 -0.519773182519201 0.053921163158234475 -0.19598438531901732 0.000415063708183179 -0.0034251209341041125 0.4110936748950042 0.07437729563623947
62938000.0 0.8426121314026491 -0.5303370423429661 0.055115856110115435 -0.21606096919503776 -0.0038628860881617317 -0.001829600372536733 0.44106723313167173 0.05665864399773042
63937000.0 0.8385132829217645 -0.5380566286337942 0.05592284400509875 -0.2334064597293558 0.0008326492811386023 0.001145616003835652 0.4292897139032847 0.041897815333571294
64936000.0 0.8349757963750082 -0.5416658577175794 0.05315840157122416 -0.24593124720415757 -0.003717424653984865 -0.0015728559399212332 0.43252180901550635 0.04724588487597502
65935000.0 0.829374829427621 -0.5549312281327341 0.05531426801076619 -0.2600282417490899 -0.001032357603340284 -0.002503355044600247 0.43299936792481547 0.03413248312915957
66934000.0 0.8252789167317388 -0.5600001591313059 0.05277176044609845 -0.27487695107067384 -0.00018057809229365753 0.0015459330473192665 0.43588632838026714 0.008585465535422466
67933000.0 0.821887607514894 -0.5688502503378579 0.05709004905758514 -0.28895208258630445 -0.002072857086277167 -0.00036399018405244577 0.4377589572161958 0.019165093178718146
68932000.0 0.8158725681231118 -0.5626671888507435 0.050774078456195804 -0.30023283352827035 0.0005408004812541818 0.0005062074731967569 0.4526970722269729 -0.0025756659501780096
69931000.0 0.8074590383103395 -0.5843802164481113 0.05078704848447975 -0.31925609874526295 0.00261509198036372 1.2918271802215984e-05 0.4490316353907354 -0.006971832494525581
70930000.0 0.8018898709008715 -0.5901556034636829 0.04553582376106386 -0.3322102075918369 -0.0014416769788647677 -0.005791081259178752 0.4448927081989857 -0.0264497561684814
71929000.0 0.7976982636831067 -0.599002516376982 0.04131241601140135 -0.3491310324665238 0.005743239830690126 0.0028108821334546317 0.45161514142800285 -0.04360918283349224
72928000.0 0.7902546657071398 -0.6087237179255436 0.03900899349267283 -0.36633902454788 0.0024779350374939243 -0.00023822402920147358 0.45898371681878614 -0.04726942701686137
73927000.0 0.7841005229346176 -0.6132950544547537 0.029866538078586902 -0.38824693347982847 -0.0009291100794026071 -0.002322275881899582 0.46269659538465313 -0.05206264619610283
74926000.0 0.7776185005733743 -0.625268127873968 0.02377139126057665 -0.4084480966612852 0.0007091897233153691 0.0032514164013309446 0.45824007674042117 -0.05836316536671839
75925000.0 0.7711107023073347 -0.6278257492522021 0.015191321075050628 -0.42628341785601365 0.000760989413041518 0.005849759675895987 0.466923480762665 -0.07088083688471268
76924000.0 0.7671502517676522 -0.6355407879647285 0.000866136236792114 -0.4507312633346608 0.00040963935953462175 0.00042549139050404404 0.4585250039184549 -0.07187584221823673
77923000.0 0.7604496638903847 -0.6442898666306968 -0.012583529856864584 -0.47507885810420086 -5.1094268583295316e-05 0.0016295873826605396 0.4533843192834691 -0.08601174694694534
78922000.0 0.7535283581226359 -0.6525127616146711 -0.025967428958758816 -0.5017622638388441 -0.0017156403478642596 0.0012933844785214495 0.45356218852946484 -0.10529894651591817
79921000.0 0.7438077484635459 -0.6579770151689118 -0.0484731880540799 -0.5275138078684896 -0.00030452563581589683 0.0003128764454539903 0.46326690768975454 -0.10744071617674761
80920000.0 0.7388124081426007 -0.6682432778678221 -0.059166657442093734 -0.5533142376924074 0.0014513882418990727 -0.0016840455782956467 0.47000755899961005 -0.12564665538018938
81919000.0 0.735412162813462 -0.6748496632154647 -0.0803893802050836 -0.5818150111506599 -0.004120777346973266 -0.0018057414316208103 0.4553029707270849 -0.12350256468629014
82918000.0 0.7241791978237293 -0.6828934891118674 -0.0897020762979245 -0.6161423846984083 0.0017980922619800527 0.0015886810801439843 0.4781842251058816 -0.1428750481675773
83917000.0 0.7182358705796038 -0.6896762241528692 -0.11514793913114726 -0.6435185804962041 -0.004153786777401233 0.0012347769425635857 0.4783644999075166 -0.14570882364919263
84916000.0 0.7129796456024771 -0.6986703274803977 -0.12707133345275584 -0.6776138392237414 -0.0038735192407295237 -0.005888100389030249 0.46088536241434025 -0.16634634889050687
85915000.0 0.7060967398830138 -0.703775540680109 -0.14683811896384708 -0.7117681246586974 -0.004876407418280224 -0.006340468860884154 0.4699633989767967 -0.16711647873916033
86914000.0 0.6982492637563872 -0.7155120972287354 -0.1630145474068021 -0.7459886752805001 0.002995754805251031 0.0005077055732325147 0.46607593357225735 -0.16698527289778814
87913000.0 0.6898110549324462 -0.7194545530149807 -0.18168903904196004 -0.7708996387066277 0.0006120970023644483 -0.003519792794716396 0.45811356054407026 -0.18449168423165976
88912000.0 0.6837452800818616 -0.7259909871518906 -0.1997524390931481 -0.8084561561527862 -0.004734635903496725 -0.001248812467954956 0.4550594436897609 -0.20377629300967603
89911000.0 0.6761900757942519 -0.7366011762374288 -0.21455267814246365 -0.8477062200278446 -0.0028915135288203604 -0.002228439102858507 0.4623377392012126 -0.2001888416878211
90910000.0 0.6694135229985599 -0.7404754279114577 -0.22904753327822452 -0.880326661508761 0.0026740264922675114 0.001015010520054107 0.4632217631795361 -0.20758103572542885
91909000.0 0.6593487649491004 -0.7456478820060417 -0.24663735491195304 -0.912250116748162 -0.00014962676384698163 -0.0027612426808711833 0.4682516024974928 -0.21576071662962637
92908000.0 0.6531239715104616 -0.7547369565937538 -0.2672452372992231 -0.9455022953313661 -0.0017514348951028422 -0.002255279007754051 0.458309623285517 -0.2247244644734691
93907000.0 0.646117105773188 -0.75903033634057 -0.2836468265619982 -0.9770756103978381 0.0030920173677189853 -0.0009483218937281575 0.4562436050151469 -0.24775582832858378
94906000.0 0.6328623329346563 -0.7675811051931283 -0.30108969313416006 -1.0100654592418143 0.0034825755491580336 -0.0018730271773005915 0.4556073253578763 -0.2563513528465225
95905000.0 0.6271046762215224 -0.7749053250966208 -0.33126960006768913 -1.0424483241369777 0.0015152858912572428 0.005358707692546472 0.451993918950287 -0.2629912781861052
96904000.0 0.6179780258242057 -0.7814289698772483 -0.3448147956815312 -1.0810368458008746 0.002890134710233653 -0.0050280267306471865 0.4433438745409787 -0.27892236470385967
97903000.0 0.6093566543615689 -0.7873150617454714 -0.3690006298452031 -1.1177515775425428 0.003823723113363021 0.0010475323926535179 0.4466113688211735 -0.2856752487172763
98902000.0 0.6046331068057271 -0.7959455034733559 -0.39127520492408724 -1.1567004472254747 0.002957283037513523 -0.0012931861732305959 0.44457808056031256 -0.29565726521482305
99901000.0 0.5931693823934445 -0.7999147169742407 -0.4188425721214376 -1.1879350303799017 0.0024137552762295727 0.0011892795354814187 0.4499874258993461 -0.30966457340399867
100900000.0 0.5864595349486439 -0.8043182937847555 -0.4503993593473153 -1.2167757112958528 -0.0045386278190280875 -0.0007269024763256395 0.45503232012255884 -0.3101610093320583
101899000.0 0.5768639820715313 -0.810932385184225 -0.47792184384445674 -1.255011520034902 0.001298677579008949 -0.0025408006541921893 0.45064589303365704 -0.30735065237103004
102898000.0 0.5655450210613158 -0.8162644029735439 -0.5136243253748641 -1.2917324048281889 0.0025596403281069836 0.0002972826818177029 0.4432484070961673 -0.33312617830442315
103897000.0 0.5586365814281211 -0.8251370222425499 -0.557214736126084 -1.3239600589972262 0.0014978614304590305 0.0018652272133826556 0.4481263704244172 -0.33571239571281547
104896000.0 0.5478721091825246 -0.8348632235719164 -0.6049718141181052 -1.353265174401399 -0.0019943437430906263 0.002836953425577387 0.43078363442755147 -0.3364155032684874
105895000.0 0.5365939294992013 -0.8364313889917129 -0.6515883238310408 -1.397792207166736 -0.002245810986206546 0.003979021784287438 0.4332968096837934 -0.3543290729362276
106894000.0 0.5288518178958468 -0.8428655585330664 -0.7017174075618878 -1.4354666171390482 0.002624556288374154 -0.0025806688061345033 0.42947214220378727 -0.36472168236600616
107893000.0 0.5218737582694665 -0.84959908769119 -0.752472192851321 -1.4748673298322545 -0.002219560025921352 0.0010930639706037367 0.4252899131001839 -0.3670542799099855
108892000.0 0.5110818340394269 -0.853637167590479 -0.8154081674077175 -1.5104107172401116 -0.00044500508795878555 -0.00036664712109983025 0.42922574376305683 -0.3584167638030491
109891000.0 0.49774693112351215 -0.8611207204736893 -0.8718685969390818 -1.5455230015019115 0.0017949314374217464 -0.004534347578092696 0.4415632026509698 -0.36663910753030504
110890000.0 0.4828387707752555 -0.8745507044730112 -0.9548314602907543 -1.5541877655351126 -0.0016235087489738286 -0.0002903174041311224 0.4214904585251554 -0.37585148179334654
111889000.0 0.47636735294933297 -0.8678953600227655 -1.0004911562935552 -1.6157233007784426 0.00013085320212063214 0.0003073290847735974 0.41625329491893037 -0.3959540085908135
