! Created with skrf 1.9.0 (http://scikit-rf.org).
# Hz S RI R 50.0 
!freq ReS11 ImS11 ReS21 ImS21 ReS12 ImS12 ReS22 ImS22
1000000.0 0.9870776937014463 0.005472395412929476 0.0037948415634268713 -0.035644826115673336 0.003867098155581642 0.0056964691307771565 0.33087299431618394 0.24442668566718023
1999000.0 0.9956496972185673 -0.015405490481817207 0.006601545049843616 -0.02245775082105252 -0.002309053919335595 -0.0035563107995366387 0.23907039750835762 -0.06779881117251148
2998000.0 0.995523501360548 -0.022010272469806576 0.016336679104385035 -0.009187153865743699 0.003020073159860449 0.002652151004051338 0.19027087742113008 -0.12072767556527084
3997000.0 0.9979502628166802 -0.028606817382030553 0.009114087423273996 -0.008436968884582825 -0.0057637602432112165 0.0026034803734573796 0.10455239563057891 -0.22868068744191516
4996000.0 0.9982146852764876 -0.03818722664678421 0.009307479222170855 -0.006433171485554992 0.0028175294676365866 -0.006055903676405322 -0.02886416521651617 -0.21901011343552987
5995000.0 0.9975830830053266 -0.04971349028581341 0.00924322236799109 0.0002889917233247515 -0.0037866814707080794 0.00041985570561812855 -0.13214044116069093 -0.13317369672671092
6994000.0 0.9934936518430992 -0.05836883425649883 0.008307671218770702 0.0021220349254922493 0.0049590327803921246 -0.0001851393574509518 -0.14752554922124006 -0.03387606212742963
7993000.0 0.9978272652652302 -0.06605976429197825 0.002846547529578454 0.004466445220872053 0.003691517358810819 0.0033905620109059204 -0.16313721841699738 0.03807508565210179
8992000.0 0.9952998791244753 -0.07392415127693432 0.0016704431795833067 0.003973925664098866 0.0015107318346901579 -0.0021017333899554696 -0.16431358822197933 0.05958519270513284
9991000.0 0.9947007539134257 -0.08191868684465457 0.0034522663797228676 0.0061573782183194795 -0.002273384862737777 0.0011401483788852842 -0.15625034505383853 0.08109999579017492
10990000.0 0.9918066138973718 -0.09191551252334672 0.008316474775733457 -0.0002471485385615765 -0.004215817159230459 0.0016230757726113784 -0.14138869598132553 0.12697035712992347
11989000.0 0.9929842790907719 -0.10053211491150542 0.0007815217649920839 -0.0025565521609111864 -0.0025486027593087115 0.0015669032566320179 -0.13551824470457302 0.13966438158024208
12988000.0 0.9891128946171129 -0.11030891293162201 0.00010469936865678244 -0.0029553639439077145 -0.004063505847173254 -0.0055646756449400335 -0.11885515431115835 0.15878468895542397
13987000.0 0.9877116695818485 -0.11477574759868593 0.0024376858740076525 -0.004077522234576232 -0.0012197617091525765 0.0029339770672732234 -0.10156897307969363 0.1888579125055301
14986000.0 0.9881657546784541 -0.12306776267878246 0.006110477728712675 -0.007095542976256744 -0.0026531458957143035 -0.0004851072185716747 -0.08596445892250892 0.19795894904297776
15985000.0 0.9910502368025075 -0.13226425067150172 -0.0021093856286538955 -0.007599116415750479 -0.0024172311634215304 -0.003105123472373328 -0.08372812465072917 0.2190014326544052
16984000.0 0.9848158755170252 -0.14406243606032476 -0.0027257453935179967 -0.0030750235475058433 -0.0015402166965006216 -0.0038813091474940143 -0.07083891877007722 0.21938778990476296
17983000.0 0.9883743223516543 -0.14685847278556277 -0.002993334774261093 -0.004265503782860742 -0.001796706508969765 -0.000376063030497123 -0.06721678408036173 0.23010794278595437
18982000.0 0.9829862171685823 -0.16115290480038164 -0.0024513818159538248 -0.011221495773684136 -0.0013589119804589538 0.0003525742802717241 -0.03368578593105124 0.23725750286239083
19981000.0 0.9848220163529638 -0.16440639611487862 -0.002836060983384284 -0.0031917893821844455 -0.0029622468780161073 0.0035006555190826515 -0.015403469851379394 0.23534863145244259
20980000.0 0.9830403318075932 -0.17463779585077507 -0.0036418966427004596 -0.008459476688689859 -0.00483136769160977 -0.0013636788653012446 0.0020949709188887106 0.25540877750875574
21979000.0 0.9826536550317279 -0.18154296156498587 -0.0032274832137658255 -0.005772453856425343 0.0016508139835583982 0.001160552198863994 0.012274190368736003 0.23778033732216386
22978000.0 0.9778149094964096 -0.19336629418678003 -0.007372647821443364 -0.004625751159959474 0.00041202455439846907 0.0031602273743192503 0.02366034417586985 0.2577490627581784
23977000.0 0.9786652703244972 -0.20050416386119913 -0.007046019839452979 -0.003367740411349279 -0.003907722972907376 0.000990531891012065 0.04070573540638693 0.2588968971545917
24976000.0 0.9762487104303201 -0.21149041605741106 -0.0027914437378480355 -0.0019012654955394806 -0.00019351381953461425 0.0026488544430234603 0.0609542908289054 0.26111547979052335
25975000.0 0.9687328482365298 -0.21825921752022456 -0.004462811075947607 -0.005078667130005605 -0.022363053812774775 -0.01463459535952189 0.07109490787165842 0.26614531916394923
26974000.0 0.9703820791820204 -0.22675597940380543 -0.006135555485555619 -2.6414245632744008e-05 -0.0026672742587986356 -0.004385452122968645 0.08878217719226898 0.2649800412653764
27973000.0 0.9708338621465955 -0.23435774305647572 -0.005081981714387782 -0.001692913381814977 0.00038909005686810216 0.0031788150849848713 0.10331063272039807 0.2584626226437994
28972000.0 0.9683152750626743 -0.24154946004762104 -0.0004627345951203393 -0.0013171056444244765 -0.004314754842415255 0.00027125173618450195 0.12095885765957451 0.25213391470742447
29971000.0 0.9643394370659174 -0.2525534313455068 4.8035611780286895e-05 0.0005915580538551509 -0.0010610883239174202 0.0008473557474226042 0.14834473294139391 0.2692337769941701
30970000.0 0.9636114152934573 -0.25645164213383403 0.0024330164006321937 -0.0032087517505651267 -0.00038545677562287463 0.0022283507975072994 0.1652931608592748 0.25431098481809605
31969000.0 0.9621385979476644 -0.26593484046529636 0.005384612979766503 -0.00762367093749003 0.0013207954463865033 -0.0006408080679803255 0.15157538709129964 0.24562932362021164
32968000.0 0.9579127355738751 -0.2775273913443054 0.006538196587098193 -0.00900724015170338 0.0017339795458405042 0.0011038977950457 0.1645004364997536 0.24409868417586877
33967000.0 0.9576880889869829 -0.28488229649183294 0.00969366657948536 -0.01203975726666317 -0.0015924657930112879 -0.0016201221006420874 0.18600701893799126 0.24776954064977752
34966000.0 0.9532037740080459 -0.2948552843172697 0.012929504742199716 -0.012523238541664655 0.00030104363558906323 -0.0006092411297411882 0.19323632750488595 0.24858230500263778
35965000.0 0.9514704129808664 -0.2998769937608077 0.016016499506462133 -0.01641017242260112 0.0006484950819721773 0.0011941454528632176 0.2089208393875877 0.24776991340674473
36964000.0 0.9497481611875858 -0.30937302581479126 0.01733868524695238 -0.013973359899720462 0.0018673981663783071 -0.00012853307119545736 0.2126060101739894 0.24123116034189593
37963000.0 0.9439494218097809 -0.3194529492898452 0.023562958484115302 -0.019066902989365073 -0.001138523741767904 0.0005677621416850642 0.23171947882149702 0.23486565349725744
38962000.0 0.9427223872496889 -0.327324522558649 0.02420026795975068 -0.02440917665912279 0.00025590656340347706 -0.0020085941719690473 0.23930961006933968 0.22791103376857516
39961000.0 0.9412760099023108 -0.33278195955818407 0.025695325448410276 -0.02786925726082917 0.00020260787710225765 -0.0023422413243711923 0.2488983260041988 0.22726920345112223
40960000.0 0.9377304042594404 -0.3419109599010046 0.023509193444052334 -0.023942260541981553 0.0022725863825076697 0.0022886197395025464 0.2650862140033736 0.2232128353351518
41959000.0 0.9340447404206363 -0.35313816028510164 0.028267572025172837 -0.03138495686617501 -0.00046278577125419994 0.0009328243514904912 0.2703670582204456 0.21726161744362993
42958000.0 0.9289587858468529 -0.36177312664146416 0.03241741160841716 -0.03918751762271324 -0.0009937350606727964 -0.005510651799423515 0.27799492601858156 0.2004354136571763
43957000.0 0.9295073458106247 -0.36593735448036424 0.03225632107280386 -0.04730311386926013 -0.001091653318398055 0.0005896740727440158 0.2818708557759691 0.20138233961577373
44956000.0 0.9243310704996494 -0.37645921021934386 0.03488339882218303 -0.05256135661094107 0.0006021550383698567 0.00037504130781394794 0.2991162862349045 0.19604940431952017
45955000.0 0.9214847766365847 -0.38595882445543794 0.031030578296477932 -0.05900993283504187 -0.0007447156808210579 0.0006556685187869159 0.2996887223536147 0.19411276019895754
46954000.0 0.9169708016672763 -0.39375959424333073 0.035319131826129 -0.0658255117542471 0.0017309183614802365 -0.0030978013059572707 0.3248992371905606 0.18166351679407694
47953000.0 0.9146368466814102 -0.4009382810329869 0.03649975150811678 -0.07334047388956338 -0.0013607497806486116 -0.00038239793593683994 0.3281495488870718 0.16786059120952507
48952000.0 0.9103614289650589 -0.41040674225175217 0.03870784746514627 -0.07882848349216778 0.001692611929990475 -4.337211978816704e-05 0.3380961477903416 0.1681287437035425
49951000.0 0.9055756362814955 -0.41855100193090516 0.0359475153736148 -0.08686749900436715 -0.001970006316960572 0.0021495970940702915 0.3506935922311945 0.16384101552413755
50950000.0 0.9022888360348641 -0.4272347516001595 0.036105013338659855 -0.09476755032195987 -0.0026445406176936912 -0.000613981144355649 0.3615733205693581 0.14427198383070855
51949000.0 0.8985686384069443 -0.4335659540456214 0.03928474154994437 -0.10150447639175367 -0.0028547041105140163 -0.00025274457840749156 0.36035711546499366 0.14056282160923367
52948000.0 0.8967564104275892 -0.44073707434935083 0.03838339057053975 -0.11175148925629315 0.0014050120188832422 0.0012349356500618307 0.3661971173850841 0.14073403744601012
53947000.0 0.8896972090931937 -0.44912367075537446 0.041220249054764284 -0.12051105459945659 0.0010440972025919525 0.0009370867915276895 0.37675350483929376 0.12253303775026664
54946000.0 0.8844749282594085 -0.45899591120348116 0.04365892935924312 -0.13312408177521684 0.0006733830832116925 -0.0015591822892722694 0.38526670760641313 0.13084375206372886
55945000.0 0.8825150772044614 -0.4651073832222012 0.04383535004100535 -0.14216338303945406 -0.0008527633719405813 -0.0015735003961933184 0.4005551101170538 0.10644253935863648
56944000.0 0.878303845673439 -0.4739064621919054 0.048836206123115504 -0.1497179141180526 -0.0003353717575779328 0.0018007484919277561 0.3874027212945806 0.0977409433953012
57943000.0 0.8722763184739993 -0.48494721725095624 0.04401136496414202 -0.16153568896254192 0.0010913448128434921 0.0019979010684915313 0.39934790485763455 0.08822163653587299
58942000.0 0.8669372999327443 -0.49146324688762105 0.04878771410198686 -0.1714452996385226 0.0009769523355443628 -0.0012255787520801815 0.4085849878553059 0.08951533738438079
59941000.0 0.8670533058247508 -0.4964847405463444 0.05175705013810008 -0.18390799550539447 3.051806124552131e-05 -0.001810036774988305 0.42209564447386483 0.08684430002183634
60940000.0 0.856932886601116 -0.5058051899609954 0.0474887369087982 -0.18453559748679102 0.0002367433519776672 -0.0004219243703134229 0.4168012664075376 0.07200281402613984
61939000.0 0.8553792805094809 -0.5131041426095516 0.048771804777152115 -0.19226254451603247 0.00014230210223014126 -0.00045160099527556674 0.4120007560594474 0.06622686353892752
62938000.0 0.84732419864154 -0.5243751596924402 0.05144722371136831 -0.21055535548551696 0.0002446921782332388 0.00221405649429446 0.45125551745018727 0.05162336192048858
63937000.0 0.8446095816119745 -0.5314151082291934 0.05229336586457586 -0.23192204443942713 0.000521175914368373 -0.0014532771336752293 0.4369315149245222 0.03445911686291437
64936000.0 0.8385330911861384 -0.5362673942613139 0.05346083523970968 -0.2422324613413376 -0.0013652347206994616 0.0033816725222878493 0.44190667294457414 0.024580490091802482
65935000.0 0.8337336235013574 -0.5493391340113106 0.051725220459317905 -0.2596405576093322 0.0009803386717691775 -0.0008968591679783649 0.43864522865255984 0.01885641937997503
66934000.0 0.8302064916197729 -0.5519230930069768 0.05635309651625826 -0.27226735248288453 -0.0015001260553887885 0.002359428122923789 0.441727277720684 0.00585958224737368
67933000.0 0.8276033805322396 -0.5603961266743454 0.05610734915969269 -0.28333809838700186 0.001521609806806633 -0.0010712838669231799 0.45318936137107785 0.0013266759832705878
68932000.0 0.8171446112283964 -0.5679185624659516 0.049094312929019515 -0.29842271513486957 0.0008615274293848941 0.0007872343686136017 0.4474822829518899 -0.015561447618224988
69931000.0 0.8140252806359679 -0.576113910407945 0.05404114129040261 -0.31379437286592754 -0.0012347337247535892 -0.0009306213722519636 0.45526374892209637 -0.019254083887799485
70930000.0 0.807840019987319 -0.5827452536253624 0.049917204024931154 -0.32835897236412376 0.0032438984667633786 0.0024031483918872344 0.4485161583963586 -0.0367269452926935
71929000.0 0.8043873322854308 -0.5909798198777415 0.04831455801026962 -0.3475804699878321 -0.0016208604373163073 -0.0007979540558276449 0.45017910225922586 -0.04717118827936695
72928000.0 0.7976784248372193 -0.6020613787432414 0.040980583210209226 -0.36123916264801786 -0.004672096598431043 -0.003838376862702395 0.4690085412241453 -0.055401945070179336
73927000.0 0.7930825371259517 -0.6077782650390384 0.03476337592661965 -0.38449700358779715 -0.0013091700022180984 -0.0022624520856124805 0.46097243414052924 -0.05415321276891553
74926000.0 0.7866600683722513 -0.6173394770453003 0.03020865600285555 -0.39679173291449765 0.004585600653443026 -0.0010045500290890924 0.46380242517807296 -0.05651909745871799
75925000.0 0.780712469201865 -0.6210992681775812 0.0193840125072723 -0.41695710824973115 0.00034770330560108414 0.0010982831758240125 0.475730643945288 -0.08011159656629971
76924000.0 0.7744887560953843 -0.6284027772812788 0.00750805462569068 -0.4388224597375887 0.0028166055903506766 0.0013802104773205125 0.46939004720555233 -0.09042146652963212
77923000.0 0.7696549863587092 -0.6357910978341668 -0.008062039638887165 -0.4629858234472315 0.001706039654529245 0.0015909314082240423 0.46113160335574777 -0.09607979423144763
78922000.0 0.7619441694435862 -0.6454244573774097 -0.023476579465118823 -0.49210981580133917 8.655926978044494e-05 0.0004009430842103105 0.458823124914839 -0.10953599808913073
79921000.0 0.7545993692383935 -0.6505651882340605 -0.0404328146603323 -0.5136354714655553 0.00403022473384484 -0.0011266886006369673 0.4606360843403118 -0.11928528340757363
80920000.0 0.7490912377835974 -0.6604922933008665 -0.056078806995624834 -0.5428089796025739 0.00355286586178019 -0.0022944039551040067 0.4716428195646402 -0.13537019486621193
81919000.0 0.7439471073991333 -0.665652421656725 -0.07195438715544462 -0.5713797320469851 -0.0012673214442971783 0.001968450128330539 0.47115143591277536 -0.1394766634291554
82918000.0 0.7352817531903801 -0.6729634782759617 -0.08530113601436655 -0.601704069833883 -0.00015955107548115837 -9.338284677292562e-05 0.4674518133822723 -0.14151446001601842
83917000.0 0.7295818417804678 -0.680456173275855 -0.1046849105796472 -0.6300377999786452 0.004862506194182479 -0.0031777504653035644 0.4786049717013585 -0.15663034366220938
84916000.0 0.7211288746524614 -0.6888424439830015 -0.12137404989123955 -0.6656111776157301 0.00156686767845081 0.0025262354866334553 0.47490782968081235 -0.17288340782406084
85915000.0 0.7152305711099204 -0.6958911257659327 -0.14460687476104958 -0.6929424169365317 0.005796594303964536 0.0013961563053508364 0.4713113188679947 -0.17727051381691025
86914000.0 0.7102521706515051 -0.7061639984520771 -0.159597812415606 -0.7309046559197396 0.000305112254754836 -0.005227978800469653 0.459633821483157 -0.17693328979247916
87913000.0 0.7022000155819218 -0.7111554830898437 -0.17607691262387945 -0.7591634550673807 0.001863474764461283 -0.0017763632218428657 0.451824020012941 -0.18630413409622856
88912000.0 0.6933898604589646 -0.7165333378578401 -0.19871974850267418 -0.7934333322750148 0.004046091830964582 -0.002183200587188835 0.4628024320306835 -0.20510448853812194
89911000.0 0.689152156223553 -0.7253533997696762 -0.20991274686137681 -0.8340393735011025 0.005227857005583425 0.005111249074734307 0.47119966750504205 -0.2198437084297338
90910000.0 0.679110528940898 -0.7303321738076544 -0.22827233775104058 -0.8661345998363503 -0.0013398620819731837 0.0035881998534906725 0.4588551969496648 -0.2245334695970387
91909000.0 0.6704977114456179 -0.7349001322670917 -0.24282030297977242 -0.8984911506730668 0.0005335760675503018 -0.0007961593324847456 0.46609073902620934 -0.22390230915290266
92908000.0 0.6647450009465506 -0.7449548103003096 -0.2640688914821438 -0.9312933988477486 -0.0006279706323337862 -0.002746192611899301 0.4492832392528179 -0.24384032642591177
93907000.0 0.6576027022076149 -0.7496962914535746 -0.28048857985409514 -0.9600210812015708 -0.005464939417107455 0.003827960407821015 0.4641739616544082 -0.2561688403300681
94906000.0 0.6437121354887907 -0.7577452992057824 -0.30297142485142187 -0.9940933062039494 -0.00048284983518916526 0.0014370527666438683 0.45849149476269524 -0.25905343864204816
95905000.0 0.6398568120444595 -0.7642459005302554 -0.31818349824285946 -1.03178922607766 0.0018290305896982424 -0.00018563790311275282 0.4618522703897189 -0.2742642910512813
96904000.0 0.6291997883307135 -0.774365100482702 -0.34044305568748706 -1.0665093407632051 -0.002092400912257993 -0.0019464171631184096 0.4504274247420656 -0.27680768114564813
97903000.0 0.6209138389797249 -0.7772234834437649 -0.35934665633860147 -1.101788454021128 0.0014406688703771787 -0.0007448565408232277 0.44842674745489847 -0.29392204003276223
98902000.0 0.6158714643569867 -0.7851879326682122 -0.37841113601404164 -1.1381719374073334 0.002080573744372991 -0.0031339559147227575 0.4477450996492799 -0.29734368470350336
99901000.0 0.6065641215659916 -0.7916510139915675 -0.4060844238781161 -1.172366739680284 -0.001042607534288576 -0.00017256429400633804 0.46304304302208155 -0.31263305299160354
100900000.0 0.5990210683778137 -0.7953175343625354 -0.43468338674957147 -1.1989243492747665 -0.00036333529653467925 -0.0020491865149646717 0.4587444027425092 -0.3234230523917838
101899000.0 0.5873967029733964 -0.8035322231024612 -0.46193525282964115 -1.2332074931990218 -0.0002565871148845602 0.004122272798050137 0.4457474654597627 -0.33030505843719316
102898000.0 0.5784515641430338 -0.8103694634507631 -0.4982158357226225 -1.2716967547509936 -4.5674844291056335e-06 0.0015191627477403433 0.44623450138515225 -0.346828617342261
103897000.0 0.571590068465136 -0.8174762787879666 -0.535417664845269 -1.30787456721493 -0.0022314146696701437 -0.0005229158317606039 0.4597168750582499 -0.328679973736882
104896000.0 0.5617134540868106 -0.8251378974007101 -0.5796529768407152 -1.3367109703072304 -0.0003422229897173923 0.0018311948283931696 0.430893176333264 -0.34310227479635086
105895000.0 0.5518604869149744 -0.8273828822739611 -0.6211327742385011 -1.381002821443817 0.0006176198523270103 -0.002135150002819606 0.44780716501671053 -0.3584800697412572
106894000.0 0.5426670939585939 -0.835608351597526 -0.6756930579147059 -1.4144603879521949 0.0009300922055025851 -0.0019697190050774593 0.4292366685044294 -0.3679900626541682
107893000.0 0.5361970992080791 -0.8414822622615651 -0.7236594189237402 -1.4555197121399475 0.0002866381137195495 -0.0006592409006298825 0.42381667106883203 -0.3846379672160997
108892000.0 0.5270618318090842 -0.8454133928049948 -0.7809700422944327 -1.4929544406188797 0.003338276554257428 0.0008148127597160916 0.41144071903916857 -0.3830852893984993
109891000.0 0.5150239679907493 -0.8510291757895634 -0.8371596375880856 -1.5252464747172456 -0.002768321234516493 0.001043650272373405 0.43800295730961714 -0.389485398849597
110890000.0 0.4987728136557425 -0.8675743911405719 -0.9169856979055627 -1.533773096366163 -0.0006678207646322219 0.0017165634509105786 0.415185771660826 -0.39435919790389634
111889000.0 0.4941488838693053 -0.8599965177113915 -0.9647315851452615 -1.5936322596581405 0.0015584383754264726 0.00137821952286205 0.4171719632515046 -0.40327526872706354
