! Created with skrf 1.9.0 (http://scikit-rf.org).
# Hz S RI R 50.0 
!freq ReS11 ImS11 ReS21 ImS21 ReS12 ImS12 ReS22 ImS22
1000000.0 0.9855937616044679 0.0072918901996482785 0.014482981489044318 -0.04312904885930131 -0.009992678869076071 0.0030594628807064437 0.31794504380134886 0.310121170201517
1999000.0 0.9990806745496016 -0.00921168719362286 0.0043236750795673275 -0.019574657149825855 -0.00037808252406567455 -0.004358356598354605 0.2617179389789023 -0.04412511962902289
2998000.0 0.9965273692924594 -0.019452064757762004 0.014025785249773793 -0.01474455095610673 -0.009276696199912306 -0.0005385943846240739 0.20844994603828185 -0.152946205188744
3997000.0 1.0012130874729122 -0.028148336171232247 0.014795313361900557 -0.004471260068623479 0.0018199704589658854 -0.0009947230419023703 0.08881884334684667 -0.22184336200512808
4996000.0 0.9970829668786791 -0.036134420859491034 0.011646052003882827 0.0005137938450943188 0.0054108848297293325 -0.0021867501364136173 -0.039160256712640534 -0.20575720517201845
5995000.0 0.9988288257416758 -0.04824274677705416 0.0051564026091308795 0.005990158043119418 -0.0012648748007813848 -0.004938996797523587 -0.1270623676359757 -0.11981383345315415
6994000.0 0.9931438339771047 -0.060010090578310506 0.005511456979274669 0.006358700186249116 -0.0031831795030499415 -0.00028134351079015364 -0.14799548662858228 -0.024313335179056036
7993000.0 0.9970442356199887 -0.06946283705840436 0.00205221870037032 0.00827413388648929 -0.004077450388568357 0.00116829078544845 -0.1612395333054443 0.029997539036603012
8992000.0 0.9952006653523927 -0.07255629915558647 0.005144270806017909 0.0035772116392033403 0.0018785640870993725 0.0010497424570152915 -0.14255633313351498 0.060308375788826404
9991000.0 0.9941746440712563 -0.08430120643265314 0.000730395377196123 -3.048069435516696e-05 -0.0024399638537127787 -0.001302420940969196 -0.14921362814586037 0.07664778562462782
10990000.0 0.9934470504898728 -0.09277245672058038 -0.0021486687195693957 0.0039011774478923686 0.0014240037164438828 -0.00029975207322554084 -0.1419989534061811 0.11480023627392588
11989000.0 0.9911885606298346 -0.10373144698478239 -0.0005499153549321479 -0.002935913529865253 0.0004391306453640251 0.0017918053719090628 -0.12021934446174562 0.13356252030486754
12988000.0 0.9882220162173596 -0.11136681793647762 -0.0012211317059891529 -0.0033451048691973805 0.003299014557489526 -0.003366404063072671 -0.1322871888823673 0.1689427648749744
13987000.0 0.988063806757124 -0.11806598270721602 0.0009590834727191582 -0.004314457209647693 0.0007680488801298615 -0.001242302054627322 -0.10079624570538458 0.1858923501038699
14986000.0 0.988566842588534 -0.12607464771133267 0.0005911432124934028 -0.0003869112300114583 -0.00023429281345711524 -0.0024178449306536077 -0.08481588303592102 0.19808012093715252
15985000.0 0.9875335390224291 -0.13572443418867666 0.003128178061100798 -0.006134848254166328 -0.0016260604790075395 -0.0015674957894392478 -0.0747638512327313 0.21993537893074416
16984000.0 0.98687051316724 -0.14572532074772954 -0.005054009699103652 -0.005391405089136432 -0.0019271833398259433 -0.0007098779640377094 -0.06549263329350186 0.21823474478561586
17983000.0 0.9848588472016524 -0.15298211876435858 -0.004071068767395085 -0.005731655769220642 0.0013459270289250405 -0.0014006514100621229 -0.05989693003864486 0.22259766463641456
18982000.0 0.9810122663954378 -0.16301310631874502 -0.001475096474145857 -0.0064664074077777104 0.0023629410386508025 -0.0031661155948669757 -0.028743527753111127 0.23647106225131678
19981000.0 0.9828890519231201 -0.16819606674256657 -0.0013662661314365258 -0.005794223904423221 -0.002506077415973574 0.0015990311043088605 -0.016544172112765012 0.232780555662008
20980000.0 0.9794449873816956 -0.17783867021227423 -0.004299693012400871 -0.004002029392334734 -0.00106519254539764 -0.0007959606799524058 -0.001014725662671617 0.25549161025859934
21979000.0 0.9790650887495626 -0.18875447342198665 -0.006119784859416916 -0.0022375586620581563 -0.0013873712159970198 0.00030972879391324054 0.017735406037557317 0.2397908997723704
22978000.0 0.9753939535786683 -0.19740233431794724 -0.004648097975147738 -0.0015949916122436208 0.0006025431300002864 0.0034629154511709435 0.018884193664385623 0.2588504222898931
23977000.0 0.9770902496812786 -0.20446073887858499 -0.009274791104547158 0.004966711170534573 -0.0019410457286827935 0.0026768677514143807 0.041672947536242635 0.2584723337064947
24976000.0 0.9719454907140227 -0.21544996147058765 -0.0066339302471633685 -0.001240443784405795 -0.001985235802445128 0.0023022181959340975 0.05870705196615962 0.25160841443141885
25975000.0 0.9698697790478302 -0.2200803971227626 -0.007970435618185813 0.00016791804321138144 -0.023925494636103554 0.008856837796605512 0.07171117091310338 0.25885830499051343
26974000.0 0.9709134111059274 -0.23007771586064593 -0.0039672769618850886 -0.00017180541990340054 0.003080248167111895 -0.0005503019826856991 0.08741005369887145 0.26039487817006
27973000.0 0.9695622958562669 -0.23578611964855994 -0.0025960883114680075 -0.001954690123666457 0.00032218134924774926 0.00324818038943974 0.10024095146897298 0.2598835886673012
28972000.0 0.9659140841662095 -0.245692003018724 0.0006173668451102836 -0.0002257664949357526 -0.0009074581405133095 -0.0014984150101130618 0.10625743986683911 0.2577400144136433
29971000.0 0.963710376385953 -0.25705547675753704 -0.00013422730549535406 -0.002605187516116346 0.0009787281905729538 -0.0006889625441479325 0.1430124650459052 0.2751472493075185
30970000.0 0.9617416323108224 -0.26004898186709924 0.0010776068656538028 0.0022019800188684247 0.002260178656968111 0.004146128553854285 0.1604166924326145 0.251322759554283
31969000.0 0.9601576782213088 -0.2688215115084089 0.005520403975543699 -0.006254655412482876 0.0013774310377536617 0.0012725700387534158 0.15238138600418585 0.25447225194398565
32968000.0 0.95836407307345 -0.2788391629722539 0.007491118368140181 -0.00683715980464204 -0.0013031595827424987 0.003149162685239744 0.15871560150331498 0.24398361815794295
33967000.0 0.9571035034919925 -0.28790634736899007 0.011032527160042722 -0.00861985764391267 -0.0015211579047670466 -0.002393682748395185 0.18810083440605121 0.24287610492542758
34966000.0 0.9520336042859312 -0.29924793197671223 0.015206250289357336 -0.010972185140044801 4.340026863762233e-06 -0.002231713901716674 0.18694332616674392 0.24513100734446958
35965000.0 0.9489048701668952 -0.30476287602420976 0.016106406473726773 -0.017705775052030123 -0.0028855343453952236 0.00044896579552183814 0.2074996423767905 0.248428803504151
36964000.0 0.9466351091676208 -0.31540446729430854 0.01901416908204096 -0.014206180112878962 -0.0018316982727429856 0.0009164749724086107 0.20670439056018572 0.24672633075361494
37963000.0 0.9432986987715791 -0.32323331136478733 0.022373788042993906 -0.02317356159737176 -0.0007504763832763096 -0.0023291831830726645 0.2234019866393197 0.23653876781535246
38962000.0 0.941139181092118 -0.3320527022495938 0.02350810315722274 -0.02458619523654228 0.0025771728355958416 -0.000229435789106425 0.23515304098894546 0.23070153428542978
39961000.0 0.9375014355526314 -0.34221392371841824 0.02606155841194449 -0.028836887119639065 0.002867538030770191 0.00017607498071737666 0.24430727446910552 0.23409948681378423
40960000.0 0.9346143842315137 -0.3497543522267428 0.021974005790708507 -0.024689774786941843 -0.0005525921428327329 -0.001244078344795266 0.2555699561118102 0.21911074820968368
41959000.0 0.9304422288760413 -0.3584151710296095 0.03030424729853691 -0.03357128719887158 0.003634518096794433 -0.0036115671582532946 0.2640832964042892 0.2176179635329867
42958000.0 0.9280669650339536 -0.3667994158524062 0.03290903040193076 -0.04048805731626052 0.0002990257246503132 0.0003489428623289995 0.28127000084945986 0.20093988691184445
43957000.0 0.9248340858827537 -0.374959814859421 0.03376212678345356 -0.04756181566664594 0.0012571603070235969 -0.002092485242419725 0.28797809465652197 0.20503332884923678
44956000.0 0.9222878041599155 -0.3792907434394901 0.03379939848533513 -0.051880121924004055 -0.0035097987113945728 0.0026516341257596227 0.30272183905942546 0.1899122590684428
45955000.0 0.9165179283295619 -0.3931562403097375 0.03446825651543714 -0.06012183836706946 -0.001944451882638979 0.0024354346105370456 0.3032177773885065 0.18948702488712538
46954000.0 0.9142759795816349 -0.3994201855390412 0.037442623924923604 -0.06622364580923296 -0.0016446276451834287 -0.00135165929438539 0.32793874146232244 0.18004422321504246
47953000.0 0.9117484025402027 -0.4076710530064509 0.03656195336345472 -0.07412842789496188 0.0014279352344295053 -0.00028495117862320485 0.32703237531202833 0.17326952462499765
48952000.0 0.905137048682072 -0.41912945982847394 0.04206203457061757 -0.08002728749914101 -0.00031963619889364264 0.0010985019798060557 0.331563288523744 0.1654186815850026
49951000.0 0.9022547722254837 -0.42469662336936553 0.039584241899857694 -0.08834854723385978 -0.002185462940737373 -0.0007219387820615781 0.3393933528988541 0.15596347448384798
50950000.0 0.8987996166563743 -0.4355410760494981 0.04284253686855706 -0.09926040814255364 -0.0004027071916471471 3.752520641739326e-05 0.35255454225755833 0.1457154540004714
51949000.0 0.8941289665905547 -0.44213735580892344 0.04240136214090586 -0.10616059826134061 -0.0009465692074017871 0.0012769192355097298 0.36444937210809897 0.13437638412315017
52948000.0 0.8917962780936051 -0.4524140263944005 0.04528441586300933 -0.11527758071644299 -0.0017338518140241372 0.0019169218174994013 0.37242681598601124 0.13807272625874284
53947000.0 0.8854769768078921 -0.4581941807063416 0.04967474647649821 -0.12209599256972208 0.0008927558772829289 0.00016826864472559332 0.3688752261363922 0.1219833559745982
54946000.0 0.879977713987387 -0.46837721462890647 0.04848367209747272 -0.1347719271756353 0.000937724395875654 -0.0003393525902739507 0.3893236170371353 0.11976647102641887
55945000.0 0.8767648797734833 -0.4738746566591101 0.049908794430322645 -0.1440371560179935 -0.003609895691959479 0.002490264352166732 0.38981666567780293 0.10185428451371109
56944000.0 0.8727212087003526 -0.4836379775799203 0.053306492682554024 -0.15877480863866542 0.0013476670976611458 -0.00402444978009188 0.3984693425793367 0.09872400811961199
57943000.0 0.8685460303456443 -0.4926479939985784 0.05411299440148738 -0.1652236353225367 -0.0007563001742102656 0.0024917907323084984 0.40632332244281183 0.09736435642536102
58942000.0 0.8643609242466775 -0.49761987331238017 0.05264961547391867 -0.17677146365125934 -0.0022268231156248055 -0.0013147501649054985 0.41367634928476904 0.09394027604236525
59941000.0 0.859726033455102 -0.5077043193528659 0.05948019586296673 -0.18824581030307982 -0.0032140808632482648 -0.00234778412054884 0.42200889536308284 0.09460295537915601
60940000.0 0.8517211944356937 -0.5129124622604085 0.05430527518148156 -0.18921991908399485 -0.0015208469204015223 -0.0003324355242662934 0.40810417977268426 0.07740466998388795
61939000.0 0.849112227365306 -0.5218572398192144 0.05684789849644969 -0.2005334702456858 0.0015144486377720967 0.0008052288836388326 0.41722797214238533 0.060896283684580485
62938000.0 0.8429101830129472 -0.5308929823015935 0.060234445416410154 -0.21858104036932732 -0.002457824792172059 0.001718088349731868 0.43664585613891727 0.05418436140919263
63937000.0 0.8381794645060473 -0.5404911902504571 0.0629305872036264 -0.24100535209294996 -0.001979090626070691 -0.0016967569451159232 0.43872219264171314 0.040716502145168795
64936000.0 0.8311568087673178 -0.546986330784169 0.05964694410711008 -0.2560302515669648 0.0016230717856830187 -0.002163804771119552 0.4377320191766815 0.0399330965133607
65935000.0 0.8281026973066558 -0.5578649058360288 0.060964208510614966 -0.2713925503491838 0.003713019781841619 -0.0012141774976719086 0.43463574867846033 0.015508495392984472
66934000.0 0.8242020175349111 -0.5596774578454828 0.059531242232637824 -0.2821488640911549 0.002622358185914418 -0.004007352190882109 0.4285234620814947 0.003913900604224182
67933000.0 0.8208182416965752 -0.5696242411301878 0.06288735640427154 -0.30022777972519815 0.0015471788997212805 0.00031082161118919515 0.4470555748266236 0.014091914379426468
68932000.0 0.8138479560586963 -0.574274117772238 0.05768599120056432 -0.3124189009519405 -0.000968866221735369 0.00013014811767071788 0.45540744026393226 -0.00024826496533908763
69931000.0 0.8048228664534648 -0.5852649915274518 0.05593917861796072 -0.33143008085867504 -0.0017834859100442407 -0.002092282647821194 0.44622533770523815 -0.02192218916386204
70930000.0 0.8021257471850173 -0.5909802896940626 0.05341721567986185 -0.34778728531592573 0.005546413185463706 0.0004752981070241986 0.4456275944018176 -0.040243473217518165
71929000.0 0.796305917149243 -0.6026719861111041 0.04842477256381742 -0.36671764201786444 -0.0006566312694703808 -0.0017723212302034068 0.4488239325616912 -0.039491554158560156
72928000.0 0.7889925144329212 -0.6093756827719798 0.0427713534933086 -0.38268221099052985 0.0016903203925059012 0.0011394599970067823 0.4794641010684471 -0.041200117762404294
73927000.0 0.7839726598098913 -0.6160630537360642 0.03907976129900366 -0.4056885876849884 0.0053517394805222395 -0.0002371622369171645 0.4522719662705513 -0.047773739706865874
74926000.0 0.7773008327637284 -0.6267786655804537 0.029495686005956232 -0.4223548395407707 -0.004812952128733171 0.003954629130136333 0.45579155710716146 -0.06341810669729207
75925000.0 0.7696627443504166 -0.6298175192577492 0.017352256123733582 -0.4481192609587054 -0.00047390198474282227 0.0028925612459792123 0.4669278012152396 -0.07679304521440553
76924000.0 0.763505764012261 -0.6404798957789803 0.005652328480570774 -0.4695151227436212 0.003981666474053588 0.0031766563292080665 0.4614630784894607 -0.07374918863980677
77923000.0 0.7583994235326033 -0.6444730590850288 -0.00956221604723051 -0.49535632804681734 -0.001144858575322708 -0.0011276220743715775 0.46202001844878093 -0.09566237863229281
78922000.0 0.7533052712405428 -0.6550377283952522 -0.022356586144759657 -0.5248496423557436 0.0029942910880698657 0.0050578022785005535 0.452406280013201 -0.1067226057103986
79921000.0 0.744248566063529 -0.6574847460925469 -0.03465286812611847 -0.5488423566775107 0.0030828086389152586 0.0009083034544899911 0.4574924285611338 -0.12436503597971525
80920000.0 0.7376924665745921 -0.6704137144331807 -0.05702218462262087 -0.5818251094666367 0.0037032772389782266 0.004734555016447249 0.46683901070241035 -0.13367253070244006
81919000.0 0.7335066861141069 -0.6766947105178974 -0.06955142449257617 -0.6128525243882524 0.0013763253250978719 0.0007004741056728914 0.46958441692501096 -0.124003307630069
82918000.0 0.725749120700992 -0.6821537755460546 -0.08622489261302978 -0.6445406609422493 0.002799830466163961 0.0033179984238604 0.47197611985812 -0.14410624808339698
83917000.0 0.7173731355709311 -0.6891828983935474 -0.10679760014589677 -0.6716664248866971 -0.001387844879736364 0.0002261978741579099 0.4766461473811175 -0.16228831973909286
84916000.0 0.7100342708587865 -0.6985808421786497 -0.12507956578436633 -0.7084249866635101 0.0006044393473262554 0.0023932620976760592 0.45952641611257056 -0.1762231895771286
85915000.0 0.7048564106073171 -0.704697948555102 -0.14280916103160532 -0.7433029046798142 0.00014567332477914303 0.0002696089774113435 0.46552468556479565 -0.17560044592710503
86914000.0 0.6943059243711733 -0.7171012241881133 -0.1597711693455949 -0.7800298597450878 -0.0005236735276341425 0.00310685816092145 0.4618571025449215 -0.17502944375392918
87913000.0 0.6916961784957736 -0.7198854986623519 -0.17513092479340453 -0.8094980530588118 -0.0022486761119724936 0.002751188890578811 0.4647176935316212 -0.18152326167367688
88912000.0 0.6840302284795852 -0.7267142176895719 -0.19330115598926567 -0.8464251662835963 -0.0028084834481735266 0.0037682519499544266 0.4611445650328554 -0.21266797970230164
89911000.0 0.6739076599591567 -0.7357135524681965 -0.2143802279107147 -0.8820784053659573 -0.0013122409870326157 0.0023251601954170096 0.46372598871096826 -0.21598240747578246
90910000.0 0.6667002422746315 -0.741907214457406 -0.22728024668104557 -0.9211589891314111 -0.004412074807895463 0.0002824761690748561 0.4473249881668258 -0.22231641641936642
91909000.0 0.6572903433175808 -0.7467751851537763 -0.24830176830299333 -0.9526694211590957 0.0010630310191434265 0.0007911653007070572 0.4571302600998576 -0.22020051485415867
92908000.0 0.6507243855826844 -0.7550274826256579 -0.2670166166613339 -0.9883008601391249 0.00010049241670908065 -0.0003222318955632085 0.46045521189469263 -0.22948447660792587
93907000.0 0.6457615126208092 -0.7596674191530689 -0.2869783233702439 -1.0223323048972892 -0.0017455419788214186 -1.1584304924908582e-06 0.4593238472191904 -0.2640605637439295
94906000.0 0.6319006730586193 -0.7677004881182921 -0.30594179496453583 -1.0574278181128383 0.0011768207897205267 -0.00017589525719176118 0.4573864392158607 -0.2606856767707727
95905000.0 0.6252917592798944 -0.775894778057988 -0.3282293876171304 -1.0957300039177003 -0.0012788633170725467 -0.0008258532050832053 0.4517478183743356 -0.2724406840672448
96904000.0 0.6161819723042514 -0.7828820964214488 -0.3512339065882371 -1.1332785693957885 -0.004176800285572525 -0.001563929361237671 0.45242002312136176 -0.2809348400321087
97903000.0 0.6065018582848574 -0.7900313719929196 -0.37726301140234875 -1.1667631304153518 -0.0011589944753355407 -0.00013605858814266488 0.4496550714790139 -0.29408623023732827
98902000.0 0.604015734420778 -0.7966090125827903 -0.4003583481316357 -1.2056399550435064 0.0010828315233687392 0.004165392639859889 0.44398932832850246 -0.2886579232593577
99901000.0 0.5934101709369877 -0.8024872608275693 -0.4352682586329479 -1.2451732992445834 0.002110403901530725 0.0018306619396283666 0.4614136404394294 -0.31788419786524924
100900000.0 0.5818163463012075 -0.8055691147888637 -0.47320212156446784 -1.271025181747351 -0.0028793808240483677 -0.000624696410205424 0.4606786471614726 -0.32841610535945925
101899000.0 0.5740269195983309 -0.8133935088144307 -0.5024117258309131 -1.317043319374349 -0.0014027385270482698 0.002929561495400711 0.44955544831667316 -0.3233241147483357
102898000.0 0.5634347740661741 -0.8182547855044903 -0.5391537430158329 -1.355283006524105 0.0018634126893269844 -0.0024066480132655826 0.44444909168319857 -0.34041389993209703
103897000.0 0.5537120463301083 -0.8235729279140519 -0.5840086258715198 -1.3914863580318202 -0.0024733403684958654 -0.0031071573048316588 0.4540996982446058 -0.34037662767022947
104896000.0 0.5462720257710325 -0.8353221713644456 -0.6370834653248704 -1.4319484661015753 -0.001172757179930644 0.000794733579276806 0.4412574421985294 -0.3435167929947697
105895000.0 0.5373916911616623 -0.8385245493606065 -0.6796604157810728 -1.4794360206160655 0.0010206514443130165 -0.001975191049616658 0.4332257055070032 -0.3527909363375982
106894000.0 0.5265930144603257 -0.8447876155144483 -0.7442486873490192 -1.5179145678028991 -0.0002852757765711657 -0.002166249418391778 0.43774739680437047 -0.3617097591771571
107893000.0 0.521097676765953 -0.8499497976852081 -0.797279268123481 -1.558897538861835 0.005025921004866816 0.0007938124787898786 0.4267602675326294 -0.3837542439172218
108892000.0 0.5101407559744692 -0.8533527083215926 -0.8653537011652237 -1.5901089270485997 0.0027267035935390122 -0.003289962258975236 0.4226992645637007 -0.3849299296317533
109891000.0 0.4965087446551633 -0.8622921842032164 -0.9228245177638867 -1.6341264051210511 0.00021705145318783723 0.0006597208259370383 0.42987362768509424 -0.38939165853271296
110890000.0 0.48826354953651496 -0.8644408894701842 -0.9823981633746967 -1.6415103501342971 0.0011019403419487337 0.0008260309317270799 0.42225139759339936 -0.3857667596883135
111889000.0 0.4763863625772352 -0.8696447929691933 -1.056436716655422 -1.7003729338301972 -0.0006705061813695139 -0.002289280204424586 0.4070777740937946 -0.40554700408687716
