! Created with skrf 1.9.0 (http://scikit-rf.org).
# Hz S RI R 50.0 
!freq ReS11 ImS11 ReS21 ImS21 ReS12 ImS12 ReS22 ImS22
1000000.0 0.9763538101254287 0.000638886092572723 -0.0091388186755074 -0.04360538904987659 -0.006499825887324603 0.0022313230168142235 0.32109207630490655 0.33502262870469524
1999000.0 0.9917641584167668 -0.015092611160507597 0.014474118353262991 -0.026808142689595922 -0.005945897235723102 -0.005469788003855393 0.27348283578596955 -0.04988660321593761
2998000.0 0.9987114188555171 -0.021582623904662073 0.012279614970061243 -0.015324036387226698 -9.144246652112839e-05 -0.0036323117024303587 0.19107327898773596 -0.14993177609457853
3997000.0 0.9997305540530903 -0.02898275369786249 0.010149128048531832 -0.008125543334947175 -0.004338673372760113 -0.002816007283265153 0.09654675760705547 -0.23397717622660222
4996000.0 0.9986178982207203 -0.035183882197407285 0.009521869512761941 0.0048877575020590674 -0.0027316984466311386 -0.0018344556887461266 -0.03411787359835679 -0.21594479155380558
5995000.0 0.996227103508211 -0.05011232510550957 0.009327532292351897 0.0028498795737421172 0.005484421661907066 0.0010166806769603383 -0.12589031489247798 -0.124509606489912
6994000.0 0.997671541823428 -0.05448015658892734 0.005303540850006557 -0.00038983770012752846 -0.0022043066070711664 0.0008119958050085 -0.1558126527654817 -0.03301757519857302
7993000.0 0.997892101255711 -0.0677966628452445 0.010168472756750695 0.0026158446985283623 -0.00013390510556475827 -0.005728207718258189 -0.1667668526828527 0.020305807667160225
8992000.0 0.9957605808671147 -0.06801274626675873 0.0012876205841363135 0.004261553427215064 0.00145751565222094 0.0009292172050855323 -0.15883883475491054 0.054797067898403384
9991000.0 0.9961640625102544 -0.08230093812385066 0.0028738181138054653 0.0036145560547269978 -0.0015638367437131111 -0.003037056116622275 -0.1569554743967665 0.07142934028706956
10990000.0 0.9959488962120827 -0.09459482404409851 0.002798276806146198 0.005555118876872414 0.0008761423917804112 -0.001996770024130546 -0.14512074652658016 0.09482731440575583
11989000.0 0.9899985292494521 -0.10008260530642561 0.0031892443759109967 -0.0002466311798943439 -0.00292102269219148 -0.0011578038643062299 -0.13049938341636214 0.1367779950209437
12988000.0 0.9917527814828924 -0.10874859010095984 0.0031369608653364087 -0.010129192099345723 -0.0016597219123364968 0.0020377910164219694 -0.11216284411338899 0.16558895476569566
13987000.0 0.9887118539847525 -0.11881110931236019 0.0031368374711129984 -0.007631866302047057 0.002324474731676715 -0.0020652030396540837 -0.09712244250465349 0.1866761939523631
14986000.0 0.9913332847670955 -0.1231673073298302 -0.005846347265154894 -0.005067556399865314 -0.0014315713648232788 0.0021026628563604807 -0.09556998326013692 0.2007581346761997
15985000.0 0.9918756234363684 -0.13727746938851815 -0.0059337035592107274 -0.008045146104472555 0.001548614338884376 -0.005656054176888842 -0.07915603406870154 0.21944090388183002
16984000.0 0.9879564039524545 -0.14594116598936183 -0.00282717430003254 -0.0036662601095715395 -0.0003497533908379979 -0.002935576217586306 -0.06421213715437717 0.22295320655051692
17983000.0 0.9889225195827864 -0.14856326978103732 -5.079385642747593e-05 -0.0035371601998012794 -0.002692898604317175 0.00045111832289390885 -0.057233462023231214 0.2283581990493999
18982000.0 0.9837345527981342 -0.16110579020027516 -0.0012202191499869814 -0.008156284011092616 0.0015582116401063422 0.0028238136463720662 -0.02716492744890698 0.22386820330394314
19981000.0 0.9850216219131971 -0.16508609503375668 -0.003787338019852894 -0.004967858779220356 0.0015233690292055949 -0.0018373312566484043 -0.016474444854337165 0.23354669113627236
20980000.0 0.9826755459607496 -0.17202490161526868 -0.009408428652318574 -0.004074306974864671 -0.001119502724252355 0.006845651540694469 0.00019102495419254128 0.2557598012521367
21979000.0 0.9811680399267693 -0.18323209085545453 -0.009260070535079136 -0.003940898934172151 0.002151317629596583 -0.00401919345504629 0.017111666064831152 0.24178191279311134
22978000.0 0.9807220395161712 -0.19211911495018238 -0.005956610476964876 -0.004221136301307065 0.0003193491306103117 -0.0016687794145765456 0.03134535964540116 0.25924234445734445
23977000.0 0.9818451925932309 -0.19606424602808423 -0.010399987324140837 -0.0009746032623990572 0.002059354118375242 0.0008277139112488856 0.0359226195028564 0.24662865814431018
24976000.0 0.9755635357590631 -0.20965758745935076 -0.006379444960688101 -0.006446636479595479 0.00030431655829833834 -0.0010953892682907087 0.06540567568995641 0.25834881723271
25975000.0 0.9776103511754893 -0.21497686004902128 -0.002144193096956039 -0.0040541568442607236 0.004455023441927489 0.02602354889041801 0.08029176096111876 0.26707505748244736
26974000.0 0.9736043934190456 -0.22603670201790724 -0.006808097785532229 -0.0032726863337526188 0.0013638856003891217 0.00026644004436309024 0.09378789414966252 0.26282914982402866
27973000.0 0.9713984034847207 -0.23345102475537677 -0.0008447759703487092 -0.0005819611001109927 0.0015099877193597909 -0.0012812295474982683 0.10658383158594004 0.2560706888682498
28972000.0 0.9680218635130255 -0.24088850417728427 0.0005577439561816814 -0.002916856066053278 -0.0012726721417184819 -0.0022390500043977784 0.11806529387250622 0.2507452010543746
29971000.0 0.9667942654975608 -0.25173245243518366 0.004320110931929571 -0.003591448642695955 -0.003084781564877421 -0.001451523144663016 0.14612814055518364 0.2624507651120196
30970000.0 0.9655716493086879 -0.2563588649516539 0.0018707966527347318 -0.002649191364570805 0.0018186439311794467 -0.002913206702258555 0.16493507583506423 0.24849090705955745
31969000.0 0.961703571124601 -0.26641687330983643 0.005664181704560005 -0.003985436426230848 -0.0006678429525477636 -0.00071834202952722 0.14908072624093693 0.24686981716782394
32968000.0 0.9620881925719427 -0.2733924288466171 0.006964597433028898 -0.009706595744438277 0.0011178822349560576 0.0010309638829748833 0.15650999983796568 0.24646375816074859
33967000.0 0.9592734351716146 -0.2830406270114772 0.01446991467275444 -0.0115658577478372 -0.003868684093263857 0.001244170713176937 0.18708858038124213 0.2413553852225624
34966000.0 0.954339064388423 -0.29343882085066597 0.01237307120577639 -0.015269056607295264 -0.0023749734592759916 -0.002264275614967098 0.1895486363028404 0.25232325857069443
35965000.0 0.9521271974909329 -0.29878334705947446 0.014699889148887547 -0.01525399962568566 0.00158867418488332 -0.0017423652491614149 0.21164560726330173 0.2529972470505326
36964000.0 0.9507957429128298 -0.3086766763845949 0.01430291849749158 -0.01590019667092559 0.0008974238733706349 0.0011243011969790154 0.2150414123415593 0.24711233609868097
37963000.0 0.9482246567185256 -0.31670218003833567 0.02010355854139883 -0.02356804542282941 0.0015734722514141853 0.0037794787443547785 0.22140605194374496 0.24077085722255442
38962000.0 0.9444871979307309 -0.3286446465149806 0.027155493019764842 -0.025290983828896472 0.002513623923681574 -0.0007761863168573954 0.2350128527474905 0.22594060195875895
39961000.0 0.9424153470967117 -0.33197969042787007 0.028887853171841067 -0.03115500344474627 0.001668461425826631 0.0021291122414350463 0.2497843115530223 0.22634597075711926
40960000.0 0.9382056181063991 -0.34371346920740464 0.022941208009704315 -0.023245779676222492 0.0034722655198873398 -0.0002655710277317594 0.2715168227738658 0.21742728161568214
41959000.0 0.935086017187008 -0.3517570405597287 0.029960404570126255 -0.029334754811560265 0.0008511972901801108 0.002300961219597157 0.2687595984709838 0.21453721601324924
42958000.0 0.929647159326409 -0.36114250159229166 0.030274430874660262 -0.039052012070255965 -0.0014390556203484287 -0.0005013559745655767 0.28132154344010424 0.20602408385059637
43957000.0 0.929021955428824 -0.36761771788667114 0.03312549375815345 -0.04510484295259808 0.0008929272881308744 -0.002022717373706777 0.28762028947351176 0.20447431910431516
44956000.0 0.9255622038431385 -0.3751340684569088 0.032351580432864305 -0.05017620742409606 -0.001980974813647835 -0.0014490436200104285 0.3051589250575709 0.18188419835353425
45955000.0 0.9210313136706192 -0.3835557403248887 0.034734928468255835 -0.058722012473050936 0.0032999523877077176 -0.0006269364765166678 0.3029289716515946 0.19348340776435427
46954000.0 0.9186732638299506 -0.3934121916171713 0.03515198148061808 -0.06368373575942513 0.00034019000396611946 0.001941677871708521 0.32908632436676327 0.17128322359114287
47953000.0 0.9166130770662512 -0.39921508067724426 0.03323471538097343 -0.07408350779084161 -6.762635902482026e-05 -0.0025684840874066256 0.3249917984193312 0.17523320573786466
48952000.0 0.9115047652011091 -0.4089047381734173 0.03731487626754413 -0.07951730585871147 -0.0005610831610001561 0.0029791200509784884 0.3338865857943004 0.1621514955238627
49951000.0 0.9069017314666816 -0.41810214609678215 0.03513941683598668 -0.08592575476972417 -0.002074154423566744 2.8386564119445237e-05 0.3552370500275616 0.14430796926267
50950000.0 0.9038220985458137 -0.42407519987997566 0.03836271267838759 -0.09730991789203956 -0.0018415995152335411 0.0027088659309001594 0.35109367482297454 0.14893373264744092
51949000.0 0.9001030676822529 -0.4333157805077002 0.03598816208233463 -0.10133606907678831 -0.0012508577344591573 0.0019558446956350357 0.35671212213016623 0.13827217812124523
52948000.0 0.8992717583479405 -0.4398236512055752 0.03670598262503506 -0.11307334735546934 -0.0014253281679834022 1.0343732610579932e-05 0.376659439891119 0.1420752506206078
53947000.0 0.8905582514929924 -0.44988789584378025 0.041207187597397596 -0.12314234520262672 0.0013201077903976226 0.00019933351783507581 0.37225493004059956 0.12661648834756217
54946000.0 0.8880705809631342 -0.45552975574906335 0.0419902648630731 -0.1320098560129848 0.007493442530115979 0.002013445089082155 0.3848750918888471 0.12124906316154162
55945000.0 0.884442252673102 -0.46668029889478835 0.04233935817247254 -0.1415619692557047 -0.0030767637912188666 0.0012930459410030667 0.3937711882286837 0.10479185106204846
56944000.0 0.8807053535266339 -0.4724572272105983 0.041060551547947376 -0.1516747996583096 -0.0011145610444285965 -0.002336422416910572 0.3965070175946377 0.10489611492160072
57943000.0 0.8759651270950459 -0.48412308318583597 0.04328043336669649 -0.1637508586715836 0.00026859473031580694 0.0007993137998762306 0.40548878097505947 0.1047821611734091
58942000.0 0.8692292901455638 -0.487642312072116 0.04579703228311605 -0.1731974006482465 0.0006603444829441476 -0.000578181297374125 0.4249358029717069 0.084334803914817
59941000.0 0.8670136936027515 -0.49664997937915395 0.04776697803624195 -0.1829535272649729 -0.0001979379174060773 0.00026579733941284084 0.418622846039514 0.0831009411124649
60940000.0 0.861012807436448 -0.5023466749650146 0.047874785383165884 -0.1884760095941014 -0.00045558313369415565 -0.0011647666134197928 0.4157580422780474 0.07805595010718488
61939000.0 0.8583224496571573 -0.5105853057017375 0.04526089913792975 -0.1958989776080165 0.00019246351835739442 -0.0028311929159813985 0.42381404160981523 0.06402366234169857
62938000.0 0.8518776154244561 -0.5211092802395122 0.05071809139190549 -0.21403272536816026 0.0026656448160435817 0.001292742579054306 0.43962716668099583 0.06138116052666231
63937000.0 0.8479649219189168 -0.5267774359224635 0.05078268941336991 -0.2327382845693961 -0.0008733844522115067 0.0003093151453052477 0.4402398606017531 0.03274235923993778
64936000.0 0.8396619015599697 -0.5355278084718811 0.04898069327630235 -0.24565671089382596 -0.001362478185179945 -0.0004938979021313654 0.4314469745424839 0.04462175209902947
65935000.0 0.8379837759305746 -0.5438286728392836 0.052834698378085736 -0.25988954505433015 -0.0020139296961931208 -0.0002485916825146904 0.43944961336673133 0.020761365255848475
66934000.0 0.8337086038792372 -0.5483355402586386 0.05271382626084058 -0.2698850214609583 0.00024519967699070724 -0.0021958835242215495 0.4324905341239233 0.004876198528929656
67933000.0 0.8299502034078651 -0.5588046316569354 0.05207323799669244 -0.2864401324752344 -0.003610858812218599 -0.005923663281882529 0.4386660008867188 0.004309167472170045
68932000.0 0.8246075693587476 -0.5633734391513842 0.04628696832862905 -0.29710991728879477 -0.001867704406751877 -0.003396862318714083 0.4540933994668624 -0.0034212976658785227
69931000.0 0.8181957181606684 -0.5746037644373279 0.04841969930683596 -0.3141308521006423 -0.0013086693736727743 0.0008624540174611681 0.4499759510615187 -0.014565752521986022
70930000.0 0.8096858268827626 -0.5825703968132755 0.044973072423252186 -0.32836627614939834 0.001070675969120207 0.0003955164077171838 0.45880507757017314 -0.024038699782587995
71929000.0 0.806650655599109 -0.590311874088204 0.04245839085703524 -0.3439673637019088 0.0010603228000487935 0.005529113292156047 0.45167804861714694 -0.044265847675225165
72928000.0 0.7994083834418376 -0.5977575870165999 0.039079207175482855 -0.36258704923989726 0.0036457057866078214 0.00110751433590507 0.46575367660202366 -0.04994388875115324
73927000.0 0.7954215027691889 -0.605020488993063 0.0332004453309914 -0.3805132874160112 -0.0010885567511053303 -0.0011014702248009283 0.4634530150696535 -0.053252083663811636
74926000.0 0.7908157347560739 -0.6143030411565702 0.02531561516335159 -0.4006079198179573 0.0015376822205335995 -0.0010696285134825358 0.4586751576260993 -0.05890243758141931
75925000.0 0.7830635119525816 -0.6193385231692672 0.012226173248991166 -0.4142245793520414 0.0003909240174875383 0.0012858077037237734 0.4738284029381794 -0.07202301052479194
76924000.0 0.7782350986116539 -0.627476300216916 0.005882199404843112 -0.4403676253082778 -0.0017962088896882988 0.0001511039201633399 0.47457774189887303 -0.08696371093258767
77923000.0 0.7720061407059235 -0.6322502274276742 -0.011665062766516866 -0.46200831063311326 0.0006100581982727428 0.0038491141828873063 0.4610841936656824 -0.09320187461455631
78922000.0 0.7654491739128 -0.6443694423676626 -0.026857863433841493 -0.48684617306908057 0.0006036140474553462 0.0011243296411033443 0.4600217591712576 -0.1041704069828928
79921000.0 0.7592225469105527 -0.6453864473434918 -0.04496173473844486 -0.5146103646576891 -0.0008311135407702536 0.001625746857577874 0.4611727951523711 -0.12460845976236584
80920000.0 0.7528802941464952 -0.658722922825589 -0.05872828931739893 -0.5374334611171989 -0.006021839159723753 0.0024151225756299695 0.4654099367034795 -0.13368116815267284
81919000.0 0.7481853588845797 -0.6643184462648563 -0.08224658700047917 -0.5654310626705723 -0.0038382652653097793 -0.002753781780809156 0.4648581039816795 -0.13405621389013667
82918000.0 0.7386456025544061 -0.6718370953676481 -0.09364399538245088 -0.5978280776300252 0.0022811018276133015 0.0007406368101568099 0.4639122600681547 -0.15037077162619333
83917000.0 0.7315075411204083 -0.6790399137473246 -0.11113309907153292 -0.6224078514091519 -0.0009080282943025813 -0.005327810866270118 0.46958044869347787 -0.1432779345357546
84916000.0 0.7285171803164499 -0.6852607171068317 -0.12794537275267784 -0.6644092766835652 -0.0021583015682547745 0.005489998348503301 0.4688185203555717 -0.16918752728736364
85915000.0 0.7180374507401089 -0.6933950474935956 -0.14895606954944748 -0.6914179351581647 -0.0011942891027729443 0.0006547404321544495 0.47781019844712325 -0.17129011004994044
86914000.0 0.7114710180301023 -0.7022530476638815 -0.1683962534431564 -0.7278871633373598 -0.0009380348209509522 -0.004192436580555932 0.4665793269525507 -0.17475492210665997
87913000.0 0.7036882080841641 -0.7092858125102308 -0.18714404210904004 -0.7536857571057648 -0.000312175490109459 -0.004789456924601255 0.4634472521334948 -0.18633900631621103
88912000.0 0.697598310098739 -0.7164985725089643 -0.20322801022772194 -0.7914530794582082 0.00010994748481287636 0.001042855751558825 0.4655608376710139 -0.20909264128386695
89911000.0 0.6904293866273503 -0.7235182151752508 -0.21767505536068388 -0.829170975842572 -0.0009236234713612763 0.0037178462448271775 0.4785548407170217 -0.2147663409994825
90910000.0 0.6830102555068972 -0.731624140026423 -0.23754743489958613 -0.8598917494549106 -0.0016602620898346888 -0.0029118732220956584 0.46211954461563676 -0.2070659725721166
91909000.0 0.6747920881939322 -0.7345960889419929 -0.2548965483127784 -0.8920149230939085 0.00040100804149862285 0.0009948638806919461 0.4631676193841493 -0.21732125661108212
92908000.0 0.6678702054482154 -0.7444038277027856 -0.27537718615437884 -0.9235060125335929 -0.0039776464067051865 -0.003191700685735634 0.45189228830258177 -0.23940198754115702
93907000.0 0.6613810917499005 -0.7492497206677556 -0.28639704903718527 -0.9540529477485996 -0.0017561440360056827 -0.0010379908687737436 0.4672428938801527 -0.25085375237277263
94906000.0 0.6500987724878897 -0.7568883646448391 -0.30836240552126515 -0.9881154909326838 0.002785528777269138 -0.0009453846480695034 0.4545538931759537 -0.25101138699187264
95905000.0 0.642752281734743 -0.7615494413199853 -0.33228702357707607 -1.0214983982612444 -0.003666314685144465 0.001889215128431393 0.4596692950228709 -0.2609584099625396
96904000.0 0.6357565124233551 -0.7701156028449835 -0.3414242255293937 -1.0607400005287129 0.000886112140303502 0.0025371964061157637 0.45397888247884255 -0.27986922796774427
97903000.0 0.6257982418097309 -0.7759087412659105 -0.367547167096448 -1.0905137596877794 0.0005381698785722592 0.003062483920974365 0.44607176663863735 -0.2973687727399854
98902000.0 0.6207556133434897 -0.7826917768882894 -0.38391476648271283 -1.128133872072603 -0.006903801187768036 -3.79940928785451e-05 0.4466717859281414 -0.29382159361211807
99901000.0 0.6112771380240773 -0.7911212160434664 -0.41734111049686085 -1.1575778962377636 0.002797334435946219 -0.0040203177224654085 0.44562459869923243 -0.3172862074454988
100900000.0 0.6016794351144281 -0.7935195175957442 -0.44108595295099323 -1.1838621226453334 0.0015069948913247074 0.0025689500037994577 0.45597211384903674 -0.3110560696032808
101899000.0 0.5946426777018538 -0.8012228952273951 -0.4620135221224012 -1.223518738174881 -0.000437052432836119 -0.002983383614592 0.4420336447847334 -0.3269467045258664
102898000.0 0.5835306285482913 -0.8063460547259074 -0.5010432399115057 -1.2555906622840827 -6.27365278151172e-05 -0.002711889871318838 0.4491312433372033 -0.338265459159486
103897000.0 0.5767947418597767 -0.8133075802074597 -0.5358452298476659 -1.2965587867217985 0.0024418281274761347 0.0008685705926465583 0.45481224889957217 -0.3308879726598017
104896000.0 0.5688276884175731 -0.8238815814026433 -0.5792631991495618 -1.325232186514882 -0.0009347869818962806 -0.00011653103017481138 0.43815637146881153 -0.33878382305724825
105895000.0 0.5568774113562569 -0.8274438671119355 -0.6223119453552471 -1.3626751275223923 0.0010566940920063053 -0.0013873255404896756 0.428392285691169 -0.358577346535299
106894000.0 0.5492683968678923 -0.8330138981098547 -0.6750310075863649 -1.3967597917655479 -0.0016762667402853643 -0.0009034399641448672 0.42876943668838474 -0.364666332456021
107893000.0 0.5427996846422573 -0.8378203793327458 -0.7207337655280077 -1.4345590644350685 -0.0007978436875549072 0.002178602137525067 0.4209601904356794 -0.3801697066605341
108892000.0 0.5309847486000107 -0.842608696591237 -0.7798501375093388 -1.4686104956371737 -0.0021668296025633867 -0.0006165100665025635 0.41893728600654034 -0.3774603936924697
109891000.0 0.5187267007904297 -0.8508741441341817 -0.8363681822702002 -1.5017837340742648 0.0020483884236123595 0.0003127306920656696 0.4394664849976756 -0.37793091925481276
110890000.0 0.5043877197425253 -0.8527401883093911 -0.8972121081673685 -1.504819173508188 -0.001967100851715626 0.00035535205284430345 0.4172373465949617 -0.39133362931442
111889000.0 0.5002211185965781 -0.8576616150545553 -0.9635710083503424 -1.5674679946865597 0.0033743850700275325 0.0008155228955898703 0.4140224603196446 -0.4004391212904507
