! Created with skrf 1.9.0 (http://scikit-rf.org).
# Hz S RI R 50.0 
!freq ReS11 ImS11 ReS21 ImS21 ReS12 ImS12 ReS22 ImS22
1000000.0 0.9920294047385134 0.010505848323038653 -0.02304813644848867 -0.03271686457871304 -0.0207796587132206 0.01625785748037161 0.3568136782202809 0.366961178164549
1999000.0 0.9933040167738928 -0.01207398278987477 0.0013854690709708495 -0.017841399597951477 -0.002560365122285384 -0.007452098118086245 0.24986299430917638 -0.041532535211596194
2998000.0 0.9989418513401914 -0.01862122533135135 0.008635006586908233 -0.015106810477283131 -0.005441585039958865 0.0012464655403964789 0.21935253266534133 -0.14314164889123074
3997000.0 0.9989196853382623 -0.027261706526134463 0.014019665330493779 -0.008219543595811798 -0.0033377982679347745 0.003205855761660468 0.0907527351082224 -0.22124225679642848
4996000.0 0.9981400354709928 -0.039913260220194535 0.006364798634710707 -0.0021674785737544715 0.0018112279268640685 -0.005650021566502883 -0.039940480321220634 -0.21191281167279666
5995000.0 0.9942173757455682 -0.04880097851514414 0.011267894788834193 0.003088680107127193 -0.002110523410746587 -0.0014389223046052885 -0.13661551940338174 -0.11884670500751893
6994000.0 0.9941502816475348 -0.055956576560910146 0.0042142325138977 0.007391876326326589 8.493358459890739e-05 -0.0018967339198141156 -0.15060776326104605 -0.03972688557569937
7993000.0 0.9968652771217043 -0.0670921428328805 0.003955135808656776 0.005982749670509448 0.00521228869702759 -0.0009835798367892788 -0.1659991115244653 0.0244325721472
8992000.0 0.9943595293505444 -0.07166429280732427 0.0034443499946898277 0.004977027831686316 0.002006418251554685 -0.0015325245710357282 -0.1656891497732964 0.053200088202578634
9991000.0 0.9952615925109621 -0.07954902439875362 0.0017093915517422565 0.004704725880562245 -0.0015242627062853995 0.0018546680125638415 -0.14870618719258985 0.0876483457964406
10990000.0 0.9937185827513773 -0.08987511112624047 0.003399358836989087 0.0032407970895883317 -0.0007459951444477013 -0.0006621861981440366 -0.1512146803592364 0.12714406955046686
11989000.0 0.9897016658019285 -0.09999963486877185 0.001491766569137905 0.00033466819502086587 -0.0007279325371490751 0.005668529317070143 -0.13262202614043178 0.1393540784563072
12988000.0 0.9923558661237081 -0.10676579159480445 0.0013628071265494963 -0.002419511732628281 -0.0014179756354130994 -0.0023968263238446827 -0.11246755109442659 0.15569011141630848
13987000.0 0.9883586093268204 -0.11527006932223827 0.0030594622243584457 -0.0074581730431402355 -0.0034345263390965024 0.003125719371289172 -0.10614514521117828 0.17431201282785383
14986000.0 0.9890451217700111 -0.1235605694545948 0.002572312580666508 -0.004226216912883768 -0.0027448905758321778 0.004618356391748877 -0.09106275022012597 0.19724071712733895
15985000.0 0.9902140691474294 -0.1322576436599785 -0.0021289552520249422 -0.0007671446704999095 0.000977534729568177 4.614290392499348e-05 -0.07245391765756609 0.22234374449433164
16984000.0 0.9872546193951177 -0.1419549082913343 -0.0007303291571334336 -0.0008859430458024762 -0.004765026141753421 -0.0004437674145388592 -0.06271351720874273 0.2110210761008216
17983000.0 0.9878340041136608 -0.149386052299978 -0.005520437525228613 -0.007080542393972922 0.002134569693927441 -0.003372743816222411 -0.05861870959122444 0.22638738283895082
18982000.0 0.9837393632772353 -0.15788029010582608 -0.00415972388077357 -0.00759214253620953 0.0017539974392558502 -0.0011654226083202266 -0.022964979941762966 0.2338753574042473
19981000.0 0.9841415881511236 -0.16479804195251824 -0.006425794571471842 -0.007274298376547597 0.0024621899470917705 0.0017754576681352399 -0.016732132448743303 0.23864012890988748
20980000.0 0.9820816283078355 -0.1752780431463978 -0.005862459854404624 -0.007516636866118659 0.001622033349644086 0.0005108172944090549 -0.010049165682652196 0.26170005142204344
21979000.0 0.9805869579628449 -0.18611548343212556 -0.005669352404585747 -0.0018636911234208872 0.0030313155342661094 0.0010323185065768078 0.014003684446873199 0.24269357998701244
22978000.0 0.9775008260580108 -0.19152709311193158 -0.008327205423736115 -0.00325064145549764 0.0008305514065482247 0.0003150984416222422 0.016586846670307326 0.2531658418897496
23977000.0 0.9782924945599711 -0.19880642794846656 -0.005465660414497855 0.00018193919235871012 0.0030110994223796978 -0.001597445387186882 0.04088915991824148 0.260662880735617
24976000.0 0.9772778056278882 -0.20955806953715583 -0.007363027878495324 -0.007153988053212044 0.00129950092027707 -0.0036911807729639915 0.05815780994779939 0.25132364021403886
25975000.0 0.9752225801278236 -0.21591695707801833 -0.005651198184783566 -0.008197366361344289 -0.005567396254295743 0.025707895410860722 0.0781917001194146 0.24792353620420052
26974000.0 0.9724775426357317 -0.22492531670572033 -0.0060722098796144285 0.0006447675298446176 0.0018928375004763675 0.0024050250478509323 0.07973474047521939 0.26990247877244367
27973000.0 0.9713351846678591 -0.23289737470236987 -0.002049636527062039 0.001949279524704721 0.0027341671603648963 0.0022015924660304773 0.09847777231465596 0.2590059883573018
28972000.0 0.968682179951247 -0.24081217461934948 -0.0029741811093841773 7.774265906376219e-05 0.0016231070834006375 0.0024466056763227445 0.11185476028682308 0.2504843532422282
29971000.0 0.9661713422023609 -0.2508430753676262 0.004200405252594211 -0.0008605841193299826 -0.0018288985266001092 -0.001372255785886855 0.14677624740128747 0.267458363490088
30970000.0 0.9627487378580807 -0.2570056075140628 -0.00011445113750918437 -0.0014184155290883043 -0.0008107800678783953 -0.00011895507648311973 0.16626198130221606 0.2547209274352258
31969000.0 0.9628976732757669 -0.26442259523178885 0.004367391489719059 -0.002344891870178569 0.0026180668452827397 -0.0015310313899562229 0.14321259445625448 0.24293833470473197
32968000.0 0.9619982041325013 -0.273322930064132 0.009483792938845015 -0.005252330291776539 -0.0021093368862087447 0.001809989101563652 0.15886203191820264 0.24590766366020386
33967000.0 0.9588045313200891 -0.28235991695717755 0.007873302426413334 -0.009657930842863493 -0.0011941411656418385 -0.0033559888574039624 0.17293481909829256 0.2503704474822075
34966000.0 0.9534997802930636 -0.2922002833230647 0.012109883355750403 -0.012166645674553004 0.0004975680927455116 -0.0019236824536824142 0.18482318929572064 0.2539653336551235
35965000.0 0.9520767194508213 -0.2994862246928265 0.01357191231045801 -0.014301423968865419 0.0006938912745254982 -0.0013111961614851455 0.21220337287983546 0.24991947147115506
36964000.0 0.9509599055003816 -0.30899666332940406 0.017708462064449666 -0.015159155765475434 0.001391836452416527 0.0010731796455042263 0.21058683956955795 0.24860089460238322
37963000.0 0.9473580125415034 -0.3175616710914791 0.019773152469791565 -0.02056414987074291 0.0009749976805532089 -0.003064832501964808 0.21570530062409987 0.23771042091516875
38962000.0 0.9440128865524079 -0.32563173534529877 0.024739946658149194 -0.023696542564727294 -0.002096373822047104 0.0008380385635993236 0.23227331713078256 0.23066280532210415
39961000.0 0.9411918889333409 -0.33448281130439234 0.02660741922956955 -0.03053946126509 -0.0017346769065457205 0.0009717518201150793 0.24387065033526473 0.22197020568097658
40960000.0 0.9388562649690609 -0.3403977346492549 0.023614061936027386 -0.023445160502360878 -0.000946870602768901 0.0005185941336971121 0.27113394763091303 0.23020364379843622
41959000.0 0.9359443564336318 -0.3527019504695642 0.028349323411662256 -0.030169923154376423 -0.0005975408735899813 0.0021811052933479215 0.2631296804918845 0.2222205420865469
42958000.0 0.930652899679364 -0.35942352767089625 0.03165641287670065 -0.04090107626493295 0.0010908933233853852 0.0010050788172821022 0.2841791079960746 0.20194799861983123
43957000.0 0.9295402996962695 -0.36465421924141983 0.03073808865666816 -0.04565281478709509 -0.0026716382777784075 -0.0002780746157297065 0.28104491954600663 0.21237258412370147
44956000.0 0.9255083865054836 -0.37490496216243446 0.03341983234023658 -0.05075890706576017 -0.00389720606954401 -0.002480686485553813 0.30396546791687473 0.19804500774085518
45955000.0 0.9213180407133382 -0.38326228572367477 0.034185151289227014 -0.05337003768766386 -0.0020269684711626984 -0.0007773988762458779 0.3097268134322067 0.1947485813199445
46954000.0 0.9182470858642481 -0.3925915879725598 0.037671049779502565 -0.06095162074801818 -0.0006702739731113552 -0.0016201986667055736 0.31577195935543334 0.18533198831780381
47953000.0 0.9141122359282017 -0.40037124615079883 0.03490872082210913 -0.07035840260668262 0.00013676449557041006 0.0010092433787503247 0.3350601093319357 0.16689878647992418
48952000.0 0.9089203041964126 -0.41184811638819085 0.03897620918023199 -0.07656614497641107 -0.000670597787028173 0.0005565836348051541 0.33200694220350063 0.16116562282844746
49951000.0 0.9052588462561026 -0.41510936742389953 0.03513874500021646 -0.08320288825653688 -0.002679550861197515 0.00036999940742743964 0.3452617111988532 0.1511088559881244
50950000.0 0.9026712533329083 -0.4251171505966283 0.037214382082493565 -0.09276967610414613 0.001929603317086258 0.0003612990591652716 0.34459973867305144 0.14302597475796022
51949000.0 0.8999420557892375 -0.43343202236895334 0.03799026752681132 -0.10285420799967937 0.0004518975657077543 -0.0016577211119508028 0.35677591006101844 0.15045715826484324
52948000.0 0.8950639749393768 -0.44089860180286655 0.03898562602798467 -0.11016615652661267 0.0026026874299248676 0.0020763874632907723 0.3620560464366817 0.13911423363063685
53947000.0 0.8902921195883795 -0.4482814317734235 0.042075950873780035 -0.11874048988814746 -0.0001668896576417409 0.004315029088922751 0.37295904295707316 0.12932057802818578
54946000.0 0.8858488124420232 -0.45795744490515394 0.04105873724842267 -0.12935299145054588 0.00015427853479063887 -0.0010574298081328394 0.3841620165557836 0.12070611512592827
55945000.0 0.8839457261874419 -0.4676250435423192 0.04381576745564744 -0.13725989326049554 -0.0006497038463482722 0.0008669151702146297 0.3833662005294974 0.1057834335698516
56944000.0 0.879327300913684 -0.47444743850489407 0.04460947972782467 -0.15036868057335875 -0.000928681042999921 -0.001359291236561753 0.3969595752947352 0.10508612749508589
57943000.0 0.8749540146722434 -0.48390273648526044 0.04785213310369304 -0.1591530762142738 0.0022839521802596827 0.0026333346996322057 0.40192517167507874 0.10493916119599242
58942000.0 0.869883028747947 -0.4883573811874846 0.052258636989174795 -0.1691768077339316 -0.0008378351745077735 -7.069693824963724e-06 0.42151923262922136 0.08494056652908757
59941000.0 0.8658890175801282 -0.4982905627644582 0.05362993029395456 -0.18034425800639056 0.0014959528224948446 -0.0003404577811031897 0.4156714100484048 0.07768796285642272
60940000.0 0.8581533903865959 -0.5048395127325027 0.04975406151757332 -0.183713655410439 0.002549981307493134 0.0015468204181273298 0.4116956106026848 0.08066213143875225
61939000.0 0.8560367872220144 -0.5111447118445146 0.05131955212346574 -0.19315130042704057 -0.0005694289048449019 0.0004854423691851956 0.4216193279863221 0.06921621197755704
62938000.0 0.8496530907598056 -0.5219237438767369 0.05323394183902844 -0.20849610044247577 -0.00018527381945291762 -0.0015677755453907705 0.4378826010417302 0.06448000303480848
63937000.0 0.8455325108764661 -0.5291674931436537 0.05197334832655731 -0.23017670218492217 -0.0038126671012204422 0.0029741242839819767 0.436967803323201 0.03778508191265878
64936000.0 0.8394969476825318 -0.5350451955645545 0.058309175408022 -0.2436202970168876 0.00017343229057129262 -0.004459715990322882 0.43145608144833375 0.05061958552071316
65935000.0 0.836172690217804 -0.5467440173371084 0.0551878032608184 -0.2564180145603175 0.0015813058035837183 -0.0018489398455743366 0.4385643038964515 0.02355048561479211
66934000.0 0.8320338389233687 -0.5500708708734192 0.058152753434829535 -0.2713988881281534 -0.0027175845750933157 -0.005329671736572045 0.43468513827836996 0.012409740655000591
67933000.0 0.8277316130122583 -0.5599299234664324 0.05729080940570647 -0.2828388160559456 0.0009946434798290607 -0.003960966680216149 0.44761027432524036 0.012445877651779355
68932000.0 0.8106464515953983 -0.56034210482507 0.049322190524508425 -0.29429461975182974 -0.002527843716154671 -0.0013113479149323203 0.4553414987791338 -0.008776290837368809
69931000.0 0.8130652848819853 -0.5754879925600325 0.052381328357333716 -0.312651811253927 -0.002736421994303686 -0.0005830061656921295 0.44961546584591855 -0.012318430166529708
70930000.0 0.8083516886781164 -0.5822774800146727 0.053682768668340805 -0.3261008298074407 0.0011425970162471464 -0.002541445088247849 0.4415751508984112 -0.029321987445180962
71929000.0 0.806989193821309 -0.5910935983823831 0.04520618848974206 -0.34230547478272955 -0.0029335911166216574 0.00028730857042994157 0.4538929703914214 -0.04106963245345972
72928000.0 0.7990853629398432 -0.5986042910707365 0.0434186439491687 -0.36139424918239266 -0.004443814648088601 -0.0013079636187345537 0.4633329618001483 -0.045757370999132865
73927000.0 0.7928215041376797 -0.606356882691099 0.03814011291664233 -0.37995978845181205 0.0013458024598674027 0.0026512333905212584 0.45279895847981433 -0.04743871194504921
74926000.0 0.7886096478858049 -0.6141214792640189 0.034070394962911275 -0.39811455348785135 -0.0014868336235634443 -0.00040030266092195557 0.4610774014644425 -0.047623455601597635
75925000.0 0.7825535733594968 -0.6190158288382314 0.021298763677255455 -0.41599416420091617 -2.6894870950039638e-05 0.0011080976562576922 0.4676704719580673 -0.06569871054106444
76924000.0 0.7749988267905252 -0.6286007795185347 0.009055492733902212 -0.4384337673254493 0.0007748496054374417 -0.0010556374191309443 0.46303277577154756 -0.08184122236560117
77923000.0 0.7695065225127701 -0.6362108781177068 -0.0018786662309903098 -0.4628732910140663 0.0006245701251023476 0.004301430893837379 0.4594167723247423 -0.08739418875254745
78922000.0 0.7631297139747139 -0.644827406990329 -0.017341331797910964 -0.4872167952922854 0.00446414913805922 -0.003509935267503536 0.454797413938093 -0.10330827770911155
79921000.0 0.7561925384111683 -0.6497789077580725 -0.035132225232821 -0.5133052830936288 0.0014696429532737945 -0.0025794953570597253 0.45821670015977145 -0.1143472784271234
80920000.0 0.7510399492526155 -0.656561629538788 -0.05078590091496109 -0.5363076180043184 -0.0016896487858060832 0.0007928454740868671 0.46531296817110346 -0.12409820633996954
81919000.0 0.7457728749247237 -0.6644531056256058 -0.06676303026434725 -0.5694603835561539 0.003506894154618894 -0.0017359010632233142 0.4615601071136792 -0.13424187395223972
82918000.0 0.7372444842665905 -0.6724796531810379 -0.07886606873645581 -0.5982179468973298 -0.00022489402859880977 -0.0014717312208843017 0.476685200300414 -0.13994818193729489
83917000.0 0.7291324668075585 -0.680369069121403 -0.10284578127199688 -0.6271341103620123 -0.0001532950909395123 0.00021833204032355546 0.47603722655199315 -0.14342560201960575
84916000.0 0.7248202019464334 -0.6872061897824637 -0.11855387452762696 -0.6649656228787227 0.0030200966836108007 -0.00013675730156757697 0.4634320365304623 -0.16577804213534506
85915000.0 0.7186802801011073 -0.6923441928829865 -0.13674388271881568 -0.6938239571476202 0.000916024177672996 -0.005595809260217374 0.45968862619495715 -0.16841821100757765
86914000.0 0.7109246001311003 -0.7035510555527831 -0.15209111928632396 -0.7312161334675495 -0.0015191494405096932 -0.003476703457572861 0.4637537215578971 -0.1787752022155211
87913000.0 0.704700772453421 -0.7087745656049966 -0.17116039035172564 -0.7589211933340938 0.0013021550426549873 0.0006122054316095117 0.4514491193867584 -0.18630536717690213
88912000.0 0.6960089780976801 -0.7174656939027977 -0.18580425101858813 -0.7954245346099285 0.003468558673978284 -5.5862897445516706e-05 0.4613088254787044 -0.20845926594771041
89911000.0 0.6892469669814025 -0.7246420518096762 -0.20285335423185719 -0.8322267575179764 0.0012234779836064775 -0.0049520353905136046 0.4668733111651199 -0.19695182915301182
90910000.0 0.6820890830500487 -0.7286996786564022 -0.22019953736513917 -0.8643026238732465 0.00303946906114756 0.0016677200038456002 0.46843776444576324 -0.21400805786244517
91909000.0 0.6742179198588277 -0.7359963231091818 -0.23988096787468433 -0.8972016972462239 -0.0014414898049361165 -0.0007909555207603251 0.4627561835762874 -0.221940830896231
92908000.0 0.6647120560246791 -0.7416831613839185 -0.2552500852290141 -0.9321015735007537 0.001431467025816696 0.0011277096046409742 0.45485852944574884 -0.22544114521411304
93907000.0 0.6582217634440664 -0.7486093070077232 -0.27499091866470415 -0.9608536167543639 1.8317308011825048e-05 0.0047016016315680345 0.4655991877581481 -0.24290330394614382
94906000.0 0.6478959484310257 -0.7562372546890702 -0.2903797345803033 -0.9949566683042396 0.003491998406687211 -0.0011347863027874369 0.45579595253835864 -0.2493689566157951
95905000.0 0.6388487878402734 -0.7635398607270045 -0.31034572234081953 -1.0275921344763959 -0.005419382692283499 -0.003899435498514889 0.45559653561743396 -0.2631048069028619
96904000.0 0.6321154827161938 -0.770859567677196 -0.3286002242030174 -1.0677107476178773 -0.0018482376915665388 -0.0036818738192356333 0.453634965721514 -0.27093910219796774
97903000.0 0.6220545340302925 -0.7761165418004925 -0.35244690786059707 -1.1000158979739811 -0.004368195222772397 0.0024250671942749155 0.43968251193416763 -0.28043600387835466
98902000.0 0.6182880892711697 -0.7848321672621515 -0.37074312656842145 -1.1407347039089637 -0.000667398629040397 0.0012051823755925902 0.44783538304685305 -0.27599495394713003
99901000.0 0.6065438641615885 -0.790049934781295 -0.4001286016732719 -1.1669587062239999 -0.0030870161564965914 -0.0016432081680447584 0.4581285406882379 -0.30677058194172657
100900000.0 0.5990479470953523 -0.7921836400544032 -0.43060955246770594 -1.1972134751578607 0.0018263715708616592 0.0012333557579418501 0.45450316326922896 -0.3114779572590405
101899000.0 0.5896279060625222 -0.8022618665481522 -0.4571799017542417 -1.2369748917908487 0.002426694514549869 0.0017812570573203564 0.4448157786957602 -0.31503228469521094
102898000.0 0.5805759453045554 -0.8078034966387072 -0.48911817885291264 -1.2752047685025376 -0.0027012013801525417 0.0009944524350425231 0.44919938647751206 -0.3281330114042578
103897000.0 0.5736309831256005 -0.8154176888946898 -0.5246748061307721 -1.310388105684967 -0.004017215953567308 0.0002104731761657774 0.45265840345243147 -0.3258662678905195
104896000.0 0.5655753434447944 -0.8251430536290679 -0.5708893218468382 -1.3407657921465097 -0.0013069318597331648 0.0007638886820593766 0.4371037779064271 -0.33844172395986993
105895000.0 0.553821435532085 -0.8272937446216917 -0.6167974579281108 -1.3791806434917873 0.0014160828227220608 0.0008087944100891899 0.4255345926610735 -0.3575854621943882
106894000.0 0.5476905438703317 -0.8343952065178828 -0.6635175842131126 -1.4246400017042884 -0.0025769621709693675 -0.0024424410462062017 0.42307332785860646 -0.3565002855421635
107893000.0 0.5386441681364464 -0.8396718626758881 -0.7154710152399413 -1.4599169264980552 -0.0010236054169849376 0.0010434719643229963 0.425817393170107 -0.3752413310055471
108892000.0 0.5286642742085723 -0.8428839702708336 -0.7701691650344693 -1.4962921870764776 0.0014374605175185282 0.0015984975112821932 0.42004836084471886 -0.3614084535697317
109891000.0 0.5166054936884813 -0.8508323777524458 -0.8300340847093934 -1.5279514168927755 0.002786103988066929 -0.0014884740767905748 0.4379937531202781 -0.37282148153454475
110890000.0 0.5140033928176017 -0.8589141535921936 -0.8847199554375604 -1.5524439844807802 0.0005424966223773032 -0.00029307753380670054 0.42756425203247483 -0.3749361313929485
111889000.0 0.4985164319427422 -0.8582817798812213 -0.9501813521736052 -1.6027575059819683 3.5764454467444185e-05 -0.002028761963066551 0.416667407960406 -0.39423321072248163
