! Created with skrf 1.9.0 (http://scikit-rf.org).
# Hz S RI R 50.0 
!freq ReS11 ImS11 ReS21 ImS21 ReS12 ImS12 ReS22 ImS22
1000000.0 0.9726401424735848 0.007010634428295589 0.012596115265351062 -0.04106310749665678 -0.017600089453841707 -0.0008928392958707452 0.29179268781477136 0.3430849013973529
1999000.0 1.001060330868141 -0.013018664749436281 0.003137763064986471 -0.011704850331760193 0.006520541100865496 -0.0015880528470185694 0.2419032326258292 -0.002163185207712123
2998000.0 1.0000072211557693 -0.02036297488473326 0.014116459149940929 -0.013075929940468824 -0.005069867194398087 -0.0034477898655466336 0.18510263746638603 -0.12738342661424865
3997000.0 0.9970717892928426 -0.0370466368732625 0.00950811318090041 -0.012139222199139774 0.00108265782744055 -0.0047877263594718646 0.10547580843760604 -0.21559305227078499
4996000.0 0.9927835204635475 -0.04180751542360774 0.009398604942684722 0.0016643691899162047 0.00044643681915169383 -0.0019203081693349943 -0.02749728084473176 -0.20091428474477854
5995000.0 0.9929282320112021 -0.05034251763786119 0.009887876394825306 0.007097244925431029 0.0026797868767522593 -0.0037701881382480595 -0.11318637634356594 -0.11602772388620167
6994000.0 0.9901697013483195 -0.05950017185302646 0.006670298663354642 0.006498022687083301 -0.0007825956694880454 -0.0032402495495976167 -0.14341952076002878 -0.025257262151778724
7993000.0 0.9928629781742094 -0.06946320053560191 0.0011623726760702357 0.006013857298383901 -0.0054791855002127255 0.001970098662924937 -0.17289591946080382 0.030713014652639297
8992000.0 0.9902541556412564 -0.07365962262476237 -0.0018118510762049312 0.00690393562268327 0.002358698157975646 7.546596129850153e-05 -0.15997188216906538 0.05568511703764895
9991000.0 0.9895527305531158 -0.08412510157517089 -0.0012684934545115715 0.004349976803554394 0.004131176172636203 0.0009499052045166889 -0.15492328383813514 0.08524094231094946
10990000.0 0.9864204010617552 -0.09349959344385421 -0.002058440982307315 0.007609256003536595 -0.0029462284024451084 0.0022976268645769587 -0.1401773024407527 0.10114840516010992
11989000.0 0.9872630634470543 -0.10319822201538943 -0.0002674644052766143 -0.000507708492797813 0.004344201028585497 0.0011729902228649295 -0.13124974063792827 0.12960556880194832
12988000.0 0.9849432767529042 -0.1068986633370683 0.0019964470500648383 -0.0032477868421414923 -0.002254628951099482 0.001514026701932317 -0.11949465580145062 0.15841897095958185
13987000.0 0.9846969467889013 -0.11856596866139803 -0.004569328194184011 -0.006753975006670893 0.0008480962818111926 0.0014227411941273897 -0.10818923247616011 0.20004439370354615
14986000.0 0.9833088548330189 -0.12574882450336056 -0.00023648368932586744 -0.0025562028728142506 -0.0011712628494985782 0.003156072104671322 -0.09121782189840004 0.20210307235260372
15985000.0 0.9842829173579711 -0.1328714217816661 -0.003480861299768009 -0.007112402922963333 0.0018759637280894405 -0.0016597418273312167 -0.07077476136049161 0.21092723160506197
16984000.0 0.982213480827895 -0.1426231089899193 -0.004789733621785535 -0.0018986271098973637 -0.0026663355150365153 0.0016419535071843423 -0.0551610299719163 0.21232027491880595
17983000.0 0.9797707924971658 -0.14974511083663408 -0.0014543522323623795 -0.004999656610350611 -0.005108980799255653 -0.004297956991890108 -0.04618410315460456 0.21634038458368063
18982000.0 0.9785446547569264 -0.15801487735225264 -3.4935263359549355e-05 -0.008019532320677996 -0.004811869980647226 -0.0003229022931508371 -0.021576807519294167 0.2265527474398078
19981000.0 0.9772941558605754 -0.1659886093705384 -0.00567349671451053 -0.004285611112109709 -0.001290440966470949 0.00015886353215739324 -0.019534852294627404 0.24237787889819298
20980000.0 0.9766447652760475 -0.1764072463899773 -0.003941548715214903 -0.0048169937425937915 -0.0004489569579603703 0.003468748852039878 -0.010930562877906768 0.25768680350591444
21979000.0 0.974061446014549 -0.18487549876618556 -0.0036017147320631135 -0.003793461958612415 0.0015244469092922147 -0.0009326884398202941 0.004496248716554117 0.25064494892360084
22978000.0 0.9739802243377554 -0.19345173921930853 -0.005796122496134778 -0.001897360460692789 -0.0011937470021157772 0.0005716139413175599 0.02222794901850714 0.2480725622568539
23977000.0 0.9743612386792484 -0.20027292358289697 -0.007306556176753451 -0.0005125279467404616 0.0037456421801420237 -0.0015610316742593374 0.03474024620520025 0.25329618534940884
24976000.0 0.968577841426169 -0.21085382349680806 -0.007284103121129331 -0.0065967496752002 0.00023184082161227054 0.0018600479336388475 0.05327190482806872 0.252305748266323
25975000.0 0.9638811414185291 -0.21772245387812816 -0.006153734843162993 -0.00225274955557464 -0.022532459403046195 -0.006589224468643871 0.06852480705927334 0.260299015312197
26974000.0 0.9654994548424571 -0.2272129696978542 -0.005595730348110191 -0.0030351872206733146 0.0014585007045385806 0.0017084035679430269 0.07757764586468106 0.27417076368142196
27973000.0 0.967254171751865 -0.23245488862704858 -0.002423599696368314 0.002298092630914476 0.00029954759626631117 -0.001344989019990526 0.08785640580701627 0.2553778151313909
28972000.0 0.9641738177763718 -0.24088458324379264 -0.0014054965354866117 -0.0037104262389562647 -0.003355549011828348 -0.0010526746910830512 0.10640742196218925 0.2562303802291223
29971000.0 0.9614767146905018 -0.25219685108454326 0.00012720667095718636 -0.0036401387288745824 -0.0002454978988505733 -0.00014956823659104115 0.14653788338688153 0.27427899213299717
30970000.0 0.9611757676652544 -0.256740389839832 0.001964397691131239 -0.00038462662956984314 0.003593127153765702 0.000748211369956767 0.15140905434484192 0.26562287861251843
31969000.0 0.9579377532067762 -0.26656952950806956 0.001291647579624567 -0.0041912971258847775 -8.798929853105432e-05 -0.002960001338034835 0.14076854390460836 0.24583229532544407
32968000.0 0.95603348898504 -0.2753238970069463 0.0031699412659448043 -0.006869756142816151 0.004168130973634192 0.00212972503873887 0.1554131304809896 0.24913092319521257
33967000.0 0.9539199312586064 -0.28683338985127876 0.009060065489834493 -0.0110281353845521 0.000299725995132975 -0.0032663374180904132 0.16736780176777055 0.2477564900147406
34966000.0 0.9509743770105553 -0.2959567972819451 0.013853865719550558 -0.01166936149172961 0.0010162036638639467 -0.001825256925189024 0.1867905704157097 0.250004614086968
35965000.0 0.9476471754511557 -0.30267349692935863 0.013468953281221108 -0.014430255168509085 0.0013561348200761849 -0.0005664724307298051 0.19970620475439083 0.253034680513556
36964000.0 0.9465478700891571 -0.31087592146333937 0.016358870000828526 -0.015553110088531894 0.0012617928400718435 -5.6578360345905444e-05 0.21102149787421373 0.25791842660020087
37963000.0 0.940839552162432 -0.32201516196725016 0.023311155764010116 -0.020938127528651124 9.295927257506155e-05 0.0008824707601633696 0.21989363081357435 0.2386504272102262
38962000.0 0.9396197106729147 -0.3306173672207013 0.020851833245608586 -0.02531895905023215 0.00016418440071948366 0.0009660862558805937 0.2288116949882744 0.23584972201508506
39961000.0 0.9367669474799585 -0.3350147203408839 0.02635727406708401 -0.026575898906201097 0.0004833508080278214 0.001339965145300374 0.23864047199360008 0.22817318385969845
40960000.0 0.932444004626878 -0.34630100640395267 0.022484802079646263 -0.02419128495634606 0.0007420915662233674 -0.002764154872391406 0.2592184987990189 0.23290492963735873
41959000.0 0.9308717897206903 -0.35554902684608625 0.02878141740779159 -0.03008328168083514 -0.0027074174537525635 -0.003767539556158102 0.25182629157394604 0.2156218346321029
42958000.0 0.9256492112959476 -0.36359687438314175 0.03236465072963512 -0.04099823380767432 -0.0032236648198876697 9.353236663101535e-05 0.266408201875454 0.2058552607792362
43957000.0 0.9240236648372693 -0.3706504814157159 0.03200129740104699 -0.0460448627550321 -0.0003329254599196011 0.001158821129953334 0.27562352192289385 0.2088959468175963
44956000.0 0.9223019098782825 -0.3752037731644931 0.03351519743929909 -0.05028362774755616 0.005231083877882729 -0.000818382879986737 0.29521725976702956 0.2034228124858326
45955000.0 0.916668739312654 -0.39033171184512994 0.0381529621836515 -0.05860058182768205 0.0017015711592415813 0.00188831565767942 0.2855797601479946 0.18956670439139334
46954000.0 0.9132892823668094 -0.3970658863638607 0.03929963769890186 -0.06387708927608593 -0.001954232729174972 0.00131392693595243 0.32017272857049683 0.18849707952306038
47953000.0 0.910400997954924 -0.403668387284264 0.038067404280786296 -0.07204489036818068 0.00045023307370976244 0.001614024008420835 0.33325364172281313 0.17482544533185934
48952000.0 0.9028268534945642 -0.41710182199207024 0.04111044755457959 -0.07974173624120658 -0.002094620740744178 0.0012359334612527938 0.31929010209274544 0.17422235575150566
49951000.0 0.9009912007439737 -0.41960643986470536 0.037456112401091576 -0.08819542017393417 0.0017386956964189602 -0.0005055783648606683 0.34344960504824046 0.15699280752062375
50950000.0 0.8971152054893757 -0.43005011174252156 0.04159909486911238 -0.09430556551598951 0.0017431155927952141 0.003729130773176799 0.34379604805044983 0.14929901050540423
51949000.0 0.8932505612467039 -0.4379641305511769 0.04235374795420205 -0.1037271264001463 -0.0005263316329000319 0.0004564961773660171 0.34869952412877026 0.14436994458116684
52948000.0 0.8899223804585011 -0.44848595719272505 0.04204102129701906 -0.11304995912844723 0.0005154547896445631 4.905924432397214e-05 0.36447991369220534 0.14573578791402803
53947000.0 0.88447015790271 -0.452665364766905 0.04695660003578806 -0.12205767433835953 0.0005776391973699544 0.000155889109006354 0.3603555482295636 0.14035252910144028
54946000.0 0.8798016791340552 -0.46137906224914127 0.04865761707035239 -0.13460967247952485 4.1596382271688845e-05 0.0017552557185771841 0.37267135260890344 0.13124698022297648
55945000.0 0.8768426184907562 -0.4698913787762809 0.04711087595021129 -0.14150302575720353 0.00023241607757271704 -0.002168340754027144 0.37889679257576164 0.09864707395072737
56944000.0 0.8731153354284007 -0.47949044793900886 0.05164263546328972 -0.15291174060956134 -0.0010326590756175897 0.00030189824307144496 0.3877183568104019 0.11512700522032995
57943000.0 0.8663769091142509 -0.4914256527681853 0.05160634923466071 -0.164842942772538 0.00031240805719381215 0.001986234749918646 0.3977664742884875 0.10020504125015872
58942000.0 0.863639696428126 -0.4934711873235703 0.0507657892316346 -0.17404627515706636 -0.0004192542233096125 -0.001522792370179879 0.4126813164023563 0.09052098191595297
59941000.0 0.8594667909071471 -0.5025198123077044 0.053843447007792325 -0.1871507094384605 -0.004111794398971477 0.0009414357254145354 0.40406068845521853 0.09204672145353597
60940000.0 0.8508199871813974 -0.5101070228144743 0.051849089059085085 -0.18823272523669485 0.0009157069542582223 -0.0015640252772967352 0.4021213641491176 0.0790831235502418
61939000.0 0.8478152939786867 -0.5181365376286766 0.05240206522767874 -0.19813440862990989 -0.0007461074746898947 -0.0009824397846875238 0.408715464572233 0.07453326326321515
62938000.0 0.8427826384792676 -0.5267652035536555 0.05913170945514382 -0.217270020670875 -0.0003126044864196952 -9.956826360602356e-05 0.42908881817645894 0.05900893375023634
63937000.0 0.8356084103482374 -0.5366435138714448 0.057360834437494554 -0.23739598567567302 -0.00156353219633619 0.0010715130104297053 0.42088261824707124 0.04589652373470256
64936000.0 0.8298656110193322 -0.5412899925414384 0.056494772562615765 -0.2488013908604578 -0.0017903091334858828 -0.00178888125244719 0.4247486128096378 0.044722562315327674
65935000.0 0.8272639203539208 -0.5521749828819316 0.05809337236082221 -0.26342434584371066 0.00012185254921047373 -0.001305257732348393 0.43317173514385704 0.016795346371496853
66934000.0 0.8225948968055173 -0.5548114314418191 0.056192679628131584 -0.27331951761784257 -0.0008277032830408266 -0.002261283660442545 0.4263477127802931 0.020871967411201935
67933000.0 0.8200858306161188 -0.5649767757985018 0.05663876399061658 -0.2927516252954119 0.0017210130321223668 0.003307568441176233 0.43542342633138564 0.012981439460874792
68932000.0 0.8150625675282632 -0.56642365581271 0.05255331503549475 -0.30588817786835115 0.0019164223213039976 -0.0039018939059394984 0.44676410910805264 0.0013833322551173842
69931000.0 0.8028016702747665 -0.5827313334985902 0.051215881526448195 -0.3231934153418953 0.0019385897181343362 0.0027086900939280287 0.4364494372679008 -0.009787490527337642
70930000.0 0.7996778914835906 -0.5875710622940503 0.0492684567007451 -0.33714973544656207 -0.0016148438228546834 0.0018822246113012317 0.4336304456483121 -0.026848831348985042
71929000.0 0.7946440528941611 -0.597332947134127 0.04897379538774846 -0.3584896088295014 0.0003012574243712905 0.0005299021031305463 0.44539698493041824 -0.04013346117870649
72928000.0 0.788209799830521 -0.6066894424902497 0.040092526440426615 -0.3725111678350641 0.0011957781084138306 0.0009962716865691012 0.4520439213927894 -0.03908211686423399
73927000.0 0.7826962115613265 -0.611553753915833 0.03488018790098154 -0.39308144647515714 -0.00031789418296808967 -0.00334523260056697 0.45216663673557816 -0.05224264135929262
74926000.0 0.7780610751669619 -0.6218007743112187 0.02857241434396464 -0.41393698785517635 0.001059362922886483 -0.0008014754500640724 0.4548005738236378 -0.05405944694592935
75925000.0 0.7682646097841047 -0.6272311945034921 0.011842635434701414 -0.43323634879498596 0.0020420158038146467 -0.002183352770917064 0.45853893896820364 -0.06327947167924265
76924000.0 0.7631443661886013 -0.634724411992794 0.003920835478134935 -0.4549971465767268 -0.0014571750095806147 -0.006575027391909004 0.4625745188429231 -0.07884708470982382
77923000.0 0.7571947659803445 -0.6409763837810027 -0.010265087361374006 -0.48071874521611213 -0.002769508543153502 0.0004728928315419538 0.4542808780934753 -0.09076403232349843
78922000.0 0.752209756225806 -0.6502754538491464 -0.024736901635442433 -0.5095741017785721 -0.0009518018957807067 -0.0012648632264748046 0.45709265243901354 -0.10867142239920836
79921000.0 0.7442301014107487 -0.6535119908702111 -0.044235017214102265 -0.5329925132758978 0.0026998424332381216 -0.0017877336408108615 0.4530359855224512 -0.11230733323653165
80920000.0 0.7388315879412046 -0.6648362942847496 -0.06102289320957921 -0.5613544123656038 0.00038638158178246355 0.00525568377623305 0.461835512288689 -0.11968839241565643
81919000.0 0.731541741390964 -0.6688429251645531 -0.07491003775027946 -0.5895710070417741 -0.0036228298185404036 -0.0016803630087259436 0.4551884326474369 -0.11674695360894784
82918000.0 0.7247815632818427 -0.6776786967042185 -0.08808369484456331 -0.6240355292854165 0.00019548945893579136 0.0021646122334806274 0.4638000267042759 -0.13724755624459395
83917000.0 0.7165591152849641 -0.6867978390705882 -0.10902501108742764 -0.6502191853324434 0.001658517146471513 0.0011683055274028234 0.45987143095777966 -0.1441346963289689
84916000.0 0.7101288129147838 -0.6940496870500266 -0.12682942860899774 -0.6844425994367351 -0.0036312779047956547 -0.004555940692573036 0.4649872344405275 -0.15918510822419893
85915000.0 0.7039019594422886 -0.6998403548119432 -0.14721433752295127 -0.7144831873827953 0.0001848339291796386 0.003267188331141781 0.45588862028710847 -0.1761122378419986
86914000.0 0.6944838044252918 -0.7099427718633193 -0.16163612085439827 -0.7528506914011186 0.0010337087647124099 -0.0001761440151147462 0.4605676977744675 -0.17403914817283708
87913000.0 0.6891458625565279 -0.714180319032399 -0.18138844825276892 -0.7799180700102112 -0.0035311088488066086 0.002391414189277898 0.46132787669126957 -0.18564891917144238
88912000.0 0.6835416150943782 -0.7215741216827062 -0.1945222429245505 -0.8179056387332233 -0.004141509874600818 0.0012488994229256098 0.4621473858114424 -0.20120579860592935
89911000.0 0.6774125393835967 -0.729419020379142 -0.2081658837302258 -0.8524460991545532 -0.00341138625769557 6.805853076445054e-05 0.47315793148572505 -0.2003833151466207
90910000.0 0.6686287693898573 -0.7350884588402983 -0.22873650739502585 -0.8884834826971886 -0.004922508550533798 -0.00026254722581404527 0.45854738973186737 -0.2091510668944601
91909000.0 0.6604102130057091 -0.7393608310262006 -0.24645342810658957 -0.920961975558443 0.0020711988744007517 -0.0024907482674250848 0.4674639087867193 -0.2173383726814982
92908000.0 0.6523820649321073 -0.7486457344972453 -0.26548212730644744 -0.9529361355336691 -0.0003921931044981045 0.00020647902330294692 0.4594485765673369 -0.23227819139611014
93907000.0 0.6465552211003509 -0.7523775824025303 -0.2848420608397014 -0.9884525249629301 0.0019575143399934874 -0.0007396970246289101 0.4619096357296027 -0.2414235862341244
94906000.0 0.6345750789444538 -0.7607663208894307 -0.3030829914123931 -1.0202144303706526 -0.005448482658353419 -0.00015909961548056859 0.4569103023421314 -0.25474366165151596
95905000.0 0.627982538261389 -0.7663247261525515 -0.32554155435711807 -1.05709288863503 -0.0008934728610343249 -0.002842065929969806 0.45233692421151384 -0.2656386716949683
96904000.0 0.6200245306770289 -0.77584910913639 -0.35016190078278575 -1.0931029539984722 -0.0007435628573304252 0.0037392885931950494 0.45686548598768684 -0.27196244905176653
97903000.0 0.6103565083662181 -0.7807429454980678 -0.3728000850824854 -1.1248812387476697 -0.003131321802036936 0.003380511377319733 0.4509572851440214 -0.28859804469284567
98902000.0 0.6051061452793963 -0.7867574048886417 -0.3924049134609921 -1.1637331030269231 -0.0036120272395344264 0.0053367940331027685 0.4477052329049101 -0.2883680505648297
99901000.0 0.5939293918253451 -0.793273037166886 -0.4194094292558575 -1.1966969503743525 0.0006815184140749338 -0.0006631046648379025 0.4664778949725452 -0.30483783591933444
100900000.0 0.5860920911559245 -0.7978031730599192 -0.4533169289950995 -1.2253994199731173 0.0008010197618930125 -0.0004326322977967107 0.46720673799768425 -0.3124611831084995
101899000.0 0.576256589420273 -0.8060046908788528 -0.4878505191643505 -1.2634645095292838 -0.0024029478852895963 -0.002219469135600281 0.44489590640873844 -0.32279002748187097
102898000.0 0.5690617979800062 -0.8097716173537837 -0.5194826027446486 -1.3058688303756414 0.0015664529486835606 -0.0009507984797845328 0.4552323481900042 -0.3366647734860521
103897000.0 0.559766066872258 -0.8178515423934609 -0.5643316883719721 -1.3352643880233004 6.763360781716061e-05 -0.002300607678444683 0.45535632351454364 -0.32249312177985795
104896000.0 0.5530930040588148 -0.8271214220573639 -0.6043542974085633 -1.3675238769410212 -0.0021864106036572164 0.0010306786313469814 0.4376797706276946 -0.3258423927749252
105895000.0 0.5399631614009629 -0.8294838486793324 -0.6569554706561334 -1.4102728283034383 0.003600128256844462 -0.00220297504206699 0.4386791769968229 -0.34337075960307123
106894000.0 0.5322163504348503 -0.837248475144511 -0.7097380119550061 -1.4489464220771435 0.00027018983145921246 -0.00023672827016654006 0.42966168491330575 -0.35463604076215827
107893000.0 0.5243198702341689 -0.8435969269755693 -0.7642153242416301 -1.4919239792731598 -0.002159473240554473 0.0011408001123023972 0.4357699008249481 -0.3673324997669209
108892000.0 0.5156695349106972 -0.8450362010334145 -0.8223373369805196 -1.531657088648692 -0.0013352493558586452 0.0024599436733752813 0.4247802186109633 -0.3670887533741972
109891000.0 0.5038488625245792 -0.8556293510473374 -0.8832704862448293 -1.5648764874995158 0.0005463648243406741 0.001900619268118732 0.4359505817008136 -0.37215970777573737
110890000.0 0.49311450887441205 -0.8683471402944489 -0.9575525098848885 -1.585947801572659 -0.00031509837791107313 -0.0007983363046785549 0.42897723512310765 -0.3819121043828462
111889000.0 0.4841114769967107 -0.8611189911766336 -1.0094110213267522 -1.6275697225077896 0.001768923042663797 0.001271126180492344 0.424302606098687 -0.3917245933201826
