! Created with skrf 1.9.0 (http://scikit-rf.org).
# Hz S RI R 50.0 
!freq ReS11 ImS11 ReS21 ImS21 ReS12 ImS12 ReS22 ImS22
1000000.0 0.983732646814947 0.008087286792692541 0.0060630448952241215 -0.015777169664071458 -0.006131935075443996 0.005294653933576738 0.3708307144346817 0.2858022414902716
1999000.0 0.9974194508921973 -0.016284261503595198 0.010323711568056905 -0.01227280781971135 -0.000338226064211522 -0.0012440472384809122 0.26336783326032737 -0.03226376471400071
2998000.0 0.9985113113116093 -0.025393594451759295 0.012614452384846151 -0.01604860226812445 -0.004122142487265143 8.689250027787918e-05 0.19729305681797085 -0.10691681827206097
3997000.0 0.9979086466080974 -0.03093956096707756 0.012383360874494124 -0.00614816363800185 -0.009723030986025123 0.0002861307544660946 0.08020664564896235 -0.2242200216720884
4996000.0 0.9960167217906767 -0.04182501365921854 0.009039251518842243 -0.0009833093051569203 0.0018439258041271984 -0.0020589879973603206 -0.04396143001600002 -0.19381244084152166
5995000.0 0.9936593338150365 -0.05202054384815411 0.010950596096082876 0.004147298612706164 -0.003333934009626815 -0.005004497727989659 -0.11108528238813833 -0.09561611973071048
6994000.0 0.9939547841207564 -0.059387924600044745 0.006262751149430918 0.004081732294602588 0.0016789097192130846 0.0017928493191932894 -0.13379610122838909 -0.010839864419939052
7993000.0 0.9929576008912074 -0.07068071841696051 0.0020277070139829725 0.002552810108163993 0.0012628857848620105 -0.0014932372739097637 -0.15532905685007053 0.06044786667557059
8992000.0 0.9921649543694641 -0.07490327972391805 0.0027978568888845584 0.0062128386546747875 0.0002822918157910709 0.0023197486443928316 -0.16243339248239433 0.0671069787255427
9991000.0 0.9901031974431003 -0.0865152398479557 0.004467794571571238 -0.00021704722942156445 0.0025048603267913507 9.386251433500051e-05 -0.1475009707796281 0.0967068118907727
10990000.0 0.9903907287676025 -0.09394559334091844 0.004171731754731852 0.001537174030180676 2.220136652231305e-05 -0.0021218286120821407 -0.13482481595554432 0.11686552386633793
11989000.0 0.9877835864637163 -0.10405961146803272 0.0031580310554696392 -0.0008746465998415112 0.0005011189904640553 0.0006881531589503067 -0.11969183159520674 0.14232464945112167
12988000.0 0.9879101949479014 -0.11137948663465484 0.0035019311586273823 -0.006551489243579255 0.001239546477021216 0.00011639679088914802 -0.10265184070743504 0.15913775862558638
13987000.0 0.9852410814734011 -0.11902740819711681 -0.00010210993063894637 -0.007519678774289559 -0.00048465919560577655 -0.0019093145938015982 -0.08575583485821872 0.18401747987943948
14986000.0 0.9877482352714968 -0.1277711850850717 -0.0027547214482046816 -0.002815249831063151 -0.0010685757810281755 -0.003090255492026513 -0.0743785680819727 0.20630409429326738
15985000.0 0.9877693522932484 -0.1362052804232523 -0.00029052137516150453 -0.005376666064243739 0.0019863915494082 0.0014248151747646742 -0.07364550308023791 0.21845014264657434
16984000.0 0.9831289261405307 -0.14881710445969273 -0.0009442013460267844 -0.0009792134973258938 0.00024129971309139414 -0.0013331007927501245 -0.05914032179876496 0.22045804114773976
17983000.0 0.98573576210925 -0.152172799145893 -0.0028913728642888407 -0.006848798909017123 -0.004651983411648621 0.0010982834998059716 -0.04801048599764894 0.22853070905477793
18982000.0 0.9798034102188127 -0.16548208156046681 -0.00378687106447538 -0.004548194675543155 -0.002179915935378149 -0.002461286160665681 -0.02119445003933209 0.23164793588750207
19981000.0 0.9788328008376292 -0.17139170816980046 -0.003830823830544692 -0.004598268628726566 -0.0032324012602343863 -0.0009139972066019408 -0.004398097886905809 0.23802042615861713
20980000.0 0.9780881135758236 -0.17762440524794668 -0.0028792245906230965 -0.004658246713297961 0.00040453085244400764 0.0005215090296446693 0.003916789617947735 0.2586022545004756
21979000.0 0.974951739888278 -0.18639984348389235 -0.006439620957948848 -0.0024953366304260372 0.0006961117086519078 0.00044891073816374856 0.0272028069290753 0.25787959515399717
22978000.0 0.9744273431160476 -0.1955324412157748 -0.0035223158731457994 -0.004394980969046982 -0.001492691857179097 0.003231258435286664 0.035921717171436676 0.25059018822864015
23977000.0 0.9766256980297624 -0.20427321617842908 -1.4155429447723489e-05 -0.0006317974604828991 0.0011905477087473999 -0.00314708171342854 0.043277631095190394 0.2543016334336817
24976000.0 0.970232162796914 -0.21695874788637226 -0.01199922791125309 -0.0028115958244749237 -0.0019659857627250493 -0.0036567769559493787 0.07916318035437764 0.25293653969838026
25975000.0 0.9638066105532445 -0.22687320565872626 -0.0039176245045774065 0.0006997092977541671 -0.007383916222371703 -0.026442116385325436 0.08240210632194545 0.2701905295776793
26974000.0 0.9659441902747609 -0.23289523468597767 -0.002229099963220019 -0.0017812194523338534 -0.0005372223467822862 0.0005397573165022714 0.09594833504743248 0.26418398345400435
27973000.0 0.9664049794763307 -0.23865086453719972 -0.0039416724413975065 -0.0036780347028443636 0.001636666938450738 -0.0013017567880300406 0.10368799875196377 0.2696434466083179
28972000.0 0.9627653503946385 -0.24652730214823868 -0.0032744961644696462 -0.0027191064321525882 -0.001313023175367394 0.001271760007960671 0.113719440879343 0.25271778284895113
29971000.0 0.9608213280667759 -0.25814055408632935 0.0023071826869562797 -0.0007414860200794096 0.00010905822247987346 -0.0015668010937452208 0.15894496914551737 0.2658950069244072
30970000.0 0.9599011504523381 -0.2630785586574431 0.0030887640333026076 -0.0012309907443503417 0.0022363125578543194 -0.0008121561251090043 0.17436276487286598 0.24871922474728336
31969000.0 0.9585432942341636 -0.2723151985782606 0.0034782585843152335 -0.0017428931999228718 0.0018960267555264572 0.000776825669772064 0.15470784065316184 0.25561391641582404
32968000.0 0.9548097051838486 -0.280647995166066 0.008097374080505338 -0.00901424530634486 0.0014637462128638176 -0.004006604123896798 0.16936711877355706 0.2435429994546011
33967000.0 0.9534978095894014 -0.2943549391129926 0.009754175128812076 -0.00855154059810067 0.0005358330339803288 -0.0010457905429250333 0.18709972852335785 0.24471667875215572
34966000.0 0.9492543266292038 -0.29992366691499495 0.0132616082129726 -0.012919262818195843 -0.0019886885300349775 0.0026535347630485865 0.19708293201731633 0.24954272052588083
35965000.0 0.947190313553524 -0.3073594109497491 0.01538085573300138 -0.01540408777469794 0.0037411532087718033 0.0024807755788656977 0.21568565460516803 0.24609165635498526
36964000.0 0.945160389719113 -0.3173242765421747 0.015173510878530643 -0.01457447707703821 -0.003998725190322124 0.0008353238900470237 0.21554167600368598 0.246467945401673
37963000.0 0.9404059297411269 -0.3270813312889114 0.024542335689727243 -0.01909019479975887 -0.0011518871063351589 0.0006187100073700238 0.23039898787593027 0.22878476686778546
38962000.0 0.938876993621586 -0.33460676584476307 0.02342946484088203 -0.024012931374779563 -0.0007130054699235302 0.002877821208249068 0.2427133594897572 0.23586982396058193
39961000.0 0.9350122556277376 -0.34376546079548254 0.026940279252935295 -0.027824444561461853 -0.0014755378849744974 -0.0012476807534401526 0.2644342604869504 0.22717597016128194
40960000.0 0.9316475009496749 -0.35118565254182205 0.024036802778011627 -0.023030564140527964 0.0013407755501658718 -0.0004883942106346096 0.2695413060570963 0.22610373832167113
41959000.0 0.9292477908014698 -0.3604708000540237 0.027668060339718643 -0.03083570635412279 0.004847167884167936 0.0014477522969385793 0.27319668455776913 0.21659959161467224
42958000.0 0.9239244929858601 -0.36976261941118577 0.031955156929393894 -0.04057715399627985 -0.0009024539062225399 0.0010061750001628342 0.29073103186682164 0.1929858004093906
43957000.0 0.9214131343807309 -0.37810804909797563 0.02903535329710879 -0.04666933595887211 0.00012225497577901645 0.0006719628043777959 0.29369482729017365 0.20827045875014313
44956000.0 0.9185969074603485 -0.38332173978693634 0.03144355742357534 -0.053936430485899974 0.002073999210388139 0.0005475559077924134 0.31146676638780385 0.18803965232345335
45955000.0 0.914493886753207 -0.3962086111419246 0.032061386726886076 -0.05985673146229298 -8.544443696991421e-05 0.0017092216846761874 0.3146334425689088 0.1946432349768087
46954000.0 0.9104543733568715 -0.40381657335892807 0.034142205461773246 -0.07083321717955539 -0.0024864566089605996 0.0030791326827949712 0.33192617387991 0.18547759672651504
47953000.0 0.9071060234280469 -0.4120271197161123 0.033762459192115395 -0.07331049474693743 0.00023374422608134646 -0.001039941708140236 0.3439827995887831 0.16082757747682175
48952000.0 0.90134495066402 -0.42238463610964294 0.03294703948172688 -0.08039888813086614 -0.00029651653540451183 0.0014070912731218629 0.3384572991276917 0.15930221366694264
49951000.0 0.8973887641723155 -0.4276015465398649 0.0331484656361934 -0.08947439379714235 0.004409062905764904 0.0017818514951330672 0.3628451923564983 0.14821033150484392
50950000.0 0.8954201354042057 -0.436862159115108 0.03482675043940695 -0.0973535217452418 0.0028046934541499256 0.001968979252772502 0.3552635202459899 0.14436589694047242
51949000.0 0.8911828775115646 -0.44516230740170226 0.03608270670025417 -0.10528759552232843 -0.0005086182357323221 0.003688100583073154 0.3635949027513947 0.13921205182455948
52948000.0 0.8884509110220081 -0.4535597947637817 0.034711581181104824 -0.11786578469393724 0.002587097691127836 0.0020756554964302286 0.3756940882300631 0.13237134413830498
53947000.0 0.8809330769926027 -0.4629153001147671 0.036020272424318905 -0.12369775399027197 0.00039043555855983273 -0.001639028095521267 0.3802327456847635 0.11949573166446555
54946000.0 0.8778745353450862 -0.468312564813981 0.037486985005253964 -0.12985543454309437 -8.907853427769662e-05 -0.0028182825085053017 0.3872165431583454 0.11225155571889069
55945000.0 0.8734168722802806 -0.47988789196345827 0.041253414076636366 -0.1447084706186254 0.0006293140626126191 0.0006396329496781732 0.3888865108681701 0.09791729598564589
56944000.0 0.8681714762125285 -0.48859684794415015 0.040655037409810066 -0.15494179018165805 -0.0009723934276284704 -0.0018116499852634212 0.3985533195729187 0.09635842444860204
57943000.0 0.8623333882764832 -0.4990040266857575 0.042483374500478566 -0.1638304020871953 -0.0009558998739693932 0.0009743540170293845 0.40232295402628193 0.09697738152691202
58942000.0 0.8566440231750306 -0.5038267035702827 0.04130063713855564 -0.17332079052946694 0.0006603102453706084 -0.000726382977669223 0.42217662056057165 0.08504445811494765
59941000.0 0.8548430584900586 -0.5115860351449814 0.04437229772451547 -0.1835706614200836 -0.00031986801769445447 -0.0021875391678909933 0.4281139227216078 0.09217802479011597
60940000.0 0.8486498779338592 -0.5190162164285872 0.04701230913945603 -0.18971447484410942 -0.0006520232884614855 -0.0010606287714030156 0.41573123796539785 0.0700862771435875
61939000.0 0.8440716057318252 -0.5254650997871297 0.045677098548579396 -0.1962942172118765 0.0003841834953506069 -0.0035242577523474624 0.421625180937323 0.060106525098857735
62938000.0 0.8388132280924304 -0.5359971018514527 0.04933918685322198 -0.21023369048740226 -0.005114858922275915 2.7632431949850148e-05 0.445363257513319 0.0512965093479578
63937000.0 0.8323768806126836 -0.545534794632293 0.048654865490561174 -0.23421711264658995 0.0014577344814631645 -0.00453435080911847 0.43309273579517527 0.04230452232859446
64936000.0 0.8269596002617232 -0.548916135634553 0.04971361717159543 -0.24927631912118337 -0.0008399558961818725 0.00038186849132955115 0.4402096880686115 0.03758732886460218
65935000.0 0.8238174504471217 -0.5587113031144118 0.04566693639064675 -0.26151796435798175 -0.0010434513683831544 -0.0038818364071428004 0.43781776227827507 0.01301066403546765
66934000.0 0.8189998579430093 -0.5661854935384079 0.0468915689929637 -0.27169673571248165 0.0005618040255152069 -0.0013322741503699262 0.4343814222082234 0.010218243126934768
67933000.0 0.8147547668443799 -0.573194862745088 0.04836095014565972 -0.285314234156831 -0.0002857895732953557 0.00017416896923866347 0.44536315996543974 0.0018701819184517206
68932000.0 0.8035215482061321 -0.5664301370314088 0.044194656540312065 -0.2951185623296743 0.0024267765465841966 0.0021543720830787053 0.44952470079831525 -0.01969033456889911
69931000.0 0.7999486488925617 -0.5896571923617697 0.04112091263751278 -0.3110618383882826 -0.006718381218505127 -0.004030544208867774 0.4476763114150707 -0.021281876167449455
70930000.0 0.7956152067271824 -0.5971819175405957 0.04312223053598601 -0.32741115792509473 -0.001897875895798694 -0.0006070549255465322 0.446173456393568 -0.038132220166374756
71929000.0 0.7907382817413304 -0.6049067183018951 0.03557150056840252 -0.345030316329989 0.0009144064064708618 0.0009529947089407397 0.4612101678622869 -0.05410079646226214
72928000.0 0.7835984331425836 -0.6155010336217869 0.029067661137258387 -0.36136167168166783 -0.0008764440081357336 0.0029212496996694703 0.4625720035807119 -0.05249042634210442
73927000.0 0.7768482285911094 -0.6214635825813576 0.022464810692369996 -0.37996995760864055 0.003378347380506489 0.0024529803477045926 0.46328770416687853 -0.06306889896884868
74926000.0 0.7694170229127899 -0.6311215451820825 0.014782037828159952 -0.3987184152324255 -0.0022404116880911868 0.001144037479440424 0.46177226209435535 -0.06679989709087869
75925000.0 0.7654523866228051 -0.635017298849765 0.007034046548568659 -0.41712293817481744 0.003790049165601515 0.0008482994073581907 0.4655567677474847 -0.08139916258484846
76924000.0 0.7566299898394041 -0.6445199345812536 -0.006207277571444621 -0.4417073703910667 -0.004153962002105233 -0.0005514038750996236 0.46514472076799646 -0.09625501508837109
77923000.0 0.7514137971983783 -0.6499487429435604 -0.024205609804058205 -0.4623777028393818 -0.005806235360253528 -0.002048508258548543 0.46567925613434713 -0.10188671068967316
78922000.0 0.7449965967597392 -0.660073085221937 -0.037874952184542766 -0.4912587604558097 0.0012018845413141741 0.0010110181849002605 0.47112928445353275 -0.11523822822007543
79921000.0 0.7370810391180495 -0.6634458598715169 -0.053754140203692465 -0.5171258412997379 -0.0009646079675675739 0.0019525475008895824 0.4600625261333762 -0.1324337446415244
80920000.0 0.7320049856493102 -0.674873883345291 -0.07404684301542602 -0.5432344508740667 -2.546929220966445e-05 -0.0011454268220726014 0.47183157498401895 -0.13308365898975022
81919000.0 0.7261981951026558 -0.680738155724097 -0.09109068574318532 -0.57141035926892 -0.00020494720059744558 0.00208842503339905 0.47117966525124827 -0.14745841768689108
82918000.0 0.7163217747579775 -0.6871124596931577 -0.10557741314339 -0.6003700165489196 -0.003590005261597199 -0.002189278581223601 0.48150918466694426 -0.15471106497718423
83917000.0 0.7084887294020875 -0.6939354522361686 -0.1283464389054382 -0.6271329851238034 -0.0035067056885243284 -0.004204937758596566 0.4761967369575817 -0.16227281905467644
84916000.0 0.7041474514069826 -0.7018597866340904 -0.1461062357666945 -0.661797597100569 0.0018928719486251174 0.0029612619483267858 0.4707568821226205 -0.17131600920576326
85915000.0 0.6956197849843455 -0.7089674956155134 -0.16467291318419516 -0.6904161875307027 -3.783887983217046e-05 0.0019467523468007036 0.47176849325709924 -0.1827402275415195
86914000.0 0.687012463492433 -0.7205666323040908 -0.1773415571927822 -0.728047057666906 -0.0016933595510475465 -0.00018780695152526111 0.4697974973682617 -0.1862412185487363
87913000.0 0.6818021395587349 -0.7250828035901355 -0.19646265074506503 -0.7545974384181428 -0.0010362815487759112 -0.000502662196004035 0.46180467510042394 -0.20028544421248362
88912000.0 0.6738051076395492 -0.7321047212659234 -0.21177269874089488 -0.7909961305227721 -0.0009176344430605938 -0.0023690883641200203 0.46105809830862743 -0.2221254275877304
89911000.0 0.6672745775175392 -0.7395894878808039 -0.22993562573915705 -0.8248578086336713 0.0006415765432274195 0.0004750522325811711 0.4635082910699746 -0.22277355699093124
90910000.0 0.6578841580857279 -0.7457234940035301 -0.2437387320107339 -0.8584775953318757 -0.000876112063420185 -0.0012438012350571236 0.46309306825274293 -0.22091207479280156
91909000.0 0.6501458819218632 -0.7513875559503516 -0.2626656418994615 -0.8902859326921571 -0.0035504898805135765 0.0020503595200283024 0.47336129735478755 -0.23344827563208165
92908000.0 0.6409565334875527 -0.7598222149902041 -0.28216694830421507 -0.9181708892628248 -0.0013731700513515354 0.000854505020394978 0.4566930765776578 -0.24473241561148695
93907000.0 0.635627442630272 -0.76427190548999 -0.3037972529753651 -0.9510151778734249 -0.00171934417431738 0.004962562864411986 0.4686640426802046 -0.25533716912084564
94906000.0 0.6231959876864366 -0.7739157851804851 -0.3163850960953921 -0.9854115840646027 0.004302386277079888 -0.004229357758879552 0.45915612904927416 -0.2742938766478142
95905000.0 0.6162511161316683 -0.7800103621558325 -0.33732868684972944 -1.0136749673052192 -0.0003194433745976605 -0.002604279686822185 0.4599064877339435 -0.2822085351246983
96904000.0 0.6074224324902052 -0.7867204329421489 -0.35761873487247803 -1.0549740918943025 -0.0013983648028231823 -0.003376497687756543 0.45586797005351426 -0.28047204099034223
97903000.0 0.5987544126131851 -0.7923682867462829 -0.37943046190406055 -1.085022716895951 -0.00028386664351779577 0.0012449629614968234 0.45091076317304046 -0.2902483585133707
98902000.0 0.5939461089036423 -0.7995350768241645 -0.40155400498428107 -1.1210736144540572 -0.0037783303951072007 0.0021834670594055375 0.44716754719297247 -0.30308835117572686
99901000.0 0.5829285724621844 -0.8050971494100572 -0.42731737636763334 -1.153859525189389 -0.0012939383201140346 -0.0009660098468263509 0.46345596906003916 -0.3186076602384506
100900000.0 0.576363667378337 -0.8086005622259941 -0.45568250488067186 -1.1810968468341945 0.0016541179443028643 -0.0013527790959485095 0.4550315999599803 -0.3211112204935549
101899000.0 0.5640817299652569 -0.8181136263089639 -0.48870053294483845 -1.215930406817936 0.0040475981968265805 -0.0031391750621853213 0.45099677749943495 -0.33326341231843193
102898000.0 0.5548727283717214 -0.8225517669480273 -0.5225585848120796 -1.247405195607344 6.884283334927764e-05 0.0033100072144298183 0.44366130800022346 -0.343928699623237
103897000.0 0.5464064331639947 -0.8303891782224773 -0.55998986860661 -1.2833423986052792 0.0012794476332656532 -4.3899044863396026e-05 0.453507407885125 -0.3456086966806751
104896000.0 0.5385591253004162 -0.8405736529963633 -0.6072477766976879 -1.3152943906942336 0.0002640121260797347 0.0011905695765237149 0.44079008992390056 -0.3361994907698101
105895000.0 0.525414777926673 -0.8415680897926588 -0.6509835864018587 -1.3498069354509088 0.0015283721230735475 9.645453194198241e-05 0.4390976011400826 -0.36431537292574534
106894000.0 0.5161968176974204 -0.8479005674682947 -0.7046163466663627 -1.3880458782891683 7.679074956845644e-06 0.0006505780204045992 0.43307085332484135 -0.37103028373772096
107893000.0 0.5101247705048444 -0.8554678623083276 -0.7579862122495407 -1.429541357872725 0.0017178707602583884 0.003033565107847409 0.4271115383873872 -0.38608630519141635
108892000.0 0.5002418753761186 -0.8559077574208471 -0.8163198096091931 -1.4607084091096385 0.00026537141133264875 0.0011049375767111542 0.4207218856496526 -0.3870573046880793
109891000.0 0.4879519800892702 -0.8659954409002165 -0.8724449421895452 -1.4968103806921842 -0.0004069271849750314 0.0008293671171473441 0.43797676945356384 -0.3864471180795889
110890000.0 0.4726295651563363 -0.8659734120313004 -0.9324668832064927 -1.489848705145314 -0.0008061034813377601 -0.0007138632318449686 0.4232895264898346 -0.3960253898792496
111889000.0 0.4687003561951201 -0.8713186925761248 -0.9977811635955884 -1.558478206319817 -0.0027754329545106957 0.0012217278511256222 0.4117129571932263 -0.4203011989695111
