! Created with skrf 1.9.0 (http://scikit-rf.org).
# Hz S RI R 50.0 
!freq ReS11 ImS11 ReS21 ImS21 ReS12 ImS12 ReS22 ImS22
1000000.0 0.9829695326066231 0.006832713909231391 -0.0037766724530833235 -0.05646069109813058 -0.02200823529430406 -0.01068558362844768 0.25342966663919125 0.34153668022651446
1999000.0 0.9949845031602904 -0.012944820429812438 0.00921654893396525 -0.02393536357019513 0.004014850900669857 -0.0007478290519760792 0.2772364744990329 -0.05026989900484266
2998000.0 0.9986742011856607 -0.020714916185985748 0.01447482016979846 -0.018739621095742457 -0.0078002600576335505 0.0012256278486500857 0.18239721953100999 -0.13459023753733607
3997000.0 0.9972872076078904 -0.03093969010682647 0.014139587891866727 -0.0047399715155447796 -0.009072194526271496 -0.007412139777445481 0.08057190584943076 -0.23565198469682036
4996000.0 0.997730872059161 -0.03682327475219989 0.01247879200165134 -0.003928985710017608 -0.0028047008925231737 -0.004587286158534228 -0.05224427395814199 -0.18061737440951411
5995000.0 0.9973456536686641 -0.04865168978190882 0.010312715883703534 0.004929575196911886 -0.0015923979615099352 0.002711198446716692 -0.10972573633972849 -0.08666240871026137
6994000.0 0.9937477511961564 -0.05888792854347945 0.004848141849693493 0.008757792630237973 0.003786818472363626 0.0013821326243040552 -0.14014443799299284 -0.013297730243473577
7993000.0 0.9962622577263794 -0.06356896976746602 0.006167526375830571 0.010325925965720179 -0.0025008479462114144 0.0020444915866127083 -0.14753332280497541 0.05871906961569569
8992000.0 0.9966412608031563 -0.07044636721921901 0.003562091245004072 0.0023244412068850746 0.0011127239459244136 0.001428782154902 -0.1455861329258543 0.0726391016454326
9991000.0 0.9952362580438868 -0.08127110262136082 -0.0028675719140282235 0.0047753415813820595 -0.00099564143131199 4.3078941259179794e-05 -0.15550568578654606 0.07714991303336649
10990000.0 0.9921174063961912 -0.09242562331785868 0.006536972209904416 0.0030370921446240904 -0.0036139609322684745 0.0025690499477700264 -0.12611858504586068 0.11019143314718258
11989000.0 0.9895438328087219 -0.0965920699396391 -0.0005468181390526823 -0.0009706778652173756 -0.0031004571008181494 -0.004827776146258888 -0.11736290102372245 0.13094393894066242
12988000.0 0.9895760521519374 -0.10724959763274625 0.0048176428017622655 -0.0024662976629612698 0.0007521296551409286 -0.00040061544272480034 -0.11185169139031409 0.17330474143867486
13987000.0 0.9887959503222445 -0.11605091044162268 -0.0005832480183531281 0.0001368995861467417 -0.0003505424267635087 -0.0015771656572217616 -0.08323582739731109 0.1873258462443852
14986000.0 0.9879720004484056 -0.12308823945436649 -0.002172754071740571 -0.004075142622502281 -0.001204629027560907 1.0853128136973195e-06 -0.08145064984529343 0.20575748182962725
15985000.0 0.9883329853007253 -0.13072313280577483 -0.0021998486711647205 -0.0030822437311112845 0.0025975904444607593 -0.002076942555210941 -0.06656225511508515 0.22624395984422285
16984000.0 0.9861762114366035 -0.14297062738390523 -0.00154253623039735 -0.001858306510431348 -0.00220655853670265 -0.0006329202817303765 -0.05967278229481439 0.21892955942148537
17983000.0 0.9859148246604765 -0.14664914981240645 -0.0021421232137299917 -0.01011769817694218 -0.0029994907290495313 0.0025490301376888255 -0.0464200948478168 0.22655779229267242
18982000.0 0.983612583183729 -0.15746228674711885 -0.0041693242434751475 -0.005884968702870933 -0.0017733004946968347 0.0012187917328272137 -0.018353136557638306 0.2374001779897957
19981000.0 0.983094477996172 -0.16333266373396949 -0.003543285988599773 -0.003069867229570773 0.0006961188181658724 0.0012249710839768214 -0.004896349981460412 0.23113565224461902
20980000.0 0.9817025408181242 -0.17387859872980083 -0.0033516720524270974 -0.006386852617759325 0.0019482936608820605 0.0008480368789691748 0.002565560284408971 0.2541487515389205
21979000.0 0.9787348927247522 -0.18057820979306377 -0.0020586863849467096 -0.004320637330468162 0.0029868825514226057 -0.0024213316091991994 0.023895108131372463 0.24169817887001138
22978000.0 0.9799559976110581 -0.18952062042457518 -0.007944823315701524 -0.0010830597292515397 0.0009023397848708374 -0.004280257865501593 0.03868808065805178 0.2522055829564565
23977000.0 0.9785234136169833 -0.1954240019863635 -0.006530728402488104 -0.0024426792776447684 -0.0005993870251695504 0.000912571302695519 0.037984698230845444 0.25677853482974705
24976000.0 0.9755474780526932 -0.2073534070953024 -0.007256949967632206 -0.0008095184134921951 0.0014418387712048658 -2.3924773113510924e-05 0.07313323900012601 0.25324431387417257
25975000.0 0.9674462734753425 -0.21684735690958484 -0.006993387479266339 0.0003096962538065374 -0.002754467949579204 -0.02732077010402966 0.07852092281400475 0.2542070564140325
26974000.0 0.9707889406565955 -0.22470108165926764 -0.004165130906050364 -0.0032289283120664164 0.0002094006102998276 -0.0006658063555674877 0.0955792521634822 0.25653353685019337
27973000.0 0.9706256147450667 -0.22973639454984296 -0.005933101613379434 -0.0016624645503030629 -0.0007335206147387317 -0.002780174487536585 0.11212973519121174 0.2582575455624651
28972000.0 0.9664886306428974 -0.24235581428968683 -0.001710639543735569 -0.0025170457280526636 0.0006725562224428913 -0.0010853213455481044 0.1109450416463359 0.2539265487618275
29971000.0 0.96619965575592 -0.24948490883045746 -0.0006482375389278913 -0.0021406396749637036 -0.00011314982666780726 -0.0005845003126030347 0.15651464526502243 0.2645768036611755
30970000.0 0.9622434798331317 -0.25397188779592395 -0.002228588295858352 -0.001077812041667362 -0.002490310579410059 0.002292082057557787 0.17297615025215804 0.25339441949645
31969000.0 0.9619520229932679 -0.2645584132836438 0.003280737407481225 -0.0057251360011927556 5.249985416997987e-05 -0.0006665019994433781 0.1540402909792674 0.24358476258588635
32968000.0 0.9588053908159884 -0.27494028627903877 0.00988549300251738 -0.006194782717390488 0.0030463179408441155 -0.0005061878513558648 0.17004283902858205 0.23784943796464966
33967000.0 0.9566143659423216 -0.2822822921027283 0.008460233185075071 -0.006516075213742899 0.0017548206737239929 -0.0017384739054903506 0.1866078655893536 0.23806258606548347
34966000.0 0.9526174426751512 -0.2926047586968722 0.013797268798944525 -0.011269324034283152 -0.0015181943344648068 -0.0004915509842732103 0.19388233639841115 0.2459278714454572
35965000.0 0.9522064612774478 -0.29960630407666755 0.01615708667455957 -0.01576843486084683 0.0017881047648121956 0.0010518655040360073 0.2141169346644654 0.25426729463871883
36964000.0 0.9484094675791752 -0.30924513749319554 0.01628770530101125 -0.016026863930208246 -0.0023224655425802183 -0.0007979602362502621 0.21066245462690275 0.24298658303611773
37963000.0 0.9449723242102789 -0.3170535961105372 0.022624934169160348 -0.02135586193276124 -0.0029346767998721995 0.0009681397118142943 0.2407919905074892 0.2327933898297828
38962000.0 0.9439084377442322 -0.3263125792675531 0.02605018588755921 -0.02470352380174964 0.0011719332537911786 0.002311660637541424 0.23997114639380546 0.2360695774309828
39961000.0 0.9420334061348372 -0.33051985170333836 0.025576434935531214 -0.02554353667444151 -0.0024493191988092505 0.0007416353716540294 0.2524973226987151 0.21979202572200138
40960000.0 0.9380052532683731 -0.3410138183166999 0.02258909329255873 -0.024516439121537992 0.0005056994796516752 0.0016907391174575174 0.27142978761856507 0.22413017866708773
41959000.0 0.9347730030189358 -0.3507275755867519 0.03058885610003235 -0.032998691507869125 0.0019274863901231358 -0.0011829787740657409 0.27188066541251554 0.21017886068738634
42958000.0 0.9285070095677326 -0.35949313822183915 0.03199533957535499 -0.04186067771498357 -0.003613828928709848 0.0012732722648828236 0.279978966084372 0.20094820017936482
43957000.0 0.9291529504281203 -0.36214296745307517 0.0322541427993197 -0.04701920088060933 -0.001264468564571582 0.0002549319571401031 0.28958030176903854 0.20605058805388687
44956000.0 0.9262997628287925 -0.3700971118616341 0.03475177985177139 -0.053808712477014506 -0.00021670291427802838 -0.0001604005642490371 0.30465730677966085 0.19098584348522699
45955000.0 0.921053180362374 -0.3816624313570253 0.03420557318101364 -0.058691911478570204 -0.0028412623285141653 -0.002366451516631233 0.31154073239225877 0.1922056589840554
46954000.0 0.9175518628870996 -0.38965105230502495 0.03810055500327981 -0.0665653538520006 -0.002779751812767324 -0.0016350776124137894 0.33113428568211295 0.16524416783292778
47953000.0 0.9151925116237479 -0.39808018560563374 0.03585418961359495 -0.07280292481241657 -0.0022516821116862675 0.00018028030116479918 0.33241802606350146 0.1726755888828682
48952000.0 0.9092890051518364 -0.4077581748720479 0.03755986302169309 -0.08093313464083578 -0.00197519543116579 -0.0002356375847159966 0.3459392751096478 0.1527905737066637
49951000.0 0.9054500586797615 -0.41595599532861244 0.04238536692848211 -0.0881145532042689 -0.0012659435994604013 -0.00035128963945189564 0.3554343104392672 0.15520340781878023
50950000.0 0.9020810951722401 -0.4238595885323958 0.041370473403087846 -0.09377014123341397 -0.0009849068595314961 0.0028113292474928665 0.3516820393455927 0.13623524532853068
51949000.0 0.8973874377337431 -0.4316223396369413 0.04277039079567361 -0.10510790647651279 0.0005453251285497539 -0.00416437143122659 0.37174776840560037 0.1390225600773347
52948000.0 0.8970262121408428 -0.437934046159067 0.045935840916473014 -0.11439943941862864 -0.000607886786037889 -0.0005084497750186598 0.38009894819568574 0.14332699485279607
53947000.0 0.8901508216703379 -0.4474950960319256 0.04641136469418811 -0.12331986811731946 0.0028066927154009576 0.002139809612048511 0.3687034621141058 0.12076228843919844
54946000.0 0.8850947051704401 -0.4568835756286843 0.04688866277064361 -0.1327857643188488 -0.0004630796146946043 -0.0030013913910423777 0.3898147276465244 0.11339921909993914
55945000.0 0.8822787651690082 -0.46414155061667367 0.05156913292343863 -0.14045232790083872 -0.0004409707712464046 -0.002909897459009054 0.3887286773587926 0.10228597933208497
56944000.0 0.8794540473779702 -0.4713065887259663 0.052573979826129644 -0.15485012728442205 0.0025573839902586484 0.0022903115907816464 0.4044832579980894 0.09056857694620715
57943000.0 0.8733293772914477 -0.4817222910305608 0.049989639624747326 -0.16525734344977802 0.001338187204476668 -0.0007476949130754605 0.41116711358622837 0.09491029731662219
58942000.0 0.8674492836400359 -0.4878860185354653 0.053231333990184294 -0.17493774053984307 0.002960708396576015 0.0006938643500773648 0.4216528892066351 0.08306254810284301
59941000.0 0.8664752987219113 -0.49391490790800646 0.055759306778637156 -0.18660305493762913 0.0018087808759769644 0.0012943688530322429 0.42096038009756487 0.07874810957225425
60940000.0 0.8593158651717531 -0.5021415117366034 0.05381925724412864 -0.19139678630316734 -0.0011095437761903617 -0.0011370689689360238 0.4108804729141243 0.07190906132828884
61939000.0 0.8552259161819196 -0.5092358456479633 0.05733324164004474 -0.202376149444677 0.0012201780692157455 0.0026205749554258006 0.407659350692853 0.05329043855816468
62938000.0 0.8490587633823996 -0.5200128655529114 0.05889606446675662 -0.21505416511039177 0.0006090704771010702 -0.00021341292762359717 0.43500951259839843 0.0481248987842452
63937000.0 0.8457640563058919 -0.5259220602427742 0.06053014337692064 -0.2381129721164503 0.0011224510436940054 -0.00018139572890847817 0.43561650973525007 0.03311875185584081
64936000.0 0.8405311439120436 -0.5322547031064276 0.05807749148809411 -0.2548125567195235 -0.0010443660321007092 0.0009814222419418774 0.4422996047574133 0.037523086011094255
65935000.0 0.8381989370511186 -0.5435050747981796 0.05969880192626687 -0.26774675199572145 -0.001756168281788911 -0.001699843822602119 0.44076340268452524 0.013589423278751152
66934000.0 0.8311887216343041 -0.5517588121543067 0.055115516239540134 -0.2799359803274652 -0.005620417493903569 0.0009236197292299085 0.4441619957959837 0.0016117663504910365
67933000.0 0.8284416717129658 -0.5568176102364459 0.05689558485082697 -0.2971065539828638 -0.0021615128936234153 0.0027943247819284954 0.4412602922621941 0.0020079939673828583
68932000.0 0.8224223482215984 -0.5636552575002488 0.05373407369406494 -0.3133443001204917 -0.002104810536502113 -0.0006661235826283947 0.44911099527542836 -0.01914347793176979
69931000.0 0.8157391929812492 -0.5739800096434545 0.05558735346045211 -0.32929634971938687 -0.00014116964064281055 -0.004444043984030962 0.4498643076409982 -0.02073491660690503
70930000.0 0.8098813099887505 -0.5808845034728553 0.05071809015518259 -0.34481247440522034 0.003119901175285514 0.000956107948553962 0.4458574607430966 -0.0392836922568139
71929000.0 0.807435336192166 -0.5878020744215215 0.04537076334307262 -0.3599457054889208 0.0019823706100311833 -0.0033695167876543653 0.4479807340873694 -0.04822292732540857
72928000.0 0.7986301829996334 -0.6006114475723652 0.04173150188138971 -0.3787219768754034 -0.0019395779280578186 0.0005605175446102822 0.464199433803758 -0.055180178843770286
73927000.0 0.7933038811554983 -0.6025208892848638 0.03507452929729094 -0.40152048894861325 0.0008561433220728034 0.001207697024533117 0.46662889181078304 -0.06100985101113211
74926000.0 0.7883339165592943 -0.6131631243007715 0.029685470252160194 -0.4185687108731739 -0.000471376408467764 -0.0009975481039168144 0.45877964180223735 -0.061184246352315064
75925000.0 0.7825575938613873 -0.618459403788863 0.020920974259226493 -0.4423147034865715 0.0006107712869091228 -0.0020300822126240042 0.46944985403106654 -0.09111835085870641
76924000.0 0.7751703072957179 -0.6255960852851161 0.005169970148114078 -0.46795011521937635 0.0010253951192545692 -0.00042756483434785433 0.4736218442317584 -0.0865867113967725
77923000.0 0.7711621033376632 -0.6306958237088868 -0.005837182065672946 -0.4879828427549192 0.00046504054932993447 0.0007708124425980116 0.4588248012826359 -0.10165490052599366
78922000.0 0.7646580164398122 -0.642802083170498 -0.024127276632139243 -0.5197255218614207 -0.0009461772426829317 -0.0010546494643780579 0.45800681080044714 -0.11268593955948293
79921000.0 0.7544511666494532 -0.6474971598781565 -0.037034666060526224 -0.5406033014024196 -0.0012105101628835109 -0.0028431436129847075 0.4561825861812641 -0.11675987667847842
80920000.0 0.7525578315712148 -0.6574360883810921 -0.05470106106631667 -0.5747992556706899 0.002169050018019222 -0.0003388330887838621 0.46744818381406 -0.13956905994143814
81919000.0 0.7475039622730668 -0.6631040309084731 -0.0744062948466664 -0.6011316126375247 0.004748624597358782 2.42242508273652e-05 0.46043937958133 -0.15103725295356726
82918000.0 0.7340077924186309 -0.6713524283226567 -0.08627454723388675 -0.6352530712437272 -0.004574606705224305 -0.0017575057372927188 0.4745672897845579 -0.15536250336403395
83917000.0 0.7294478408423006 -0.6786421113285748 -0.11032986487884325 -0.6654621395908382 -0.001743047240774546 -0.0004402829643186775 0.4820362747786324 -0.1603664218455308
84916000.0 0.7272871093731295 -0.6845438025551597 -0.1211711764598327 -0.7000762978878374 0.0015280813693699907 0.00031359913250092654 0.45803226364740984 -0.17646121735675988
85915000.0 0.7172881850353791 -0.6921615666855909 -0.1457215089409444 -0.7254523175922551 0.0010442837871367401 -0.002173512976275814 0.46915426826450835 -0.18582721514943312
86914000.0 0.7097116194999378 -0.7000702937125497 -0.1607968517888232 -0.7662080564440726 0.004860367888491211 0.0025526892705778907 0.45787766503460986 -0.1834141267390646
87913000.0 0.702270809745502 -0.7080113577446318 -0.18465158887427321 -0.7937209649342811 -0.0021169811317373 -0.00316838968197857 0.4670348427208009 -0.2001499093923271
88912000.0 0.697258109857325 -0.7144354094529404 -0.19389651851522813 -0.8331151128989761 0.003475101780957689 -0.0014052025562831482 0.4681304334381079 -0.2060657117184934
89911000.0 0.6894730781723909 -0.7215526689053877 -0.21449646420299617 -0.8678524156199674 0.002888669006294876 -0.0006722017037819619 0.46979936721934507 -0.21942055348189912
90910000.0 0.6817614743587997 -0.7272707529951384 -0.23045681820872205 -0.9056813557858592 -0.002334308198619562 0.0018914009661775831 0.4645442828256841 -0.22330873987367994
91909000.0 0.6740555945005113 -0.7313989248799606 -0.25136854882246984 -0.9435924406436742 0.004252553319283922 -0.0017900165756906544 0.47592536539321 -0.2325716176156058
92908000.0 0.6651310716250041 -0.7411232552072387 -0.2707041282941001 -0.970608082586134 0.0020224877507235756 -0.004851505466623024 0.45381569684429673 -0.2424603854194027
93907000.0 0.6587796669137763 -0.7473727340343465 -0.2927608994356767 -1.0048199717022017 -0.001733664747360318 0.00044087695208990554 0.45037779541498674 -0.26723441804179404
94906000.0 0.6471407790908884 -0.7555480288424011 -0.31407809723858965 -1.0395617668056032 -0.0002149234456514797 0.002441158041390466 0.4697059416687397 -0.2716931499358835
95905000.0 0.6401768158014618 -0.7617102991034723 -0.33948759967841474 -1.073458018129069 0.002561333958461399 0.00513356655994957 0.45690555347275086 -0.28876575607187077
96904000.0 0.6334391814877018 -0.7693953540444538 -0.3562122744491827 -1.1165465918432333 0.0022644135717365755 -0.0006016543820826085 0.45167841694345673 -0.2859147677551001
97903000.0 0.6238375315600145 -0.7737868015126051 -0.3839076266312236 -1.149185331959289 -0.0049240044471528235 0.00017884241823520896 0.44470350612781395 -0.29748279543299544
98902000.0 0.61731177338652 -0.7816039155226832 -0.4047068256460333 -1.188767548983615 -0.002062484585509006 -0.0013889410021803458 0.4544984629871442 -0.31274045129999345
99901000.0 0.6105561956459676 -0.7880253182597137 -0.436690847305721 -1.2259696262160866 0.001445781098808023 0.0040423308259999536 0.4587558103554887 -0.3241992578169773
100900000.0 0.6019191256887704 -0.7902578691737694 -0.4674241712543849 -1.2504196596535706 -0.00032321820732072516 0.0013351776725909466 0.45911258211661676 -0.3229898619619706
101899000.0 0.5932198459802932 -0.7992810108610846 -0.49876461493014523 -1.295803854301485 0.00039922125548875337 -0.0004366326007972647 0.4415222592676232 -0.328734084970229
102898000.0 0.5822684292744195 -0.8062964362511472 -0.5388321109046436 -1.3321672622677851 0.002913590837700614 0.0010195121152409311 0.445332274842047 -0.3462642510915724
103897000.0 0.5740413843369433 -0.8132107383185037 -0.5802182868898298 -1.3688499156224656 0.001908863795936471 -0.0021006001451639974 0.4562166560668561 -0.3430573477673609
104896000.0 0.5667900808753226 -0.8234508175418526 -0.6283675860843707 -1.4006138759942015 0.001048293160213272 -0.00016972061874171687 0.42870370678466413 -0.34927515735604325
105895000.0 0.5560643636951312 -0.824518249484709 -0.6719202037927734 -1.450678040677558 -0.00314648097519817 -0.0025936663335355947 0.42839809989424144 -0.36769978996866937
106894000.0 0.5455478780478266 -0.8313535608821999 -0.7307244362571451 -1.4859509734983443 -0.0025742267992767153 0.00014106385747439767 0.4221167491536692 -0.37273510990774444
107893000.0 0.5391125969372241 -0.8387730415264919 -0.7831955694366662 -1.5290676645118675 0.0010056476839704074 -0.00031979686056926137 0.4253396997900547 -0.38737615667527364
108892000.0 0.5313390143806535 -0.8399735142907756 -0.8472174042997048 -1.5669724794225552 0.0015367498328087224 0.0022711230225952897 0.42060390271324416 -0.38005001890723256
109891000.0 0.5177469469214101 -0.8503133310136674 -0.9038056870749913 -1.6051171794329855 6.184477971234125e-05 0.00029181394362220254 0.4289690813769411 -0.38844287612417777
110890000.0 0.510481357652499 -0.8506788229797785 -0.9635523134682146 -1.6093300445247554 -0.000481800578168854 0.0030546454552003504 0.4259805067698739 -0.3876033679085895
111889000.0 0.5003918190239286 -0.8557707640916017 -1.0273507309130072 -1.6737601086453548 0.0008228626090738448 0.0007032022202988162 0.4149046215219051 -0.4097624954443301
