! Created with skrf 1.9.0 (http://scikit-rf.org).
# Hz S RI R 50.0 
!freq ReS11 ImS11 ReS21 ImS21 ReS12 ImS12 ReS22 ImS22
1000000.0 0.9986084391824569 0.010468246600920633 0.005114570236940231 -0.06460612817646486 -0.015469857424239052 -0.003987271125985274 0.3102722799981294 0.34928368658550657
1999000.0 0.9999975417844261 -0.005921147788855716 0.0022971121314556034 -0.019921672318719115 -0.00019325646638694287 0.0007054996092930401 0.24072322536026136 -0.04530964833678166
2998000.0 0.9991341587681347 -0.02030643936617241 0.012348683274955204 -0.015152461974043746 -0.0013528358186827194 -0.00416248875898651 0.18985561588249938 -0.1367577542879264
3997000.0 0.9976168028739029 -0.03346178173890929 0.012819606200201375 -0.005343555027718762 0.003916427160257477 -0.001092041866595578 0.0763961358023651 -0.22807374486134213
4996000.0 0.9977373777021594 -0.03999447580489414 0.01349769546060374 -0.002974162981478518 7.601211059448607e-06 0.0024186631694898485 -0.052239515750359504 -0.20757258477633297
5995000.0 0.9979395116878571 -0.04725263665459727 0.008435360341903278 -0.0031493675025861035 -0.0032601021346359478 -0.0019963161819316444 -0.11284912193753863 -0.10091466740730277
6994000.0 0.9965578636580843 -0.05671793610309688 0.003108405242038388 4.058798333289642e-05 -0.000703515367479155 -0.0001448680219809381 -0.15156414035384103 -0.030846068141680293
7993000.0 0.9977049425842598 -0.06924167160705205 0.004000463654924881 0.008371657692692951 0.0035874053358909007 3.806315586828102e-05 -0.15853061524447618 0.028769829478254808
8992000.0 0.9951114227150204 -0.07125611744249079 0.004952187732639879 0.0026374258101207514 0.000423949515977541 -0.007651647146335709 -0.15112474416434707 0.061000097530009276
9991000.0 0.9941250265530243 -0.08136607010903636 0.009991613085652083 0.00144693195079315 -0.0024665259044442736 0.002126452799289314 -0.15595130540664165 0.08593813143724026
10990000.0 0.9936514789630739 -0.09039806272208405 0.0059222844185091205 0.004172948201485863 0.0016952195635972504 0.0007534304753739045 -0.13189202290287957 0.10581178552309897
11989000.0 0.9918487168858828 -0.09872162561884792 0.004809357345107145 -0.002377495885078237 0.001417410567952859 0.0013451468738972531 -0.1226162917775357 0.13882524591271656
12988000.0 0.9928080243642456 -0.10939694684022688 -0.0004521725215378038 -0.0004166109606241107 0.001164393201713409 -0.0057735750004917746 -0.10791514893312687 0.16340544780312882
13987000.0 0.9889756252927953 -0.11778389137197291 0.0007863253979996672 -0.0001857209460714243 -0.0021352587249577996 0.004742839922840702 -0.09987308079363655 0.18003193640970414
14986000.0 0.9897938128630029 -0.1247841051701646 -0.0022191562828226498 -0.0029682188707891403 -0.00012872751000352737 -0.0008472218666189464 -0.08545350233967512 0.19629515294355368
15985000.0 0.9898982775992737 -0.1345501594610393 7.721178558296624e-05 -0.004129075609580805 -0.003685512274100862 0.006018555656289297 -0.05862226897918529 0.22215155123782515
16984000.0 0.9885675959622386 -0.14311802158512454 -0.004749299809639959 -0.005216678494852241 0.0018073401791259978 -0.0012325115167481423 -0.06771845004034016 0.22420408804199793
17983000.0 0.9876256173440189 -0.14988430520186435 -0.004579960135321776 -0.0019969022202810404 -0.002171907244720964 -0.004935987171106565 -0.04960307330379282 0.21258491727323592
18982000.0 0.9849408168113724 -0.15962907894536896 -0.0008752564728800281 -0.004044623691415879 0.001705687140868884 0.005291057517876226 -0.02208071619176451 0.2328461098050572
19981000.0 0.9850569756595196 -0.16551755547530486 -0.0032015890524419487 -0.004530740236857976 0.0020807449010160095 -0.0005812804678852345 -0.023239697009214237 0.23383895733502133
20980000.0 0.9832046778003045 -0.17392874338820286 -0.0050473426612410695 -0.0028940608496740216 0.0034851208736955625 1.9863053170120202e-05 -0.0029436909593629997 0.25993004869698955
21979000.0 0.9812749663277937 -0.18205288063468641 -0.006748855322561262 -0.0005209618998741789 -0.0007406821526353374 -0.0010874439324597303 0.023038707052645806 0.24400699624744854
22978000.0 0.9779851607178317 -0.1939390694669766 -0.0066564441645275045 -0.004361424274606603 -0.0013460889250353975 -0.0017468351694126863 0.01769712579655277 0.2546512048594724
23977000.0 0.9813371081818091 -0.1976799676101862 -0.00609136731339306 -0.0045648142965324014 -5.861401020222645e-05 -0.004090769038865921 0.0466564054150693 0.25232958149766094
24976000.0 0.9771011512295565 -0.2075563766976947 -0.0056441536654301995 -0.003994577992605832 -0.0012800970723814001 0.003522390560312778 0.06214633056785942 0.25209017234862674
25975000.0 0.9676804808821157 -0.2186156048816217 -0.005386526387492346 0.0013322624100936948 -0.012855655341502178 -0.023522562969636337 0.07326771865042439 0.26038065563780316
26974000.0 0.9720335774671391 -0.22471446858721647 -0.005636769649256288 -0.0041998363926256865 -0.003730545190217552 0.00021937645500074096 0.09262014804207047 0.2604015014581808
27973000.0 0.9717232906609151 -0.2317647989926912 0.0004803426904485157 -0.001742819315194975 -0.0003554877335783518 -0.0030913617712767503 0.09311444438805051 0.25455674925474797
28972000.0 0.9671468792223854 -0.2439370412840181 -0.003361590022240749 -0.0014657736966433256 0.0022552959064274032 0.0007256553248015185 0.11415292151979083 0.2517157589216386
29971000.0 0.9668321956247281 -0.25239469959860017 -0.003094717035924615 -0.0024946134470410367 -0.0007047395076172998 -0.001300725498255618 0.14626603713654618 0.2651200019941356
30970000.0 0.9629173128017319 -0.2561538607862305 0.0025009391409227338 0.0015209035053548462 -0.0012272429117389338 -0.0017357175592781632 0.16476059610133295 0.244602164097813
31969000.0 0.9625192266708823 -0.26481505308589726 0.004151821627426969 -0.004389854611274692 0.0008050648591941857 0.0010337807760713322 0.14193756100884825 0.24901375524227465
32968000.0 0.9605583415183919 -0.2744868495856155 0.004529309778798975 -0.009940541747941907 0.002502537668351387 0.0003273652102261399 0.16218736130256234 0.2484722590445704
33967000.0 0.9587206410943094 -0.2829175794267939 0.015212438428818387 -0.009290827535602494 0.002007925226579615 0.00010910523427059501 0.17604407802220468 0.2532178908871012
34966000.0 0.9554316602324272 -0.2898186509207228 0.016604691333703306 -0.013834814973914122 -0.0018857352412950021 -7.06751755006422e-06 0.19873043159441867 0.24890027080800065
35965000.0 0.9517338464401002 -0.3008983985838608 0.02067265610468209 -0.0182659283286547 -0.0011298790773280041 0.003625957167620216 0.21094484843118017 0.2536176840410511
36964000.0 0.9501613336261131 -0.30902283510097756 0.018771257346644466 -0.01722416870203164 0.0007935860443037822 0.0004519449731187144 0.2119743530920374 0.24916156047876295
37963000.0 0.9455495092260047 -0.3184716632660773 0.020742155879617228 -0.02235607675589929 0.0004704695838734644 0.0013538622926464602 0.22864212193998007 0.23250290094487697
38962000.0 0.9445103924056686 -0.3254881354637831 0.022547216987272627 -0.02594797097363963 -0.0003718403789901297 0.0004670901351243427 0.23672185423692915 0.23109032563184045
39961000.0 0.9408294721727901 -0.33553376424894876 0.02938339278190071 -0.026623027978698168 0.0017975389054502309 0.002351037471307675 0.24844237467935276 0.23098316715441433
40960000.0 0.93897777684062 -0.34347536862116745 0.02540114405672267 -0.027633586012488907 -0.0005115534793099315 0.00023808627259441802 0.2628119346126364 0.216981245630039
41959000.0 0.934836222486423 -0.3519070692488504 0.031981818900373035 -0.03305826160831423 0.0008306625986097697 0.0017745411994923826 0.26977300969184653 0.21462942608552746
42958000.0 0.9309718844846717 -0.360209376062116 0.030615422286055904 -0.0450268013709221 0.0018670781632871723 0.0014767532895430435 0.2864586206016751 0.19448424679645793
43957000.0 0.9301848920444463 -0.3650583549917215 0.03500163630412998 -0.050781176733937644 -0.001311419736860864 -0.001506269142076469 0.29048059187075564 0.21280076373550805
44956000.0 0.9261604340098432 -0.37241415123985155 0.035669559386586835 -0.05315491001795371 -0.0018145231786740057 0.0016696099222437506 0.30297097681349766 0.19604866722748984
45955000.0 0.9200861678448679 -0.384923805881821 0.03517319256950918 -0.06158473618964543 -0.002572879340837975 -0.0005097717458678409 0.29743031218266464 0.1901060672359581
46954000.0 0.9163466223697488 -0.3937925973422467 0.03733748149301515 -0.06791047654823777 0.000811175866267484 0.0004074099915333411 0.32290656820983554 0.18563516070224093
47953000.0 0.9148283279476878 -0.39933111336137805 0.03511775764552393 -0.07487885194899989 -0.002010551728938098 0.001089129479935249 0.33370629057838047 0.16830522339017728
48952000.0 0.9084981677351724 -0.40892918562366565 0.036350083099743316 -0.08203898147491687 0.001001889206889134 0.0013172026239038023 0.33430306838933205 0.17003080407525448
49951000.0 0.9063982809394772 -0.41826672606718407 0.03728103341395618 -0.09108269102325361 0.00025876881460816173 0.00034289488067961414 0.35624712397390557 0.14933997041757022
50950000.0 0.903438018485459 -0.42684548858464855 0.03889673692528626 -0.10055144439566781 0.0021745548119021852 -0.0006868377443596514 0.3559889624601477 0.1436642392230841
51949000.0 0.899588600523878 -0.43363286652592486 0.03975736280967636 -0.10828031228371926 -0.0018886824557071231 0.00054798709129788 0.36271956359693364 0.14325776053690775
52948000.0 0.8954822122917449 -0.4420469003342094 0.043275000748316333 -0.11691018067163023 0.00040410791703481415 0.0005101936066698442 0.3774890698911881 0.14148499723181154
53947000.0 0.8915927115887146 -0.4493737973022939 0.04400126864249513 -0.12508381320479073 0.0015140623947801385 0.0005739655987675845 0.37014718091182186 0.12882869507617883
54946000.0 0.8876083666681995 -0.4570310438445193 0.04356928725075751 -0.1370453888854017 0.001355508476869963 -0.003422675201612574 0.3917136863247777 0.1196740450216908
55945000.0 0.8823184056389762 -0.46786689645741664 0.044052467545102385 -0.14620264347045062 -0.0015734222365658306 -0.0019466832043196394 0.38746271340896105 0.09427666593343918
56944000.0 0.8794436659957896 -0.47570927849778805 0.046342843244807884 -0.15597123506912153 0.0011436960539242895 0.000769953642512982 0.39589359348663217 0.09717878695955857
57943000.0 0.8747687816496587 -0.48507731459136677 0.047863261935079074 -0.17067817319907666 0.0023952133041553565 0.0027244336146063793 0.4051511649096356 0.08655967812217902
58942000.0 0.8696771035915999 -0.4875477017262265 0.049136985176613496 -0.1804310234383302 0.0021123623728750425 -0.0017028920055780759 0.4181618011943169 0.07844317510099003
59941000.0 0.8657027829424638 -0.4993284291622831 0.049974669700691504 -0.19085446368255782 0.0018531823454849146 0.0012557037265545684 0.4126017253335107 0.08729357072688806
60940000.0 0.8590297242944288 -0.5036484023757422 0.05117505174717098 -0.1915972938837195 -0.0015506369380586323 -0.00013573804304464214 0.4125118643481097 0.07156519892976443
61939000.0 0.8562179547500504 -0.5116168085790779 0.051007509798295145 -0.20183025741663918 -0.0018571465155209337 -0.0003919295740480105 0.4112395996749286 0.06261636105335763
62938000.0 0.8506515732610638 -0.5231739985286703 0.05329096959153091 -0.22192483614601255 -0.002155341007213644 -0.0012454406848675193 0.43578207074434666 0.04798049216691384
63937000.0 0.8453442964871682 -0.5304536561751787 0.056139594571174435 -0.23941144329224148 -0.0002842031607183558 0.0035219337578939365 0.43688336202379396 0.02832965750497329
64936000.0 0.8391164577696586 -0.5351914707374369 0.05367631850059563 -0.25356055300782215 0.0005221311990065668 0.0012590965191755414 0.4388707534244147 0.0299380758898951
65935000.0 0.8359766883803369 -0.5463934745013387 0.053577089357384165 -0.26896236557905434 -0.0030536052126766 -0.0006641889357127968 0.4429866941735632 0.020415926189815598
66934000.0 0.8298387981108927 -0.5522546009005892 0.055902137475850266 -0.28214127515596 0.0028579651519051934 0.0002621789439000159 0.43674903445683294 0.009829564551606452
67933000.0 0.8285269687626668 -0.558513516310883 0.0576189494146872 -0.29853063042314054 0.0017112274141278991 -0.0007960599360055395 0.4477462158229335 0.0017106766886299028
68932000.0 0.821915462029751 -0.5640977892940381 0.05332555074968771 -0.3111292231254603 -0.0015858655926324135 0.00023786042421690043 0.4463134073512098 -0.014631527820535601
69931000.0 0.8153382560380222 -0.5753022450867686 0.05302352827869237 -0.3268135309327304 0.0006768241892878184 -0.0008425991930715857 0.4457714543706351 -0.031064426353126184
70930000.0 0.8101798038480293 -0.581164978812186 0.051915486401779246 -0.3410605490076896 -0.002366602073528592 0.0017886435376480605 0.4455901731662552 -0.036233014535181164
71929000.0 0.8066311120289085 -0.5920823988829651 0.04625199539512414 -0.3586621734556481 -0.001509744863874546 0.002598749368928144 0.4486961342263881 -0.051993468878168865
72928000.0 0.7980009053529504 -0.6003851056995596 0.03848977714344398 -0.37535505277715125 0.0024244001142698195 0.004372113006868474 0.4600303038271184 -0.05631590988494381
73927000.0 0.7913831712992278 -0.6074766878731868 0.029242491605800402 -0.399022468878511 -0.0012984918980486204 -0.0004387681921505832 0.46242643124777105 -0.06307865584879299
74926000.0 0.7882689302619312 -0.6167375605893567 0.028440190405271182 -0.4168055161747551 -0.004566980153121192 0.000491388493257767 0.46285023723623914 -0.07416581364993687
75925000.0 0.7788464939426464 -0.6219176674273268 0.013606439293571615 -0.4358455666247396 -0.0014916865138364323 0.002297713250982052 0.4719320644404423 -0.09451831092958761
76924000.0 0.7740194829833141 -0.6301232248237189 0.005338838842096958 -0.45690718743485326 -0.001067193769996623 -0.004698491522923117 0.45912770826951155 -0.09651613145576396
77923000.0 0.769621475100535 -0.6342930183984973 -0.01281740850912317 -0.4840217596343374 -0.0011033261298394456 0.0014102180768992827 0.4598023633469475 -0.09947342753500367
78922000.0 0.7624251608511831 -0.6468212820857457 -0.024078848020442745 -0.5145990623122223 -0.003632391003724015 0.0007680063341306778 0.4651034071690833 -0.11649624584384637
79921000.0 0.7540069137814343 -0.6485809169493015 -0.04333690696436683 -0.5377765522377503 0.002589000742697381 0.0019455916745073738 0.4520038445806442 -0.11485768566933977
80920000.0 0.7494014736047422 -0.6597160641238327 -0.05837439553643262 -0.5643645771978927 -0.0008983465868111273 0.0016598472216760786 0.47267088054561435 -0.13713139633662882
81919000.0 0.7422086225782222 -0.6654482268295093 -0.07765832469086349 -0.5947540477501675 -0.00034010995378918756 0.0008759110997119039 0.47602157860549876 -0.1423866880257031
82918000.0 0.7365776540894479 -0.6735534290025443 -0.0947022074453755 -0.6277461815176362 0.003918724127116746 0.0006996030010470936 0.47126423272096696 -0.15680318758851272
83917000.0 0.7266380562943416 -0.682649186046377 -0.11396438576800169 -0.6565920169926848 -0.0023796499584605893 0.0007220332729587445 0.47028873887315 -0.1590357478999679
84916000.0 0.7222288585414203 -0.6891065811519702 -0.13156656916225357 -0.690419346994183 0.00013733512542439964 0.0012551031295589474 0.46092263325559024 -0.1733718153874287
85915000.0 0.7168217318632427 -0.6947827249101559 -0.1526869040270815 -0.7224656042993499 -0.002274929608748186 0.0015587508459471084 0.4636773076490711 -0.17685135071101
86914000.0 0.7089502954877354 -0.7034850163584528 -0.16832171856241182 -0.7619313491779928 0.00410956461684259 0.002392568128370731 0.4563058036743574 -0.1811190744816758
87913000.0 0.7002461384160812 -0.7106694079713622 -0.1941780254011035 -0.7898770877119607 -0.0035861027173005465 0.0037132212241488714 0.45910645144592827 -0.1888539302496178
88912000.0 0.6937700151864915 -0.7157021661649036 -0.2044245833708136 -0.8256375534444089 -0.00046282068430642757 -0.0004889850924088894 0.46291035761177396 -0.2145881813351787
89911000.0 0.6856989369733439 -0.7268411789233092 -0.2241100844384322 -0.8619095921353926 0.0011700556551620315 -0.004344845172663734 0.4735952846624145 -0.21712424976387726
90910000.0 0.6803145446555767 -0.7308023718072317 -0.24261037106521846 -0.8967100742183043 0.0014564680045982676 -0.004801089433876601 0.45589809768025447 -0.21564244778226102
91909000.0 0.672427743206344 -0.7348759992484603 -0.2613664331928509 -0.9354971575654557 0.0006391123233702513 -0.0014424594246342875 0.4681400150634358 -0.23610293199451401
92908000.0 0.663576295293498 -0.746218234653614 -0.28175013764389956 -0.9656498601784415 -0.0030782450652069625 0.0005379266457696456 0.4526862438657404 -0.2448952541980498
93907000.0 0.656464557225816 -0.7505028867674751 -0.2967511132337198 -0.9971163445794818 -0.002230581742044291 -0.0008933479387224522 0.45767336702504213 -0.262059873725378
94906000.0 0.6454880078531992 -0.7593299664722236 -0.3183666042637128 -1.035329728113026 -0.0015456746227681534 -0.004632557403759886 0.4560966270474809 -0.2634477169248409
95905000.0 0.6382896022622508 -0.7644666209383493 -0.3410399343090118 -1.067623985116251 -0.0001228806469261248 -0.004585645729270853 0.4583139090176919 -0.27385732692393466
96904000.0 0.6341880687351351 -0.7726837752295564 -0.3557218043845698 -1.1124230842203815 0.001593509247099182 -0.002850161861773713 0.4577656598310277 -0.29072093535805754
97903000.0 0.6226368260633298 -0.7778831504125686 -0.38241260030927793 -1.1439850064601793 0.00481441493086074 -0.0018610111747932028 0.4444375781483155 -0.29410624167069277
98902000.0 0.6177869985166765 -0.7832015719549826 -0.39853669164969835 -1.1833169483316435 0.0022479718001584977 -0.0004804613187012705 0.4509309603575788 -0.2942982467140974
99901000.0 0.6076524174175081 -0.7898328571942664 -0.4353053469981854 -1.2125262695705976 0.0011846024143983274 0.0009953034166532602 0.4551350211102831 -0.32592691960153
100900000.0 0.6016456079893503 -0.7932785326883144 -0.46388152175928415 -1.245963889960817 0.00040154634160100217 -0.00018521154598148375 0.4581326157283107 -0.3186514387601852
101899000.0 0.5891321928721538 -0.8024596174846726 -0.49416418278962904 -1.281137055294186 0.0020468409508981366 0.0018577151810292157 0.44443088086558746 -0.3292842425838776
102898000.0 0.5828018135895966 -0.8067454364430438 -0.528918129853625 -1.3225257810164397 -0.005378518092766655 0.002608467107763053 0.44352225446112364 -0.340610621795214
103897000.0 0.5726510157821004 -0.814771836740034 -0.5749587333988916 -1.358251346564524 0.0015110298026452308 0.00173335733872676 0.4618583369676329 -0.34855653012602206
104896000.0 0.5645806566671308 -0.8248999071416553 -0.6185478876700727 -1.3927997935751177 -0.0014672065911530245 0.002268159316224749 0.4383106615423636 -0.3410660368012265
105895000.0 0.5543654570603114 -0.8273137840035739 -0.6679032947253343 -1.4345074528544783 -0.0015302066790572433 0.0006826684641856566 0.428972760526127 -0.3747716289203255
106894000.0 0.5474090454119068 -0.8341498035474353 -0.725409297678446 -1.4714561968222715 0.003171312920084365 -0.0012598368498365092 0.4265071338685944 -0.37891165473919763
107893000.0 0.538716188398405 -0.8410842174761658 -0.7773654967397028 -1.5090079438421242 -0.00032506833055132196 -0.0031713551031824832 0.4250419929860583 -0.390030238184733
108892000.0 0.5282105691753033 -0.8430376867071258 -0.8401142400549133 -1.5431242916777492 -0.0010530360248297056 -0.002013018394255465 0.41800153549669633 -0.3849117253844109
109891000.0 0.5153214424140737 -0.8527308108760223 -0.8958589741464723 -1.5761718127289392 0.005562969810132435 -0.002426507721573352 0.4272258620339893 -0.38435419524614894
110890000.0 0.49850454948399286 -0.8559407741478152 -0.9634136567338166 -1.572095861650547 -0.0003723432302930744 -0.0015463480344964126 0.4152715823163493 -0.392245460329977
111889000.0 0.49455526360437146 -0.8585110644098948 -1.0255277995492649 -1.6474832096417988 0.003523772013510133 -0.0020867280387493583 0.40755901598406424 -0.4093383430160205
