! Created with skrf 1.9.0 (http://scikit-rf.org).
# Hz S RI R 50.0 
!freq ReS11 ImS11 ReS21 ImS21 ReS12 ImS12 ReS22 ImS22
1000000.0 0.9865662198300664 -0.003356653800377454 -0.01679915985439298 -0.03352001772503337 -0.002338584925592027 0.011592640425213479 0.3657724803612588 0.28980755990721246
1999000.0 0.9955444726968514 -0.012926466189876995 0.008079167218454315 -0.033681986416638984 -0.003894699596877036 -0.004650463876484351 0.27590822323360165 -0.08581184315068084
2998000.0 0.9970238800682523 -0.0182436257418179 0.00929695079097686 -0.014920943538856875 -0.001858293891455475 -0.008156173831293646 0.18615922746531835 -0.14870695462390407
3997000.0 1.000026341851509 -0.02627853018300527 0.015859681229788272 -0.006731409766869162 -0.0010492225310092232 -0.006126995900310576 0.1108631139760142 -0.23282085216866052
4996000.0 0.9994608058459263 -0.04009133690788291 0.013368725051050807 -0.0054367756846780595 -0.0016233814214111346 -0.0035930317435721557 -0.029135525266677086 -0.21171017219171312
5995000.0 0.997104695984357 -0.04670379573849338 0.006573804288123529 0.002582314310061557 -0.0020177814267601213 -0.0018661908681648536 -0.12132469459349544 -0.11413384582933785
6994000.0 0.9961603238903409 -0.059312252341157015 0.005411857635239108 0.0038152379240231106 -0.0016629977255814316 -0.0019703002376061838 -0.1500274430567808 -0.020068900609011616
7993000.0 0.9959106849400547 -0.06832937573606952 0.00508212406489763 0.00028017502509750054 -0.0008902116369592813 -0.005133930290812905 -0.15856320503393198 0.026892073062842192
8992000.0 0.994773282947408 -0.07084779733821103 0.007286752281783127 0.0034045443999643184 0.0006889399401104548 -0.0006442506425395346 -0.1592750119537481 0.05629866621060749
9991000.0 0.994480096391306 -0.08125534206406756 0.0020184596857800233 0.006259443405845349 -0.00023709232463917386 0.0030684889778946887 -0.1604868197617171 0.10304864493902928
10990000.0 0.9937449636682262 -0.09578652339466046 0.0031412072672401714 0.005805894098443195 0.0032437040840958514 -0.0004265274329792777 -0.13989135631543484 0.10570208613943269
11989000.0 0.9917345886942632 -0.09988385268611044 -0.0009150709369447582 0.002881424216734329 -0.0009457229206038244 -0.0010062833430071138 -0.11997118884379375 0.14447674628606078
12988000.0 0.9921191008643778 -0.10994960804868088 0.002183278942713934 -0.0027893260354612415 0.0020521480583598046 0.0010035244614333442 -0.12131900265169192 0.1690928224603244
13987000.0 0.9892821448636747 -0.11807725761520461 -0.0003891149083986924 -0.004936760366176475 0.0033390983993150723 0.00025730620886508864 -0.10593459119925215 0.19492982706719703
14986000.0 0.9902373119736837 -0.12513346821747423 -3.0607817026031784e-05 -0.004302515773238752 6.664129435169867e-05 -0.0010913378472682464 -0.08826366708525657 0.19865551130462752
15985000.0 0.9917331942373386 -0.13196291673347146 -0.0023712668314823703 -0.003166232049425872 0.000614248688953822 -0.0024227138635617928 -0.061592442699990785 0.2132555150239692
16984000.0 0.9899757728447156 -0.1437417000821543 -0.0009408408543427638 -0.0028776996135782794 0.001293440628148306 -0.002078386064896345 -0.05655533725531795 0.21776622539132937
17983000.0 0.9886518434990261 -0.14799935271472336 -0.00389998441299584 -0.004107465615691688 -0.002707735042251029 -0.0006380158618167882 -0.05705420310830417 0.22232319735168524
18982000.0 0.9842749832763945 -0.16081900823053635 -0.002338239153582919 -0.0011179391392879285 0.0024147073941011028 0.0032117538555395965 -0.011179372319464526 0.2424754008525574
19981000.0 0.9845921383895195 -0.16306511682929986 -0.002107057435382519 -0.0043851569560278275 -0.0009127909639499812 -3.531672635259542e-05 -0.018677726648566807 0.25127370871806587
20980000.0 0.9796753091651412 -0.175673139569443 -0.006687731483468865 -0.006575788503861674 -0.0015269500464059596 0.002337314585134153 -0.0007344148061176093 0.2638179596155679
21979000.0 0.9791235483580282 -0.18648096438721073 -0.003928913092999003 -0.00608997230284843 0.0007319751714276618 -0.0011911347779216444 0.01419513665342371 0.23780625220870588
22978000.0 0.9777071757797059 -0.1938915050456598 -0.0053448422780213774 -0.0002515186322944136 0.004171206194140631 0.0028170992429026763 0.026712440367374943 0.2564098095902523
23977000.0 0.9812902412151882 -0.19891018242372072 -0.005007614654692715 -0.0016476653887870444 -0.003176620450575214 0.0035454979743171936 0.03865680175042405 0.26087066391727226
24976000.0 0.974672316856865 -0.2087173476663379 -0.0020816704897187854 -0.0037599500657234733 -0.0017815469250032007 0.00286382018753127 0.05450003354409458 0.24712520652151726
25975000.0 0.977332948275088 -0.22291094680370507 -0.007062068088191663 -0.0013151290517074575 0.01648369324950213 0.01738402664017511 0.07285156678766143 0.257273000980812
26974000.0 0.9714113905655531 -0.22645323351080301 -0.005493234629602476 0.00025811474461011596 0.001290691532722802 0.0021052810190227964 0.08018208100994186 0.26533231908858207
27973000.0 0.9715555053164712 -0.23353730345761928 -0.0009036319149598249 -0.003368802120899214 0.0021580058619513963 0.0024946314612349883 0.09717855613294667 0.25545498873562
28972000.0 0.9661400385064268 -0.24513026874460056 -0.0005769674944250265 -0.0005773214403024602 -0.0007660983603879717 -0.0011710816984202518 0.1089412716833905 0.26474665351804866
29971000.0 0.966336492368185 -0.25292153475446255 0.0007382366396195689 -0.0016976210209431921 -0.0010550613869519053 -0.000213512516211865 0.14850407213815997 0.2658726933861094
30970000.0 0.9639719876741848 -0.2568852751102744 0.0016353366890712211 -0.004417891792232759 0.002649458638222829 0.0026008504391537837 0.16182750786198177 0.2534329533252932
31969000.0 0.9602926271901173 -0.26676845006353817 0.0018276379962071855 -0.0060263264109920054 -0.0002727871506712084 0.00042297564510227235 0.15028263665558148 0.24866721455158997
32968000.0 0.9599482017344809 -0.27669686710683306 0.00921115527152903 -0.004735938785687894 -0.003790974194751237 -0.0005711282623642504 0.1597598362762756 0.24838505671231031
33967000.0 0.9571443029540547 -0.28683185689110047 0.01028745748222522 -0.009835127179727182 0.00021113474503845153 0.0010789198452742206 0.18566319516357996 0.2387853410631616
34966000.0 0.954172297416026 -0.29274448247716384 0.013088375414517727 -0.012155416207545008 -0.0022023035993186516 0.0033033928414931382 0.1997719155583267 0.2451628176440236
35965000.0 0.9506729978916219 -0.3014741879178985 0.018216585589972346 -0.016356617542854387 -0.0038993719385440402 0.0009784566162560778 0.21027382581157122 0.250615403300685
36964000.0 0.9494475379112239 -0.30999280452183875 0.018381397693265418 -0.015104746396150346 -0.0022783601215810322 0.0020707931829106606 0.21360467782860743 0.25156450747221243
37963000.0 0.9463330542951359 -0.3194648309883881 0.024122809065880116 -0.021889693829313654 0.0016634049593123087 0.0005239841630662288 0.22187454754797897 0.24299265646389318
38962000.0 0.9443337234404253 -0.32827153717333196 0.022825493455748285 -0.025566664578344826 -0.00442564551202692 0.0016700618758824432 0.2456940782095465 0.236257024576543
39961000.0 0.9408584175639183 -0.3349444365265969 0.027253265164774526 -0.029403254770662506 0.000767726604224555 0.0021379592473961782 0.2441117583485185 0.22200118835266291
40960000.0 0.9366616957923866 -0.3446879602993566 0.02379866546363178 -0.022906994368536004 0.002540122313686126 -0.003972493399870394 0.2677947786926654 0.22557491224412873
41959000.0 0.9342587328953791 -0.35397304184601525 0.02864859084495702 -0.03355338124091587 0.0012576010997607484 0.0005586784844340766 0.27568898679761566 0.20366304729013585
42958000.0 0.9288023466997136 -0.36332089173773763 0.03100946502056811 -0.03982720869328107 -0.0024499638176263376 -0.00013975076874218393 0.27596403871300396 0.19960776472674518
43957000.0 0.9278973546969245 -0.36794307644858576 0.03152530145656424 -0.04423760163789114 -0.0015229323805956317 0.0025775471853359583 0.287172641243143 0.20288800354243985
44956000.0 0.9236328247229335 -0.3770403890518028 0.03349595773542467 -0.05255201151732105 0.002867555854380428 -0.0018077272144072331 0.30274582931584526 0.19440716529197438
45955000.0 0.9197517480089759 -0.3881623878822283 0.034194347669301996 -0.05798121549019908 0.0042107135622412644 0.0017012568892902351 0.30276565165245656 0.1893562234241677
46954000.0 0.916954305060083 -0.3948221053547791 0.033686989996763006 -0.06381177951066706 0.0003099383018304962 0.0005722422569405621 0.3209885998629642 0.17243276082871797
47953000.0 0.9138631447805028 -0.40289453341152404 0.03326412771557451 -0.07535265250070462 0.002944599164975815 0.0014057520990643168 0.3372123388262727 0.16809604718825202
48952000.0 0.9080020791229932 -0.4120776217575051 0.037805422993442646 -0.08080543612763237 -0.0032986410433943673 0.0006973268653960785 0.3358195819534165 0.1653043023445928
49951000.0 0.9045199522613153 -0.42093009655902236 0.03526130150759357 -0.08603253799325333 -0.003035536936629717 0.0016078323603089576 0.3520336187782396 0.1415883696173422
50950000.0 0.9006982019463444 -0.4275771376343946 0.03434860957261691 -0.09367336811563855 0.003168593830919097 0.0022510761127872694 0.3524573139660701 0.1390704146819986
51949000.0 0.89750206409117 -0.4356321963423839 0.036812329430814465 -0.10601157733062551 0.0040898172423574925 0.003546316681997726 0.35831816121468285 0.14291643214735159
52948000.0 0.8952394173460269 -0.44394078407254545 0.03759006776091602 -0.11337735485951214 -0.004624764704312355 0.000725952053931698 0.3689130279061083 0.13773403577237894
53947000.0 0.888908519502585 -0.4508887936206916 0.03934334221448151 -0.12304664698643436 -0.0010456892208500115 -0.002045890279217851 0.37029227426425676 0.12120558174112477
54946000.0 0.8841642313660435 -0.4623201042545017 0.04118426194320771 -0.13059952863851865 0.0017351743406590048 0.0012500275744232955 0.3840442497046931 0.11900300856179782
55945000.0 0.8812009091456143 -0.4683026654183625 0.040981590710463256 -0.1405766411280696 -0.0018723018534868984 0.0024114095169277083 0.39228031011862413 0.09292641095639097
56944000.0 0.8776574049074908 -0.47690135707088194 0.04396656512781066 -0.15151772288201795 -0.0010593885054534207 0.0019258259835751431 0.3976573964275897 0.09996509782259405
57943000.0 0.8735525748697542 -0.487067790431088 0.042353988546746615 -0.16137910910731926 0.0015634869198543643 -0.0024537544729545196 0.4032644284138556 0.09559127731365621
58942000.0 0.8660371959855226 -0.493454967220448 0.04382764320739808 -0.17480279643385288 -0.002499545426137022 0.0006392427771993161 0.41879033728830245 0.08554923641359896
59941000.0 0.8640900228786702 -0.49974634539387996 0.04720785163687904 -0.18020818033616123 -0.0023800843632787584 0.0006348709704002427 0.41707187380314054 0.09077201850563454
60940000.0 0.8569063624698743 -0.5066046456948932 0.044736643862162806 -0.18776759119078568 -0.002749500329113356 0.0005861745167179712 0.4112986456385295 0.06959338539833589
61939000.0 0.8541492836986125 -0.514974662816674 0.0485224009428035 -0.19576224203544929 -0.0004678190472622889 -0.002226920940050321 0.4220308531638502 0.06224323621119585
62938000.0 0.8473273246077939 -0.5257760077314276 0.04986059548724137 -0.21395891796010202 6.317023474734757e-05 -5.6839503755090975e-05 0.44329724792150704 0.04947986602152347
63937000.0 0.8439851623342347 -0.5312408653940841 0.048073456721290174 -0.2344130771715312 0.0009245339090391388 0.00044591469459730686 0.4383921184570426 0.022810772965290767
64936000.0 0.8361437789330398 -0.5393282745198659 0.04819971283310482 -0.24337187750004363 -0.0009794361204854137 0.001663544550286671 0.4376645839900309 0.040659643220190535
65935000.0 0.8327303762249199 -0.5500215707500056 0.05110056945933804 -0.2595810320835122 -0.0005660365896104376 -0.0011130676464016845 0.4407562082943615 0.02583238392012994
66934000.0 0.8298174884639433 -0.5535649485258197 0.05062099376968427 -0.2716433596121569 -0.00121815964869373 -0.0018705218325361427 0.4428045956906767 0.0073840140239811985
67933000.0 0.8266681718663739 -0.5615772336768179 0.052567901713836296 -0.2849905735571695 -0.0017223373834362662 -0.006300078975006418 0.4488637765797307 0.0008237230005114751
68932000.0 0.8156808543632865 -0.5692598397824837 0.044211924504820276 -0.2970568665652085 0.002347429049963828 0.0005110249610947794 0.46325446254017816 -0.0112181575836102
69931000.0 0.8131336918435339 -0.578430143216884 0.043555196700628074 -0.31509499144959385 -0.0018849193441609214 -0.003325319358995157 0.4479021753547346 -0.01924943390717352
70930000.0 0.8064756252147369 -0.585262300089882 0.04509937700786937 -0.32482447819328836 0.001259430936834636 0.0018598130357226315 0.4458285541306422 -0.032769485052728635
71929000.0 0.805030041238126 -0.5927667944724478 0.039899958521484945 -0.3435139654835503 0.0002795801323036473 -0.0024244850937364154 0.4469624594076425 -0.04185599846475471
72928000.0 0.7944845181481597 -0.6038522673666851 0.035771800476242614 -0.36215063753540166 -0.00258342896621737 0.0004282292711130917 0.4690675201219132 -0.0495592697634711
73927000.0 0.7885599619649587 -0.6098171318598902 0.02954094173459174 -0.3792037830378826 -0.00045144966437847366 0.00045442249552763505 0.4609989646838263 -0.06051206974877223
74926000.0 0.7840469625971268 -0.621024778689401 0.023307250590506614 -0.39536882523706357 0.0005797836795027358 -0.0006456039265209506 0.45588826042253616 -0.0668396243208612
75925000.0 0.7778737443530108 -0.6236692493511499 0.013825215614994795 -0.4170294032184768 -0.0030536235943326314 0.0015664875457644285 0.47297144432890764 -0.07885624064984957
76924000.0 0.7757521887589297 -0.6303060791240475 0.0032306290367746984 -0.43617002187379494 0.0011953601095984227 0.004689365193262395 0.46211296248483963 -0.08678168302404139
77923000.0 0.7649141526298733 -0.6387533107832185 -0.01193522035059138 -0.462701457724117 -0.0006116767493461448 -0.000850672940873479 0.4584320909157277 -0.10800837237748738
78922000.0 0.7604740252000698 -0.6471973002647675 -0.0272036394212714 -0.4861014358963029 -0.004789768186232291 0.0036884944867190774 0.4589475710430848 -0.11091882604703607
79921000.0 0.7511004313584118 -0.6515667049398763 -0.0437778433833008 -0.509039436072685 0.004155519690922368 0.00026550226699504677 0.45955800414163295 -0.12068252930047033
80920000.0 0.7478380823802937 -0.6647117022091344 -0.0627976317301919 -0.5380571867118673 -0.0006276206211922233 -0.001578043382142357 0.4711606821606563 -0.1378519862602819
81919000.0 0.7414447471582025 -0.6677411146031891 -0.0801766664255098 -0.563350874743168 -0.002152161538293125 0.0030795513012924092 0.4767974975353946 -0.14032042889039859
82918000.0 0.7319943901975067 -0.6751701569007476 -0.09014324301063006 -0.5960782968348424 0.005146287749748939 0.0059518587372000015 0.4709053243566255 -0.14379721689094438
83917000.0 0.7238962593942642 -0.6836035941135712 -0.12017654845644869 -0.6207885379056984 0.0006219824769550177 -0.003308028197707798 0.47271463430852867 -0.1571760701492248
84916000.0 0.7180716879670006 -0.6897248608744087 -0.13433121636641637 -0.6587859272954446 0.000440526071884186 0.0015775322736601269 0.46607157538356103 -0.16619187137909494
85915000.0 0.7124556412943539 -0.6962260728045532 -0.1518659415082006 -0.6853508937718167 0.002232249329549525 0.0003832881407788341 0.4690279002847374 -0.18222008607859458
86914000.0 0.705853512515623 -0.708087873864789 -0.16966557811680913 -0.7232523792137078 0.001780154686786452 0.0011725112738529334 0.4575115625771366 -0.18512483214638403
87913000.0 0.6989353233681947 -0.7116292443690022 -0.18315880664322748 -0.7502605109420519 -0.0015609468379323003 0.003901953938483789 0.4569120345219013 -0.18628452908134063
88912000.0 0.6906457436356467 -0.7206770196578802 -0.20484298405625828 -0.7838583818649433 0.001124380296716333 0.003459281672494463 0.4618850719354346 -0.20852310967180215
89911000.0 0.6841228965010828 -0.727475718464863 -0.21675502290826432 -0.8194448778435544 -0.0021193477525723132 0.0028375415210824114 0.4696146415562439 -0.21497499373880807
90910000.0 0.6756447013470389 -0.7332071219966909 -0.23703481795992037 -0.8520387879197211 -5.2430611084384305e-05 -0.003210718421020803 0.4612994772968411 -0.2118360344787005
91909000.0 0.6671422808538161 -0.7370704114066498 -0.25546817185490617 -0.8843762577964834 -0.0018567151353695182 0.004002836085501098 0.4732126095417513 -0.22968826666742465
92908000.0 0.660626475710594 -0.7464132254952346 -0.27274327126446324 -0.9212207910229553 -0.0005342138159561615 0.0024133166909963465 0.46474534077823393 -0.24122788897829203
93907000.0 0.653141814259485 -0.7506891880817442 -0.2896039785968141 -0.9499909364488148 0.0003325344431513403 0.0030261967417441697 0.4581037611396903 -0.25332115237119374
94906000.0 0.6413811332085094 -0.7598194617763935 -0.30331984329886696 -0.9838766186494884 -0.0006482941881437738 0.0017208028680296315 0.45869349871363563 -0.2513157863880499
95905000.0 0.6350646816871216 -0.7671098061918092 -0.3294910698532728 -1.014324235259587 -0.0005347421299363208 0.0006434061482020258 0.4633420562227909 -0.2737606848841448
96904000.0 0.6291560311435483 -0.7746607190013564 -0.34516179370145517 -1.0541921204779487 0.001048952224523685 0.0036122487011094368 0.44746180781208295 -0.26934812846304046
97903000.0 0.6180790707313255 -0.780079732378621 -0.3703227668961751 -1.0802570388788777 0.0018350103960955988 -0.0017681802234843242 0.44954763408806186 -0.29642258540439537
98902000.0 0.6130375851545737 -0.7877908161973258 -0.3897737278135321 -1.1204935450426936 0.001886232168552764 -0.0024037400875129445 0.4551329528441839 -0.29230230679954244
99901000.0 0.6018534761888515 -0.7936429088509489 -0.4179563232347073 -1.1495211129288252 -0.00500918403290967 -0.0015963149522706403 0.4616204183065678 -0.31960421415161194
100900000.0 0.5927855467622898 -0.7966390891976951 -0.44864538451208935 -1.1754917958612046 -0.00015333442521972326 -0.001680473211640857 0.4618067968496702 -0.3183682531541853
101899000.0 0.5851516366094095 -0.8054733112048651 -0.4713512659922779 -1.2163505012632982 -0.001892703647102482 0.0020501229079118556 0.4423728140107919 -0.32606703854602237
102898000.0 0.5763750951176015 -0.8101926884909391 -0.5035541249993637 -1.2575546625579046 0.002175640354325866 -0.0008309351704127231 0.4530160032042669 -0.3448631827650375
103897000.0 0.5669078086140942 -0.8200776260710724 -0.5432929257020146 -1.2840099779153373 -0.0021670831704119226 -0.0012166740269757591 0.4480072629238975 -0.3217642425634611
104896000.0 0.560227319551153 -0.8284839764705956 -0.5830539499378014 -1.3153071667435434 -0.004511115170652899 -0.0018658740169436054 0.4458964666849665 -0.3378487770450894
105895000.0 0.5484235062130616 -0.8291689899567952 -0.62848658479749 -1.3525936121224984 -0.004108008395166656 0.0004619257124963598 0.4394351240145861 -0.3580345291047853
106894000.0 0.5418311118248663 -0.837426967244684 -0.6818058125096094 -1.3883532196786634 -0.002401250927125426 -0.0032259850534494547 0.42506460246300437 -0.3751292299687777
107893000.0 0.5343717843890197 -0.8431198271644992 -0.7276067984163078 -1.4234854666495091 -0.0010195506030385546 -0.0020604301987312557 0.431087766899868 -0.38634590937433916
108892000.0 0.5220914364767829 -0.8461794047113232 -0.7915399835021142 -1.4568587713098593 0.0010823080249652796 0.002135793993248355 0.42904541110570743 -0.3873264178146573
109891000.0 0.509347024790245 -0.8560532220570901 -0.8499413284739163 -1.492294024746127 -9.135390361733824e-06 -0.0020942108509142384 0.44603708513227774 -0.3825206068118438
110890000.0 0.5063844581044892 -0.867708546967369 -0.9115266999656029 -1.5129653972744443 0.0018226955054161979 0.001341721867838335 0.43407249353838656 -0.39248491224806
111889000.0 0.48988707563436373 -0.8619974863689635 -0.9679669279264835 -1.5552464894159272 -0.0012071306821565043 0.0005404070281929838 0.4098744879801392 -0.4048743230300222
