! Created with skrf 1.9.0 (http://scikit-rf.org).
# Hz S RI R 50.0 
!freq ReS11 ImS11 ReS21 ImS21 ReS12 ImS12 ReS22 ImS22
1000000.0 0.9759087187216569 0.007784465271073544 0.0018582693647410814 -0.05117275768949789 -0.023406946087743234 -0.008767827420996702 0.2974624974251173 0.3514340947867922
1999000.0 0.9964338185850349 -0.012541850146047192 0.005248192042849781 -0.02138472093751677 -0.004122338353147337 0.0019496633253386344 0.2636988786687126 -0.06383479507465809
2998000.0 0.9997750564435933 -0.01948299877354194 0.011977740651963045 -0.01628799936684404 -0.003923505425420976 0.001459067761514923 0.1901511113959254 -0.14421804465771396
3997000.0 1.0012996115845132 -0.027529499118277193 0.011134650732087793 -0.011259193379830402 -0.0016970311201537456 0.0010671504469519392 0.0774043645900836 -0.24354149699672417
4996000.0 0.9994961954808735 -0.03689545720680869 0.009607384842840096 -0.0021550057292885286 0.0042373533025192155 -0.000449584147035346 -0.04545078688028131 -0.21521460419128913
5995000.0 0.9957500596234323 -0.04756112968140046 0.011501323847833058 0.0026663198044058023 0.0027704027394878893 0.001659236834312088 -0.11460480269589424 -0.08343355605147819
6994000.0 0.9962000925861605 -0.05591875492833454 0.006996679785956864 0.0037394937784120744 0.0030745425327215895 -0.0013076667314671244 -0.14694297668170142 -0.026538270175747197
7993000.0 0.9965759078867233 -0.06439715191344375 0.007305427149644052 0.002693491094628603 0.002420767680225706 3.379886219777188e-05 -0.16608232794501496 0.048067638384411
8992000.0 0.9978463398774419 -0.07266989543237914 0.00701750533303147 0.007728764755772742 0.002359220246395311 0.004073598996710212 -0.15338783215759996 0.059524129527376894
9991000.0 0.9947161431731274 -0.08325590427674474 0.0018927042014977333 0.00437618215464494 -0.005951749103553744 0.0012670745353163726 -0.14237868151998473 0.09027621055954198
10990000.0 0.9954099925240073 -0.09001767178368826 0.0032502354164770726 0.002498169366731989 -0.0025497955716914755 -0.0006938699210972774 -0.1353781440066423 0.10217795494781065
11989000.0 0.9915213938252215 -0.0997680254534997 0.00041444074141599053 0.0010978977017639504 -0.00031227936090429196 -0.000888515659370282 -0.12009456471765426 0.13361998966201558
12988000.0 0.9920789419720789 -0.10668385250618091 0.0009914472811728037 -0.002192768128822575 -0.003101426767333992 0.004261350673925372 -0.12140651310551646 0.1587112838980268
13987000.0 0.9888556178558753 -0.11694526260125022 -0.00017629281950799124 -0.0037286375934020358 0.0016965175951520193 -0.0022998841588087885 -0.09429282402330393 0.1956225189330468
14986000.0 0.9892188984009018 -0.1239333799728964 -0.0036900622887280333 -0.0034657468244675966 -0.002057506982979895 0.0007727893563662541 -0.08481695443969396 0.19860321810316892
15985000.0 0.9893142356264281 -0.135138172193856 -0.004617929540235552 -0.004723366734768735 -0.004121851986232243 -0.00019515155473200302 -0.06741405430655562 0.22308342485985544
16984000.0 0.9879628245634888 -0.14375984442302778 -0.0020410655197033436 -0.0037089540422709636 0.003476455196076347 0.0015503040987734531 -0.060957222852276775 0.2180974389648532
17983000.0 0.991507778504571 -0.14692944839932714 -0.003980615499804232 -0.004586167668371742 -0.002105030694096725 -0.0002608904053173688 -0.05034944266050862 0.22585928656120421
18982000.0 0.9835614476273249 -0.15992643673339632 -0.0032656461174757844 -0.007534055238317234 -0.0017333737798502409 -0.0028344867574620434 -0.03764840945930946 0.24303201782239348
19981000.0 0.9853875096051226 -0.16478281925678553 -0.001067317168666594 -0.0027217892865483775 -0.0005014328061937376 0.0026492003894310586 -0.01408451717208694 0.2389879195751099
20980000.0 0.9844509743784573 -0.17376642937375986 -0.003367339428904469 -0.0036270803843649964 -0.0048398847616981456 0.00211028014234653 -0.006597676968735063 0.25939257957144535
21979000.0 0.9806783986902845 -0.18448348386307986 -0.0017118351445927998 -0.0047667224106546155 0.0014381271442927414 -0.0005284544095420193 0.008806825605698782 0.2586177640397326
22978000.0 0.9796193764358313 -0.19281084476105878 -0.004559151876388303 -0.0060056473357852965 -0.0008128195688725941 0.003373836266253413 0.029897129086174243 0.25789858610953
23977000.0 0.9793639480859917 -0.19950267527634505 -0.003426970387231566 -0.0005942949574865411 0.0018203362122207252 -0.000576073404165565 0.03593575133834478 0.2565638712051809
24976000.0 0.9743805377803285 -0.2090596369745195 -0.0018244005532448903 -0.003035275682095407 -4.94037247758338e-05 0.004177182555258207 0.06363982490578696 0.26076386492748715
25975000.0 0.9682515598665958 -0.2233101116494819 -0.0049066022167323 -0.007062917687511138 0.007285703424694551 -0.024468426144175968 0.08652169933614241 0.25502508043129046
26974000.0 0.9734045895325378 -0.2253951262960034 -0.005598503599435809 -0.00019791771002024148 0.000708271434144909 0.0018579571785696015 0.09143445963018042 0.2606971303300957
27973000.0 0.969911116036424 -0.23358252398023763 -0.002646252796907416 -0.0027368053246184096 -0.0015291185271533144 0.0010894373339097934 0.11277220792956426 0.2497271233700719
28972000.0 0.9676241694981919 -0.2431330095728148 0.00022385036204627197 -0.0026658036748291787 0.005920259316356225 -0.0003752369381102091 0.1061105806743784 0.24624853625137802
29971000.0 0.9664964991228174 -0.2519411272685303 0.0005997644719359425 -0.0018702401078397393 0.0002079697389213092 0.0008558912372159225 0.15574495183461412 0.26370746309316645
30970000.0 0.9639107896975503 -0.25649975622921173 0.003582275108864803 -0.0001428321805744988 0.0004426763247726462 -0.00391150206442305 0.16908944046676955 0.2450151464943235
31969000.0 0.962503008287218 -0.2639631787031205 0.007628983479506739 -0.007068610962446105 -0.0018905817912680202 0.0012704935808282556 0.1520115204523557 0.24525171973864535
32968000.0 0.9611038692694993 -0.2742844404139563 0.008497899139352259 -0.012013189201635681 -0.002216690431675697 0.0016749559246193354 0.16735099022343272 0.23894446993231822
33967000.0 0.9597510885163397 -0.2830908194638268 0.010463406629577681 -0.009055872616733842 -0.0014341299303957465 -0.00015265492382524553 0.1873635916949472 0.2475545537778877
34966000.0 0.9548904654553964 -0.29414870313903546 0.01398406309835998 -0.01225766645455352 -0.000620008671305592 -0.00017316861603614649 0.1984541072998947 0.2494955311579786
35965000.0 0.9511828578934904 -0.3012334457768127 0.01829770299990665 -0.01315670922294809 -0.0015691339926428645 0.0014936018296496105 0.21314360914321245 0.24215699726707357
36964000.0 0.9506218064284554 -0.30871317432157025 0.016621144072671255 -0.013915499436437958 0.0006201519709777759 -0.0039488467798172895 0.20901815031651885 0.23652531316597203
37963000.0 0.9453986672228867 -0.3186026124550605 0.0231550265724412 -0.023358384492929766 0.0053760930150551734 2.2532810720595424e-05 0.2221990154693657 0.22491793528850595
38962000.0 0.9448000567201781 -0.3255635581719003 0.0247738899312853 -0.025910717109384696 -0.0013565375814287418 -0.0023185226720417165 0.23902687413211327 0.22861229006252243
39961000.0 0.9406798350916156 -0.3352827149630753 0.02731882982651101 -0.02760964558103078 -0.001098539102781611 0.0009246635516060816 0.25176654967043 0.22552401148446896
40960000.0 0.938567604511346 -0.3399255237428245 0.02593334486917688 -0.024908273770703926 -0.0018840210606661542 -0.0006567442661397045 0.26776216253351054 0.2239388694005082
41959000.0 0.9349062194551102 -0.35095495716281505 0.02892596356430262 -0.03204877709876989 9.907643219836241e-05 -0.0011048557089115315 0.2633271961636499 0.21549234436654732
42958000.0 0.9305581330582788 -0.3596501491339752 0.033075015806764314 -0.03873210611833923 3.262023851415238e-05 -0.0017314198768909983 0.28310288736576633 0.19641628702621947
43957000.0 0.9292610062050899 -0.3659595985524956 0.032727864332958385 -0.04552600288684996 -0.00023476716173443036 -0.0018912213295876185 0.2854012459148683 0.20578354279980912
44956000.0 0.9239487437943895 -0.37512688019624707 0.03326723344855646 -0.05125201738633559 -0.00039505851701349094 0.0003797881825440351 0.29890434462375465 0.18918278318875553
45955000.0 0.9211580971226062 -0.3845435327910992 0.032141647326994774 -0.056636603414285794 -0.00026643687370586324 0.0003009634646229437 0.3042624815124221 0.19399543945387743
46954000.0 0.9189514786865179 -0.3916626575381704 0.034431118802066216 -0.06374709859293992 0.003256707507836398 0.00043163412877811135 0.327837753841015 0.17877040067214162
47953000.0 0.9155038452061083 -0.39979489502722526 0.03876048044000058 -0.0709431267689854 -0.004484514549889816 0.0006647669510644579 0.33733399691777205 0.16808185885597698
48952000.0 0.9109429408622528 -0.4110780677416763 0.0360227069533708 -0.07891189285628351 0.0008682522244702346 0.0012457808309343538 0.3402122379138932 0.15146472682317996
49951000.0 0.9052722974745313 -0.4182206149332955 0.0367444287012577 -0.08878286851655667 -0.0015313873403837365 0.002052693397615052 0.3612158596975103 0.1465187392485636
50950000.0 0.9019894133065066 -0.42543505495079253 0.03766853532887287 -0.0955482950216667 -0.0007531220809732976 -8.980936767559317e-05 0.3552329889304169 0.14265049910730182
51949000.0 0.8987258268121627 -0.4336570847499142 0.03817773528118568 -0.10337452809449586 -0.0015079206976220554 -0.0007772587585733688 0.3607059286437396 0.14120339195379636
52948000.0 0.8960137457910854 -0.44160346585305266 0.03756320220794654 -0.11255073206036877 0.0032802210850247796 0.00013523048387630116 0.3779281968348173 0.131621765229705
53947000.0 0.891351276401312 -0.44719459238988113 0.03956268988511353 -0.12281747925443812 0.0007597654772909424 -0.003835860546391235 0.3728933470999478 0.1219122783545524
54946000.0 0.8850589103985881 -0.4597934429339592 0.04349610526661994 -0.13183722195190217 -0.006055060000061633 -0.0008716989744846671 0.38771334824170905 0.10732720858553634
55945000.0 0.8834284704954279 -0.466436350752285 0.042302732780879475 -0.1411001797033211 0.0016739411913825372 -0.004022151165557158 0.37902673037241885 0.09152950503222294
56944000.0 0.8783880818415195 -0.47271397015084715 0.04249927071744455 -0.15022437623347074 -0.0009810047631613804 -0.0009696618172227285 0.38994091081262167 0.10306541809056519
57943000.0 0.874794367227414 -0.4843391510741085 0.04403389263099891 -0.16023004831357837 0.0004795016494030845 -0.003511164684596939 0.4028902875896683 0.08303705000753832
58942000.0 0.8694627021094987 -0.4880030444592011 0.04575478874529027 -0.17318948083057428 0.0031149957377758757 0.0011169623647908325 0.4160305428417213 0.09335945304136414
59941000.0 0.8657197751021297 -0.4975852862345488 0.049107664021777825 -0.1824464352238327 -0.00017934614679387882 -0.0023421588914373822 0.4094534041856775 0.0819541280068932
60940000.0 0.8587457582782528 -0.5047926909327317 0.049212522882298805 -0.18675132990690915 0.0015498600443637016 0.000508107902443905 0.4129061373908511 0.07548072906727676
61939000.0 0.8555923183165851 -0.5112423048366119 0.05147534064010376 -0.1939222441267254 -0.0015025343946837588 -0.0010444702367690096 0.41513747926174766 0.0573665308678507
62938000.0 0.8490309323959421 -0.5235784885610536 0.05441873790332161 -0.21244402754996333 0.0005134572856403776 0.0033131980446147215 0.45372356151307014 0.041709928304244984
63937000.0 0.8450246307268028 -0.5292753205686345 0.05330762328514803 -0.23381534640287993 -0.0016613059218334467 -0.000686863625117914 0.4309980586562921 0.02867178372155296
64936000.0 0.8381318694327449 -0.537087849077013 0.05150618378299452 -0.24536564309999148 -0.0002641712180468196 0.0034627892872671406 0.43296991332873 0.03344718300248946
65935000.0 0.8339660592259815 -0.5487351227250598 0.05342960917277894 -0.25571322608227387 0.001604436806920919 -0.0013323783882581578 0.43952921334538164 0.010421358114468017
66934000.0 0.8315063985498498 -0.5507270169336695 0.05302234951051528 -0.27229249196844335 -0.009347901634964951 -0.0016357974495699618 0.4378474516333324 0.008424377323379932
67933000.0 0.8274546467160416 -0.5610097635799492 0.054990825934291734 -0.2822820348770081 0.0009656300051920835 0.0012222294452240697 0.4447849182843789 0.004963445677991175
68932000.0 0.823835563634121 -0.554524504234619 0.054094620325186374 -0.2950247646947014 0.0005754343084290499 -0.0055910148577699 0.4444341259794392 -0.01717271701571887
69931000.0 0.8134744180119798 -0.5765354781599054 0.04807223162856615 -0.3173127275181528 -0.0024432638611873968 0.00226430743001379 0.4581217009828266 -0.020641329009819253
70930000.0 0.8090320462004635 -0.5827261877611913 0.050697295780519624 -0.32777951132758815 -0.0014441061020717383 0.002479628678766071 0.4451731810462692 -0.04062961853507353
71929000.0 0.8061795084506579 -0.5902586447306432 0.04682796577796433 -0.34671762830197683 -0.0034729785483764305 -0.00455386438948473 0.45015812610752237 -0.048534846594730334
72928000.0 0.7980689435709889 -0.6009469640454852 0.04036189592825574 -0.3628270011590602 0.0004650265824313946 -0.0009626797542636789 0.44791583420818215 -0.05298998296874896
73927000.0 0.7920264387450583 -0.6078258697643764 0.030836158369045356 -0.38106501891155214 -0.0030248241469485798 -0.0006001723024080645 0.4606397853148467 -0.07027575078775028
74926000.0 0.7866728299279765 -0.615173245491958 0.02724836245183653 -0.4008959733853028 -0.00039323775120421315 -0.00311177016791791 0.45925682632858783 -0.07507805870954126
75925000.0 0.7821699028921011 -0.6205949497875093 0.021230602181863338 -0.4174705059421624 -0.0034137652566786055 -0.0011995050446059212 0.47863238261547464 -0.08240705854375519
76924000.0 0.7754275082422294 -0.62890233749466 0.004857130579486801 -0.4420883783130063 -0.0025217480806700963 0.0008668072923878105 0.4626805777987586 -0.08817341642358482
77923000.0 0.7679724924216851 -0.6364572450790585 -0.00784793785073004 -0.46227530431708236 0.0031230213985425736 -0.002607053982476233 0.4647078358786675 -0.09491209480864608
78922000.0 0.7639755733869857 -0.6450199786774256 -0.020370523962583736 -0.4916090314413882 -0.00206487179607514 -0.0023134853330577707 0.4634006044105511 -0.11612550501046678
79921000.0 0.754136387707596 -0.6499202098606709 -0.04055904671680769 -0.5165084029697715 0.0028291403738188053 -0.004165851360493841 0.4475738519710717 -0.12307517819925015
80920000.0 0.7515106154120774 -0.6606609375738516 -0.05673945698735113 -0.5421944160595353 -0.0032394660515256976 -0.0021013310515510175 0.4666112813688695 -0.14083986216729158
81919000.0 0.7450502919356015 -0.6659461628327586 -0.07307105003129366 -0.5704773479703854 0.0007885614257555011 0.0006790828864987332 0.4643280389539014 -0.13419140289237677
82918000.0 0.7344030111174299 -0.6740743128132477 -0.08739688454930719 -0.6011194510877809 -0.004133220988987267 0.0010863708903938473 0.4751969041166649 -0.15829826541038672
83917000.0 0.7285291101873758 -0.6824003885913243 -0.11057904010006125 -0.6280137539819881 0.0002013127953931243 -0.0005253772876666883 0.46256133338383565 -0.16372582352875203
84916000.0 0.7224055919178158 -0.6892762435039163 -0.12347376475716838 -0.6642863989618419 -0.002773160996933656 -4.6396931815895224e-05 0.46282884532243157 -0.1698443826728006
85915000.0 0.716900260076969 -0.6938304259446787 -0.14201502168870328 -0.6960516873736872 -0.002832366886669723 -0.003982882398790713 0.4730365635104346 -0.1789031671554156
86914000.0 0.708900136001072 -0.7039710626791854 -0.1579881932744361 -0.7341870275044905 -0.007185354299308715 0.004174550939754571 0.4532790524956457 -0.180172977603884
87913000.0 0.7029836803001848 -0.7110414891893494 -0.18058063481120173 -0.7621266822708567 -0.003638305782377631 -0.0030676255715320756 0.4625790029173512 -0.19349898001020366
88912000.0 0.6940143640940576 -0.7189991292540768 -0.19139124768346036 -0.7953650933220342 -0.002843070367305963 0.002642651689240701 0.46170753161690214 -0.22081535907682548
89911000.0 0.6882161029577907 -0.7263419751505428 -0.21032930753131177 -0.8287045963540922 -0.0010280899828054315 0.0019514352626413536 0.4636944535282301 -0.2274301523372749
90910000.0 0.681673138634775 -0.7315323823548858 -0.22705573908243426 -0.8655190280050055 -0.0006772666609187816 0.00012207235636672254 0.45582673887290287 -0.229008556487513
91909000.0 0.6711460287741116 -0.7363608709985474 -0.24843080265584486 -0.900024269515424 0.0009055481944424255 0.001973048184419748 0.4638519935734035 -0.229535552250581
92908000.0 0.6651253768034621 -0.746802508113124 -0.26314206346951424 -0.9325509925162302 0.0005254671268119547 -0.0017944059577520324 0.4562097517114209 -0.24197821709485276
93907000.0 0.6573369016513831 -0.7494718275047835 -0.28078827004988394 -0.9609254980228141 0.00331713922280519 -0.0009705743884048158 0.4621826064630814 -0.2717492697690141
94906000.0 0.6475645222699924 -0.7564186319196774 -0.29570230511849027 -0.9919207435907423 -0.004410063948168156 -0.002077120863374951 0.45468262385903785 -0.25453614349569426
95905000.0 0.6386642202850011 -0.7653650291623937 -0.32232573910467677 -1.0291187838590956 0.0012743086670834716 -0.0024529207796005043 0.4503652551673408 -0.2746314657792438
96904000.0 0.6312815659271471 -0.7731371419984743 -0.3409075447020653 -1.0649720073721232 0.002402343447209668 0.0024985054658632965 0.4490331645823406 -0.27656049173041447
97903000.0 0.6208694500914165 -0.7770887146543708 -0.36197820879758674 -1.1005503616757804 -0.002795821870544817 0.002039590173682762 0.4445680769816463 -0.28865383054766663
98902000.0 0.6184010278671543 -0.7862516988304997 -0.379365792808453 -1.1413019136700044 0.002222093814902197 -0.0010089833766090506 0.44049986152212556 -0.30609581481455805
99901000.0 0.608178067771254 -0.7908879703188209 -0.4086286629964024 -1.1713965008906133 -0.00014387317204030356 -0.003342206723643536 0.45455871183680374 -0.3261893688752986
100900000.0 0.598798476163701 -0.7931667052883836 -0.43827534415992286 -1.1956264799683474 0.0011633964441207867 0.0009049211904266077 0.45875292015505287 -0.3283846022961669
101899000.0 0.5910660438835966 -0.8019127854578665 -0.4597451620986628 -1.2378071587944846 0.000379569359692764 -0.0038464037698144635 0.44123051175206823 -0.33673402174417705
102898000.0 0.5815647442565572 -0.8073240316947125 -0.4914125770501251 -1.2765276959051672 -0.0013637939269791962 -0.0005562781382462043 0.44400350708951053 -0.3405695741683555
103897000.0 0.5728333105751092 -0.8146201178933408 -0.5306899064713516 -1.3059553408713593 -0.00174017028144633 -0.0006142301942651473 0.44739499400778565 -0.3358537462017857
104896000.0 0.5650155173320752 -0.8269281776369501 -0.5783783344352961 -1.3384355313349436 -0.0015573337276756157 0.0006263478670554975 0.43829858257199567 -0.34597152547193755
105895000.0 0.5550613809936112 -0.8294668143979391 -0.6192006514188964 -1.3800173543413918 -0.0004251242153589383 -0.002120920226758057 0.43409981903027745 -0.36620040846492835
106894000.0 0.5449421063479496 -0.8360652308247605 -0.6737144591875094 -1.4172341996034676 0.00015738875373614262 0.0014799351080430464 0.4261446348156574 -0.37922788952004843
107893000.0 0.5388247764375321 -0.8418695636659181 -0.7232449023486215 -1.4576509502798443 0.002092599689654932 0.0013633219122995428 0.43608714487323863 -0.39225496935705856
108892000.0 0.5267434196414444 -0.8441183315355953 -0.7810870092155178 -1.4912078245364586 0.0012024060020449688 -0.0035108173059684032 0.41887491066158683 -0.377748168459157
109891000.0 0.5165643398931085 -0.8532166810815393 -0.839212353181638 -1.531421887876864 0.0005220753850364104 0.0033318193151302615 0.4449337075895717 -0.3751061418953275
110890000.0 0.5045727988788331 -0.8524885959539755 -0.8953639645139158 -1.530418227495322 -0.0013126545565211774 -0.0005795117598980985 0.42192111536493687 -0.38931426428812965
111889000.0 0.49548306679080484 -0.8591787396657222 -0.9607167896547406 -1.5921089024546937 -0.0003683240407281296 -0.004157679438481362 0.40404687648298837 -0.409932370898348
