! Created with skrf 1.9.0 (http://scikit-rf.org).
# Hz S RI R 50.0 
!freq ReS11 ImS11 ReS21 ImS21 ReS12 ImS12 ReS22 ImS22
1000000.0 0.9696050312564594 -0.0014879608047579115 0.0005550000039800091 -0.03588348817531074 -0.011354179788771537 0.0201549155032774 0.3616860722997262 0.34268412310668434
1999000.0 0.9919818490637192 -0.018579280108080024 0.005897696303939162 -0.018546452538803812 -0.005203173845373908 -0.006331963286289402 0.27288866559568437 -0.05407625608940349
2998000.0 0.9934590522190467 -0.022481862927113173 0.01061735007431389 -0.014507047156794756 -0.006457677480313859 -0.003106260757993 0.17618978995701262 -0.13007522402019445
3997000.0 0.9988893552859092 -0.03553354789013956 0.017164821373394985 -0.00372451044293645 0.0026562699797162462 -0.007809367844362197 0.07319138789631158 -0.21488592484037117
4996000.0 0.9925681480088142 -0.03960926730391284 0.010064767574623082 0.0015906278635858815 0.002953580130953674 0.0008302245263762561 -0.05183787326450877 -0.18383737363608285
5995000.0 0.9905794744276125 -0.053003913770256865 0.010239674759300764 0.003390251926293804 0.005200337187201524 0.001166485962499742 -0.11092260478468569 -0.09199519995842402
6994000.0 0.9901289075896555 -0.05890834273135867 0.0056406136291511305 0.009423472482112661 -0.0024515216256947954 -0.0016358300501124027 -0.13530071157892895 -0.009943475196081285
7993000.0 0.9916257063000044 -0.06855168125478511 0.003182094751268357 0.009331116345949738 -0.0018505548197654414 0.001458748737906187 -0.15500448997981253 0.04167810098958689
8992000.0 0.9926683620037946 -0.07183280289389675 -0.0007301179836464041 0.0018546128461156277 0.002281962311255757 -0.000517944250807249 -0.1592020264212683 0.0688231006381709
9991000.0 0.9882087546965826 -0.08542381668521484 0.004431468945302991 0.002566320359700867 0.003586843094576287 0.003584126980422206 -0.14276192769029636 0.09762249843509736
10990000.0 0.9860859377212343 -0.09542296399417666 0.005244275986464818 0.0010674499772769064 -0.0011478147386176799 0.002378598177143846 -0.12418482728133368 0.11538555021364386
11989000.0 0.9868345740372745 -0.09989394496500359 0.0006634859438570096 -0.0018210058277029683 -0.0002664197764307744 0.0013512609183005983 -0.11836858994534098 0.14511993146481197
12988000.0 0.9855172914232576 -0.10975570379149298 0.0014292103445509097 -0.0035004181420979796 -0.0018584343886294279 0.001848934130887189 -0.09741706303247878 0.1679658741631051
13987000.0 0.9833472807444904 -0.11752318221702705 0.0001458806900368661 -0.004360173214154068 -0.00032694977784689566 -0.00401494942449427 -0.08703673573317924 0.17979320331314727
14986000.0 0.9834886656495803 -0.1261671462339072 0.003367621563769258 -0.004716344494206958 0.0002659864164576521 0.00013575081090003277 -0.08008758515598491 0.20217456429475214
15985000.0 0.9837401623223332 -0.1339168221696944 -0.00404264433988726 -0.005593698067260826 -0.001227701608289876 -0.0027830601995469757 -0.05937553597714847 0.21097844781094668
16984000.0 0.9803109102159635 -0.14417875871483002 0.000923948132612082 -0.0013002530654328973 -0.00013162055869286721 7.431028008551373e-05 -0.05912110705727538 0.22031831568939558
17983000.0 0.9810385283268972 -0.1490429919962551 0.0008459562082388346 -0.0064582247340280105 -0.00016156548268843936 -0.0022091638499078447 -0.04929617100164014 0.2267829031958473
18982000.0 0.9798646086761617 -0.16059373206919494 -0.00260140928161922 -0.0005957699357481643 0.0010745346909231163 0.0017755466048523657 -0.02473255459072354 0.2427677376066616
19981000.0 0.9785396525480399 -0.16749137881443688 -0.003378849766541134 -0.0042942118722351045 0.002475809841347202 -0.00016405799946464885 -0.015434625594930137 0.2513632308874636
20980000.0 0.9780520111369765 -0.17574765629992264 -0.004734139629222421 -0.0026819417357254044 -0.0016720726260443305 -0.003532422810498938 0.007203291225245568 0.26450666349928564
21979000.0 0.9740754424114709 -0.184289791415307 -0.004862531332930608 -0.0008127769470088844 0.0004272708522952159 0.0013238182031075566 0.024036190081228318 0.24578732454426747
22978000.0 0.9729284267627704 -0.1919817913082398 -0.0014196187051650196 -0.002365775859807009 -0.002010073155465678 0.0006318305379745856 0.026567910797896065 0.2659730790871983
23977000.0 0.9736109216292929 -0.20245231852749657 -0.006577302350510907 -0.004576372832928247 0.0023796727057150795 -0.002321666174813828 0.051991202668775764 0.24520354038117861
24976000.0 0.9715154458773982 -0.2105049680996626 -0.003190782131996512 -0.0008847237514319328 -0.0005017205581060714 7.802400286919547e-05 0.06084227283065609 0.25276917328226567
25975000.0 0.9625159181269639 -0.21680545749636432 -0.0022009307878856133 -0.005186997723995762 -0.028113580446632584 -0.006819495883363969 0.08450594186308683 0.2591502226971696
26974000.0 0.9669417731174644 -0.2281482103051741 -0.0036536031776589657 0.003898848712684337 0.0020300721256465187 -0.0007969392698932746 0.0890510872877427 0.27075426773944083
27973000.0 0.9665554275832425 -0.2343917150484958 -0.004541684607528043 0.0013966565353882977 0.001288002882348605 -0.0017675986598947415 0.09724004459983045 0.2594007160518702
28972000.0 0.9612914796475127 -0.2458694951698878 -0.0005162190737786979 -0.003463542350613323 -0.002958693402165148 -0.0004494523713369647 0.11636900305324008 0.25780980644342255
29971000.0 0.9613585587174993 -0.25188553104656974 -5.667848378235786e-05 -0.003261003342701772 -0.00038687651014410315 -0.0021510667857820498 0.15363251630010782 0.27071399538312957
30970000.0 0.9585255696571369 -0.2582936588177523 0.002442851296581014 -0.0018263595700716932 -0.0030479299333743748 0.0020796614251700875 0.17392025548753298 0.25337479532927354
31969000.0 0.9570761111838342 -0.26753602732198345 0.008220084286355147 -0.00628971198985432 -0.0005203569336071077 0.002606416189422366 0.1560372242191498 0.2540731217070841
32968000.0 0.956120842255871 -0.2769125588356799 0.00839072256792205 -0.007022248470245383 -0.0010654562653498022 0.002202967751365383 0.16563634590171497 0.25111377958472814
33967000.0 0.9530538314496461 -0.28832522366270646 0.010754427009770699 -0.0074342323076370485 -0.0009755835959681717 0.0038870033107043806 0.1897595985360316 0.2458196019206851
34966000.0 0.9504723815358141 -0.293413304694313 0.014615350536361755 -0.015154781185793153 -0.0006430111557248182 0.002816054461789124 0.1946787264292335 0.25118268866283694
35965000.0 0.9463722435867834 -0.3035617546291328 0.017348002348499137 -0.015670847391461264 -0.00030056796646890454 0.0003592202286700283 0.21594514804974257 0.2496727986521054
36964000.0 0.9454278765921641 -0.3130327085568405 0.017989441305816107 -0.012558252980195823 -0.006423550934668547 0.0061030543491778656 0.22208207406143027 0.2475056921175216
37963000.0 0.9404726206335584 -0.32217687236616915 0.02043495384764109 -0.018307498937178136 8.72706997853851e-05 0.001340807365052851 0.22796621235075937 0.23311703789394822
38962000.0 0.9385093816235693 -0.3327520417631503 0.026205768920510856 -0.02381204454734594 0.0011693351563155949 -0.002336606605465367 0.24036117674802154 0.23329670593968177
39961000.0 0.9359835453796319 -0.3383396987091149 0.027802757292806343 -0.02814974423982043 0.00014309943971819807 -0.0017233089624123638 0.26262811320277213 0.22936911789635483
40960000.0 0.9325235132391678 -0.346220319474579 0.02424649050579923 -0.0259887870423417 -0.002902221345580771 0.002139058643832688 0.2696474716708452 0.22673202636266612
41959000.0 0.9292568905091161 -0.3565354854293309 0.0322650119864847 -0.03440860851025509 0.0004177799345484045 0.004414240474410602 0.2734848905330595 0.2162781303949164
42958000.0 0.9233919113381495 -0.3665728525249507 0.03290661117185767 -0.04249560317061251 -0.0018567624602852486 -0.0011764939985293044 0.27964878546210553 0.20810714250012963
43957000.0 0.9228371191891694 -0.3735088217427196 0.03658035925862441 -0.04849554447946709 0.0018561906485185795 -0.003100110295933384 0.28034082730462656 0.20997732646206718
44956000.0 0.9201622903825714 -0.3778064253528525 0.0374600682923625 -0.05551582799627092 0.0008969007165805239 0.0002347700244523195 0.30706183557934497 0.19207363714899373
45955000.0 0.9143335760131163 -0.39021753056605085 0.03822973440755534 -0.06033624610271822 -0.003373064913164934 -0.0011433688276578282 0.31032335621474527 0.18509496494398844
46954000.0 0.9116012188274143 -0.3988415449703964 0.03816706120953342 -0.067567366223109 1.6679182834618485e-05 -0.001097088348896505 0.3180646163967094 0.17704097843836628
47953000.0 0.9079852788535772 -0.4069006309668146 0.0382463743605295 -0.07642096259799552 0.0023790814775850482 0.0005397112423025313 0.3394863970686743 0.16688020016266292
48952000.0 0.902388877833313 -0.41609443610763885 0.04390853650599319 -0.08328578255862079 0.0020357789052663933 -0.0036070110062726957 0.33907923094274234 0.16983030379846353
49951000.0 0.8995845921803377 -0.42422896053515186 0.04206797490545094 -0.09097449305906766 0.0008286875940841619 -0.0012937848448486338 0.35164250269668285 0.15726728360728234
50950000.0 0.8961112924865169 -0.4328387061344493 0.0436822655337232 -0.0995108846063148 -0.00029531791427495925 -0.000481528470350703 0.3541693897542019 0.13832307173474787
51949000.0 0.891599833320705 -0.44079549370597126 0.044415389347299813 -0.10705347572880465 0.0010895889777271502 0.002597640157184113 0.3636896049584905 0.14309257904286002
52948000.0 0.8895424767792482 -0.4486094164754465 0.04960339542074144 -0.11732872449977272 0.0008750300264048754 -0.002216224708623853 0.3740815969384002 0.13921997209099093
53947000.0 0.882356678723404 -0.4568627041335324 0.04807429753363525 -0.1251956757585801 -0.002172483042956353 0.001038321025534543 0.37185266175471443 0.12467039284422728
54946000.0 0.8783056311889399 -0.4640659080850456 0.049252378464122414 -0.13509624917900884 -0.0005871746640242419 0.00252398259666128 0.37327792707701196 0.12897992741930409
55945000.0 0.8762254068554457 -0.4745930444170125 0.05330395574209211 -0.14700595424405463 5.763714182688899e-05 0.003301567138719282 0.38791384049103106 0.09879035526051567
56944000.0 0.8709321716334844 -0.482000180164679 0.051025331728748326 -0.15725016648299991 0.00021078546497195022 -0.0009717111403295523 0.40091591523657477 0.09648550540733869
57943000.0 0.8652919625473988 -0.494260834587236 0.05276170137217428 -0.1684082042900627 -0.0007468232285709928 -0.001736469263907599 0.41433575185486327 0.09461472231753985
58942000.0 0.8607497232390374 -0.4980699002920376 0.05785149948086848 -0.1793736598272307 -0.0013179655552854092 -0.000863262163511307 0.42219342913515523 0.09189336630763212
59941000.0 0.8573855819047379 -0.5078448844281823 0.05834820662878273 -0.19227089570139022 -0.0018883164033358087 -0.0019588696274619494 0.41724297117564785 0.09078081698689154
60940000.0 0.849550170114831 -0.5129695709131894 0.05734168302668108 -0.1925112732973257 -0.00018941404900420336 0.001891848561067255 0.4090000898082017 0.08051041964673253
61939000.0 0.846425003307764 -0.5202267270579738 0.05530328003118814 -0.2030722784615172 -0.0008434166361342179 0.0028000635613799987 0.4179330816512019 0.06434308276061851
62938000.0 0.8390146234163807 -0.532070170234593 0.062259910584637736 -0.2214998075512548 -0.00094538910001709 0.0014241299186625765 0.4356687188729673 0.05414157398707021
63937000.0 0.833897577976628 -0.538669471076386 0.062074428610358966 -0.24205878043563603 0.0002777325208044409 0.002850591618530548 0.4348666432290227 0.044325410080583875
64936000.0 0.828668465796232 -0.5435690198152567 0.06279875641989498 -0.258095880099634 0.001229438503262971 0.00024649855641667705 0.42996231261808343 0.04034377668488011
65935000.0 0.8254305412686804 -0.5532323882582195 0.058119497971314785 -0.2707492311767706 -0.0029124046360651857 0.002879852383582536 0.43552287763099257 0.023680402070478966
66934000.0 0.8196968750146848 -0.559384500728399 0.05962286198518904 -0.285812600521487 0.0017513055645133977 0.0005114833094837107 0.4422770386655776 0.010157735950849489
67933000.0 0.8172091660318487 -0.5666553864947641 0.061284601730533635 -0.3037790273786027 -0.00029305149626303746 -0.0008063174987453732 0.44160590591608445 0.0031340046784158423
68932000.0 0.8023678961921715 -0.5749729464071753 0.05217962868354652 -0.3151193602168029 0.0014277135900577058 -0.0036218163434614597 0.45555735965478783 -0.015031797871456132
69931000.0 0.8024030389083574 -0.584658496966933 0.05644401855998609 -0.333359890134986 0.003741233881070669 0.005520298485655364 0.4509014492705037 -0.0160563005194033
70930000.0 0.7971087127333243 -0.593489761014984 0.05139308637996439 -0.3497308618097372 0.001609610251122336 0.003964504000651518 0.4437947030254093 -0.034883351184179005
71929000.0 0.7931525419596086 -0.6006375341177167 0.04913575390889216 -0.37054111966745984 -0.0017361630385591866 -0.003390964405348563 0.45086412645127644 -0.02892765100759843
72928000.0 0.7846438426698383 -0.6087273017906374 0.039928171814151536 -0.38759039082555086 -0.001102737032002635 0.0005451231364481056 0.46139102008778676 -0.04861397912855455
73927000.0 0.7768346015109434 -0.6157444180180067 0.03324972229627232 -0.41091408450189787 0.001131478270254326 -0.001916759247913853 0.4663104320555012 -0.05788658940637145
74926000.0 0.775685736976032 -0.6243875548350959 0.032221757392966316 -0.4259304510493836 -0.003953296032750498 -0.0024344040785455445 0.4589562857401776 -0.05790731442762996
75925000.0 0.7656543230260785 -0.6298286317098306 0.016678001311180007 -0.447070832640818 0.007094868026617429 0.003192336036976951 0.4701012100292 -0.07697312436222115
76924000.0 0.7605542025153684 -0.6369847520437298 0.007544762925798069 -0.47165397988483415 0.0015184974172307497 -0.0027457344997401955 0.455098320719268 -0.09228215112632715
77923000.0 0.7557930628778715 -0.6434908472252623 -0.005604639848640998 -0.4990454382203358 -0.0007637184543697604 0.0011393045413317126 0.45524331213370806 -0.09979704736379374
78922000.0 0.7483968653895008 -0.6528282157789822 -0.021585859053222745 -0.5295633293458154 0.002515332481177104 0.0011728265326293706 0.4613200266335352 -0.10391291334494651
79921000.0 0.7401673058505112 -0.657262818010418 -0.04046756396630872 -0.5539278680860196 0.0028867611867415123 0.001833277638554164 0.45578108468464756 -0.12025730082072399
80920000.0 0.7347502862267873 -0.6700920814109461 -0.0509865373220526 -0.5838334176260441 -0.002594309557772123 -0.0007507314045124328 0.46399755343998494 -0.13428262956804307
81919000.0 0.7306971895581194 -0.6720515774052359 -0.06790131951192789 -0.612530594966112 -0.0006544171614686495 -0.002328711213949964 0.47504194818082895 -0.13649285356223842
82918000.0 0.7211204768993824 -0.6807843984767917 -0.0819394422380914 -0.6480663658482134 0.0011759873981923527 0.0040047955382257385 0.4718364549616643 -0.1505430773274191
83917000.0 0.7123351442129239 -0.6890864459355974 -0.10214254718372613 -0.6716830055798794 -0.002990842809651535 -0.001435800674521263 0.4792915545420378 -0.13786374967219195
84916000.0 0.7076008729839236 -0.696975982439416 -0.11909756135078813 -0.7144809954941386 0.004277004571373004 -1.795967255899237e-05 0.4660107056838045 -0.16809024492243022
85915000.0 0.7005905030931799 -0.7015367353258454 -0.1370834796549177 -0.7419179914072038 -0.0008839134300782381 -0.002710974939044499 0.46855410028232325 -0.17700808241044413
86914000.0 0.6904936434301215 -0.7124594298123903 -0.15321705622941156 -0.780590607692274 0.0005507042697243495 0.0020780087509653013 0.4537161886587946 -0.1745823754161258
87913000.0 0.6867553181220758 -0.716784324083644 -0.17502456138919892 -0.808978739255562 0.003362230603312422 0.004514058999852503 0.4628081814230727 -0.18985405542381298
88912000.0 0.6782100764027338 -0.7254637782458874 -0.18718855422732047 -0.8459425891396445 -0.0008428290693145227 -0.00045323750540353076 0.4608091286981326 -0.19822026751436864
89911000.0 0.6703477803619584 -0.732758884592876 -0.2070423937243899 -0.884764702902345 -0.0017085430770784125 -0.003724583782796063 0.4644716265140129 -0.2119458648627693
90910000.0 0.6642635954822804 -0.7392196219642394 -0.2282108339200185 -0.9210189020489915 -7.510875170478669e-05 0.003814666162635775 0.45918175820539703 -0.20784350250224393
91909000.0 0.6550554834734644 -0.7433646421651664 -0.2482005593089292 -0.952294720292376 2.066906927876332e-05 0.0013972269903545199 0.46982431158845367 -0.2219940328509655
92908000.0 0.647699997888157 -0.7531386152207848 -0.26559344377180005 -0.9879347127282427 -0.0015576395236058332 0.0010991176496176346 0.46319921186798557 -0.23273589309102494
93907000.0 0.6403318913095133 -0.7570280697226369 -0.2893314610063131 -1.0189904896322401 -0.0031306016335234956 0.0018621874218187663 0.4507396677970809 -0.24319649722637268
94906000.0 0.6298922497113532 -0.7658370126936738 -0.306360553213386 -1.060883599143086 -0.00013005905590613248 0.0023369360829900345 0.46531577879049596 -0.25420441154628737
95905000.0 0.6224083190141498 -0.7709803800039144 -0.32934813439718835 -1.0922617003493678 -0.0030734083626527747 0.00023067797980082716 0.45746170166353073 -0.25960066390536596
96904000.0 0.6144308845057692 -0.779175787135649 -0.3493544445755169 -1.1337836105255412 -0.0005481879182508929 0.0012768015470963968 0.4515013801060909 -0.2747228903373274
97903000.0 0.6047950842229637 -0.7845410179695758 -0.37931463428189066 -1.1707978972686086 -0.0012745293144052182 -0.002525095319868493 0.44885663987117946 -0.2786531506040337
98902000.0 0.5994888965639347 -0.7919872965575623 -0.39778316285732074 -1.2121607682445534 -0.00023781195261288922 0.0003602734479800655 0.4515373747612667 -0.28839418086830976
99901000.0 0.5910889270414188 -0.7979039791673084 -0.43480882204216875 -1.246167365147355 -0.0006926160330216538 0.0019760718244057696 0.4624941979856005 -0.30585166939491465
100900000.0 0.5806832006794769 -0.8007092108803535 -0.4688105266497592 -1.2748545727048146 0.003300139868337091 0.0002585717271011023 0.46415060270690034 -0.29674497103038017
101899000.0 0.5719473478323318 -0.8093156360515726 -0.49621774143337405 -1.315401276048781 -0.003650724821204713 -0.0021443103862873536 0.4491051136852922 -0.31486312120621673
102898000.0 0.5628278847276686 -0.8157206427834091 -0.5334471911059617 -1.3529260378565269 -0.002655302348709316 0.0002752915718557149 0.452887886648022 -0.33240537668859754
103897000.0 0.5547043334981174 -0.8222118194774443 -0.5813325995438924 -1.3958697987002728 0.0014572391522942802 -0.0015813313232908048 0.4634135408698902 -0.3297881278448796
104896000.0 0.5457984378854825 -0.8300264925113939 -0.6268057618023003 -1.4292579110840835 -0.0009116910136447912 -0.0010516113140867844 0.4474797368705443 -0.32583454172366133
105895000.0 0.5364002166022491 -0.8319094367237699 -0.6706376318291457 -1.4843610679007975 0.0008630322538925431 -0.0007127196955985972 0.43688792715108465 -0.3501665496226453
106894000.0 0.5297411511723319 -0.8389290826569387 -0.7272794559830449 -1.5199081795625042 -0.0010637224349360173 -3.876356428697706e-05 0.43583889626897226 -0.35766982220903687
107893000.0 0.5186211323631553 -0.8463634718744415 -0.7861114066558992 -1.557994817287427 0.0013127800389499322 -0.00085383397744211 0.4357435758876359 -0.3746085620946965
108892000.0 0.5088502033160297 -0.8499886126279783 -0.8476721554700795 -1.5997150887082079 0.0004400333392981706 -0.0014633847526136455 0.4387044351846198 -0.36124963830340884
109891000.0 0.4954991094860088 -0.8565288204436393 -0.9069562694352931 -1.6335912462828688 0.00034159799873046987 -0.0012166349613451598 0.44425631876399024 -0.367481087697405
110890000.0 0.4860261710534351 -0.8587563661371815 -0.9697247924345529 -1.6398626338317983 0.000866783148676229 -0.0018448688668249356 0.4317058571924158 -0.36648305572121825
111889000.0 0.4767525312801293 -0.8626137028345825 -1.0434355871477103 -1.7102733344040986 -0.0017600277629830137 -0.0028438532131650203 0.42229234698411366 -0.3947685887689761
