! Created with skrf 1.9.0 (http://scikit-rf.org).
# Hz S RI R 50.0 
!freq ReS11 ImS11 ReS21 ImS21 ReS12 ImS12 ReS22 ImS22
1000000.0 0.982586683388026 0.006631021864954574 0.018917162362352077 -0.045118974132469035 -0.017206253265947047 -5.0673099895364605e-05 0.3072580336410993 0.3056346544225721
1999000.0 0.9944761394927926 -0.010099370104699502 0.008158317982357806 -0.029552508251545033 -0.003762071429456406 -0.0030014668125881113 0.26492993975040435 -0.05479932049156385
2998000.0 0.9974013985179552 -0.01945719827305939 0.010679864573284957 -0.01363702748608702 -0.0069403024348800016 0.002800607681021875 0.1945563975376262 -0.1257821894314976
3997000.0 1.0005760332710645 -0.030464835330288483 0.01753629035476184 -0.005443448760701888 -0.007555391910942236 -0.004547467696308422 0.0837828384093275 -0.23854438725597069
4996000.0 0.9956421389709269 -0.04231514421442628 0.019826415121700927 -0.0022190161781493914 0.0042645341674420936 0.0023964386751425476 -0.04915546471651457 -0.20642966674660282
5995000.0 0.9976762096685705 -0.051154417911990116 0.007814353362945283 0.007351400888499126 -0.004522161744708423 -0.0009041226514055879 -0.10768424410307811 -0.09467735514703972
6994000.0 0.9947472280762915 -0.0635167672390098 0.003141007575419567 0.011332711076382248 9.981849114009522e-06 -0.0009965000210751767 -0.13037321993147444 -0.006473697911417888
7993000.0 0.9954946274511706 -0.06503589109949179 0.006837523328897928 0.005496572506214814 -0.0027011146253711014 0.004428650553318283 -0.16158560592595683 0.04687080368311797
8992000.0 0.9933278369594761 -0.07663518562258767 0.00538439241885667 0.006016742554020309 -6.593489119827347e-05 -0.002379054734347798 -0.15012395727860642 0.07334801511814182
9991000.0 0.9929370855763715 -0.0859151646792439 -0.00031027624364134203 0.0013226378904571039 -0.0036212645744311167 -0.003851748160870622 -0.1494500125374192 0.08827044289004812
10990000.0 0.993763705463055 -0.09274758448789026 0.0057266484943223365 -0.0013668241876977887 0.0008967961524719827 0.00249074923615595 -0.1355908011322884 0.10786559904948483
11989000.0 0.9890368820027623 -0.10227833684243245 0.0012313267211947788 -0.0023412117811449085 0.0037223060691165422 -0.002096002522903575 -0.12695359410911808 0.1375788752053792
12988000.0 0.9877540184208952 -0.11175638700930607 0.0029280271267666217 -0.0034211257575422166 -0.004107490594301292 0.004107395965660775 -0.11127752175064261 0.16563346116964187
13987000.0 0.987605147324951 -0.12161363820419968 0.001529061548069872 -0.006449685023147578 0.0023204132489265065 0.0010832708646531279 -0.08289426805354123 0.18775640042317504
14986000.0 0.9867497713078093 -0.12752106568714922 0.0042884067612700616 -0.0024259519577051027 -0.0014408975639775361 0.0028707246966791504 -0.09130130676799357 0.20042980969642898
15985000.0 0.9882729937818551 -0.13582592142315622 -0.0010004427988775325 -0.005571958773849111 -0.002752064315673296 -0.0032236864820570986 -0.059552690109883295 0.21859869846976723
16984000.0 0.9843994924846416 -0.14470175014138523 0.0018586080126365213 -0.003509899755358167 -0.0017924890739689676 0.0017447615799878998 -0.058931225354596654 0.221326301775107
17983000.0 0.9840568349646829 -0.15052752055451826 -0.004149368950982482 -0.0058368998467270726 0.0007224383326447977 0.0005244572277234861 -0.05537782080104427 0.2184604786376186
18982000.0 0.9832737116955763 -0.16559795934251278 -0.007529786002297625 -0.0029175155677395683 0.001338742764378034 0.0022889084985698877 -0.02050020238330494 0.2352431804135532
19981000.0 0.982152810360571 -0.16673107583420735 -0.005028350673113183 -0.004025777835239073 0.0001980072638833167 -0.0009261605890921091 -0.010483580769105279 0.2429749678219492
20980000.0 0.9797059912832919 -0.17974282959723956 -0.007577907549405031 -0.0013819886804421484 0.002846236017801809 -0.004175182975914672 -0.007900364292787463 0.2600058004043903
21979000.0 0.9786995676420506 -0.1891008768283834 -0.008044069754859965 -0.004736350366236345 0.0008065918481601242 0.0005260966077724082 0.010710445811368478 0.2573278109904402
22978000.0 0.9762592204847821 -0.1952814226787731 -0.005142811044583336 -0.002551533983981334 -0.0033635321111549665 0.0009824154262476816 0.03596260125038431 0.2496478273359411
23977000.0 0.9793702254623652 -0.20042698982371585 -0.006675849132224022 -0.0034158502474030926 0.0016860436900896266 -0.0012989470757536483 0.022040422100671545 0.26297733000301415
24976000.0 0.9728834894389644 -0.2135160060957127 -0.004511417658519488 -0.004233199819108299 -0.0015233218177015673 0.0016440541215587742 0.06867231373228617 0.26130136598512926
25975000.0 0.9651612146958752 -0.22213185093494034 -0.0038059266782125008 -0.001101418055513601 -0.014887996880143486 -0.021768350559168186 0.06757632720325224 0.25717324897212573
26974000.0 0.969529326583236 -0.22957158343326578 -0.006913454051050209 -0.0026686753770583382 0.0032128248037743275 0.002492639715312354 0.09278519308514192 0.2669048176158739
27973000.0 0.9688496451814527 -0.23619231789533982 -0.003867523448233253 0.00023021491773986025 -6.201633575146268e-05 -0.0006277503797194884 0.10690640757388047 0.2556912593727978
28972000.0 0.9647038110494724 -0.24904080474216236 -0.00011928925106127597 -0.0032064689283512852 0.0013100082278792932 0.002017578930274738 0.1185561059373004 0.25321968335416506
29971000.0 0.9643075598270079 -0.25590242604844826 -0.00027552164122008477 0.0018201100408888444 0.002096191634963763 0.0014941141062542536 0.1561152467847311 0.26502220433454726
30970000.0 0.9607513094993306 -0.2622789777704675 0.0037210327721153725 -0.004213073569360425 3.486079615125287e-05 -0.003364378480971774 0.17015788074482113 0.25591204133536044
31969000.0 0.9586509542863342 -0.2695546226758144 0.006358059985930042 -0.0047319073470552305 -0.002481771893481783 0.0008800652903187612 0.15292168930202352 0.2540124407366997
32968000.0 0.9581516984851026 -0.2787708838815723 0.006613908420749871 -0.006422772899926787 0.002570317529744942 -0.0004857327550308503 0.16272082273723013 0.24256954324217816
33967000.0 0.9560045053453445 -0.2888796608198702 0.01337672648606855 -0.007789671836541779 -0.0012502444558880102 -0.0007578487820121463 0.19120058558196146 0.24604026984645222
34966000.0 0.9510606390477957 -0.2999063047019826 0.016531175150144864 -0.01245815630842834 0.0016622242012641058 -0.0027234347661972565 0.19379791573393976 0.24958850281449424
35965000.0 0.9485221452199616 -0.30557315413387015 0.020892952934673692 -0.01784888527946521 0.0007771520129067269 -0.0017714440731953754 0.22058247469963557 0.2486747372601098
36964000.0 0.9466782086960691 -0.31467025722174924 0.01598129122782577 -0.014032120923489046 0.0034857860877106736 0.0004388483378374799 0.22314170526128482 0.2513336272946497
37963000.0 0.9434566338578073 -0.32479112313407715 0.020308396964057635 -0.022735277658525628 0.0018979360685236646 -0.0011316535873653812 0.22149741866404862 0.2405186856320381
38962000.0 0.9418416020416944 -0.33176600064583817 0.02356314147229385 -0.024951404442168493 0.002606335643171767 0.0011778400206871953 0.24761728592645774 0.23341941123954296
39961000.0 0.9381218335637485 -0.3412016696456667 0.025539839124000874 -0.02721925277758657 -0.0005171426708925756 0.0008206458685170438 0.2542048794039051 0.22939454169671528
40960000.0 0.9340783159233741 -0.3479180443089337 0.021839010784839206 -0.02544403124093501 -0.001383582480307451 0.00019119812788644493 0.26846319794295304 0.23656538899898863
41959000.0 0.9319032564672385 -0.3592078067452829 0.031311196878341184 -0.03381472015418371 0.0023468124766114194 -0.0015007206905420397 0.2708591105213027 0.21879382579179138
42958000.0 0.9250209668071614 -0.36990400597066314 0.031473729321368646 -0.04261868725788277 0.002203031680277291 -0.0023327269762436014 0.28612843006950744 0.19892917198580748
43957000.0 0.9249845988659449 -0.3732553399133186 0.036757694177323094 -0.04709014586817913 -0.0014569012987647669 0.0014624110233643396 0.30148617737180605 0.2030973137777452
44956000.0 0.9206412168400926 -0.3814966170075347 0.03533955009076774 -0.05591413627726103 -0.0012613865290048824 0.002379954332470482 0.30768956145955567 0.19794145175234593
45955000.0 0.9168815324903402 -0.3925937129643892 0.03682382690323589 -0.05854930048258921 -0.00019939471767252228 8.234389279955825e-05 0.30554255865651486 0.19433216152667618
46954000.0 0.9119403260493436 -0.40069027001540325 0.03924388107352418 -0.06656716984713329 -0.0027097165206244455 -0.0016665857474054396 0.32367966051398767 0.18364238711841477
47953000.0 0.9107070232575261 -0.4076257739868959 0.0387948647556753 -0.07393792853934211 0.0018784606494907268 0.002097063701944906 0.3427065225371341 0.17725607761796167
48952000.0 0.9050046611859063 -0.4171558928671425 0.03643146432462522 -0.08360296013445673 -0.0009083214959294527 0.001770064749290681 0.3389017098754671 0.1643523692177412
49951000.0 0.9015624683223942 -0.42610541196449503 0.041442807106278484 -0.09044525658746175 0.0032742714998708167 0.0031112706602984116 0.34995039562434715 0.15851429589902266
50950000.0 0.8973446399578815 -0.4335155717155499 0.041708441557325705 -0.09756262986932623 -0.0036962736345142982 -0.0023741101270359096 0.35643382792200806 0.14599563739326019
51949000.0 0.8931910601351472 -0.44171836597503134 0.04142337209006835 -0.10713544701907837 -0.0016556562954004887 -5.755116580547411e-05 0.362427993321203 0.14480708715793583
52948000.0 0.8906906744741879 -0.45016369027801 0.04303167284078193 -0.11379832452639146 0.002765472800186442 -0.0016408442381679498 0.3754132376573115 0.14615642204725368
53947000.0 0.8853235336188202 -0.4565631076890527 0.0445679238116649 -0.12241377419276653 -0.0006732609089599536 -0.0029935780092102855 0.374850579296798 0.1358882491639912
54946000.0 0.8795859088898579 -0.4673402451184819 0.04708048761102229 -0.13059887626449307 -0.003465582156516886 0.0012473971667964349 0.3880174544531443 0.12178301740678849
55945000.0 0.8772284390325455 -0.475960794193727 0.051694090143237635 -0.14434553051020602 -0.0014737522380486399 0.0013297168698059847 0.3902396328047319 0.10957881977607721
56944000.0 0.8713845765249484 -0.48299231867022113 0.05295306801799051 -0.15444764043688744 -0.0007609964047229189 0.0006981080029857783 0.3989699069730865 0.11707885244196216
57943000.0 0.8680225408765633 -0.4911444515895452 0.050472539777751346 -0.1645334128783066 -0.0019097762262592877 -0.004108277441412013 0.4050967983808887 0.1024630984040773
58942000.0 0.8601923602206946 -0.4995087075987273 0.05289426428400694 -0.17690928237176712 0.002690970062177175 -0.0037421627947573535 0.41945519464002456 0.09138745385505138
59941000.0 0.858725616841188 -0.5051391116422497 0.056387000999010325 -0.18351275299372963 0.0004210504266328641 -0.0023147183654060994 0.4209900373596527 0.09395438983979525
60940000.0 0.852025807205809 -0.5135759297127246 0.05326454499430492 -0.1910318699463251 -0.0011412993888407323 -0.00044167303874786257 0.40588908091558196 0.08171710172169713
61939000.0 0.8489274521029577 -0.5211515854403402 0.05343743602416476 -0.20016516009766358 -0.00022519865415478911 0.0008600116692329655 0.4139364195117437 0.0745329032645833
62938000.0 0.842899990321593 -0.5314369869973847 0.06054712883397919 -0.21691922018339344 -0.0019485683767337047 -0.00035544279735897743 0.44044102656056416 0.0558233652776006
63937000.0 0.8375856930543752 -0.539613731725409 0.05885363024592227 -0.23825612548078648 -0.003907803950913459 0.00346373918426679 0.4441019691189729 0.04275445013634106
64936000.0 0.8305028757220999 -0.5452314277747774 0.05881559879270675 -0.2500013436510799 0.0008206638428175872 0.006023563071803255 0.43298626183836386 0.042301359703085344
65935000.0 0.8269656569219925 -0.5570160506283255 0.057962844772451484 -0.26584909233534104 0.0014389291847217518 -0.005426414036162003 0.4384727845984869 0.03063818910700348
66934000.0 0.8235908039109312 -0.5599176721370259 0.06046464955423348 -0.2833098201678398 -0.0015885689330570074 0.001154676477384952 0.4477292135211344 0.026588765958029014
67933000.0 0.8193553370590793 -0.5696210754403339 0.057778056525335894 -0.2959638241078039 0.0017325225757917472 -0.0013820206526575242 0.45303351619384996 0.01247025534929588
68932000.0 0.8051679579448423 -0.5758975858943433 0.0523654828546991 -0.3085883867643178 -0.0010620787302376888 0.0016341735430797117 0.4619880137949008 -0.003284209372523777
69931000.0 0.8032018090073932 -0.5870941117412529 0.05500245304473595 -0.32582002237319857 0.0024849758359910524 0.003333986103681383 0.4510651179176565 -0.01345808448259282
70930000.0 0.7984314043181415 -0.5932796658664111 0.054321184544871504 -0.34135376985926497 0.002903985551326802 0.0005158820588091537 0.445611947984876 -0.018491409446932238
71929000.0 0.7951726868650162 -0.601572285186802 0.04635945382736056 -0.35928131494014387 -0.001063458934373179 -0.0008584325609801054 0.45432510292632533 -0.03847414740152003
72928000.0 0.7878710567602997 -0.6105279178558574 0.03843748598057811 -0.3756270293349168 0.002174215208251289 0.0030525837690076264 0.4680379347218466 -0.04932163272143841
73927000.0 0.7826496578548088 -0.6174098647201476 0.03557922603693183 -0.39803508701892765 -0.0011021667926005 0.00022409814450308747 0.4639958408615212 -0.052799095298782704
74926000.0 0.7782497757530636 -0.6274641232399715 0.031870585299339074 -0.4176681614824985 -0.0004009800099769035 -0.0004128341714767836 0.46347718140623984 -0.05212873452106292
75925000.0 0.7721415497103786 -0.6313342199491921 0.019057756458164488 -0.43989818110875534 0.00015933963574891227 -0.002990366275095478 0.46844898725451917 -0.06793477703581097
76924000.0 0.7650507247241374 -0.6386463106572151 0.006230782891066544 -0.46328410740621606 0.003418502606488947 -0.0009969525057535464 0.4741792174440735 -0.07201499283570077
77923000.0 0.7583775445242712 -0.6460467853347287 -0.0029761413420408183 -0.4880204463998944 -0.0016672614100119475 -0.0026819296599249155 0.4686004574021394 -0.08206655864300484
78922000.0 0.7515781200052312 -0.6560301197547276 -0.02616176568107439 -0.5163633469510095 -0.0032936700652750886 0.0027739781418768955 0.4764780686640716 -0.10560296239763488
79921000.0 0.7443148541261234 -0.6595804392696979 -0.0388475575870841 -0.5404685707514159 -0.00017784903953875085 -0.0018526268132735592 0.47143929462833273 -0.11421689443046525
80920000.0 0.7388533885380039 -0.6713827511687426 -0.05251030628711389 -0.5682093811392359 -0.0016789558898336295 0.0004029970320845619 0.47486768155703163 -0.1098568907927472
81919000.0 0.7326997867295355 -0.6758675718456193 -0.07130291068514827 -0.6023463703765681 -0.0027350783185826517 -0.0005390798482776868 0.47375720596298504 -0.1292281538138875
82918000.0 0.722971220123762 -0.6848988114990117 -0.08320786746147926 -0.632084641865718 0.0015176014679848708 0.00034269685529803864 0.4849645436703462 -0.13526627999103413
83917000.0 0.7145272796328314 -0.6941827255885195 -0.10657966441801214 -0.6582998935109621 0.0011618380336175555 -0.0038864094123060027 0.4800542270087996 -0.14280159897208392
84916000.0 0.7112719193582255 -0.6996768586893994 -0.12226459101222864 -0.6967376048338517 -0.0013504061269989799 0.004076280723091163 0.46817069396524713 -0.1588457125046153
85915000.0 0.704218743201958 -0.7049975854689539 -0.14183135249009682 -0.7248095200394583 0.005215083398907868 -0.002683303776845916 0.47009765784275087 -0.17045197143993374
86914000.0 0.6961145836336725 -0.7151171506833821 -0.15255477446347956 -0.7652177959825537 -0.0020841269760173337 -0.0042063506271276105 0.4737234414259236 -0.16956786938739174
87913000.0 0.6905817134884735 -0.721743285718907 -0.17865497163466165 -0.7931624548799686 0.0013372156538726603 0.0018637685438749937 0.45929920345942804 -0.18844408462601026
88912000.0 0.6804668943663815 -0.7299876944342087 -0.1904676368246878 -0.8327927101166406 0.0007874266155503209 -0.002799571083189703 0.4638683776298857 -0.1986587443935398
89911000.0 0.6735802663627218 -0.7368627153952932 -0.20734418858824336 -0.8657933106271283 0.0018765446625313425 -0.004296634734897199 0.47079011910486784 -0.20405740136349956
90910000.0 0.6662481025432233 -0.742896568622143 -0.22658144075567804 -0.900895765516234 5.591730849737922e-05 0.001879980075083353 0.46394844534798174 -0.20121444927537074
91909000.0 0.6575862068605941 -0.7456166732790354 -0.24187232805205272 -0.9347953690427013 -0.0005014909371355388 -0.0005894957987525604 0.4776218053363161 -0.2154408217104598
92908000.0 0.6504535825344203 -0.75585658497703 -0.26391009105011876 -0.9697995413583769 0.0018477089610061082 0.0035160631775208095 0.4740180254471775 -0.23297590504633509
93907000.0 0.6437667778193329 -0.7609760558756848 -0.2785835673440675 -1.0009823607226322 0.0027106838179178634 0.0014429976880709955 0.47176239441363527 -0.23651772379065725
94906000.0 0.6315965238029223 -0.7688751021954505 -0.2986439597229201 -1.037542269320154 -0.0003411032968086086 -0.0017864486359857367 0.47012459040713234 -0.23631880314635573
95905000.0 0.6240860017357419 -0.7745126746809865 -0.32150969298639537 -1.073590454936981 0.0007884089264180349 -0.0011224945404857709 0.46542627374186124 -0.25417773373717467
96904000.0 0.6169452663040637 -0.7841566136907908 -0.3417395088041153 -1.1165044029569797 -0.000801656478468005 0.0002654393109211161 0.46346697572264606 -0.25905566191169066
97903000.0 0.6059938922157247 -0.7893342102666251 -0.36740969197370393 -1.144441091076683 0.00020663129930348955 -0.0015145623738699544 0.4547067866466259 -0.27514861130396395
98902000.0 0.6017161418411061 -0.7964668789572193 -0.3861632418843004 -1.1869566260139446 -0.0008984136137754693 -0.005383144213179032 0.4585154589576653 -0.2851309380106647
99901000.0 0.5907159888195063 -0.8014616445650989 -0.4222460075310869 -1.2177984787476364 0.0042723277151802234 -0.0009630845170092443 0.46157562598257984 -0.31330571550929215
100900000.0 0.5813693467420777 -0.8051245921301186 -0.4499683109567665 -1.2490812962972888 0.0020502100343514442 -0.0020856533866020622 0.4604718668705474 -0.2977158843356411
101899000.0 0.5717337135134217 -0.8141328780402819 -0.4831003652321109 -1.2893173549939523 0.0014748940264510872 -0.005327036414727696 0.4543184909627628 -0.3076321083198534
102898000.0 0.5644852523282554 -0.8183217513233446 -0.5165195367844466 -1.328124833366194 0.0007175503525940982 0.0007321874824702246 0.4529322901740995 -0.32305009089248893
103897000.0 0.5531094837715241 -0.8252488993824821 -0.5617708432914853 -1.3642452660029918 -0.0032693842433827278 -0.002156929701015021 0.4619659868171699 -0.3183941228745255
104896000.0 0.5482690053940206 -0.836788882783018 -0.6065234018357348 -1.3988492887018271 0.0006949396245006648 -0.0017853987134527891 0.44558063817895155 -0.32835661550521306
105895000.0 0.5357330594051618 -0.8382301929502333 -0.6559508524649221 -1.4429310071609598 0.0002270779026638628 -0.0018734486349666732 0.4403462338180567 -0.3536504807352216
106894000.0 0.5254879289431833 -0.8458764474573128 -0.7143150674190647 -1.4852163140438825 0.0019179361694331937 -0.0006657674741949533 0.4309871238155615 -0.35648245450679594
107893000.0 0.5187274541412281 -0.8525478247653676 -0.7687463946052123 -1.525215801172243 0.0036010943098717125 0.002247443766907099 0.44171542650293777 -0.3652587472714757
108892000.0 0.5091559581601227 -0.853080021202611 -0.8265934657486721 -1.563160705391995 0.001714951172172307 9.29873556398431e-07 0.4353433318022144 -0.3566383033499726
109891000.0 0.496054996497279 -0.8619435674950445 -0.8849640087127453 -1.597234665471254 -0.0021711251074452626 0.0011143124523762607 0.45288463322601225 -0.3584823036381857
110890000.0 0.48721083023745687 -0.8757383041778679 -0.9672858978952544 -1.6208206514395636 -0.0022834127823879793 0.0008776399180342618 0.4445184434892948 -0.36765195836259956
111889000.0 0.475900769490659 -0.8677807089168316 -1.0179874503524666 -1.6669780536722387 -5.4866467088114036e-05 -0.00029065532710149825 0.4371805104178638 -0.39117223261726547
