! Created with skrf 1.9.0 (http://scikit-rf.org).
# Hz S RI R 50.0 
!freq ReS11 ImS11 ReS21 ImS21 ReS12 ImS12 ReS22 ImS22
1000000.0 0.9755337226652697 0.0007411352469617309 0.010308564279711004 -0.0373483572775439 0.0021521520665203275 0.0026542180534146562 0.38758247036481963 0.2970845972882198
1999000.0 0.9991042188513674 -0.008666594037404626 -0.002692941591795657 -0.024576554773590154 -0.007595879963192909 -0.0028601038540872065 0.2525943208503607 -0.06290154954486442
2998000.0 1.0008620186231663 -0.019075519559129797 0.008400105236090515 -0.01153139047882365 -0.007154847234486872 -0.003287351716816374 0.19180932103709883 -0.15115795516044517
3997000.0 1.0017699692865527 -0.030568614141130393 0.009141337008647136 -0.011166082800178325 -0.0009800399262546644 0.0003865709744403374 0.0841661511713477 -0.24694516685137177
4996000.0 0.9959620561503056 -0.03381778056977667 0.01025747481022312 -0.0024039307750511833 -0.000826061969313833 0.0022425843811019358 -0.0259597689771572 -0.19980795084443617
5995000.0 0.9966782521625223 -0.047987791808120926 0.008564088935529414 0.0005720406487931611 0.0014114672345682806 0.003647431337289322 -0.12902873911183538 -0.10183888604658795
6994000.0 0.9927502164019224 -0.05477570275392308 0.007511992893546476 0.0021432525235742174 -0.0019204323163621705 -0.0013232109111067018 -0.15472389226724217 -0.029341917017039646
7993000.0 0.9965882172880991 -0.06620370997745326 0.0027440625562804933 0.0062130967310045455 -0.0004832608887749758 -0.001423375467046352 -0.16424354118519807 0.03448909514841096
8992000.0 0.996710072513011 -0.07042153903791468 0.004037901342068498 0.0023169535148814327 0.002362278516357605 0.0003614172751769255 -0.16605089012143356 0.06311607259549341
9991000.0 0.9945388652354499 -0.08310660868801938 0.00018614293937116056 0.004624504312804375 0.004779535358227631 -0.0022692636662036145 -0.14360526823899433 0.09639428583047067
10990000.0 0.9946099936139781 -0.09066199467165066 0.006880028544368709 0.004187756843606346 0.0034406884481000574 0.0032735398711655882 -0.13965722418603208 0.0985360179318323
11989000.0 0.9922872340670368 -0.0986721414614567 0.003125040932534606 -0.006250537723586927 -0.0006127800325085919 0.0028766970633451777 -0.12670986389490393 0.12907818464688336
12988000.0 0.9919592132986834 -0.10959935675841018 0.001964476917939842 -0.0011938973142534407 -0.0007538641499305236 0.0030246385703758933 -0.11349611506198257 0.14614651454905522
13987000.0 0.9870214779300447 -0.11652510104604302 0.0011546699417891272 -0.0020580411156069485 0.0023014751498845886 0.0025223732370455634 -0.09127126045834295 0.17589514605009807
14986000.0 0.9895025197844769 -0.12413677346044938 -0.003779727281477584 -0.0004912905995793864 0.0016927419057110463 -0.0009662075464985439 -0.09025694944359136 0.20529132054314178
15985000.0 0.9887237213141542 -0.13525122902469616 -0.002085439020828678 8.427809280071623e-05 0.002551112169947551 0.0007404053986496169 -0.06664719941600383 0.2122126113122484
16984000.0 0.9861498766296584 -0.140115709437984 -0.0008255901598359597 -0.0019757743507561876 -0.0035985535643064293 0.0005271599543720039 -0.05412645534181406 0.21723628379996887
17983000.0 0.9882884811132516 -0.14895703521775047 -0.004397877777648421 -0.003654691880770004 0.000775615121676482 -0.0026171070466312184 -0.05002570301620197 0.21248962233009114
18982000.0 0.9839077276369383 -0.16117699746960315 -0.00037330234644542264 -0.006502715712420031 0.002488270074060028 0.0013713025324622215 -0.03294253799423775 0.2389613785956597
19981000.0 0.983112440533861 -0.16391744262144728 -0.006676157758573787 -0.00717249435381688 0.0023050783442602734 0.0013230181536631749 7.194143329609956e-05 0.23929985138893542
20980000.0 0.9814266808331761 -0.1734974711019589 -0.005244060470620844 -0.0036600149950200877 0.002974676384701847 -0.001229300142356271 -0.015236240608766983 0.2626082042739749
21979000.0 0.9820242527120944 -0.1815807599781782 -0.008893415703151466 -0.0049879408932282775 -0.0008452880257630995 0.0015617567870608155 0.015785436582798268 0.2499591608706119
22978000.0 0.979411262701147 -0.19153067536858145 -0.006382489457443867 -0.003463361724743444 -0.002690025234205854 -0.0007368206858936175 0.03277305925861908 0.25980857237472177
23977000.0 0.9769686545809098 -0.19961065223922053 -0.0036056347277896557 -0.0014964505953278964 -0.0015690822743967795 0.005607308196289359 0.042064397115620614 0.26061717143791463
24976000.0 0.9749457061426293 -0.20896758415134614 -0.006393972647087527 -0.0033777962888837045 0.0009033472994328871 0.0007038692430624525 0.07224491441184937 0.246384505752522
25975000.0 0.9762558374547117 -0.22318886276335503 -0.008358881106340966 -0.004309103272765229 0.027006567825417917 0.002950876608264361 0.0772944833411416 0.25260334584806277
26974000.0 0.9711885512399784 -0.22507099162351357 -0.002754866017397893 0.0010751447204382638 0.0013565353151364264 0.001122090043262 0.09620943869277408 0.26850356955433824
27973000.0 0.9710805245529751 -0.2318661534720379 -0.0009867428145069765 -0.0008736778277848478 0.0003043997228829669 0.00034876839490810085 0.10512725195610066 0.25050150968439
28972000.0 0.966708899836012 -0.2449151553147486 -0.0006163159731045288 -0.0029602876836314776 0.0009335137095135065 -0.0011523834514111752 0.11447237941693357 0.2512412753582214
29971000.0 0.9670321318259432 -0.24941461947963625 1.8728794908849506e-05 -0.0012457931980836595 0.0019477602854903308 0.0012210788793385237 0.15878149064627792 0.26719378150163964
30970000.0 0.9630996281134908 -0.2559739854763677 -0.0008213000229627829 0.0018517206848381136 -0.0036033955515988414 -0.0006539043747075581 0.1692339617327778 0.2491361984963821
31969000.0 0.9616586529676842 -0.264365335506339 0.007866614670434003 -0.004418718145821537 -0.00266299391014742 0.0029024996255499766 0.15988928687673376 0.2427920886356257
32968000.0 0.9608224246032439 -0.2727067259594886 0.009336649903910938 -0.006227196574181665 0.00012231559190677 0.001999791770464489 0.15970128996732857 0.2473770863111037
33967000.0 0.9587168925776075 -0.28340989431446495 0.008222402638483619 -0.010621837396286844 -0.0012037458857319485 0.0009326304527648701 0.18220717897035826 0.24155037308326358
34966000.0 0.9549802679885633 -0.2909866222569205 0.010167734317956336 -0.010898012674077463 -0.0011013210116474275 -2.8738111449705294e-05 0.19528045633692429 0.24974888775496595
35965000.0 0.9518985785683765 -0.30003894507964224 0.016635709358663348 -0.014745216552634307 -0.002462706642259389 0.00018393271256762647 0.20843163338316828 0.23704162265354273
36964000.0 0.9509425291073357 -0.3083819056039831 0.013337459237747188 -0.01394761726465966 -0.0008423497618062104 0.0001637632939764606 0.2206041331034011 0.24877711678266728
37963000.0 0.9473892416411038 -0.3168883080814034 0.019635094838500525 -0.021819587742739094 0.00020004563398218 0.0017876238750499692 0.22632396255381282 0.23071926251169478
38962000.0 0.945411440591024 -0.3256553065368426 0.022107265276925296 -0.022006752712421095 0.0014004663202815961 0.0032382717347771983 0.24259338228749597 0.22554958675048117
39961000.0 0.9404999887419319 -0.33499667424830654 0.026473818877948647 -0.027608593530775338 -0.004959566360362249 -0.00015396877367688933 0.24227427953457986 0.22007843183965178
40960000.0 0.9384276288153964 -0.3421057390543346 0.02446592230865651 -0.026747520996847234 -0.0016129315404794897 -0.00039150058615851433 0.27203363988957785 0.21936089198721698
41959000.0 0.9358207250148233 -0.3512044137346947 0.02751522234459957 -0.029781463143661174 0.0013921670782159725 -0.0003146394222290058 0.26692459991550793 0.21219915393079689
42958000.0 0.9313363994136622 -0.359779742652634 0.029122545849379997 -0.03790580705869168 -0.0006556755513617507 -0.00206304769652751 0.2865199482765867 0.20362719270662769
43957000.0 0.9298135130105545 -0.3630798789081699 0.029717225678135083 -0.046491056989003694 -0.0036644206787779044 -0.003557455237251044 0.2879631765401167 0.19909022340869875
44956000.0 0.9262261316687841 -0.37068236262180093 0.029608786347912027 -0.05346346138105631 -0.0040376780660205 -0.002440889500669163 0.30586099965741304 0.18571593898362088
45955000.0 0.9218953470323505 -0.3821097917262811 0.03495474490525325 -0.05693220007393594 -0.0006025029332970964 4.7991930338803956e-05 0.30623241217464114 0.18921783093223715
46954000.0 0.9165301334707627 -0.3924772005671995 0.03210743131560699 -0.06403171046070517 0.0013739961475650207 -8.774061930760457e-05 0.32610900096859474 0.17684984827605904
47953000.0 0.9162994680178422 -0.3990597669149561 0.033601956222594966 -0.07078555168072657 -0.0010547037438036512 -7.9771087221953e-05 0.34168093710202974 0.1667821604161512
48952000.0 0.9091095716934606 -0.411059534233586 0.03366636253186553 -0.07858934830549875 -0.003943167344714818 0.0019319075107713326 0.33403123523125594 0.1542308609192121
49951000.0 0.9065126334731679 -0.4164402027308868 0.03268603190687864 -0.08694822574223417 -0.00047573323372694724 -0.002928633397921922 0.3497195464607393 0.1492433432495227
50950000.0 0.9033267955231647 -0.42578331606916037 0.03617614769376142 -0.09193531652096033 -0.0020630785953699355 0.0011828973209143784 0.3521479692651696 0.14151755706772623
51949000.0 0.8990955324078358 -0.43210619765778663 0.03456329882709633 -0.10478948760252071 -0.0016091168868394522 0.0018700405853852773 0.36516620852364584 0.13349181984475764
52948000.0 0.8976960802662396 -0.4397776992431849 0.036351779094262425 -0.11237239717978766 0.0012725048004876254 0.00486228078185906 0.37566003970865575 0.1346143576261136
53947000.0 0.8897421051854191 -0.45022977623899835 0.03777801870040859 -0.12154899278526161 -0.0017921457722135407 -6.0565925713158005e-05 0.38022405151403593 0.1256479038434456
54946000.0 0.8842881513545264 -0.45783037811180055 0.03926077942666551 -0.12822671595974341 -0.000752669917928663 -0.0004250809741052401 0.3941681476017766 0.11403931095523186
55945000.0 0.883888639229405 -0.4644361393293924 0.039042249375161486 -0.14056169337941155 0.0013114391941961316 0.0017659714946527873 0.38831405144672093 0.09422417988326225
56944000.0 0.8794166289704259 -0.4730094101678024 0.04082731637719597 -0.14986988463395956 -0.0018354585747561364 -0.0014446495773557586 0.3961595791493278 0.09176790945334572
57943000.0 0.8759424523481149 -0.4834213468707919 0.04469246993306198 -0.16015392875493986 0.0009514253253621765 -0.0019712907704061504 0.4125220807418527 0.08976548950221558
58942000.0 0.8692817166829414 -0.4863951050090433 0.04190646569083856 -0.17357533826354068 -0.00284773998823471 -0.003520504772317313 0.4271780620291672 0.08816079125918154
59941000.0 0.8654775038022832 -0.4970379457397281 0.04242654965119691 -0.18000847464843014 0.0010987020580086931 -0.00169570167088066 0.4222860506247987 0.07941330754520938
60940000.0 0.8587061576504668 -0.5044162393551298 0.04577890873487621 -0.18221701653809363 0.0006735238004634543 0.0003626118438141054 0.4131778871798416 0.06794845577084205
61939000.0 0.8551968091529165 -0.5112241526616971 0.043587450634719506 -0.19278876710756748 -0.0006039610127887798 0.00180033714754769 0.4167904769558173 0.06006539620598826
62938000.0 0.8488849585657506 -0.5221843104372476 0.0496610381729354 -0.20652508069807465 -0.0004782235470727329 -0.001073830467888751 0.44524381726635964 0.04350273469657499
63937000.0 0.8449317335707306 -0.5293715240945246 0.05083093666602732 -0.22715465080251895 -0.0024002865791403726 0.0014997595208894687 0.4369588321907343 0.025503216377990103
64936000.0 0.8396496675363696 -0.5334272679869901 0.04982203595478906 -0.24278859662529398 -0.004339554840765924 -0.004747374129483061 0.4379672054666816 0.03262569574874353
65935000.0 0.8354495075114594 -0.5450699997824681 0.04645588547991625 -0.2545523452547961 0.00029985221796103277 -0.001696396616633283 0.4440928289154218 0.004790886946893567
66934000.0 0.8311554589239638 -0.5506328767244969 0.04794802213405062 -0.26681989369281034 0.0007777979388124905 0.0015727549967073835 0.4374511170751029 0.006901019280123839
67933000.0 0.8299809456444945 -0.5577971635855371 0.05096678410324087 -0.28060872804562514 0.004662277703568957 0.0059627993957875 0.44990405005194944 -0.012723940605918896
68932000.0 0.8245290666665689 -0.553746433836785 0.048426484078912625 -0.2892900542308961 -0.0025096459954900173 0.0006619583436001993 0.4592879262793888 -0.014077674029068024
69931000.0 0.8131712923633134 -0.5761899237631447 0.04604132600026869 -0.3072165121708581 -0.0026764380257549903 0.0038493952992116483 0.4527043851687322 -0.031070351620800702
70930000.0 0.8100128360760661 -0.5802934756491822 0.047011233607735015 -0.319654511483381 -0.0016113575945875967 0.0006095184672886248 0.4543349513421102 -0.03907749489107937
71929000.0 0.8045809171121223 -0.5907875962712962 0.040925395582441515 -0.3367076591288512 -0.003349349046943417 -0.0013028041770501125 0.4529318984819287 -0.04890271372424864
72928000.0 0.7987291426128018 -0.5972758558714879 0.03378822388959027 -0.3519990005302244 -0.0033964488101621924 -0.000738543758191639 0.4613143525945759 -0.06034314306080922
73927000.0 0.793403367842815 -0.6059394097834196 0.02964712141043437 -0.37295015146552096 0.00019254737290291894 -0.0002819293044686633 0.45639573977721487 -0.0682932286354132
74926000.0 0.7879635199960215 -0.6126517229066437 0.020093912747631427 -0.38790909678165414 -0.002424424665108541 0.00024841023412359623 0.4590776871389599 -0.07235191983730101
75925000.0 0.7821758903295976 -0.6205945617253678 0.013842613556071047 -0.40991684555181096 -0.003908631526470359 -0.0031513188559525356 0.4694260646243119 -0.08489057340088678
76924000.0 0.7780519163293669 -0.6260602602275598 -0.0014900838005413209 -0.4302383585061046 -0.00423817970291676 -0.002323254789790479 0.4698782358986023 -0.09729934387660322
77923000.0 0.7710662881848085 -0.6341518052563611 -0.014594052957910431 -0.4530255975341258 -0.003875539136142006 -0.005366840939354518 0.45936427356744464 -0.10321339776818671
78922000.0 0.7639528394729267 -0.6443850706768841 -0.02926690627666054 -0.4774691189249763 0.0011556056451807655 -0.0010676284399669892 0.4650350550633933 -0.11301228689034995
79921000.0 0.756320007823261 -0.648767884737078 -0.04601905892080399 -0.5008021855390146 -0.0011618637415087099 0.0005280306736198024 0.4586221412593105 -0.13093671779422694
80920000.0 0.7529342262428003 -0.6597646830326367 -0.06532613628863393 -0.5289759034375752 -0.001986599912509296 -0.0007733188262567121 0.46912503477357576 -0.13429112825757075
81919000.0 0.7472161289154836 -0.6632454591880441 -0.08126217095044017 -0.5533418136020641 0.001786762229118836 0.0029369821874662924 0.46864206984701473 -0.1494694349139843
82918000.0 0.7372107503714146 -0.6716208912673992 -0.09536699040029493 -0.5838300288671268 0.0028820390056939005 0.0012513403285513152 0.4789697236795441 -0.1584581577052479
83917000.0 0.7286348572264497 -0.6802804085056332 -0.11226281274520902 -0.6100236574097222 0.0006923625551166094 -0.0020077163358785026 0.48425976734973564 -0.16084440383917592
84916000.0 0.7253103660066822 -0.6857388969711816 -0.1322765117138954 -0.6430996888109989 0.005598513852538826 -0.003581862926904221 0.46530216778794137 -0.1798675536272244
85915000.0 0.7197311134458176 -0.690540465275601 -0.14843086105293332 -0.6775419870451461 5.773208057479191e-05 0.004580465206635403 0.46349382753516977 -0.1963906640062055
86914000.0 0.7106968520017837 -0.7030495380659565 -0.16376467327719763 -0.7116662734367933 0.0015744737426369303 -0.00022907078347719716 0.4631764684063737 -0.1928159003391564
87913000.0 0.7044157847714555 -0.7092261705442168 -0.18559445679637904 -0.7378944670584385 0.003602609981275475 -0.001604691486147516 0.463096152029619 -0.19337208321875224
88912000.0 0.6970014340702374 -0.7153474634756402 -0.19941553065332782 -0.7750008843312707 -0.001675089716668543 -0.00018912342560471057 0.4645217016833072 -0.21578605456851127
89911000.0 0.6896489285123176 -0.724077616757908 -0.21668745887071528 -0.8110308143721495 -0.0007588602482841884 0.0005250086628562045 0.4622390500608022 -0.21600870699323024
90910000.0 0.6815432547212102 -0.7295755647422818 -0.2325262104522866 -0.8409647072652329 0.0015484043359573962 -0.0010046425487646514 0.4603200068010941 -0.22627337105952322
91909000.0 0.6742844764471045 -0.7346720515280638 -0.25502466032953836 -0.8671538024974599 0.0026082850012236563 0.0006403372278828635 0.45781621122707106 -0.24384714546963607
92908000.0 0.6662830211581302 -0.7424673300835495 -0.26930390551473143 -0.9031016392701945 0.003007056085350847 -0.00012831686147360906 0.45223410868921515 -0.2433213133534979
93907000.0 0.6607787536386555 -0.7486068281419461 -0.2833757211667053 -0.9369137025522947 -0.0027493410839075504 7.081818717007172e-05 0.45955814448199145 -0.26358225046514233
94906000.0 0.6461232766966386 -0.757896940479244 -0.30535579554728975 -0.968833953611599 0.001832334426353693 0.00423522635349034 0.4570905700436161 -0.2633314357121118
95905000.0 0.640062439421982 -0.7629838932475455 -0.32509722329779367 -0.9961448687841867 0.004163697346687803 -0.002574435071658431 0.4526427768118635 -0.27478752717335175
96904000.0 0.6330526152087297 -0.7706164140396881 -0.3442592573747156 -1.0332093405577638 0.0007927331751201933 -0.0009972171693908287 0.4491671378769319 -0.28358831843262733
97903000.0 0.6230050065153822 -0.776958239522414 -0.3645172480417772 -1.0653499784432576 -0.0011674077485683998 -0.0012139709021152278 0.44476810249700977 -0.2953977426017495
98902000.0 0.6166079340299888 -0.7834286665084887 -0.3849575763004505 -1.1011875074999187 -7.665384375953904e-05 -0.006078998751575204 0.44299488957025174 -0.30450065963744716
99901000.0 0.6097679059637963 -0.7896191442781304 -0.4069030540539998 -1.1304178261587738 0.0026185170551562354 -0.0003199758035616417 0.45628296754651454 -0.3254425447678075
100900000.0 0.6006570501153686 -0.792301845261453 -0.4397892484194599 -1.155962318589428 0.000898189604705828 0.0013565226183511973 0.4544668832512687 -0.33637458863278846
101899000.0 0.5919202853985277 -0.8004260708133673 -0.46053002664347453 -1.1975068035647063 -0.001672728854900585 0.0010606317498938912 0.4532550060962523 -0.32464814164520683
102898000.0 0.581429414526632 -0.8071321492718635 -0.49875416472481127 -1.2302184839229395 -0.001816474462271785 0.002891033721061453 0.4414204517200879 -0.3538812527236128
103897000.0 0.5744421454494911 -0.8146147937058261 -0.5312006974536256 -1.2659476963321912 0.0013375630721111755 0.0019983309566547064 0.4555687941558226 -0.33675870815675985
104896000.0 0.5668534201710113 -0.8235525678913442 -0.5758416191314718 -1.2940302538955746 0.0008639692315235278 0.0010988086840800107 0.43124625073687556 -0.3559931511228662
105895000.0 0.555550054831193 -0.826312920315941 -0.6186400085185665 -1.3342567876541411 0.0023579592043525242 0.002576286359357052 0.426015036489484 -0.3738638147746631
106894000.0 0.5490346703060448 -0.8330934964407852 -0.665640521471476 -1.369166991137013 -0.0005614745398399361 0.0006510131462209745 0.4179983574611759 -0.38231506788610753
107893000.0 0.5413898048200125 -0.8379845618130138 -0.7125584818234642 -1.4036627279960951 -0.0045511418085500376 0.0020060172557004323 0.43332804845329265 -0.3898181113502307
108892000.0 0.5296088121667581 -0.8423712119987931 -0.7737971005126462 -1.44347280536705 0.00046025581765553623 -0.0004666697869674378 0.4172892589480143 -0.39040101314496756
109891000.0 0.5178487369110821 -0.850712560018128 -0.8308097998369605 -1.4707093766597361 -0.0022051603816101366 0.0033435152058540183 0.43266457552269505 -0.39493631958806485
110890000.0 0.4982750306180823 -0.858817279856169 -0.90311151397466 -1.4722968056497296 -0.000310778067465974 0.0014340968258214348 0.4142750280117186 -0.3923943378565621
111889000.0 0.4991078098767242 -0.8567454771313705 -0.9488795796159233 -1.5397173672748867 0.0009105154065114185 0.0020539863170686767 0.40404116759392705 -0.4124576994727291
