! Created with skrf 1.9.0 (http://scikit-rf.org).
# Hz S RI R 50.0 
!freq ReS11 ImS11 ReS21 ImS21 ReS12 ImS12 ReS22 ImS22
1000000.0 0.9854466763855021 0.013703648044497188 0.018125770244513437 -0.04223499505354667 -0.01461449901219058 0.002374549343576714 0.34163366595679284 0.27627059465842996
1999000.0 0.9968450754939362 -0.010931747008083375 0.018022810319312976 -0.01774477337680213 0.0036739150886706874 0.002949080888842802 0.2751832519587654 -0.05134689443665164
2998000.0 0.9980902231318135 -0.01837650098704766 0.014410485295649094 -0.016143774824491367 -0.005817577091593361 -0.004044457730149757 0.1911060737607029 -0.14097466726958
3997000.0 1.0018879460567243 -0.02997460871884888 0.01406622812644132 -0.007433692896166156 -3.669912553952417e-05 -0.005088021825225863 0.11187946687014916 -0.23050548032064483
4996000.0 0.996604422046209 -0.034841554131547076 0.014455454822416688 -0.003367708618552105 -0.0014716541720794668 -0.003558684941534035 -0.0443909734120532 -0.2064531510919133
5995000.0 0.9972212379154016 -0.044657073434831156 0.009478526697757212 0.002132240565579729 0.0018826680746815829 -0.002660826630198733 -0.1301328098205971 -0.10182735911922838
6994000.0 0.9979555274669004 -0.0561541932206357 0.008961594539914805 0.003454978196627172 0.003921476472181131 -0.00569736865321438 -0.1415224657911825 -0.03162530640284109
7993000.0 1.000840582418339 -0.06418808938837434 0.0081106254927404 0.007936693279131398 0.0007579026440206432 -0.005924536765470826 -0.15252672988999888 0.038792730737385955
8992000.0 0.9973031435907793 -0.07147222392726764 0.0054365306622059855 0.0029713022740701007 0.0033497099185579742 0.0005675995813761055 -0.15230033172340773 0.05999882876440144
9991000.0 0.995128461353214 -0.08117801731919146 0.002611942786663072 0.004655915791001675 -0.0014724121547396803 0.0020860711370120754 -0.15913773727680963 0.08270909633418272
10990000.0 0.996254686642919 -0.09051478026830284 0.00010967027352324688 -0.001801614678458603 -0.002018315529976272 0.0025422333364301156 -0.14108101633596024 0.1150126594319622
11989000.0 0.9936296835719785 -0.10174258219963778 0.005909087654835086 -0.00037631177600438987 -0.00243465424886789 -0.00025421493036115975 -0.13150067068954346 0.14729258530285985
12988000.0 0.9916213331283206 -0.10934108172966055 0.00010650584344962703 -0.005377368273089731 0.0006939169393104664 -0.00097516245057067 -0.11577382422851265 0.17813789765377122
13987000.0 0.9909893853645357 -0.12018405206939795 0.0012125368868006114 -0.004005615825643777 -0.00035250701472412833 -0.0024709203695534756 -0.09682970137343365 0.18369138007707836
14986000.0 0.9907560221303527 -0.12549887179349423 -0.004444240604043608 -0.003112208739379495 0.002872784107112847 0.0012646586665657432 -0.0838274859513288 0.20520498624136738
15985000.0 0.9914031471017195 -0.1340166046085561 -0.0042739331303374385 -0.004272269024757689 -0.000488492428926187 -0.004386911645192183 -0.05766689386265065 0.22978584608585836
16984000.0 0.9902528724666386 -0.1449208119511176 -0.00119016184180631 -0.0038812571384163937 -0.006321665607510753 0.0020043128618096777 -0.0556218527762148 0.21192075856503792
17983000.0 0.9889689799087648 -0.1504847833610336 -0.0019580649440206262 -0.0009986024140399934 -0.0024110153783429194 0.001325916314362995 -0.06081364127201935 0.22223728586699432
18982000.0 0.9860907434195031 -0.1592444222205966 -0.006031716832045956 -0.00615626620163663 -0.0008984085351631232 0.0038424491235610463 -0.01887746736922905 0.24094038432418027
19981000.0 0.9860997964867195 -0.16596785950855117 -0.006439265816254335 -0.004214763778922656 0.003196342320143076 0.0036328358410561822 -0.010802017889611945 0.24832342638645394
20980000.0 0.9839863743171494 -0.1775953503422617 -0.0019497862536154021 -0.0073336445182264195 -0.0014958747555759177 -0.003363352556323926 -0.009530393923391705 0.26466449701543765
21979000.0 0.9819977677175022 -0.18651912291999015 -0.002642276993897989 -0.006025867459114697 -0.0017152124009471733 -0.0013335500850875578 0.014241757710787298 0.246895600629633
22978000.0 0.9797142770407413 -0.19627665085419033 -0.004132520564229577 -0.005678165402717647 0.003169883026125588 0.0009260877897704332 0.04452011544127087 0.26069092090655155
23977000.0 0.981067340869452 -0.2004830665376562 -0.003626329827013041 -0.001790966908743867 0.0008304632199194339 -0.0037563226811653232 0.043604711764473746 0.25676295144646
24976000.0 0.9762684684062795 -0.2125122270097824 -0.009459636695995163 -0.004603343674926055 -0.003711531155642428 0.0005123907626954087 0.06206258481372389 0.25551017224024436
25975000.0 0.972340833498208 -0.21609580439474135 -0.008595812634698295 0.0006661568329283676 -0.02409724038324103 0.0045719320048200176 0.08419308634730123 0.2520533825734657
26974000.0 0.9738613617083575 -0.22742416059324858 -0.005173077219697663 6.448286998188976e-05 0.001408660009618456 0.00017005335412961399 0.09255934976452151 0.2678750044774782
27973000.0 0.9713245726850653 -0.23475915701666475 -0.0035968979891584634 0.0005669639449848672 -3.67024529414032e-05 0.0014329532630306292 0.10946849583680694 0.26052860106565456
28972000.0 0.9688492843983074 -0.2449042959645411 0.003748124503233218 -0.004604580098169946 3.533760977458903e-05 -0.004673283205101705 0.1191719624499228 0.2571175398447842
29971000.0 0.9671019129300754 -0.25433744342504666 -0.00029952414995719414 -0.0016478588303059883 -0.00018954147169131718 0.0020356350760077527 0.1408828068759486 0.27002610798171756
30970000.0 0.9623840705983056 -0.2589929262579104 0.0006983098933412103 -0.001306394288102481 -0.0011023151278997311 0.0014019116623037982 0.17056088265886482 0.2549750910160225
31969000.0 0.9620711909519412 -0.2675722852115176 0.005442087524062795 -0.006410721302196818 0.0003674907129385444 0.0007318302877812043 0.15017106854304105 0.25746433922708845
32968000.0 0.9608307061884933 -0.27556362137503077 0.00909642334087451 -0.011167598662312922 -0.00025980604083401717 -0.0011686289214524654 0.16731795852141382 0.24752975961331689
33967000.0 0.9581947665714824 -0.2859000542357808 0.012451727787641535 -0.011002482316390047 0.0004702158459830641 0.0011254971407015798 0.1835051674406063 0.24473808306553976
34966000.0 0.9558951655820029 -0.2967409121691094 0.013128642432782053 -0.014633602178621455 -0.0016400191568310375 -0.0027066909580754158 0.20184612392903267 0.25096220637344097
35965000.0 0.9521901602934371 -0.3043270221658909 0.01892146381756184 -0.015282144195455628 -0.0013186515564470376 -7.483792440096958e-05 0.21200748520357798 0.24826491502960032
36964000.0 0.9488262339801052 -0.3104055834277636 0.015704171837678957 -0.01423030739417287 -0.0014325973948316187 -0.0005349993692310861 0.2193295199023291 0.24694530751649002
37963000.0 0.9451008097769167 -0.3235568438729376 0.02305378659463767 -0.02390468868190725 -0.0022109284027320847 -0.0004629484691588819 0.2323617507351316 0.23553614271339451
38962000.0 0.9444855740248629 -0.3285656568768644 0.02472154122234316 -0.02824577893140828 0.0009180938553999719 -0.000733927103408653 0.2372888856274465 0.23345781975055926
39961000.0 0.9394512487615673 -0.3391327919271915 0.028484407253153016 -0.03164031148166092 -0.0015385066100337577 0.0015658273712585418 0.2565531063823634 0.22918815065260192
40960000.0 0.9376955036632678 -0.34532325809260317 0.023839257368506214 -0.026195143134522522 -0.0007553935598064526 -0.003942687000851949 0.2760893107621145 0.23060167927164052
41959000.0 0.9343639777436413 -0.3548728537829855 0.028285172812084692 -0.033545077423528254 0.0024256887890760216 -0.0012869742209737165 0.27255803035424253 0.21211152122036134
42958000.0 0.9280277745969373 -0.36394767005389134 0.032336469087518416 -0.04347472543296813 0.0009040928804604189 0.0011237854257040278 0.2867375991315205 0.21031414104689072
43957000.0 0.928490221806747 -0.36936986781037995 0.03370517638559674 -0.04910977956401161 -0.000826704711833644 -0.0015677543506136579 0.2994064795887672 0.2065269906725538
44956000.0 0.925557282712014 -0.378033385752837 0.034223189538177906 -0.05631234487422763 -0.0032210709428544893 -0.00124361809012996 0.3129534532491076 0.19517207027763633
45955000.0 0.9200816786660407 -0.38687748058536653 0.035895644800538994 -0.06414357030968527 -0.0017724701749756192 0.00026830756049336 0.3079046001664312 0.18748110604898333
46954000.0 0.9176965476914523 -0.3955880178015888 0.03945006240572402 -0.06737869359697085 -0.0003575407135683168 0.0001598043271193207 0.3339435726888307 0.18100609501566423
47953000.0 0.9137714805728934 -0.4059878634412886 0.041416066570057565 -0.07574842293008191 -0.0018044672365206409 0.0009744222871135292 0.3470974616087392 0.17320793564317366
48952000.0 0.9085055686308114 -0.41459580985919986 0.042220393821285195 -0.08602882624414669 -0.001532665153511575 -0.0024181934421611804 0.33531654794609916 0.1632192376483586
49951000.0 0.9056224132243229 -0.42075300668058657 0.039925721978192864 -0.09332837283468542 0.0007121043763072237 -0.002316238149304406 0.35425978300507505 0.15802531467520373
50950000.0 0.9015021561554766 -0.42894051675614275 0.03947091192368304 -0.09935078912823418 -0.00012082835954426443 -0.0011644331139618292 0.3618727135487045 0.14208465284434227
51949000.0 0.8986149529812633 -0.43488219413018264 0.041880962040181074 -0.10828671526738132 -0.0012293633061691723 -0.0018468752406280188 0.36785016237752494 0.1479414093444717
52948000.0 0.8948597761075608 -0.4461071198106193 0.044100149544417516 -0.11608068751054162 -0.0007188104186921579 0.0006082417202170569 0.37620120625471865 0.1459088679638583
53947000.0 0.8912633417382427 -0.4514180999955368 0.04358482955884569 -0.1267243535363916 -0.002095778450705042 0.0014729384166897047 0.36898683509414043 0.12163479331264401
54946000.0 0.8846003777844296 -0.46216351146498397 0.04451315137800025 -0.13798986228328236 0.00041101054318201267 0.003911648557405717 0.38804322976393263 0.12125196220422904
55945000.0 0.8823912637994243 -0.4704213274485487 0.05000935763177284 -0.14522984313362539 -0.0022327532064439722 0.0015784142987232972 0.39351729557447845 0.10078322108659044
56944000.0 0.877271268445836 -0.4785360190032033 0.051271073476274805 -0.16127073978896614 -0.00016337329623258268 -0.004281431941997222 0.40593759969211535 0.10582814695577877
57943000.0 0.8738902460454098 -0.4879642117478423 0.05051033946436929 -0.17180176389142274 -0.0003564207577931809 -0.0009592604350222803 0.406239740782612 0.09398573823025609
58942000.0 0.8692499494864312 -0.4915972656991052 0.05011527930298178 -0.18082510764546533 0.0016930305771420703 2.0264636428962117e-05 0.42129150489190476 0.09020442260307521
59941000.0 0.8652919943479908 -0.5025736454463928 0.0540059337838593 -0.19326470306937424 0.0029280331737003493 0.00013465991811325504 0.4292140560307176 0.08293538468030423
60940000.0 0.8568867949232255 -0.50861637557515 0.052087853687599356 -0.19810212030934762 -0.00028154298292889764 -0.0011956252439403823 0.41706102889576274 0.0752699457130651
61939000.0 0.8549514030307139 -0.5157894662144759 0.05023984924365327 -0.20839704394224262 -0.000220874229971432 0.001873380858342352 0.42482091608881406 0.06629819257529423
62938000.0 0.8486655569780223 -0.5262479231086648 0.056866462664892814 -0.2241871257566374 -0.0011063735403000418 -1.7437181034834163e-05 0.4430525943690593 0.04823655558190081
63937000.0 0.8426359049381026 -0.5336409315346275 0.056811946519313976 -0.24345318760724127 0.0007907461129306239 -0.0023010432242020376 0.4417653820484651 0.040777293406670044
64936000.0 0.8392841701470273 -0.5392484057330311 0.0590305054347048 -0.261590692249119 -0.0007652868652149374 0.0027685675669592196 0.4444507259545207 0.03696373138712541
65935000.0 0.8343112311929023 -0.5502771672488178 0.0559226063728288 -0.27565282526582174 0.00019014274656916757 0.0022475354319049417 0.4482893614291416 0.015300114628683149
66934000.0 0.8301131825730068 -0.5558307733191048 0.05503643266605194 -0.29038291822468676 0.002232022720278932 0.0025072594875996854 0.44042395571824766 0.0031359114673480616
67933000.0 0.8278498195204008 -0.564163178150648 0.054991352308953294 -0.30471849666764994 -0.0037134989591793705 -0.001337125122744215 0.4499935926735602 0.00611299959037931
68932000.0 0.8089143419191223 -0.56299640794818 0.04910640434167358 -0.3152662222247763 0.0017659676860324453 0.003659036047484256 0.46078979652847596 -0.012154389360874826
69931000.0 0.813604789010606 -0.579491962626754 0.05004694496144785 -0.335877836715056 0.002152371072851517 0.0006190337125399622 0.45640337343215204 -0.02097950399202927
70930000.0 0.8059077923959319 -0.5869867640326445 0.049684844420836406 -0.35108710198480275 0.0020233836023666662 0.0005613607281442953 0.44711350470861805 -0.033498616215249945
71929000.0 0.8044799144621141 -0.5948704580696788 0.0445740801019728 -0.3691034917286924 -0.0023350357521362566 0.004713640536140348 0.4561706479342155 -0.05102273929610194
72928000.0 0.7971266206431243 -0.6055584163654838 0.04014386674163737 -0.38541568310984653 0.0012636285692444117 0.0021141239929316634 0.46930345516757327 -0.05185742791604229
73927000.0 0.7909857086440482 -0.6111339788703235 0.03196366587284602 -0.4099406893430725 -0.0001350635703563087 0.001226934430813141 0.45568480310652665 -0.053993551226105295
74926000.0 0.7861367732614285 -0.620688706692098 0.022003497004684038 -0.4301285646944798 0.0024760487230587468 -0.0010542007029210087 0.4604673283561137 -0.062079767421785184
75925000.0 0.7776345386589832 -0.625544647078552 0.014680042946248863 -0.4496021144910089 0.004480579547283486 -0.0014628463650585137 0.4715390471065707 -0.07404964193584802
76924000.0 0.7726194077195774 -0.6337848367987747 0.0020831895769628356 -0.47110994562551584 -0.0007999005154138965 -1.5221901394792021e-05 0.4609613093576358 -0.08723280171640699
77923000.0 0.7683094187863122 -0.6382678741478683 -0.012455504195073288 -0.4982214815878642 0.0045756418329116815 -0.0005663626555817651 0.4619558219114502 -0.09948879669146962
78922000.0 0.7616884981820538 -0.6482791031007923 -0.0280975424480333 -0.5274413718859575 0.000662652724295281 -0.004759134975382506 0.47012000225584766 -0.10942603744978525
79921000.0 0.7528607065917775 -0.6545808650389419 -0.047529142699396336 -0.5545815000101162 0.004128238984827295 0.0005840236458338842 0.47057401954596123 -0.11570016223133521
80920000.0 0.7485908499478809 -0.662796262053664 -0.05951700616068223 -0.5829791073128687 0.00244779391957704 0.001958541306835695 0.46385509736284547 -0.1347675615550905
81919000.0 0.7417054220087197 -0.6693468395554482 -0.07715311045347246 -0.6098129349459179 0.0049162477247881855 -0.0009073246951973651 0.4754037865157394 -0.13679668463269604
82918000.0 0.7353526700993275 -0.6760040622317218 -0.09472800666466764 -0.6432455282909775 0.0013028791744484124 -0.0067853104187862055 0.4735890944251712 -0.14945263502041792
83917000.0 0.7272012952282273 -0.6852906848450433 -0.11466071790283534 -0.6720794747103994 -3.441096065007365e-05 0.0005536832678247026 0.46958271588831507 -0.15901665484141567
84916000.0 0.7215527351043792 -0.6920882890682297 -0.12843716164830377 -0.7131511621793288 0.0014836319461537216 -0.0015401367323559685 0.4669397548933397 -0.1692996180448964
85915000.0 0.7142864290994458 -0.6985613693623218 -0.1561542425839634 -0.7390125641509951 0.0013214535104446035 -0.002695482660124831 0.4679192707976921 -0.1771790649855566
86914000.0 0.7074612423452001 -0.7097133257389112 -0.17550462307380557 -0.778131213275577 -0.0002678139871640437 0.0032201037438575695 0.4636331324802998 -0.17427323950195223
87913000.0 0.6997323635781724 -0.7165684322479636 -0.19042605099342655 -0.8077309958847989 0.0029657962993727104 0.004024593014483221 0.4694359189553869 -0.18663983134237838
88912000.0 0.6935094982119163 -0.7216349250430275 -0.21085332272684149 -0.8454552657314581 0.0005330675596915196 -0.0005862003345866736 0.4668569955005245 -0.21457423948886142
89911000.0 0.6857820370947942 -0.7295557854085691 -0.22134011158840913 -0.8849402706188878 -0.00047928030841050244 -0.0023818041579260736 0.46982764049652553 -0.20664716608380468
90910000.0 0.6786501615420218 -0.7338844764211787 -0.244049659144307 -0.9191973215782058 0.0021531981717892983 -0.0015603987059412804 0.46694606429484403 -0.2122972581489346
91909000.0 0.6686169878898882 -0.7409057549581141 -0.2733312137802374 -0.9531090332036635 -0.0006371496228041806 -0.0013178351161224574 0.46716949715105394 -0.23053554975671625
92908000.0 0.6611904808926519 -0.7496898744167109 -0.291276323560922 -0.9869600867111258 0.0014766942538630516 0.0016684289155992965 0.45887066082539957 -0.23216805258618395
93907000.0 0.6544273933095645 -0.7554095023198005 -0.30494913046563094 -1.0245944830074265 -0.0021644492227296873 0.0028812186263324157 0.4645790100590948 -0.2616709993417526
94906000.0 0.6414538359440948 -0.7627702378289326 -0.33133510638633457 -1.0506005663904607 0.0016298378778043237 -0.001128496050757068 0.4564379007496736 -0.25444525324759165
95905000.0 0.6382449347365937 -0.7681706400814087 -0.3479256096754673 -1.095167146077691 0.0008216475407680894 0.0007394256313259305 0.4575879268187209 -0.26896345914407205
96904000.0 0.6287120723047012 -0.7777579120126829 -0.3709999749169847 -1.1375881320880576 -0.0053407821982114495 -0.004513714956415354 0.45007176696996104 -0.2822606470862297
97903000.0 0.618059450516957 -0.7850035053269999 -0.4009555084233354 -1.1653297329206806 -0.003228893683088468 0.0001838817430072541 0.4507193967035505 -0.2885199437338561
98902000.0 0.614098186677626 -0.7885251120568397 -0.41938558202558307 -1.2058841495558614 -0.005023957291820434 -0.0058471814067090734 0.44661146311540806 -0.29421182579718735
99901000.0 0.6037602023802663 -0.7958627719618124 -0.4522440782043178 -1.237623755682286 -0.00034408469005179075 0.0027707430337633194 0.4735173174949727 -0.3204444044282334
100900000.0 0.5921764487595138 -0.7998071259119732 -0.49156753843373746 -1.268668183490938 -0.0007889336442721074 -0.0009422120318020419 0.46134867872424556 -0.32218972574772275
101899000.0 0.5860242935636416 -0.8071489217921527 -0.5139771394446688 -1.3103972745275667 -0.002536882186008074 -0.00047272657458079915 0.4499613968365056 -0.3239598952909769
102898000.0 0.57607701725259 -0.8145083927887785 -0.5552540527967692 -1.3516972274621128 -0.000730746325920477 0.001252272384348838 0.4565711929558817 -0.33948960566686426
103897000.0 0.5680051596932217 -0.8216949029827785 -0.5981859962450659 -1.3883797062390024 -0.0017271928874780804 -0.002675735407686106 0.45968519566730864 -0.32638924319485196
104896000.0 0.5588217106288436 -0.8290999574423177 -0.6495637985373911 -1.417313138452359 -0.0018959695789720248 -0.0005851184843718776 0.44597888860148255 -0.33269024318093016
105895000.0 0.5491061849520638 -0.8330171160902937 -0.6974500113921517 -1.4674915295462825 -0.000768318152223507 -0.00023498856004677363 0.43097277145979507 -0.363924159249236
106894000.0 0.5389674030354803 -0.8390553078016908 -0.7574215552293845 -1.5023098541013102 -0.0007875801450507768 0.004649490478389088 0.4375974958400825 -0.3613992664000426
107893000.0 0.532635891087881 -0.8449429635957797 -0.8078415388382981 -1.5398014452183015 -0.003141567751299466 -0.002082151694688747 0.4344075529273616 -0.3894725536987959
108892000.0 0.5209717983645225 -0.8487813877046524 -0.873146277068517 -1.5777650506147576 -0.0003127072495536351 -0.0011398136122860616 0.42209838356668045 -0.3748947467535328
109891000.0 0.5099648823168365 -0.8574766689569898 -0.9323190671974598 -1.6112806893089915 -0.0005798057876153211 0.0005276098756882562 0.4340256897979366 -0.37381666919015977
110890000.0 0.5034288434296903 -0.872492879093603 -1.0110050831759205 -1.6380766120949442 0.0024327028020108563 0.002851388433375664 0.42208067255626724 -0.385676370735166
111889000.0 0.49103678602636486 -0.862569593889037 -1.0578056263618372 -1.681641925897794 -0.0012274308416416612 -0.0007680438372585537 0.4191979354697925 -0.39853782621335154
