! Created with skrf 1.9.0 (http://scikit-rf.org).
# Hz S RI R 50.0 
!freq ReS11 ImS11 ReS21 ImS21 ReS12 ImS12 ReS22 ImS22
1000000.0 0.9872064451746109 0.008110176125395534 0.001910080460811664 -0.06086821760273686 -0.008721749543503127 -0.00208833420948444 0.2970254920520645 0.31878872226167126
1999000.0 0.9937864164513762 -0.017589668767263617 0.005333312344093418 -0.021813778665935913 -0.004217815466407759 -0.0030208039367247076 0.2650987531159469 -0.05891797437607853
2998000.0 0.9993558741915175 -0.017455763432111485 0.006969903948412734 -0.018412912609655233 -0.0032058798111776437 -0.0011918641186324866 0.1793324321949029 -0.1540418951423948
3997000.0 0.9958680898320512 -0.027972608148353208 0.01506041434135175 -0.005580585779002642 0.000746241258530852 0.0008202581491014217 0.09156659554241814 -0.23266562925834405
4996000.0 1.0007552143201521 -0.0366623931547932 0.010035851036260786 -0.007714547221605641 -0.0023436792562876838 -0.006944262900023789 -0.030795633742940705 -0.20093993857275028
5995000.0 1.001251763459634 -0.04670640255610197 0.00954550101063677 -0.0017223511327346735 0.0026672944482754417 -0.005163168637571216 -0.12550597454842932 -0.10339644176976792
6994000.0 0.9960068885588768 -0.05907196285104458 0.0072775507074057675 0.0009663024228194889 -0.0015874095419536902 -0.00296420347127426 -0.141310438156563 -0.021254906734450404
7993000.0 0.9995408028653407 -0.065105466826296 0.0031396434182055454 0.004441221768096995 0.0012299765571783857 0.0012264226191617655 -0.16056229888183524 0.04021395115218363
8992000.0 0.9985488952564286 -0.07378334295222763 0.0011800352251461251 0.0031334289664701727 0.0006261185643865142 5.9637499294742654e-05 -0.15497779631143535 0.0759211606168613
9991000.0 0.9975406749618997 -0.08166249075094105 -0.000618432344864352 0.00020187798888333356 -0.0017537054433878062 0.0009647868710533834 -0.15179180142202586 0.07826863369866797
10990000.0 0.9955982602830613 -0.08876445304344348 0.004372747508752608 0.001690373453647997 0.0006196867526979188 0.0010254320974885213 -0.12060842029297222 0.11382965763118927
11989000.0 0.9933342483529044 -0.10101656358325749 -0.00043601205861754853 0.003310698533147361 0.000478563120251149 0.004208720834016493 -0.10612235603193106 0.13719868124450782
12988000.0 0.9923239645866921 -0.11083939445860157 0.0025217907793971157 -0.006193256802930723 -0.0001636264640026283 0.002519245377315794 -0.09808665151317089 0.1648830881199578
13987000.0 0.9937539756026947 -0.11770091356841252 -0.001976521375444013 -0.005839835669067488 0.0016147000965164805 0.0012662508953243305 -0.09499980541218303 0.18552666691324288
14986000.0 0.9909402479692222 -0.1275506858299734 -0.0031225682758313686 0.0005985057805665 -0.0022716081342144465 0.0009265034687829083 -0.083641729818206 0.19654262298305225
15985000.0 0.9925428945560731 -0.13663231727249586 -0.0033019156844457695 -0.007733774532969721 -0.004772443412571808 0.0016594943511202298 -0.07507080568227269 0.22012396115667293
16984000.0 0.9891031771535257 -0.14419038010145177 -0.004008439945710635 -0.007210596121766308 -0.0011617348955599207 -0.0038212356487055833 -0.060801795466161 0.2128131006176573
17983000.0 0.9887805087962338 -0.14993360767239944 -0.004377989334802151 -0.004094191681499368 0.002009908254094444 0.0010431472942125785 -0.043790403393518335 0.22435865206403996
18982000.0 0.9864196186695156 -0.16102633413478576 -0.004545789578808609 -0.004197974571111055 0.0011141701751052548 -0.0013959395329690774 -0.018246018826371235 0.23074203909430488
19981000.0 0.9871321213815132 -0.1651561592488559 -2.8939091376368666e-05 -0.0073557307613432476 0.004093382640731057 0.002702144364067479 -0.004231970116935369 0.22935138541151537
20980000.0 0.9854064363546317 -0.1752375777048554 -0.0046237387884304 -0.006117809044794074 -0.0032644150688152613 -0.0008374104514918924 0.005626085854634004 0.2559971227599957
21979000.0 0.9842481311619128 -0.1847026438069638 -0.00993224400983802 -0.0007931713627412044 0.0014503543979836593 0.004629963685694463 0.02882503141438809 0.249070991225794
22978000.0 0.979257820059191 -0.19493033290363257 -0.005240893828961404 -0.0032085095334055454 0.0005687117800090846 -0.002480849619168381 0.030688230337653853 0.25292171834255966
23977000.0 0.9804619187353727 -0.2005664574218513 -0.010070713602431385 -0.005167357155519974 0.00040003351110266973 -0.0020510723456318818 0.058261255816862166 0.24746869828655535
24976000.0 0.9764101872911893 -0.21287329176527628 -0.009817808385329958 -0.0009189454394390087 -0.0027689311184291685 -0.0027299456266919662 0.06561040972058728 0.24514923029270694
25975000.0 0.9741130031659815 -0.21716783035926998 -0.009541857155752283 0.0012296646262371467 -0.0194909949420375 0.01623458324378758 0.07491535143149487 0.25724932010504054
26974000.0 0.9729265149242432 -0.22844192357657592 -0.0076710677084453885 0.0008959086876721365 -0.0034659399361948702 0.0008875545036072425 0.09369425903126292 0.25489808862677377
27973000.0 0.9715844136161667 -0.23441386338723547 -0.002196619236646116 -0.0012950874617940818 0.0012942162925855705 -0.001302863164574876 0.10224406478381222 0.2532865692402257
28972000.0 0.9699743171565215 -0.2431099664817132 -0.003407237329555426 -0.0035667657238854377 0.0021950118707598585 -0.0011178875608142825 0.12430163189376547 0.24880203454462912
29971000.0 0.9668752638732804 -0.2532188683470774 0.0001912978646849263 -0.004811229765500421 -0.0004350101611413302 -0.0035592433518697193 0.14872581841537724 0.2684279731337184
30970000.0 0.9659722307994167 -0.25849703577487765 -0.0029767048197436217 -0.0008461531990154572 0.0018077685609881541 -0.0044257208756543626 0.1664007473446569 0.2543803690915234
31969000.0 0.9642233361680116 -0.26692440175830634 0.0059701940686207045 -0.003465405552587771 -0.0006078510615953227 0.00048602207946804154 0.157016288978376 0.25402807422105755
32968000.0 0.962516469414062 -0.275887379536812 0.011062148401956849 -0.007955848782071182 0.002772195892957028 -0.0017252693560926029 0.16466332298327174 0.2382719591099774
33967000.0 0.9588643243099074 -0.28532242768262117 0.008813968329794954 -0.009257942700145187 0.003336449716231186 -0.0020381416348136455 0.18985806096263352 0.2369974442742135
34966000.0 0.9549036904986961 -0.2973437281934333 0.01566188230818624 -0.011150435173773397 -0.0017798595444207398 0.002230631776119581 0.20352190931175618 0.24954105882619254
35965000.0 0.9530406620104036 -0.3034495389299046 0.01529748792696547 -0.01352276607112412 0.002207267990118585 -0.001225441434054628 0.22068781568677234 0.24434729602023672
36964000.0 0.9498025525372635 -0.31103513729753846 0.017958148967099036 -0.013708008322709754 -0.001882371211786682 -0.002128880841084521 0.2203610414619135 0.24707489251605644
37963000.0 0.9462073186858709 -0.32176210209919826 0.021963062468820214 -0.017975539406390587 -0.002393396406575481 -3.7007784840693784e-05 0.2295894053524749 0.23499386042596299
38962000.0 0.9435590594372466 -0.3300712540072197 0.027187835714696955 -0.02238437055739224 -0.0017945189162837732 5.3765493810738724e-05 0.23915821307440996 0.23602336684543573
39961000.0 0.9417626647145294 -0.3349656518656634 0.027100935544591354 -0.024903932489827883 0.002636785496693118 -0.0002882800344419071 0.25525951139685593 0.2217993791029145
40960000.0 0.9389625979219547 -0.3446736288601924 0.02336486286930383 -0.020567527779940573 -0.00039426809691546705 0.0021694254805940338 0.2800171141066675 0.21546600849408598
41959000.0 0.9361966665874321 -0.3543559857129279 0.0307408133239143 -0.032202744887730506 -0.0015927659806135612 -0.0019821950233516682 0.26756977972073953 0.2051713050409216
42958000.0 0.9303120952232586 -0.36192067911257897 0.033277758736850696 -0.03926203928799366 -0.0006680866393670673 0.0013095385416913921 0.28767101907701703 0.19888708258001703
43957000.0 0.9291536411107918 -0.3684343578815065 0.034619251518831114 -0.04429567006475813 0.0027638985916423426 0.001260490263991545 0.29779618636856303 0.19937875020758875
44956000.0 0.9259771045411646 -0.37436660874410455 0.03632297133640628 -0.0495790030107969 -0.0006525185026881422 0.0007904853071339309 0.3093400190663355 0.19412104724897594
45955000.0 0.9206959653198765 -0.38715363435941136 0.034583153414443894 -0.05716510866965126 -0.0004432406915823642 -0.002240357023857266 0.3137736237837891 0.1742995627865692
46954000.0 0.9187886582465863 -0.3960937218013402 0.03386200472138036 -0.06607173736340838 -0.0016478055180978118 0.0009931217090197967 0.3397604426790748 0.18596562609396158
47953000.0 0.9157278674652269 -0.40179741294909743 0.035735230640582843 -0.07187476111309414 0.00496978450922971 0.0015147127746277219 0.34576170631088887 0.17620233688286496
48952000.0 0.910453723861881 -0.41185014851889273 0.03652800492075682 -0.07903773523450154 0.00018290514153430877 -0.001193472051982917 0.344081959567228 0.15886438758065474
49951000.0 0.906508093505931 -0.4194110888594177 0.037622708945062706 -0.08660802904814945 -0.0023851669558321168 -0.0002163275763340246 0.3522977625625714 0.14873437200057713
50950000.0 0.9036860665489211 -0.4256896286631128 0.0382706393183391 -0.09367432919330461 0.0012633783759301667 0.001951608664520645 0.35847702661032416 0.14542459509182398
51949000.0 0.8991175261589173 -0.4352002573331829 0.040084166360269985 -0.10381981853982504 0.0008587684566105652 0.0029329779570142884 0.36518036483376043 0.13497879953489597
52948000.0 0.8976342203412347 -0.44235311325838295 0.04442696894939781 -0.11225338014941573 -0.0006094591163054859 -0.00024300135282984817 0.3800986394987459 0.14020398846396073
53947000.0 0.8912090860604976 -0.4505436697116191 0.04369926744150803 -0.12170302065945429 -0.003042602504186065 0.0017790777017378098 0.37341455199999435 0.12438598214687828
54946000.0 0.8851298938252115 -0.46034672618252626 0.0448910457912675 -0.13150453234777243 -0.003060225143751428 -0.0022953121076122857 0.38368354093111373 0.12570354027059993
55945000.0 0.8836569961927756 -0.46709220211170405 0.045309072495693735 -0.14142436384718146 0.003181943922687967 -0.0007741654200686778 0.38610679464274744 0.10161731505660464
56944000.0 0.8801781996931101 -0.4773305465963765 0.04826821046954457 -0.15295776516054274 -0.0005760250738399123 0.0003580332207487506 0.40825824173920705 0.0958840577677601
57943000.0 0.873559825473999 -0.4863435491531026 0.05181510408444458 -0.1639229841479473 0.0007946381361111206 -0.0006201130976159463 0.4040156754173655 0.09391293238494894
58942000.0 0.8676824919184083 -0.491368701107693 0.049848269370009086 -0.1742742957526009 -0.002452991341468876 -0.00021269208324938693 0.4192484877170795 0.08672725664882901
59941000.0 0.8669903800338614 -0.4983674116128987 0.053416640331922165 -0.1839435465752742 -0.0007044636471322174 0.00016107242157853912 0.4260556243431125 0.08276488918261543
60940000.0 0.8581400407272538 -0.5055842105145563 0.052209171803385815 -0.1859189686069029 -0.0006925480297243288 -0.0022447804649394897 0.4237064791467688 0.08009390431274269
61939000.0 0.856871300759626 -0.5132546104571362 0.049903510054402585 -0.19796942890380864 -0.0013713480848504065 0.0012767762373169084 0.42239258498184923 0.06208194376919338
62938000.0 0.8506435278464075 -0.525187326934893 0.05160895308665663 -0.21262269868372302 -0.0018286953190408553 -0.0017533553387200395 0.44292895607437716 0.04872618680240059
63937000.0 0.84522328242551 -0.5341096774547777 0.053353342140970074 -0.23117008185160678 -0.0030350394717968696 -0.002238567930426722 0.4434743586045865 0.037189692182923534
64936000.0 0.839043745910445 -0.5374399375451815 0.057405361008598825 -0.25046873121905344 0.00011701204978494695 0.0005139387574586346 0.43737878988719936 0.046032848908677315
65935000.0 0.8366379350972386 -0.5495122529127341 0.0553565405534589 -0.26123005036297653 0.0028604392829134247 0.00272396892290748 0.43908371401082824 0.007941094895994524
66934000.0 0.8319370423862437 -0.5543032785133329 0.0577397355153197 -0.27629682253442756 -3.783277086819336e-05 -0.000430926624034214 0.44422076129399096 0.0008764913160692497
67933000.0 0.8285947936188983 -0.5619814039660525 0.0631648101995858 -0.2891471935584025 -0.004693530674520725 0.001948866775804088 0.45392369624582946 0.011386773661311474
68932000.0 0.8219655178989439 -0.5688480482774998 0.05005224643572873 -0.30321332261583933 -0.0007376822355025771 0.000642694481469944 0.4655964117918799 -0.009746246950299351
69931000.0 0.8165079857970486 -0.5774113020539575 0.053628523917514104 -0.3211282275954399 0.0013591460988006407 0.002942894779942871 0.4626851177495151 -0.021295181947035537
70930000.0 0.8106534274678165 -0.5841728555827304 0.05228092747840758 -0.3332349212897674 -0.0016135533467868538 0.0005374770336460365 0.45073186790276787 -0.036742288799716756
71929000.0 0.8060427222424527 -0.5935301745766395 0.04878250832508616 -0.35535039161632126 -0.0009687886397733252 -0.0018872878667405644 0.4536961567658608 -0.04811048242251842
72928000.0 0.8004386433189333 -0.6013996152407692 0.042974483412008345 -0.36870613587853546 -0.0025855802123073957 -0.005355349814253448 0.4757004216458491 -0.04958987145901281
73927000.0 0.7934973885806644 -0.6073182256162465 0.03694208730153572 -0.3862752719547236 -0.000368314094297015 -0.004887171266285147 0.4648070068321795 -0.062458761682891675
74926000.0 0.7901298936672476 -0.6176175749097365 0.033564504435997296 -0.40454107437386566 0.0011494565575404878 0.002783856654504174 0.4696825565926786 -0.05977906991059048
75925000.0 0.7810601344360437 -0.622737211670179 0.022724189397691247 -0.42522810993895904 0.000635109244771494 -0.0012714905650750155 0.480178743406847 -0.08121669166631527
76924000.0 0.7762305716812031 -0.6315323677441026 0.010843628159675664 -0.44864664624077455 0.0052628454372895695 0.001420821630325341 0.4625067184051458 -0.08643495218430562
77923000.0 0.7687613765167656 -0.639472531447636 -0.00329867723248385 -0.4706447659555197 0.000289390249729447 0.003385325320027239 0.4726087660159096 -0.09888058381158152
78922000.0 0.7633279192080527 -0.6468616844260484 -0.01655245011265404 -0.5001228838529868 0.001627405907252867 0.0010944652923521477 0.4683556407008264 -0.10607396461299265
79921000.0 0.7562829864566596 -0.6501937127135237 -0.03756605137375863 -0.5234182530612341 -0.002036121790115562 0.0011431755988546108 0.46881408524063856 -0.11011118654334476
80920000.0 0.7526795290743971 -0.6620556866014701 -0.05019429810125599 -0.5524817732379254 -0.0004564355948158655 -0.00041270783243123343 0.4765289630770376 -0.12859833503480247
81919000.0 0.7456252425358345 -0.6667279510440356 -0.0685130749350359 -0.5829926679032474 -0.0008641452903106351 -0.00039942754684666934 0.47130190751016127 -0.1402763122885807
82918000.0 0.7382685672619597 -0.6743419780771276 -0.08389502883110206 -0.6105256222816766 0.001683414962950959 0.0023877774560064893 0.48514398508848416 -0.14474893405640213
83917000.0 0.7301682036324477 -0.6823290536186806 -0.10576009421452824 -0.6418478051078262 -0.000757244189990696 0.0023297474644360778 0.47737219881971643 -0.15275348913536835
84916000.0 0.7248683503389403 -0.6898335880644718 -0.12091907075559025 -0.680066493972909 0.00045919407663847287 0.004050355478869001 0.4714839088837444 -0.16882863873379123
85915000.0 0.7161198460403897 -0.6989372208232214 -0.14600992304515856 -0.706727401829975 0.0012303295031287002 0.004046846312343859 0.47337560023677955 -0.17008686123410197
86914000.0 0.7096626877037129 -0.7074762331316455 -0.15721462997303887 -0.7462627668532315 -0.0008505930284282851 0.0010585165062473984 0.47833456686740705 -0.17103519704367903
87913000.0 0.7021739590970095 -0.7132392827586204 -0.18046329210882156 -0.7738148592326501 -0.0035443403416820767 0.00019616904960003396 0.4593343483675245 -0.19925284322132436
88912000.0 0.6949211585650621 -0.7189092082478786 -0.1955738606869709 -0.8109444647298564 -0.0005197419276342426 -0.0015795766816786836 0.46741792147683037 -0.21080886380387256
89911000.0 0.6888731041348451 -0.7286023046515998 -0.20980604350107837 -0.8518239849220164 0.0012040087956446354 0.002519609142071515 0.4652334803074768 -0.22017077925327092
90910000.0 0.6814380474383015 -0.7338395072169903 -0.22950990355208728 -0.8819229556370054 -0.0010854839716747508 0.0018146843274041379 0.47237259945285054 -0.20714716065675842
91909000.0 0.6715006395315964 -0.7385779175047525 -0.2541251478192293 -0.9152465977920131 0.0006665199554558595 -0.001887480945529019 0.466409866827218 -0.22202164984121878
92908000.0 0.6628532360659269 -0.7479398372074645 -0.26915041336566103 -0.9510144021018261 -0.00039598048520107787 -0.0006979109502027596 0.46652167379271114 -0.23217384689634443
93907000.0 0.6588178443706719 -0.7525131426252841 -0.282524561466732 -0.9824451314796316 -0.001068990047835452 0.0017793744089363984 0.46264485238614056 -0.2510189414140021
94906000.0 0.6449094140757629 -0.7631943649041547 -0.3034817031897826 -1.017186215635578 0.004298348204185194 -0.005243264516661152 0.46500460168218555 -0.2554316756383044
95905000.0 0.637553271298389 -0.7686928677025193 -0.3244995050313655 -1.048912794258607 -0.0003254255341229424 -0.0015819146093316158 0.4640108646396671 -0.2709799610032973
96904000.0 0.6318133410297752 -0.7758635611225682 -0.3412131735626298 -1.0886853056454462 0.0026252576472270387 0.0008399290843904336 0.4560645003005629 -0.2806678469643395
97903000.0 0.6220313521530847 -0.7810697139760351 -0.36594279163634186 -1.121165531306774 -0.002378165009802044 0.0006139433326107904 0.450901942380816 -0.2800363960045325
98902000.0 0.6172087441163631 -0.7870348817322533 -0.3768222449342862 -1.1619019195003875 0.0004429692832354177 -0.00047124050445595216 0.44886096491442234 -0.2966231191547512
99901000.0 0.6067672387059548 -0.7936188687696072 -0.4150394220373879 -1.194655420416645 0.0032402177246769175 0.00013039994714162976 0.4661375559283193 -0.31749227956309906
100900000.0 0.5959758060133356 -0.7969471653426939 -0.4434686756255843 -1.2170427699665654 -0.00022727465404165132 -0.0025070751474828685 0.45959464982463977 -0.31701891608004523
101899000.0 0.590916139837023 -0.8047444665445747 -0.4639527282985313 -1.2627881158552883 0.0014813048227017404 -0.0008233956250609819 0.45534372630965303 -0.3179385467341759
102898000.0 0.5784605892483538 -0.8120702113884287 -0.5043122505630686 -1.3013434282590481 0.001489435840994545 0.0026136287483996025 0.4526936792645739 -0.34143718097316694
103897000.0 0.5715929320984969 -0.8188765136966887 -0.5381370118960414 -1.3373937645721996 0.00044018501390671774 0.002442030195203971 0.4553227118214794 -0.3294729519513461
104896000.0 0.563918105242056 -0.8297946278292054 -0.5888224902510018 -1.369133251532008 -0.0008606497767822635 0.0027304271525506116 0.4386920063536517 -0.34210390246445255
105895000.0 0.5516976482570369 -0.8312412715196803 -0.6353946465400382 -1.4131362320853076 0.002484349513107139 -0.0011311265524795722 0.44037086005829196 -0.36170676535215684
106894000.0 0.5461404910925838 -0.8375533568287762 -0.6873508945858909 -1.4520466533179899 -0.0009534395662791989 0.003706487473647973 0.43967085879725176 -0.3761287407982633
107893000.0 0.5380673419480132 -0.8440664143650071 -0.7359511950173703 -1.4866193080451044 -0.0013577792935990762 -0.0009235921719404046 0.4259234556687589 -0.3909051802051014
108892000.0 0.5246030795369194 -0.848518667231535 -0.798190043642183 -1.5166758370698368 -0.0011708132717662024 -0.0034471328840728088 0.4276416913803278 -0.3780068880554592
109891000.0 0.5131574772810668 -0.8551417979981633 -0.8498586506962945 -1.5482544709593684 0.0004327097218507521 0.0016749965759561556 0.44132228220520614 -0.38221920780906393
110890000.0 0.4964019705473735 -0.8601871889668461 -0.916408031972503 -1.5511446363689891 -0.0022464970486332234 0.002981210156259068 0.42575700066498645 -0.3937456383374357
111889000.0 0.4959174866772856 -0.8612939818178718 -0.9712343524004445 -1.6237551482650607 -0.0014569023921723392 -0.00839728923513907 0.41035310411827614 -0.3995011217875304
