! Created with skrf 1.9.0 (http://scikit-rf.org).
# Hz S RI R 50.0 
!freq ReS11 ImS11 ReS21 ImS21 ReS12 ImS12 ReS22 ImS22
1000000.0 0.990834406800828 0.014695750479007105 -0.012098622336783585 -0.03990877605304228 -0.0149589701397035 0.02040648908262906 0.40096895579147224 0.3259830876724993
1999000.0 0.9951613585463583 -0.015181873347062499 0.0030596922928643132 -0.018547946902570826 -0.0032272508631569687 0.006582202139371944 0.2801782746138428 -0.03530645386342403
2998000.0 0.9979403918590373 -0.019931241381087754 0.01218993256915137 -0.013188042355086015 -0.003682408074237964 -0.003194566675683425 0.20031734232299075 -0.1257538137380085
3997000.0 0.9952554872480451 -0.029845682500259936 0.01173939946216373 -0.0061143597635279785 -0.003060088627747098 -0.0023895266101119036 0.10326280512266943 -0.21447191966128712
4996000.0 0.9942332835279686 -0.043771228614743404 0.01500442199179813 0.0039032762779547927 -0.0009658655866010534 -0.004117611265068717 -0.06169741473185246 -0.19729535827508915
5995000.0 0.9965395850760039 -0.0497734038694934 0.012523983327010125 0.002318553274624591 -0.00201237730527377 -0.006313829078595577 -0.12033661121363368 -0.08564845177012116
6994000.0 0.9931220461517964 -0.06136026845572828 0.002550785897143728 0.0032694071474401393 0.0008156582843194397 0.0032535446849677766 -0.13353986809598034 -0.0014005730690470272
7993000.0 0.9960508231719643 -0.06737501686784433 0.004799749697618912 0.0046909134271597 0.002547606214734599 0.0038558416616798004 -0.15411070142013755 0.045927068424222534
8992000.0 0.9950540795116694 -0.07346441535481398 -0.001037513593978414 0.003462273866638801 -0.0013176362657955918 0.004604540962958224 -0.15364192273737523 0.06820778928254767
9991000.0 0.9929437569215717 -0.08303028950982093 0.0017750542115346235 0.006969677061027519 -0.002572903622978307 -0.0023419393559324076 -0.12747213989062733 0.08602143104450388
10990000.0 0.9909100872511287 -0.09311950934664825 -0.003022394418432299 -0.00306226550805597 -0.0007776628857837045 -0.0016937874131881371 -0.13512728662673126 0.11711657663583418
11989000.0 0.9882326973986297 -0.1015587257513033 -0.0010301490652367049 -0.001559164590507347 -0.002138799651551339 0.0012611659187529093 -0.11891352607476358 0.13873975203043473
12988000.0 0.9880023535493823 -0.10973654056366737 0.007034198847792056 -0.004565763866750109 0.0015911569114711388 -0.001364794361498327 -0.11290728041515598 0.16586263292934106
13987000.0 0.9865679234450903 -0.12079478008276058 0.00026338589194959663 -0.005953186042684868 0.002811791131792477 -0.001808182347683215 -0.09009967845083734 0.18963182790951974
14986000.0 0.9865385679165242 -0.1261781989299802 0.0019058149917646385 -0.004494158204476691 -0.00024901391601555634 0.0019522855912236811 -0.08717758354714497 0.19619044594253454
15985000.0 0.9895252609878689 -0.13327527604507197 -0.0030004676376287863 -0.006696683167146429 -0.0016566589137786496 0.0028299305391294933 -0.07692622455063103 0.2187304863529451
16984000.0 0.9847957046923664 -0.14432722926553196 -0.0017603578480487262 -0.00014067309388172606 0.002881981372028776 0.004668601596557488 -0.06394470038765313 0.21937527874784177
17983000.0 0.9853918026683354 -0.1493965743886001 -0.0031335029603221367 -0.004260514640433994 0.001095729630817964 0.0003644733809601575 -0.05219721160403904 0.2229829749500467
18982000.0 0.9817740403713072 -0.16242966959579375 -0.004767568937485383 -0.00609567855787397 0.0026328191538454405 0.004762180012824439 -0.014480596847536015 0.24227690232686058
19981000.0 0.9821014102945149 -0.1656801019842903 -0.004275336765367917 -0.0017472394269513816 -0.0017239264198711888 -0.003586356511694021 -0.01081719032775927 0.24232993188242746
20980000.0 0.9809869261055841 -0.17621271019684534 -0.005733584435325306 -0.006627190739483465 -0.0008133480042270708 -0.001730931381014522 -0.006356726334685897 0.2584193529133248
21979000.0 0.9777512970512675 -0.18539928529410307 -0.0024801023834043756 -0.005909994534746369 6.434849915508468e-05 -0.000150264691918388 0.024503759911195116 0.24393811872984203
22978000.0 0.9750824753355704 -0.19496608816780628 -0.004825513049156567 -0.004474583959176506 0.00011138178687431422 -0.0014369676358578626 0.03484394154204746 0.2395828399565678
23977000.0 0.9779192463613066 -0.20092894365455197 -0.010036397438984684 -0.004860141961264265 -0.0002608725354347332 0.004122623395434011 0.037602829172229735 0.2622763290407354
24976000.0 0.9727226833894588 -0.21429710174570857 -0.005763146246321934 0.00303038516679075 -0.0005461015564386495 0.0009159407248153585 0.07924214474686805 0.2497905176665568
25975000.0 0.966414166400189 -0.2232360506572086 -0.004145585328702181 -0.004169023316959169 -0.008148212518565238 -0.021208825936809814 0.07548844060515575 0.2650532989310676
26974000.0 0.9699869531044705 -0.22918203758607614 -0.0019128276985856945 -0.003802088343782053 0.0032740303225621942 6.187869844222243e-05 0.08634290675410931 0.26698515489856584
27973000.0 0.9673966486027803 -0.23647639348803695 -0.0025744433579951084 -0.0018467417837572395 -0.0005680532609727901 0.0017536518775840828 0.11656582937393369 0.2585656712237086
28972000.0 0.9655941148122615 -0.2442928212533575 -0.0009719887270477538 -0.001947421744202341 -0.0007820988782809159 -0.0008743829671172313 0.11159701407502884 0.25072938589151816
29971000.0 0.9625286157515851 -0.25439067905357177 0.0014969489935702756 -0.0014835038198295744 -0.00020651714266528483 0.0014973971553153046 0.14802452416711193 0.2694019171704242
30970000.0 0.960546026611472 -0.25851433662741646 0.0015490514979750174 -0.0020306691401164676 -0.001178337068484276 0.0039837666053668215 0.1712045027106831 0.2428449276731711
31969000.0 0.9584284589902815 -0.26856458184674004 0.005755022822737583 -0.0054637415129075734 -0.001736627054518211 0.0007216568567618564 0.14235836926661913 0.2528893936185322
32968000.0 0.9581964918781888 -0.2798279427975916 0.009434525861360643 -0.007607971615004698 0.0008900098638527111 0.001118117308667064 0.16153836149277145 0.2436242979081329
33967000.0 0.9551477725398551 -0.2895581310845084 0.010437785124612648 -0.012137316384906298 -0.00045571776650543954 0.0022606732425884315 0.18982762672777823 0.24634890066915113
34966000.0 0.9524840296732028 -0.2958718629651988 0.01369697995171553 -0.010453365539495057 -0.000930115103867109 -0.0022318177640789304 0.19515939037886298 0.251393750662085
35965000.0 0.9480420782565488 -0.30470920927993583 0.017515183420568528 -0.013638243893692522 -0.000625892538650091 -0.0014064331349062224 0.2156876322886004 0.24712324837161212
36964000.0 0.9472448335550656 -0.3127914506140413 0.020046406095993945 -0.012135661106198408 0.0009329754364013005 -0.0002769212092776626 0.22030727816276333 0.2540658513014191
37963000.0 0.9441586995622792 -0.3205548714009286 0.025140328457447465 -0.018059642302428288 0.0021226629144107073 -0.002209227843339261 0.2353843890646181 0.2372620631341566
38962000.0 0.940355135288822 -0.3323118106792792 0.028329124179533625 -0.023848907183989868 0.0022698101812273033 0.0020173402410344357 0.24329037422813413 0.23501431943593237
39961000.0 0.9376903098771019 -0.3408822869475397 0.02672808787712479 -0.027228124119055553 0.000674588763677217 -0.00113139503470072 0.2539194255848328 0.22715297056976508
40960000.0 0.9340570726594205 -0.3468495066522568 0.024814925718254353 -0.026861602755560186 -0.0028783874018293034 -0.0006045466778333592 0.27541764571688293 0.22496721150596494
41959000.0 0.9322004685121379 -0.3561010138650982 0.03310280657514539 -0.032738856736124915 0.001161759937459031 0.004447440316655771 0.2714217054825954 0.21474501153209413
42958000.0 0.9273632752580954 -0.36539415085983273 0.033217107477619474 -0.04340333766048732 0.00250794590671306 0.003932876028074265 0.2872652288307577 0.1901942491712418
43957000.0 0.9235839178732321 -0.3730921291396146 0.03522066717039369 -0.04654576707545329 0.002441283085952354 -0.000950980666860767 0.2945187223248057 0.20949062553050912
44956000.0 0.920915764983837 -0.38000140052930603 0.037099739298097616 -0.055052149685486315 -0.0009771935728184705 -0.0001541616237663337 0.309487096754392 0.19299040823972988
45955000.0 0.9164183141003551 -0.38885475138085035 0.03747526335092902 -0.05860131812014569 -8.277863635230716e-05 -0.0014435698070424763 0.3030306024688175 0.19352174551555051
46954000.0 0.9132782781890432 -0.398939651532731 0.03916995314685794 -0.06758120609483788 -0.0005175899659845537 -0.00010955000419657014 0.33356894646643837 0.17551454236407424
47953000.0 0.91167331301711 -0.4066878752180923 0.037150161661412454 -0.0751130379945514 0.004027088174153257 -0.0019046560990359882 0.3294106674319519 0.16672906351034303
48952000.0 0.9054575897301639 -0.41867345167450276 0.04187197373858054 -0.08189195951591109 0.0003349033558717902 -0.0009783272497052371 0.3375483126383103 0.16589287073298103
49951000.0 0.9031823803600534 -0.4197758266707932 0.03946130306662803 -0.08982819157399159 -0.002919941550638619 -5.788961058644988e-06 0.3546263637333045 0.154637327464277
50950000.0 0.8986736483217262 -0.43105364995220513 0.04569314609727845 -0.09790794069927508 0.0016390241134211592 0.0005057800123650436 0.35262921125251867 0.14669484694571436
51949000.0 0.8931316537211403 -0.44152216231050173 0.04190562326592283 -0.10348933972315481 -0.00010001505507916758 -0.0009725935477405302 0.3640255700336383 0.1402891134253999
52948000.0 0.8911863381737481 -0.44708756243656095 0.045124851611251064 -0.1156990202608154 -0.0028524202353614517 0.0014674690043065717 0.38507822734804253 0.13388419542458802
53947000.0 0.8860691025633356 -0.4553093106763852 0.046554007060636185 -0.12676749929756537 -0.0015875125816852322 0.0018491991929186777 0.37200116829271584 0.1284128373405653
54946000.0 0.8804080501362628 -0.46556585627413005 0.04836185255204331 -0.13431568227610063 -8.978885445642832e-05 0.0004962183331724074 0.3839050320951871 0.12302041804917331
55945000.0 0.878397197960472 -0.4736613532685471 0.05271510493743783 -0.14507868928565945 0.001435004806677321 0.0009229323811168317 0.39027804622484064 0.10653836201956166
56944000.0 0.8751746716913477 -0.4808448316202867 0.05237618733632085 -0.15434700501014142 -6.32860968580981e-05 0.0018254746352685807 0.3968576728316029 0.10088692001431317
57943000.0 0.867790206618578 -0.4922980575849206 0.05507658949267777 -0.1649411454284984 -0.0012422987330262367 -0.001788173905418991 0.4043547569456229 0.08972179110386871
58942000.0 0.8646764289037954 -0.4949789043971264 0.05375167816229078 -0.17766218643692167 -0.0009912987910498758 -0.00014895439746249358 0.42651145011156 0.09843163883845618
59941000.0 0.859999524970376 -0.5063737302385736 0.058600522643138246 -0.18899689141475592 0.001224363545952801 0.0019159956893067072 0.42364671632465906 0.08861288478626468
60940000.0 0.8518186356991119 -0.5120680955153366 0.05994383666301876 -0.1929018413616815 -0.002636713622082965 0.002093841982868366 0.4095259754860882 0.07545529831349099
61939000.0 0.8502459440493304 -0.5200603604464226 0.062246788411717234 -0.2034302629018527 -0.0014985601948002423 0.001335088684942038 0.41816904945033134 0.06756177952138581
62938000.0 0.8447440307873619 -0.5294460827403681 0.06102964620055261 -0.2204055304221638 0.0007744051435878306 -0.002758800984718852 0.43853900719666333 0.052841872290966825
63937000.0 0.8388270532065673 -0.5392152283094264 0.06137313386120608 -0.24250024568320439 -0.0014856668448614443 -0.0012835382192125959 0.4330003006479164 0.04744238441155769
64936000.0 0.8335509537826173 -0.5417103277851446 0.0630388552775335 -0.257148432170426 0.0003521104994859655 -0.003906197184918112 0.43844417449194156 0.04263375361987141
65935000.0 0.828458165881927 -0.5556175989829277 0.061330844740446325 -0.27137786140861464 -0.00282985386102621 -0.0024074968002751433 0.45151606224478946 0.02106141997832739
66934000.0 0.8251548820504517 -0.5588828622156033 0.0591621169431581 -0.2866252539323848 -0.0010877348550419224 -0.00024385619605810349 0.4352183487818248 0.011839661518467257
67933000.0 0.8201736356918874 -0.567362210825634 0.06259410374391318 -0.3011112319747243 0.000551936895081331 -0.004538588010821535 0.44798428973605425 0.0038334917298666832
68932000.0 0.8118641400746522 -0.5736241468948508 0.05394608164502367 -0.3159256230119812 -6.262289756623236e-05 -0.0031281104207526644 0.46017112646883734 -0.023773100842156534
69931000.0 0.8075391128923557 -0.5831896984678546 0.056320041203930894 -0.3350833237934671 -0.0005116095259215262 -0.0013167995847566747 0.4560521791848214 -0.012934098597721582
70930000.0 0.8010555415463543 -0.590133164029846 0.052621094687922164 -0.3487761149555467 0.0011838377869777764 0.0011682276232924647 0.4416882830527416 -0.03613176013109774
71929000.0 0.798138492698423 -0.5983158079861247 0.04997309942162604 -0.36541889533302224 0.00392403824826279 0.002938398913110794 0.4476073898392166 -0.03038002721219193
72928000.0 0.7902354344099938 -0.6080843509282642 0.0416771790002933 -0.3840943696619386 -0.0021130968238826015 -0.0015116505050431672 0.4591276508978108 -0.041190782494363344
73927000.0 0.7828310045291691 -0.613626917405725 0.03430372649418028 -0.4034954427615743 -0.002139059445885484 0.0011862972407740335 0.45765380606571615 -0.0540109043013895
74926000.0 0.7796882488601287 -0.6216406126046029 0.028247069685659036 -0.427484661973866 7.535876746861608e-05 0.0001416384001843111 0.4630938033938133 -0.059262351145159556
75925000.0 0.7721077317813372 -0.6286406193203544 0.019083814320570092 -0.4500110928357411 -0.0026618094564174787 0.003069285252990749 0.4735090488675821 -0.06700950765233038
76924000.0 0.7660167234278196 -0.6370211289736843 0.006303207109783984 -0.47216514917745794 0.0007573305103675616 0.0017078608645034314 0.47451877611045606 -0.08038537705102114
77923000.0 0.7617932444747498 -0.640095753588191 -0.006610515699917155 -0.49996168874383884 -0.003173339913893301 -0.0008813795954369811 0.455179840129287 -0.09718115529708786
78922000.0 0.7540000160331187 -0.6529826433183786 -0.01906177513247679 -0.5275393438416598 -0.0063253327039885406 0.0008221314945633846 0.46472407473358573 -0.11349458306021755
79921000.0 0.7453439696584157 -0.6568535591437675 -0.04027093651689572 -0.5553267543023135 -0.004682554869834722 -0.00013691439129297545 0.4663807313429935 -0.12064877459789827
80920000.0 0.7412167652062185 -0.6678269521412188 -0.05588178373833987 -0.5835279220878992 0.00035020961408257215 -0.0031562473932284564 0.47272828855816773 -0.11972346581128392
81919000.0 0.7359203579329281 -0.6712287766223012 -0.07212787563580281 -0.6130647141772768 -0.0025483289970975732 0.0007317651268868149 0.4713967845829811 -0.13138086301599078
82918000.0 0.7250238911271852 -0.6817188065066091 -0.08251200669234549 -0.6454287589886294 -0.002161933009472955 -0.0005530723081046558 0.4819870513204949 -0.130894965622726
83917000.0 0.71701396143617 -0.6880501764766945 -0.10511383348122838 -0.6744397106308914 0.0031006175697749906 0.001268585909417108 0.47384656898801786 -0.1559004541471373
84916000.0 0.7117621809813822 -0.6954741103575504 -0.11808187677327245 -0.7135319381518264 -0.0022723778167370486 -0.0021378675521419384 0.46802078096430944 -0.16971006292662166
85915000.0 0.706281652281799 -0.7021627240740512 -0.14345063136043354 -0.7419955746460304 0.000777460615511984 -0.0036620561905552087 0.4727216473313757 -0.1692128487004176
86914000.0 0.6983030385600699 -0.7132236710729487 -0.15615411710861835 -0.7806456203438459 -0.0004637219275547678 7.579297002288996e-05 0.4629307000410366 -0.16828126789549633
87913000.0 0.692053965553724 -0.7186311181693741 -0.17644604020761268 -0.8128079281995554 -0.0011695824140321508 0.003780029713770347 0.4676802127157795 -0.1855068345779293
88912000.0 0.6839241560850965 -0.724101183888197 -0.19267510473052898 -0.846600462665288 -0.0009621391886178582 -0.0003205524927087133 0.47167733919402405 -0.21186864656160334
89911000.0 0.6776167444368185 -0.7343967387617182 -0.2075119558353868 -0.8838782563873673 0.004085312958356008 0.0008366151192182033 0.4718436274483131 -0.20909930865839216
90910000.0 0.6688185637846589 -0.7396623371823295 -0.23032898372527807 -0.9197993404874134 -0.003795352800090241 0.00214387195199414 0.4696107870851399 -0.20431684110291884
91909000.0 0.66076483706122 -0.7456664231299805 -0.2513933439589929 -0.9552453392407185 0.0014109833928365142 -0.001560871355730369 0.47166243482971976 -0.2177847212742445
92908000.0 0.6522898748696371 -0.7517589564604823 -0.27003607534753105 -0.9893050684055462 0.004166977132498911 0.0004951996868773334 0.4622858335471124 -0.23977742474564093
93907000.0 0.6484858026464053 -0.7570862239151148 -0.2839417388251467 -1.0247001687659432 -0.0038284424841709703 0.001282024828774705 0.45795087200445483 -0.24055010196497403
94906000.0 0.6329564924087038 -0.7664809511159886 -0.3055501566942214 -1.0595981488399915 0.0042391053243630876 -0.0014115255913572816 0.45919402208078 -0.25059112927291766
95905000.0 0.6278403260676113 -0.7726708096449065 -0.33344622276308433 -1.0922305275197317 -0.0030071308932841734 0.0002522315618254961 0.4663046273176912 -0.2656014435109665
96904000.0 0.6203674784682913 -0.7803823596051451 -0.3511937914181574 -1.1341897289718947 -0.0020086918948546873 0.0017341396111458518 0.45233118892560564 -0.27512589197883225
97903000.0 0.611116627284146 -0.7848142840040886 -0.3799991943106307 -1.1707239948528738 -0.0024887360497540404 0.0012225697543922203 0.4519540306413216 -0.29135474496919267
98902000.0 0.6071094720632351 -0.7934278221767246 -0.40040655574722145 -1.2060480138944083 -0.0024018384990312494 -0.0024259830432571687 0.45554724143835545 -0.29749583820266234
99901000.0 0.5936513541718352 -0.7974979887717251 -0.43514135866110415 -1.2357271141735007 0.0024016846492980275 0.00208043229491522 0.46863435466946146 -0.3149813912908782
100900000.0 0.58471972845695 -0.8013940170585446 -0.47374777088149395 -1.2715717088032494 -0.0028494302330153765 -0.0002710352833274273 0.463251714809221 -0.31708661406990396
101899000.0 0.5761873209632705 -0.8101667699123244 -0.5011246696858668 -1.3140129320262535 -0.003432567579525072 -0.001374575295169162 0.44429567697491185 -0.3165778595328561
102898000.0 0.5696781435532963 -0.8139251598339187 -0.531852424351229 -1.3543786864712986 -0.002113927396084448 0.00029610940487027014 0.4430582746221128 -0.33676281818792964
103897000.0 0.5573836117904851 -0.8220186412383809 -0.5806883847007589 -1.3861245124943227 0.0013105192705722725 -0.0014283396908154303 0.4457286202079638 -0.3420840908482954
104896000.0 0.5507540230262942 -0.8328046071440481 -0.629361496243328 -1.4282367125397524 -0.0017978207910154117 0.0011497054535804896 0.4387227600221475 -0.3499551963888367
105895000.0 0.5383863427198057 -0.8353731735851899 -0.6796763533832478 -1.471771702838674 -0.0008337997734384957 0.00069222830563833 0.43762424213875856 -0.35319468440150287
106894000.0 0.5302747840711524 -0.8420473792960184 -0.7405301311754887 -1.5130543315962628 -0.0006592867063375151 0.0019018876249998664 0.4237448033037523 -0.3655486225840063
107893000.0 0.5222498871820818 -0.849544902443245 -0.7903227981771138 -1.5520181183277135 -0.001570022367329248 -0.0017656923306697187 0.43730592294111725 -0.37468307172144516
108892000.0 0.5140573149215494 -0.8497565916641346 -0.8547933762534489 -1.5942782960365578 -0.0021185097464376857 -0.0019521853006178825 0.4199714619363397 -0.375156060498899
109891000.0 0.501652814126221 -0.8597482985381496 -0.9124948759517255 -1.631560104274999 0.00025010278019849846 0.0010188041703472663 0.4453382042377197 -0.37447083760864885
110890000.0 0.4954293190791348 -0.8725337009014522 -0.9948593658093904 -1.6546940269310628 0.0012294584621734578 -0.000553361106666412 0.4326156347338999 -0.3965296785068993
111889000.0 0.4791897735448595 -0.8661438569591233 -1.0496066026214912 -1.704554744715866 0.0006519857915358999 0.0005013271671077743 0.4297215210433755 -0.39595870548476103
