! Created with skrf 1.9.0 (http://scikit-rf.org).
# Hz S RI R 50.0 
!freq ReS11 ImS11 ReS21 ImS21 ReS12 ImS12 ReS22 ImS22
1000000.0 0.975420843934374 -0.0029204445067823035 -0.02456922918590852 -0.04487364609456536 -0.024468935289587292 0.00551003588195121 0.31451513850441165 0.3518751959325221
1999000.0 0.9991917921278567 -0.01369765211312239 0.010720717085196922 -0.02353383823049625 -0.0007474146815213236 0.004184421345281374 0.268301549005235 -0.0745209014967043
2998000.0 1.0000330191808586 -0.021424545854140945 0.007024704444963365 -0.013685859679384849 0.004828536142571665 -0.0034801758805955703 0.19937464271972846 -0.1371601571608192
3997000.0 1.002424779647475 -0.029044374202266174 0.009037045007203325 -0.011752636127706901 0.0017319461236182821 -0.0014618854886356886 0.07831913678174718 -0.24434847794281833
4996000.0 0.9978186909570597 -0.033493270547822376 0.015755603980139497 -0.0033290241181331733 0.00024939697211148954 0.006634814607687664 -0.07173875102775289 -0.2179402290703304
5995000.0 1.000294386063589 -0.04917882743292666 0.007379566204428741 0.0003610142567783104 0.002480274932480893 0.0019520800826571905 -0.12735031754361445 -0.10494560377424376
6994000.0 0.9961784926409608 -0.054476358071582784 0.005233492126737679 0.00811862464881058 0.0010745582707502009 -0.003783574703578923 -0.14664918993836107 -0.029785825408447247
7993000.0 0.9993162156318431 -0.06912949047614572 0.01120948684008872 8.427684554325934e-05 0.001142242895442561 0.0017645559140789487 -0.1645163711732404 0.04036312019837669
8992000.0 1.001128167746646 -0.07028656972091744 -0.0009565126956420208 0.002852119314312891 0.0020975738936213862 -0.001950128219630191 -0.14776958633261064 0.06099134457977726
9991000.0 0.9966643405797703 -0.08550169348206868 0.00037883306099174895 0.003986138353331407 -0.0024921622317153145 -0.000993602060440568 -0.13808127423206837 0.0866133888546588
10990000.0 0.9962735434000267 -0.09327472472838015 0.0026110495447543946 0.0020569722082074584 0.0011658912472952798 -0.0034343074452326274 -0.1291566661375605 0.11414798761796346
11989000.0 0.9925041540527737 -0.10071803141934492 0.005577212461414954 -0.0009605742848617952 -0.00036962192205633134 0.005858415961223596 -0.11699687896236546 0.1444602317700813
12988000.0 0.9927826853271583 -0.11072130854806937 0.003442366664218858 -0.002155047283999757 -0.002478688908208727 -0.00581433720559988 -0.10935831044152564 0.16881326056437304
13987000.0 0.9927221801100116 -0.11772421724363193 -0.004042067576858222 -0.004340920743288399 0.00511492353059419 0.0025773490861297544 -0.0943389945677748 0.19317282108824566
14986000.0 0.9912012780667494 -0.12669028110649444 -0.0017332439336203702 -0.001552342489358642 0.0005858470986315977 0.0018641093576220091 -0.08080106082121916 0.19832196047199524
15985000.0 0.9921616277888153 -0.13338621104315201 -0.0032369478458663284 -0.007478369536639743 0.0005079017230583699 -0.0022107921497289923 -0.07979587682178507 0.2222996963281833
16984000.0 0.9880969066162361 -0.14203772276555668 -0.0035460406837540866 -0.003642889222658418 -0.003389229124173141 -0.003661514884573947 -0.052904657178323475 0.22445815466960445
17983000.0 0.9887990983400095 -0.14951527356087824 0.000747997527114406 -0.00398614012799434 0.00411043884705012 -0.004628682592213607 -0.061445577722957986 0.23123988445417873
18982000.0 0.986124026249878 -0.1609921124829721 -0.003714815215330838 -0.0037154091056633997 0.0034833300395164814 -0.0005093189577132478 -0.008389887726160714 0.23544031730350692
19981000.0 0.9868386679579205 -0.1678915541176421 -0.0050655385696727305 -0.002006596184626579 -0.00301642865379624 -0.0009874251383558167 -0.012593056663556786 0.24105084266313206
20980000.0 0.9848469732011068 -0.17711788352568564 -0.0077910301438090775 -0.0034122528589713725 0.0026730709841782103 0.001673167272822576 -0.005416739278114363 0.2575417876098029
21979000.0 0.9824337096083422 -0.18389649529338914 -0.006185773022433498 -8.94308409936903e-05 0.0025550214185563066 0.0008677498223102786 0.02378024572969988 0.2541031401351134
22978000.0 0.9801841763507109 -0.1957563474441592 -0.007572172697680602 -0.004362041501693959 -0.004446020593225877 -0.0011033522519628188 0.024061763123938422 0.2625835622222524
23977000.0 0.9824711630144629 -0.19904107437915566 -0.009938141102394145 -0.004156293350246599 0.0016525015597305603 0.0019175461715661675 0.04024030675995745 0.24774647823263712
24976000.0 0.9758772344994362 -0.20987495834122846 -0.0076009762235988865 -0.0027651127833208536 0.00031516514630676673 0.0030856576456668736 0.061617066855314505 0.257564409750547
25975000.0 0.9794242623765754 -0.221637331740619 -0.005224685369465714 -0.004748844358693061 0.010102548359092346 0.02486844071795014 0.0803934024709453 0.258153182511149
26974000.0 0.9721268648539122 -0.22972764896133718 -0.004547002304185026 -0.0036751812333864656 0.002404041581044714 0.0041335559317261 0.08963525838119607 0.26250645242017623
27973000.0 0.9725217773835185 -0.2334952523881417 -0.0037764304574887746 -0.001711696132130679 -0.0008758416135187554 0.002174299569536098 0.10570574950822817 0.24724401838245497
28972000.0 0.9685269746954233 -0.24485524032850692 -0.0031825530897264783 -0.0028155880587671994 -0.001028031292554822 -0.0040996396988550185 0.1278270338691628 0.2580531400413719
29971000.0 0.967181208340277 -0.2532910762629468 0.0005502506308687777 -0.00547042603468071 0.00360266040332071 0.0006430127122079795 0.1554589828581472 0.26886796130017104
30970000.0 0.9637378317854375 -0.2594963660737923 0.0011734624357257607 -0.0008436169303520201 -0.0018795071070403058 -0.0009967858570269646 0.17277987101276532 0.2549649084203789
31969000.0 0.9610555051385611 -0.2675609569945982 0.0009703230087514573 -0.003631544394894343 0.0016923463670565947 -0.00244282667410325 0.1505554054989815 0.24326953855556444
32968000.0 0.962089015334584 -0.27619751339490817 0.0034328412977054 -0.008456082166421295 0.0016056998665359274 -0.0001421532692395943 0.16568299362200758 0.24750618467515068
33967000.0 0.9596859463100342 -0.28484844214601934 0.011598941544645015 -0.009717679131557489 0.0024466062490287018 0.0018535550124055414 0.18617604361295925 0.2474861757626585
34966000.0 0.9540822125260813 -0.2962997464213182 0.011485153663050328 -0.012845877984634668 0.0013621333448724173 -1.2136924195609331e-05 0.20741543927906392 0.2509972282509768
35965000.0 0.952504841674188 -0.30326787834722946 0.016218753394445097 -0.012302192407460374 0.0001754995800218688 0.0023235185443506033 0.21687775502517642 0.25256563634873125
36964000.0 0.9495561359861973 -0.3108988329199103 0.016425619375962295 -0.012406440321301355 0.00016136122706832465 -0.0006699821768912995 0.21282081322960766 0.2458218692901192
37963000.0 0.9462365794004091 -0.3196680589261513 0.02077791777667176 -0.018062055524382257 -0.0020797387274349224 -0.0004379425730656597 0.2269476094836792 0.23966124241028927
38962000.0 0.9457565372022558 -0.3285434397278357 0.023186405689662706 -0.023042008265218048 0.0022624016399741716 0.0018067694217974188 0.24800045207708107 0.22818012705440283
39961000.0 0.9431955740466319 -0.33385220368726726 0.024724759117886793 -0.024920658193805276 0.000812443988349316 0.0005117820617949173 0.24979740741967127 0.2286436577458705
40960000.0 0.937585795877918 -0.3446746925971953 0.021367462052725893 -0.02354487215839829 0.0005407502176103531 -0.0003895838934226564 0.267349865456866 0.2211352995118501
41959000.0 0.9342598078293584 -0.352996378728806 0.026595973448743468 -0.03263801626192579 -4.660641529402187e-05 -0.00029775048269638655 0.2630934850948289 0.22089949140877863
42958000.0 0.9308544341549536 -0.36181074966626 0.02788700316833497 -0.03682606223545053 0.0005351706811308521 0.0011240411029134745 0.27968253861257625 0.20453093276134254
43957000.0 0.9281858223193967 -0.36835055581098974 0.031025325901937482 -0.04390062192815231 -0.002931653194696113 -0.0028975456259614056 0.29066066619726416 0.1993184021754203
44956000.0 0.9247660772155664 -0.37660765265635954 0.03073879870992848 -0.05068673696698673 -0.001168966406271033 -0.0011027219757988804 0.3050094778139666 0.1979027110972748
45955000.0 0.9204762325375351 -0.38530081852820625 0.03435258821457495 -0.05532743541833334 0.0003432493453123723 -0.0037168650121530682 0.3044743949798142 0.1945018559646053
46954000.0 0.9182895139438715 -0.39475061943552175 0.03435897707679846 -0.06093135397712772 0.001190284205693864 -0.0005238777562988595 0.3231156692129428 0.17046284256128105
47953000.0 0.913912239011425 -0.4035320596905825 0.032693476005888095 -0.07087389349331967 0.0018202450419358264 0.0002700415142307608 0.33320035041403234 0.17485231316733013
48952000.0 0.9103983753519929 -0.4120826599002339 0.03370591684794456 -0.07595920136928408 0.0016480652314760512 0.0033406846925293303 0.3405773810618474 0.1623414131053848
49951000.0 0.9057452917329588 -0.4205596007031313 0.03668733490624857 -0.084839594492529 -0.001542706470611962 -0.0010269436727240613 0.3645300584979439 0.1474784117506207
50950000.0 0.9028177146550284 -0.4279344482523833 0.03416645063255208 -0.0914803522012972 0.0007565876282463352 0.0007565744717934814 0.36584518260526055 0.142513348067904
51949000.0 0.899550974185486 -0.4337776741868383 0.035905045797046196 -0.09988130970042401 0.004650082757479843 0.0015639923660583064 0.36358112331958026 0.14251807692595425
52948000.0 0.8957028127598201 -0.44327419672607443 0.03550093069754428 -0.10861249752476995 0.002407214466413679 -0.002195891945062122 0.37535845562706305 0.14193217041695008
53947000.0 0.8922363015369943 -0.44950234681988677 0.04045854984477469 -0.11538729050228141 0.001039437017071262 -0.0029781964830652118 0.37252608096976386 0.12469066432299157
54946000.0 0.8866665475768094 -0.4616702292039432 0.03861306767823587 -0.12476790825463083 0.001629177247323387 -0.0021056419299832992 0.3850703871890236 0.11550060095798412
55945000.0 0.8832018183464777 -0.4677286250278845 0.04128611222524942 -0.13546970744463172 0.0016278272739809916 -0.002826777918440643 0.3855241127358962 0.09361771040353409
56944000.0 0.8803251414676061 -0.4767487312348503 0.0419219522849069 -0.14744679551683038 0.002231700518399986 -0.0019233607652942373 0.40359155011408926 0.10677246473462422
57943000.0 0.8733952684924938 -0.48698445554239655 0.04475797085065303 -0.15534505257439674 -0.00012900338867390644 0.0024603474565482153 0.40071895555150283 0.09190723316123003
58942000.0 0.86836541920122 -0.49164875525672735 0.04222413122514401 -0.1650832240763483 0.0010875182044867773 -0.0005705537399394169 0.4199142418098926 0.08186351656038857
59941000.0 0.8674140436117003 -0.49862410826814135 0.04706573828148698 -0.17862532560997216 0.0003915679077435162 -0.0001807801569735051 0.412985000741119 0.08253421518102655
60940000.0 0.8585001536979392 -0.5080999053784744 0.04382268707200267 -0.18183457227325978 -0.0005257190328644167 -0.0010840182144042148 0.41495797425820896 0.07515847216703905
61939000.0 0.8552358391836041 -0.5145206868503116 0.045799787459523206 -0.18694185179574555 0.0015018213227605476 0.0024345147277233217 0.4173367261955632 0.06982145539287704
62938000.0 0.8503806129840511 -0.5241889894292607 0.050228126854967595 -0.20064691868374476 -0.0032166078623460472 0.0040898185029037155 0.4412254468276139 0.054170240470044935
63937000.0 0.8440673448545468 -0.5339954788031408 0.049532843970075284 -0.2196254595980989 -0.003552206483724103 0.0019663989000933777 0.43404480757204433 0.035493712992401664
64936000.0 0.8384990006140091 -0.5372608019484656 0.05075875389916037 -0.23801645489932935 -0.0005693252439882607 0.001539130044622191 0.4473222159680945 0.030938971994581527
65935000.0 0.834561937466939 -0.5492324336157043 0.05009842102692732 -0.24672478849685683 -0.0013504023210611572 0.002060381090034715 0.4435953863816428 0.014437653500365646
66934000.0 0.8328354581811319 -0.5520053050453628 0.05280514177319698 -0.2625803580376921 -1.581509512095588e-05 4.074915245456177e-05 0.4457367196102114 0.008276386009474154
67933000.0 0.8282802369477154 -0.5626547382816894 0.048874290746750225 -0.27601154613133877 0.000630487280019565 0.0032415168889625627 0.4440685343917744 0.00197571159370309
68932000.0 0.8161980627321717 -0.5550469350651799 0.04946399285442903 -0.28365760368954857 -9.196705688300132e-05 0.0030442678535428707 0.45057935713489927 -0.006592541948359983
69931000.0 0.8128703310197518 -0.5789187013776969 0.049472563682181406 -0.30547714914658103 -0.00041495438004508827 0.0025413981385069115 0.4528082205887244 -0.02298413445233713
70930000.0 0.807023713684046 -0.5856609089580855 0.044786149981020935 -0.3179940115152603 0.0004612141489222989 0.00327296620494772 0.454644032307922 -0.02634357989346088
71929000.0 0.8051351276698304 -0.5965184051721169 0.04378697671244476 -0.3343396145924437 -0.0020982116219832037 -0.004612018679913885 0.4470899175702811 -0.03733462654278492
72928000.0 0.7998398433667293 -0.600777615548454 0.04295474143328299 -0.3476448679230139 -0.000591014093289974 -0.001762702726733192 0.46839809961338486 -0.041890173830262174
73927000.0 0.7920350517677696 -0.6080417558821324 0.03208580547274208 -0.3685674261146524 -0.0037087840588128826 0.0042656609143127446 0.4638676688426547 -0.05197336272141027
74926000.0 0.7861413222677204 -0.6178927152209841 0.02644665275894427 -0.38443080368758265 -0.0008861855816691224 0.003849679739209193 0.4583575515538807 -0.061389675250579596
75925000.0 0.782511014694041 -0.6233686952225802 0.01930398570139521 -0.4018946070507953 0.0009764932289463893 -0.0013526159737511805 0.4667254859439799 -0.0829101108813383
76924000.0 0.7766346633805807 -0.6312763386471348 0.0032630972503278973 -0.4271982172022081 0.0008991449217515797 0.0010827846856085218 0.47639880255099804 -0.08616734223576325
77923000.0 0.7678811205230309 -0.6390760855049219 -0.00845010805060859 -0.4457362861992986 0.0009917478214425642 0.0031849592910371594 0.47277085225549714 -0.0841074893134428
78922000.0 0.7634708135392556 -0.6488485730012107 -0.020434969537133925 -0.4715472635131142 0.0009599611819680717 0.001475157260502914 0.46075912780877293 -0.09907647564330753
79921000.0 0.752961562968635 -0.6510939099214723 -0.03637171718801371 -0.49400395520011287 -0.0017737498855895219 -0.001813254978973216 0.4710375950991525 -0.11887347528026111
80920000.0 0.7505322870167146 -0.6629097173653891 -0.05288907990577828 -0.5202323187305075 0.00026572185799928416 -0.0031407361718010472 0.4697170335943999 -0.12537258648236208
81919000.0 0.7432331231904897 -0.6678846805014398 -0.0693127772695336 -0.5506521536498191 -0.0005938469654317022 0.00033030913941875533 0.48033202398555924 -0.13189085163094563
82918000.0 0.7373071227806794 -0.6758847319490774 -0.08569221692073593 -0.575713305998923 -0.0013124011867508298 -0.0016135007313338948 0.47464004748748584 -0.14802928767672016
83917000.0 0.7282454035412831 -0.6842754618002852 -0.1112534484695117 -0.601996673931544 -0.0003806669795871826 0.0008049325617397842 0.4759323661143808 -0.1518972609060709
84916000.0 0.7220982356100235 -0.6924487806747088 -0.12084867772563218 -0.6391104126439863 -0.0020621729100903864 0.0002980423494964231 0.4670198625729149 -0.16299846999397166
85915000.0 0.7158440954755929 -0.6984450789473214 -0.1416842723200045 -0.6689824393077526 0.004389510643267181 -0.0021167664267802773 0.4688825721238046 -0.1783747018681886
86914000.0 0.7088176371653752 -0.7075068695096144 -0.15515137043669638 -0.7038404019723612 -0.0010621192549966653 -0.0007405588286654402 0.46623759042956026 -0.1877359726862107
87913000.0 0.7019104659982299 -0.7140573068333855 -0.17564886339044367 -0.7299964532699083 0.0035891958709775573 0.0012989368438294656 0.4702699964341113 -0.18165408217505308
88912000.0 0.6957948545961932 -0.7191758170346542 -0.18399100612969493 -0.7665217768181034 0.0005101135181997939 0.0022651081202668512 0.4651229829510593 -0.20222224367934552
89911000.0 0.6856868310792873 -0.727950362157644 -0.2044529941519798 -0.7993186711845849 -0.0006101781721218846 -0.004392855576224422 0.467465095960885 -0.20597379522230633
90910000.0 0.679562202116443 -0.7348959031316276 -0.22390358243606973 -0.8331824729399281 -0.0026413649354312674 0.0031245655922022457 0.47125477220714984 -0.21668505100257227
91909000.0 0.6722424813461162 -0.7373330364974952 -0.23796234182007617 -0.8655134576917365 0.00021499166555231686 0.001115304965811612 0.47547562213549754 -0.2316701632339856
92908000.0 0.6637340380108906 -0.7485470545769034 -0.2556439142252847 -0.9005282368585537 -0.001485051796923236 0.0017737490179151807 0.46326526774744076 -0.22748595134841185
93907000.0 0.658595333679637 -0.7511525787743843 -0.26726799236506815 -0.9261695109655391 0.0008164610556283938 0.0015132245931728603 0.46096692640362696 -0.2558546781104327
94906000.0 0.6461387877697363 -0.7614663619178825 -0.2866991524934338 -0.9604732335492472 0.0025102338062554 0.0016259104447455053 0.46011644752311764 -0.2507745639886671
95905000.0 0.6389366314966042 -0.766546730110939 -0.30418866750892515 -0.9906601587805702 -0.0032614109092353747 -0.000376026490455776 0.4576018034051394 -0.2688098771127358
96904000.0 0.6311760868759262 -0.7753293204058475 -0.32510982378213926 -1.0333333126655437 0.00010702590657000304 -0.0012668023998698738 0.4484685100783708 -0.28829333747606145
97903000.0 0.6225571676501996 -0.7822931399292474 -0.3476088659689981 -1.058789398005452 -0.001738956544531573 0.001985200545343168 0.4497905642878772 -0.28618541094471084
98902000.0 0.6160255110458526 -0.7871057724992849 -0.3632229430829403 -1.0980136694605251 0.001640480284158688 0.0033116518180187106 0.447771854969458 -0.30283585587279904
99901000.0 0.6040744959085775 -0.7937483764032517 -0.3909108664920386 -1.1258819477451638 -0.001988989473224243 -0.0018116807762691384 0.46549897141808305 -0.32117151940623057
100900000.0 0.5961460426897269 -0.7982463437269088 -0.4192279135035791 -1.1521286192693225 -0.003061243504835316 0.0009943370107280492 0.4642195628337116 -0.3083533381617227
101899000.0 0.5875943602033231 -0.806389849498521 -0.44413289524094623 -1.1895163040954482 0.00032588285841014304 -0.0007128835554145112 0.45801956390102516 -0.3158870655169576
102898000.0 0.5776430367025014 -0.8127504465204018 -0.4773356653644167 -1.2264360891591988 1.74053064918147e-05 -0.002083269194030125 0.4567615734426481 -0.34168637358138293
103897000.0 0.5695498523551878 -0.8188983119186313 -0.5135363340295972 -1.2631379225292234 -0.001652590136386974 -0.0009712511295439935 0.46413946730283373 -0.3399992295356591
104896000.0 0.5631954511862481 -0.8294276944352164 -0.555896216673953 -1.296645892404162 -0.0012861656931240741 -0.001061898189407379 0.43340144885033627 -0.3419345912004654
105895000.0 0.55349182046327 -0.8323379966877971 -0.5982930104293125 -1.3355249693272044 0.0027071624567351167 0.0013778312615643062 0.4450377440150039 -0.3656517436961513
106894000.0 0.5439143790735966 -0.837708567263093 -0.6460492018184985 -1.3661487493881042 -0.002039496560835784 0.0005785240248278438 0.434278027543685 -0.3745566644417989
107893000.0 0.5348814899283706 -0.843180269394396 -0.6940703480300487 -1.3964705810400904 -0.0004405916962886224 -0.0023064698256613967 0.4356459018979736 -0.38740097825315456
108892000.0 0.52752105213818 -0.8473471520168269 -0.7467402943270846 -1.432496478338533 0.0012876781723567157 0.00042538599560994986 0.42383310250499984 -0.3853892724791212
109891000.0 0.5134823022485647 -0.8566962293219887 -0.8013165519728341 -1.4687534793144725 -0.0002579846540053502 0.0002978668635812647 0.44182376040948584 -0.38653249711197796
110890000.0 0.49899320341033543 -0.8706935143116041 -0.8790816498257615 -1.4784893922648268 0.0020320433947695494 -0.002218395176827935 0.42259660960976475 -0.3953497668790664
111889000.0 0.49409944952331863 -0.8620103789889966 -0.9220855944890924 -1.5369013308718606 0.0009364478103534041 -0.0043992204395335 0.41812156154307223 -0.4140506226462929
