! Created with skrf 1.9.0 (http://scikit-rf.org).
# Hz S RI R 50.0 
!freq ReS11 ImS11 ReS21 ImS21 ReS12 ImS12 ReS22 ImS22
1000000.0 0.9801042832061728 0.004777880683560908 0.00805161737044414 -0.056384059100005046 -0.011488408495991663 -0.008688499642730416 0.3226816946152472 0.26050691769938156
1999000.0 0.9968003398322227 -0.01284742602101092 0.013912109190061498 -0.01292186647059187 -0.007554645627764075 0.0029162534957381777 0.24581823102377537 -0.04591382715862184
2998000.0 0.9999352103068188 -0.01993429095173028 0.010561877434103358 -0.01757556767893937 -0.0007047000369393965 -0.0024165016379672937 0.1881578943843653 -0.1538140154759703
3997000.0 1.0003951192066578 -0.029147490326041293 0.007598466731435946 -0.008707467122973312 -0.004246995409335852 -0.005642855515258229 0.0955272653858286 -0.23307354086825358
4996000.0 0.9981956737185008 -0.041002233142453964 0.014611900826864256 -0.005070827309451947 0.0015920320816503633 -0.0017969071946809083 -0.051923075534462806 -0.23072247504021465
5995000.0 0.9973702261415134 -0.047785252892355946 0.00836274509309031 0.0018595804256858433 0.0004933275151189731 -0.0039542767601651934 -0.128262871478193 -0.10987918820308303
6994000.0 0.9944092531619795 -0.06047971296330908 0.006089971913663176 0.003988483262769655 0.0005077262825440557 -0.003971186764284701 -0.1482587096968628 -0.025032054363582707
7993000.0 0.9998065177618843 -0.0660900792138653 0.006784395632388582 0.0033520290194487784 -0.0045746804118927875 0.005446969676062503 -0.17173980741034534 0.03949745840617454
8992000.0 0.9985793304177492 -0.07410091899187073 0.00569323657050044 0.003482725065062757 5.0169117452584415e-05 -0.003308835522240723 -0.15316068975398972 0.05372275807413567
9991000.0 0.9964104459470893 -0.08363648818358388 0.007273873274226059 0.0029636758263008245 0.0001462662619729399 0.002138942316247323 -0.13887223914686356 0.09253695640416502
10990000.0 0.9959256388135966 -0.09147190488193378 0.0022922127365909836 -0.0013334643601949304 -0.0004164507380285214 0.0031900928439185746 -0.14175639942746468 0.11747262339098881
11989000.0 0.994176728475296 -0.09998289959366756 0.0009142943059381875 0.0019371721281367866 -0.0008942585386927567 -0.001028214375347425 -0.11784148820648749 0.14048266313777039
12988000.0 0.9951609198636089 -0.10892286797645365 7.940257517984444e-05 -0.0016294609714141972 0.0032829724037157955 0.001204234202362867 -0.10953284771920563 0.16020288950740344
13987000.0 0.991671316026977 -0.11782575383303717 -0.003241171793397636 -0.009443856695486414 0.0015800237830680987 -0.0019988215368409393 -0.10138275733089089 0.19992480643901023
14986000.0 0.9918876605266767 -0.1249153681174428 -0.0031459438346709955 -0.007810094068709771 0.00045605862177425233 -0.004252648050465306 -0.08689007943202719 0.20420095824774182
15985000.0 0.9904739992814655 -0.13577342825597125 -0.0029393741647481537 -0.005000092303559114 -0.000296100788585092 0.0013948214145575364 -0.07502264996286234 0.221988760573953
16984000.0 0.9873587080009786 -0.1463118579768517 0.001724384020837431 -0.002431776474921274 -0.0033686173830184147 0.0022569008837399498 -0.06936994282758978 0.21403089158200256
17983000.0 0.990077968024712 -0.14740942234829252 -0.00567444827692878 -0.005363042062426884 -0.001899342806359252 -0.0015460051511335146 -0.05083698821698612 0.22185059366446602
18982000.0 0.9850644870017115 -0.16220341491490003 -0.0025380175352080867 -0.007189984502033108 -0.0013413154648016924 -0.0004689956200731728 -0.01911723154315845 0.24725639908832547
19981000.0 0.9860355661125161 -0.16812726670938885 -0.005116868545107663 -0.007550977662918079 -0.0003110784113514106 -0.003732904288956801 -0.024136741934856078 0.24445058501230912
20980000.0 0.9831074156790008 -0.1772700171093696 -0.005065447896476021 -0.005426342707891445 0.0016082408383019495 -0.0007335157467579299 -0.00698965224823961 0.2507214748519845
21979000.0 0.9810783958560189 -0.18512010169773782 -0.003039497185343225 -0.006167702020517091 0.002051820516197604 0.0004096015980188511 0.012000029221805354 0.2453306017728645
22978000.0 0.9811652784461913 -0.19263753297737152 -0.00684723439598928 -0.004806938104446668 -0.0024579246422810237 -0.002779918053336771 0.036143785172584215 0.24217043095299243
23977000.0 0.9819378971022528 -0.19996316573410627 -0.00021714847618502348 -0.002182213805424785 4.078791036637998e-05 0.002115389836236043 0.04830653228219531 0.26157511327968347
24976000.0 0.9752072118655606 -0.21208872428867964 -0.010599206285291304 0.001252987023971628 -0.001276821138979302 -0.0032464792227204532 0.06520288290670427 0.258094575050803
25975000.0 0.9684455569284971 -0.2259274580422954 -0.007484526979381525 0.0014130364413949372 0.007909199881316146 -0.023811272044302643 0.07387579709500083 0.266562141389242
26974000.0 0.9718306523085267 -0.2281560440084447 -0.0022711608493037527 0.0012115344534060339 -0.0020708763251142907 0.0009212979702165478 0.08409618429988554 0.2673531188499766
27973000.0 0.9737286317925848 -0.23540401964354957 -0.00384367567854962 -0.004045549233494275 -6.610766594946324e-05 0.0045495123141036115 0.09437059978140513 0.2572365198545842
28972000.0 0.9684026385857866 -0.2445192082886054 -0.00144999052473266 -0.0005619169880734211 -0.0010505489042301292 0.0007892381427059103 0.1171886109106469 0.2513893850221863
29971000.0 0.9670809385680841 -0.2544170052006619 -0.0009937380035011025 -0.0023381861862558427 -0.0004098614829066585 -0.0002636489830997929 0.15233702348085737 0.26031296956162736
30970000.0 0.9639668048289566 -0.26036362402004687 0.0006661885163872811 -0.002877910848108001 0.00043657838858198193 -0.0011577895712948706 0.16397939719073198 0.24975484983071733
31969000.0 0.962934482486947 -0.26797491124841416 0.005396422718157033 -0.0020379115721146156 -0.0019500751332954256 6.827662668752737e-05 0.13813817306858833 0.24958352737164516
32968000.0 0.9623914670702621 -0.2755687662695984 0.007938525180584561 -0.006559612654153051 -0.000979095607177783 0.000982385984196725 0.16260832060257818 0.24587476847332088
33967000.0 0.960139615741438 -0.2852794886017637 0.011246740423496564 -0.009764742177164144 0.002131014927604156 -0.0023858390641508602 0.1816232251836133 0.24894689077572849
34966000.0 0.9545280414519327 -0.29679067774938156 0.014456522347774984 -0.013376879292954783 -0.0005926816451377739 -0.0007312569287294186 0.19838178375250604 0.24666925900114495
35965000.0 0.9520444393155374 -0.3031639424624311 0.01879276489741547 -0.016949990659598284 0.0009484750817171101 -0.0011422821175461522 0.21258307117432654 0.25329825604628864
36964000.0 0.9505941927143373 -0.31205870499439226 0.015893003754210468 -0.014853547562405821 -0.00408094917996207 0.00125136889891307 0.2099990045042932 0.24809569371556178
37963000.0 0.9458029399911065 -0.3222514423399519 0.021221100073268537 -0.024856782566139213 -0.004104205582761946 0.0033236919151187405 0.22768525005580487 0.24745823608646692
38962000.0 0.9448020033372713 -0.33191599693277646 0.023144092333339774 -0.02584879425632544 -0.001314756404537293 0.0026974480623782487 0.24063478932215626 0.23453916080024137
39961000.0 0.9419588592623314 -0.33658290809131625 0.02605621485754288 -0.026584126697666067 0.003151321046878002 0.003811026161692378 0.2526895419770127 0.2259027121604509
40960000.0 0.9389439260479561 -0.3429932564725588 0.02303986473534096 -0.022725179339604606 -1.7411580890432117e-05 -0.0032853516481618672 0.25414463308099894 0.22762184110960096
41959000.0 0.935534167948138 -0.35446574705828077 0.030586042642336674 -0.02964560973367157 -0.001969825863875368 0.0006859769409037455 0.2636295257230273 0.22053286565283578
42958000.0 0.9283291951932626 -0.36395363864760216 0.030562225503062285 -0.03904112621415998 -0.0008191967855838338 0.001658866269772556 0.27752436074931164 0.202611074091931
43957000.0 0.9308392308300104 -0.36737746985599756 0.03244409026372536 -0.04188709613101917 -0.0006397763913572925 0.0012848464432164027 0.29205302588959337 0.21212946331363897
44956000.0 0.9250943647755642 -0.37603465415902226 0.03282007225411266 -0.05130653193653635 0.001191405450539968 -0.0004840185681279763 0.30514590707248607 0.2012300804872614
45955000.0 0.9213048788326594 -0.3858117571914298 0.03361740282212167 -0.055658243578334425 0.00138670666423546 0.00020466657907182488 0.3111385188142885 0.19357236496476096
46954000.0 0.9183080644648202 -0.3948639679166432 0.034197921715681104 -0.06491119495016362 -0.0032191947203758916 0.0054199438355304 0.3254768857286697 0.1776649257714265
47953000.0 0.9162783912071764 -0.4025575501798329 0.036834680249107896 -0.06702207031124882 0.003108578753199267 -0.0012602178751938459 0.3379907571349291 0.1706739319678239
48952000.0 0.9091675762205769 -0.41506159838534995 0.03904295205878601 -0.07478689951044458 0.0006523521088412414 0.0006501418669608849 0.33083325625406124 0.16968410428303124
49951000.0 0.9057312820103843 -0.41893872787416747 0.03841226819661551 -0.08498069121036425 -0.0038504295144467186 0.0009506955468380016 0.35862318822768957 0.16660581232180094
50950000.0 0.9037792265042228 -0.42638223693820637 0.03894558765336889 -0.09276082673296827 -0.0020490252433324418 0.00018238589938761223 0.3591720120710545 0.14976071469457636
51949000.0 0.900672530505856 -0.4349852073831679 0.03979974145901279 -0.09911975054930143 0.0003015459442585961 0.00020260413860825178 0.372424705668894 0.1546170165584553
52948000.0 0.8987643589821231 -0.44239716609450985 0.04071814927932081 -0.10664968022304122 -0.0032626160338449354 -0.0005246504395061008 0.36500562737348596 0.1522569295982548
53947000.0 0.8898584715041195 -0.4517360192074042 0.0462766385714365 -0.11440282188485841 -0.0011317833837304484 0.0009752602032338124 0.3758696655914507 0.13935035374253998
54946000.0 0.8873819536615395 -0.45965452209874885 0.044763479302375384 -0.1265321245405917 -0.0012470969890335318 0.00217863139446385 0.3804321028671522 0.12381190856325792
55945000.0 0.8835474054946421 -0.4693059434874937 0.04534158021550724 -0.13650240760924592 0.0006433079666548101 -0.0041283454016357995 0.3936317500157 0.1127557230615698
56944000.0 0.8798459359978168 -0.47586994848711095 0.048070882670065145 -0.14649280790240465 -0.0009291108812958807 -0.0021631505164360597 0.39938554026075745 0.11060393405509074
57943000.0 0.87381760745478 -0.4858061661887423 0.050548667665754506 -0.15838702548774977 -0.0007586083535955478 -0.0002495837732947639 0.4076037438178932 0.10186881449588639
58942000.0 0.867732249497391 -0.4933537071992035 0.04927287836232749 -0.16561515850468303 -0.001644121181240956 -0.0008637589390355643 0.4281958702857271 0.09910898077676289
59941000.0 0.8669730881789522 -0.4991453100585546 0.050871181361508394 -0.17714299669751138 -0.0015642804932413088 -0.0017612893277836913 0.4186125034748158 0.09319933084951483
60940000.0 0.8589900613768386 -0.5085861228875743 0.05291178736346325 -0.1797309318734359 -0.0019725238722386146 -0.0003272474734658501 0.41075006180513995 0.08150287085228156
61939000.0 0.8558236579277122 -0.513554317808964 0.05481802897652993 -0.18912799033228353 -0.0033465157110443688 -0.003228966245585916 0.42554795401768264 0.07235175205794464
62938000.0 0.8511076558770179 -0.5244313499701633 0.05457865034900518 -0.2060186098343813 -0.0030311117290752997 -0.0004091020272329971 0.44068669769607904 0.062263572696839437
63937000.0 0.8441992726323702 -0.5321365315038775 0.05729106238706723 -0.22644497279218007 0.0018642631741388736 -0.003947149113024444 0.4481497027573755 0.04674942092086281
64936000.0 0.8408251214708442 -0.5362044881885455 0.057437167271018844 -0.23921627507109755 0.001744783341512931 -0.0019253834711243814 0.43452291453871 0.05158076908058776
65935000.0 0.8360833693508075 -0.550407820795636 0.05665113399643312 -0.25428176652972617 0.0016257757165603248 0.0018339839520679464 0.44909971652251496 0.020013348901191136
66934000.0 0.8314699558094867 -0.5539293064156925 0.058501606351056626 -0.2646626554619787 0.0009968013451535024 -0.003687919304227815 0.44193682208123347 0.019177999169285302
67933000.0 0.8279057948217056 -0.5631762841514547 0.06100015490257276 -0.28072189943385634 -0.0021037393561107874 -0.0005281833857615826 0.4448941538268716 0.024002330072688684
68932000.0 0.8252179552261976 -0.5576917867427253 0.059186979986905 -0.2946605695743319 -0.004230415606187075 0.002767251025300892 0.45830853736600075 0.004718256801735024
69931000.0 0.814906606416085 -0.577788377746922 0.059559054477241455 -0.31204954201380747 0.006403419875297899 -0.0025453064618705242 0.4565952601283469 -0.007631603080431842
70930000.0 0.8075931687412191 -0.5872233534972165 0.05460018112784646 -0.321774551583708 0.0037055473214046247 0.0004981735620313581 0.4515452974549475 -0.01709051355029868
71929000.0 0.8045464516894041 -0.5944365654592502 0.05336763457934904 -0.3407790618581122 -0.0004450441613781071 0.002784443922503604 0.45551146409808996 -0.030246484114761135
72928000.0 0.8004250699742855 -0.6022921827532383 0.04928119562057246 -0.36086748610460445 0.005539894503369888 -0.0021090733291263485 0.4685496203314195 -0.044532445018464914
73927000.0 0.7928661927152064 -0.6096215488196699 0.04381481464811106 -0.3757536564580598 -0.0011477681085142134 0.0022675454274562403 0.45834372234176474 -0.04593946579941152
74926000.0 0.7876494250123843 -0.6187391832425518 0.03710308670321577 -0.39377229026479715 -0.002439563428432978 0.0004631121958892183 0.46294311155640055 -0.05347205750827291
75925000.0 0.7818781274983831 -0.6244268439822411 0.02846951129061243 -0.41551935496508 0.0009614393745945276 -0.001506968616482534 0.478414888729289 -0.06508106862515395
76924000.0 0.7750659018610934 -0.6305836458617127 0.016237623844314833 -0.4349038241654476 0.003217678253418314 0.0012372702802455357 0.4628633929440945 -0.07458832125930143
77923000.0 0.7671667938359678 -0.6389291760629198 0.005074730879750363 -0.4610076603243683 0.0011368316632094733 -7.569274301663577e-05 0.4608677815005437 -0.08282828190157689
78922000.0 0.7636493432400024 -0.646961301651894 -0.00956319370610533 -0.48420210437698374 -0.0032063335165731133 0.0014395141137897515 0.4653349667517209 -0.08900361924761716
79921000.0 0.7535089503514305 -0.6519476265332097 -0.02559998479750731 -0.5105298260333645 -0.0013611339480470355 0.000583679338313333 0.4576400344273969 -0.10427136553383654
80920000.0 0.7502182449990924 -0.6643417685555243 -0.041622007780883444 -0.5366883176723042 -0.0019498825156325683 -0.00024872140489191273 0.4692950162224209 -0.13012744487538996
81919000.0 0.7446173924441287 -0.6673959017852196 -0.059982757100034645 -0.5642741008500818 -0.0016273868332635404 0.0014101019196215805 0.47464379869037915 -0.1276481448308859
82918000.0 0.7332504282296047 -0.6779864822480617 -0.06907027035848873 -0.594179685868345 0.0033581421881241635 0.003268499211877013 0.47794617573403836 -0.13117617834884399
83917000.0 0.7274892854227422 -0.6847066072407275 -0.09326976286459875 -0.6228482745670741 -0.0016733222844124704 0.00345741924236686 0.4838052679372117 -0.14389211894055484
84916000.0 0.721131345332258 -0.6914621256231519 -0.1056699603391892 -0.6601675578327931 -0.0023564032646034806 -0.0017111323224888422 0.47529022441627394 -0.15587165752415663
85915000.0 0.7158900754130321 -0.6968714961419524 -0.12818657647927748 -0.6875398140140848 -0.003426886578227408 -0.00035346022373224263 0.4763190070633996 -0.1671986401115065
86914000.0 0.7081172850173914 -0.707919843926273 -0.14332056972610077 -0.7284622973410401 -0.002074179110570198 -0.0034779067250106377 0.47123598361121066 -0.16009970301026435
87913000.0 0.7017782362137502 -0.7134314503929007 -0.16136175906793282 -0.7528189086828933 -0.0010396089450815454 -0.0025343448956893057 0.46102585700203097 -0.1650536585009339
88912000.0 0.692764191908238 -0.7213685953344005 -0.1750161626235317 -0.7899415968225331 -0.0035107812458896786 -0.0021773983449312425 0.47013001115226133 -0.19600765852888155
89911000.0 0.6863034016838983 -0.7290965164620592 -0.19173424084314827 -0.8240257408463049 -0.002377361821189928 -0.00027484485623442093 0.4788674928958522 -0.19994116178926477
90910000.0 0.6821206836521733 -0.7331495878017606 -0.20769921717791195 -0.86198057300886 0.001221997343348938 3.279863407182248e-05 0.47674228745241304 -0.20567382030691414
91909000.0 0.6704389752907923 -0.7410897166686583 -0.2272454004588995 -0.8975124512987407 -0.0018471233769358686 -0.0024788668347406305 0.4750401819157808 -0.20715746558939632
92908000.0 0.6629689834919656 -0.7489558645365091 -0.2481658088920039 -0.9271323549725667 -0.0023316506189662864 -0.0011160880167420196 0.46445121893675084 -0.21753758365433387
93907000.0 0.6569467593629249 -0.7545753688237852 -0.2616485854011709 -0.9593920986789323 0.0008311619415810006 0.0004835672410361369 0.4705337503074534 -0.23966374495656004
94906000.0 0.6455420160468945 -0.7617284468484229 -0.27793018464064684 -0.9926332319913616 -0.0019150661850657281 -0.004507576658429426 0.47128090705653125 -0.2355203402022278
95905000.0 0.6368099002279388 -0.7679962469652327 -0.30133534080023766 -1.0235542314942598 -0.0019302756421690505 -0.0004848172712980227 0.4710054374660964 -0.24683996771465336
96904000.0 0.6312183664834489 -0.7756218292685982 -0.3154004235854221 -1.0653500765997703 -0.0033567279220982154 0.003603311869364931 0.45359686393173304 -0.2576093801733486
97903000.0 0.6200075398849755 -0.7821401456195562 -0.3406930548226225 -1.0954754015515957 0.0015483403650314073 0.0018073348755873685 0.46311928666078467 -0.2806463949756098
98902000.0 0.6166268382611216 -0.7897324650165348 -0.3566484372451258 -1.1367819189565822 -0.005775353685907497 0.002574303109731776 0.45388542138821186 -0.275686684473961
99901000.0 0.606644297635545 -0.7954118234520257 -0.38488151288556144 -1.1677640381429466 0.0023353159821659715 0.0005352369343656903 0.4676467932318981 -0.29554590317059437
100900000.0 0.5969284217658163 -0.7965990429100275 -0.4129354872487414 -1.1979304260876942 -0.0014648668142484 -0.0004760861279618883 0.4722421535014761 -0.29416639596202737
101899000.0 0.5889602692191714 -0.8062026449034269 -0.4355719474956216 -1.2377110091438435 -0.000382380976536454 -0.0016857243472359377 0.4600155601185888 -0.30913713128768755
102898000.0 0.5788489372341883 -0.8120571407381691 -0.4731535308124449 -1.2760402336089238 0.0017897875976434165 0.0024823174393743055 0.4606520365852096 -0.3332070676229703
103897000.0 0.5708044836260318 -0.8196412502567324 -0.5095387156828266 -1.3124370971323904 -0.0027872764745125287 0.002377567746548773 0.4709251755683665 -0.32197849713281046
104896000.0 0.5624700597630107 -0.8304636101089531 -0.5517567986862215 -1.3412245747840041 0.0006679734380181914 -0.0013542412455564029 0.44953290378563715 -0.3258757367372617
105895000.0 0.5508738319102099 -0.8303930830814776 -0.5926498685505515 -1.3826399862404581 0.0007139776553501202 -0.0002429149161861928 0.44641944082157425 -0.34753248664916625
106894000.0 0.5411112813106836 -0.8382528952263214 -0.6493752375866386 -1.419501651006189 0.0028124968515151217 -0.0017611778821054753 0.4386593415915535 -0.3592662027347755
107893000.0 0.5342979575034085 -0.8441921398945185 -0.6980919660991728 -1.457283816746687 -0.0017229745301631878 -0.0015134168448279353 0.43841464115877976 -0.377375410692878
108892000.0 0.5264870216544418 -0.8472545995522451 -0.751341149154778 -1.4943248388525763 -0.003167927575477392 0.000734494081548607 0.42780466247832183 -0.3713823961186221
109891000.0 0.5116204485658938 -0.8567636820041065 -0.8082050110017882 -1.532479297419903 0.0012136867238457217 0.002244098666449548 0.4432947111303376 -0.3702327657958848
110890000.0 0.5029840154273771 -0.8558927547552626 -0.8615606365717727 -1.5381286762524264 -0.003926206523953328 0.0018208584408641788 0.4273475111519064 -0.3758116560303463
111889000.0 0.49363751511143816 -0.8610670839136778 -0.9287798988655754 -1.5987822454490954 -0.0020842097176486897 -0.0013542076799954905 0.4284306281011716 -0.38916673493354437
