! Created with skrf 1.9.0 (http://scikit-rf.org).
# Hz S RI R 50.0 
!freq ReS11 ImS11 ReS21 ImS21 ReS12 ImS12 ReS22 ImS22
1000000.0 0.9794725021999836 -0.005390937456892359 -0.0011701636475515626 -0.0654003823974971 -0.006530029709859386 -0.01177948297288356 0.2916552037793912 0.30992976586543247
1999000.0 0.992444359129415 -0.018760987122612094 0.015614596403387396 -0.021568124736270452 -0.01099564332510518 5.00513988231269e-05 0.2698895270074236 -0.04444827807642458
2998000.0 0.9963562483137378 -0.022760911720170713 0.013689009799157822 -0.013149697362242262 -0.0010351719294831336 -0.004695330316102389 0.18821342099521376 -0.1355411531870613
3997000.0 0.9954396836511356 -0.032562294810673145 0.015830493966993837 -0.00667203658270634 0.000251256930785732 -0.008218526391350954 0.10358455044621902 -0.21439977434422525
4996000.0 0.9955422878914226 -0.035756581980832564 0.008879490271555117 0.0010464761933431702 -0.003114131411413598 0.0024287695568223737 -0.03420349822315957 -0.19910409357164988
5995000.0 0.9951941471158259 -0.048892359043555725 0.012857814398777897 0.0019654559510403134 0.0043161934572854615 -0.0030005298024992472 -0.11883918552135929 -0.09415598122679167
6994000.0 0.992556589042256 -0.06192942943231584 0.002472798141544498 0.003210110853486851 -0.00329884326584198 -0.0021186394367633723 -0.13718861192469883 -0.029077840717363718
7993000.0 0.9953823954148932 -0.06590990097359678 0.004713836680893962 0.002051466845079051 -0.0030718434907429483 0.0033546834770631015 -0.16273823489403288 0.0417552724983873
8992000.0 0.9908420358692548 -0.07388484384385284 0.0022478327434939938 0.005878159296053167 -0.0019473678127487587 0.00772383412952208 -0.15933810438305604 0.06158677948800656
9991000.0 0.9897690537824366 -0.08185765589766146 0.0015608529628788948 0.0003452949891225986 0.0008765198029625859 -0.007073077890652585 -0.1496808264257215 0.10500085173708372
10990000.0 0.9887312762086087 -0.09444917074752929 0.005045805231005296 0.0009629268484903708 -0.00018330470576769455 0.00429341370845769 -0.1306225605877801 0.11767767583739797
11989000.0 0.9871813756692266 -0.09868695754664526 0.0026252961263552687 -0.0026310782641616767 -0.0018785199872776547 0.00015834113094000476 -0.12279845502826367 0.1450836499667399
12988000.0 0.9874210736712399 -0.10879094778489479 -0.0013802436494159066 -0.0050559295543299515 -0.00027491429036971825 0.0017348544670177711 -0.10396772222832132 0.1635308378216617
13987000.0 0.9851382946261408 -0.11505365872539239 -0.0002687638260254142 -0.003497771518845132 -0.0036181454561466067 -0.0024263609445970037 -0.08997663405321506 0.18393491835378573
14986000.0 0.9832724547361508 -0.12401320616024826 -0.002069330611770381 -0.005733451773206958 0.002831379822129276 0.0003798915022268717 -0.08684618946935474 0.20819393519421486
15985000.0 0.9843314661939344 -0.13410264394298657 0.002282298112499409 -0.007771199969096254 0.0022561121076524007 0.002241557211004047 -0.06600851093658901 0.2258205633406626
16984000.0 0.9834547828369864 -0.1441360393657878 -0.002114314725223156 -0.0013005806686263374 0.0029616949806640373 0.005384166567121549 -0.06737219005113795 0.22082362319813825
17983000.0 0.982779005569502 -0.1487220995407899 -0.0008676200653050729 -0.007397947126810249 -0.002956129314680687 -0.0012988859496066206 -0.05292356218174024 0.22483558456846964
18982000.0 0.9813076868943328 -0.1588077773507768 -0.007286097825330201 -0.001499555972085908 0.0007199578019349278 0.00550347246427399 -0.013937872659783327 0.24873299491321868
19981000.0 0.9804240922989038 -0.1660141219561471 -0.005320553864992648 -0.0019582600684821694 -0.0014392293286674311 0.0015055068106134542 -0.017195315465806875 0.24628711055116423
20980000.0 0.977465285624468 -0.17467541604094536 -0.0046830215468763375 -0.0016356324110239284 0.0035295857451267433 6.92145149062033e-05 0.0025519891964041826 0.2693476394383805
21979000.0 0.9764905178659142 -0.18370225116192415 -0.00613075074143467 -0.002283969229083056 -0.002026751353766585 -0.0012620380945539305 0.023785026787632245 0.2397212492859188
22978000.0 0.9746018039248942 -0.1924332310863746 -0.0035546475583019084 -0.0031782804301159896 0.003108937084338171 0.0013500753416483362 0.041549127710871894 0.2631579234864603
23977000.0 0.9741194711404597 -0.20070127444047534 -0.0053942628626183 -7.97846056690207e-06 0.0005808600161449983 -0.0006813533785430525 0.04012964297712607 0.25318518951725516
24976000.0 0.971254769959012 -0.21157773138462974 -0.00397593862671206 0.0009914734743900204 0.004370867727242125 0.0010224316108656162 0.06263919743125317 0.2582034671894599
25975000.0 0.9724295266967053 -0.21834823749556934 -0.002194351054100083 -0.005952770614677661 0.0016774044586183436 0.024334827304600033 0.08439643769463781 0.248976970959053
26974000.0 0.9670214442857201 -0.22930402711805964 0.001285395328480215 -0.004026824819783106 -0.0021834313436519238 -0.001696579149364496 0.09135038903047644 0.2676415789169176
27973000.0 0.9665940781310175 -0.23305317736312542 -0.0010687024617158814 -0.0036345295543195703 -0.00011140855982493458 0.0002157766932171637 0.10546415498333375 0.26379586000855165
28972000.0 0.9626675789722944 -0.24330261522560995 0.00014791140883234913 -0.0018529142880767153 -2.115220738831526e-05 0.003641631250079525 0.12104389480128716 0.2626049628688212
29971000.0 0.9617874815664152 -0.2535920489016413 0.0035082564814097176 -0.0028307436169930163 0.0022130128938841983 -0.0010984743784004638 0.1544430888105415 0.26339401463142476
30970000.0 0.9597239472000851 -0.2580224886413742 0.0023690461362731972 0.002284987895615431 0.0011753190761092502 0.002858175823813801 0.16547901363313483 0.26255358201137685
31969000.0 0.9568939480421889 -0.26771535269616653 0.004870812659397132 -0.00502430908494458 -0.003194114943471845 -0.00018677431194115488 0.151505876893344 0.2549345254526717
32968000.0 0.9578410115922481 -0.2769632880598776 0.005877542350154913 -0.007893394055451398 0.00013415886820858751 -0.00047142271525456937 0.16405854189056826 0.24099712171256457
33967000.0 0.9551257552224941 -0.2842121400409566 0.012370399678402123 -0.008279301835389784 -0.0011272159190667402 -0.0004580475637163938 0.18645761144663597 0.24494236805137512
34966000.0 0.949674066066957 -0.296861474268476 0.01501435528363543 -0.011948245951049418 -0.00155282039342493 0.00044248072600808853 0.20184912280521977 0.2569686565862913
35965000.0 0.946081477030509 -0.3027984147246654 0.016006100675945087 -0.014247973415595293 0.002826137004429195 -0.005047995787903946 0.21389633367990796 0.24569817493683885
36964000.0 0.9461992192661117 -0.3121296230241543 0.016100776607983102 -0.015180494401033987 -0.0016980833158374243 -0.0019464044983955877 0.21859047058379794 0.25239045978395014
37963000.0 0.9419719457186603 -0.3202785878013095 0.02178819657957722 -0.01942536343185629 0.002391744295930837 0.002574638986048783 0.23688578100574406 0.2338428422815175
38962000.0 0.9404017834205435 -0.3278446317090781 0.023892942793761605 -0.0241433960335748 0.000856474289910453 -0.00010235117572546689 0.24915513448367865 0.23849679558732023
39961000.0 0.9353434354863417 -0.339303979438214 0.026197546410562517 -0.028614836170008436 0.0007567785418429288 -0.00017321115071233288 0.25695858109964204 0.22675281215512788
40960000.0 0.9332856531594617 -0.34627074508210615 0.023889625058437263 -0.022895814525089216 0.0027626316855659055 -0.0008756929146723092 0.27800373857474286 0.21700219576646226
41959000.0 0.9306062503055501 -0.3555135470066421 0.029176288005050503 -0.031424869624810635 0.0011926483433205067 0.0015605237905187 0.2746963974204668 0.22070546232981406
42958000.0 0.9258921859832606 -0.3643215869477667 0.02923278922003518 -0.04023586315983534 0.002589175659543201 -0.0013824367232278772 0.2811361099609266 0.19502344184491718
43957000.0 0.9248023713249509 -0.36855565416602615 0.03283273891507268 -0.04943042779336096 0.0010977548731332762 0.0013412832677373353 0.2893653234043691 0.2028819533819725
44956000.0 0.9208339923941468 -0.37731923605940954 0.03297238765150061 -0.05244551248876467 0.0008434271380216407 -0.00032753215341035506 0.30757048920600166 0.19439184518281835
45955000.0 0.9156129374476767 -0.39030650426867963 0.03251502048553557 -0.05957348629814443 0.0009594535396975289 -0.001999765822887991 0.3192429236868624 0.1896645949191997
46954000.0 0.9136512659107039 -0.3975411462022119 0.03240492780620092 -0.06626235065914057 -0.0037038994256210827 0.0010994968509658468 0.3301898224954833 0.17929964133093315
47953000.0 0.9100227738626255 -0.40467701632211933 0.03463969092179548 -0.07405248162852128 0.00012086520427927609 0.002007956075217665 0.348975682384408 0.17028627476498742
48952000.0 0.90237797717811 -0.4171336190442367 0.035677335485500415 -0.07830117551189798 0.001475072808301866 0.0037571542736369564 0.33857495089249084 0.15979480686851938
49951000.0 0.9012890559395028 -0.4200807965685647 0.03754948075442619 -0.08607672131600377 -0.0043254645528007455 -0.002528684458975505 0.3611564156755481 0.1523743754913886
50950000.0 0.8970045447115316 -0.43098537009840343 0.04040911308143611 -0.09511771291332498 0.0006618052787576232 -0.005170023284917539 0.35480272080750097 0.15125408769548843
51949000.0 0.8927346297789646 -0.43752945283079514 0.03849480098326435 -0.1046100383071284 -0.00011323876982864887 0.0013138423420610765 0.36575554104274405 0.13628480957733174
52948000.0 0.8900650704005472 -0.4463014024141857 0.04017729459029113 -0.11168134138684474 -0.0009802802061356951 -0.0001496643633393359 0.38068237129555643 0.1328649351213181
53947000.0 0.8860065765215378 -0.4531167823426806 0.0394540912875395 -0.12007592604645821 -0.003342533942341071 -0.0007961856599951147 0.38610664267892525 0.12415909859212391
54946000.0 0.8786490068587711 -0.46479970175452495 0.04195858267404951 -0.13101765714587843 -0.0016188068853917967 -0.0005465387649719921 0.3979508468293257 0.11557569211639003
55945000.0 0.8764190316944555 -0.47309732204246624 0.04269419571205075 -0.1417151250590462 0.0006364482841133164 -3.0274213062858408e-05 0.3845989273101856 0.09824404860353937
56944000.0 0.8717049879967265 -0.4798438260961863 0.04632383401188188 -0.15036179431983251 0.0033913668437886174 0.0014856508038066122 0.4050610734321787 0.10481685223083716
57943000.0 0.8666283853211337 -0.4900507696031958 0.04386357151501889 -0.16343605314139478 -0.004838961135082433 -0.0003178853475773668 0.4085960013161494 0.09329812786086973
58942000.0 0.8607952059082503 -0.4944929948799808 0.045974731693817515 -0.17155964291257864 0.00039218870565794345 -0.0032682945783505113 0.4224112745329015 0.090605519409635
59941000.0 0.8580252385905618 -0.5038151315419273 0.050045317347918825 -0.17982187651794787 0.0008069510180654566 -0.0017287005538030938 0.42096627308862267 0.08793094852942936
60940000.0 0.8500080425053994 -0.5123262375051068 0.0496333651065618 -0.1842855705138325 -0.0019715051525782605 0.001515824109010465 0.4204710477549553 0.07285556575238492
61939000.0 0.8479595589722597 -0.5183759485967407 0.0503760571841224 -0.19264615154614959 -0.0017246351700931398 0.0006840494739759735 0.42399622601437514 0.058157036683250424
62938000.0 0.8419922470108938 -0.5273981737952324 0.05261454789813231 -0.2103943270818753 0.0009036842520079907 -0.0019717828917692123 0.4374512664601371 0.05344961185698285
63937000.0 0.8374886337532766 -0.5350732448030548 0.049187249692746696 -0.22904332925807597 0.001361225808799352 0.0013032009134276074 0.4389779739216381 0.03749323319938721
64936000.0 0.8303492964511315 -0.5432923642359708 0.05367021849548106 -0.24183392081661606 0.004599355061166092 0.002063048068059942 0.4439121518690249 0.03638824095847162
65935000.0 0.8290572709556013 -0.5521285650033428 0.05089489074990344 -0.2559809725232823 0.002869185732055139 -0.0008629990316166152 0.4364701931353503 0.009077235611683002
66934000.0 0.8226005024397328 -0.5586135709154397 0.05212406129793954 -0.268121710549162 0.0005736437875993534 -0.0019341337509328742 0.44602296330869273 0.0017906636039588025
67933000.0 0.8189523781964768 -0.5667011396268186 0.05381647292366607 -0.28385499532146036 0.002335286683743413 2.1511747016324762e-05 0.4489409474708422 0.0007906491462829528
68932000.0 0.8116742432461755 -0.5708826923184379 0.052422131564336276 -0.29633479081522207 -0.0007551548015001309 0.0019537823210212797 0.45176540733622617 -0.015866419859996293
69931000.0 0.8040602537485362 -0.5828087456394591 0.050069117871231486 -0.3111224616944375 -0.0025696987948079842 0.002176857657372754 0.4537638446291 -0.028044540232600813
70930000.0 0.7987844866060541 -0.5893774766221584 0.045465113296213985 -0.3230116364315881 0.00024781834281784867 -0.0036129635120811707 0.44767491289446615 -0.044050569181590955
71929000.0 0.7969259574800858 -0.5982322176500097 0.04079688663273335 -0.34149456057501987 0.0013588126590131204 -0.00040255057647666247 0.4569540197303014 -0.040404578578167406
72928000.0 0.7867085656320549 -0.6054680167326385 0.034598876836434464 -0.35767660342357716 -0.0032423536615434367 5.5898113571658994e-05 0.4712399428056563 -0.054689602597585006
73927000.0 0.7810339753703994 -0.6122088965305147 0.029308298170741896 -0.3789628940020262 0.0009429384587541271 0.001853326471915402 0.4686936357169165 -0.06479060374211965
74926000.0 0.7761536154158446 -0.6217531266683852 0.020997799907084187 -0.39218391119093865 0.0019265879483657032 0.0032853513529928625 0.4721615513419031 -0.0673277972431701
75925000.0 0.7682168951534448 -0.625133426805671 0.011244483649611342 -0.4168504190779393 0.004253648215901533 2.417162341875766e-05 0.4753726425062713 -0.08139118011556765
76924000.0 0.7633133857065069 -0.6356556436517098 0.0008485328650325221 -0.4388598134918108 0.0002493699239449972 0.000128595112491363 0.4710389932502019 -0.08554959356908863
77923000.0 0.7569634081291847 -0.6407743601568726 -0.018468660900206803 -0.4589981949884369 -0.0034469672553398044 0.00040896682803886916 0.4621041671248203 -0.10625101310517558
78922000.0 0.7530146247623025 -0.6510645575425595 -0.028571293743928118 -0.4878374012258574 0.0021034461371200065 0.006747077013695258 0.4602011967876481 -0.11577772981111877
79921000.0 0.7413643338532769 -0.654489911780378 -0.043986050384750015 -0.5114346064487523 -0.0016858876434880776 0.0003001993713088294 0.46104709147547124 -0.12478239501631802
80920000.0 0.7381461233435788 -0.6667208099480969 -0.0626654763337369 -0.5370893186983574 -0.0007070002453275222 0.002300153563659571 0.48215403398148665 -0.13664994014041645
81919000.0 0.732965978644557 -0.6720681930984584 -0.07876395679403635 -0.5664292048430652 -0.0007192768528458249 0.0020173813347902783 0.4723776771284201 -0.13135732975650094
82918000.0 0.7211140762065041 -0.6794682909465608 -0.09321086780221947 -0.5980052955664833 0.001790819279382952 0.0008734330269868001 0.4802299488469232 -0.14412457902967668
83917000.0 0.7148333343814027 -0.6861243806287355 -0.1139754760922895 -0.6253262444608702 -0.001710140673013788 0.003372478686145244 0.48103876915449056 -0.1573627300326629
84916000.0 0.7094485087729387 -0.6927209619939716 -0.13065105084299874 -0.6585542883002283 -0.001966565350221972 -0.001929724402785624 0.4740512466402031 -0.1755392684241032
85915000.0 0.702826621067795 -0.7002774730800828 -0.14316649918002408 -0.6881806093770269 -0.004358002724936928 0.00010654851292395794 0.4722776139854828 -0.17522334946056525
86914000.0 0.6951353346602543 -0.709726130793968 -0.15757960779641939 -0.7251095600829758 -0.000715485715940173 0.0008105468223209429 0.46101703205561506 -0.17806245324501163
87913000.0 0.6890073967620638 -0.7141198523162369 -0.18061929087995462 -0.7529272261009177 2.7720426087271408e-05 0.0008067771480238766 0.46060761076561735 -0.18662020543014493
88912000.0 0.6813183363249459 -0.7223550451830512 -0.1925268016095137 -0.78640285188891 -0.001874216420937385 0.00020635249956726812 0.46400584362073893 -0.20498267490401814
89911000.0 0.6731885872218625 -0.7309924666398642 -0.21128238631616297 -0.8233834969202065 -0.004555999210989001 0.003128142855700103 0.46433032548788067 -0.2170505062821066
90910000.0 0.6665545145831357 -0.7353446774906583 -0.22759867068748824 -0.857483562896857 -0.003976144431882545 0.00098133131908109 0.46736172773344625 -0.21672728432758087
91909000.0 0.6589577729466257 -0.7406205099038394 -0.2463603118703927 -0.8877736728243989 0.00014235215534419727 0.0029649049154340285 0.463452661239206 -0.22103558002117615
92908000.0 0.6501407610776732 -0.7505634724960601 -0.2649152379495669 -0.9187759337564978 0.0004858679402922426 0.00044695940110056284 0.4699953191123006 -0.242381398693313
93907000.0 0.6459206618752886 -0.7557427337497787 -0.281293206441238 -0.9494134008634001 -0.00152021860118778 0.0011670176132358373 0.46891182181044416 -0.25545589360281007
94906000.0 0.6306841313688045 -0.7645901829376155 -0.29775637747851236 -0.978014054768066 0.001397850509921171 -0.0013596674125362872 0.4577273446725924 -0.2534179837757728
95905000.0 0.6246406225974805 -0.7701300667017434 -0.3192181604602333 -1.0140901526799206 -0.004429410080288855 -0.002249379303504742 0.4631260189806204 -0.27171075190386196
96904000.0 0.6178911260712273 -0.7790609816101886 -0.336480712383966 -1.054541378045252 -0.0018434271289426995 0.0012233252730071734 0.4546275179114221 -0.2822264435904255
97903000.0 0.6088912948391448 -0.7832656754321037 -0.35639920295390953 -1.0832860038594692 0.0036551232743440376 0.0021671856344689347 0.4513744709464394 -0.2993003536029015
98902000.0 0.6039000859079734 -0.7903491178215754 -0.37244541059889674 -1.1214474231045426 0.002514769049528383 -0.0019097673727797612 0.44532297328521325 -0.30745044666973126
99901000.0 0.5939076980457055 -0.794439437346895 -0.401827196926298 -1.152542168727181 -0.0020432263032435457 -0.0014844143761880352 0.46164316114208215 -0.3269094817525878
100900000.0 0.5866740125844584 -0.7998294485720383 -0.43450795963651023 -1.1816300613341373 -3.8944104015232833e-05 -0.0004380622096528537 0.46592379579347454 -0.3093758299195344
101899000.0 0.5771083858142909 -0.8074695147259887 -0.4606306808711372 -1.2186721406782024 0.003962326579206531 -0.0011004848784574308 0.45293941193627385 -0.3268018604580188
102898000.0 0.5668487670983957 -0.8142868736385407 -0.49767150795300935 -1.2543284323078137 0.0007169976338489723 0.0007443206035439132 0.4510786689994816 -0.34108928545713085
103897000.0 0.5584942591388963 -0.822563492105561 -0.5360700276028117 -1.2905047660457984 0.003565243607475299 0.0015006689757093392 0.453841716912416 -0.34064861780284755
104896000.0 0.5523766639907168 -0.831287987778295 -0.5783915406691699 -1.3242219482138726 0.0013063257246999365 0.0029769332444626946 0.44160207247231037 -0.33937862734144053
105895000.0 0.540877793263019 -0.8336130658638495 -0.6231351784426399 -1.3590773509290262 -0.00033643192510453854 0.0007815478341057918 0.43223604798451404 -0.363868282002882
106894000.0 0.5320939782958204 -0.840375625614122 -0.676914309407009 -1.39712238646585 -0.0003267072060670276 4.667513314428545e-05 0.4319464288292719 -0.3708583460927349
107893000.0 0.5245812231464144 -0.8442510604904276 -0.7228333407658672 -1.4378539595985593 -0.00215022713444674 0.0037825433202660023 0.4299979454998792 -0.38103018474378497
108892000.0 0.5126748077315775 -0.8489561543651063 -0.7857121872475894 -1.4692189494784669 0.0031389427466611717 0.0008766328777226079 0.42240894187635486 -0.38320493057748917
109891000.0 0.49947348922478696 -0.8561729009415193 -0.8446646561844198 -1.4995263537173515 -0.0020632124636699688 0.0014256319315506716 0.4328128209336322 -0.37768058138124017
110890000.0 0.48270033551374963 -0.8640954915302552 -0.9149623689367722 -1.5040166189007385 -0.00020641686114538548 -0.0015046593923024195 0.41935498810175015 -0.40624894760993663
111889000.0 0.4786484106600513 -0.8639585397677408 -0.9649298081002192 -1.5699257100702806 0.0026578707464924595 0.0006405575716425626 0.41259984524021587 -0.4151876570862264
