! Created with skrf 1.9.0 (http://scikit-rf.org).
# Hz S RI R 50.0 
!freq ReS11 ImS11 ReS21 ImS21 ReS12 ImS12 ReS22 ImS22
1000000.0 0.9842073911441109 -0.0003056171323817085 -0.015648005920429437 -0.06569495610740755 -0.019705159613925802 0.0021373239094969977 0.28662384378288225 0.37323631183490963
1999000.0 0.9967403389704462 -0.010882539930084072 0.005352437319534951 -0.017808998353903833 -0.0017726168649404882 0.005000196715793145 0.2345454674582009 -0.03208385638064766
2998000.0 0.9979866637986977 -0.02023434993853882 0.015971082438283418 -0.009845225928842613 0.0012214172313458839 -0.00012821790496009424 0.19808311413735208 -0.12979279113513484
3997000.0 0.9993828136989282 -0.030786513822996082 0.009504955041917491 -0.011536430339408602 0.001824453936836769 -0.003869442619778825 0.08069151674400808 -0.23244534843649045
4996000.0 0.9999941550898311 -0.03743860161738093 0.011308308432718605 0.0015870397934851057 -0.005229814203330274 0.0027326946339181275 -0.05914177844373948 -0.1936329555428818
5995000.0 0.994969078561445 -0.04745459643942772 0.007577375414841453 0.006661058316863494 -0.0007452031552605603 -0.002548024128510895 -0.12271742505346506 -0.09393407608576976
6994000.0 0.9918231644009698 -0.06005031694617925 0.008158263871059761 0.003822940045601161 -0.005618353557956766 -0.005907411568216197 -0.14480093039559022 -0.0195744530657036
7993000.0 0.993743028542623 -0.06794276290154543 0.002747051988938827 0.005424452227005712 0.00391740287117345 -8.075367334067162e-05 -0.1548493850146368 0.04953390353928083
8992000.0 0.9938433796226208 -0.07270108775236664 0.005194105491177292 0.003968525339647198 -0.003882488228068401 -0.0015619168176987815 -0.15709277687483442 0.06355361624300769
9991000.0 0.9913568664517772 -0.08183315656946918 0.0024636177802811274 0.0026557199811882816 0.005251478058728579 0.0020368541379274835 -0.1460820275975223 0.08986116157499148
10990000.0 0.9902864610456047 -0.09451426393286899 0.00832165759441281 0.0018744087714934556 -0.007491500684480292 -0.0012592663194619838 -0.13231157458754728 0.11634208731221869
11989000.0 0.9901394435005676 -0.09789122410812104 0.004543335997917945 0.0038583460506443623 0.0027361721017633333 0.004064824005000957 -0.13181240910436318 0.14315733537302236
12988000.0 0.9871765739873777 -0.11085673211647233 0.0028991172062985426 -0.005729740739365415 0.0020114259358318958 -0.0010965963792858254 -0.10736163842976489 0.1731042366860974
13987000.0 0.9869982463384495 -0.11692361718158333 0.0008950090380013772 -0.0027726854723348713 0.004157886084188479 0.003513652074396638 -0.0832999855726582 0.19171465550018582
14986000.0 0.9859648951096285 -0.124339823421378 -0.0019029091891404188 -0.0018508856051050139 -0.0004370726291328442 -0.00015475248707501693 -0.09641995352725351 0.20373481728551524
15985000.0 0.9859171788155275 -0.13465331669673417 -0.0012297570106119175 -0.006849388590002091 0.0012679878812677805 -0.004218294810128619 -0.0669746680707835 0.226899924208049
16984000.0 0.9849012410799937 -0.14624226218192965 -0.004768686289402763 -0.00436829468728497 -0.0003414423161699206 0.0007415060877622786 -0.057922976486940184 0.23168172940079534
17983000.0 0.9851616455397537 -0.14907526348594816 -0.0022202472718205394 -0.007971161870422244 0.0005181798550947538 -0.002457714229281952 -0.049909212317060324 0.23055357251383157
18982000.0 0.979765699609648 -0.1612385863136265 -0.007425194871634011 -0.004251577962152404 0.0001605446587897649 0.0004137639873491625 -0.0069533778697490395 0.24421537199916488
19981000.0 0.9833255989722968 -0.1686030221134062 -0.0018010775549695628 0.0009709310469260221 0.0046097960116688215 -0.0061098563378693465 -0.0015107814786961466 0.2543473656205506
20980000.0 0.9793723680501165 -0.1766602940275688 -0.00370970780773205 -0.005743683433977875 -0.0016982167876074743 0.0016368001071566897 -0.005934607458979698 0.2604285869065851
21979000.0 0.9778149613032997 -0.18499713748170918 -0.006911305903064364 -0.0063233447917354375 -0.0014177741140092327 0.0005070143657031181 0.012699759816663244 0.24180376097672482
22978000.0 0.9761578252764549 -0.19592401431560655 -0.0074975292531714 -0.002690173503036395 0.0035880255225887105 -0.0035361444316871467 0.025730077496698905 0.2567310080395703
23977000.0 0.9760236837232755 -0.20115265392543924 -0.0070948887252750585 0.00013104151556228179 6.384364642044882e-05 0.0002622299130885542 0.03852688305275944 0.2550684097552635
24976000.0 0.9750172543480035 -0.20897867997640485 -0.004111707038716044 -0.0008288067457483283 -0.0017713056857028937 0.003532386675350902 0.0645544592643803 0.25881119903868816
25975000.0 0.9700996703236481 -0.21627553050206447 -0.000334546588979321 0.0022133721766206204 -0.023024828460391854 0.006772513694569348 0.07853939734631221 0.2697180900264535
26974000.0 0.9710339602762463 -0.2276254204262548 -0.0031097224509498635 -0.0010015017443391586 -0.00037494966639990045 0.0028649696943995073 0.08522528760538459 0.27328213517870037
27973000.0 0.9683558302646792 -0.23362567576446688 -0.002895841735995131 -6.099509177300263e-05 -0.0010088047845280602 0.0012322531924642331 0.10090986181271146 0.2633493191750066
28972000.0 0.9643387149953877 -0.24756538925109153 -0.0018111663061471952 -0.002299172007936145 0.004690482938954212 -0.0028879534603209 0.1120721424180713 0.26364293405062755
29971000.0 0.963950944977655 -0.2526274976753047 0.003996292635019989 -0.0037883662789895307 -0.00045566179754530405 0.0009102413021027898 0.1493037171029179 0.2690369138375845
30970000.0 0.9611614436486563 -0.2589030407183949 0.0016232755902267598 -0.0003344723578622964 0.004161359852029626 -0.0003790296820368606 0.17488838319484667 0.26143654779026687
31969000.0 0.9586430945580835 -0.26857399317153063 0.004795584358933676 -0.006404585769239935 0.003026153325217817 0.00011077077826938741 0.14701079787764473 0.25852806766650754
32968000.0 0.9572857614498735 -0.2774694315962316 0.007118091073419073 -0.005394277125872539 1.6707249600151885e-05 0.0019217087843907276 0.15631398990999254 0.2515684088442322
33967000.0 0.9548387114274071 -0.2866174940397896 0.01111322294789955 -0.007578923861233788 0.0007950665997481299 0.0022194650236915083 0.1777462947826707 0.25408216695398345
34966000.0 0.952459787905085 -0.29744192740230907 0.013163332394571119 -0.010570314010001526 0.0006035516317396469 -0.0009312918289287249 0.192673333550069 0.25540532023570667
35965000.0 0.9494736968212514 -0.3048643907388765 0.015376507401699333 -0.014163915822098265 -0.0006693442470940495 0.0005243535787883019 0.2035609717362266 0.25007356171895334
36964000.0 0.9454163954898914 -0.3142809714235039 0.015708693230917805 -0.014501272297868113 0.0020437451833718928 0.0016539248592194837 0.2189638597326531 0.25600169967400416
37963000.0 0.9446144569004243 -0.32117855260853934 0.019985582494321658 -0.019468818116738975 0.000262396727539786 -0.00017500453883660086 0.22303032195541939 0.24075461676458457
38962000.0 0.9403827787836176 -0.3307079213946976 0.023232665798448248 -0.02404874166516022 -0.0007216090972363127 -0.002118791505063628 0.2410757278910758 0.2370707555768699
39961000.0 0.9368242154752268 -0.3385250059954593 0.026109423192606566 -0.025976906356981355 -0.0004703469311904635 -0.0014720086210619533 0.24430777741035148 0.23355115776380594
40960000.0 0.9341684302764294 -0.3473239067799276 0.02236760401514853 -0.025900857210940164 -0.00012850996482420513 0.0003813746693618777 0.27132483916690425 0.2282611932218298
41959000.0 0.931372190473431 -0.35751805708624423 0.02956593634295229 -0.033476327034256514 0.0016689920268278422 -0.0028078632328667813 0.2649611372395596 0.22494886016763732
42958000.0 0.9261695324636873 -0.36831413650034517 0.030900103939951802 -0.03784551429099854 0.0010993502629052581 -0.0030079562521704234 0.27632678953565515 0.21123441720258976
43957000.0 0.9252817432500543 -0.36958814027122217 0.032163403363395716 -0.045722801399121465 0.0006914557583921854 0.004185296880940621 0.2883726390926236 0.21686181986406797
44956000.0 0.9219520466950848 -0.37870068333677986 0.03347494393985654 -0.05346981676828024 0.0012438112520067536 0.0007749795552931654 0.3017967544521977 0.21188984429679467
45955000.0 0.9156872090418439 -0.3915533084755621 0.03419587062739694 -0.057719738030281555 -0.0003717384824230528 0.0025140409653835807 0.2965757469837251 0.20069674834945747
46954000.0 0.9127825372053749 -0.39944729400249845 0.03511384440578529 -0.06338666167969648 0.00041299152673135816 0.0007576010058190933 0.3230084729018494 0.18667198580294583
47953000.0 0.910309221834811 -0.40583742166476083 0.031950045255354505 -0.07045112876619364 0.001061206573198198 -0.0021206695186937866 0.3376701823200443 0.18226470639415632
48952000.0 0.9043013141497779 -0.4193080789526772 0.03375298570706053 -0.07774538305043564 0.000463024080505873 -0.0004694155551871825 0.340775282112487 0.1698201830471129
49951000.0 0.9022514608356883 -0.42124141830530665 0.03518957481533029 -0.0843908351844338 -0.0015110727844881077 0.0033165724059153836 0.3541181191927528 0.17033325038989688
50950000.0 0.8968520332701932 -0.4338194329523749 0.03861331816543372 -0.0936022163809436 0.00038955551047139945 0.00031076139070091607 0.3450095310301846 0.1473530310456221
51949000.0 0.8925607904809617 -0.4412418818063406 0.03686789252939865 -0.09938349217772896 -0.005824699047821664 -0.002984128051676971 0.36126503147644873 0.15371284483191539
52948000.0 0.8914340589013691 -0.4470340793447749 0.041468794761007524 -0.11013827493686941 -0.002820046089481805 -0.0026402331500832237 0.36877978525243593 0.1447362832539487
53947000.0 0.8844179177306437 -0.45750408370526274 0.040513872407918816 -0.1177631110458826 -0.001383626383547407 0.0016782965706190083 0.36691706775244415 0.13304210096412453
54946000.0 0.880013657088359 -0.46676067848842195 0.0468138052184172 -0.12779008494766758 -0.0024270758303455396 -0.0010153640508593507 0.38272800452134187 0.13307489277888485
55945000.0 0.8775754741424847 -0.47437479840796026 0.044958833474750194 -0.13447434579409442 -0.0015300973895457637 0.0007843928736323648 0.39049710797629705 0.11530043261041224
56944000.0 0.8721344856396909 -0.4820315812869441 0.047952520825332856 -0.1466778765270892 -0.0012635480979369565 -0.002182904461812266 0.3912659308985174 0.11068636357983122
57943000.0 0.8664967669670542 -0.4919376274698274 0.04401440233178119 -0.15952545623622613 0.0034677931982658363 0.003389665135269441 0.4030631950589948 0.1059521861099371
58942000.0 0.8635555052249393 -0.49581509044471367 0.047313095984353376 -0.16939447993584492 0.0024104235698156977 -0.00236535507393223 0.41911787424081054 0.10410196175108392
59941000.0 0.8584754546312965 -0.5062339175011773 0.05268884865146219 -0.1761509877635471 0.0002674174392535235 -0.002816372528229243 0.41039787594660787 0.0979869805504928
60940000.0 0.8512612326839125 -0.5121458507636919 0.05299585561119532 -0.18285972153997537 0.0021280120799663555 0.0027334507285329407 0.40804457494054175 0.08287298311628859
61939000.0 0.8482775483154309 -0.520025615162332 0.05271928840804188 -0.18846864782727046 -0.00046974251819588685 -0.0005287406176273836 0.40816286506740956 0.07378497075538891
62938000.0 0.843694847411313 -0.5300246034776134 0.054388619356133754 -0.20645840758296474 -0.0033414590888864617 -0.0019896902567480335 0.4416177656978807 0.06278949508494036
63937000.0 0.8382761694008944 -0.5361632414102658 0.05675445916951508 -0.22491691720585594 -0.00016002902018678801 0.00037404406321589516 0.43649748978837505 0.05696054870704337
64936000.0 0.8306974668322311 -0.5449315339604732 0.0573653807124645 -0.23776425301319792 -0.0027377578875280376 -0.0008141256178146076 0.43873628525197217 0.051155866521251814
65935000.0 0.8296461540599257 -0.5540755921447668 0.05654286065464399 -0.25248913131911144 0.0002288010982807572 0.0011450234253387655 0.4412467000439432 0.03462463439371685
66934000.0 0.8237867861098691 -0.560934801419713 0.054508342717917165 -0.26713129310164335 -0.003111692462302384 0.004887567360287787 0.43632200632996543 0.021987106269759683
67933000.0 0.8200994085362274 -0.5692598225692113 0.058185841426170885 -0.27963379019740886 0.0002729057665349643 0.003543521010462893 0.44122012271193267 0.01867141282462203
68932000.0 0.8131758694786062 -0.5613779001240722 0.0561865610843736 -0.28830104882355523 -0.0006681320434839193 0.001858816646995072 0.45056708771073606 0.0015167105049628726
69931000.0 0.8070472068057641 -0.5842076249887656 0.051388388700724756 -0.3065111941985696 -0.0015726855375161523 -0.00020872210043148515 0.44112287437262737 -0.008491721690636772
70930000.0 0.8002677656284007 -0.5896699425891802 0.05096745053375538 -0.3195348982527248 0.0006213762352371675 -0.0022201761995182916 0.44715601786789044 -0.020709895743118902
71929000.0 0.7955749887266453 -0.6003607315511218 0.04828068945919409 -0.34123615905672255 0.0017283665418297012 -1.71051589864482e-06 0.44376235870911046 -0.028377367538529378
72928000.0 0.7882563049906708 -0.6093425066187773 0.042369032234103834 -0.35301443266783794 -0.0003835296276611916 0.0027201923254068024 0.4670531178146394 -0.04195791171441494
73927000.0 0.7842337120456375 -0.6144424348017642 0.03752720120357712 -0.37591024988794214 -0.0018698662901703471 -0.0015859500175555922 0.4531057222344196 -0.03591262966805778
74926000.0 0.7773918127693747 -0.6236107502345878 0.02912986548475885 -0.39180687986425755 -0.0007367322661193058 -0.00019939023300982527 0.46116780633431004 -0.042733167016268475
75925000.0 0.7715067298508617 -0.6300965577392323 0.02103683538539314 -0.4102113251357864 0.003404403805079446 -0.00026349660137578695 0.47393491445366326 -0.0649202740625679
76924000.0 0.7649285113084738 -0.6377572949762332 0.00892252401759639 -0.4361502473146672 -0.004170257981463615 0.0010578151699796195 0.4619652741617382 -0.07912743077890258
77923000.0 0.7584823783149041 -0.6449367858408813 -0.007274216340488246 -0.45616869750665906 -0.00023450724720127994 -0.0009122960769454606 0.45906380143123127 -0.08883687110939388
78922000.0 0.752894969811109 -0.6537782750467693 -0.017167607338184405 -0.48413743455581076 0.0025536053551007253 -0.0010869788169053248 0.4664011744165291 -0.08567420979432713
79921000.0 0.7431199389145186 -0.6567179079358825 -0.035369933300673034 -0.511531826989158 -0.0008868436101975241 0.00211053294721874 0.46758142946799297 -0.10780091310220094
80920000.0 0.7390913691072856 -0.6680324087610707 -0.05261551082228766 -0.5338447781733091 0.0015315104678911774 0.0011904297904285438 0.47203277529799015 -0.12099181564666733
81919000.0 0.7339795157388707 -0.6736234758889663 -0.06855616254485133 -0.5637053846275765 0.0007563487166500943 0.0005818546447333349 0.47241391593480503 -0.12021507277019373
82918000.0 0.7253649745420445 -0.6806199334001459 -0.081891006044764 -0.5968753354821896 -0.0005715758766194509 0.00017842639756130883 0.4797345566103636 -0.12998159955108177
83917000.0 0.7158715411318644 -0.688967329053047 -0.09947931983601538 -0.6214720557273382 -0.0012402427476834238 0.001940487242116956 0.48230032645479115 -0.14356308126256523
84916000.0 0.7097741530327513 -0.699076169057164 -0.11794352129802611 -0.6525013882627547 0.0014260816549910612 0.0007273305204781081 0.46372384402853895 -0.15289856977550592
85915000.0 0.7039965806067624 -0.7035920849242026 -0.1357267257700033 -0.6856327646785517 -0.001223484250097232 0.00027101438398729707 0.4692111957747648 -0.1560315475556638
86914000.0 0.6963066169509504 -0.7132510710481427 -0.14549681483829605 -0.7196332835805406 0.0022890547850947067 0.002969027045049443 0.45882169669031925 -0.17173922791027296
87913000.0 0.6883170977570927 -0.7184059425257094 -0.16319553925111419 -0.7492802318348843 -0.0003898400327920286 -0.0005312647946003105 0.46514146449438487 -0.17449461470778663
88912000.0 0.6820332953141528 -0.7249695332101327 -0.18028369406973285 -0.7821388055981949 0.0032678028873152003 0.0011966669299309817 0.47119096426042234 -0.19880620638283264
89911000.0 0.6732297715350184 -0.7343226188664673 -0.193090042144448 -0.8197732356363284 0.0018766666874397867 0.002170100890339843 0.4678971824365844 -0.19683258009004917
90910000.0 0.6684328978426148 -0.7402570697114107 -0.2097064096620684 -0.8553412969473909 0.001295580717983906 -0.0016664290008243095 0.46908240030585335 -0.1833669849599408
91909000.0 0.6585062959452357 -0.7445054950411619 -0.2322295074373278 -0.8794576859271948 0.0016595379156519193 -0.0014638418850113845 0.4683603687958428 -0.222886666874495
92908000.0 0.6511391097858804 -0.7536561472052432 -0.247659988073359 -0.9173511328196547 0.0006412426629511881 0.00013192546946859434 0.46733695953965837 -0.2280951838558362
93907000.0 0.6446140572281678 -0.758067973586037 -0.2596283289475507 -0.9457115380642781 0.0006514599228229724 0.0032022323279525624 0.470405222686208 -0.2324408125943872
94906000.0 0.6323645155994164 -0.7661504235721046 -0.2789194130665809 -0.9814900548750323 -0.0031395522587275037 0.0020497230160241237 0.4729392312626875 -0.23753461639444945
95905000.0 0.6264973064914736 -0.7723274098515011 -0.2961999064970974 -1.0144613487043805 0.0004291831907652441 -0.0003566429232349411 0.46585679565504995 -0.26034548728950346
96904000.0 0.6166271600598365 -0.7827274973843329 -0.3182993866322491 -1.0532909549528724 0.0017232022992991194 0.004748893823638325 0.46966871524308124 -0.27550950270709995
97903000.0 0.6060749794256483 -0.7862098655570281 -0.3360438396140132 -1.0864392416083246 0.0010508244818239602 -0.0015199012563372018 0.4648725187024087 -0.2746448040292746
98902000.0 0.6041465113762953 -0.7933942369470879 -0.3575596073256522 -1.1237001008245595 -0.0025677967731187992 -0.0015449517609170457 0.4618315108405374 -0.27450016908691793
99901000.0 0.5933647518762971 -0.7984754564817759 -0.3846501999069569 -1.1546961265720683 -0.0008561405602635938 0.001188265518886894 0.46670624591664983 -0.3094477734293584
100900000.0 0.585783974914763 -0.8035093069859616 -0.41403394677685124 -1.1807848262055978 0.003868971621060348 0.0005995609619660578 0.47100341963331377 -0.3070698683748123
101899000.0 0.5766221267702433 -0.8106902963302087 -0.4343796225443597 -1.2198549600744426 0.003025817263001315 -0.0011240704176888703 0.4594340072232166 -0.30386219182355895
102898000.0 0.5656962487737627 -0.8169659635047799 -0.47461942910020877 -1.2563735153291762 -0.002162054703825145 0.002419178327566524 0.4595602181106799 -0.32274551862274453
103897000.0 0.5588479901501816 -0.8241166319484777 -0.5118601655688905 -1.294641344861498 0.0016840516547803799 -0.001156406758554906 0.46486500839353145 -0.330971124898052
104896000.0 0.5486567322026205 -0.8343721922935484 -0.5589870457673962 -1.3231598081068054 0.0004208303027899392 -0.0012615424086560578 0.44483655657890137 -0.3273717076047133
105895000.0 0.5408447050835288 -0.8351457455995993 -0.5939154759270057 -1.366538664077383 -4.633029351116118e-06 0.002766552253896541 0.44996778250580327 -0.3376286395535932
106894000.0 0.5314641976490697 -0.8414241800175644 -0.64420589028511 -1.4012911085177728 -0.0024024274462696492 0.001538509511446157 0.4483444376528385 -0.34877633607049663
107893000.0 0.5227775733871175 -0.8466637684184182 -0.6913072690732023 -1.442374484416426 -0.0010989770832622934 -0.00175876831028544 0.45150537484278247 -0.3704809323029709
108892000.0 0.5110157687451268 -0.8522713713476636 -0.7571240423098177 -1.476259166095656 0.001583544605769224 0.0023612059229214197 0.4469624228810654 -0.3634215593897639
109891000.0 0.4984444047658062 -0.8569567652003578 -0.8108438303549372 -1.5062259215550413 0.0009346123643659884 0.0021012264603260207 0.45188154091712385 -0.36610673508058506
110890000.0 0.48959948324577385 -0.8606741786869588 -0.8655283821366321 -1.5221541779714511 0.00023384614780319626 0.0029182561091826067 0.4433793031718951 -0.3619132901950476
111889000.0 0.48091910928549886 -0.8655742466571209 -0.9305265631877916 -1.5857508432291363 -0.001309978156036875 -0.0014941295908676158 0.43875660242247455 -0.3755279553890583
