! Created with skrf 1.9.0 (http://scikit-rf.org).
# Hz S RI R 50.0 
!freq ReS11 ImS11 ReS21 ImS21 ReS12 ImS12 ReS22 ImS22
1000000.0 1.0036039767222116 0.019300022949539034 -0.0017036033048691654 -0.04334377860071776 -0.02665083824431455 0.01652830226990603 0.3243456690530075 0.34087388047862643
1999000.0 0.9945302781449544 -0.012293927257371107 0.006700750717024699 -0.019819118197656853 -0.008622642026900664 -0.002827599066987118 0.2508917119920698 -0.06255081503488424
2998000.0 0.9949823457525551 -0.02660110899536057 0.011481947979934277 -0.013135471817414219 -0.005707791201256872 -0.0015187878324027513 0.18884101595989602 -0.13314046962600926
3997000.0 1.0015341295615838 -0.03012177150518707 0.011341563244071255 -0.004358931708473066 0.0004940081987493232 -0.005956881995471914 0.08751966833125865 -0.24234011459398647
4996000.0 0.9948144680399621 -0.04179291741500287 0.008072091626190374 -0.004313515094976165 -0.001547515901545301 -0.0063889649533758145 -0.06425961003450044 -0.1895226770780318
5995000.0 0.9962910674155877 -0.048878257058930355 0.007921764332587714 -0.002084854191722077 0.0023182883759489633 0.0005050786736627441 -0.12899223253636696 -0.080496073118717
6994000.0 0.9943141716276525 -0.05676898212074379 0.009808798597412958 -0.003085596701561886 -0.0017575568706294869 0.002670464061432598 -0.1333312968662167 -0.015464660054873156
7993000.0 0.994553552086769 -0.06870034533559795 0.002804854166464862 0.0052080820516736005 -0.0010272657644010898 -0.0019636615435938655 -0.1488556376141818 0.03399125932700025
8992000.0 0.9963131587729717 -0.07322435483378151 0.0010818321251917478 0.000793243773917644 -0.002800921409838177 -0.00021343535897109492 -0.14238936680064 0.06006340449727109
9991000.0 0.9913903814973021 -0.08744933685073895 0.001166521103473886 0.005197641396715443 0.0012693056522325732 0.00013704395511820934 -0.1475731740791615 0.08537372141714034
10990000.0 0.9934567310030532 -0.09470253606808518 0.0030267868299151918 0.0031972314475420677 -0.0002525455417282323 -0.0040611685339249585 -0.11785486059480707 0.10632304621378467
11989000.0 0.9893518433267441 -0.10036578426422821 0.00582182466310527 0.0025068247267328475 -0.0001714167674305707 -0.0026440115298373137 -0.12141627522350207 0.13261269150368224
12988000.0 0.9892151690231881 -0.1101005606544551 0.00012221799652509778 0.00015251492999175914 0.0013129593246200423 -0.00014825699684764505 -0.10470085017788111 0.16509446578558865
13987000.0 0.9876404479922878 -0.12121987195007732 0.0018280676802642244 -0.00604357559613292 -0.00253334734537031 0.0013661038285230022 -0.09397889033511979 0.1853761961389313
14986000.0 0.9852806654554236 -0.12896218642965707 -0.002446534758575157 -0.0025611656876476374 -0.0034540218616321374 0.0005324356981347733 -0.08313114196628554 0.19992476078500454
15985000.0 0.987696336516823 -0.13732319307475643 -0.0019724041273284387 -0.0031881444504598187 -0.0015929607833940543 0.0038034090549096348 -0.0676785022453768 0.21046724480952503
16984000.0 0.9833029094209742 -0.14919307629125206 0.00578660260234437 -0.006759808970047997 -0.0005326961095881401 0.0017755793185903184 -0.048406333559995914 0.22181648635457285
17983000.0 0.9862885793719691 -0.15374838890025155 -0.002133051421487686 -0.001896589866388978 0.0028762563870327706 -0.0025512739948020465 -0.05949031959830423 0.23601189281547152
18982000.0 0.9814348632163598 -0.1655527789210595 0.0009386826676080853 -0.0041661578969301154 -2.163044675062987e-05 0.0019517507835812972 -0.031270498795205375 0.24127704836369968
19981000.0 0.9822652964659238 -0.16925091608233872 -0.0009041854627955991 -0.0022879383525781696 -0.0006983638019518156 -0.00024602382233516573 -0.009519183299583508 0.23760727233564596
20980000.0 0.9814201566654654 -0.17733847894840354 -0.003909353563118145 -0.007223694661420529 -0.0031377236927255365 0.002347275874947132 -0.008818405576127434 0.2535575302597559
21979000.0 0.9778026433907738 -0.18810898777840263 -0.009083556537136134 -0.002403963370072728 -0.00023536756393038066 3.341632434346451e-06 0.0196389435533952 0.24382491530726833
22978000.0 0.9761757604869298 -0.1958283883346954 -0.006065094176093809 -0.0072302795276747754 -0.004297286347449958 -0.0037565126386211196 0.02623596343693645 0.2677906695359936
23977000.0 0.9772514628078642 -0.2035998467089049 -0.004248913077774081 -0.0010999515110046401 -0.003981245148332812 -0.0027085624736521113 0.041393441914127305 0.2621522063153232
24976000.0 0.9749360452518689 -0.2163580234487406 -0.0032572653129419914 -0.0032771761356242225 -0.0006237654941734853 -5.9622100821068324e-05 0.06919217187686005 0.24485585889901237
25975000.0 0.9644903938706826 -0.22748776434167947 -0.0065396385241083335 -0.0023131893895654504 -0.006846443846083274 -0.029341318643935015 0.06977869593279148 0.2541423616648925
26974000.0 0.9657493277906984 -0.23284955523430598 -0.005102490211672885 -0.0078018814206306936 -0.0002808123460233173 0.001532911055712262 0.08564463139810347 0.2703533596677559
27973000.0 0.9677592607134862 -0.23921930479851883 -0.003617488412828191 -0.0006620352251427228 0.0015073710158694717 -0.0029883910857377146 0.10291660373534234 0.2527019859945357
28972000.0 0.9642330967138799 -0.25001968625402565 -0.001160679828110348 0.0006499326955052602 -1.9029028048725682e-05 0.0009719335016654591 0.12100585557156408 0.2558977510772492
29971000.0 0.9629446916407132 -0.25841477321927997 0.0019889913276028995 -0.0032697467083583794 -0.0004011203285390819 -0.0014050463473471964 0.15259028483920115 0.2682723214528317
30970000.0 0.960918692648023 -0.2643616817536427 0.0024814897849584007 -0.002683568670417642 0.0009527704925074054 -0.003834528146425867 0.17544650427386652 0.25033971631181523
31969000.0 0.9587796592363146 -0.27307839225339053 0.006098861162053677 -0.005799315722608425 -0.0028880858625685737 0.0004302477372764878 0.15294477233104936 0.25214734230128916
32968000.0 0.9576448529817104 -0.2803038876766397 0.006789260081827868 -0.008676791703809575 -0.003313322034085897 0.0007479940651969742 0.1715544478199558 0.24536997390510124
33967000.0 0.9540841160984902 -0.29051674882622985 0.01241596512264624 -0.007418339744533959 -0.00204577120711857 -0.0035837660973652603 0.18150650880083308 0.24748383742768554
34966000.0 0.9499923378651647 -0.3018278516265173 0.01291136025580658 -0.012507748956338157 0.0009386244477770925 0.0003053822287120651 0.19403880093653694 0.25576499205346886
35965000.0 0.9478407646265918 -0.30862429252584433 0.01623624018265654 -0.014270920473154106 0.002007911401999316 0.0004664825871028205 0.21149063501566984 0.24830549999077497
36964000.0 0.9462724915091515 -0.3173748493470501 0.016824514763788934 -0.01522281675719209 -0.0010691957348501456 -0.0020018309476772154 0.21967457641050817 0.23970025759657373
37963000.0 0.9414161599279849 -0.32864089275597863 0.022070554665083376 -0.02343257997224306 -0.0015446037852055881 -0.003823144181067276 0.23182573616167362 0.2351496108823021
38962000.0 0.9396741686141291 -0.33583615350992974 0.025436611223738925 -0.024328052141763406 0.001554982070954422 -0.001383714123477208 0.24034541260021217 0.22158211313874993
39961000.0 0.9364072722240994 -0.3442993322180882 0.024367520706784287 -0.027411863729130837 0.001387354512409581 -0.0022981512502654768 0.25974297458017803 0.22035279630002652
40960000.0 0.9330881149552419 -0.3516438831463916 0.024565121298455134 -0.025459270255099337 0.0023842391118039374 0.0026598369964049243 0.2665182912445607 0.22621360389039272
41959000.0 0.9309101641534294 -0.361536091018359 0.03118478846962487 -0.031012157226396747 0.0015420814347668625 -0.0012192845576596855 0.2741065564408543 0.2198868637598362
42958000.0 0.9255695159557926 -0.36988000948058786 0.02827476004990822 -0.040415473541455804 0.003007187331464287 0.0018074575004632058 0.2858515927416571 0.20122126340935687
43957000.0 0.923043063058176 -0.3773734706430491 0.029030137124036112 -0.048416710106425655 -0.003113598153932539 0.0022232646015101043 0.29338220881101423 0.2021455393476948
44956000.0 0.9196583698381038 -0.3855704600053295 0.030826590490238507 -0.050039708635014425 -0.0037676814633984517 0.0008353938464961919 0.30340384042859325 0.19859850216499803
45955000.0 0.915602497255389 -0.39559109696844225 0.030923588591228558 -0.05835197830562764 -0.0007638395380221947 -0.00011943421863385739 0.31014902465010064 0.1955886152862463
46954000.0 0.9096727563396422 -0.40529507930696396 0.03377585070028089 -0.06586482405815972 0.0004770784739044698 0.0014378574989479947 0.3376509238124324 0.18146331693929482
47953000.0 0.9090740206896206 -0.410081791009071 0.036106889274219706 -0.07213489286274179 -0.001511457780440301 -0.00018989569165064933 0.3348299668858812 0.18159988966186
48952000.0 0.9036860996764258 -0.421181579460224 0.03329254450769116 -0.07774326835818907 -0.00019812492542966995 0.00380015845956044 0.3372552940294524 0.1661623611685498
49951000.0 0.8999499559574902 -0.42866026399015755 0.03730748758725188 -0.08599802266899541 0.0023928114098694235 0.00010882592688299436 0.3545481349729422 0.15412334180197484
50950000.0 0.8961389377898354 -0.4374654899782445 0.036893637021119134 -0.09601666559802993 -4.7232680451484835e-05 0.0027223358372804353 0.35545987868723433 0.14114248502721152
51949000.0 0.891892353658362 -0.44521191180801467 0.03793448553673109 -0.10270497221631258 0.001385964377920952 0.0005189933110775015 0.35820597252649905 0.13815578905838508
52948000.0 0.888409509343593 -0.45432596113019597 0.03961517990232452 -0.10986405437660883 4.3537970787989235e-05 0.002818382887246455 0.372974082974451 0.14538062991460501
53947000.0 0.8847786670987003 -0.460749118973707 0.0380266779253943 -0.11862425387149263 1.4733947112471086e-05 -0.003868064313726762 0.3735112459766194 0.12534379345222213
54946000.0 0.8780592754379285 -0.47154392104598275 0.04291656237892621 -0.1290685861248419 0.002255226791372758 0.001876339558948362 0.3908282383627797 0.12766448727522564
55945000.0 0.8749314935755237 -0.4778672578224034 0.04270065534492162 -0.14193616479109267 -0.0037321273099045356 -2.0840295121097306e-05 0.38830673024798884 0.10398475582255146
56944000.0 0.8718011202835919 -0.4867390511529499 0.04519151594181768 -0.150191191775285 0.0034090734552180858 -0.0008184294135277769 0.40208632879349093 0.10203273901931023
57943000.0 0.8649050697218797 -0.4978339059469436 0.04549414582218074 -0.16066588423159459 0.0007382843649281463 -0.0016394404915759046 0.40895618805494516 0.09954891346935094
58942000.0 0.8589764526516113 -0.5048038753754315 0.044862326744530015 -0.17390197424456408 0.0005551264481306551 -0.0026253358214563412 0.42686948835542 0.09540875679214117
59941000.0 0.856793801321381 -0.5101164459486263 0.04726304997554135 -0.17691479787632092 -0.0003173877491517633 -0.0015382511698254539 0.42253280140573746 0.09446870762882095
60940000.0 0.8491883806291731 -0.517472745389941 0.048244012056917786 -0.18167205783097734 -0.0008118318466512868 0.001344291380831835 0.4085241374822373 0.08283873682302298
61939000.0 0.8454905735072803 -0.5245829623532682 0.04817003269161554 -0.1882283374725992 0.002483554805548247 0.0003154137669272062 0.42081558409959374 0.07502808470937897
62938000.0 0.840164390572903 -0.5355073652371762 0.051569854479446786 -0.20443506994184896 -0.003581015239339894 0.005040213137558315 0.4484316793486267 0.0587855951860696
63937000.0 0.833029000432015 -0.5446339279711078 0.054810063941062276 -0.22586063084651709 -0.0017963855266383928 -0.00321147173990121 0.43454649619746405 0.03633836264813525
64936000.0 0.8303516464434089 -0.5481893518281071 0.05214079530184276 -0.24125089654202603 0.001546738643075786 -0.00281857202590533 0.43190682972502126 0.04558347659812193
65935000.0 0.8239501570392506 -0.5598308382681276 0.05328491372006894 -0.25362203051210835 -3.094662858161494e-05 -0.0025674436283097688 0.44669698332252117 0.02197815108424095
66934000.0 0.8202161892948486 -0.5645174299777085 0.05210347277045616 -0.2676288404318532 -0.0018843680161163463 -0.0019143711406980999 0.43845232637187753 0.013179028647762507
67933000.0 0.817052739860926 -0.5749185367326001 0.0522705410670365 -0.2775018948197638 -0.005622675143428357 -0.0010045072411495634 0.4360205248815068 0.008067344247975138
68932000.0 0.8061527036309443 -0.5795647959965468 0.04882991547148175 -0.28835111494302906 0.0011130898837773493 0.0014587921836685743 0.45834750661362056 -0.000697203067342672
69931000.0 0.803142091006138 -0.59049823009412 0.048441386185406124 -0.3058076070577649 -0.000999652175262106 -0.004193038794835285 0.45496691420469265 -0.015117448199344324
70930000.0 0.7965879974441484 -0.5970810303710219 0.04477752821645728 -0.3194235835824656 0.0013199528088800472 4.1993557147778125e-05 0.4523578388443864 -0.026992567634001517
71929000.0 0.7937640727891744 -0.6050906246225785 0.045523814711521456 -0.3381815565759332 0.0024148994199732574 -0.0007678936181248201 0.4520270322705783 -0.035514936814016254
72928000.0 0.7853824360227094 -0.6145362814651668 0.03508229634270184 -0.3530642283408827 0.0010725256498448985 -0.0006626928577589908 0.4714430710906874 -0.05041541929550023
73927000.0 0.778701259227599 -0.620292983392809 0.028819741641510438 -0.37261346682078816 0.0031050780149496373 0.000371768441104701 0.4664268423894686 -0.05057510517715058
74926000.0 0.7731303540669165 -0.6309872107494447 0.022712998445140516 -0.38748771236475493 0.0018493148932446533 0.001478097947642008 0.46842060049078865 -0.05644103200552738
75925000.0 0.7669628946213737 -0.6351398165475093 0.014185891349492365 -0.40954450982630736 0.0025356426742745644 0.00279783965961199 0.46709849240778567 -0.07081586824556924
76924000.0 0.7615063897211707 -0.6419431549645408 -0.001191813174702133 -0.4332274281669116 -2.0201948652019187e-06 0.0012073604594211734 0.46368497741124914 -0.07904957364293204
77923000.0 0.7545519560107043 -0.6521131052673457 -0.01267743268425746 -0.4543307309285011 -0.003427918427974308 0.003588172975088318 0.4674084321916057 -0.09272582038561406
78922000.0 0.7496248648719512 -0.6616707442223123 -0.02632071006205984 -0.47987386777010377 0.002136881577791514 0.0025923890769896504 0.46390305154131967 -0.09823858093260363
79921000.0 0.7373941081920133 -0.6642891900292412 -0.05014289541774318 -0.5046637910997928 0.004064250505787649 -0.00046871505676032466 0.4634183760409049 -0.10206835632854314
80920000.0 0.7348251392789519 -0.6735205783149235 -0.06064333451314909 -0.5319160892952255 0.0008618710154519655 0.0037654175791834565 0.4772750094496904 -0.1261829649508915
81919000.0 0.7301820678624185 -0.6781565578014878 -0.07866490551468888 -0.557774904244862 0.0007309855782133375 0.002440170772168233 0.4741659132386123 -0.1180787386560037
82918000.0 0.7184775727184356 -0.6891969104970109 -0.09333522141642069 -0.5862431334277168 0.00259997652583859 -0.0007962036691627932 0.48523261100216375 -0.14777256756591467
83917000.0 0.7119807477814136 -0.6951899934425259 -0.1107626655351731 -0.6160473018312339 -0.0021917961300869926 -0.0015192336990192399 0.46990220312565656 -0.1397909159804536
84916000.0 0.7054864937127157 -0.7039316644546815 -0.1322791059915264 -0.6479894224499985 0.0013171021986418596 0.0024927791444756555 0.4818920199845046 -0.1704465600716359
85915000.0 0.699306514011718 -0.7083347862993735 -0.14939268670107256 -0.6784640197514051 -0.004521136444007015 -0.0009315587846548436 0.47575938284768876 -0.16942034070732584
86914000.0 0.6911544091209348 -0.7202810392185064 -0.16343376136916993 -0.7139528820851733 -0.00029064880715038376 0.001388848217386644 0.46869615117422603 -0.168697861499389
87913000.0 0.6836677289279489 -0.7261136795795136 -0.182157573654268 -0.7402516396803116 0.0019831899607326295 0.0023759100506646523 0.4644000025686386 -0.16845509782208554
88912000.0 0.6753719930460433 -0.7335051094702852 -0.19887795217996923 -0.7743437599068659 -0.0011075539058685436 -0.002722544654270217 0.4729595583382278 -0.20162719539166468
89911000.0 0.6681711878220703 -0.7413549368213876 -0.20781523133679422 -0.8132496372236724 0.004760488890234203 0.0041106461710972795 0.47557072733277456 -0.1989959535497539
90910000.0 0.6607338023047574 -0.7470053336288153 -0.2235362701664066 -0.8432887559941087 -0.0013665438567367024 0.0003896786090564624 0.46800401157170196 -0.21232595356619566
91909000.0 0.653241397916885 -0.7508803659222911 -0.24527792461934364 -0.875617782407043 -0.002922224574247524 -0.0001600156277614166 0.4809888783764156 -0.2164540211689256
92908000.0 0.6448366481111286 -0.7604807668164952 -0.26261999330477853 -0.9058824244583831 -0.0011467617766898698 0.000504935388982683 0.46484889697693077 -0.2161900395608705
93907000.0 0.6385429151803738 -0.764037895213287 -0.2802979161886337 -0.9363421582938097 -8.061651887340731e-05 -0.0023801592481304135 0.4648071327840064 -0.24458969564785632
94906000.0 0.6244647595405685 -0.7736484352559242 -0.29610360250934475 -0.9646601103357534 -0.00039426281834037077 0.003340284104941542 0.46359480510275075 -0.2484591483176712
95905000.0 0.6207339848857631 -0.7772790253524413 -0.3118238931861118 -1.000771801562802 0.0010150242646612528 -0.0002830711870764723 0.46684388957456435 -0.26012852278997006
96904000.0 0.611007769827351 -0.7869973123001164 -0.33205685008845837 -1.0391188457502496 0.0012259273875353902 -0.0005831085775493731 0.4629409258116593 -0.2691635757167818
97903000.0 0.6004927604195568 -0.791277673659949 -0.35599298930454787 -1.0647744354096844 0.0010701290191666088 -0.0021346490275718655 0.4486652525691627 -0.2789097843910275
98902000.0 0.59718436519953 -0.8002693847719243 -0.3747051861504694 -1.1059635918455646 -0.00244189850452072 0.0017653655172851519 0.4499567955081523 -0.29102736548481967
99901000.0 0.5864333503410134 -0.8046635897024385 -0.39887107996071686 -1.1312457262663898 0.0026960341173046004 0.0015113740943027984 0.47008176145408653 -0.31103724656738985
100900000.0 0.5761368451635134 -0.8089731876181274 -0.4252649224902543 -1.160202031436059 0.0023923505070402697 0.0028766533381629714 0.46277593299105113 -0.30691026714866054
101899000.0 0.5686620747267096 -0.8160366795435817 -0.45553057449487283 -1.1985014916070698 -0.0009458523580769952 0.000372700144250291 0.44373172571688285 -0.3231278799892034
102898000.0 0.557015538712543 -0.8219359351176803 -0.49469293353822424 -1.2314297119187705 -0.00016860915081397387 0.0015582932262619737 0.45568066655764855 -0.3413484002475728
103897000.0 0.5491949759874976 -0.8279464406349557 -0.5256390762798155 -1.2651479363840032 -0.0017248068187756841 0.0011242739107552501 0.46615236006789873 -0.3287607752274108
104896000.0 0.5387369654841375 -0.838617611619231 -0.570105123390562 -1.2959456916602763 -0.0008086641629808848 -0.0004884069952154912 0.44289440689065446 -0.3311070820957707
105895000.0 0.5304112745369753 -0.8430294544368312 -0.6136063849005887 -1.3366907801859902 0.003321221664432054 -0.0013425379256494683 0.4354247455896219 -0.34945813680641785
106894000.0 0.5205210472690794 -0.8483431311491245 -0.665384263522227 -1.3674229301931364 0.00013287397517617051 -0.0007547044632284364 0.4325592436148519 -0.36618597805943803
107893000.0 0.5120574693509484 -0.8551667640348884 -0.7188121348960201 -1.4078903044918754 0.0017592119517488745 -0.0011626172221861826 0.4338959962021992 -0.36918575513649105
108892000.0 0.501969873520776 -0.8590832730344226 -0.7769329361947747 -1.441270551546713 0.001371674797535341 0.0029660066237799237 0.43022373565403627 -0.3727605138770548
109891000.0 0.4899223359971561 -0.8660614378415019 -0.8285000818772379 -1.473119575468811 0.0018374192456948866 0.0037110391978595475 0.4439505213629155 -0.3742553469151716
110890000.0 0.4819046177225296 -0.8668768786296602 -0.8859116634689945 -1.4878789297283563 0.001691603488828654 0.0009159310921088581 0.42401375060170354 -0.37734305213913294
111889000.0 0.4694177208928795 -0.8715982581147893 -0.9551818192414797 -1.541336355177071 -0.0006314516673950171 -0.0008147799430386421 0.42025860224185885 -0.38636517741861653
