! Created with skrf 1.9.0 (http://scikit-rf.org).
# Hz S RI R 50.0 
!freq ReS11 ImS11 ReS21 ImS21 ReS12 ImS12 ReS22 ImS22
1000000.0 0.9856565637843169 0.004451103601036312 -0.012455333323954322 -0.0492700758558295 -0.02012049768650736 0.010111708797589658 0.3657322786973528 0.3468895461798206
1999000.0 0.9926924525103027 -0.014090727850981786 0.009225505295933826 -0.019917742877100734 -0.003898557929687537 -0.0011126253689676601 0.2699123182370076 -0.04715660152316259
2998000.0 1.0018913242099021 -0.022715400911470066 0.00975954878615254 -0.012023669834672294 -0.0022180269624144724 -0.0029316728535773618 0.19268484018998594 -0.1529797902827677
3997000.0 0.9983979832389215 -0.03233941356076569 0.013106060761380689 -0.010573573086662685 0.003657920255711031 2.6919136468918835e-05 0.07345144665525861 -0.2204574359077273
4996000.0 0.9979047655791135 -0.03844154884632564 0.012912897762705617 -0.0003776233758816662 0.0015415400119435626 -0.0034913839202208976 -0.036263168400385 -0.19702149277630934
5995000.0 0.99549372943612 -0.04612742091213369 0.012356230767084352 2.498791827337829e-05 0.0011534825331672555 0.0019412710621853023 -0.11667028130704826 -0.09907648746975349
6994000.0 0.9936346427245755 -0.05970871748325426 0.005766936876068604 0.006745223718123817 -0.0006611783211951516 -0.005471787249179427 -0.14091688195627403 -0.01581683970588096
7993000.0 0.9961521531408704 -0.0661957809483943 -0.004508644290921265 0.0048115485667758855 0.006432527016286956 0.0053576426217916435 -0.1579793552186736 0.043105686131903104
8992000.0 0.9957830523448445 -0.07107476397452735 0.0016409373311002046 0.007536024419805295 0.004849995871055684 -0.0006883975714307944 -0.14993396332952436 0.05955461162782313
9991000.0 0.9946655649981383 -0.08318823258240525 0.004742935417441552 0.008726936242002603 0.001696212985451692 0.002101133704761565 -0.1508642944508005 0.08450530919594441
10990000.0 0.993911833556636 -0.09246281425571011 0.0030212603798783853 0.007010038505527421 -0.0008650725574586476 0.0001458313659538117 -0.13825925206267506 0.11780241773439831
11989000.0 0.9912746903314734 -0.09901550742303629 0.0051355038047699855 -0.003545691844731152 -0.0023162018551977845 0.0011279205341150334 -0.1138672319611972 0.1385599680769843
12988000.0 0.9900967265797889 -0.10992699714349949 -0.0006623424128619787 -0.0018569436294998758 -0.004338467607270255 -0.0036009574748900744 -0.10543230786077326 0.16389914123982202
13987000.0 0.9902771582412369 -0.11622726264805679 0.00021161944350026494 -0.005325451952440623 0.0006498314931559961 -3.317995482062366e-05 -0.08750151464687982 0.1773828454172271
14986000.0 0.9884618429577124 -0.12369903182176818 0.001231725449043315 0.00034268706088798296 0.0006615602721890771 -0.0005739359566032732 -0.07738269359353706 0.20539886340595645
15985000.0 0.9899408572210797 -0.13385851506121604 -0.0019107635418211765 -0.0010072047529529403 -0.0012521450614635938 0.001544663006597987 -0.06831187211327805 0.21710203518638224
16984000.0 0.9864500747392357 -0.14344271200711525 -0.00582124586428055 -0.008795969094948926 -0.0012722059558696378 -0.0010058047404192432 -0.059859843097033516 0.2139054369094169
17983000.0 0.9873131538049852 -0.14946504569180574 -0.0010580101852682763 -0.009185172429887672 0.004743127726801069 0.0016803998681715398 -0.06053572723161691 0.21994516496570066
18982000.0 0.9851969259546208 -0.15747065241042632 -0.007374958846045641 -0.007533379876365797 0.00483283929714008 -0.003081004971112279 -0.029932795825594268 0.22842532088519274
19981000.0 0.9834773186737495 -0.1644943117080098 -0.0022032803284467474 -0.0028306724928856735 -0.003487199817492005 0.00146863247365831 -0.012158887344001635 0.2414920761182973
20980000.0 0.9818592964864776 -0.17615615963138812 -0.002590214278749222 -0.007921837286902808 -0.0021710965658545216 0.0013169992623136523 0.0032025352194988066 0.25155941193707854
21979000.0 0.9799407516521222 -0.18568351421565032 -0.0022310323092304025 -0.0004956914810595985 -0.0025420479842377147 0.001362020310506775 0.021356934083835242 0.25174871087157275
22978000.0 0.9796203129567301 -0.19306287476508333 -0.002339757451318071 -0.0023764131557457687 0.0039609301107088 0.0024919518767184037 0.034236083702804294 0.2609685786314792
23977000.0 0.9796881632225304 -0.19941203011519837 -0.005941076520284601 -0.0014359245904374698 0.002833036510437436 -0.0028111160495128042 0.029925530481295846 0.2539682052984252
24976000.0 0.9758117980309602 -0.21084157050160787 -0.005949404802570766 3.369162021794153e-05 0.0024244190564489962 0.0012753312352980928 0.07517808831161077 0.24745230771625804
25975000.0 0.9750087411747071 -0.2232434875599129 -0.003050740624247185 -0.0008434600469162111 0.026356206444105322 0.012309728853053632 0.08711287989673316 0.26802277551868114
26974000.0 0.9718955277700263 -0.22532280343015007 -0.0034269943445663395 -0.0011380750253433757 0.0014221481124197192 -0.003770528890134782 0.09590743398219467 0.2576051229148034
27973000.0 0.9699355537102341 -0.2357395545317363 0.00017622680128293364 0.0013819100812157011 0.0011099468557165476 -0.0002282485320893636 0.10819018454441143 0.26009491887817837
28972000.0 0.9650095321015179 -0.2440708631242361 0.000241329617427066 -0.0013466181596341652 -0.0022652598974959876 0.0027280652300296026 0.12291064692883968 0.24394231903573868
29971000.0 0.9653388852987884 -0.2515795816498088 -0.0005321176398091843 -0.0018556274575875684 -0.0020936648421680183 -0.001780687529683287 0.14491714498215488 0.2732100597785907
30970000.0 0.9631929378027327 -0.2574240276488212 0.0005748912764664349 7.184458122776612e-05 0.0023005162304629246 0.005091219271468933 0.17176978203880958 0.2515969391116272
31969000.0 0.9619150797384745 -0.2660289659674757 0.004183836604553173 -0.003025253687693146 -0.0013165178444167792 0.003889405255746975 0.14635831043246933 0.24386080584085862
32968000.0 0.9600018349710063 -0.27415635682818046 0.009617982121895276 -0.006729542042085987 -2.143318054917589e-06 0.0024191175294791703 0.16673172644729767 0.25061192524080633
33967000.0 0.956930866745457 -0.2857145677678833 0.011760548909432364 -0.005679518139503496 0.002831921894089752 0.001110891214599841 0.18558717794411697 0.25014368629397515
34966000.0 0.9560291243236766 -0.29197280195063396 0.013177666139487575 -0.010654948315041355 0.00030017210309806955 -0.0023524219917239937 0.1940217786093175 0.25470056942668384
35965000.0 0.9509309994323771 -0.3005568481744185 0.017334096228731673 -0.01293920565850433 -0.0003753353187109607 0.00045773865354167067 0.21119421737402858 0.2502796230574346
36964000.0 0.9499293406721065 -0.3094393507300856 0.01770413331169199 -0.012341933219793327 0.00059016422830346 0.002238332589271528 0.21192529048798064 0.2557071185039341
37963000.0 0.9440409370222613 -0.3207036430836591 0.02264731541352601 -0.02189772388925998 0.0007017966923637431 -0.0009385595968377871 0.22531410509830638 0.23445840852643637
38962000.0 0.9423990172694131 -0.3308722172828123 0.02335084092241803 -0.023664062494549144 0.0008837578719744142 -0.0015426579828167536 0.24318579418990366 0.23597708123083866
39961000.0 0.9393065560890678 -0.33594386984747165 0.02641533875380843 -0.029395661365268628 0.0022300437908892687 -0.0014840915792552088 0.2478016052208714 0.23365945833832488
40960000.0 0.9374903101995785 -0.3419983946905279 0.020720374916909444 -0.024263047936784653 -0.00029691402316686324 0.0017054787720449255 0.2723717084982697 0.22216995136996723
41959000.0 0.9342188619050958 -0.3539214346359198 0.02635745030482349 -0.03136973111661559 -0.00038792548680774153 -0.0018288595723895745 0.26758436499469934 0.22288347117806542
42958000.0 0.9300453101878774 -0.3611939592594743 0.029240450176016605 -0.0385609812414556 0.001529952849216313 -0.0014684703317652985 0.2846054096926496 0.20377729270868009
43957000.0 0.9273945881393487 -0.36859937195259546 0.034390320793259516 -0.04351318498957185 0.0013932815959429548 -0.002155273876519328 0.28990174466576174 0.2051086472573682
44956000.0 0.9244953639372857 -0.37716843632317093 0.033721305518859386 -0.048516131826782556 0.00011565382509477493 0.0020192432354894613 0.30426786064876227 0.19128657710677294
45955000.0 0.9191505585096181 -0.38561597939460074 0.03345337829491394 -0.05804815035569506 -0.0025899407849488696 -0.0008009036602534864 0.3061930895627926 0.18398756107952427
46954000.0 0.917188660137828 -0.3944514307029142 0.036332833462152624 -0.062489663250024675 0.00017655808275575315 -0.0005718951985762887 0.32158138443957573 0.17515482244553185
47953000.0 0.9154928105951089 -0.40219234872591486 0.03492008962320089 -0.0716765133343386 -0.0015517319883200744 0.001297607912438973 0.3331140483027291 0.1751861543654837
48952000.0 0.9078448716703712 -0.41195607416666075 0.03679106677521043 -0.07676820843123804 -0.0005622587786379481 -0.0015637954318518015 0.33573231644031964 0.16189898140080147
49951000.0 0.9072151339950941 -0.41620208297804506 0.034176907276759726 -0.08445992415249831 -0.0005742595919516676 0.001504954553783105 0.3516723855560215 0.1624132152484427
50950000.0 0.9031734292094462 -0.42755164261530965 0.03709664962426089 -0.09486642988041041 0.0009139765629144402 -0.0013709649107395514 0.3607308189001931 0.14542952602754383
51949000.0 0.8981660732788697 -0.4337879930459303 0.03549210311921507 -0.10178813057161923 -0.000370960772265894 0.0010213551703202426 0.3631408661138875 0.14300361847189616
52948000.0 0.8963796214240106 -0.4423016685608901 0.03862453273819585 -0.11004608656338508 0.00098107200922385 0.0013722094094260828 0.3806675121499622 0.14289246403697572
53947000.0 0.8886220370825102 -0.4529731671052159 0.04163349138682833 -0.11952432970112359 -0.0017886776103039023 0.00042583166260685886 0.3834856980416175 0.12622192642933877
54946000.0 0.8850480644977905 -0.4590281113937521 0.045897349306769246 -0.12750486482100362 -0.0014491821610826574 0.0030567655360036698 0.39082066431612233 0.12256046299074119
55945000.0 0.8822240924759307 -0.4679464830597839 0.04524581421546253 -0.1378704137800052 0.00528479942516988 0.0010130322871597483 0.38491236773509946 0.10019335536536102
56944000.0 0.8777481662934874 -0.4762141435881766 0.04480565520879788 -0.14844911018635418 0.0017216575796211856 0.0011404626321949007 0.3965027950433632 0.09850603330944108
57943000.0 0.8735642145291593 -0.48608802080595725 0.04573492267901713 -0.1563236972315916 -0.0014601017719187142 0.0003115896112899642 0.40716902053098725 0.09613180928202945
58942000.0 0.8684168053783531 -0.49008219741840797 0.044816518936503055 -0.1693141537571625 0.0013563465930657092 -0.003418804890656828 0.42909306895908766 0.08865888271499717
59941000.0 0.8656401627534693 -0.5010408624345394 0.04908876140198342 -0.17701851257046294 0.0013272373533549642 0.0015824572282242923 0.422378265897087 0.0912185748350066
60940000.0 0.857872793504008 -0.5056441681801832 0.04651085593231279 -0.17925870695487472 0.003148083122513462 -0.00019399858759767383 0.40855705248227847 0.071938266411436
61939000.0 0.8555632360353213 -0.5133447696332059 0.04691464218051657 -0.18932611946341188 -0.0025242249167762593 -0.00026927210188002913 0.4169724454868822 0.05432798842078577
62938000.0 0.8486989923322383 -0.5234020351844682 0.05133901895696683 -0.2064974058282239 0.0008995204102132568 -0.00029734262261366795 0.45100205384952907 0.04958802077877759
63937000.0 0.8459358230718734 -0.5309611857798195 0.05215301496655875 -0.22828533608908808 0.002242158470708335 7.457927194939985e-05 0.43678717429951985 0.03983590209146627
64936000.0 0.8385163904025469 -0.5359117735591219 0.051850104936536946 -0.2425767552571147 0.0001877725726961768 -0.0010652698358571216 0.43636509577856214 0.03550997695544543
65935000.0 0.8360110001231634 -0.5458106265758004 0.051663832955384216 -0.2516567216375477 0.002131424667696696 -0.002287460380494935 0.4351893009835521 0.01863240471731583
66934000.0 0.8305115719309388 -0.5528802528701863 0.05357952474873518 -0.2672081654285843 0.0018099740770462429 0.0011648518955303295 0.44385739673428737 0.00906172424108436
67933000.0 0.8277033326664106 -0.5616364208212615 0.05200420210081966 -0.2785061640731621 0.0013500941185063758 -0.002534391823865144 0.4477934971742124 0.006480354845887609
68932000.0 0.8147273608215485 -0.5533413615868187 0.04998275351465704 -0.28776647499653785 -2.873590171051083e-06 -0.0016559092600054778 0.45493596666721997 -0.019363087801333254
69931000.0 0.8147269152035479 -0.5775807143940238 0.051640216703323916 -0.308558248786309 -0.002299401611632985 -0.0013439587398873642 0.44353080980650633 -0.017362420262876467
70930000.0 0.8078443439075076 -0.5827670321403303 0.049059783433948595 -0.3201033709820221 0.0014420131258831086 -0.003013549945293893 0.4500749863117792 -0.02825099316151051
71929000.0 0.8040588319163581 -0.5930869092226719 0.0410672198549051 -0.3386636650403301 -0.0008480008547104916 0.0004140721699659077 0.4517473685212914 -0.04056818831410365
72928000.0 0.7982166579772617 -0.6021771634009473 0.04248379089765595 -0.353737108069544 6.925377396661973e-05 0.0020679642666962066 0.4595458104676574 -0.04625071309627454
73927000.0 0.7916648100715934 -0.6074779535351944 0.034906970031398296 -0.37437560155186 -1.4507586698205667e-05 -0.0017595088526316637 0.451734216715121 -0.06133962583531259
74926000.0 0.7856061313145072 -0.6151963770293623 0.02676786703385403 -0.3910006060392516 0.006119930197842596 -0.0009101363665046523 0.46826976145823285 -0.056256888439103474
75925000.0 0.7802980126964453 -0.6220951591380357 0.017514057870202764 -0.4084108803287298 -0.0017367496672590181 -0.0015441744413684903 0.4719816573170754 -0.08579200669774999
76924000.0 0.7739377548628413 -0.6292296597649102 0.0057939506913651465 -0.42965498232325433 -0.0021224812897214364 0.001378465570582896 0.4672668784526117 -0.0905807506987668
77923000.0 0.7681517358317875 -0.6361687111990117 -0.00756315453873177 -0.45510033112164755 -0.0010907246591662877 -0.0010571336354135107 0.4649691132180848 -0.08895991880722383
78922000.0 0.7617951282499795 -0.6480915103807464 -0.020394203079605884 -0.4804791694539502 -0.0005343348275166868 0.003317618147194115 0.46480305111817444 -0.09981732803594641
79921000.0 0.7544684712529167 -0.648441171822307 -0.03943795272898344 -0.5069266574878425 0.0016228870412846623 0.00031563748388034423 0.4642147886043647 -0.11461976330897271
80920000.0 0.7505114044158402 -0.6609535044636371 -0.055456541053996236 -0.5269451252629788 0.0047595961125241355 0.0006536110495157888 0.4750835574457574 -0.13086906169406012
81919000.0 0.7438146167891511 -0.6650050884826434 -0.06720229971194046 -0.5602618223995157 0.0009356621022117498 0.0036316776402214846 0.46182213934821537 -0.1303923087679541
82918000.0 0.7347052731336337 -0.6742514079107531 -0.08488176850209617 -0.5903964990563177 0.0011315276410347895 0.0005365063129341951 0.47198884084887466 -0.14029375089124863
83917000.0 0.7266217555376647 -0.6811485131022178 -0.1071512803392368 -0.6139274668905621 0.0037726502924892223 -0.0010372602027365098 0.47125681332832836 -0.15034972119904008
84916000.0 0.7225921806124376 -0.688212964303029 -0.12142321368715145 -0.6526547588234414 0.000487843252873649 0.004843451697738469 0.47154504805226144 -0.16999722891091626
85915000.0 0.7163879577545403 -0.6938860616385654 -0.1428628711701786 -0.6822799783564025 -0.0005452704096305031 0.001261889948089921 0.4674674422584657 -0.17818367185948322
86914000.0 0.7074226924836435 -0.7046412646284578 -0.15579958370306765 -0.7113767271087457 0.0003346084072191072 0.00020609260578509887 0.4661578858355497 -0.17409548265917377
87913000.0 0.7018909736367182 -0.7113401397336578 -0.17311777026550412 -0.742663277204616 0.002017071818028974 -0.0020581024543528657 0.46027516987016326 -0.18252933925534368
88912000.0 0.6956214529627236 -0.7182262208712721 -0.1907838457667532 -0.7772082107726652 0.002366876488020026 0.001961926278242378 0.46849388209508863 -0.20562281774276228
89911000.0 0.684788126159417 -0.726552070533196 -0.20238067328978218 -0.8132851504919872 0.003140524429915114 -0.003798206005827797 0.46896988367986175 -0.21189237029750954
90910000.0 0.6806779092705854 -0.7317230037405034 -0.21942595601956652 -0.8442311791842914 -0.007262513789791109 -0.001340729006072063 0.46409831749943314 -0.2105702566465535
91909000.0 0.6710431636260795 -0.7352806081780633 -0.2376543957919916 -0.8775505435202827 -2.8407616641299055e-05 -0.0008128294976271475 0.4768858845532956 -0.21829146625285373
92908000.0 0.6638120616460325 -0.7453970073848191 -0.2546429023646246 -0.9109469122184455 -0.0014893227615250357 0.0006349365051557843 0.4566020745808982 -0.2339283612100505
93907000.0 0.6558514554463073 -0.7496883051521882 -0.27773203045777045 -0.940990816872728 3.6732397175609973e-05 -0.0020177360774786017 0.46999488374980847 -0.2512494602919656
94906000.0 0.6453486015413422 -0.7586500084733631 -0.2933438436118537 -0.9779265830828121 -0.0020005781223273273 0.004141745693118454 0.4601414226500033 -0.2511176619965847
95905000.0 0.6380087168107553 -0.7652632195594491 -0.31586165202643 -1.0105606546903232 -0.0017435865785850383 0.002312535963196707 0.4630490411484592 -0.274958663250483
96904000.0 0.6317629163070688 -0.7734123633852691 -0.33032560176177717 -1.0462700456405696 -0.000846570784795021 0.002491455123929697 0.4531348205381101 -0.2740430963660546
97903000.0 0.619703006155566 -0.779231407713238 -0.3547347547291857 -1.0777284966740115 -0.0021064929913557056 -0.0008287304942098436 0.4526772558181574 -0.2892921436350157
98902000.0 0.6165021446112794 -0.7845756488967096 -0.3697203723857038 -1.1184229721545318 -0.0017262178155925247 -0.002070646873909449 0.44839445288290564 -0.2926208523564917
99901000.0 0.6064148936966071 -0.7895972642397723 -0.3912873345320711 -1.1494162435879298 0.003746882371216588 -0.0015508150112654832 0.46501534487757146 -0.3137792167629865
100900000.0 0.5968646460669987 -0.7949514308014776 -0.4306800577026111 -1.1712362637407003 0.0015624033412901537 -0.0006192118305962536 0.4534936004143737 -0.31465715210083556
101899000.0 0.5890515358125118 -0.8020751653566648 -0.44867417053352604 -1.2131809639856095 2.3379210865808775e-06 -0.001054106377663921 0.4504746452942053 -0.31916468663851255
102898000.0 0.5770255573563948 -0.8103292310700274 -0.4864199696692238 -1.2457721377808189 -0.00023147929424498134 -0.0017321064784336575 0.449538062775887 -0.3315977636847129
103897000.0 0.5714741562228165 -0.8158883073297594 -0.5219653323185721 -1.2818233985157872 0.0016385756874579163 -0.0022089422552370665 0.4549689725673013 -0.32861714908850126
104896000.0 0.5651087466443799 -0.8254148061375071 -0.5672619824726519 -1.3091541717346347 -0.0017037717400443023 7.44289352027222e-05 0.4407789498183038 -0.33598711270385545
105895000.0 0.554667478783843 -0.829186181097813 -0.605725399644532 -1.3527429922843703 0.0006586216994531704 -0.0020885047323600725 0.43858964928578237 -0.35377816111282845
106894000.0 0.5464989493706778 -0.8356518498835178 -0.6578404783404406 -1.3896904403635437 -0.0006566756910587599 -0.0023379130358523815 0.43082291836930553 -0.3601403886885707
107893000.0 0.5370774357708087 -0.842076922278988 -0.7064156823370422 -1.4241510005067202 0.0018541794526336813 -0.0026430985717583563 0.43176068315787813 -0.3786493415867012
108892000.0 0.5274533965670852 -0.8460809720439559 -0.7582837597731812 -1.459884885037258 0.0018873123707585748 -0.002547215371279321 0.4171201580092037 -0.3668538244619741
109891000.0 0.5152975323508289 -0.8529680877372533 -0.8246445152799197 -1.4945426835081514 0.0010195937589151233 -0.0035493919111913145 0.43599551421171334 -0.37873922724252324
110890000.0 0.5073471461558744 -0.8535052715100767 -0.8697292077128894 -1.5091626954212423 -0.00044993309768583416 0.0026718602685634274 0.4282006360316862 -0.37607966338006027
111889000.0 0.4967259419095751 -0.8596746282007196 -0.9377507075546736 -1.5636991000447336 -0.0008107600759790302 0.001593307079549475 0.4259048932847449 -0.40216669034258673
