! Created with skrf 1.9.0 (http://scikit-rf.org).
# Hz S RI R 50.0 
!freq ReS11 ImS11 ReS21 ImS21 ReS12 ImS12 ReS22 ImS22
1000000.0 0.9896721190250384 0.01632992573467894 0.006424438932632067 -0.04397877443652769 -0.00438913619294154 0.006991320115136385 0.27497246688839744 0.30625691277473094
1999000.0 0.9991594502918822 -0.011633976324265218 0.004438907330462197 -0.01924339259021571 -0.0023416879192848755 -0.0014675224549816162 0.25352424628274794 -0.015084855046189142
2998000.0 1.001225075870592 -0.020564167786159163 0.009856617730206551 -0.01116263826087175 -0.005262513833209548 -0.00422999562687459 0.1946039485874958 -0.14884414465861692
3997000.0 0.9985789985205136 -0.030643007171755426 0.014755813414280623 -0.00805562832350997 0.0018346783171110288 0.002640312305849943 0.09419085064383398 -0.23119430609067984
4996000.0 0.9978662234149477 -0.035739235727694996 0.010210611619530305 0.002370174715651298 0.0023720609807856637 0.0010399831654090152 -0.020150322930336223 -0.21795377677400585
5995000.0 0.9986522930423372 -0.048895250574793464 0.007112004071479386 -0.0018369655176569402 0.0010368835333329747 0.002605507204903284 -0.12495007201709663 -0.11630351021754401
6994000.0 0.9936128528262274 -0.06011190550436594 0.009754511355464875 0.006982161339564333 0.003071801692142242 -0.003316542529133625 -0.1610197672751114 -0.019490534739431017
7993000.0 0.996697179392805 -0.06785031770497846 0.001598752135995396 0.004390752166867331 0.002982393417672436 -0.00039657110393109314 -0.1585452046161038 0.036847184283168466
8992000.0 0.9938528559860651 -0.07488484137595512 0.003288755033151922 0.004079228638164071 0.0023808156495186477 -0.002470464154001652 -0.1604298678549706 0.06942299104789908
9991000.0 0.9927107144591438 -0.08238508429385816 0.0017445532656928829 0.004024745612453077 -0.0008716432281463427 0.004978966700339602 -0.15069066257924688 0.08384073299845105
10990000.0 0.9910641798674275 -0.0953354018227405 0.0019690292383203146 0.0008812530703400251 -0.0012177793737480592 -0.0010172107467844528 -0.15250579223338576 0.1044089444457101
11989000.0 0.9925688484353846 -0.10188903346609282 0.0031687359832278396 -0.00021404547125808852 -0.002362889834982494 0.0004916430359126449 -0.13063177171649049 0.1391687089981463
12988000.0 0.9874338380924722 -0.11125412257965675 -0.0009595113493601517 -0.002259005191811223 -0.008136911403711328 -0.0019988562521233346 -0.12180758218609258 0.14049603044918496
13987000.0 0.9866848722718389 -0.11874709920627562 0.0010046587327067747 -0.007171903783870572 -0.0008118423895907438 0.0005364033947064383 -0.10067123236822327 0.19531263698673773
14986000.0 0.9880646957230952 -0.12798059564491585 -0.0009781020323062976 -0.004517903544521319 0.0007723112794399857 0.00012809337980852997 -0.08421944044940194 0.18772915677283497
15985000.0 0.9875338251814831 -0.13600549809264334 -0.0011696538133262615 -0.006762664313262292 -0.0005218981760865309 0.0008865428257306875 -0.06380321465900075 0.21620897152566884
16984000.0 0.982691987558186 -0.14680491916125257 0.0007209753406909562 -0.0020547617053759686 -0.0022476100751200063 0.002488283996335434 -0.06698638105593537 0.21671198637331768
17983000.0 0.9878371377231352 -0.15013428264378453 -0.0011975316172519353 -0.009067561990451566 -0.00042376423716603104 0.0028515711893577354 -0.06172594138886162 0.22425159685110116
18982000.0 0.981823843878705 -0.16328764955514646 -0.0023520948642514203 -0.0017139408224504402 -0.0008219092480039587 0.00573437536812917 -0.029860267478080904 0.24487339154423754
19981000.0 0.9827113088588332 -0.16727767662769277 -0.0014657391858211577 -0.00761847617051785 0.004099074061450181 -0.0021009685457298775 -0.024969924416977294 0.25108158249981305
20980000.0 0.9795427782503304 -0.1801467943306898 -0.004366518414392785 -0.0031602013993049104 -0.0027007904159647316 0.002314909301772545 -0.0016465616101941525 0.2503629154796601
21979000.0 0.9768598142456215 -0.1878038350247673 -0.0070758701464502 -0.007681484731910546 -0.003330738814693875 -0.002376016161727786 0.015147809981037253 0.24203470210062522
22978000.0 0.9782225763505094 -0.19572753784833602 -0.010042353922632839 -0.006920638516566289 0.0015718474296309596 0.0005739817952919286 0.02369123976060538 0.2590097813775486
23977000.0 0.979452700958965 -0.20371907590893 -0.008664611526541556 -0.004742419995078801 -0.0003924867126114424 0.0031350793716785645 0.0425675150014745 0.2614351019745422
24976000.0 0.9718397460696826 -0.21477224245049645 -0.004431110661650276 -0.002974399575243591 -0.002174567262572086 -0.0006695778806611985 0.05014007869586808 0.2577954759533459
25975000.0 0.9752871593116745 -0.2216435737208831 -0.005923683587118651 -0.001090629297648886 0.009917899602513892 0.02556916713865461 0.07422230732655685 0.2658272304078951
26974000.0 0.9705081003330646 -0.2295206133768952 -0.004970303785574612 -0.0009271861606773931 0.0015542467930068026 -0.0008711610923870909 0.0956024516454464 0.26546604806713053
27973000.0 0.9698257343159703 -0.23553661979295074 -0.003385107185325353 -0.0019514301854943888 -0.00026611396213930747 -0.001683233007879634 0.10041313012781813 0.25345288205687044
28972000.0 0.9651030038628063 -0.2493829072089505 -0.0004639575832798481 0.00043343169231278275 0.0012585080368681314 0.000732036241481474 0.11556800428307687 0.25473612705705234
29971000.0 0.9640905393190954 -0.253640535887732 -0.0014179873538848514 -0.002202957099678211 -0.0012691343455206229 0.0026355864619321337 0.15418102391795446 0.27407582515174733
30970000.0 0.9602405339001555 -0.260379321936563 0.0005913871356351678 -0.001410884569850146 -0.002122445015685449 0.002430246007874922 0.16631749872585236 0.2540954822396024
31969000.0 0.9580279882913754 -0.27129121772622916 0.005193273977222366 -0.006287426507952596 -0.0022687186827008124 0.0015668804361738298 0.15011058059371427 0.2529220055804121
32968000.0 0.9562953350754537 -0.2802370489102498 0.006685733695776399 -0.005521240889198735 -0.0006714685855729606 -0.0036992094177735664 0.15875528323788515 0.2482206073436669
33967000.0 0.9545562820218039 -0.2907615923290258 0.010398133194776739 -0.005964752108451959 0.0007514678228857506 0.0005523800546692018 0.18146925179285467 0.2474586995010309
34966000.0 0.9510537617271472 -0.2996022772320712 0.009988929831342258 -0.011657113531102829 0.0004037323559874614 -0.0011541184115392204 0.18977232773257968 0.25246860927837816
35965000.0 0.949661916578322 -0.30555980307918135 0.018912043372421923 -0.014174604588475543 0.0033455758784262228 -0.0005177640942761569 0.21369360139937232 0.24696733553441066
36964000.0 0.9454095130524033 -0.3155600377361141 0.014173890714055499 -0.01655723777282948 0.003210565777557948 0.00435152833304274 0.227014083006994 0.2494710235808833
37963000.0 0.9438319224370313 -0.32179196667228593 0.0225328676027914 -0.021899047123678097 -0.002451515923225605 0.0018200535488472063 0.2300936755037045 0.23547727210539013
38962000.0 0.9416804126364282 -0.3320421943742787 0.024783310126489298 -0.02308214182142232 -0.0001459567127005127 -0.0009875849184083666 0.23881553243233272 0.23637395611628081
39961000.0 0.937892641146521 -0.34056047635508624 0.024461763120862158 -0.029748298309295405 -0.0010724094941972331 -0.000209764117931629 0.25096691508682184 0.22140732215038408
40960000.0 0.9348448010819486 -0.34813148868502536 0.025800438535147525 -0.02662755274436752 0.002444235402866053 -0.001652570581208628 0.2740168274261438 0.2209044423621013
41959000.0 0.9321495202140297 -0.35825070739463205 0.028832481282213135 -0.031422574557964364 0.0016279057414934292 0.0005444604252034565 0.2660493273194784 0.2101561796684862
42958000.0 0.9270849537826298 -0.3657134472054032 0.030968787952830527 -0.041210305749079544 -0.004873978227385207 0.004455088637858392 0.2854126299997708 0.20921532531249695
43957000.0 0.9254454743690184 -0.371791241975793 0.03506487674966071 -0.045412668864878485 -0.0009543738301691563 0.0028974739047517325 0.2862361885169811 0.20364211642799052
44956000.0 0.9207002848085309 -0.3804618571440376 0.03655493709761111 -0.05520998365630708 -0.0018667618378655733 0.0029923842288029703 0.29951115379194804 0.198587743499482
45955000.0 0.9169478881915847 -0.39225474848112823 0.03715820395171191 -0.05999111266156831 -0.00041905280526416004 0.0007532901720175552 0.30841746225798095 0.1951023882999562
46954000.0 0.9140210883474699 -0.40025271629447656 0.03726671418572849 -0.06535894770373236 -0.0012279854839126539 -0.0008425910944822555 0.32586594295869764 0.18356167731756756
47953000.0 0.910359535338293 -0.4065115652335704 0.03548002599311878 -0.07263393847870027 0.00017280603745721814 -0.002670831809522184 0.33564079370543426 0.17998101818187978
48952000.0 0.9043570522039908 -0.4186156403132928 0.03973247638552335 -0.07959518431440327 0.0004928081233613431 -0.00213695294331861 0.3401654101469588 0.1570414815408697
49951000.0 0.9020237282883639 -0.4259498187647928 0.04135047720556157 -0.08842813645979618 -0.0031149307204288083 0.00040909043622390593 0.35753258107052494 0.14173976968038476
50950000.0 0.8979139815101308 -0.4330929428039948 0.03997057590848061 -0.09698775598179592 0.0015917643519500649 -0.001397579370218733 0.3460685365098572 0.1398563384152668
51949000.0 0.8916741925813988 -0.44170649902996734 0.04472831623209016 -0.10577261312306765 0.0016139008306517589 -0.001142078945660747 0.35805386125135275 0.14922959703757513
52948000.0 0.8911359543514851 -0.4495430278650396 0.04426526448610124 -0.11267453583958313 0.0016838421567192527 0.0004694991697533189 0.36806491527898444 0.14151201807858585
53947000.0 0.8850815519016385 -0.45746091326296606 0.04874876126135698 -0.12421017148157884 0.0010819824379340206 0.0006463434167123178 0.3746753921336387 0.13622122282340618
54946000.0 0.8798728685484779 -0.4676802085787606 0.0491071475317109 -0.13055038857662885 -0.0010350885255618486 -0.0018831074835893458 0.3847506033898962 0.12194547703425014
55945000.0 0.8772080111017182 -0.4740635815805383 0.04895747303795055 -0.14532668353550338 0.0012981738521468842 -0.002298189188927256 0.3919193922745038 0.10703428953972477
56944000.0 0.8742115824172076 -0.4827415066188133 0.055149105597244834 -0.15470513628249044 0.004255513146444165 -0.0007978882568636334 0.40297474822153423 0.1039217838784587
57943000.0 0.8681681160234234 -0.49315827702304643 0.04817169859545865 -0.1679524350504877 -0.0009095710509732208 -0.0015074929304747901 0.39945824612930425 0.0996130821311146
58942000.0 0.8642360283395362 -0.4967401722197474 0.053792352518024854 -0.17912878129808327 0.001474208402618782 -0.002036017831564395 0.4198233622938447 0.09774301125221808
59941000.0 0.8596690572712102 -0.5081486544904243 0.05483983121689958 -0.18516772721265973 0.0013703266217652806 0.00036678476150237477 0.4194283306508265 0.09281977878502481
60940000.0 0.8523710344653299 -0.513422971746983 0.054367262592046 -0.19210260990524702 0.0020832166004442253 -0.000558493780680327 0.41332557627040695 0.07209869181736958
61939000.0 0.8489910908666491 -0.5210175738447382 0.05421054689650558 -0.2026546441042538 -0.0008500955118701091 -0.0005602700702083748 0.4167035855401914 0.0696345642878479
62938000.0 0.8426959601173792 -0.5324347989414747 0.05983478501231429 -0.2172443424522952 0.00035182720782272494 0.0005675069509606601 0.44612529772556936 0.07062050853846992
63937000.0 0.8394132714908017 -0.5383072210830072 0.058911801543006306 -0.238175656168651 9.018766671738216e-06 0.001492184587615326 0.4320817740370098 0.05043137133442243
64936000.0 0.8305578628787388 -0.5449422454575366 0.05884021917972347 -0.2543956505448395 -0.0006684322546316 -0.003502354670644325 0.43628079640895656 0.0481336486879668
65935000.0 0.8291349604558336 -0.5550197034195302 0.06149022459161097 -0.2671147049227415 -0.0014090693167518123 -0.0008023418080828029 0.4413291798159272 0.02740835490887749
66934000.0 0.8240425034820211 -0.5617645228341526 0.05752011396876866 -0.2840022495114781 0.0008799811722057561 0.0028080597056799527 0.43930800269911807 0.026945846265473913
67933000.0 0.8204113931920364 -0.5680437211858801 0.05770512057815262 -0.29695348137555294 0.006150668711361391 -0.0005821964603808591 0.44155773852614194 0.007701844174561274
68932000.0 0.8034414421225451 -0.564636514714595 0.05304685553871657 -0.3079065537455553 0.0025919876372911665 0.0009520469921168585 0.4595675783449604 -0.005471165154580623
69931000.0 0.805416910251862 -0.5858095610506403 0.0532936452106805 -0.32971113404420865 0.0019837462875576277 -0.0013968471150420613 0.4550828097316783 -0.013344102345647217
70930000.0 0.8004968619096332 -0.5945643284438024 0.05227280719518385 -0.34392036571239154 -0.0016542520061315633 0.0009968412389190662 0.4494509457825475 -0.01927341660768826
71929000.0 0.7971097297156562 -0.6010670990876421 0.04879270454192165 -0.3661484519709659 -0.0011287017268482272 0.002051065998800094 0.44942842854494236 -0.040136293653420814
72928000.0 0.789018422815785 -0.6084703338029643 0.04306309608343976 -0.3786759302588408 -0.0014661270064526973 0.0017172944122223345 0.4645431101259542 -0.04626262462502133
73927000.0 0.784389202610004 -0.614090497755699 0.03454340466222208 -0.40217345232885604 -7.042778779427091e-05 -0.002671303140329716 0.46040664826660666 -0.044748911825307665
74926000.0 0.778803198931779 -0.6272671263230903 0.02703375915819827 -0.42329118624172524 0.0005197147806767693 -0.0007076543001318494 0.46989149374862504 -0.0568254479053695
75925000.0 0.7713516233748503 -0.6300849396025772 0.017125641130402318 -0.4429484138081123 0.0006478789316013402 0.0037732226232264784 0.4676010798376597 -0.06609925341230875
76924000.0 0.7656517789966308 -0.640373736997618 0.004727564303875298 -0.4672707549801964 0.001447060102109061 0.0003128860935358328 0.473239557991981 -0.07767856601118753
77923000.0 0.7607825496469656 -0.6432414163109078 -0.010605985807324043 -0.4910702704727857 -0.001158014188067671 -0.0009809820051738833 0.47332377451081825 -0.08538414338056043
78922000.0 0.7528667409012135 -0.6545762469313907 -0.019338357140330317 -0.5228802963635875 -0.0008098190692065137 0.0005949168886958041 0.4652705928840098 -0.10365393786230208
79921000.0 0.7435781262355933 -0.660582918204796 -0.04303755654252122 -0.5465096429338546 0.0007150068706320983 0.000499709401767561 0.4614619921826691 -0.09809538172514648
80920000.0 0.7377607173122473 -0.6696420617672686 -0.05640354467488113 -0.5734791021808106 0.0012063435754458946 0.003942219587970768 0.47072410862307545 -0.1308385469080539
81919000.0 0.7345139895993694 -0.6762898430228105 -0.07466116860657841 -0.6040603667981372 0.001632755523807034 0.0031327450634352004 0.46978012969681543 -0.12536466596311457
82918000.0 0.7257657874911572 -0.6817612068028954 -0.08805025549447298 -0.6370690311099402 0.0032845050105862416 0.0009052778772564104 0.48016991499912 -0.1454415930528055
83917000.0 0.7157949671286089 -0.6914423428756398 -0.1113596122549887 -0.6676735871093139 0.004748978264995473 0.0017377367420298691 0.47400336448707336 -0.15388212187234313
84916000.0 0.7118544137651355 -0.6987099924804964 -0.127543201445182 -0.7023664921037405 -0.0009622408405065455 -0.0031841019016610097 0.4734908653160674 -0.15757428268039717
85915000.0 0.7034533244790762 -0.7044564753335266 -0.1447114851840594 -0.7346247612828086 -0.0023671660254508983 -0.0012654037817435972 0.46467609018069744 -0.16633319418378395
86914000.0 0.6979694936145717 -0.7145418716530322 -0.1616950831056247 -0.7743579128267918 -0.0008904993175755323 -0.0035940987343557372 0.46367700942190443 -0.16887736378378
87913000.0 0.6888567414226981 -0.7212955621744126 -0.1778857354984977 -0.8018551538720435 -0.003688394983833421 -0.00035511044634410513 0.4616237554469256 -0.17478954530542454
88912000.0 0.6837083703932559 -0.7269288158542062 -0.19382189752249837 -0.8384035625626707 0.0002719535273324262 0.0021510244790302717 0.47219724900451276 -0.19630380413423013
89911000.0 0.6745564042189455 -0.7357423775508698 -0.21042842016332555 -0.8743786320882773 8.091690333622251e-05 -0.0010702602727001114 0.47240185243294064 -0.19768613338301252
90910000.0 0.6674377228210558 -0.7406343702235559 -0.22888796627224142 -0.9107527001331138 -0.004912061278699867 -0.00013365761273282005 0.47019978511247373 -0.20475064442678448
91909000.0 0.6597555212011678 -0.7451909418005398 -0.25070027910342496 -0.9434020637180444 0.0018993218866586554 0.00030262109997223545 0.46971326955654535 -0.21162241028421394
92908000.0 0.6518961361359498 -0.7541007606388017 -0.26923170973440114 -0.9792709822508228 0.0008602451675424872 -0.0034075039061267115 0.457952114846903 -0.23454958817326643
93907000.0 0.644643493424963 -0.7595347614065202 -0.28581963157139845 -1.014205070108304 -0.006097411429141977 -0.002470672781606014 0.4580606309597574 -0.24682986843927315
94906000.0 0.6338711646401021 -0.7676864550392958 -0.30836645381352296 -1.0495945397144901 0.00014505351738871883 -0.003887834211523578 0.467367617111016 -0.2414126304151686
95905000.0 0.6286473559871426 -0.7727737596763847 -0.32981622426045265 -1.0874037397814018 -0.0021710244572143342 0.001152023420194748 0.4673771874647047 -0.25499635186916353
96904000.0 0.6188945796222041 -0.7819700374657941 -0.35339160467514125 -1.122471005240727 0.00031806086775982174 -0.001054490990810196 0.45310732522479535 -0.2627449777781328
97903000.0 0.6085970698205387 -0.7880072787093114 -0.37716852330384537 -1.154968566370876 -0.0011800927318191092 -0.0012206799130024676 0.45506396913628744 -0.27713405600706675
98902000.0 0.6039769881516652 -0.7932209658406939 -0.39911555492145173 -1.2018855115379092 0.0006965339458596774 0.00180648763693255 0.44853466524849195 -0.2848223818003481
99901000.0 0.5914178881657463 -0.8009811601139998 -0.43052931986842885 -1.228855938569948 0.002523451756372235 0.0006356166630217325 0.461771747533929 -0.30431375836209135
100900000.0 0.5845142028374263 -0.8042331881030079 -0.465966286796797 -1.26153804539253 0.001280654182963056 -0.0004325495100913048 0.468125109969835 -0.305980674415444
101899000.0 0.5752473720271074 -0.8133728722184598 -0.49680828984480657 -1.305180548991778 0.0014718689714051344 0.0036422648981114473 0.453359723062878 -0.2994543383845868
102898000.0 0.5656664105780692 -0.8189346152469824 -0.535922501807546 -1.343743305260473 -0.00029682093582423857 -0.0006005248534918628 0.4488613171714513 -0.32253733674895657
103897000.0 0.5581213562991236 -0.8243584485039422 -0.5740040084035296 -1.3826367317504915 3.3985304005465584e-05 0.000547738094038945 0.4685316870551146 -0.3384634909857903
104896000.0 0.5491001763141311 -0.8345340790439838 -0.6235980648812813 -1.4147793979883652 0.0007771421443040195 -0.002082027557746427 0.44192462308307395 -0.3268650288940116
105895000.0 0.5376849737564606 -0.8371228920131824 -0.671681637197885 -1.4567547252094875 0.0004862259476828145 -0.0013731190184106215 0.4214640637899582 -0.3601166159047011
106894000.0 0.5272536484588877 -0.8434472048609752 -0.7304281088171408 -1.493404327289102 1.3624416527776873e-05 -0.0011233367313990394 0.4344922667453799 -0.3494867522517293
107893000.0 0.5206342717960928 -0.8490047432772988 -0.7809678097955589 -1.536991142005746 -0.003147464263979162 -0.0003401249315634953 0.4305653485618867 -0.36474068558741973
108892000.0 0.5114894011324738 -0.8531749522027373 -0.8433271502119662 -1.579215807518201 -0.001857808997867778 -0.004487806547116478 0.4250925133201959 -0.36167310041129563
109891000.0 0.4982332899224521 -0.8614642828678679 -0.9077134370284787 -1.6142937542894558 0.004029038445814448 -0.00011421813352134846 0.4383287375820579 -0.3617657266999174
110890000.0 0.49555993078185756 -0.8692662614478263 -0.9755567805885063 -1.6384798416665947 -0.0014128265209839325 0.003356532581558749 0.43677739745804794 -0.3820560333534526
111889000.0 0.48011665902661416 -0.8674493006782137 -1.0349528883689696 -1.689630698394394 -0.00011937275017209424 0.003358544020226228 0.4187237122097787 -0.39696133495752756
