! Created with skrf 1.9.0 (http://scikit-rf.org).
# Hz S RI R 50.0 
!freq ReS11 ImS11 ReS21 ImS21 ReS12 ImS12 ReS22 ImS22
1000000.0 0.9939810061029253 0.014269652976032698 -0.010054817712981813 -0.04227023795401094 -0.010178879368485525 0.006440441942904207 0.3249667017210648 0.35993344089919244
1999000.0 0.9980267080681373 -0.008867633918751165 0.006946191518383065 -0.0294330817141587 0.0027102020701872623 0.000544070328212885 0.27055983488056207 -0.0530495988241475
2998000.0 0.9984555772221048 -0.02402681622861294 0.008612973251704537 -0.014027723266939015 -0.00814298207061839 0.0008928189021786352 0.19516409935443707 -0.14215562583018448
3997000.0 0.9965002985138867 -0.03284806745266596 0.01273843353952874 -0.006840746234191802 -0.00471262355700235 0.0026541549259578895 0.08455830231493888 -0.22622354993778918
4996000.0 0.9933279944824723 -0.04344694925353676 0.0135479914623424 0.006562190227835327 -0.004527515770247254 7.898477949203834e-05 -0.054180883086114476 -0.17981575468522998
5995000.0 0.9937306980724594 -0.0465799537898275 0.005880387200072732 0.0034419665447271252 0.002118084451483068 -0.002227186612699005 -0.11943847820223746 -0.10628195232368308
6994000.0 0.9911071630956154 -0.06036023877621155 0.0026944086211506137 0.007301466265502378 0.003886407874710767 -0.0011220302105942337 -0.1361628709131476 -0.008956914133338769
7993000.0 0.9939213158390299 -0.06573213066394012 0.005837553195882479 0.003734609157226797 0.00403930898929654 0.002447041566931008 -0.15515979444601907 0.03019640522577324
8992000.0 0.9896505794723607 -0.07425346372164021 7.60940956255238e-05 0.0027103668597317104 0.0009397434484879163 0.0027661697188374103 -0.15063877265678624 0.05795740092876037
9991000.0 0.9889716938632067 -0.0849134012485056 0.0008706525820809167 0.00026793513863588756 -0.0037744139919048654 -0.0016562861316550285 -0.14538357049073736 0.10206795667771937
10990000.0 0.9893836340289811 -0.09089071851738781 0.0015000740617703097 0.0007968417096594062 -0.0017570356560178439 0.0021777079884782407 -0.13309732937940089 0.1080340021894555
11989000.0 0.9868797507970996 -0.10109635631739998 0.0065318088107684325 -0.004611171822006622 0.00036552838753226843 -0.00015257686308565852 -0.11053469760901297 0.1440474805974893
12988000.0 0.9853758981027424 -0.10951523356690429 -0.002540619804493095 -0.006712034461794535 -0.0009324180309167527 -1.2915876047618665e-05 -0.1115670785894892 0.16481505855657347
13987000.0 0.9827527636477876 -0.11821795010756904 -0.0023943487329475444 -0.0006631827932602652 -0.002137645034084714 0.0012554552128821496 -0.08503686491923272 0.18877080059624732
14986000.0 0.9839701145190086 -0.12475274035647096 0.0002830548094231244 -0.004119420528687432 0.003206889423822326 0.0017291466809315253 -0.0939849135034693 0.19483551055450699
15985000.0 0.9850012297981132 -0.1328773579704408 -0.0029821474387395487 -0.0016210581908491593 0.0014864807062578975 0.0012568797809349237 -0.06191038642538238 0.21239051985411173
16984000.0 0.9809698038142836 -0.14395603865266018 -0.004689907396315039 -0.0037682297180492443 -2.6435691872885665e-06 -0.00042522176044972347 -0.06386308386519689 0.21684822388036024
17983000.0 0.9817109423158296 -0.14769964861964285 -0.00565265059209567 -0.002426431667548144 0.001794581272475081 -0.0015988180312286066 -0.057930321870945316 0.22564253726507036
18982000.0 0.9779009030472039 -0.16063089660604823 -0.0013269733131065218 -0.005405478531573601 0.0030824123672925294 0.0029084811302056033 -0.007063375798309043 0.22822222983420518
19981000.0 0.980199284609208 -0.16495099096579188 -0.0031162653263694636 -0.004635065393677572 -0.0009770538972325832 -0.0019549278367506613 -0.013162816681716222 0.24087297986656606
20980000.0 0.9763868893401318 -0.17488215852310676 -0.004436825217218907 -0.002686883285583949 -0.0007734155199061969 -0.0016538101788392244 -0.010897425409672435 0.2645516197091204
21979000.0 0.9761229567761968 -0.1830392399664488 -0.00503405153407052 -0.008855368566938492 0.0016424946611338816 0.003354233229852494 0.00634485236055206 0.24399084374476596
22978000.0 0.9714872887426113 -0.19249838612707942 -0.006385896766569243 -0.0038166660927726553 -0.0024584300704064343 0.00028552548260604607 0.01720016930766647 0.2688810749713479
23977000.0 0.9740077125901517 -0.19784841779731344 -0.007874446261383285 -0.0005818983890060283 0.002559184542432791 0.002227403863059653 0.0325553411399201 0.26178148444524
24976000.0 0.9721124272519605 -0.20926335091291545 -0.002818479916276295 0.001212002339249875 -0.004196865977697052 0.00014484371575242445 0.07176818516712963 0.24732174039826463
25975000.0 0.9708596513706426 -0.2204716857432596 -0.006605594009217451 -0.0023516572850631376 0.012510787265984185 0.0243636221230606 0.0751239291612358 0.25905526716912675
26974000.0 0.9676463923712075 -0.22624326497597053 -0.003913017602851665 -0.006253489996647713 0.0007427840365847547 0.002120033043323584 0.09264058299646231 0.26198492694511183
27973000.0 0.9658318420297864 -0.23592420385655594 -0.0013956621989701426 0.0005539835935493275 0.0005785213594858247 -0.001860681594529992 0.10696778599023266 0.2575643684699959
28972000.0 0.9648882615172956 -0.242978348307274 -0.004104346666142526 -0.0007228801859096251 -0.001074791026141007 0.0011631599772287393 0.11999871917353751 0.24987977631195063
29971000.0 0.9624058757985655 -0.25392241320607406 -0.002802882759985933 -0.0014904632960840187 -0.0003461107912298278 0.0016620056043859367 0.152877288620265 0.2613415113393129
30970000.0 0.9590358786424673 -0.2582204827322395 -0.0007109661144523266 0.0005994371278170557 0.0021682480973394523 -0.0003308062290720153 0.17253460138618842 0.25395981901377446
31969000.0 0.958040874758279 -0.2676209699227463 0.007039158455534855 -0.007011113173039795 -0.0021024290063123515 0.0015641929044770846 0.1584099620981633 0.2424139193777009
32968000.0 0.9573027841459157 -0.2753443858960596 0.008017131816560899 -0.004725879305281393 -0.0013803642976516017 1.5673381696359897e-05 0.16332592754054015 0.2362705874416497
33967000.0 0.953350055634988 -0.2850394392461602 0.01142167087916585 -0.011715750206368126 -0.0016010377522522328 0.0034094184410780556 0.17850159406602886 0.24985006806660398
34966000.0 0.9496452598065303 -0.29627317910500767 0.011316875147041366 -0.009218920624253007 0.0014358738684495536 -4.407541837253044e-05 0.1875482265873027 0.2460432756609247
35965000.0 0.9471090269764448 -0.3012527688698179 0.01838725129503119 -0.012897922813126681 0.000903997685201698 0.0007626792365758828 0.21029069901381378 0.2544382307521446
36964000.0 0.9439283800624874 -0.3122301581487743 0.01782926599239331 -0.014290279091133503 -0.001712641789163717 -0.0017285553472510223 0.2114670721984042 0.25821224545872123
37963000.0 0.9423069388244136 -0.32034489480771 0.019316759046482734 -0.019038568589579617 -0.0032752705348785887 0.0019712086608363213 0.2272708678416175 0.23731794125079975
38962000.0 0.9396991443963497 -0.3288063480922597 0.025395713333451805 -0.024503950585673697 -0.0016346081694525348 -0.0021550554512956353 0.23850477126497666 0.2270475697047673
39961000.0 0.9364999663192098 -0.33872644205186997 0.026359763432529944 -0.028580882557770273 -0.004023657947565756 0.0023485673368227986 0.2560328332367132 0.23179007290818435
40960000.0 0.9325845438113272 -0.3466555381199308 0.024239834692151734 -0.025038354403937115 0.00195382668377608 0.0008649280250798702 0.2711977739472945 0.22252774962919147
41959000.0 0.930269901650586 -0.3565911399642582 0.028889920666155696 -0.03404624264618976 0.004358274949690361 0.0002003918038322144 0.27698539187864696 0.21801706924649822
42958000.0 0.9262377783377731 -0.3642877649947995 0.034826736698669085 -0.03927332130812947 0.0016553849537654576 0.0013909943192000943 0.28472464592184604 0.2050169514715292
43957000.0 0.9230519082004378 -0.37109104700535495 0.03343928608202003 -0.045284771870075936 0.0005590067599499613 0.006068458542915675 0.28340159672749066 0.2066435184981826
44956000.0 0.9187985828850678 -0.3801287463602184 0.03562050890498279 -0.05098976394012863 -0.0005732419226087434 -0.0002064322717232734 0.30507027410281884 0.19752131517593483
45955000.0 0.9164107969080502 -0.39002966265061495 0.03680403595148235 -0.058662197330325044 -0.0006169420457492 0.00010959009582892066 0.2933855987074969 0.1873831326882001
46954000.0 0.9116119073074758 -0.3968715930023541 0.03575973545083237 -0.0671457903444176 -0.002849005531241343 -0.0021976660095328945 0.3254353893835895 0.17808590215609854
47953000.0 0.9106856787360397 -0.4047577512513858 0.037696206974445354 -0.07127870261066609 -0.0006364131518340406 0.0041922269253409535 0.3367839996107058 0.16551963117170151
48952000.0 0.904296107859195 -0.41398695737029084 0.03893845379208927 -0.07960096541431724 -0.0018550062578289196 0.001327377452729836 0.3354562750671512 0.1626116153633308
49951000.0 0.9007255688601026 -0.42290003269052195 0.03942267159365532 -0.08481039822538745 -0.0035347001524401634 0.0034240071124837764 0.3479483862662137 0.15824503296071488
50950000.0 0.8963470003658104 -0.4313381043232952 0.04109946382085511 -0.09596992011030446 -0.0021299885376962363 0.0008827397676453968 0.3494765553653801 0.14458673052167834
51949000.0 0.8922569829086056 -0.439534437236529 0.04414107257051253 -0.1037299041565389 0.00035739945928425917 0.0001790961353332874 0.35480108357672036 0.1439365598754712
52948000.0 0.8886418934134857 -0.44827014725887704 0.045689350295994 -0.11341362886218725 0.0012783975059182213 0.00429532689727593 0.3614690485126949 0.14309398476640106
53947000.0 0.8847071352955154 -0.45488381078051426 0.04413118763687271 -0.12303591405134165 0.0013249964899163416 0.0006831115134693412 0.3701076114854398 0.12612929981785667
54946000.0 0.8782612003347169 -0.46591077065423425 0.04707207986148687 -0.13389692671889 -0.00026347320938559276 -0.0020600051015558325 0.38122469453705804 0.11901456987750195
55945000.0 0.8752072830733628 -0.4713065989261581 0.04840743529209617 -0.14141085790504745 0.0037284259420295035 0.0002684020258370213 0.37955252508250403 0.10670350872794748
56944000.0 0.8718488877807226 -0.48037706417825266 0.05544075219117409 -0.15218177891100113 0.0010575046289060456 -0.00640281252082382 0.39482712470744524 0.10530630525159217
57943000.0 0.8657254501955742 -0.4926564566832249 0.05346781941751237 -0.1658126939614283 0.002823844847012575 -0.0013799454320010361 0.39942786043749023 0.0910278961372218
58942000.0 0.8601798424947128 -0.4968567243207754 0.05029803979400009 -0.17468426383533 0.0007779803971557662 -0.0025943498956203567 0.4200865055259175 0.08882413706320666
59941000.0 0.8587200926377545 -0.5038319794824523 0.05544442821882166 -0.18520235531204224 0.0030628489354552623 -0.002369786553316684 0.4066033314184856 0.07899706227594255
60940000.0 0.8495893551238445 -0.5123008037376577 0.05509620360758964 -0.18934910199607768 0.001262468212851709 0.000518223250451012 0.40316616103005803 0.0781193593272199
61939000.0 0.846487934428703 -0.5184325454411867 0.057227272606694045 -0.19746087289255337 -0.0006685063800319207 -0.0011196839619989282 0.40885600907573955 0.06543678370227873
62938000.0 0.8408811066219615 -0.5295944130891352 0.06129393892800592 -0.2174939513670435 3.174780995779329e-05 0.004990602807078908 0.4388441658752054 0.05400829178279234
63937000.0 0.8363424082354084 -0.5360174307287006 0.061056140414560235 -0.23525603115609492 0.0008459469237839456 0.0002901811306640724 0.42915766630376356 0.041473015390703194
64936000.0 0.8287449999997742 -0.5446184041660492 0.05990674461655811 -0.24750942570879297 -0.00047788040994011866 0.0013888747471476556 0.43515163967837706 0.0475671637651427
65935000.0 0.8256850700575457 -0.5531395437880624 0.057167549846385335 -0.2625426494323752 -0.0007418923322748186 0.0025229591250378654 0.43480571550648756 0.02681564990335844
66934000.0 0.8211298840621183 -0.5589325028633887 0.061753682350209914 -0.2761972787415353 -0.0010411403372021081 -0.0026889666545070207 0.4344246773907369 0.003783899396670918
67933000.0 0.8175781400029511 -0.5673434723968495 0.05900485438603624 -0.2912422467210632 -0.0029407659442994534 -0.0013837643222921103 0.4437182254424195 0.01201130194609049
68932000.0 0.8115057430731708 -0.5723497385657312 0.055529595346259765 -0.30800314467701567 -0.0018197758903244741 0.0008337529938523566 0.44563620303455104 -0.0078004260267277
69931000.0 0.8016818485328574 -0.5846509178979714 0.05145235646853254 -0.32350751080790235 -0.0018534754213675496 0.001914632874910066 0.4497862670594081 -0.015991656524662546
70930000.0 0.798171007272027 -0.5882828775600712 0.050308006741276536 -0.3368072914026205 -0.0015064215291366694 -0.005067709279896938 0.4551685615722885 -0.03840444675169525
71929000.0 0.7952688761980407 -0.5976779121163049 0.049152377194488055 -0.35834342559413696 -0.003396570134460849 0.0012265654189600366 0.4362139176660701 -0.04523975375340845
72928000.0 0.7872073988737798 -0.6087000146282057 0.03895767122494297 -0.3743732858851054 -0.0003017215237227126 -0.0004118883087044892 0.45658014193258273 -0.04007881663064155
73927000.0 0.7795389928739234 -0.6128868908780063 0.03405242000660639 -0.3961965636348689 -0.0028418258172113135 0.0007573373359839394 0.46385256074446246 -0.05465463517117986
74926000.0 0.7750835692338373 -0.6235097513204869 0.026033281403071925 -0.41493517586581036 0.0011966564700728259 -0.004625420310169537 0.46011743542225775 -0.06501232054837365
75925000.0 0.7689217275077298 -0.6280461087918057 0.01780819885650091 -0.43270349182497625 0.0009312147584561591 -0.003707881468923924 0.4702054605053252 -0.0728276172957421
76924000.0 0.7641608275333551 -0.6331008183445491 0.0032624287693733744 -0.4590979394093212 0.003166238037154127 -0.0007135126878250878 0.4668123158342472 -0.08882649439478639
77923000.0 0.7559948449904323 -0.642999974554348 -0.006458266202200652 -0.483143257363343 9.311614264019316e-05 -0.004297441012302997 0.4531123630430579 -0.09274479141459156
78922000.0 0.7500121006971496 -0.6515614873546843 -0.018821921644129314 -0.5107030378716992 -0.0022894623712853292 0.0017603569547306477 0.4542781575611931 -0.09611402336187894
79921000.0 0.7429845865931851 -0.6565610329885211 -0.04172883526564474 -0.536666910647063 0.0002591572918956415 -0.004792596732033827 0.4590419210607886 -0.11216301307392161
80920000.0 0.7377175949357135 -0.6671298471146877 -0.057929135946365 -0.5655110584891401 -0.00261951861796621 -0.00327934742706966 0.4648635636020622 -0.13740539699441012
81919000.0 0.7314343889901667 -0.6718449037557565 -0.06977955875520478 -0.5932226364426166 -0.002859614294406908 -0.00019169648631607784 0.45902061166729946 -0.13302399477003496
82918000.0 0.7228230195428411 -0.6791785088332593 -0.07889535950090866 -0.6238136788570946 0.0030508076639591494 0.003044755512356964 0.4675980715372996 -0.13750114143016554
83917000.0 0.714040785755916 -0.687011337040426 -0.10630155812167937 -0.6540235018207704 -0.0008069882760063413 0.0012977198904283286 0.4797076925316327 -0.15372693630582948
84916000.0 0.7091066706845653 -0.6940417964731312 -0.12062636954184164 -0.690354473438215 -0.0007578460339003186 -0.002957836250860003 0.46070641858965156 -0.16387781327042644
85915000.0 0.7033563546609131 -0.6987841652349543 -0.13637141390440363 -0.7230227588241699 -0.001851630227237932 -0.0019031739701821282 0.46674335707043535 -0.1773293813687401
86914000.0 0.6944797621593193 -0.7115088292250037 -0.15190809051986348 -0.7571486541522802 -0.004659891632501392 0.0011676740409221707 0.46088528904402953 -0.1733876500642458
87913000.0 0.6881510393706516 -0.716076717415873 -0.17026015309813264 -0.7851434642490507 0.004497883957797372 -0.0011237896736440703 0.45417701813356187 -0.18504816141022914
88912000.0 0.6796298517363845 -0.7223596052478157 -0.18993298295201982 -0.8177827041793851 0.004077500092157339 0.000954194499508824 0.46111862274558224 -0.2052839117179362
89911000.0 0.6746988936470251 -0.7326530820384778 -0.19997405100398125 -0.8610449436458338 0.001725287415417588 0.0008112693983324528 0.46870352651270847 -0.20734777358474527
90910000.0 0.6663051055261023 -0.7364845284117308 -0.22049911717271686 -0.8966449259718434 -0.00206744007250022 0.0005879250089843817 0.46096451397581684 -0.21704549831092776
91909000.0 0.6570340874150199 -0.7412302590124825 -0.24041922578373068 -0.928949439193841 0.000576210323693416 -0.0007523885698434878 0.4692846336975233 -0.2158656382182708
92908000.0 0.6507005247021826 -0.7500778083274457 -0.2570911937942512 -0.9582916481882991 0.0011023301946995387 0.0032767645104971577 0.44767405434508245 -0.23594248347475733
93907000.0 0.6427443126264409 -0.7547584220870702 -0.2786237725772284 -0.992240209755094 0.00015340580998048642 -0.0016981533193337493 0.468150506462098 -0.252657692762918
94906000.0 0.6321789953862206 -0.7638931129487088 -0.29231297165045667 -1.0260017575885918 -0.0003259409137487851 -4.471170943614421e-06 0.4642487296845853 -0.25870451056803956
95905000.0 0.6236350891718111 -0.7694686541755078 -0.3229808499604125 -1.056438379664356 -0.0004280595000258967 -0.0022797364819850514 0.4576530045590088 -0.2620352185262734
96904000.0 0.6179316082864587 -0.7796388130650698 -0.3404309863700341 -1.1024531786316938 -0.0007052433406387142 -0.004002504448390376 0.46083740155453784 -0.2714302463368105
97903000.0 0.6074037156845832 -0.7833708099122421 -0.3630804230236414 -1.1352593008722605 0.004675927730853755 -0.0025442762095206667 0.43849626985065576 -0.28685512104032734
98902000.0 0.6025646945521014 -0.7910984975161645 -0.3851729748380017 -1.1755819246034895 0.0010813619578379297 0.00103376691252957 0.4454191761243433 -0.2936766331813126
99901000.0 0.5924989742857778 -0.7961261718749744 -0.41907021213673445 -1.209894449862744 -3.623536484260106e-05 -0.0017935205115857259 0.46642751036597385 -0.31746822868406743
100900000.0 0.5847210165151528 -0.7995838241569714 -0.4482223296659426 -1.2402512366524112 -0.0010908353086295788 0.00341755496088227 0.46237576569185757 -0.3175390144940751
101899000.0 0.5755898873282281 -0.8071803601862956 -0.4789823594792353 -1.280055138595094 -0.00010942470112090253 -0.00021294850026614686 0.4502469878035338 -0.33210758343320695
102898000.0 0.5644137982144009 -0.8145045052860013 -0.5194244475988924 -1.3169286351650138 -0.00016536768054006433 -7.227036749629292e-05 0.45721849655644015 -0.3348153347424047
103897000.0 0.5575369852912243 -0.8221204968679307 -0.5574608747644013 -1.3535885776198424 0.0007951124687606113 -0.001741870740745537 0.457798215180593 -0.33590190036298323
104896000.0 0.5491334965594763 -0.8310740017672095 -0.6041058524717992 -1.3873972216799775 -0.0002466810116420976 0.0015557425075838356 0.4403292688959842 -0.33749912340260685
105895000.0 0.540564415401395 -0.8317236267100676 -0.6480489160396103 -1.4307661797585538 0.0035287258728143893 -0.001534070701705214 0.431235424171124 -0.3500029065307184
106894000.0 0.5315349123465952 -0.8387528162400991 -0.701308646370304 -1.4728059277685746 -0.00013975133176337155 0.0023302561916689257 0.4243796290860749 -0.3614015397266114
107893000.0 0.5219234872270887 -0.8443873278127253 -0.7566465894235221 -1.515269374499053 -0.0006896238739697141 -0.002571085323059312 0.43878723972926337 -0.37465688826948584
108892000.0 0.5113613192929436 -0.8482098688154837 -0.8207267731176059 -1.550220886321676 0.0007459226878701016 0.0011795240328156284 0.42637701707268594 -0.3692925488893574
109891000.0 0.4978946035447902 -0.8556293110138151 -0.8794786293406431 -1.5881647639754208 0.0017913141809997916 0.001214756657241707 0.44612357870017194 -0.3802105718319146
110890000.0 0.48107711758752436 -0.8646085105981084 -0.9565466895237994 -1.5878255729648203 -0.0009376300121970554 8.092850024156916e-05 0.42483411812585453 -0.3796906277237134
111889000.0 0.4809065362489609 -0.8627688953567039 -1.0115181738081853 -1.657554505455478 -0.0001543202019410095 0.0035771305953283127 0.4246902948803232 -0.3995659079043957
