! Created with skrf 1.9.0 (http://scikit-rf.org).
# Hz S RI R 50.0 
!freq ReS11 ImS11 ReS21 ImS21 ReS12 ImS12 ReS22 ImS22
1000000.0 0.9871530237519938 0.010950701618417127 0.003663942370846706 -0.039861737515617834 -0.009414581037343417 -0.0007887315076562882 0.3085279546741317 0.2626052145514193
1999000.0 0.9916220745813377 -0.009175144686271368 -0.0036154323839626174 -0.02180059928092332 -0.00785371361369618 0.00017429064195267937 0.22558170824818294 -0.09461634450580761
2998000.0 1.0017167874822939 -0.020940441168062974 0.009868098424083876 -0.014426704190669931 -0.004040403818732197 -0.0022837383726631824 0.17631941201055995 -0.15605437082392282
3997000.0 1.0019087575434373 -0.03021273919153307 0.010216059080680599 -0.007926107578284785 0.0022785481949901304 -0.005993506509040198 0.10260137356646669 -0.23351816228994768
4996000.0 0.9994513566780704 -0.034115722958402345 0.013540211503249681 0.0031007288283990643 -0.006642513772404641 -0.002573208162647296 -0.03978834394675803 -0.20884715700151268
5995000.0 1.0021556402184395 -0.04746269325080333 0.009271620213342241 -0.0015699178782482813 0.004541403399921858 0.001681442080143764 -0.11302830398493131 -0.12165581052415851
6994000.0 0.9995848484024427 -0.058215915861779266 0.0035180924003869354 -0.0008551000987929359 0.0003925574095547181 -0.003034836967991475 -0.1432564794002878 -0.02280958742119032
7993000.0 0.9991566211728202 -0.06713483158333995 0.004639880359900482 0.004747687522258576 -0.0006741739958389431 0.001793905679124617 -0.16836973258141558 0.04085896245957064
8992000.0 1.0007561062057722 -0.07132365209459973 0.004052991965802413 0.002821541836858191 -0.004105609499510981 -0.010126387334584095 -0.1587785406909757 0.06376856422097156
9991000.0 0.9948868250746487 -0.08145658536990998 -0.0008411533326337169 0.0018604689163904866 -0.001545077812922321 0.0032152812709645134 -0.14191860826389097 0.08385399231044555
10990000.0 0.9957698611298056 -0.09149636532413563 0.0056786851899815445 0.005689954872552529 -0.0028659614740730423 0.0009741545386790922 -0.14035308544892364 0.10787097968391286
11989000.0 0.9962162147412317 -0.1000200583215794 0.0028730149175402522 -0.0008144973562726748 0.00031888196134010406 -0.0020534739474285736 -0.12744282073383512 0.14056948306230468
12988000.0 0.9929781459309305 -0.11085215254821071 -0.002121731481083022 -0.0006523924254666412 -0.002990463418390333 -0.00224788629669501 -0.10108829055389756 0.17725456491253136
13987000.0 0.9921736062030909 -0.11742773677438331 -0.002205409587857428 -0.005217200865817468 -0.0018252243278898345 -0.00025557465742929677 -0.08436106221252776 0.18108841489000344
14986000.0 0.9901248334414307 -0.12486188290899417 7.931087970657635e-05 -0.002371449771516894 0.001027245140262025 0.0005480513225347172 -0.08914598813273432 0.20725423801613416
15985000.0 0.9932348568138888 -0.1322214791170249 -0.0027032954582693063 -0.004643021521014148 -0.0005806445909636778 -0.00166405323184495 -0.06904945113180555 0.22207372035656628
16984000.0 0.9909475501611014 -0.14302855644489865 -0.0025879131661924507 -0.010523375380677427 -0.0006815711592443119 -0.00029277440776195716 -0.059010493988281294 0.2099559754864553
17983000.0 0.9887898108206212 -0.1500184750533081 -0.001315012615897804 -0.007627285405341118 -0.00180181857802386 0.0013360259622807018 -0.048851693515292595 0.2269296760921716
18982000.0 0.9845944199346128 -0.16282110169023956 -0.0037400282474822143 -0.006557661976751708 -0.0023409819621964473 -0.0007796018789323633 -0.02505769416200075 0.23105016264416184
19981000.0 0.9846542891730783 -0.1671246471321924 -0.0029893273263743515 -0.003540199744123426 -0.002622267519588671 -0.0010384275348113035 -0.009145635884479784 0.23971561778166522
20980000.0 0.9849129057320668 -0.1770016858434316 -0.004787679425129201 -0.0024065910964462833 -0.0027565318304645465 0.0026547040561493438 -0.002015090642341581 0.2519289537489947
21979000.0 0.9826129312055242 -0.18310599885500148 -0.006549295052596474 -0.002133395749839994 -1.3780990451069398e-06 0.0007161305212793698 0.01991139204761667 0.2448763050874586
22978000.0 0.9791516309450814 -0.19568755801682186 -0.005019673452900399 -0.0004919329112348352 8.249107002758579e-05 0.0033261505813138867 0.023063802840608535 0.24318209925594758
23977000.0 0.9829269970379833 -0.19814757152913157 -0.007218267751340741 -0.007427370775809855 0.0017681457297115514 0.0011341655163611723 0.04090404372389606 0.2551911003642635
24976000.0 0.9763051227044967 -0.21146220869450297 -0.004873201010944322 -0.00012210652625917605 0.0004989689638173284 0.001383087669786721 0.07383740703114137 0.2545121263303726
25975000.0 0.9777458339289405 -0.22190755932279715 -0.0062336090145588075 -0.004365346706976568 0.010804322532743415 0.026509636019916474 0.07120700671247286 0.2547811054274038
26974000.0 0.9731641110963406 -0.22642092653080748 -0.004817126294008596 -0.005011981762493855 -0.000610210395589223 -0.0007223340584001588 0.08577538210030326 0.2686228862133437
27973000.0 0.9720801005956259 -0.23426900339139586 -0.0034905126768779928 0.0010648748742242112 0.0016774976494717644 0.0008415611711442646 0.10329399950620398 0.25567949340925317
28972000.0 0.9686377758684477 -0.24557472354586254 -0.003113315416029328 -0.0005589271395943595 -0.0007591127336125005 0.0008573194123454554 0.10775645010058629 0.24623195819738722
29971000.0 0.9666894868470722 -0.2513510046217127 -0.0026809275464852473 -0.002126954687551334 -0.0009216951997231974 0.004141548448473253 0.13940098816379953 0.25817674853471256
30970000.0 0.9662511300829897 -0.2575803541564176 0.0017199660418894208 0.0006843908562482692 0.0023489267837480824 0.0011490451605967835 0.16322602250474477 0.2534307638099222
31969000.0 0.9629004748884844 -0.2681218924827497 0.006640451930194174 -0.002385186331920522 0.00010424779573000078 0.0007777712701883736 0.14978185466842636 0.2554243385996848
32968000.0 0.9615914120548822 -0.2766456729379618 0.007361329877679845 -0.004547107787250928 0.0013106197406762142 0.0016392347191143226 0.1590355902983822 0.24904456013421594
33967000.0 0.9590335532617243 -0.2874694282792366 0.00990603337412819 -0.006937295882435639 -0.002075500758126293 -0.0023383291630386816 0.19023220515009112 0.24362056409247074
34966000.0 0.9548212431372073 -0.29498113588146246 0.012584086747810648 -0.011355875526509457 -0.0008505178124407228 -0.0005725485708287531 0.2003189425361011 0.25260674338825206
35965000.0 0.9529877713403042 -0.3027688403350651 0.015237144270369138 -0.015363627470879295 0.0032713620327072157 -0.003390368779493127 0.20514164989683248 0.2585152891467068
36964000.0 0.9507279279153726 -0.3116672974114253 0.016561213363988646 -0.01678013897923506 -0.0017835435397858894 -0.0015581990672850561 0.2153035072251392 0.24498635296798563
37963000.0 0.9462077570709463 -0.31911770333807726 0.0200780510979769 -0.019137907778203674 -0.0003563710650407917 -0.0019076371474215667 0.23175076002022238 0.2388716089995822
38962000.0 0.9441168876924635 -0.32879202469326474 0.02574005737935285 -0.025667683958776312 0.0010092840617745068 -0.00266379197866349 0.23648460230101817 0.23149789466759577
39961000.0 0.9421571333493652 -0.33723353270383166 0.024929392356790595 -0.028831994810300427 0.0038223671946063004 -0.002952938907630424 0.25399693475042673 0.22067605269803853
40960000.0 0.9394305398268463 -0.34131224456594006 0.023612813980361323 -0.025450389287962824 -0.0005990242176975618 -0.0019043245400983582 0.27833670537745886 0.2277341398311234
41959000.0 0.9351761410190071 -0.3533528383836731 0.029301266528120613 -0.033211878923783265 -0.0013169141052257933 -0.00017553400020038238 0.266530686217895 0.2111808764642717
42958000.0 0.9304134149728333 -0.3630747433691723 0.029611298433802467 -0.04053549168450147 -0.002274003717892603 -0.0018003287799762074 0.28066677314303484 0.20152899398963967
43957000.0 0.9283570227250174 -0.36872640607521123 0.031022793038295332 -0.04448241164497598 -0.003375177571164204 0.0011554781686860661 0.2915440325445899 0.21503688670467475
44956000.0 0.9258940188719771 -0.3755926922533223 0.02998461786669542 -0.051771972616834395 0.0033747867192987467 -0.0024529241258026725 0.30359534799536764 0.2004629223885844
45955000.0 0.9207587951435725 -0.3873523261137806 0.034662226079228184 -0.05605343067504855 0.001195167079708915 0.0011859798786573337 0.3110347585564623 0.18898411052446495
46954000.0 0.9175604442948859 -0.39278922237043573 0.035038874870849425 -0.06519787063942316 0.0010347603333747699 0.0018726815049479543 0.3313805662841185 0.17554649217576787
47953000.0 0.9166617084430635 -0.40187231307001486 0.0341125222658889 -0.07034714387350231 0.0005126394074302757 0.00227374887099555 0.3321335427406161 0.16546764533154926
48952000.0 0.9095500350002714 -0.41264353836090173 0.03735531025098273 -0.0795051340477005 0.001970279313642996 -0.00013469923545248472 0.34693904182269675 0.17075674924625697
49951000.0 0.9072002224820875 -0.4192114454764457 0.034298530174076546 -0.08526162951661176 0.0014196423513037704 0.0010335233151838917 0.36111803094280764 0.15910543514283038
50950000.0 0.9040982391757647 -0.42819509543113843 0.037931736293194976 -0.09459806882629009 -0.00036053067373800535 -0.0011251288880546175 0.358960069266395 0.13987801823826682
51949000.0 0.9001721544798449 -0.43501038341528614 0.03825999698129488 -0.10691030424870798 -0.0013703055703647752 0.0009265118466874931 0.36197347380552747 0.13989061426399957
52948000.0 0.8966556984076861 -0.44435830647240604 0.038158903532477105 -0.11583149819375171 0.0003741996112007954 0.0007256692640192044 0.3686303295385477 0.13998281736092386
53947000.0 0.8929044442349714 -0.4486417218521221 0.039326041776969745 -0.11970800566025662 0.0007818882411026503 -0.0028472947094100405 0.370346753244797 0.1273851588335057
54946000.0 0.8865879943179382 -0.461126310657173 0.04068305504791675 -0.12950948469072904 -0.001302765860491799 -0.001878993906971777 0.3844613995028448 0.12361071059707548
55945000.0 0.8843208707172565 -0.46627662647710894 0.043655942738403876 -0.14021465799220564 -0.0004394571253500137 -0.0034535461135324517 0.38908073088258865 0.09457320836722528
56944000.0 0.8799065050606816 -0.47559168172908256 0.046734298251237164 -0.1513852835846484 -0.0025625054131589147 -0.00187510183134977 0.39998669882497856 0.10904260007715276
57943000.0 0.8759796028841506 -0.4858134300293951 0.04588586659651125 -0.16077662554605743 -7.131537766258345e-05 -5.258450331241225e-05 0.40089271662000014 0.08822082483589837
58942000.0 0.8693456690415096 -0.49121097077708886 0.04542774586858064 -0.17394258252808498 -0.0016070885791484271 -0.0010106547289216478 0.4178340525851778 0.08448498196725175
59941000.0 0.8685300737097749 -0.4985570201157466 0.04946496004790111 -0.18095256791054265 0.0030304248947897404 -0.0002990921378347973 0.4239167661752766 0.09397138142719764
60940000.0 0.858827533884009 -0.5067891379644115 0.050592958362035166 -0.18651140971958627 -0.0020394574947389436 -0.0012139726135515384 0.40955977571280777 0.07705136472194764
61939000.0 0.8558657420692551 -0.5137253351327371 0.04838942770370238 -0.1933078359651987 -0.0011886607532758356 -0.0009226907046902139 0.4201996291122942 0.0670644078979337
62938000.0 0.8509973270780761 -0.5228990616304166 0.0495573512970697 -0.21165271654627732 -0.000562224501783831 0.0009716680927471698 0.44232646247959373 0.049777267897390357
63937000.0 0.845731745939905 -0.531075472805363 0.05285751881698896 -0.23055680453146823 0.0008958768509263575 0.002717699072464476 0.4372149403623382 0.03708886917657413
64936000.0 0.8419343782926451 -0.5352746928867246 0.0499159623326399 -0.24499575794371722 0.003093366901762168 -0.0015739855793755943 0.440578590493934 0.04099862774079637
65935000.0 0.8355964423809142 -0.5481976845722348 0.051619658236672965 -0.25825627799265416 -0.0005191741755254336 -0.0012311754343376441 0.4389451416120555 0.02917901231221965
66934000.0 0.8323770814284256 -0.552450168791445 0.053930919714193164 -0.27332208007782915 -0.001030698591790397 0.002671350035080632 0.4424720996794489 0.014198655772636633
67933000.0 0.8290778747226156 -0.5599991217845174 0.0528295146232022 -0.28543938871472674 -0.0022156540014130395 0.002360953284887778 0.45179773452272254 0.00416632237057597
68932000.0 0.8118352101741726 -0.5584129627770625 0.04852493031409618 -0.294700419600146 0.0021590593121154286 0.001683818048147617 0.45861071860707003 -0.01576088803166918
69931000.0 0.8155246722014742 -0.5760254234976769 0.050613324680171615 -0.3123560583882751 0.003263427675704363 -0.00029569548213630647 0.4568368366532939 -0.016510882969172507
70930000.0 0.8093192958923526 -0.5846743901671311 0.04768710227251038 -0.32612375206539485 0.002922338849599324 0.0004099690460845778 0.4499062713808638 -0.037711651411446744
71929000.0 0.8042686427140375 -0.5951499294429259 0.04339641103734235 -0.34572695261734804 0.003391058823830629 -0.0008822924201308951 0.4592993428422582 -0.046550649805451295
72928000.0 0.7998279514914277 -0.6016810996840655 0.039469895463922024 -0.35908457509277264 -0.0016012231587049436 -0.0015238777402819962 0.46193188599451535 -0.043591574545892194
73927000.0 0.7942551198462534 -0.6071471661846192 0.031010560500442392 -0.3811233121278314 -0.00039581465637513955 0.005260717905344063 0.4691923269730968 -0.05399834643589199
74926000.0 0.7875872305313357 -0.6168893811324527 0.02327382187142324 -0.39668653396240483 -0.0014786226645879285 0.004298509815071602 0.47301517198833015 -0.06596829840165996
75925000.0 0.7812781014102894 -0.6235027169922626 0.01863234264981453 -0.4128055628329147 0.0007779589183157042 0.0029223200949206538 0.4739760833541816 -0.07673102056033025
76924000.0 0.7769495245350947 -0.6307144992987638 0.0016521021448302926 -0.439734343119335 -0.0023934237191211467 0.0015968726033244794 0.46467688574434685 -0.0843077005020017
77923000.0 0.7692254286108606 -0.6379664077296214 -0.009507900231402541 -0.4611464231653431 -0.003354416990249859 0.005841966560373576 0.4721124983651552 -0.0901955152788171
78922000.0 0.7649316746160865 -0.6486188450877985 -0.02131138065705861 -0.4873098990300217 0.00028552018592667124 0.0036097106546909546 0.4631187218519056 -0.11371375394057348
79921000.0 0.7550160784881879 -0.6500325848158064 -0.039848252174975646 -0.5114052520726 0.00036560645445859254 0.002915348869648059 0.4622918437806253 -0.11810636454869797
80920000.0 0.751428594024596 -0.6628107034894796 -0.058258873074767785 -0.5418658179565289 -0.0023007935285941517 -0.0023970325938082846 0.46768658012325226 -0.1310721047691565
81919000.0 0.7445362791781464 -0.6676120883668608 -0.07270508667028139 -0.567976280234718 0.0022529242184885032 0.004452596317997845 0.4749365687981324 -0.13022022680158707
82918000.0 0.7357308863336629 -0.6767441990299458 -0.08902977052232589 -0.5970812644403959 -0.002926140632460276 0.00026464854834473873 0.48351141079385307 -0.1440521477387194
83917000.0 0.7283197831558285 -0.6858311242549779 -0.11139701031915289 -0.6272334068024076 -0.0012412325399665605 0.0034366891167360715 0.47930194732467907 -0.14578892664318013
84916000.0 0.7237369136954214 -0.6910576228359152 -0.12872288043899777 -0.6622401561710733 -0.0062383210810068495 -0.00243101639113469 0.47723282432082526 -0.16805538825865815
85915000.0 0.7176489916809806 -0.6963002601466352 -0.14521896311925037 -0.6918256305461441 -0.002999986985371998 0.0032315307587579343 0.4794368818903776 -0.17518647001475915
86914000.0 0.7090988186921922 -0.7089038884604439 -0.16384326557554468 -0.726061321482932 0.0030893711181612716 -0.00020198373185723 0.46935653762223095 -0.16804316899020713
87913000.0 0.7007471135877997 -0.7138157304083229 -0.18559402365333055 -0.7533304730124536 -0.0004785486359385243 -0.0023192900606975354 0.47415416372296637 -0.18267165451753695
88912000.0 0.6949871620988505 -0.7197255540897419 -0.1956151876902828 -0.7900804287329837 -0.0013255013726727555 0.0006470064656428413 0.47522101599774735 -0.2048054613604548
89911000.0 0.6867672733009633 -0.730213276562923 -0.21375101175211336 -0.8281350551129615 -0.001521707244450153 -0.006383547895393903 0.4761903140853031 -0.20870824172595673
90910000.0 0.6810098345950749 -0.7337112739884734 -0.2278309697310389 -0.8610872420849204 -0.0034558247624471056 0.000778521986431601 0.47241107331927257 -0.20764467624606447
91909000.0 0.6727625162571987 -0.7386674280034842 -0.24635702433229653 -0.8934949522107757 -0.0009397529910290965 -0.0025249078683888385 0.47419350833458895 -0.2239863301930145
92908000.0 0.6640698554032775 -0.7497953989520543 -0.2690167336758478 -0.9253037859532284 0.0009124912243184583 0.00223091920569567 0.4558097765666675 -0.2405216190433713
93907000.0 0.656940874425702 -0.7526637176088629 -0.28297726621530134 -0.9560226915012605 -0.00467282890629029 -0.001740768076407047 0.4702804157506757 -0.2428790865561949
94906000.0 0.6460204458766658 -0.7618010202456506 -0.30288507484355176 -0.9890444089306688 0.0018411151678227149 0.0009284168072849262 0.4577659711361107 -0.24433000149349934
95905000.0 0.6386294580594924 -0.768393984689911 -0.32448681867495693 -1.0211618399676938 -0.0006385930640847492 -0.0018324585217035206 0.46838905935370767 -0.2695716868659409
96904000.0 0.6303241839577847 -0.7764564558981739 -0.3423687019668624 -1.062753427770772 -0.002330733023569809 6.904184560929242e-05 0.4538237363730818 -0.2802609034531494
97903000.0 0.6212246293075371 -0.7807468389995013 -0.36387892214067646 -1.0909138945955998 0.0013342011121326679 -0.0006216359672026329 0.4493536549459572 -0.28634025030321825
98902000.0 0.6191327176180738 -0.7871552933791771 -0.38191490620512725 -1.1320514839561535 -0.00031859246316805786 0.004326081709148992 0.44598043024229583 -0.2954123887955559
99901000.0 0.6071221214753207 -0.7960595281518248 -0.4117305337303533 -1.1636391186678618 0.002053956581959879 -0.00013587298129020858 0.4640691512172716 -0.3160701044855099
100900000.0 0.6013998044289233 -0.7966671757219905 -0.43742533036841796 -1.1883584802053968 0.000498259329910313 0.004352395488932655 0.4446891407247416 -0.3167110468336888
101899000.0 0.5923519586046705 -0.8059363966878594 -0.4612378727907157 -1.2296247900182786 0.0004069326382162024 -0.0003754467680462854 0.4539278798499021 -0.329798785382804
102898000.0 0.5818755146472078 -0.8112117537480871 -0.4938376483651646 -1.2676739377699473 0.0019734091104598277 0.0019426898932547504 0.4471391362413432 -0.3444912812994627
103897000.0 0.572936472829854 -0.8184500042557797 -0.5328623800119014 -1.2999618341586234 0.002515376115778324 -0.002088729851146852 0.45059786638904104 -0.34656441884683425
104896000.0 0.5632076029338535 -0.8296304192117733 -0.5839901007335905 -1.3313416723700835 -0.0010627164805037516 -0.002931535996549543 0.43975797862434696 -0.3377863244260022
105895000.0 0.5543010896685587 -0.8321824095631009 -0.6227245345581254 -1.3749502597477357 0.000644684145049102 -0.001466826401946157 0.4351494841597024 -0.3621370428505553
106894000.0 0.5449481628882346 -0.8374172890033607 -0.6762577651256397 -1.4074829188719395 -0.00024839626042432117 -0.0013069563641974482 0.4302169504018835 -0.3727982980271011
107893000.0 0.5376874098821661 -0.842103010273807 -0.7253944168108226 -1.4409971235851535 -0.0008794119496794621 -0.002254567774266493 0.4341574134812603 -0.3801106060244333
108892000.0 0.5293157827663705 -0.8455239463311637 -0.7859520587680868 -1.4720118521242298 0.0011476358846295243 0.0023719754659588302 0.4198486489326682 -0.38152691623843943
109891000.0 0.5154439593069217 -0.8556491459511922 -0.8391211875083722 -1.506447241676767 0.0024433221397347086 0.0006743060028638379 0.43927653883644774 -0.3886955690612781
110890000.0 0.5087593092438435 -0.8566821642392978 -0.892232262915425 -1.5189975775533087 0.0005781607380931129 0.002352295647684752 0.4263668765430059 -0.38905307939657946
111889000.0 0.4968675987736802 -0.8615858242484479 -0.9664445122202208 -1.5763065452187337 0.0005331286280653857 0.00048664543450351977 0.42341782079771667 -0.4073898112912407
