! Created with skrf 1.9.0 (http://scikit-rf.org).
# Hz S RI R 50.0 
!freq ReS11 ImS11 ReS21 ImS21 ReS12 ImS12 ReS22 ImS22
1000000.0 0.9848540322075899 0.007420530562666469 0.002416533062464992 -0.04037518512050333 -0.01529485355929305 0.008036600059937084 0.32169874621960726 0.2943051164450471
1999000.0 0.9968368430654756 -0.015490067654672606 0.016045826149228722 -0.033245713617679015 0.005286964763811105 -0.004704932359749689 0.28901019614518014 -0.05069673772033558
2998000.0 1.0017944506043004 -0.01611302692444557 0.012769520220631436 -0.01977461722296755 -0.00032590789263913054 -0.0009645594825807898 0.19848199287207455 -0.12318432715865175
3997000.0 1.001320509614934 -0.027793029443523683 0.009552207778383162 -0.00480126799191591 -0.0010514035594508333 -0.003808590162930913 0.09179731653273808 -0.2381478966345877
4996000.0 0.9988651383270383 -0.035004927622646266 0.013548635781644038 -0.002483074964324453 -0.006050323378518245 -9.293368398021993e-05 -0.030323290609264593 -0.22396918373632588
5995000.0 1.000421022738109 -0.048520371669289866 0.011092122871343611 0.005347323913268764 0.0016027836964909543 -0.0024183024554349677 -0.12485468433955291 -0.11797739228966962
6994000.0 1.0001163166222617 -0.0594669694862583 0.008375433902043011 0.005445640187802403 0.0018241698826401245 0.0014050770039285086 -0.16102861053091863 -0.024567399719378605
7993000.0 1.0022676635081595 -0.06522248987806703 0.00997167464971262 0.007144435881354013 -0.001916988711099898 0.004592937559548959 -0.15791823131079114 0.034917011264875765
8992000.0 0.9980503192163702 -0.07292733946375361 0.006145527890641939 0.006903977531839312 0.0020356530825454654 -0.004678613515019503 -0.16556599087791335 0.061652037594670854
9991000.0 0.998630949679123 -0.08368617858531266 0.0013588973641597115 0.0060316622301551165 0.002022216003849445 -0.0003379182393955404 -0.16035844112012912 0.09561975201919364
10990000.0 0.9962073773708122 -0.09528543282668232 0.003952977293408317 0.004689127518707318 -0.005223660096024617 0.004461196294515642 -0.14407718814797518 0.11028623621002288
11989000.0 0.9956007438734945 -0.09733520811887408 0.0003739207359101714 0.0004774343576203914 -0.0005611792852489762 -0.0032556842187676078 -0.13191022403430913 0.13443489328376904
12988000.0 0.9954785304462138 -0.10843432164516319 0.002207337955234774 -0.004691806794080503 -0.005132174515105763 0.0030204204766056853 -0.12286221244345516 0.16491400785105947
13987000.0 0.9922561329664146 -0.11789078572788103 -0.001339136896617265 -0.005443092655202397 -0.0018683629409872195 -0.004785792726889203 -0.09598641802896773 0.17665966294603944
14986000.0 0.9918101820565505 -0.1262874698216422 -0.0011723033871139817 -0.00032578800895994653 -0.0022909775929943694 -0.00041116916321476133 -0.0947615255988484 0.20281631091255653
15985000.0 0.9935285076778149 -0.1346157001114436 -0.0008480391126550157 -0.005028305210367733 -0.0013033743672796788 0.005466968724441206 -0.07790309148920412 0.22748816798414967
16984000.0 0.9912755862759981 -0.14316682179602971 -0.0009692480145114087 -0.004851155394425713 0.0011840250760155383 0.0018936975132967774 -0.06554145544338362 0.21494874851474005
17983000.0 0.9900075424046632 -0.14946974398144613 -0.0028713699508679507 -0.0046616073460291115 -0.0024943411724671636 0.00254823749360909 -0.05639431174964519 0.22427222527215412
18982000.0 0.9862270501434319 -0.16229061549696822 -0.003073197640704614 -0.0051387937252693455 -0.0010604281397783044 -0.0014547860188929248 -0.02459764442091851 0.22963620929424883
19981000.0 0.9870422675424829 -0.16751403165583886 -0.005414289276537823 -0.008026104315417755 0.0012493492661525569 -0.001384254678180308 -0.015588174477839008 0.23817396545056818
20980000.0 0.9863459090494093 -0.17698905681000257 -0.006216041452671913 -0.005462956744004519 0.0004482178892742147 0.007659684134337301 -0.0008538521300599578 0.25442647439749677
21979000.0 0.9806667199822626 -0.18391360264056156 -0.0019505337416098186 0.0019486861786705426 -0.00016033353428569056 -0.00276829026256866 0.019142171959220692 0.24277397834177702
22978000.0 0.9811860366648877 -0.19277815337545287 -0.007432488433392995 -0.0033838745163021844 -0.002045079216685219 0.0012635995616816947 0.02592004829138908 0.2604124769806202
23977000.0 0.9811966265357231 -0.19946821225427522 -0.011142011973624293 -0.0007821564300661871 0.0032171737332054758 -0.0012607885468914849 0.04249975280865329 0.2507828697082266
24976000.0 0.9774565807285835 -0.2124109101326626 -0.001676112982192811 -0.005351645419328968 -0.0020618354716513184 -0.001528253367455928 0.05702971966728488 0.2588509488352533
25975000.0 0.976353023477435 -0.2160599634880821 -0.002792787959445592 -0.005326084533696 -0.025217220710941648 0.014123698238976065 0.07134685013140347 0.2592271344318281
26974000.0 0.9737289802660314 -0.2271481313308004 -0.003831213016700308 -0.005557753199294309 -0.0004289732851057496 -0.0013219842806836174 0.08858369384037285 0.26394135607773767
27973000.0 0.9729943874487113 -0.23364102524665267 -0.0035699209207006475 -0.0015742781037808538 0.0003426295906833087 -0.00038729476569428147 0.102090880603676 0.257011022570173
28972000.0 0.9703105348443787 -0.24303364042867762 0.0024093609395253865 -0.0003612786895602169 0.0009146160646395078 -0.001375569171517136 0.10254882001928768 0.2583436853218049
29971000.0 0.9667477346659173 -0.25300405610052384 0.0014847077351420885 -0.0016002464535530923 -0.00011587857205119015 -0.0007949696217210925 0.1482642715674205 0.2711883833400357
30970000.0 0.9650744600196746 -0.25991923007490886 0.00312127556225682 0.0017706278911613171 0.0035340563083832636 -0.0015053266328861848 0.1634992604318056 0.24631742802175532
31969000.0 0.9622148315768108 -0.2679975291072846 0.005322858727064754 -0.005667223600945228 0.0022466823810733567 4.348031983912494e-05 0.14203461283054397 0.2550284220613018
32968000.0 0.9612342334379357 -0.2756123015450946 0.009544628535240046 -0.007825842430996259 -0.0015550102891278923 0.001004533717157562 0.16077121637456743 0.2487517613574666
33967000.0 0.9585440072802116 -0.2860760170936978 0.010645137645316409 -0.009629453377236294 -0.0022825602808256525 -0.002142824475218892 0.17360077540094412 0.2482092977412227
34966000.0 0.9558748399849696 -0.2964954088695282 0.013197874068092679 -0.011155670892544597 -0.0009761769014075417 0.0004007760632065873 0.19313426281171137 0.24643845827341312
35965000.0 0.9537532033799503 -0.30267333225853116 0.0164497371140411 -0.01333809029879986 -0.0032765260090636657 -0.0014621196718221556 0.20548551592441072 0.25139536575139715
36964000.0 0.9494241545298424 -0.3118854807269713 0.018156429591619585 -0.012180119205679418 0.0002140526969258227 -0.0008880760483876265 0.2070939895842668 0.2464811590103219
37963000.0 0.9478819145577402 -0.320208105424196 0.0210458085789324 -0.020959789590521548 0.0011809765964167647 0.0038976494095308107 0.22730718149785675 0.24296215455189807
38962000.0 0.9461305455441041 -0.3280857676178837 0.02458243171506415 -0.024459903320009434 -0.003632043057572039 0.0013763332424753664 0.2366085335422699 0.22911164844236215
39961000.0 0.9420989334613604 -0.3377278016316799 0.02276274720888286 -0.02940950679549889 0.0006966129144982265 0.005172871859284288 0.2379889460929394 0.23687702292027393
40960000.0 0.9386521831731028 -0.3439510247613283 0.02258109938598385 -0.023498912248449282 0.0013225042179901621 0.002743748906295587 0.2654151767949314 0.2220383016056359
41959000.0 0.9352581222064341 -0.3543575493296212 0.028028322353388157 -0.029792296009447845 -0.001016829667929585 0.0016776134595142024 0.2597985151551271 0.2164885362858532
42958000.0 0.9318219956294451 -0.3620815074788526 0.03138742542310503 -0.03862139389236256 -0.0015286342435773398 0.0008302077037631815 0.28089026348193097 0.20692533553446613
43957000.0 0.9311413736265495 -0.3669218310401582 0.03287804701160758 -0.04625986075662704 -0.0005055656351807252 0.0036455868838583877 0.2825096025139653 0.21648052482475497
44956000.0 0.9262327039868955 -0.3770918167954911 0.03344775435553248 -0.05120146857680899 -0.0005893048575843263 0.0014543859284717096 0.2994230816974688 0.1964911118518874
45955000.0 0.9227385739157727 -0.3870525595159991 0.03428344279318438 -0.05760609914971204 -0.00023853699641037667 -0.001420439636307195 0.30486694151193006 0.19778513972025663
46954000.0 0.9168440895771868 -0.39516879332302995 0.036569214771051135 -0.06362873120971953 -0.0019159406806505592 0.0007322331266866258 0.32356219398643515 0.1827464329821091
47953000.0 0.9158537092475324 -0.4021335510841345 0.038202742588581924 -0.07087392200690285 -0.0021077363764103398 -7.656356829500886e-05 0.3436514752905309 0.17498072195142428
48952000.0 0.9098152291685908 -0.41465622737142704 0.03708638210970814 -0.07624903469036654 0.000546526252282439 0.0021802896662210074 0.3279289270433285 0.16834847827411847
49951000.0 0.9066768152090611 -0.41824985417732585 0.03784377842974239 -0.08523134873560648 0.0011043383690162722 0.002998122259935122 0.3496501895209434 0.1591068921856259
50950000.0 0.9040634007239057 -0.42829169916953425 0.039688957736373036 -0.09465216438650727 0.00032851883765132344 -0.0005142612495271479 0.3474313570262711 0.14653735447278876
51949000.0 0.899573387566687 -0.43502890863343224 0.041364761418607066 -0.10220944421794748 -0.003982334580303306 0.0028364116815124863 0.362120228201701 0.146536046992363
52948000.0 0.8986378865606836 -0.4421235939347143 0.04089942140459028 -0.10881176010514554 -0.0028962973570453416 0.0008218160019816903 0.3807662751158898 0.13469793373459954
53947000.0 0.8920976690098507 -0.4511885025132964 0.04217649792182567 -0.12043967985431643 0.0044075759822978415 -0.003215681668755665 0.37141709991919136 0.13697643210646654
54946000.0 0.8858927897288909 -0.4607324292291168 0.044611467956348114 -0.12725090027103828 0.0003438198340992707 0.0023425299407113134 0.38558072958100703 0.13228149863370292
55945000.0 0.8839517118877089 -0.46844268782401655 0.04570389782341887 -0.1408662076677955 0.0024825992035704494 0.0015752070770001544 0.38435341928719474 0.10746658823132818
56944000.0 0.8796759017654121 -0.4744925765838799 0.04481809241609217 -0.14928647275769036 -3.865898348030495e-05 0.003436189475745665 0.3946318332308862 0.11265274726379292
57943000.0 0.8745047047005919 -0.48694563157865006 0.048196215400426526 -0.1602155993307633 0.003603191136532885 0.0003368544949972537 0.4066727810242438 0.10213803471585617
58942000.0 0.869185967075601 -0.48998644626443716 0.04949178159775539 -0.1701659012598296 0.0007074448709291623 0.002362992323719445 0.41092706358181413 0.09505111829598675
59941000.0 0.8666965476369712 -0.5006493972663458 0.052030434931025805 -0.1787547156716384 0.001283435091874256 0.002463729535510284 0.41634430093387526 0.08929215306583635
60940000.0 0.8595594280030521 -0.5061903266431172 0.047683004141910165 -0.17836157997125554 7.843808765783461e-05 0.004275508153275887 0.4067749885599746 0.0836078162068147
61939000.0 0.856558942239787 -0.5127634107471566 0.05134862037139704 -0.19256900194089951 -0.0011427659102368555 0.0013913641286882926 0.41616388961867645 0.06937802985920015
62938000.0 0.8515225413675888 -0.5244180823511743 0.05319921623892866 -0.20724518833817038 1.807634000984905e-05 -0.0018452212959816873 0.433280443223928 0.063113746316603
63937000.0 0.8468433194197427 -0.531734897857148 0.0563290364228687 -0.22662685793233142 -0.000996134009865779 0.0013784326674704589 0.42217569844868 0.050944873817972976
64936000.0 0.8403614794364425 -0.538681934467264 0.055500828076157624 -0.24324278645596215 -0.0017757454461196842 -0.0009112846084018999 0.4325747820615139 0.039829875488554274
65935000.0 0.837535045267054 -0.550129831525717 0.056200515779528136 -0.25594925687830195 -0.003834242898394131 -0.002254626175891289 0.44087790308031416 0.028685585491693363
66934000.0 0.8328484458255067 -0.5528639617410761 0.056529564176020175 -0.26895420828815675 -0.0031644126312645785 0.001230937421030487 0.4405749629767604 0.017040868295902994
67933000.0 0.8298528338176087 -0.5597859120260926 0.05920721835462741 -0.2841366705279477 0.0017158787131527195 0.0013259205359859871 0.4505408032139542 0.017024984928849202
68932000.0 0.813294911757041 -0.5676962609134455 0.05210950285391526 -0.2929591415646861 -0.002550332681062594 0.0006479311907487386 0.4649753369831371 -0.0032328510371105144
69931000.0 0.8167159920231256 -0.5772205708034682 0.0572001514840357 -0.31102821607237396 0.0010204999845349384 -0.0019199701248769968 0.4471511313743611 -0.004165126724225248
70930000.0 0.811629725447246 -0.58285745668682 0.052343698025775466 -0.32426127397675225 0.0011783031790088708 -0.00529725601755792 0.4495379657429855 -0.01949792123454153
71929000.0 0.8070166268702649 -0.5925195971298668 0.0492054604672743 -0.34299433239481303 0.0028213768612423843 -0.0010886650530103693 0.45285892012650536 -0.035177981807025645
72928000.0 0.8002245295051085 -0.6000362839256703 0.04696247669278095 -0.3577485408046831 0.004197761750528165 -0.0023738352656835124 0.4635385526562389 -0.03950561601353946
73927000.0 0.7937406654753623 -0.6087757980338321 0.041616565188413855 -0.3810181647611154 0.0004016959301959346 -0.0011775787978751241 0.4587586131187406 -0.04450093186057647
74926000.0 0.7895654977236535 -0.6170183769300548 0.03363767540618389 -0.3946288634084946 -0.0017753546083267373 0.0016565667082532529 0.4648048871150325 -0.052522459161980686
75925000.0 0.7809927955784686 -0.6221002332731665 0.025296701424672333 -0.41507759561544133 0.0011255047737290488 -0.002538150954239941 0.4739021632119424 -0.06232637823146379
76924000.0 0.7771179614793715 -0.6299678574865119 0.013907926172741624 -0.4377631608226229 0.0030023813608571594 0.0019663238976520407 0.46851481946770296 -0.06698991394669603
77923000.0 0.7687928312130607 -0.6376704694059513 -0.0019018310930691217 -0.45911676740317753 -0.005062025542622183 0.004811351537649332 0.4662295447668871 -0.08748169104710568
78922000.0 0.7633325200562024 -0.6473464718353283 -0.015231722121624503 -0.4855734884269317 0.000861261772472981 -0.002504554144693362 0.46687922747175864 -0.08898787667639832
79921000.0 0.7550200622695118 -0.6520740495178002 -0.02972840230398128 -0.5139533741317909 0.0043116078051310775 -0.002677289955109974 0.46872805962942554 -0.10903852602192361
80920000.0 0.7513337732089332 -0.66243935592598 -0.04332091565504042 -0.5384898213012562 -0.0028309597187504473 -0.0030533023542080448 0.4702318528193132 -0.11736624660913286
81919000.0 0.7447907352379353 -0.6685556333385695 -0.06477305592413217 -0.5649248841211097 -0.00145820611551474 -0.0004392784622541982 0.4742541083443936 -0.12274627993737389
82918000.0 0.7375546666746184 -0.6767474033932399 -0.07881048203433799 -0.5966432646695304 -0.00025931431580801886 0.0016469000677372682 0.47049883000504394 -0.14016954265775694
83917000.0 0.7298308539310306 -0.6839172271542093 -0.10135339675873782 -0.623706533307505 -0.0023559509165569916 0.00043156801155585053 0.4675747368546178 -0.1444478182989792
84916000.0 0.7235383201082383 -0.6905035347678885 -0.11322554429086254 -0.6557405827764803 -0.00018634105394804945 -0.0006432517316055436 0.47338160502464355 -0.16167386477811546
85915000.0 0.717314090153135 -0.6968331944452562 -0.13712900423569557 -0.6882311690757159 0.0022734540476268893 0.00037152953064987143 0.4634322763948452 -0.1701398138017431
86914000.0 0.7104049141432349 -0.7072356319835301 -0.14950157205350822 -0.7238878093665687 0.001985026967753924 -0.000664239593437235 0.46608083684772433 -0.1634024108155231
87913000.0 0.7024817324803443 -0.7127839613946249 -0.1685230320605475 -0.7513169745547612 0.001889074199301273 0.0008637146797607732 0.46354144546497006 -0.17608107160125475
88912000.0 0.6977589913989671 -0.7183767978734392 -0.18239861526759013 -0.7886426226279338 -0.00010005343499626722 -0.0009561462351593754 0.4629241482409249 -0.19630176684740808
89911000.0 0.687422966632978 -0.7288911891019919 -0.2043451205230085 -0.8210564549557097 0.0009152893976932036 0.0014590415326063931 0.46671191174785154 -0.19905262143881863
90910000.0 0.6816213779747234 -0.7328162428745961 -0.21390488645452677 -0.8567144889961158 0.0028711443037714363 0.004594827457383012 0.4635537977881207 -0.20589695339467776
91909000.0 0.6733128413534938 -0.7370784810917252 -0.23438826881753086 -0.8895795368525071 0.0005736539929811146 0.0015237125431254491 0.46939313826777307 -0.215550458025798
92908000.0 0.6640880674788727 -0.7479772588803594 -0.2511564405173426 -0.9211973753195667 -0.0002084474929801571 -0.00038954189094151016 0.4545915060444979 -0.22465632453192869
93907000.0 0.6596652007463774 -0.7522585681321561 -0.2688262514475737 -0.9543728884695152 -0.0024929679984926653 -0.0031777050635626134 0.4700403496173183 -0.2378214687126231
94906000.0 0.6435887234549014 -0.7617172642698146 -0.28687563426544643 -0.9899819319309812 -0.000916654243875388 0.00026514401238806153 0.4636647905951652 -0.23817760854526523
95905000.0 0.6393415893569203 -0.7696399915178311 -0.3104473999407229 -1.0192091465445376 0.0019311429300104114 -0.004756749543950238 0.4711127574337387 -0.2542367134466997
96904000.0 0.6315699678884058 -0.7768871325729614 -0.32487465054691855 -1.0598519369614878 -0.0009662218111079777 0.0020992624643524737 0.4611409142634801 -0.2691134293123286
97903000.0 0.6225339679526124 -0.7800964281197396 -0.3477655883398027 -1.0909007104529134 -0.002522456171029852 0.0008987146270832685 0.44679011706652505 -0.2791169018040306
98902000.0 0.6173642106413961 -0.7900264156464173 -0.36577244247523194 -1.129433434925097 0.0015995780781753598 -0.004541806699962123 0.449677222105193 -0.2884280465987261
99901000.0 0.6062420036650376 -0.7944967253363607 -0.39219167642267516 -1.1610629682238476 0.0017899700107743698 -0.0002652694787803569 0.4598545010903648 -0.305317207698701
100900000.0 0.5993299971013428 -0.7994823919884068 -0.42121963598411005 -1.1920403228856875 0.000861044275952469 -0.0045337886808457985 0.4562884573205821 -0.29898772390852996
101899000.0 0.5884727009446742 -0.8074506489810258 -0.45409834603867866 -1.2269850023834588 -0.0015908975546550044 -0.0014560617634883238 0.4422781260279645 -0.3084063495961001
102898000.0 0.5793327404378514 -0.811634131920146 -0.4807390943152616 -1.2692695648572616 -0.0007147625371048116 -0.002822618774098354 0.457539828276559 -0.33291349575175977
103897000.0 0.5723884134679492 -0.8194232955461079 -0.5202856130667868 -1.304724137089798 -0.0007884682024167836 -1.5165361060193665e-05 0.4639096073255792 -0.323706862323039
104896000.0 0.5636158246078784 -0.8312383893809172 -0.5633693181256891 -1.3381039752794237 0.0038560353121667073 -0.0015042041381153706 0.4421557484857838 -0.33111150962021285
105895000.0 0.5525951990711664 -0.8308296836966635 -0.6037291251318693 -1.3756863614587111 -0.00020093116872078664 -0.002057963001254517 0.4412544203402121 -0.3528355051695101
106894000.0 0.5465718612085133 -0.8386586897302512 -0.6590747188007616 -1.4093000099530606 0.00022874794624367384 -0.0012102376220004488 0.43681932874488366 -0.3630403672415359
107893000.0 0.5380684339545336 -0.8431745445272382 -0.703250250329735 -1.4461849792941999 0.0011359012608590981 -0.0009574596388249019 0.4401352050619848 -0.3713340813809643
108892000.0 0.5263738119129117 -0.8465671335135039 -0.7597368133626414 -1.482271070872861 0.004163554887872315 -0.0007987647818191254 0.42954827434990817 -0.365383303050394
109891000.0 0.514796714136002 -0.8550781856296975 -0.8213092568714754 -1.5167699231106955 -0.00033635803228780636 -0.0005008434788349301 0.43802699025717506 -0.371147559107211
110890000.0 0.49426389774048685 -0.8668668169259806 -0.9036693859796694 -1.5183782908561116 0.0009008818132712713 -0.0038912543191774378 0.4287228000640394 -0.38276292738227635
111889000.0 0.4952983120296764 -0.862235227139644 -0.9443184976102175 -1.5872691898575937 -0.0002094506019191291 0.00034387540288411804 0.42329879989911323 -0.40264350714741504
