! Created with skrf 1.9.0 (http://scikit-rf.org).
# Hz S RI R 50.0 
!freq ReS11 ImS11 ReS21 ImS21 ReS12 ImS12 ReS22 ImS22
1000000.0 0.9844097906343617 0.00012368649763576476 -0.000768248544577289 -0.06452232172966078 -0.025994178104929818 0.003110785190396006 0.31439517358878666 0.3683850330538372
1999000.0 0.9944148037172296 -0.018917176163047354 0.006145098694484768 -0.02571830517234644 -0.00379377568337113 0.0017854531703637353 0.2692182635228189 -0.062282500889158425
2998000.0 0.9969808821136348 -0.02505611159295437 0.006026015196688656 -0.011509386762103243 0.0034521520789485543 0.0003316625870974517 0.1750695061340731 -0.13484123096060693
3997000.0 0.9960982834543126 -0.03141609345434208 0.01520932598560898 -0.002025280127779714 -0.004777263019795672 -0.0011533006913605568 0.10474226259433256 -0.21291164545796895
4996000.0 0.9935778463134769 -0.04285268810509808 0.008831568390958555 -0.003509958396679613 -0.002439959271199434 0.0017816246603277377 -0.049632628454523244 -0.19760270168622507
5995000.0 0.9945501507151546 -0.048418644524121854 0.005128904177170131 0.0002632484671233295 0.003942145780612166 -0.0018743202686311885 -0.11678584568554382 -0.0988984901702364
6994000.0 0.9893951204799644 -0.06118173264240583 0.010783806274763543 0.0030025546344355537 -0.0017281963982559915 0.0010155760894955228 -0.15100611145139417 -0.014103982330502463
7993000.0 0.9919464771027392 -0.07094354332900947 0.008839407234298954 0.004649554016572269 -0.0021684771976508135 0.0005187424415955132 -0.1486990452681399 0.04613518102005974
8992000.0 0.9892048055895548 -0.07506903692829196 0.0002613979528026113 0.00421501398369111 0.0015572735953850063 -0.0008793089184016364 -0.1498331029505821 0.06512247984559758
9991000.0 0.9883892760469505 -0.08531678261558559 0.0008774103485023983 0.003433609475023317 0.001640040946981271 -0.0016511109146040964 -0.14927904631765887 0.08771284145380458
10990000.0 0.9881850132249277 -0.09248533858752683 -0.0008972120987900271 -0.0009112454712127764 -0.0009082103470924896 0.002658044629729746 -0.1362638910007239 0.10960909726543157
11989000.0 0.9854116809719509 -0.09937574102382388 0.0026318729304734044 0.0017738968489856826 -0.0058988256392783715 -0.0020139850722118366 -0.1400306934417816 0.13180297587768564
12988000.0 0.9852233906549609 -0.10745266442179156 0.004635823465438002 -0.0035090748594172796 0.0023281446999820704 0.000699689967089993 -0.11546168143721898 0.16562308247853064
13987000.0 0.983306327141854 -0.12043854202371146 -0.0002083827678967378 -0.003432086341337102 0.0038447385708944787 -0.001442497008966148 -0.08239225783222237 0.1832773039542774
14986000.0 0.9836015702837954 -0.12625679858230238 -0.0020292993497902645 -0.006115591292053517 0.0037619170156930515 0.0037900811035568994 -0.094466336681921 0.20173770225086324
15985000.0 0.9835855566434868 -0.13407031837182468 0.0028503565202139544 -0.0032528092741004344 -0.000969997260357258 -0.0006899803504125417 -0.06718018907168163 0.2221775214924613
16984000.0 0.9800778041213977 -0.14312500041774465 -0.0036058050692423732 -0.0033992937162337124 0.00031140953464505117 0.0033574187285414898 -0.07193581994384761 0.2082441866411073
17983000.0 0.9827601169368327 -0.14801134978204508 -0.003015723213978671 -0.0037331684547539713 0.00420926323007062 -0.0005864262619285125 -0.052789131298944234 0.22331054117966043
18982000.0 0.9778334071227887 -0.16317358598939558 0.0018161238881541934 -0.004358678349577506 -0.004395208464195192 -0.005633258760794406 -0.024315972576506608 0.23217326425139606
19981000.0 0.977904872960632 -0.16632766928220377 -0.0007525460697622319 -0.005462520579727037 -0.007224266155169862 0.004415426853812353 -0.012409554001433981 0.23692775397247656
20980000.0 0.9777873039032828 -0.17508013844965176 -0.005026702955540114 -0.004243537866257856 0.003832339431229968 -0.001978558647763559 0.0004029915836843654 0.25175743645944576
21979000.0 0.9745287606616027 -0.1824069617458739 -0.004636713511513392 0.00039653489446724304 -0.0014944351146887187 0.00025964544764989976 0.006953991722308436 0.2520242995190862
22978000.0 0.9714714857927146 -0.19527332833670732 -0.006466765536225279 -0.0024493900411304424 0.0030490823540967687 -0.0009709718260257137 0.019873653592899387 0.26666029514736433
23977000.0 0.9745528775596886 -0.2017793430263136 -0.0047405931433456006 -0.0015195343395147992 -0.0008816972046822748 -7.870135542735518e-05 0.0358915841652182 0.2680511203171348
24976000.0 0.9695039449899765 -0.21149885852616918 -0.005338969884941374 -0.0025924768160562367 -0.0005593859673599544 -0.002037424091622745 0.06292366769342388 0.24738611793560197
25975000.0 0.9673427821797446 -0.21693414477613102 -0.005424210050286663 -0.005373189794383702 -0.02778357683319806 0.0020146004037227953 0.0670365333335387 0.2600125269751082
26974000.0 0.9650834687930026 -0.22724769154485516 -0.004427203290928827 -0.0027371985322385663 -0.00029083978197815404 -0.0031124930062803196 0.07988071100069159 0.2659036791778444
27973000.0 0.9661200541421222 -0.2351573383023009 -0.004315490564375138 0.0013123853057654812 0.0008267663571199594 -0.0029533237821992345 0.10106056616525691 0.2611944035854477
28972000.0 0.9615624159811428 -0.245072860056979 -0.000807961811510842 -0.001243605619987751 0.00043882208904734985 0.0019597389049281844 0.10744946232012442 0.25476876745809357
29971000.0 0.9610548157154364 -0.2546887301455811 0.00022378859518386735 -0.0013794552900727268 -0.0026675618340555865 -0.0012231741357999668 0.14708331865530921 0.26085076390407747
30970000.0 0.9592304623503886 -0.25947623198293074 0.0026796919319015833 -0.0029114564977518655 0.004068025422672187 -0.0026011513253735886 0.16507353726077417 0.252444562231425
31969000.0 0.9581498918839876 -0.2682226968261686 0.007536875244865196 -0.0059384643055539355 0.0018575253737256523 -0.0007010866112160292 0.1474025283766061 0.2547126697559111
32968000.0 0.9552231973527623 -0.28002025937272057 0.008567154435825263 -0.00736589618984815 0.001462097104079311 -0.00162321919876611 0.16792050865856187 0.24954013111692044
33967000.0 0.952208448525348 -0.28846354470703883 0.008377911563998554 -0.010174908467274743 -0.001328826878803394 -0.0005864480332251362 0.17547758430392943 0.24371883670914185
34966000.0 0.9498962612326425 -0.29683958115663667 0.014619722301347733 -0.010458444534990648 0.0001380709460879817 -0.0024198030932505187 0.19009555410402382 0.25031362512233357
35965000.0 0.9469001481678908 -0.30428211131387023 0.017517130305536758 -0.013058672630051095 0.0011607142080345106 -0.0018635049230326221 0.2066655432155641 0.24470119185736675
36964000.0 0.9453717648965838 -0.31465678136235736 0.015020783700765013 -0.0146716246924065 0.0007998614633251052 0.002793926612340314 0.20817505719059123 0.24089455978227087
37963000.0 0.9414905420704521 -0.3207357929275842 0.019832402473661196 -0.019654448209316822 -0.0015614865146639585 0.0011889245408025708 0.22353052060829848 0.2330921427967555
38962000.0 0.9393341815239076 -0.3289454419517172 0.02442608723863738 -0.019821826950371556 0.0015910816603946429 0.0011550602455525111 0.24763810886417176 0.22924362168482817
39961000.0 0.9339865315404765 -0.3398446574215791 0.024406044952393253 -0.026412156205651967 -0.002861046724169379 0.0035433127544883284 0.24410711687202566 0.21945210005244245
40960000.0 0.9322672463092886 -0.3459786021590009 0.022619754780444815 -0.021784814557910377 -0.0005920011351326974 -0.0028298784483552645 0.2562304794350088 0.22366185367314095
41959000.0 0.9296048332587281 -0.357529782086769 0.024964071863424264 -0.031375758870149886 -0.001807345309510006 0.0006927298455192908 0.26851881209655365 0.21661590837299025
42958000.0 0.9230248644769348 -0.36741542394724824 0.03114952610709652 -0.035925532522195304 0.0012161725044674287 0.0006139128051453419 0.2793462063890387 0.201394665840614
43957000.0 0.9249445809268116 -0.36925423374570093 0.02977026962167843 -0.0431441085724641 0.000798466188151902 -0.0008248844062092405 0.2825147683112037 0.2075675311388245
44956000.0 0.9191277522932368 -0.37935752816753515 0.034588917060743456 -0.048720625522821547 0.001129296317635931 0.0007003950808293321 0.30196978277258674 0.19404747990189614
45955000.0 0.9153054465658265 -0.39161596956320976 0.033040790088961 -0.0559514290189019 0.0007541504335766114 0.0013413309475965314 0.30371448223046793 0.1978663511905923
46954000.0 0.911162733882264 -0.39906180834201443 0.032794910916334394 -0.06204120266080995 0.0028878278288449986 -0.0013241044735776636 0.3253067159960144 0.1717099557040547
47953000.0 0.9096446965896702 -0.4058369760523146 0.033305414902772515 -0.0691320772513323 -0.00028210700765318335 0.0023467266267628976 0.3242103594036803 0.17625581098317414
48952000.0 0.9033830739662257 -0.41712981818653605 0.03436762558518812 -0.07662189443446515 0.0007755765451313789 -0.0016450733966553205 0.32831959952128514 0.15705442838131925
49951000.0 0.8996153456870639 -0.42525531876784844 0.0349699530760574 -0.08416401591356217 -0.00037663182714991306 0.004156588967210219 0.35076096774323773 0.15318806356837117
50950000.0 0.8957651132997728 -0.43216064273721777 0.03634342809109795 -0.08873996489624725 -0.0002652045020099098 0.0013066725995591537 0.34724131713407136 0.14873164295130767
51949000.0 0.8918110637577513 -0.44026775920599504 0.03622326743062604 -0.09577803105853318 -0.0006650760320319215 -0.0024400612619564855 0.3499135046578588 0.14684271150811198
52948000.0 0.8901398134282786 -0.4476866700705632 0.03863121285536655 -0.10677598752815803 0.0025477141170034837 -0.00013381054655802954 0.3687302382024035 0.1497765469464387
53947000.0 0.8827145463417889 -0.4587701476497896 0.041370622142491154 -0.11417439422056604 1.3648796367031805e-05 0.0026075831611232906 0.3769055743234283 0.12323131029866817
54946000.0 0.8777880559975848 -0.464507967946709 0.03973257580311511 -0.12211497426875917 0.0003339973888161326 -0.0030643654332264303 0.3784007479077824 0.11587663797177128
55945000.0 0.8758126714703264 -0.4743184802134638 0.042380743296489096 -0.13348832037720412 0.0018086665544965526 -0.0033028275745405735 0.38048130272983466 0.09994176241195639
56944000.0 0.8708029373401913 -0.48310798136409927 0.04741339272398819 -0.14330082309394063 6.097470344199355e-05 -0.001007688304484568 0.3926654363176938 0.10406126849887608
57943000.0 0.863238969025384 -0.4937885522579398 0.04673083107159999 -0.15103072650824262 0.0007121586068961526 0.00011789781988222315 0.39905552286868157 0.09486500210068614
58942000.0 0.860632314573092 -0.4962975481246733 0.04443207330048179 -0.16151780291726547 0.0007883370806597364 -0.0019106057602189636 0.4167722355573131 0.08982909195533224
59941000.0 0.8556220030865844 -0.5063363249324513 0.0494430430813107 -0.1681968138881045 0.0007420861744144047 -0.0005792259159153653 0.41564750800641753 0.0827599034706124
60940000.0 0.8493480100469275 -0.5151015346340216 0.05054796706737264 -0.1727838427278309 0.0032108385071695413 -0.0001668287600093934 0.40141820523694016 0.07617161151107288
61939000.0 0.8453729083760807 -0.5205369612513282 0.048944021106649804 -0.18008303743249063 -0.00013310059388356655 -0.0013730596221536928 0.41060608799139364 0.07237858568944193
62938000.0 0.839353721806058 -0.5306578723615796 0.05122321468518663 -0.1974609297408611 0.001697148371193284 -0.0022499562614984284 0.4339328674363985 0.050822456682701175
63937000.0 0.8354937256222402 -0.538062435086179 0.05237466885786949 -0.21574564179913003 -0.0021773983273043864 0.0011866914409196946 0.43464647484477514 0.04226544899051983
64936000.0 0.8292079488011213 -0.5434726710351101 0.05435738101527932 -0.22706109040293487 -0.0017021258367821215 0.003161228154745994 0.42823284173139037 0.049648296804804676
65935000.0 0.825778891150495 -0.5547397055306741 0.055254498517192864 -0.24326201203881698 0.0032701395317094517 -0.0013759746547633387 0.4286286304821363 0.023976556183377514
66934000.0 0.8206027500629078 -0.5599181208151714 0.053288650894804446 -0.2551164050948148 0.0009576126515504313 -0.0004158831034924985 0.4303272864663108 0.013877906164175603
67933000.0 0.8175929834273895 -0.5692165192923518 0.05492790497714681 -0.2663397143294096 -0.004037673127406178 0.004163965950896094 0.4381752434510121 0.00838535639590186
68932000.0 0.8008003055536889 -0.5642018474572008 0.05074443104109938 -0.2767240164165826 -0.0019298317647261512 0.0003585848829635027 0.4505622779129596 0.001350402489986599
69931000.0 0.8029958974148497 -0.5839933956278275 0.05033382026416051 -0.2927895815155573 0.0010192382164457196 0.0016364774720834224 0.4411910509820014 -0.011257037150025496
70930000.0 0.7968649947177294 -0.5902449418322135 0.046504525644928116 -0.3060032947658248 -0.0014529541519233593 0.0017521967548790496 0.4411867914047749 -0.03422230015062691
71929000.0 0.7929838266301215 -0.5986484199587011 0.04333463880510068 -0.32522972948085704 -6.373148714306612e-05 -0.0025246454900224174 0.44186179285139376 -0.03078912819424996
72928000.0 0.7859646680405036 -0.6081869404853913 0.043905679669564365 -0.3384174572650672 2.7567951893309424e-05 0.006087008638964825 0.4574956928370643 -0.046346321974181585
73927000.0 0.7811270330441221 -0.6150615362325034 0.03464811578927016 -0.3610243364847437 0.0017618672455107147 0.004285472262574626 0.4520492715817728 -0.05385274558904678
74926000.0 0.7735085948953868 -0.6247393223160875 0.026992610257248154 -0.3750272870236974 0.003068836515578487 0.00402613697306141 0.46073411522625785 -0.060110917649270325
75925000.0 0.7673521224311793 -0.6286519643056596 0.016798184845867054 -0.3950159057416474 -0.001385325793238072 0.001611257764725839 0.461964349480873 -0.07211258926646485
76924000.0 0.760728726592181 -0.6374828859078796 0.004178797626576416 -0.4154572559848198 0.004374876909798878 0.0008784383975581988 0.46055742494878477 -0.08595877805404431
77923000.0 0.753760108180626 -0.6424810743800405 -0.007166501616654752 -0.43692157725067604 -0.00011951240563595899 0.0022748077405058903 0.45428850643745405 -0.08498761043721206
78922000.0 0.7496619532655965 -0.651915231296225 -0.019585804756747687 -0.4614832184227186 0.0008804282694719385 0.0002055513470830287 0.45611894925093205 -0.09524866161382894
79921000.0 0.7397410866766956 -0.6571144562367971 -0.03796408056246144 -0.48372051954516765 -0.004755680612834383 -0.002136323350902476 0.4612982317118467 -0.111341536205153
80920000.0 0.7363951180292615 -0.6658198807670661 -0.04994518863932636 -0.5101441574033972 -0.0006785111904718645 0.0009400907036996234 0.45714925967487635 -0.12859278444653277
81919000.0 0.7303392931704441 -0.6729735623160067 -0.06420860342417321 -0.5361150544792762 -0.00027784469363810655 0.0029780277117408874 0.4691631048632062 -0.12249098585657701
82918000.0 0.7196881071375388 -0.6826266006549894 -0.07417958467366045 -0.5671396053509605 0.0013883309609313294 0.0008607348402664386 0.47255034886031744 -0.14330170780905682
83917000.0 0.7128866923551475 -0.6875905299463756 -0.09694215214704865 -0.5938382915045969 0.002901047121976238 0.0005811151829520422 0.47706464751841526 -0.1432941052874478
84916000.0 0.7071066003827918 -0.6951809170935942 -0.11194156834497185 -0.6251005128981002 0.0027353429267041244 -0.0010652713801326476 0.46313031544082434 -0.15646257395838303
85915000.0 0.6995124731673945 -0.7031939825853427 -0.12831659507475435 -0.6530165225118132 0.0017765542834185528 0.0014708930191102247 0.4669310177429492 -0.17230535415225412
86914000.0 0.692956921966813 -0.7130701055452263 -0.1414423787720998 -0.6912471687850084 0.0005519290000424443 -0.0020510700884263187 0.4698542732164533 -0.17507141100773263
87913000.0 0.685083189199369 -0.7179049680350608 -0.15903630237366925 -0.7154009370872467 0.002466421101182128 -0.003524696114510234 0.46034344996614424 -0.1802844645838017
88912000.0 0.6792902536509683 -0.7247290598560286 -0.17616992426742273 -0.7480413547255329 0.0015524643412858376 0.0015650600563351972 0.465285105669312 -0.19092250127027235
89911000.0 0.6727471029362919 -0.7336065231858468 -0.18822888161766405 -0.7852450511585307 -5.5179008362447705e-05 0.0022836260306144996 0.46318239278095474 -0.21423327155628602
90910000.0 0.6634120024399502 -0.738796237634989 -0.2004755781578129 -0.8136870208915039 -0.003672959288173014 -0.0017988047754894316 0.45690616343712115 -0.210464046806505
91909000.0 0.6563035997978881 -0.7432929787804627 -0.22042071810979277 -0.8424690009733078 0.0013720679203131933 -0.0018336767673304444 0.46769269288921683 -0.215393166565313
92908000.0 0.6479907226455583 -0.752608452872599 -0.23468825384279404 -0.8726475051922283 0.0005146227829850649 0.0011748086320829904 0.45043523914407013 -0.22879794104673304
93907000.0 0.6408054957313215 -0.7570320511349141 -0.25064103002341587 -0.9056942595080313 0.0032383031856587333 -0.0008389148634709617 0.4630733499331199 -0.2502933904175623
94906000.0 0.6276322323564113 -0.7665687001647716 -0.26516835780771275 -0.9359766829908536 -0.0032980147299348627 0.0027075494081055425 0.4568980993711461 -0.240391496097583
95905000.0 0.6255336070819365 -0.7714676165925964 -0.2864029261976877 -0.968964003660818 0.00147004149766651 8.459671458546139e-05 0.4573585806828621 -0.26666318293637364
96904000.0 0.6139974134533959 -0.7807922201985236 -0.2997029336008976 -1.005696722270196 -0.0040889926056094355 0.0014329214886278172 0.45260499306404706 -0.26994704188505925
97903000.0 0.604230120529656 -0.7864106880006893 -0.3233216460505734 -1.0316053752032062 0.0010897044528718621 0.0011065991654376191 0.4473298060558213 -0.2864416199979698
98902000.0 0.6003406745377429 -0.7905783244913612 -0.3418194977267693 -1.0712762046147666 -0.0006112120518344019 -0.0020078273184186883 0.4425958552339698 -0.28704219656996566
99901000.0 0.5907066882108086 -0.7984960125079014 -0.36872904881274116 -1.098270741470723 0.0003062272170074284 0.002957140968611386 0.4620159927834231 -0.2995994329322871
100900000.0 0.5828938207088014 -0.8010192239219329 -0.39567404013709606 -1.129899807465506 -0.002713040271708351 -0.001948548140818871 0.4562345622373654 -0.314044820720036
101899000.0 0.571172717879906 -0.8104572968754625 -0.41603401527347406 -1.1637988692469292 -0.0013755328099922307 -0.0013908628238021453 0.4403236168754638 -0.3135341743378379
102898000.0 0.5625407946011292 -0.8149043896001115 -0.4510347871656003 -1.1983598325826352 0.0013565147795236837 0.003317597472423955 0.44984192124557004 -0.32955003734500526
103897000.0 0.5531694040311728 -0.8220686708431343 -0.4860586593946101 -1.231755581447681 -0.0014291259044776558 -0.0002608403268933172 0.4572616976654971 -0.32365410125636834
104896000.0 0.5461135578788808 -0.8335391758716986 -0.5305252729879175 -1.259330704249323 0.002833328366184345 -0.002171740132330558 0.43586545210503624 -0.3383209413002281
105895000.0 0.5360396069490724 -0.8354272219187522 -0.5731978694067935 -1.2999245002601163 0.0034277405284102933 0.0020077795561001025 0.42560303676640615 -0.36034602318495645
106894000.0 0.5255074036541452 -0.8413752893023895 -0.618346071835941 -1.3329032412767483 0.0024359126845867572 -0.00011410727130791339 0.43086401135470787 -0.36280174349543876
107893000.0 0.5206119005462054 -0.8465704188274404 -0.6571292595953038 -1.3745370950715472 -0.00053312097749009 0.0008110989399487653 0.4306721492416344 -0.3727624177952914
108892000.0 0.5090774058792744 -0.850967468590444 -0.7211779679680727 -1.4093104587114371 0.0036831046521812244 0.00017962916289406756 0.41627802657807034 -0.36886299564508684
109891000.0 0.4948940221243632 -0.8572995903734996 -0.7741790238782387 -1.4378655333903576 0.0012832582161876667 -0.0003183147357755331 0.4354290707160883 -0.3688116367948872
110890000.0 0.4817833109979867 -0.8722420822305108 -0.8518878597040338 -1.4565998108570795 0.0020250584487708405 -0.001030991678706398 0.43281067815341295 -0.3812199161617646
111889000.0 0.47592559652702554 -0.8657510129745128 -0.889913749382795 -1.5072299443878683 9.363645525973126e-05 0.0022973296425431405 0.4169764699885532 -0.38475759542325505
