! Created with skrf 1.9.0 (http://scikit-rf.org).
# Hz S RI R 50.0 
!freq ReS11 ImS11 ReS21 ImS21 ReS12 ImS12 ReS22 ImS22
1000000.0 0.9721595069273057 -0.0013534040609971432 -0.003971124894896788 -0.04415555003789593 -0.007184542002379931 0.015231372657726505 0.36486043132414503 0.3249368177353235
1999000.0 0.9974360273933087 -0.009729338253695737 0.00850179806080697 -0.025943166121174546 -0.003672276364901119 -0.007970605212102065 0.2544435896610552 -0.0654824962443901
2998000.0 0.9976217982493204 -0.02016730396042621 0.006225071032430009 -0.01631128096046723 -0.005746634989225667 0.0015201584881542195 0.18345915952906042 -0.14948965069492523
3997000.0 0.9997434300379283 -0.026304894282393777 0.00949110570683239 -0.007914400595492603 0.0007314002539829937 -0.004548050894646806 0.06281623466045996 -0.23233165176334028
4996000.0 0.99825860688313 -0.038873145812918196 0.010758821183701308 0.0022821036193915495 0.00046188575193432756 0.0006637174630760147 -0.05214147097778312 -0.18945302510639148
5995000.0 0.9987854461683846 -0.04508518527921312 0.009290888874211024 0.0036053546878305645 -0.00013087137645859999 0.0032845028266268598 -0.11453229737608064 -0.10552306804560332
6994000.0 0.996034568681387 -0.05817958196217603 0.009889723117735096 0.007333515685879182 0.0012149879594864667 -0.004103235516662785 -0.1439140816893347 -0.021151162846649706
7993000.0 0.9998880274950817 -0.0657243153509782 0.0028303837823832655 0.003997606178367474 0.0007514262989612683 0.0014774064781753094 -0.15539314558663514 0.0442929054667993
8992000.0 0.9980591284883807 -0.07094551371795085 0.001685388484183279 0.005397059071187047 0.00337144332492981 0.00047054590925352865 -0.14172697460795483 0.06254541740788151
9991000.0 0.9956586448708927 -0.08213663666365606 0.002266115746539878 0.0008575369369304232 -0.003792647202403526 -0.0033503149414496405 -0.13830753127609074 0.095963838723517
10990000.0 0.99516637493688 -0.08984614653411163 0.0006688189902877198 0.004840457924865633 0.0013629444710096007 0.001360385101743017 -0.13941548697036832 0.12684628376824864
11989000.0 0.9936011804527949 -0.09895372785202534 0.00647172128977997 -0.002791702275603307 0.002095317948208802 -0.0005028214421989736 -0.10923353490202958 0.136797818377367
12988000.0 0.9927725850534403 -0.10818326481628089 -0.0017499282258078659 -0.00459544719219152 0.000852063298992198 0.001547504236902611 -0.10173336704942948 0.16762108140110557
13987000.0 0.9922974596422298 -0.11456305645616044 -0.0008507194011535737 -0.0005832833540620761 0.001979857442264494 -0.00032023099230227156 -0.09214294215401554 0.19610341605105136
14986000.0 0.9909794340786506 -0.12419891175512468 -0.005217665346888125 -0.004095788694266689 -0.0006465871479474336 0.0009396693202473963 -0.08431822257092185 0.204389842566798
15985000.0 0.9916226942691884 -0.13258748038678372 0.00309013770190512 -0.0011212555624230105 0.0010531470386949556 0.0007039126129599083 -0.06096473882214693 0.20876541962055742
16984000.0 0.9894539528561433 -0.14306718403377117 -0.0007588017417235927 -0.0026067860719587717 -0.0007216630619920493 0.0038519803281325646 -0.048015050982566705 0.21818320437096328
17983000.0 0.9896929164516819 -0.14721330175756567 -0.004254137317851047 -0.0018363441930278495 -0.0015865652352677396 -0.002264704336274345 -0.03927769103260094 0.23135852897993095
18982000.0 0.9852658726194574 -0.16055694085407637 -0.005560081839139896 -0.001972277776142781 0.0029520637447564817 -0.0021952884959600045 -0.003392337780859618 0.2356267806069798
19981000.0 0.9875787782125419 -0.16566062498138426 -0.003133666524506511 -0.0010225109583878724 0.004834589077158619 -0.001094284841857261 -0.0028155898084623455 0.24108338780761854
20980000.0 0.9846724754704642 -0.1731773739720872 -0.0042788376737518275 -0.0033831590920590853 0.0018314933332336716 0.0020544815745877636 0.009334143673409921 0.251039703021602
21979000.0 0.9831034558866771 -0.18376992546026727 -0.004955135867495713 -0.005041541950748551 -0.0024201492418356786 -0.0005078985743651869 0.023058422357992384 0.25288182026298456
22978000.0 0.9792501452754677 -0.19326216321870995 -0.005827755825493455 -0.0029932617740062576 -0.0015219446397195236 -0.0031860658252190915 0.03569238044778462 0.25282977855096617
23977000.0 0.9822159858960229 -0.19766500220146124 -0.009007137103994334 -0.0041133420130896655 -0.0012407926326906365 -0.0003471565396325397 0.0453144659350695 0.2427851009333757
24976000.0 0.9768899746763557 -0.20811399884877754 -0.008218551163836775 0.0008614039606347247 0.003707820814928092 0.0015710095718950855 0.07517820459636967 0.25160619599069173
25975000.0 0.9780680540019088 -0.21681017565815347 -0.00589925479653619 -0.003051422285942206 -0.005355037607278501 0.021867813391080806 0.07734859322625853 0.24966082924992214
26974000.0 0.9723131673406556 -0.22682459808623473 -0.0022665489816742395 -0.0008977721134962191 0.0006507746096749183 0.0035860482516039097 0.09205255226102481 0.2712185329580582
27973000.0 0.9722808629267488 -0.23392111765382953 -0.0029495797769311066 -0.0028903716806007915 -0.00218184437275835 0.0010628599567030098 0.10916431278032901 0.2529235311338162
28972000.0 0.9690403079234634 -0.24218975088058373 -0.003640078458541834 -0.000994812517178843 -0.0009589060696830211 -0.002953269040576064 0.11629314698542384 0.2546958830727866
29971000.0 0.9667202795055578 -0.2518513812920156 0.00018996146418326406 -0.0019210582270577721 0.0013771387649759133 -0.0007722610723069085 0.15611687265019597 0.2624642978157648
30970000.0 0.9651792063328312 -0.2566503259451002 0.0007311160769221058 -0.002749559208726197 -0.00041956340989784344 -0.0014964054098859354 0.17484199548286974 0.25229183590550086
31969000.0 0.9632007064333626 -0.26504356858499944 0.004429658276433543 -0.004308878166126749 -0.0005240985330225316 0.002677697635134451 0.15734544458050398 0.24895700277711322
32968000.0 0.9608844450799177 -0.27484182629916193 0.008734197830087763 -0.006186326196814245 0.0026258683403865965 -0.004544679780606698 0.17029924667193827 0.24058944528588597
33967000.0 0.959062756761575 -0.28298570335953016 0.00932989656597279 -0.010043719284241727 0.001162479840966764 -0.001116402999926947 0.19473857125377045 0.2506498932595826
34966000.0 0.9549918354689648 -0.29422671672983286 0.012527533883341142 -0.014311709600594181 -0.0011005134324370365 0.0008062788020093622 0.19997110607387616 0.2594795601903752
35965000.0 0.952616882296042 -0.3021909378200625 0.015046447143690727 -0.016065405452777133 -0.0012520002847952914 0.0002765215812075241 0.22029098478863138 0.24295688124820625
36964000.0 0.9477289890373571 -0.31098644015331095 0.016284751043542035 -0.012976786578342756 0.0008639693927099893 -0.0007282352442668044 0.2190143585666501 0.25296648832530927
37963000.0 0.9468360679097622 -0.3193334867707743 0.02086915750444463 -0.0224607822347015 0.0021906555689620755 -0.0011217807286521934 0.23601731800049777 0.23774196613524484
38962000.0 0.9448107414622823 -0.32904712456803603 0.022431892923157302 -0.023237392745615964 -0.0002251355403586029 -0.0010079234758271283 0.23714243902859372 0.22651549957689365
39961000.0 0.9426653775158742 -0.33332695647045163 0.02459566055697877 -0.027131633761642123 6.652398840533016e-05 0.0018056281386848864 0.2580142584123546 0.2191889657485584
40960000.0 0.9396103851734763 -0.34382549816462354 0.022660926401340938 -0.022608440661244403 -0.0004436568607689293 -0.0009679822581063452 0.2772402324547821 0.2198154674594542
41959000.0 0.9359061873809382 -0.35300550956334403 0.0288922099063455 -0.02860993196405177 0.002481769373138301 -0.0012627237428086654 0.27739592111376754 0.21738751989349453
42958000.0 0.9315656868197715 -0.3600565337027055 0.031300189741766744 -0.03907673607786864 -0.00022709035857451632 0.0009420602081462191 0.2850566390098046 0.1976124289548458
43957000.0 0.9314408047419696 -0.3654595872140066 0.03254232125689929 -0.045357534946497705 7.459846329299385e-05 -8.568927346741744e-05 0.2913959733777941 0.20730339793936786
44956000.0 0.9261053189005807 -0.3727515105805122 0.03331705910507947 -0.05152202933783414 -0.001193573259511163 0.001952666012783522 0.3108134520832089 0.20107861580018602
45955000.0 0.9212456347031976 -0.3846832116083343 0.03654305532457431 -0.05544762127445236 -0.0009869646259633839 0.0004915749124080252 0.31672364984768575 0.1934644745584071
46954000.0 0.9182733509074537 -0.39187296140228467 0.03437661277374958 -0.061832559188049765 -0.001953215718706085 -0.0012470072097624271 0.33405205099225516 0.18385545326932176
47953000.0 0.914957890718705 -0.40002740029100275 0.035346855311073906 -0.07037527950152672 0.0011732839926031637 -0.00042860070274111694 0.3446550526918467 0.1734473008091518
48952000.0 0.9116998874662045 -0.4089035972684884 0.03245676813909322 -0.07739514477804886 -0.0005172941368307234 0.0007825581216220025 0.33807541214222014 0.17370647362107142
49951000.0 0.9072745787368358 -0.4171744339037295 0.03572953485784657 -0.08430638661816747 -0.0016189216057511517 -0.001332494136922228 0.3534193952502869 0.15225368956423177
50950000.0 0.9038250358736406 -0.4226227025918181 0.03449781507081044 -0.09481132803114913 -0.0019782240444216103 0.002191419226568072 0.35882241588784725 0.13856105181979805
51949000.0 0.8986107685929876 -0.4329354708599424 0.038209322077624265 -0.09794088208704461 -0.0009908505128308775 -0.00029334974005747324 0.36716308885928184 0.1463914738682247
52948000.0 0.8994483111283791 -0.440585460969046 0.03703678371228866 -0.10715980150457145 0.0006624653099036964 0.0007106202769659754 0.38517010398596196 0.13943622681155438
53947000.0 0.8907812687800007 -0.4509707884006368 0.039148178945099296 -0.11652179139046259 -0.0014884246096764054 0.0027727543730034295 0.37803158053550195 0.12491440196322567
54946000.0 0.8868738756611437 -0.45733676914696264 0.041402670780946296 -0.12498548143622354 -0.0019614874964781663 -0.0042974180882897365 0.39208766584443744 0.11950685854234794
55945000.0 0.8836352434365767 -0.46739157949494764 0.04149297785754831 -0.13594752043124217 0.0006509816510252756 -0.0027708775475898256 0.3934194103669045 0.10890908801733316
56944000.0 0.8786527801735803 -0.4732577667975859 0.04564307054971181 -0.1461384437983176 0.001585141942222994 0.0002571260936379555 0.40773510694989445 0.100973374802708
57943000.0 0.8749772047251745 -0.4843110895450568 0.04443365778580451 -0.15486125282659963 -0.00046291398100064125 -0.00429656786842977 0.40778323817064716 0.09935732915503141
58942000.0 0.8692614033475712 -0.48939591229515916 0.04386069312986325 -0.16582016216195777 -0.00018734643863360095 0.0016300075036208596 0.4314671669720154 0.0973353534764884
59941000.0 0.866470295968271 -0.49671481772306414 0.04944796209420226 -0.1743380467858073 0.0016364127167430844 0.0012822416570528025 0.4230565150518378 0.07758633683480724
60940000.0 0.8588037547664631 -0.5058310802659566 0.04924033606058326 -0.1788365476491895 -0.0002854428576188048 6.2470811070857e-05 0.4173448767974473 0.07258012883106192
61939000.0 0.8573429760371358 -0.5120991073491412 0.048607492985176186 -0.1883578065164968 -0.0007947693730823974 0.0022449490721640464 0.42623491464575536 0.06844399695616589
62938000.0 0.8516332573717379 -0.5223772085269447 0.05175383717628589 -0.20438354262193048 -0.002539509945355908 0.0004797989380088641 0.4487770756745 0.060236994729851195
63937000.0 0.8461091296047764 -0.5294384836271799 0.05251180557391125 -0.2244775969882468 0.001641431260729591 0.00031836420876829905 0.44520002543035353 0.037620087311203636
64936000.0 0.8405347867735948 -0.5354654193395383 0.05622277467143183 -0.23874675977414941 0.0015293136854494576 -0.0018947507008303221 0.44905633427255065 0.046764842602742406
65935000.0 0.8366908723497218 -0.548441588330664 0.05379533338540526 -0.2527434380342309 0.001881253741129685 0.0009375225139752988 0.45412929034151955 0.019828011582542902
66934000.0 0.8331582899433061 -0.5525718168751875 0.054507604083569236 -0.26185357716166274 -0.0033393677096351477 0.0027823592403473187 0.44544361635472873 0.006209406270428437
67933000.0 0.8295397817274595 -0.5604160869136066 0.055788937104531575 -0.2768026217515047 0.0010398542015328434 -0.0010328166792395895 0.4503974868116135 0.017792469046743593
68932000.0 0.8234657932597897 -0.5662374355445119 0.05101816186760292 -0.2867288405557785 -0.002385703387083519 0.0025642548677263393 0.46193281992130625 0.0007442769377563136
69931000.0 0.8160477390250283 -0.5777733654584115 0.05032980751350971 -0.3033091044021974 -0.001142245706051338 0.003417466306711345 0.45961899759305724 -0.015273922050123364
70930000.0 0.8111288802215535 -0.5811706389551426 0.049515636870359474 -0.31806963111308295 0.0005275780842099607 -0.0019931308148454147 0.4556391078055846 -0.028550444346469164
71929000.0 0.8056208126129019 -0.5913088537388289 0.047818018750711636 -0.33627783258217686 -0.0021956919284440413 0.0030910628639782933 0.45618281596463073 -0.033731539223549545
72928000.0 0.8000952017624864 -0.5998579742652806 0.044118365262578584 -0.35012931332267466 -0.0033703586383194064 -0.00148270791675426 0.47371770790256407 -0.04359817467911908
73927000.0 0.7950806881593656 -0.6078605902943781 0.03717556440245636 -0.3710133932865077 0.001703042962280713 -0.002718828066690892 0.46638999087117783 -0.048415020081300005
74926000.0 0.7901905531165867 -0.6144141713399055 0.03451330533185999 -0.3837733336968058 0.0004125250049040846 0.0015214665107776393 0.4764830298537409 -0.05465006103600498
75925000.0 0.7828777722613427 -0.6192403306690523 0.01898182710170609 -0.40133198864348335 0.0032290371289439186 0.003146983437786353 0.47328410315512437 -0.060416293213417196
76924000.0 0.7761733241756443 -0.6309047701635566 0.016090682933473894 -0.42359672994948205 0.001438233436877734 -0.0009053037562320514 0.47224554016368564 -0.0821422094997984
77923000.0 0.7710350309481807 -0.6345708040453312 -0.002950023943318725 -0.44472250122567875 0.0016674662071437573 -0.0005446032854313427 0.45631558825629587 -0.08901323611862842
78922000.0 0.7663796808964345 -0.6467703192394341 -0.014960783880564143 -0.4744280825559223 -0.002156910055523194 -0.004166437397871583 0.47537572133046424 -0.1060300561470229
79921000.0 0.7569899424203214 -0.6503158694384434 -0.03237550175082064 -0.4953941074146347 -0.00032425721407830814 0.003140645342194367 0.4578727760347119 -0.11535919996370714
80920000.0 0.7503258917305464 -0.659661217713881 -0.04656713674303783 -0.526651906170295 0.0036382337898798285 0.0007002241705630144 0.4738179281138683 -0.12497950615953446
81919000.0 0.7482913155859526 -0.6660482691394403 -0.06380111897965815 -0.5488280155257598 -0.0007644653514656842 -0.0023499199297102548 0.46460557922976486 -0.12819185712663134
82918000.0 0.7358464044989966 -0.6753315130940499 -0.07840355267801008 -0.5823543359308545 0.0014181773921885439 0.0009738426329311634 0.481637631093591 -0.13525986483637342
83917000.0 0.7304396234141671 -0.6818774993006952 -0.10108805826472157 -0.6076520125583953 0.0001622215349087048 0.0010916401452346208 0.47866331172607957 -0.14826817382170057
84916000.0 0.7247318560635703 -0.6881310011172671 -0.11198128304447112 -0.6416210626730657 0.0034472466831433303 -0.00031424634421629865 0.4766242345803372 -0.16327931753810002
85915000.0 0.71852348914065 -0.6949767227678537 -0.1355587677620994 -0.6734715985732592 -0.0036576657956210604 0.0017434055832604635 0.47122146658796926 -0.16432924677817817
86914000.0 0.7102436604460781 -0.7058196838046925 -0.14883580611548386 -0.7052907623774425 -0.0013581169479053583 -0.004818864384148224 0.46740920800072727 -0.17386001962824266
87913000.0 0.7031998077083761 -0.7114624891221624 -0.16806629525972985 -0.733913894468329 -0.0032794029242814264 -0.0009987305098551002 0.46844843976520933 -0.17448444924846762
88912000.0 0.6975740054044429 -0.7171954134390446 -0.17783935956736874 -0.7697328810786688 0.002304682019344703 0.0011508229059825938 0.4732633778324713 -0.19896047112831114
89911000.0 0.6895237785461629 -0.7263398407711243 -0.1977666257388318 -0.8037379419891019 -0.0005794535787565043 -0.0010344617924772667 0.4786002092792051 -0.21443305029519358
90910000.0 0.6844279195707667 -0.7309965027091663 -0.21224962872359507 -0.842676376450471 -0.0002918140017181462 -0.0034190908791761065 0.4689773384215863 -0.2079504255754361
91909000.0 0.6728962300456878 -0.735183274501876 -0.2268301204698858 -0.8724538487333398 0.000673497056131979 0.0006939985990256451 0.47982834486103426 -0.21481401498254343
92908000.0 0.6652603171295259 -0.7452038208052361 -0.248085710352511 -0.9018783032338067 -0.0020745796493078492 0.00043305818583502293 0.4583351067911664 -0.23108696800280643
93907000.0 0.6584773512955646 -0.7520579125012766 -0.26890693796318726 -0.9324681820417586 -0.002112889003516558 -0.0011288058833895255 0.4691173605978443 -0.25495068726660075
94906000.0 0.6455709245549579 -0.7595730607349479 -0.28158045493732375 -0.9669733819574817 -0.0004576775275451696 0.0004686693624423732 0.47093795549159323 -0.2541445499364449
95905000.0 0.6386979324171366 -0.7673438855220486 -0.3007566437172667 -0.9981674074572489 0.0005332272216571136 -0.0012941198082452937 0.46943473909403544 -0.26672389581309514
96904000.0 0.6335274013616294 -0.774775420424513 -0.3165774458154174 -1.0398313125295786 0.0016898405786753689 -0.000953998594790419 0.45888886819375235 -0.26288169853349813
97903000.0 0.6227217711482138 -0.7794264408364856 -0.3384082138387332 -1.0685267744682296 0.0017721376978528031 -0.003963888123528333 0.453366851024228 -0.27846391217961336
98902000.0 0.6196433864943792 -0.7853960417488601 -0.3545723574567038 -1.1077396174515 -0.0023465953856098933 -0.0004439002231305559 0.461848200361084 -0.29387899535051504
99901000.0 0.6097104116539607 -0.7930605059859921 -0.3812463228507356 -1.1368808648375575 0.0010896097406503662 0.00021329957947647672 0.470246359492006 -0.30367411824275553
100900000.0 0.6007121562388237 -0.79616539393012 -0.40764056600074045 -1.1681856659108585 -0.00036453333819747746 -0.0018885818226136255 0.4739118753670746 -0.3057806464282238
101899000.0 0.592042130918395 -0.8038885547005915 -0.43091095300593296 -1.2043606858115714 0.002682347883974422 0.0005364589504910309 0.46045962532298584 -0.31716323371004945
102898000.0 0.5807548706451684 -0.8120069826589632 -0.4693687348880636 -1.238664206053674 0.0009245043155564873 -0.0009324492277322297 0.4668235778818814 -0.3406344512150218
103897000.0 0.573252245450959 -0.8194961742475884 -0.5043368031646734 -1.2749312215106496 -0.001942132938857153 0.002163410287094447 0.4692895815563483 -0.3284165894145233
104896000.0 0.5656402918748841 -0.825990640026687 -0.5413245834964764 -1.307435923105743 0.001135069116614879 -0.0005587333445420259 0.4461546143517939 -0.3306593848745292
105895000.0 0.5554017568186634 -0.8293335879076299 -0.5852788730209344 -1.3486411208784732 0.0012597881407231657 0.0029854343368751674 0.44015360985855384 -0.3602612262310281
106894000.0 0.5459783727307791 -0.8346801889539792 -0.6382169757748399 -1.377904018172825 0.0012242809142064069 0.0034772473373071875 0.4385965498031238 -0.3651958953230389
107893000.0 0.5375308554347568 -0.8411242520273557 -0.6786568203291444 -1.4133854609927667 0.0014985451068262946 0.00041880939001289077 0.4364704082713282 -0.3773585738478193
108892000.0 0.5293712344367713 -0.8444150323975106 -0.7329210489306665 -1.4511425727733893 0.0014135083919634768 0.001557559507161388 0.4276498888319898 -0.36999067555816434
109891000.0 0.5172687912378864 -0.8535733508207106 -0.7868731765848452 -1.4843590213877758 2.033980818895747e-05 0.0006094377994124802 0.4404917770187336 -0.3739313777471453
110890000.0 0.511796449983985 -0.8572922200765563 -0.8485062600029798 -1.500612399139683 0.0013627776509204776 -0.002096574176544122 0.43991823469887315 -0.3821994210937887
111889000.0 0.49880507508589955 -0.8594927952138691 -0.9119284113427019 -1.5503578025688056 -0.002737436195902374 -0.001894692261651886 0.42433966739316226 -0.39913031488683043
