! Created with skrf 1.9.0 (http://scikit-rf.org).
# Hz S RI R 50.0 
!freq ReS11 ImS11 ReS21 ImS21 ReS12 ImS12 ReS22 ImS22
1000000.0 0.9830804985882792 0.010391939795265473 0.004970740908861667 -0.033321237918099156 -0.004764873757238241 0.019748105995555182 0.34404281760945044 0.27004158467974976
1999000.0 0.9995315352648149 -0.011199269548163639 -0.0016537678519490519 -0.025983912483809282 -0.005609192551879316 -0.0017904776557225183 0.24223388347563202 -0.05357106251768706
2998000.0 0.9999080161412819 -0.01946705892440258 0.009530096875597785 -0.015054157049154937 -0.005103576202030354 -0.0064154478480125945 0.17388304489523954 -0.13130333469855252
3997000.0 1.0019334563418252 -0.031591763041710505 0.013034164786026724 -0.007386756435154805 -0.0021974915552078434 0.00112901115374925 0.08197553612801876 -0.23441833874638282
4996000.0 0.9986896717344093 -0.03653938881957213 0.013023221600294932 -0.0039110616557670765 0.0036918011662608204 -0.0011725031137251828 -0.030611817501398866 -0.21244127733305748
5995000.0 1.0004566897914091 -0.04962920387540082 0.005510722339946295 0.0010503834978315486 -0.00018141594471772252 -0.006155191207867241 -0.12598558871874224 -0.1010547905900157
6994000.0 0.9970475754333609 -0.05784223642647828 0.008764847039380848 0.003772398234327441 0.0014881199106049003 0.0013598127078981366 -0.14764709485798555 -0.023061684213365956
7993000.0 0.9985610309540288 -0.0629407923260988 0.0034126990146287756 0.0004287930132275761 0.0020613487329054383 -0.0029162309226549847 -0.1682364628686464 0.026142621854866682
8992000.0 0.9957057884362122 -0.07247569736995443 0.005510382740879829 0.00044823596357020535 -0.0005153907324033669 0.0036194518011512075 -0.16861434171325698 0.06572258409295088
9991000.0 0.9949471353014093 -0.08266691562093573 0.0026119379441331527 0.006076185728892549 0.0015146008399804802 0.005185568674738618 -0.14143238074094497 0.09944294131786519
10990000.0 0.9948204657769635 -0.09241930002605218 0.008085487935641214 0.004153289290851333 0.004052755455786733 0.0005610244982127495 -0.13224082203737864 0.13230770987315274
11989000.0 0.9933355785274568 -0.10124456189604876 0.002552749626550176 0.0019678375976304387 -0.003374648760999176 0.0039563687368579185 -0.13208217992539018 0.14451668400623113
12988000.0 0.9901607221285419 -0.1096552719703193 0.005619290658537079 -0.0010147589405262298 -0.005694505209217951 0.002904631070530235 -0.11059019912616902 0.17205521742229815
13987000.0 0.9898180353309801 -0.11932295677914877 0.003707556657755292 -0.004927567081972037 -0.0013099128180780798 0.0029011860416792894 -0.09249948052219094 0.18720769743184923
14986000.0 0.9884118324010999 -0.1257338367127165 -0.001460533092407755 -0.001270158599696054 -0.0016584848321971 0.00036346588754401283 -0.09109021092665597 0.1916449471937555
15985000.0 0.9901606171643664 -0.13501362785541698 -0.0022141935327029995 -0.0054504995923618065 0.0021758085858759662 0.00026802557066897277 -0.0688352284756243 0.21993236483643921
16984000.0 0.9864509782858578 -0.14412677061834936 -0.0002753909271986955 -0.0057205789631365675 -0.001398781309522259 0.0038679258148174448 -0.06688139264353361 0.22390681417087666
17983000.0 0.9865486497521606 -0.15022085357295992 -0.0020581513159129094 -0.0031645875834468476 0.005685464244921932 0.0011539485509390274 -0.05715104380084811 0.23553321786795497
18982000.0 0.9844326563642753 -0.1593142600132727 -0.004058696610936769 -0.005087734241611917 0.0002460832653737119 0.004470789984260837 -0.012458350849089866 0.232100048217121
19981000.0 0.9849985288177305 -0.16713578567113144 -0.003756405140523275 -0.004603578553739505 -0.00033856526934496797 0.0018613519106803445 -0.01406297599323866 0.24256876423351298
20980000.0 0.9829453975229968 -0.17576067317337457 -0.004228758345468911 -0.0036426771848363177 0.0037127646886622313 -0.0003706150615164536 -0.011202587383050073 0.25665028230815806
21979000.0 0.9797564108207925 -0.1828914777800169 -0.004795771804247999 -0.0063343011534406765 -0.0008463850796884159 -0.0027613696629174506 0.0107213445787382 0.24258891060251286
22978000.0 0.9792969554542241 -0.19350729340282602 -0.002507121664540519 -0.004605046914157508 0.0011510719800850474 -0.0030497000463427693 0.03616430011073641 0.25155951553815376
23977000.0 0.9787059601148234 -0.1988249815182229 -0.004037013074531332 -0.005555687599367254 -0.0029689966097778864 -0.0018798817360747497 0.04437767810592273 0.2519603319742358
24976000.0 0.9745975860143183 -0.2097641758762999 -0.006075710056970876 -0.00019103195545041937 0.0023832024182001326 0.0018093043312790253 0.06651455841135644 0.2658763225910729
25975000.0 0.9706595966296382 -0.21619405199909697 -0.005150052596846419 -0.0033858725228684337 -0.026716009762760846 0.00738483843756701 0.0859200853422357 0.24974394119696464
26974000.0 0.971394173412128 -0.22731385687187794 -0.002612779112935206 -0.0014699601474562226 -0.0006356272048154322 0.00012183083168279085 0.08587809188523332 0.2729682578729465
27973000.0 0.9699211336195876 -0.23584792916431124 -0.0006211454737860006 0.0003801015033240002 -0.0017793209873894508 0.0005258485706783175 0.10708824872475516 0.24754107379193654
28972000.0 0.9667459547504333 -0.24418801850965813 -0.004983509435272026 -0.0031714612516874144 -0.00048642262608999156 0.001817885766683021 0.12018015706391341 0.2572467281581889
29971000.0 0.9658388840414113 -0.25176887046980484 -6.781421080538726e-05 -0.0025561458328328688 -0.0002806522669244928 0.0005201765538950629 0.14881319484203437 0.269745543002858
30970000.0 0.9623389209569074 -0.2580407862945219 0.0009323372875612517 -0.0032612200627984197 0.0009748016825455119 0.0008122433631950703 0.16807671945447605 0.24885747406381298
31969000.0 0.9601244038871629 -0.26705614073134504 0.0031487847233433648 -0.005645959150732446 -0.00016767728882716534 -0.0031730837100630628 0.15550142919944596 0.24704159178350857
32968000.0 0.9587288030041751 -0.27734038613260364 0.008394332207155266 -0.007807214366290691 0.002822313595254314 -0.00016446614522954195 0.16804640767916312 0.25207230370496575
33967000.0 0.9568806881186896 -0.2855709602979671 0.012694263262121447 -0.006788822078008362 -0.0008838039527010876 -0.0018322590956810485 0.18945765583380247 0.24270344994655607
34966000.0 0.9542807113196379 -0.29403182331218136 0.01267733855074203 -0.015294135339072621 0.001726690373021617 -0.00455464421554686 0.19925303980236925 0.2543866724211696
35965000.0 0.9510065124080448 -0.3019751999610024 0.014654999021102615 -0.017702471458569888 0.003184436894850652 0.0002392845280057609 0.21417298317180253 0.24636346622681451
36964000.0 0.949688387987285 -0.3106825590005203 0.01731910943617697 -0.014457800719256229 0.002336049609450441 -0.001524009557708364 0.22189491709191655 0.2529595182094785
37963000.0 0.9446893767731872 -0.32157211696894245 0.023649087408330736 -0.02477375714366177 0.001961458575157575 0.0024416247363673264 0.2336043515861206 0.2331469668879013
38962000.0 0.9423986713490905 -0.32944644244773524 0.021782843692155746 -0.02342382274785887 -0.0016546897549368446 0.0018592103782539096 0.2449137083854084 0.22613563435891107
39961000.0 0.9411161310990559 -0.3367226909329761 0.02545132303861471 -0.027450007092058828 0.0012210857798090158 0.0013503452568688528 0.25613321770489533 0.22285181926144706
40960000.0 0.9381656132587374 -0.3455760009822111 0.02254774460170695 -0.022709792524728076 -0.0028418953084575296 0.00043431704232747213 0.275884973655469 0.22183773316575603
41959000.0 0.9332667119334095 -0.354857082235937 0.027771682698308674 -0.030724014307776628 8.077125262721582e-05 0.0007433074397354238 0.2687893726907431 0.21863771677484387
42958000.0 0.9299695773163725 -0.36185817724490793 0.03182024554261106 -0.03817879714118743 0.0007262925004260059 0.0008084972969620495 0.2879599938566457 0.19776663866051972
43957000.0 0.9270200436147286 -0.36928588517102395 0.034075763774931524 -0.0467883232480612 0.0012459636588573223 0.0027623592295910526 0.28712177788605775 0.20998284151937113
44956000.0 0.9239154467298715 -0.3778081245539091 0.032121061628034395 -0.05356111852050904 0.0007824213328401334 3.545500806252927e-05 0.31467066392309484 0.1816375411945413
45955000.0 0.9213140470917138 -0.386786145688399 0.03400977252003744 -0.05784803687226824 -0.0024536912216773406 -0.0006305506273825758 0.32155512597798347 0.18896378034502584
46954000.0 0.9165851957261474 -0.39472679900870683 0.032931482516304074 -0.06644470475589728 -0.0024924695746039163 0.0028501714923445877 0.3326907911583771 0.17134118174978571
47953000.0 0.913215877628895 -0.4018000704224515 0.03540141018172666 -0.0702165547835775 -0.0020218931815025264 -0.0021892242714243765 0.34885099119560103 0.16220580135077384
48952000.0 0.9087020747245501 -0.4118231985710595 0.03824554250707583 -0.08214017794301066 -0.0021586696128484406 -0.00011081625186791444 0.34444950298863025 0.16110709840316037
49951000.0 0.9058886330133378 -0.4186147361121278 0.03512259891838498 -0.08735661835778823 -0.0015072360539108746 -3.1946107190310226e-05 0.3677721795339388 0.14555665027011405
50950000.0 0.9019119517558988 -0.4284662767685052 0.038160197184109686 -0.0959764590908097 -0.0026334136052251446 0.0003099010912212263 0.3475402658102863 0.1426955323950808
51949000.0 0.8962850011403678 -0.43662905228673327 0.035671396236312804 -0.10318063677920372 -0.00042118247286811964 -0.002074479662276229 0.36793686004430887 0.13421146639067275
52948000.0 0.8956570859612817 -0.44343642514496406 0.040048558191747755 -0.11276448236746443 -0.0008547625668763532 0.003227469567918952 0.37330400196476266 0.14612426597280997
53947000.0 0.8881454739604057 -0.4538419936648065 0.04270941667656747 -0.12090502520010218 -0.0011329614277160527 0.0005226996272206469 0.3783583080522015 0.1224835539363364
54946000.0 0.8846162377787231 -0.4609854768896929 0.04373429645761438 -0.13174914268911772 0.0005351222239651223 0.00204091197477491 0.39460977647994044 0.11678760589827776
55945000.0 0.8823137056499094 -0.4688382248828747 0.04543682683544498 -0.14260867116737952 0.000615645572362988 0.00286459997144206 0.38968120104798565 0.0958094997651037
56944000.0 0.8773020034617236 -0.4778497192444984 0.0443194127090709 -0.15163999775432946 -0.0013013387885447304 0.0015896874344439329 0.4095733530182808 0.090665175576749
57943000.0 0.873804811688887 -0.4873296560207973 0.04612729936287732 -0.16251093591600999 0.0015175867498089946 -0.00044661665075226587 0.41076303190393 0.091561700721923
58942000.0 0.8666315526594526 -0.491535694143433 0.043766067133942474 -0.17352327596618627 -0.0012676079603512406 5.691635808946039e-05 0.43377716425243656 0.08253141718324374
59941000.0 0.8651521909909827 -0.49956586021114585 0.04776849583627312 -0.18287234810334216 -0.0005772122190944094 -0.000429432346621802 0.4261661843530423 0.07468294122842738
60940000.0 0.8573813785430904 -0.5070355618470462 0.04941539372884831 -0.1861942243247972 -0.000353807578064641 -0.0011248888276198822 0.41499944224676044 0.06210689322746528
61939000.0 0.8549350343337042 -0.5142291556473905 0.05148579994159059 -0.19473680180609035 0.0004883777756894779 0.0013816667775728697 0.4232787022624057 0.06206328458649035
62938000.0 0.8477682638737758 -0.5249611896144742 0.05086726749053589 -0.21410594764344185 -0.001456543335780782 -0.003507556168259119 0.45125307356474925 0.044134795374251315
63937000.0 0.8441961547354642 -0.5309779809962522 0.05433086008709943 -0.2326387434719248 0.001641232322756589 0.003293695327324465 0.44819219837005775 0.03383562217212498
64936000.0 0.838172469475914 -0.5382724171993659 0.05211489579347687 -0.24586120573810552 0.003032710052403176 -0.001843411687104301 0.4385508283581841 0.038070376426305286
65935000.0 0.8341311553388574 -0.550405485941104 0.051218267398015334 -0.2608083997363494 0.0017909075097586379 0.00045371081515224515 0.44163843935371727 0.011318834624333684
66934000.0 0.8297703898968383 -0.5524948930482968 0.05480448140633398 -0.2752550611770705 -0.0010748896462445825 -0.001711973507416571 0.44480551465659585 0.010369276540381566
67933000.0 0.8270715572016917 -0.5630062824063056 0.05331842355134018 -0.28857761969730067 -0.0001946483600881408 -0.0015140095630556622 0.45013898400168945 -0.00532457872199542
68932000.0 0.8106851132336378 -0.5646773166166354 0.05032283100036824 -0.29855687190275554 -0.0012399459644617534 -0.005397557866425797 0.4651268107349783 -0.019789511155096362
69931000.0 0.811514524382405 -0.5787441666759147 0.049615478868135006 -0.31706373153914286 8.971884514583115e-05 -0.003950493453026052 0.4474603774335649 -0.024819878320041327
70930000.0 0.8063659602945019 -0.5873066627302347 0.04893324033735889 -0.33239068965351043 0.00233159385796494 -0.0024355142951746696 0.4502640859870346 -0.0410927907752723
71929000.0 0.8040130371830897 -0.5967145325275928 0.04377398630224674 -0.34852326063495487 0.0025680977214517756 5.524883821980938e-05 0.44753009916136505 -0.0412106145789985
72928000.0 0.7980826716726591 -0.6026644289037063 0.040519813364311416 -0.36545325946573715 0.0027697275594248407 0.0015501169151591486 0.47418659424579496 -0.05888039552188704
73927000.0 0.7911407874746258 -0.6067795687430724 0.03265338026019084 -0.38675424495930616 0.00549318170677539 -0.0015354470965970196 0.4640211100597591 -0.06405585763276418
74926000.0 0.7834114899659119 -0.6173558580667959 0.02903958569521329 -0.40340231360610024 -0.0010595112732656817 0.0005982777039861457 0.4686057374918758 -0.0666308905171261
75925000.0 0.7790437982678825 -0.6237868199099358 0.01530506519204989 -0.4212837655525158 -0.002851970104401433 0.0007590123900335737 0.46847170198406957 -0.08085049209589924
76924000.0 0.774124529876913 -0.6297084500051182 0.009445216267386838 -0.44458143175817894 0.002703390994835998 0.0016458868766533242 0.4654807994764932 -0.08591685298429372
77923000.0 0.765059317282239 -0.6372142811461734 -0.00913501891718674 -0.46344796766534935 0.0017377488079153309 0.004565048689366724 0.46192769573645437 -0.1081535892405316
78922000.0 0.7607081402051892 -0.6473398841501753 -0.021778484961045386 -0.4970141317796623 0.0029379163834413993 0.0022550707281162176 0.4678784832095212 -0.11580880568660505
79921000.0 0.7521601870569492 -0.6526580929824245 -0.041600086927432334 -0.5209732626416831 -0.00032680131234509634 0.0015833494258531572 0.46488177473132325 -0.12513667419128247
80920000.0 0.7492780354402206 -0.6643856773861424 -0.054321112570948044 -0.5476538211272741 -0.0014262812549091358 0.004472964580934531 0.4668528932550113 -0.13741604504360128
81919000.0 0.7427341617246972 -0.666641465533844 -0.0714734088341698 -0.5779391855192236 0.002152960046820666 -0.0011055883834836346 0.4635634478898902 -0.1409306124532106
82918000.0 0.7346306366978888 -0.6742025570923434 -0.0903130227219388 -0.6055600806780665 0.0022010506440996278 0.003940330032282653 0.4836656033096718 -0.15467554557877347
83917000.0 0.7270310481509079 -0.6835584227596001 -0.11051078275608156 -0.6319777851290646 0.0006650522858191021 0.0010596826855751617 0.4765042626276334 -0.15442870009714968
84916000.0 0.7224214981331305 -0.68968917448158 -0.1272912081290532 -0.6693291739025322 0.004702229743176326 0.007876809808290912 0.4689532344613573 -0.1762625103339654
85915000.0 0.7145229323047422 -0.6966599666606605 -0.15064976710485248 -0.6971298713089648 0.0009573811480499636 -0.001375721703041547 0.465831983860581 -0.18433528139104394
86914000.0 0.706685832974765 -0.7064267066085219 -0.16666805797826836 -0.7369332310153699 -0.0026109033351210077 0.003237373030954882 0.4670889709126488 -0.17959181212338926
87913000.0 0.7007256127817312 -0.7112320884603475 -0.18698058452156563 -0.7707431553721212 -0.003878539122978704 0.00011737272395061578 0.4625745578745734 -0.19835312362587826
88912000.0 0.6925106278859173 -0.7193369626691323 -0.20147421457992937 -0.8000993518241347 -0.0008986978685220007 0.0024162985010554904 0.46213295203610627 -0.21197021388486142
89911000.0 0.6863402374838643 -0.7271208960218326 -0.21499531695177235 -0.8398452630346896 0.0011629552068417816 -0.000911936075279177 0.48020701769019897 -0.21882683496565244
90910000.0 0.6783782885493741 -0.7329537309802182 -0.23320010630323768 -0.8730264670794113 -0.0007514227469060775 -0.0009353712763230036 0.4653868172768011 -0.2283837958042763
91909000.0 0.6697076159084661 -0.7375490971672316 -0.2520803843027717 -0.9063705324947225 -0.003182610197159144 5.672536261351564e-06 0.46164091707316224 -0.2337014588397979
92908000.0 0.6611752899060338 -0.7472865427221823 -0.2743758139522148 -0.9400242113068469 0.0040935251637876716 4.690075791621603e-05 0.460613472250651 -0.23845684017490193
93907000.0 0.6551089393138599 -0.7525378059493553 -0.28950087230772575 -0.9721286007134374 0.0012006271322062207 -0.0019996999368430916 0.47127622978988565 -0.259235124780634
94906000.0 0.6432284731360225 -0.761790617577495 -0.3058666262395212 -1.003615000691925 0.0006586355001573342 -0.0033161727280980853 0.45951287433181764 -0.25559973428646426
95905000.0 0.6384321489585615 -0.7668920811914498 -0.33070429592137207 -1.0417687708815953 -0.0033093043036639506 -0.0009383143841891453 0.46035081602565664 -0.28263655262105075
96904000.0 0.6303890320597422 -0.7757005275128936 -0.34891067120482266 -1.0780056124827921 -0.003434812547164183 -0.003944236357882663 0.4535789981727681 -0.2815857446562025
97903000.0 0.6208251182462977 -0.7823888575474925 -0.3714292643558812 -1.108172170767724 0.001750724867967061 -0.00024761117363058816 0.4462851627873877 -0.2935811102571738
98902000.0 0.6150220492112503 -0.7887932668982377 -0.38862990903989314 -1.147170602744267 3.713612155707024e-05 -0.0014168324186836314 0.45121445688007644 -0.3029961589763435
99901000.0 0.605613775767918 -0.7939682457158636 -0.4154397394920206 -1.1794153735028223 -0.0017737617072604264 0.0021569672333757364 0.46593758362095744 -0.3188945623720532
100900000.0 0.5977219880296023 -0.7980964061208018 -0.443239398083082 -1.2094260475212808 0.0004074414888861384 -0.001221261896846965 0.45286271059885025 -0.32061244613561407
101899000.0 0.5892333850271857 -0.8056388251135892 -0.4714734038518655 -1.2459592548058445 -0.0005921132653272735 -0.003862169633072125 0.43910067624495364 -0.32386260586585847
102898000.0 0.5775055033096346 -0.8116773693722683 -0.507499374632729 -1.2839234763600165 0.001979442236960054 -0.000764230038592816 0.4593329359390981 -0.3429343619274226
103897000.0 0.5700590102828458 -0.8170460162606157 -0.540301789029633 -1.3187715601924308 0.0016004071646712223 -0.0021520916583335895 0.45518100039605364 -0.3462058276119104
104896000.0 0.5628935724237913 -0.8294537561461652 -0.5860775560653341 -1.3488331003917737 0.0017887705082195858 0.00047716120805011396 0.4253241495497681 -0.3442901900646699
105895000.0 0.5522811086411806 -0.830421335558684 -0.6260532444951362 -1.3907884217040756 0.000997064411451421 -0.003698983108629456 0.4194498653376963 -0.36796335650875406
106894000.0 0.5433145485018351 -0.8366608023633276 -0.6868074510653221 -1.4250291841889258 -0.0004609955344066725 0.000552921845892443 0.4258986278131556 -0.36933799601431644
107893000.0 0.5345041734187088 -0.842105380445929 -0.7365820249947687 -1.4679698996217894 0.003214918242215505 -5.40938428193778e-05 0.42749321825808834 -0.3973981394236043
108892000.0 0.5258153826426093 -0.8465237082896181 -0.7915286190279035 -1.5032113582047535 -0.0014050415113880717 0.00045672667762823176 0.42789642907348824 -0.38305242199228723
109891000.0 0.5139625069309709 -0.8537252852863336 -0.8470790918250856 -1.5356949256856938 0.000601212060583356 0.00029693830288144877 0.4356132893024637 -0.3788202464917736
110890000.0 0.5097232199200288 -0.8632043010216979 -0.9171575680886142 -1.562262486683265 0.0005040905193401511 3.0448017385090005e-06 0.41880183899839557 -0.38463824429788823
111889000.0 0.49527036563343974 -0.8605150701703712 -0.9774232225022285 -1.5993280160784278 -0.0021890760781800274 0.0005295863145285688 0.4167011090015223 -0.4119900451599546
