! Created with skrf 1.9.0 (http://scikit-rf.org).
# Hz S RI R 50.0 
!freq ReS11 ImS11 ReS21 ImS21 ReS12 ImS12 ReS22 ImS22
1000000.0 0.9943801076126086 0.015626712751786315 0.008341665123106844 -0.04941658325392441 -0.0029456779658576186 -0.00140988299006014 0.3354961325138423 0.3156457970673051
1999000.0 0.9974112430718756 -0.01656748556981409 0.007742552386340488 -0.02873335752593444 -0.009020683904953586 -0.00311128067075462 0.2557489403748571 -0.044693142889908416
2998000.0 0.9968360422883965 -0.024856217433397595 0.009636779996462626 -0.016752325652955705 -0.0023882796234006584 1.9102342026570034e-05 0.19430408904928728 -0.12341885440939175
3997000.0 0.9968819982512466 -0.03118410665069393 0.017908399480074073 -0.007193014470059317 -0.0007628572390488851 -0.008982684523310988 0.08810318671541008 -0.21915889151807094
4996000.0 0.9927932245265915 -0.04047771509229464 0.009248735765886699 -0.0035013124152106423 -0.0005398839831655915 -0.004005293178263641 -0.04483071738115236 -0.19437931271133574
5995000.0 0.994279543112733 -0.05287737138450605 0.008894147679226807 0.000915345660556927 0.0005342614580005892 -0.0028039695396760438 -0.1183838501550522 -0.09702819202410269
6994000.0 0.9932132973792189 -0.05903526410874441 0.012848518364736095 0.005344970417686081 0.006483220682715491 -0.000761011774446413 -0.14451901997207975 -0.0096014244946267
7993000.0 0.9925069744398052 -0.07098487727561284 0.002868694561058327 0.007303443896372065 0.00031558608180080487 -0.0027460373815523004 -0.14906417909621772 0.03870429474064507
8992000.0 0.9907813270043079 -0.071682933381614 0.003969609604892464 0.0055822765874457975 -0.004167587108410174 -0.006577377171457733 -0.15763293209297408 0.06656898893975954
9991000.0 0.9896509006204247 -0.08592490507496872 0.001024808508711621 0.0027217487025572844 0.0028571602999620813 -0.004621285036688451 -0.14187336245156834 0.10206017710491158
10990000.0 0.9894029717882276 -0.09618004655136976 0.005231742788246125 0.008805804696552988 -0.005137933569366046 -0.0012036929206743208 -0.14545282636565074 0.12172077625140196
11989000.0 0.9856692626175148 -0.10179276019955845 0.003375918508508249 -0.0014974199673142602 0.0009401959947105144 0.0023268423744661577 -0.12246286912622284 0.13575470028832745
12988000.0 0.987047873340578 -0.10999392846354003 -0.0006111267938085384 -0.0013287227719074046 0.0024186213953361416 0.0025610218545186717 -0.10560935825238309 0.1686792010726865
13987000.0 0.9850110748867439 -0.11647442054142901 0.00469223951974706 -0.006569134868255019 -0.0035159373729370647 -0.0028607501781498525 -0.08601917958059742 0.18343315555408987
14986000.0 0.9836294545056679 -0.125917139238002 -0.0008009236664154895 -0.0013839129985629768 -0.001376369026696227 -0.004629922056293311 -0.08290337419117932 0.20209499250779894
15985000.0 0.9864192612256519 -0.1346960981581841 -0.002019627285779596 -0.005721492662176063 0.0015261866344064242 -0.003533815741144293 -0.06204628739349513 0.21369671823753825
16984000.0 0.9828687889413138 -0.14456408510427196 -0.0035725954916343357 -0.0019725984383431967 0.0015536063931730667 -0.0007871297602154134 -0.0600111087606014 0.21016569905484875
17983000.0 0.9831701192591177 -0.15086793832359613 -0.0012765908468941795 -0.0041846647788354565 0.0036350299111224896 0.003697439063871753 -0.04739403353727845 0.21911237062785233
18982000.0 0.9792880507896244 -0.1615593847000471 -0.004301286797501706 -0.0041692224063531935 0.002501080281169752 -0.002352261978191169 -0.016995290923539394 0.23917796725265952
19981000.0 0.9800691367199317 -0.16773771835233636 -0.005252416104278087 -0.006915568412539941 0.00022055251867023653 -0.0013306137480321681 -0.007214372844257308 0.24732980597813953
20980000.0 0.9779040673212986 -0.17905642444341696 -0.006620993388655396 -0.0024745839012612868 -0.001337544696803474 -0.003079008508278745 -0.00646630952272531 0.2562949357926776
21979000.0 0.9766234940106128 -0.18805722158030144 -0.004243520312775439 -0.005937827097917406 -0.00044106704958621 -0.0022303422075576913 0.021527301710939393 0.23819778452161597
22978000.0 0.9739319524996758 -0.19692808771013168 -0.003542195980392656 -0.0011999285644946163 0.0024685406149726912 -0.0020142415836314786 0.03552868925774461 0.24493596608770346
23977000.0 0.9720623812535704 -0.20317767065216222 -0.0054387226348732946 -0.0009534217399020687 -0.0003430209975228353 0.00363157393243404 0.048163933824296484 0.2634430074403357
24976000.0 0.971382571863793 -0.21197050571313705 -0.008381312991117352 -0.005628790443516928 -0.0031640017597749635 -0.002570761259187818 0.0665988781842064 0.26217948476294867
25975000.0 0.9634397995664916 -0.22625212458511565 -0.0019573258291751645 -0.0016460999698814638 0.007813281396200798 -0.02188618186901001 0.08163032808898028 0.26461019269545427
26974000.0 0.9677780938176972 -0.2292804583726762 -0.0015066206590679911 -0.0018121486597598808 -0.0033701503324202104 0.002847538759470702 0.0977355451954323 0.2719431332068372
27973000.0 0.9676139708985378 -0.23359268060014982 -0.002117942810908109 -0.0013593863205588975 -0.0010033895729017926 0.0003687198668745123 0.10576501794397547 0.25681718775095747
28972000.0 0.9627731224778329 -0.24691630676867765 0.001018090401210945 -0.0019212670568003133 -0.0021410134641943915 0.0013759514476675153 0.11920852087671716 0.253948751078609
29971000.0 0.9620459925505341 -0.25650877533226346 0.0011401597554099273 -0.004714213911935327 0.0012529053721300823 -0.002473807950000885 0.1596533691233622 0.25962967577023904
30970000.0 0.9597191485422217 -0.2589505678259715 0.0032301361413373227 -0.0027616015582314604 0.00021621271226307824 -0.0027915203930574902 0.17619417052394984 0.25427982483550926
31969000.0 0.9578432948626342 -0.27000519037917164 0.00696170775318457 -0.0037486324809121864 4.036757182386201e-05 0.0031622743744643736 0.15383432515191797 0.24609620515370403
32968000.0 0.956351450822353 -0.2777227863895591 0.006439631663443956 -0.00812023728961599 -0.002278897783956027 0.0036265768824444225 0.17197209166668417 0.24647870724422744
33967000.0 0.9551644394481358 -0.2865829794557392 0.010426564792456112 -0.009913671760186265 0.002646325559993643 0.00010610546144223505 0.19004236944255126 0.2473198371070563
34966000.0 0.9504584677105654 -0.29721853877455917 0.012760857334275798 -0.011783491460270148 0.00023325133908642947 0.0019778882049002132 0.19594219188695874 0.24604652345549252
35965000.0 0.947492893580084 -0.3062898361148138 0.015841778173906383 -0.016469018943116902 0.0009114556893517646 -0.0017390787973994449 0.2160897360100539 0.2534053401886101
36964000.0 0.9462825375738666 -0.31443539904527884 0.016864153229231973 -0.014494788294797025 0.0015315659537061986 0.0002738643540313757 0.21907229955072616 0.2522212207617688
37963000.0 0.943377932124255 -0.32250107159816455 0.023183787814871713 -0.02135365328661599 0.0018293019468144896 3.7408717176725164e-05 0.2360436597671203 0.22877149129588667
38962000.0 0.9385963271270162 -0.33487746183443745 0.025537966514799303 -0.028610792175313666 0.00026014449355346824 -0.003236499620465575 0.2448639128651808 0.22406830366955777
39961000.0 0.9373356473739072 -0.3378563787353118 0.02552706040983914 -0.02859767916461794 0.0015836852095147654 0.0001417367994573877 0.25232331982863254 0.22271339227728904
40960000.0 0.9324988965971043 -0.3492827580488092 0.02478838976808753 -0.02386605417419003 -0.0001718297567979311 1.6447004930194633e-05 0.2721242448358045 0.22711257292924827
41959000.0 0.9296108146399252 -0.3577167532692517 0.032429080399858326 -0.033068985863487325 -0.0012541332426228005 -0.0025884715110559785 0.2751589712178108 0.2122638485337434
42958000.0 0.9260462020008612 -0.36626484428181233 0.033319680475847366 -0.04174839487294615 0.002742091988361637 -9.209500794246823e-05 0.2902904788289098 0.19628737049357575
43957000.0 0.9240193337981083 -0.3712959682413752 0.032477610693494544 -0.04756002272593873 -0.0028284296659997436 -0.002693525376879263 0.2888589026000949 0.196288092982404
44956000.0 0.9211514526449194 -0.3786368854775703 0.035709179684272965 -0.05275594098190561 0.0008317632552739345 0.0011322154800620366 0.30607164771588546 0.18136144092249293
45955000.0 0.9146017025918987 -0.3919849538706813 0.033877766147412086 -0.0604608569878997 -0.0019030683173098162 -0.0011097638619776667 0.30935946239015 0.18859346943804117
46954000.0 0.9115889933046533 -0.4006662845508827 0.03367939470340828 -0.06435682825887269 -0.0002362191885415411 0.0003686576053803527 0.33254254356995566 0.17578989140455187
47953000.0 0.9104957079256204 -0.4074044442995477 0.03776214325373082 -0.07492457672356054 -0.0013774244787526013 -0.0017035908253548223 0.33936800816203355 0.16901909638894047
48952000.0 0.9026394683837206 -0.42055073483820515 0.03563065741700461 -0.08001868587225144 0.0032823797679996593 -0.0004979133669178817 0.3465251569717915 0.16030764631381522
49951000.0 0.9013404114449549 -0.4225612664055229 0.033879384302984435 -0.08881864982840425 0.001106780244321761 0.0005334827406234088 0.3551196878826482 0.151086747612524
50950000.0 0.8971410468257219 -0.4314648648041319 0.03885584929681495 -0.09799765286328652 -0.00044142700235050547 -0.0014264672555932881 0.34962173408412295 0.1392047779819745
51949000.0 0.8921091626602137 -0.4418141931827139 0.03882802810662558 -0.10225006159235844 0.0005290996327920723 0.005018838299575241 0.3731180935553631 0.14734501032139272
52948000.0 0.8894961009704181 -0.4487141365038812 0.041740930303202715 -0.11475627059047 -0.00276815281440529 -0.0005444561040387655 0.37181685887281807 0.13406753708467561
53947000.0 0.8832471762843934 -0.45908989027166086 0.04287131380733198 -0.12187946468209182 0.0017253420490277404 -0.002136750980310237 0.37761617814601983 0.13079714800557932
54946000.0 0.8784017507820789 -0.4662900958072972 0.0440512446012452 -0.13074758251088722 -0.0011074302514080645 -0.001906991972313012 0.3901960422546915 0.11732490842640797
55945000.0 0.8753526679907412 -0.47575585518151137 0.044436492610990225 -0.14148113957670616 0.0007982206405715595 -0.0020482133846270825 0.3895988188085205 0.09897336695301209
56944000.0 0.8717049975540585 -0.48269587413223136 0.04706218257944192 -0.1517676838719603 -0.0014540092179772695 -0.003419206982538075 0.40977661710784374 0.09221651166191225
57943000.0 0.8654186043931101 -0.49365859971369025 0.04781816068906908 -0.16357323806944818 0.0006648781000251555 -0.0002876813986599398 0.4166407865521003 0.08740047479652052
58942000.0 0.8623219722218842 -0.49702482319634683 0.048140874471593736 -0.17315723100601443 0.0008472411148908846 -0.0015082487271559193 0.41921672915876657 0.08372540091773435
59941000.0 0.8568616864381025 -0.5084649534082473 0.05255697788535629 -0.18433228199802162 -0.000111395086598952 -0.0009132978809274727 0.42678316454949383 0.08040118351168515
60940000.0 0.850918099195786 -0.5132039190078643 0.05005475196818659 -0.18837514508863243 0.0009293211132288366 0.001887097925759847 0.41740875588876203 0.0645343717313176
61939000.0 0.8473660659731617 -0.5213996708161289 0.04945691195291496 -0.1950904103384931 0.0014911743107340243 0.0007502618917170907 0.4180426059646886 0.06807438998259249
62938000.0 0.839525655610923 -0.5323663713421893 0.0528794156004418 -0.21149010314945177 0.0017751078442631257 -0.0027657123262797086 0.44096656150853786 0.047596485396475666
63937000.0 0.834926459584262 -0.5395510711203246 0.05446533809731721 -0.23530312016780597 0.00041695346914185624 -0.0021115729973873914 0.4367927910109563 0.027361914035188277
64936000.0 0.8293116100313005 -0.545249595161053 0.055338391143843334 -0.2478105355863043 0.00174848388632072 0.002769392807146865 0.43361679856197444 0.03881406449760324
65935000.0 0.8256537260909423 -0.5562958551725361 0.05359860964749075 -0.2597036911821161 0.0012986389118636859 0.000453782109786737 0.4406521568765068 0.014229240377563238
66934000.0 0.8201261803183807 -0.56058662008862 0.05423067612920162 -0.2737800559117841 -0.0011482987518104245 0.0034346979679604466 0.43705602882794253 -0.0007278055774952684
67933000.0 0.817757651349826 -0.5690682206904689 0.0564641366384618 -0.2893920381335898 0.0073395851333388365 0.0011383630799075171 0.45305509514042963 0.001111193437805809
68932000.0 0.8146653769240049 -0.5687356533524771 0.05304751813602884 -0.29875703025135275 0.003252733185437803 -0.001381251398859615 0.4506600294914753 -0.006045423835644479
69931000.0 0.8031997945574667 -0.5850264173871494 0.04769276381979092 -0.3168016823128148 -0.00017151845698062013 0.00039322131831194903 0.4562100896517148 -0.026139957081532685
70930000.0 0.7955103038119664 -0.5929695822763534 0.04974587553155694 -0.3281844753131367 -0.0004970648788911975 0.0038543830297219916 0.45366066359163704 -0.03195634843979374
71929000.0 0.7940677660070666 -0.6019472023745491 0.04319179538713641 -0.34727215969732694 0.004635674507606696 0.0028847175253957557 0.4539894070766476 -0.04650649081154112
72928000.0 0.7868225623764816 -0.6093888004224458 0.0387272635495935 -0.36138325735306825 0.0010470398330443673 0.0012806100757133 0.46017088887814894 -0.050578276924528404
73927000.0 0.7815923335059985 -0.6161734334760369 0.032764409076041515 -0.3851077505732922 -0.0007035876614834913 -0.0013495017717399232 0.46017642608388065 -0.06848904694932455
74926000.0 0.7759038217179428 -0.6251127141592072 0.02518851411602738 -0.40167780830534655 -0.00017618469733134086 -0.002445834321636538 0.4609549670241606 -0.06931326110316093
75925000.0 0.7695487713077236 -0.6305688408570257 0.013125668938053467 -0.4208753142319215 0.005133221180191148 0.003643827960831438 0.4695755000097513 -0.07865346777219755
76924000.0 0.7603003607024301 -0.6389453686135885 -0.0001787793216367477 -0.44289379084438985 0.0011779931617148733 1.2862296196104032e-05 0.4679726555318238 -0.08582506043978624
77923000.0 0.7562602947791013 -0.6451951243008792 -0.011578329898704724 -0.4668305161469275 -0.0018665586368436062 -0.0020450617643789 0.46017519615452507 -0.09412756017312034
78922000.0 0.7498102263256889 -0.6565008234171676 -0.030258568223200076 -0.49806434228570506 -0.00031046765309888826 0.0002921581726176223 0.45873458560438485 -0.12154692209749016
79921000.0 0.7401523879035141 -0.6591371910935734 -0.0472553963840638 -0.5167927095437638 -0.0015508689039078342 -0.002567337818556746 0.4619817802221785 -0.12658751605014895
80920000.0 0.7356478572071745 -0.6704710950454856 -0.05986408689433237 -0.5512338309631474 -0.0002474501350338812 -0.0008609847146428988 0.4573528241465293 -0.1280236565998404
81919000.0 0.7302370670399693 -0.6773227957907985 -0.08252997100995864 -0.5795063108656326 -0.0012555415183475008 -0.000984148392084066 0.47090485120882736 -0.14476728832506391
82918000.0 0.7210259707126572 -0.6821676387237015 -0.09688077236870268 -0.609712823848444 0.0008350334905081615 6.818531811259631e-05 0.4802096887580452 -0.156379446043594
83917000.0 0.7105757090810512 -0.69231882586635 -0.11820086316894352 -0.6357425536945884 -0.005033329688508005 -0.00043493097612483725 0.4746981000111839 -0.15023509670770016
84916000.0 0.7063377746174703 -0.69749738680904 -0.13478295190877373 -0.6720168645240663 -0.003705033629125046 -0.00036307003705510714 0.4640495130881816 -0.17120726346630735
85915000.0 0.700841320602144 -0.7034212566383269 -0.15534907848143784 -0.7030828671443844 0.0011370651666630664 0.0005699991579033187 0.4689331344465767 -0.1719292721066103
86914000.0 0.6930157796331639 -0.7142688189284467 -0.17151290829283175 -0.7416764981910474 0.0018069672944120742 0.00021825176451318432 0.46120689169701823 -0.17595747977331033
87913000.0 0.6874116921572413 -0.7204958312068974 -0.18769055496116174 -0.7657224074319433 0.0018539199220635534 -0.0036131609102108735 0.4571448711223961 -0.19723442604040467
88912000.0 0.6792711391496815 -0.7267036939071482 -0.20284215774814593 -0.7987940870869515 0.00023870046949292747 -0.0025396701164991384 0.4715195796750536 -0.2139646832822202
89911000.0 0.6720319576467676 -0.7353399579884485 -0.2208693438691159 -0.8384381717382781 -0.002183898550760376 0.0005661737034574536 0.4736410506454887 -0.21719952654745264
90910000.0 0.665083905311687 -0.7399817117120902 -0.236175124848294 -0.8710850867830838 -0.001715056588226532 0.0015223838714925905 0.4638634676756477 -0.22610579308793347
91909000.0 0.6556342126192183 -0.7449938743695665 -0.25382285723671133 -0.8995022373425161 0.0021043283581726317 -0.003545189868228566 0.47150100944315787 -0.23739953541673825
92908000.0 0.6474032605364214 -0.7537462104347925 -0.2714246888808888 -0.9342091574823663 0.001148027419058767 0.0011841009054507417 0.4544686287276121 -0.2400863079112257
93907000.0 0.6416610069767901 -0.7605210370203652 -0.2925014372652894 -0.9634168032283535 0.004269020118571593 -0.0029039766923532615 0.46311536790110214 -0.2597047502815972
94906000.0 0.6267036648912623 -0.7687710412969914 -0.3121724161207725 -0.997786765858477 0.0021351987312863913 -0.0013158684279642036 0.45215232868476984 -0.2552650402815471
95905000.0 0.6227703150058619 -0.7742745645618868 -0.32987071159681175 -1.0312174358352428 0.002277018657810679 -0.002511887127755157 0.4615094917336144 -0.27662851396192123
96904000.0 0.6146609324693774 -0.7831774196693081 -0.34831923957766 -1.0701076234141313 -0.00023693117946437447 -0.0006237661189826043 0.4443280146995989 -0.27545768605379845
97903000.0 0.6022946933234493 -0.7881513047102137 -0.37126983884142706 -1.1008795144045787 -0.004504567827073494 -0.001817352786471131 0.44001314029743505 -0.2899237300163436
98902000.0 0.5992181623329567 -0.7947843857545985 -0.38655112228261596 -1.1349776608665256 0.004154458507041202 -0.0025596519138494176 0.4466785823448301 -0.29829979832781117
99901000.0 0.5892232085427797 -0.8002902112356192 -0.41512973511000884 -1.170255865316852 0.00047467707934441587 0.00027987785948526745 0.4508279286574846 -0.3200810890936889
100900000.0 0.5793957264864621 -0.8036536780991081 -0.45135386063681243 -1.1935811633957891 -0.0022257247532942266 -0.0014724331573193244 0.4584470244683724 -0.3124790404428681
101899000.0 0.5711498100713029 -0.8125214991989533 -0.4730597143783363 -1.229441877447359 0.0008223829455861276 0.00361573443513335 0.44155893417742775 -0.3309669458089342
102898000.0 0.5615310848844839 -0.8177739596529437 -0.5142677781629988 -1.2690810605521985 -0.0016768306401414778 0.00082275960588906 0.4352028234040042 -0.35332986292016577
103897000.0 0.5539285230681765 -0.8253482957130939 -0.5493213247883677 -1.3037305458678004 -0.004623199080634914 0.0017349163311573513 0.4557799766326329 -0.3439938966039319
104896000.0 0.5435491632704365 -0.834675437413854 -0.5935484922156532 -1.329274000155169 -0.002842969056114734 -0.00043845322535407026 0.42644142330737134 -0.3493135979955308
105895000.0 0.5353234756687011 -0.8371457782865429 -0.6384202949039413 -1.3799086009818784 0.001827488104108509 0.0005018993209976348 0.42951890635387374 -0.3718987105941243
106894000.0 0.5281179267639315 -0.8430085158920797 -0.690360090965535 -1.4134154345011443 -0.0007287105878730557 -0.0021343473361610348 0.4250133093871927 -0.38413217179604525
107893000.0 0.5188168405127606 -0.8496180568434012 -0.7459548248103338 -1.4474455186262396 0.001744621817847593 4.065251789446229e-05 0.4222181339205967 -0.38382517522513954
108892000.0 0.507010410692771 -0.8539649234940201 -0.8056061190023105 -1.4824853318164855 0.0012330971217727068 -0.0001398612590993894 0.42704999532291593 -0.3754071204421907
109891000.0 0.49501984984092157 -0.8602268565700978 -0.8650676731824312 -1.5137788691928338 -0.0001687845772586778 -0.002397864974781443 0.42661237023563137 -0.3856683938566091
110890000.0 0.49041041827052145 -0.8705950424288735 -0.9272243603182309 -1.538113347004195 -0.0017747125329424507 0.0009016751487187561 0.4219128786173046 -0.39237328902699226
111889000.0 0.47245149944309534 -0.8678250726292546 -0.9939965423385193 -1.5791743132469793 0.0025520124844801003 -0.000675282176117294 0.40939025448868077 -0.3987493486511209
