! Created with skrf 1.9.0 (http://scikit-rf.org).
# Hz S RI R 50.0 
!freq ReS11 ImS11 ReS21 ImS21 ReS12 ImS12 ReS22 ImS22
1000000.0 0.9775768232643962 0.002970175495977734 0.0009502507968269895 -0.030444312826554302 -0.005883559848460252 0.009393793007693238 0.3469095795718248 0.3054009673221416
1999000.0 1.0013102675325085 -0.0110406382780276 0.0025934031267849725 -0.026803084682739068 -0.0020991492678953906 -0.004982780480183152 0.22554304068626854 -0.05549485497550398
2998000.0 0.9984824270695476 -0.018455798914043225 0.009744068198035272 -0.01623422214616203 -0.005732122026090882 -0.0041456729299962575 0.1861615797998512 -0.1476389455104026
3997000.0 1.0016293189770513 -0.03037799226296013 0.009758865806014096 -0.012210516136884175 -0.0024408829676122947 -0.00284869811728449 0.0888370107082154 -0.2376366781047034
4996000.0 0.9987045013819985 -0.04002145724100678 0.012797113544883823 -0.002217135279894085 0.0021564721558974347 0.0012149671482962288 -0.02937607038076651 -0.21433818836519603
5995000.0 0.9987287817334038 -0.04280284505439818 0.005823256632633832 0.006821239867244524 0.002299584763514603 0.0024820672290474907 -0.12435987589529879 -0.09998421828246637
6994000.0 0.9980415790001819 -0.05616258033097925 0.010954270361090363 0.004770993246959924 -0.000710881450580958 0.004453192009941735 -0.14595154796023166 -0.021422250811999163
7993000.0 0.9983117310643378 -0.06539264786323795 0.0037525168416095347 0.005606441316373231 -0.0016221621653683767 0.0020465789400234183 -0.1639897939133492 0.04103401523440356
8992000.0 0.9991912015024633 -0.07355991301621917 0.00031701776509191176 0.0038275526885439646 0.008347906310470813 -0.0019189052812480338 -0.15819045868037618 0.0597250251289373
9991000.0 0.9967758415293093 -0.08168530544778131 0.0013620055247591733 0.0036144832457524947 0.00046066094713856967 0.0037889778808990683 -0.14478961514016703 0.09207385383034815
10990000.0 0.9947700004184765 -0.09322380810406805 -0.004190183341473142 0.00027903609304526374 0.0041528025481254935 -0.0005619590874177615 -0.1339800768509348 0.10448775542147323
11989000.0 0.9933904415361621 -0.09927389828947462 -0.0033595805247521766 0.0003983701376934386 0.00041636891359178444 0.0011816313550525803 -0.12372772897023711 0.13028980805829574
12988000.0 0.994191230100185 -0.110762716547046 -0.000798748673677465 -0.002124867146217497 -0.001462561838602629 -0.0006551839899511415 -0.1156869979564746 0.16102184302081085
13987000.0 0.9911455386458509 -0.11818304803323647 0.0023539832201684313 -0.00877792943882357 0.0018717467031025732 0.0013285040281175845 -0.10264064685453271 0.18950656120114445
14986000.0 0.9916126922293282 -0.12499788742096216 -0.0028843983461940108 -0.006906881506763617 -0.0015135398902898023 0.0014106266490469877 -0.089010562209631 0.2053807723347427
15985000.0 0.9920167638841169 -0.13339718597438338 -0.0032104423378612494 -0.0025545502582192416 -0.002357140280326468 -0.0015312351683730552 -0.0719015640626388 0.21455836525718647
16984000.0 0.9884217601438808 -0.14810365543791437 -0.0016823930245658614 -0.0021512407447313127 0.004306960480835585 -1.763354606153519e-07 -0.05570628781829978 0.22023239246058865
17983000.0 0.9892106577519201 -0.1522232829497962 -0.00027715472821282337 -0.003216811588709273 0.0005583013874037712 0.003199154716682522 -0.04540028543592736 0.22690099457037718
18982000.0 0.985579937781121 -0.16253611822718603 0.0003061028049485172 -0.009803346516710078 -0.0016808629014164226 0.004954749555440918 -0.016723450161642395 0.2394080044889499
19981000.0 0.9863088629084767 -0.16749652043606048 -0.004982383200850929 -0.0004558678481791179 0.003563616461851564 0.00036330338572127674 -0.013277350938147772 0.25257510991904736
20980000.0 0.9844444490365416 -0.17776318523569504 -0.008461147708658759 -0.006014861194637716 -0.0017924686451583935 0.0006278830793587553 0.0156503669140914 0.2570881851463896
21979000.0 0.9826121982803859 -0.1864295959218585 -0.004299521258194035 -0.00214426967369722 0.005469271977624038 -0.0005245719224019173 0.028209451702904488 0.2509021063119668
22978000.0 0.9785023405075978 -0.19588331278123988 -0.006655905980232269 -0.0018966951401868256 -0.005436018149927965 0.006236283866995934 0.03299273699898323 0.2560380655533
23977000.0 0.9811996116269328 -0.20206069274392802 -0.0034285995482143034 -0.0012162598037363049 -0.0013442877350161766 0.0020204667617867603 0.0423999024531087 0.26925051984560194
24976000.0 0.9791317841695135 -0.21042979745754892 -0.004168199932369315 0.00027387983383308454 0.00026736122480178285 0.00010546193559242374 0.07239501630908532 0.2614648216534057
25975000.0 0.9733475211775187 -0.21751586387107466 -0.008149584413360778 -0.0014803059220333753 -0.02564571253197434 0.011074027940516235 0.07080419249345812 0.2618220781552987
26974000.0 0.9732177028194063 -0.22849024137568216 -0.006184656609234587 -0.005034078679425953 -0.0011717983946929423 -0.002345600016668452 0.09175234775294408 0.26544940237422426
27973000.0 0.9742010596315412 -0.23457752043787602 -0.0026890338071326922 -0.00016256071143406914 0.001452174527284719 0.00020463249889839853 0.114139352968706 0.2516822672118263
28972000.0 0.9679470976410297 -0.24673013195251825 -0.0025264274601566545 -0.004712479211791432 -0.0037317925087099746 0.0004077445622410128 0.11715932404642516 0.24973120762528808
29971000.0 0.9662234717744498 -0.2535876393599051 0.0005733800727336635 -0.004257119828923886 -0.0023593059001370065 -0.0017219933705095115 0.1536699302520889 0.269049682990555
30970000.0 0.9658447597740477 -0.25920064584991315 0.0005236531147185738 -0.002029120062778577 0.0014976970039330363 0.0007764565575813025 0.1747327691996914 0.2599535512890858
31969000.0 0.9618831784873435 -0.26955614491249347 0.0030825729889845713 -0.007273802770688983 -0.0008303749159980996 -0.002802007150788547 0.1627827727879185 0.2531401860105916
32968000.0 0.9608369874400502 -0.2764988141604386 0.009330146300830434 -0.004896906903791425 -0.0005987105727510283 0.0008330564545612354 0.16893891262604746 0.24392160318784534
33967000.0 0.9584430308279805 -0.28887611419131687 0.006162600650312283 -0.011121381021634437 -0.0009729169759957357 0.001013527023489415 0.19618143067432 0.24925086263356636
34966000.0 0.9551456932033053 -0.297172439866447 0.017126263385635162 -0.014027186605511898 0.0023657279652338015 -0.0011448550653295542 0.19943434365459645 0.25102350815025337
35965000.0 0.9533483867838146 -0.30457763620577627 0.014239269520006398 -0.013342736342542962 0.0027740490784323546 0.0005343946378366882 0.21989186403129643 0.2577185407626736
36964000.0 0.9486616413451234 -0.3131191158606838 0.018715840469127092 -0.010728159729617404 0.0014584594470623295 0.0024787541293308304 0.2272685624400336 0.25377312294930005
37963000.0 0.9475411823503442 -0.3207163962492589 0.023336213805972644 -0.021500766101977195 0.0013344022667017318 0.000795248209520952 0.23323335648968027 0.2252714423568991
38962000.0 0.9443611257056129 -0.32903604885791404 0.026244851110426855 -0.027108343186029026 -0.001757941595559823 0.0035081553981402506 0.2573867984309899 0.2372301812047636
39961000.0 0.941234834539484 -0.33762216994508837 0.02902940191507891 -0.030101861937973422 -4.225473297473647e-05 0.0023184074573893445 0.2640323770695041 0.22975756261987812
40960000.0 0.9382099189074913 -0.3464720004294701 0.026349129492007517 -0.024580782721333745 0.002695031960376956 -0.000880815212252685 0.2788809824461103 0.23086536698234386
41959000.0 0.9362375870568749 -0.3551360212987703 0.032359301290428126 -0.030456350146485 0.003690272397644577 -0.0003376103247570282 0.2801392790595158 0.21774189847848469
42958000.0 0.9277717628687701 -0.36515385163020603 0.03270423747778933 -0.044471010623622666 -0.001902697853788229 0.001092533438568206 0.28921411062700625 0.19668749774001848
43957000.0 0.9280441539081354 -0.36993697664458053 0.03590552421412326 -0.04994034931634948 -0.00034228618033092757 -0.00039293746841509496 0.30238749718451124 0.19945365008313892
44956000.0 0.9257988908180096 -0.37564337413715027 0.04012767863225918 -0.053948327311290484 -0.00043037922846592933 0.0014916302613738 0.31195373659407677 0.19178257302735655
45955000.0 0.9204741851704094 -0.38943607133889235 0.038564068569797105 -0.061414996975934034 0.0008120206614228322 0.00022548690138548186 0.31812003205473255 0.18353135411557325
46954000.0 0.917907312984177 -0.39672749662604434 0.039770942933420025 -0.06605261522185665 0.003171954967667591 -0.0008529507574209031 0.3411964942907807 0.1723641183184053
47953000.0 0.913554107629804 -0.4049799046109723 0.04172473826711757 -0.07547817853433227 -0.0004636574383632784 -0.0007408746945168277 0.3454528335916482 0.16234419896165386
48952000.0 0.9088277743767725 -0.41442622077561925 0.042610637629035324 -0.08218904691318082 0.003133636185811884 -0.0035166916904201804 0.34634626237622107 0.16127499368476753
49951000.0 0.9077152315140445 -0.41814355470628106 0.04268199500971839 -0.087844277731053 0.00024983223624042746 0.000881278658395917 0.36132718746582426 0.14765130232760254
50950000.0 0.9022185925465616 -0.4275300799806973 0.04602543529467042 -0.10259442912354505 -0.0009371994957776406 0.0017946793950202181 0.3570897591786382 0.1458765664105861
51949000.0 0.8997288874187002 -0.4364824497563537 0.0466805593418858 -0.10483613850523435 -0.0007539684440423782 0.0013429193576940184 0.3733701628217794 0.14265758543602902
52948000.0 0.8972841055079039 -0.4435331122429087 0.0455663299961147 -0.11847088543813276 0.0026065690753354284 -0.004405775393821729 0.3758905973526426 0.13476659485151937
53947000.0 0.8905677900419481 -0.45279252818128596 0.05036783556981488 -0.12599445199155435 -0.00077856607177328 0.0031751514575729337 0.37802414368708054 0.12319736215783805
54946000.0 0.8875505194717807 -0.4592141466139433 0.04943932484027553 -0.13715577632873402 -9.669088101947333e-05 0.0019424575680997492 0.40025872990786404 0.1160583273649656
55945000.0 0.8823557518037822 -0.4706002237821208 0.05472061878420041 -0.1468453911501284 -0.001535592528261008 0.0044775301815564526 0.39863908027306255 0.09422456095274075
56944000.0 0.8796418300407576 -0.4780984773198374 0.05498599711667627 -0.15677203788330643 -0.0010456365941166304 -0.0015546846176778663 0.40611371007644687 0.09835174955512312
57943000.0 0.872247639045022 -0.48789122378803346 0.05663568962033936 -0.17073259623536619 0.002986626742702522 -0.0036310241076277804 0.4070937453206765 0.08745014053387322
58942000.0 0.8675555890860519 -0.49254856367220623 0.05609876619380701 -0.18219476862078826 0.0031244294004739233 0.0006026913447322456 0.4295244876289343 0.09091858511383373
59941000.0 0.8660589109424486 -0.4998308959249918 0.06343538971689495 -0.1959026478843654 -0.0011423720971629357 -0.000341573268783662 0.4250700755130366 0.07381026219186165
60940000.0 0.8583070663823777 -0.5073328967158315 0.05660392812669745 -0.19568096425065898 -0.00012379182570752592 -0.0003004669540165732 0.42194307724027785 0.07086556629573312
61939000.0 0.8549521764724178 -0.515235653609177 0.059994823124069285 -0.2064192528126232 0.0009706839350119639 -0.001452452491145473 0.43329639054058194 0.06584190102657683
62938000.0 0.8491709322763523 -0.5264651345444546 0.06431411151121784 -0.22640681642468857 0.0019099439121989504 0.0005774474401693791 0.4491539521869442 0.045197436706612346
63937000.0 0.8451875410254994 -0.5330139975050089 0.06248578862308202 -0.2466653527137557 0.001943441192018764 -0.0014573230688027573 0.4440457556064894 0.0286251306850816
64936000.0 0.8371285245700459 -0.540579708909036 0.0642613510707674 -0.2630177402587126 0.0009713446305489175 0.0019510462746187719 0.4502417470202601 0.029218785145590728
65935000.0 0.8367835384862526 -0.54966130878517 0.06426122704212701 -0.2783715651381804 0.0006087535251790791 0.0010760847646775066 0.44211992138053724 0.01033220702597183
66934000.0 0.8296719982164469 -0.5566292320616374 0.06101755559804252 -0.295673290869635 -0.0026515609448452045 0.0010724658834068365 0.444012302530646 -0.002465157819310575
67933000.0 0.828516869832083 -0.5630216577252133 0.0621659333822179 -0.30914065892871107 0.00394180090616795 -0.0021639634990991714 0.45318083832325795 -0.001442770986370797
68932000.0 0.8179193808610314 -0.5549506807184823 0.06047694000352645 -0.32028786346669436 0.0028536146758784786 -0.003347468503408354 0.46644468766266944 -0.027490739618365023
69931000.0 0.8137449172398659 -0.5792381633372268 0.06143125242154167 -0.34728239430463625 0.000598240082514351 0.0012970236730103358 0.46101853942339777 -0.03507172826760936
70930000.0 0.807224135953017 -0.5860755556921864 0.05487780035045676 -0.3614704107639453 -0.000795419852226482 0.0024655656647684324 0.4572719523952387 -0.04424561754576955
71929000.0 0.8046277674440301 -0.5940638822854286 0.05283293335429647 -0.37796514045602203 -0.0010804547552945355 -0.003030873270785406 0.4574355933411632 -0.0564515462071499
72928000.0 0.797022788997001 -0.604453733157834 0.04525091513778515 -0.39876215849361 0.000972643658843853 -0.0013187480602324473 0.4687229025604971 -0.05390664189228221
73927000.0 0.7916280453762446 -0.6093089033862761 0.039007154108975865 -0.42046701971760947 -0.00042135766247753184 0.0024929926106229175 0.4641236677305008 -0.06650075895677955
74926000.0 0.7862409808397247 -0.6211429816976021 0.029202774613420968 -0.4421988093786127 0.0016635127866116077 0.003128217858842265 0.47759246700934893 -0.06360244470784102
75925000.0 0.7814608442299883 -0.6251162761209741 0.024776000953122813 -0.4637877244313512 -0.0011005130688633254 0.00039142305749920484 0.46397651956259417 -0.07789670875962384
76924000.0 0.7751485991703798 -0.63117149036074 0.010510938737651607 -0.4893459908024314 -0.002292167140249727 0.0008415202303856923 0.46790412399958287 -0.10000329935148626
77923000.0 0.7680502119775618 -0.6404729423623002 -0.0004161580641088677 -0.5137465254843828 -0.00039195565632571343 -0.004188600271434752 0.4726430563244797 -0.09587113050994377
78922000.0 0.7614796019573602 -0.6491801848769418 -0.0190301033964876 -0.5416821783693174 -0.0021156204964001874 -0.006167004417195711 0.46280208969162745 -0.11753253242001917
79921000.0 0.7536553563155023 -0.6536085128308484 -0.0313471589639481 -0.5661664505096086 -0.0026218973184092965 -0.0011799442474194027 0.468919091040057 -0.12013212755614831
80920000.0 0.7499082492271434 -0.6645556438027449 -0.05221851562497612 -0.603738481526467 0.001927331249053309 -0.00354496463536981 0.47282508968574877 -0.13660590938046438
81919000.0 0.743623606645814 -0.6699274131494185 -0.0682465356902791 -0.628676381290307 -0.00035943380149692155 0.0004542287471290998 0.4785382820504032 -0.14904861663312652
82918000.0 0.7346774810459706 -0.6772288053648836 -0.08238334170757801 -0.6649473101555434 -0.0001867547579539034 -0.003817050197676942 0.47461096419356064 -0.15884469327068726
83917000.0 0.7269105494809731 -0.6859762188780816 -0.10310943355346402 -0.6908227171961587 -0.0014309774911503163 0.0008538657862604323 0.4748293372523508 -0.15512250265352626
84916000.0 0.7230307533672292 -0.692283906078436 -0.12117532285925611 -0.7299444861624445 -0.00030487063461180934 -0.003822993485602662 0.46665536687210124 -0.1795378003275761
85915000.0 0.7158051081883838 -0.6966290635312427 -0.13973961715747732 -0.7634710399233763 -0.002345748102059331 -0.006057884804804813 0.47530825770406876 -0.19032773189507235
86914000.0 0.7067040861901327 -0.7096582207768537 -0.15622395375874315 -0.8002712942321409 0.0034136599849322194 -0.002462497315769615 0.4654618450318673 -0.18126396982172135
87913000.0 0.7014829709068487 -0.714721177262645 -0.18203360826823195 -0.8326739676625227 -0.001668580935776972 0.0005439436466129968 0.4644757528089029 -0.2000214421870889
88912000.0 0.6944212740184504 -0.7219407630371013 -0.19569286559768811 -0.8710387386902864 0.004548751453671733 -0.001634178740811203 0.47110235281232576 -0.2224005356304047
89911000.0 0.6863749464464596 -0.7316084126276978 -0.21698331151744737 -0.9094334289726337 0.0030737185508564625 0.0012230331865676616 0.4774333617507208 -0.22335035812016354
90910000.0 0.6815994839606574 -0.734885147331585 -0.2319866555254993 -0.9511123234377175 0.0008676349677858442 -0.0014655209363196612 0.4710555384353169 -0.22051081914820805
91909000.0 0.6707367344214815 -0.7427103833524928 -0.2593713197678264 -0.9835684206591304 -0.0020499118297021526 0.0007961395495239339 0.47084835489850396 -0.23238255562406668
92908000.0 0.6623919567616898 -0.749319657269459 -0.2780648784094386 -1.0168734486253166 0.0016156562056005765 0.0010479114702608937 0.46177152827427276 -0.24996991844468505
93907000.0 0.6564865468614061 -0.7538408176319369 -0.29925240539620085 -1.050556420136295 0.0015427824436541726 0.0019817327423627185 0.46811779125985403 -0.2628069027765362
94906000.0 0.6429987923101799 -0.7631526339937837 -0.31896149249714845 -1.0896093477136617 0.0038676236328149113 0.0009076005865911435 0.45595331010128803 -0.2620717175596762
95905000.0 0.6365611307128813 -0.7700664768385507 -0.3469033365307877 -1.1267171574662413 -0.0015492315188770864 -0.003123837540432888 0.4650816549210822 -0.2820429017594085
96904000.0 0.6281037783515877 -0.77850665660639 -0.36391613777173815 -1.1711935541550342 -0.0019427708141071989 0.0024337667162555353 0.45474250159117424 -0.28695483999856297
97903000.0 0.6188692550537885 -0.7835158216872005 -0.39685192403249175 -1.2039431704282015 0.0031155364681400184 -0.004382960751351719 0.45113253757552424 -0.29635720241402647
98902000.0 0.6135064394533128 -0.789764344166865 -0.4198018011755893 -1.2476827271108353 0.0001702931209439031 0.0015699565069084512 0.4416554154936448 -0.30379071090824356
99901000.0 0.603456854090952 -0.7955424130765446 -0.4547349943491015 -1.2795498843106206 0.0018713438712204763 0.00038653346466581813 0.45118678982830235 -0.329359414138159
100900000.0 0.5953919633670158 -0.8003499000905605 -0.4913940155379672 -1.3147186782310016 0.001028257545001604 -0.00036945664860342465 0.4625733985496922 -0.3212232976080465
101899000.0 0.5868738085669101 -0.8070026711196003 -0.5187362434320455 -1.357968003744569 -0.0021980707063937403 -0.0006108295900639742 0.4543840916074083 -0.32131027362677084
102898000.0 0.5774638603188298 -0.8139206417278498 -0.5632205387811287 -1.4031867565050262 0.0004751990693435947 0.0029826629217427477 0.4572794870257954 -0.34533455703625354
103897000.0 0.5686976748865448 -0.8224275206914211 -0.6017434789633792 -1.4434591358448805 0.0008713353413522716 0.0017533470633649575 0.4609445155244267 -0.33627966247299523
104896000.0 0.5606702484730831 -0.829336830485136 -0.6541522013724108 -1.48282069487468 -0.0010643679646154026 0.0032778992940756227 0.4377608271494989 -0.34423157026976275
105895000.0 0.5502903446368416 -0.8322110851721853 -0.712344706906813 -1.5313665333390456 -0.0019252117354456185 -0.0004500411452428221 0.4432519555706898 -0.37763583367545944
106894000.0 0.5420521685866061 -0.8381428219143546 -0.7713169902407747 -1.5684717183876515 0.0001055937802360397 -0.00021427853464830058 0.43144717573043956 -0.38935332876222756
107893000.0 0.532714827507155 -0.8441764741687735 -0.8211498253981203 -1.6028741271720737 5.616205672117745e-05 -0.0003089800432288261 0.43896595563637336 -0.3962433316262187
108892000.0 0.524917384997018 -0.8473314224893895 -0.8851928838908161 -1.6445037722392308 0.00216278262435273 0.0014907042427651158 0.4211976712722231 -0.39939298835089265
109891000.0 0.5118821429261111 -0.8565984789114282 -0.9448302475975692 -1.6847761596795927 0.0011782983279222934 0.0015778234599965637 0.4496303744417643 -0.3925097475125412
110890000.0 0.5061778460677856 -0.8689937864261039 -1.0222760006727762 -1.7115126646766228 -0.00037465504713215305 -4.773067599316128e-05 0.4273487449560111 -0.3946526968316854
111889000.0 0.48976856350158054 -0.8624387786466923 -1.0819685469996774 -1.7516072727935925 -0.004280977072431765 0.0006041541953123825 0.4186674012882495 -0.41954368690702976
