! Created with skrf 1.9.0 (http://scikit-rf.org).
# Hz S RI R 50.0 
!freq ReS11 ImS11 ReS21 ImS21 ReS12 ImS12 ReS22 ImS22
1000000.0 0.9737291059130868 0.0048935360999631285 0.006369670895458839 -0.044845337700060245 -0.009292177682185907 0.006282236891425388 0.3704930350301904 0.30453794829892394
1999000.0 0.9926721254419986 -0.015817038516258375 0.007688746050888694 -0.01991645756874057 -0.006391229050201283 -0.003848915476684725 0.26389629353569605 -0.044884344256452685
2998000.0 0.9908921795325818 -0.023232737498184143 0.004636470201852621 -0.01526327772665271 -0.0028559243787120697 -0.0014605200079348723 0.1925046921547216 -0.14537873509704183
3997000.0 0.9966274366603326 -0.029117598047655617 0.00954468779951123 -0.009899981409904845 -0.0032844118267733656 -0.007955881280753958 0.0995715779576972 -0.23248516812197767
4996000.0 0.9944855421902884 -0.04066028914614479 0.013240833491222011 -0.0010520709796080596 0.003560890761704421 0.000546843188463666 -0.04771381937373936 -0.17941098761631122
5995000.0 0.995438163542327 -0.04579380309866823 0.012017570832619154 0.0029889236904580446 -0.0023510537823472092 -0.003293382194858483 -0.12136787015546467 -0.10752526712325
6994000.0 0.9943786472111932 -0.05783910238927772 0.006129076171010115 0.0018210995970720507 0.0007588746733013058 0.0037641164225872235 -0.15614617896735122 -0.020694113659345845
7993000.0 0.9949972227579454 -0.06822135333614719 0.007326651992302925 0.008515394337978929 0.0003130724394983175 -0.00327429249426904 -0.16184447976353145 0.04165232952047048
8992000.0 0.9942454293795684 -0.07564326211717548 0.004067797436065831 0.0069323988033245946 -0.0011102207147804688 0.0030681645825757693 -0.142025481058067 0.07869261426731641
9991000.0 0.9899787778872787 -0.08312404779586999 0.002553845113773637 0.0010633877620861148 -0.001150498500333615 -0.003250580801153865 -0.14760313224555366 0.0885169792920635
10990000.0 0.9910433611834604 -0.09359151576499537 -0.0015051420413868227 -0.0019885627769195293 -0.00022675880925891989 0.0016635189121234773 -0.13380711426723693 0.10678199803091626
11989000.0 0.9859105191701302 -0.1001964885197307 0.0010115940777669853 0.0016985730713827895 -0.003914180139484997 0.0008103701672107665 -0.12945551139677214 0.13380995786936112
12988000.0 0.9883451902616905 -0.10933924471836608 0.0035572081612653622 -0.002316129292467737 6.941854465591403e-05 0.0006761288089529204 -0.12419282755900937 0.17129351045179197
13987000.0 0.9853086304017561 -0.12212067865769381 0.0015839718394370648 -0.0060895096890365786 -0.0017057398906718112 0.0031435524447781873 -0.0969881695280176 0.18428764182278887
14986000.0 0.9869736067671164 -0.12803548544489254 -0.004149555998319878 -0.003318951489492957 -0.0009144227504563236 -0.002130579876563395 -0.08522588322072885 0.19768761630220216
15985000.0 0.9873276821114394 -0.1360461187114591 -0.003261784322008571 -0.003412524861740803 -0.00045357576113912493 0.0027483506791397753 -0.07888494678173384 0.2206928124169272
16984000.0 0.9833750776592587 -0.14566436494780344 0.004606934595878131 -0.0017351735089901534 -0.0009966017711217085 0.0006788881529729866 -0.07431284538917673 0.21922050240151877
17983000.0 0.9828177681167658 -0.15169306478207592 0.004693957666050992 -0.002520480819332121 -0.0040992646555699655 0.0019046318467868927 -0.062372324252771186 0.2259194629588101
18982000.0 0.9806931975584006 -0.16470917827394968 0.001068811588749717 -0.004688443763561135 0.006078192754029283 -0.0009838856171658955 -0.018419736083405552 0.23750565859797465
19981000.0 0.9820612444567894 -0.16678365610869014 -0.004242953830815825 -0.002248499908686971 0.0015163158135400624 0.003099120741518203 -0.012275664071619062 0.24926608739217287
20980000.0 0.9790520154370149 -0.17835642792655168 -0.008369179802420537 -0.008500833748689368 0.0013996581448007812 0.0028493338993689095 -0.006842603850325565 0.2466012173404057
21979000.0 0.9772361565032655 -0.1883295112607828 -0.0027148321469059856 -0.00023162257365342816 -0.0033291988548674496 0.0020138920217452733 0.014907409213257724 0.247956132056375
22978000.0 0.9744588446677631 -0.19483206656443486 -0.003662131535341267 -0.005349798570007942 0.00457013588593587 -0.0004686097391115096 0.02040769878453393 0.2591346442962224
23977000.0 0.976402250912956 -0.2026538001151548 -0.007387768631914219 -0.004091352776014837 0.0026386815122992143 -0.0029163718787648344 0.04269470931894649 0.2520896878641026
24976000.0 0.9712804382363962 -0.21451562844537506 -0.0064063267991751735 -0.001882699685868666 4.963149242320536e-05 -0.005731413611866173 0.06904325380505305 0.25310858793660285
25975000.0 0.9639594681314646 -0.21957383037307474 -0.0033371673407283603 -0.0053318226458290985 -0.021449247334352814 -0.005705729463430481 0.0751051483493931 0.25065958835850594
26974000.0 0.9682668896634204 -0.22900081463288632 -0.0027173048661618565 -0.004229519207254307 -0.001170246910563581 -0.004324761361892283 0.08105374653905727 0.2640463094688927
27973000.0 0.9659150863804356 -0.23856096595771048 -0.0030521993820581744 -0.0032166202136813885 0.0011824677100874615 0.003163620517176565 0.10088578804235337 0.2524283336217893
28972000.0 0.962967034805475 -0.24903218625702012 0.00211004592876775 9.935129627505938e-05 -0.0018076354442337214 0.0009608478634778542 0.11827313913060453 0.25065553304922805
29971000.0 0.9619695279221586 -0.25456727406762114 0.0036456608401746926 -0.0017793215217370786 -0.0006728851379306892 -0.000754865949318816 0.14405140670651267 0.2686036373671713
30970000.0 0.9582008162549452 -0.2618150335816428 0.001816076313802559 0.00031385896537347655 -0.001249671641375598 0.002007486242055377 0.1648995173035058 0.24798106863845631
31969000.0 0.9582463426715404 -0.2719651274862585 0.004188172659890247 -0.007095652695351418 -0.0027802641427968596 0.0017979085142403772 0.14712814469918903 0.2510323714531146
32968000.0 0.9556105063658512 -0.27826152780469204 0.009779849238626001 -0.011334265554620042 -0.002459926032240156 -0.0004978804491112305 0.15890909374783832 0.25303419398223775
33967000.0 0.9546944122674254 -0.28899303245295593 0.012404925639614345 -0.010846570215770452 -0.0026976206606931412 -0.0004521899722047152 0.1761781011490946 0.2429846806292516
34966000.0 0.9496933076159012 -0.3001374534751857 0.016473840475781234 -0.014007791889820176 -0.0007869164501972169 0.0006506573954747698 0.19032095137894936 0.24786245273580992
35965000.0 0.9470807718636371 -0.30578092286991554 0.019125625570120274 -0.018462847563730834 0.0023257592690459857 0.0026983332721045934 0.21285269770764323 0.23929748560229097
36964000.0 0.9442083375938256 -0.31738658023978344 0.02204705279190561 -0.016179349487878896 -7.546865298162154e-05 0.003524122068789382 0.2079430333445721 0.26168117946741637
37963000.0 0.9403280719764082 -0.326069037276051 0.021087587514353946 -0.02162247545852379 0.0024358994718088685 0.0033596985053485494 0.21919461138151874 0.2421017783708021
38962000.0 0.9394530158785153 -0.3327746557608646 0.0260701593325057 -0.02630436957423169 0.0005755019716872666 -0.0021619901856097935 0.23691944755404484 0.2303455766379858
39961000.0 0.9352865054924582 -0.34284970263324716 0.026889161826162578 -0.02934066831100548 0.0006521805048688048 -0.001533350252098349 0.24813681646328764 0.23080661009049266
40960000.0 0.9321986851917264 -0.349828851550035 0.02333838794177285 -0.0266095337082278 -0.0010387458140072626 -0.000583631358552973 0.2679927144904863 0.2282587151567727
41959000.0 0.9296218483030386 -0.3591826315924007 0.028923627602861116 -0.03225235526889487 -0.0016047887013632203 0.0012345913769247498 0.261799622801825 0.21933387695662096
42958000.0 0.9228076794938074 -0.3700822874014026 0.034479033536262534 -0.04235363694956177 -0.0006060460350786714 -0.00380751395707152 0.2766464091413665 0.20204391758028167
43957000.0 0.9239788354991505 -0.37315998242795795 0.03453721690962597 -0.04606493502467409 0.0011728358817211172 0.003009601449934434 0.28293107278679364 0.20411717643479715
44956000.0 0.918791714776446 -0.38421926867761064 0.03522984563272902 -0.05182867060222638 0.0035659516128516673 -0.003107859600561227 0.296117047166152 0.19907233014057701
45955000.0 0.9139697169610256 -0.3951801681299086 0.03430272763528061 -0.060118037073325636 -0.0013412171583943259 -0.0006695792136205022 0.3050438055666542 0.19368021723814038
46954000.0 0.9107759705577546 -0.4021548741561889 0.03588451089145716 -0.06686277808422929 -0.002559474284740741 -0.001182735236031663 0.32276326168056974 0.17800917185729523
47953000.0 0.9084073151629249 -0.4088557336120975 0.036062658532152965 -0.07447394299077588 -0.0009834923329079335 -0.00237173351174016 0.33226266672299515 0.16341575880900797
48952000.0 0.9018854644723682 -0.42151159440217134 0.03748494453344114 -0.08440331259408507 -0.0025694630425915454 -0.0019266761263783277 0.33181277525054415 0.16249777738028268
49951000.0 0.9004937859301407 -0.42523091099566324 0.041576433600513975 -0.09116980400484612 0.0013763276830292368 -0.0012332080487198309 0.35179194057504365 0.15127700495595808
50950000.0 0.8942616215543475 -0.43457988488537863 0.038063978384580054 -0.0967809436710979 -0.0006940773627284281 0.0006440359854642829 0.3501935128593787 0.13928879007733588
51949000.0 0.8909474325602573 -0.4434298318102714 0.03936179298378136 -0.10558523373422982 -0.0006655415467703233 -0.0029230928030850416 0.3555462319242933 0.14806041777070833
52948000.0 0.8891018816467896 -0.4504280183915496 0.04326267377267414 -0.11388048248075336 -0.0018111717707474512 -0.0012418324634778804 0.3682089461085794 0.14002915762657892
53947000.0 0.8825480468867191 -0.4590615338736599 0.0410536960134392 -0.12387644873694165 -0.002295730155342616 -0.0018683162565129516 0.36790601496727227 0.12375587049066095
54946000.0 0.8785343905388928 -0.46725676363799834 0.04350042440516249 -0.1339765913993215 0.0029548804911856967 0.0023512174762471837 0.3790511190073055 0.1200775630178659
55945000.0 0.8749168749590744 -0.4763126400893085 0.04752245614755583 -0.14348174138890854 -0.0028347678198901616 -0.0021653923616322237 0.38791669631160186 0.09437422148941127
56944000.0 0.870045923255525 -0.4865050139920875 0.04474894536985708 -0.15516458404302685 -0.0010551134577968394 0.0015856871917487375 0.388355038245256 0.10159167896676251
57943000.0 0.8667126788357593 -0.4950393300772596 0.04525756592037152 -0.16655952553727818 -0.0002113750326442918 0.0019488453143799984 0.40248568627348963 0.09091620998456817
58942000.0 0.8602675660139221 -0.49856129159260065 0.04874730676305215 -0.17636464216080525 0.0028711488567469733 -0.003137007621444447 0.41750252998193743 0.09558161233716164
59941000.0 0.855900360335304 -0.5098383161149195 0.04994871903145298 -0.18624260928962247 -0.0011129545805613353 -0.0011568005000895975 0.4143888420791754 0.0946068335760701
60940000.0 0.8483798304712278 -0.5161387608914978 0.051180739232133454 -0.19162957447662493 0.0007243452898332335 0.000483247567654933 0.4113990784945321 0.0810552053778768
61939000.0 0.8449372735617464 -0.5239103315702436 0.05096489363033372 -0.19895929819814598 0.0004490222935550022 -0.0018327540086423505 0.40453422264872735 0.05892680446350282
62938000.0 0.8388569823390735 -0.535219239031991 0.051389823001346105 -0.2145653111584683 -0.00011246730138622954 -0.001235441248226276 0.44133418788772427 0.053934819222121504
63937000.0 0.8339548022269043 -0.5404826096218867 0.054740585165699504 -0.23470840002240395 0.004306175894794309 -0.0025259869244302195 0.43092865843439504 0.03946691573384625
64936000.0 0.8286536087243822 -0.546205242732124 0.054479724412089245 -0.25200087837583585 0.0008255385035522891 -9.317296361953545e-05 0.4407996441772604 0.03635896249015689
65935000.0 0.8244553229091819 -0.556987203719903 0.051927547733107475 -0.2636409118157989 0.002613424058120127 -0.001507981771421302 0.4387028121382224 0.015848412091410472
66934000.0 0.819657274395951 -0.5635394140597448 0.05219227740532702 -0.2754088699135984 0.0015867301791067843 0.0003163438711856961 0.4274084407643749 0.013167021216880674
67933000.0 0.8166531827328849 -0.5709806827356327 0.055292135503867336 -0.2917121004238116 -0.0010552020966145118 -0.0014788259565277915 0.44619983550487086 0.014194080436441785
68932000.0 0.8091522018250832 -0.5652825461533549 0.052098778861074696 -0.2986595141082816 0.0029810253865470734 0.00316867875534297 0.4463059999897227 0.002447240162646479
69931000.0 0.7994058121515961 -0.5889689327649185 0.048676440828723064 -0.3171571579830066 -0.0005194547693536787 -0.0005225312494470703 0.4461167861490473 -0.024713450056299102
70930000.0 0.7973548846235795 -0.5925406981085081 0.04418536708173591 -0.33339865595725227 -0.0006223349871980826 -0.004225508026008017 0.4372913934238435 -0.03425978521639183
71929000.0 0.7922821591574419 -0.6050865029620325 0.04404070354792377 -0.3500106170321322 0.0006657247541445431 -0.00012542859200432611 0.4512209514923213 -0.03863371003740467
72928000.0 0.7857113692676637 -0.6134782696881227 0.03772608404764528 -0.3676375254967665 0.002462520441144035 0.0016042706227279073 0.46345850771067637 -0.039198308264553505
73927000.0 0.7788799913090764 -0.6194289088340754 0.028904310818459077 -0.389769717427034 0.0031131951946447144 0.0029792412153669366 0.4519061896249838 -0.0625081934020511
74926000.0 0.7719752291104122 -0.6275301113388317 0.02166478678228558 -0.4089283274100342 0.00022466614905928216 -0.0010666046209307706 0.45858543492468107 -0.06291797513382884
75925000.0 0.767643032783456 -0.6327190468185844 0.01371214261632884 -0.42327446108542793 0.0029541041565470157 0.003174175119613227 0.47004164069167664 -0.08057938232498908
76924000.0 0.7615191262043017 -0.6399200786481362 -0.0001491231320078401 -0.44723901906284014 -0.002364781138103502 -0.0007972207471528226 0.46923340891454013 -0.08649435925793053
77923000.0 0.7535679585603708 -0.6478569076664655 -0.015595697057493444 -0.4761745508510308 -0.001178595503017069 0.0014983531083385992 0.4515782558309424 -0.10032736453073987
78922000.0 0.7486480620684848 -0.6574074259978374 -0.02867722758735303 -0.4992535187038276 0.0016961310472504176 -0.0020079489677661635 0.45779914365527113 -0.10594710410624938
79921000.0 0.7389704799999127 -0.6596432500895455 -0.04841988730581777 -0.5235885216470486 0.0008716476664110456 0.002186660688913618 0.46029094403330456 -0.10682972819365058
80920000.0 0.7341972561901318 -0.6721588004964913 -0.0636509690506111 -0.5546105981352304 0.0021989362746750785 4.52041863889473e-05 0.45851484984374113 -0.13570694634310923
81919000.0 0.7288930408879061 -0.6772510482990642 -0.0826086826024032 -0.5831547118147081 0.0005395338679775024 0.000589396358867473 0.46365032538738987 -0.1337295356051441
82918000.0 0.7193727886073686 -0.6855014312977459 -0.09635433375075192 -0.6154216276094372 0.003600693030094011 0.002627042166854657 0.46436550232619417 -0.14490771285663628
83917000.0 0.7104428545940277 -0.6932326829040084 -0.11643607517466524 -0.6390334546859966 0.0002937406294784058 -0.0008299450140844452 0.46397754737060226 -0.15404487059607178
84916000.0 0.706266845718554 -0.6989278808115785 -0.13379357919397233 -0.6758157757669365 0.0020782847986736824 -0.0009299229439055106 0.4567945231371004 -0.17501706737329661
85915000.0 0.6991154651671431 -0.7060945295419936 -0.15578309836858006 -0.7042039022631764 0.0026570931493175905 -0.0019545481689765354 0.4592461086421904 -0.17389621213242543
86914000.0 0.6918842376974329 -0.7161137194264905 -0.17298865050262494 -0.7456989781388204 -0.0005738382982632516 -0.0011356361381456368 0.45877663292379367 -0.17841568649675027
87913000.0 0.6836157559886011 -0.7218629356665525 -0.18860947970802536 -0.7745383372359743 0.001250932524640853 0.004935039743233651 0.4545787997742991 -0.18559241458033152
88912000.0 0.6764815811782914 -0.7286136133620609 -0.2081460291603563 -0.8081102084924903 0.0034732275705284766 -0.004478284320621108 0.45958487640906664 -0.2072954837835667
89911000.0 0.6691638414420421 -0.7365796395750629 -0.2183233027845894 -0.8414706294537133 -0.0022980474964964166 0.002192884413813586 0.4639685367182895 -0.21092682774007018
90910000.0 0.6627209428052975 -0.741645933510228 -0.23413925705191885 -0.8771001410900443 0.0034377377424812446 -0.0021117175888172063 0.4653973921408336 -0.21972188975728194
91909000.0 0.653151368163789 -0.7472368231897906 -0.2590036346270053 -0.9092230708269565 -0.0009789492372375079 0.0005030606499281191 0.46709747061975676 -0.22460362732739966
92908000.0 0.6459669631238345 -0.7562364208159844 -0.27466212608463547 -0.9385222021554248 0.000741761382215694 0.0021089692767922116 0.44240375424891265 -0.23918297308225697
93907000.0 0.6402304192686994 -0.7603893411227076 -0.2904412101798789 -0.9698508961991258 -0.0011084214158266444 0.0037744522510606564 0.4552427967557848 -0.24860235465894365
94906000.0 0.626835644433324 -0.7701668558980317 -0.3078086605477071 -1.0065945332996928 -0.000995329594250404 0.00550046664315259 0.4599931670478454 -0.24609164048844293
95905000.0 0.6212962762808735 -0.7762344022687481 -0.3305690565370636 -1.0438842126290615 -0.002602216897177815 0.0030584970710534056 0.4466624430753058 -0.27485814390517743
96904000.0 0.6112451223807763 -0.7850160415550181 -0.34958146978529503 -1.078991964633543 0.00017464954100515674 -0.0005369389860875145 0.4541797657796143 -0.27331187113693883
97903000.0 0.6003281797698705 -0.7880700985307044 -0.3714520279179255 -1.109856208235851 -0.0035360243328969154 -0.00362544439567909 0.44943250383581346 -0.27946510546376174
98902000.0 0.5960190894660666 -0.7964263914769782 -0.39112156616045796 -1.1444647527159546 -0.0020972079157346815 -0.0007667892665555465 0.44646848347667084 -0.2922237367361551
99901000.0 0.5876683671469278 -0.8024600168107218 -0.4185580261050924 -1.1819031588159026 0.005940672530440762 5.4533954107157167e-05 0.45574913071669415 -0.3167006343472928
100900000.0 0.578330943074098 -0.8066654789366063 -0.4562927346349402 -1.2069091710349906 0.0011042560023848708 -0.001433638755972363 0.44738696965681585 -0.3217264582751803
101899000.0 0.5705803276362258 -0.8131710142150527 -0.47834425586831725 -1.2463115592831455 0.0015031791831661037 -0.0042766563079612895 0.4371146817834964 -0.3237257776256205
102898000.0 0.5601460301232499 -0.8213163477328108 -0.5169609498738345 -1.2863673488216898 0.0006715297677522968 -0.0020933172810359032 0.4494456292813415 -0.34516475638439525
103897000.0 0.5511404411933462 -0.8274766501147955 -0.556815527493669 -1.3177689530000876 0.0012834059574175155 -0.0016053070455726624 0.4563694918922784 -0.3295938960220345
104896000.0 0.5429947552243423 -0.8360604116801947 -0.6028399847700215 -1.3500969857026863 0.0003559171131070756 0.0005882376619645543 0.42509168830087757 -0.34102534483746155
105895000.0 0.5322865027153888 -0.8380419564389484 -0.6471883625198472 -1.3893380933480082 -0.0023665596919712813 -0.0034589338447181665 0.43325950458403556 -0.3539770213355608
106894000.0 0.5216400154751474 -0.8460780980028308 -0.6998321703467838 -1.4232854166792093 -0.0019051304270758821 0.0007076316057000755 0.4259524057534521 -0.365418271427205
107893000.0 0.5144340736911677 -0.8521186577686879 -0.7522547945565154 -1.4591911298149856 0.0003201632942310534 0.0002257820448754061 0.43100953118678026 -0.3773381528644459
108892000.0 0.5050455399658619 -0.8558155917588736 -0.8110309662030021 -1.4996832553495505 -0.0028605642051166887 0.0039692902477023685 0.42179728450511644 -0.36468216738567005
109891000.0 0.4911321717491784 -0.8608810156141995 -0.8717036869921566 -1.530009723166582 -0.0017301365765040662 -0.0022770674325199042 0.43046639665840564 -0.37780134197343473
110890000.0 0.4861177254697333 -0.8759649580257951 -0.9494176118502144 -1.5569546311015732 0.001581018032597254 0.002324814110311254 0.4281207851497274 -0.39052344106440134
111889000.0 0.4722193483601817 -0.8684964822469262 -0.9991107672852032 -1.6027204616197965 -0.0003256325174909766 -0.0010233990499870953 0.41693246724680033 -0.4031822984265253
