! Created with skrf 1.9.0 (http://scikit-rf.org).
# Hz S RI R 50.0 
!freq ReS11 ImS11 ReS21 ImS21 ReS12 ImS12 ReS22 ImS22
1000000.0 0.9988416512386468 0.008809358942494986 0.003819005822949763 -0.06183296870588275 -0.014092660046618589 0.0038880199681766182 0.32432305602112743 0.2853978383644779
1999000.0 0.9970716201591635 -0.011340115086754664 0.0049340143709709055 -0.01874335830045279 -0.008309371163932185 8.481033540478907e-06 0.2562817408661278 -0.055819112341893344
2998000.0 0.9979990058552892 -0.021031005173655675 0.009491170219239974 -0.013914608667476505 0.004430878137334285 -0.007628898349341998 0.19991005907441428 -0.14475696843283292
3997000.0 1.0000601859364815 -0.026559959299298063 0.011184034270603433 -0.007390844228338731 -0.0013510797424567372 -0.007114856414146602 0.08459766116253219 -0.21845536070984706
4996000.0 0.9959159986283975 -0.03914705234422901 0.01111181384761035 -0.0018940109178552408 0.00041149200920888025 -0.0023224246001035723 -0.03944043259773506 -0.2047964417862613
5995000.0 0.9953054170631632 -0.051546719049059796 0.006662326437739618 0.0015664986150634565 0.0030566789797724834 -0.002386369043466884 -0.12710879103024741 -0.10324584525698306
6994000.0 0.9955771282514275 -0.05553216324699434 0.009143064386146997 0.008198374891828897 -0.002533144319300864 -0.0030959203432410465 -0.1414220416647108 -0.026291645303114713
7993000.0 0.9957363348079389 -0.06760134828168839 0.003992341726110922 0.0035995500678492674 -0.0038325029872075065 -0.002701399967617816 -0.15281070019656323 0.038061519620820106
8992000.0 0.9957615023280565 -0.07365252957239138 0.006668166108355151 0.00933870296453869 0.001278009633674915 0.002512098173307347 -0.15215388275482017 0.05584140474945484
9991000.0 0.9933704932287788 -0.0832230427565155 -0.0001686141145682232 0.0036152180180459895 -0.0012826554957041155 -0.0016707589479455225 -0.14854771303567557 0.08082027349471534
10990000.0 0.9927516609462202 -0.09463837054028873 0.0007620068118337238 0.000971226270707812 -0.00386978400585127 0.0013018392890282967 -0.13850485268980967 0.11746454860243633
11989000.0 0.9909652341701574 -0.10276005659343192 0.0025631746695018143 -0.0025118995940969185 0.006735882646183993 0.0005444284301846567 -0.13748153348001912 0.1328322413873318
12988000.0 0.9893646916443724 -0.10979779344065183 0.005603390266157499 -0.0029635792924825543 -0.0011750326534559587 0.0001010784036342524 -0.10570095066991576 0.16751906451647833
13987000.0 0.9888767155191737 -0.11846214977372095 -0.004481778179268675 -0.0062261355880137365 0.008150234917055648 -0.0034720120968117197 -0.09399169534090092 0.18735218988179259
14986000.0 0.9884761123740472 -0.12742384674341772 0.003291091250974322 -0.0028008554659889667 -0.0017188877302773298 -0.003849462914187127 -0.09710808993746135 0.19802112856709994
15985000.0 0.9883255104620704 -0.13669796499907383 -0.0012673918208490956 -0.0022893637896683906 -0.0010899851677931486 0.0016161862289015276 -0.07066621642653863 0.216961387167965
16984000.0 0.9855733295054647 -0.14581717142885706 -0.004557592583306235 -0.008355894417780303 0.004903945828193361 -0.0018887182675414902 -0.05949280088890144 0.2109826288621969
17983000.0 0.9852421840860777 -0.15346762760365928 -0.0008989737984113498 -0.006634410748685211 -0.004785016968765069 0.004036177554002097 -0.05654649912271643 0.22375944888385077
18982000.0 0.9832566982227668 -0.16164401655818433 3.148056481570695e-05 -0.002617643964611554 0.0006122451406337648 -0.0004904099450504053 -0.022339925269458303 0.23657828389724408
19981000.0 0.982522976549375 -0.16733996580182572 -0.006200753531491751 -0.004978231321854438 -0.0027419527584092765 0.005005647444202574 -0.014793321648144186 0.23274269195198063
20980000.0 0.9806856715767168 -0.17815038759745594 0.0012666253228451063 -0.004523507087739283 -0.0003026012361849687 -0.0027364660086323617 -0.0034953960074434924 0.2570485524496165
21979000.0 0.9777509549045967 -0.18912805907149094 -0.0058181200527158 -0.002222824769226379 -0.00211652896468308 0.002500974320171555 0.020919749071669772 0.2464744818726441
22978000.0 0.9766156648913628 -0.19510287188763129 -0.008268843077176425 -0.005409190461901998 7.328369914471735e-05 0.00011979187806218983 0.016728348314706515 0.2451074503013359
23977000.0 0.9768915095976831 -0.20453144516665392 -0.007174533018421646 -0.0032691509923032922 -0.003163382185703728 0.0019414146350721431 0.04106594350032668 0.25676999022165337
24976000.0 0.973318261850023 -0.21487564500019515 -0.008583360073032549 0.0008441490670910266 -0.0007774089819306262 0.0023488758923499104 0.06448142650333537 0.24814293834371948
25975000.0 0.9696433137350321 -0.2183104574452314 -0.008753350731179575 -0.0030429567950199317 -0.024704879198028985 0.0008462151970360914 0.06890480438027041 0.24694823228362392
26974000.0 0.9703359609748159 -0.23034169378790362 -0.00484399847309537 0.0008981564856135768 -0.0017038709917798983 -0.0024571559645596344 0.08683851520276262 0.2645793613588739
27973000.0 0.9685982827107963 -0.24030230206907402 -0.0035554798954190617 -0.0021136781258675264 -0.0005562517107957139 -0.0032380493420701363 0.10798184775525677 0.2472934341533567
28972000.0 0.9642424400304892 -0.2480787128635757 -0.002594708518650111 -0.0009360293485086603 0.004384839540191954 -7.895672763108453e-05 0.12054731509182247 0.25409032455635316
29971000.0 0.9636693345689232 -0.2567929666258184 -0.001074793551945161 -0.001088808978102727 4.4768880703508306e-05 -0.0011179922576998488 0.1543549626388146 0.2683454259229513
30970000.0 0.9611546589459886 -0.2619782216834455 0.0012509533353873496 -0.002803380943482934 -0.003160199553267306 -0.0027051747679455234 0.17192374277195407 0.2497383749772609
31969000.0 0.9596000389029912 -0.27025087793821834 0.006487505903234751 -0.005856834359173414 -0.0014561762473090862 0.0006805775882100637 0.15177826528511906 0.2426603060247803
32968000.0 0.957016388863668 -0.28085045043820817 0.005990016807342095 -0.00782460127544907 -0.0014205855675266299 -0.00047668781234581903 0.161897225366702 0.24124880580753824
33967000.0 0.9550434945238789 -0.29071238889599765 0.010371391238969619 -0.006990587079682523 0.0029358504027398495 0.0006669952699242054 0.18392458684449992 0.249800004860048
34966000.0 0.9524716348177443 -0.30038286732870345 0.014382175672983511 -0.012088856298734024 -0.0006829727334729839 -0.002133369094143918 0.19173258998850484 0.24911699505714158
35965000.0 0.9489942996426107 -0.3071944558334847 0.014281644409800304 -0.016274368055381433 -0.0023788207666662403 -0.00037306380452469673 0.20767048706668037 0.24659333187758292
36964000.0 0.947569385423774 -0.3148053647344838 0.015028873884533204 -0.013824924557218963 0.0016022211944685747 -0.00012025457900510083 0.22247372872997734 0.24703632379668466
37963000.0 0.9428413288055294 -0.3240106920399752 0.019120133431250085 -0.021058618135366646 -0.0015143833039675033 -0.002436592143704906 0.22545788617008836 0.24143002921905857
38962000.0 0.9407827674560214 -0.33212823581831963 0.02639965234812838 -0.023522511930020563 0.0018497856336541674 -0.0039023945331202294 0.24701416801647502 0.23179752043352114
39961000.0 0.9374067634513188 -0.3414530254379411 0.024441127280579615 -0.02893669292359628 -0.0026546150493685825 -0.0036639870700325675 0.24831431183961397 0.23110511200235048
40960000.0 0.9345704813689387 -0.3490066393549412 0.022197054097602996 -0.023029995867087903 0.0007444919879371412 3.2946748578972544e-05 0.2641399570391785 0.22634398566637673
41959000.0 0.9312326859426712 -0.3584167914663018 0.02644638240193733 -0.030517697382019163 0.0003276649614568785 0.0011965425719870824 0.27021097926073934 0.2191868955935831
42958000.0 0.9253534429461459 -0.3702015704460394 0.03096364053114387 -0.03997666742523824 0.0020697620284216667 -0.0008885902051383572 0.2777536520080834 0.2033141802437118
43957000.0 0.9253606753576251 -0.37332635732249064 0.03232620688354863 -0.04535494699337673 -0.0002218599431789065 0.002288377330498983 0.2828741605344733 0.221827508390905
44956000.0 0.9213400379613713 -0.381105913743593 0.031018110068979813 -0.052334895444613755 0.0010323248383952621 0.0004866167684052778 0.3026911745263463 0.19850090958446748
45955000.0 0.9172845942930741 -0.3913211827356021 0.03221796718025053 -0.058861421087774465 0.000700209131222504 0.0003547276683959488 0.30497656703621123 0.19236436619032993
46954000.0 0.9139627930206573 -0.4002044394379942 0.03438511612438601 -0.0657863781341737 0.001113002925772322 0.0004427101707068081 0.32288014745208676 0.18574381255460085
47953000.0 0.9124051471374763 -0.4070486186452916 0.034837723422750405 -0.07163998227337823 -0.0020765337128425924 0.002137286934182717 0.33544169361623033 0.17030170275389217
48952000.0 0.9057605564672606 -0.418969409705671 0.03455629386602736 -0.08126711905441683 0.0008068477494885045 -0.0007938477666217466 0.3394983252747391 0.16329535736097162
49951000.0 0.9014806323865308 -0.4253803568772076 0.0360752087080035 -0.08910973358322867 -2.4234916185555518e-05 0.0011702776850313942 0.3512644116186977 0.14887017504916855
50950000.0 0.8981396179390774 -0.433290371783459 0.03517997045082181 -0.09285237799797755 -0.0006760061336496229 -0.004150954120963527 0.34672824171979716 0.14920686776049522
51949000.0 0.8950467443277761 -0.4417566958227669 0.039424373249592595 -0.10134301522614575 -0.0005814436578247997 -0.0004460638201292695 0.36284356555904246 0.14359300119922572
52948000.0 0.8923703508916179 -0.4500430290467467 0.038301601856510256 -0.11091455366625864 -0.0021446341968549398 0.0035535340214609408 0.3724680731307893 0.14343762913279423
53947000.0 0.8857410302139649 -0.45683238931308734 0.04041183301679825 -0.11968407047352798 -0.0023332991455480945 -0.0017936625762624732 0.3724438373798901 0.13028424645651518
54946000.0 0.8806941849676398 -0.4674444283005035 0.04206218748247327 -0.13020153084825564 0.0013812876429600482 -0.003918293515282625 0.3829609147260854 0.1352298586339569
55945000.0 0.8772248568353224 -0.4736389638450876 0.04449454674946162 -0.13998635976783586 -0.0029150136282520994 -0.0032627276380360853 0.3943942373729262 0.09990796038448542
56944000.0 0.8736754066730243 -0.48253452697887406 0.04549970386353433 -0.14876709160503432 0.0003561455749362103 0.001373827382793907 0.4021548638249641 0.10914815269593235
57943000.0 0.8677891687834332 -0.49501406364583034 0.04715550601878125 -0.16200270624934845 -0.0010068136987942669 -0.00558676885582536 0.40449203328641126 0.10341267959097064
58942000.0 0.862052199641542 -0.49895661401185853 0.046792879672525024 -0.17063838483530777 -0.0001108501417108785 -0.0015075943478663875 0.4211890206479189 0.09646978547885841
59941000.0 0.8594845319103958 -0.5065625374105037 0.047090082268529676 -0.1835763334847472 -0.0009911334389470533 -0.0009258394848060801 0.4161362678247374 0.09228312765152907
60940000.0 0.852690991972586 -0.5139606753768299 0.05143011469995451 -0.18287790501782747 0.0005910557013216258 -9.877498661200116e-05 0.4055344664485992 0.08066762886840052
61939000.0 0.8492575295316686 -0.5208840094865335 0.05008748558128486 -0.19407819376621008 0.0004177317769992047 0.0005778342570236613 0.4164783497667405 0.06965077559124946
62938000.0 0.8418461471855887 -0.532485739897117 0.04959780163440489 -0.2094480355727268 0.0002994782314854983 0.0025984595750140733 0.4334684785594044 0.06208412316555016
63937000.0 0.8387312148541086 -0.5390310544508089 0.05055849816182422 -0.22994145911842612 0.0013278174590560887 0.0007479843746461768 0.4301341486905174 0.04423453823115909
64936000.0 0.8299842645742811 -0.5455678731304564 0.052664295020047484 -0.2426869836581299 -9.794817028275051e-05 -0.0034072739002190978 0.4316482776511052 0.05482808105883705
65935000.0 0.8293554400244111 -0.5556008623993626 0.05438203620990774 -0.25890133047065306 -0.0020256704828839683 0.00255349959030203 0.4449140379077776 0.028487646759210308
66934000.0 0.8229196400650295 -0.5619041464237848 0.05296361767072974 -0.27214524977562765 0.002535803923525688 0.0007856052237171841 0.42967265404804766 0.018839457210961173
67933000.0 0.8211619271419827 -0.5691936771806808 0.055471169377959734 -0.2843479350785788 -0.0003305476435432277 0.002700863179786051 0.44261167024230247 0.023254426151203315
68932000.0 0.8135818689563334 -0.5649614572150204 0.051588462968192396 -0.29454895018352967 0.0026970350553771807 -0.0012036634072973259 0.4588642322800441 0.0009048018875994656
69931000.0 0.8050079518867607 -0.5841103862345566 0.05070585089233482 -0.3137409292137771 -0.0009882577898859244 0.0058234208618950754 0.45185225791063327 -0.009063899857266229
70930000.0 0.7990419231853064 -0.5933655943997149 0.04663558264843206 -0.3276981425657479 -0.0017971778038488385 -0.0012975705345965075 0.45382106426484903 -0.0244302274187077
71929000.0 0.795876275471957 -0.600756461632237 0.046359650384774284 -0.3464407939751921 -0.004856641010292314 -0.0007305209207482399 0.4573004805402611 -0.03263388255611366
72928000.0 0.7897610001257458 -0.6080846824854098 0.037950789000633055 -0.35914922489466106 -0.000758361044715504 0.0035928052274487423 0.46156669425289165 -0.03765960326327977
73927000.0 0.7835090393601032 -0.6173206490917086 0.031010156275801386 -0.38085882621345774 0.0017814764627547017 -0.001116221873666251 0.4605095978212378 -0.0519370026621851
74926000.0 0.7773119632546813 -0.6258333100324341 0.02424839899512236 -0.3979546578647189 -0.0027165810741271858 0.0004597431775708993 0.46959665945042034 -0.047175740751957955
75925000.0 0.7691852908780725 -0.6304044572287024 0.01486666871528568 -0.4181569240951535 -0.0020263161717255294 7.611630198974751e-05 0.4783675873386325 -0.0700069062937065
76924000.0 0.7645483111725198 -0.6389580888205797 0.0028044711030163053 -0.43912884081234327 0.0007196401548925274 0.0019248067787981367 0.46365650294344746 -0.0781083158649119
77923000.0 0.759276678075147 -0.6451626926598979 -0.012474436640276886 -0.4633153691986892 0.0010105685700966837 -0.004614149735004462 0.45916600967905874 -0.08087263144235246
78922000.0 0.7532219236206188 -0.6578611125657562 -0.025219225837178283 -0.4896262628047779 0.0033328508634577606 -0.001938616164316408 0.46366719904449366 -0.08507265542013998
79921000.0 0.7430470211479385 -0.6599844498381573 -0.04678347543152746 -0.5164692410529378 0.0012285089597945538 0.001780706460847633 0.45741088533443397 -0.11606082303072492
80920000.0 0.7388898180817606 -0.6723226537638777 -0.05861794758684361 -0.5425181947370116 -0.0027400575100705736 -0.0017931755727774812 0.4649880544895252 -0.1262234347775656
81919000.0 0.7329002328518636 -0.675230464827887 -0.07403494342684856 -0.5737897234778462 -0.002335701781440207 0.0012798998306027866 0.46104938812110496 -0.12436916732516441
82918000.0 0.7241973305537317 -0.684111579504286 -0.08880358440449752 -0.604456623263335 -0.00479033432757906 0.004210053670313204 0.47125430137209673 -0.1324607687856937
83917000.0 0.7167568925265716 -0.6926570154771067 -0.11420983382275324 -0.6301087735464244 -0.0013422096258413384 0.0026684834516254464 0.4721000967599463 -0.14926028436342134
84916000.0 0.7093141162918163 -0.6986476807877915 -0.12378308327671662 -0.6662359850859976 0.0027784867040095912 -0.001953638006295414 0.4632262985106338 -0.1564322383306498
85915000.0 0.7050325724190799 -0.7060395043743197 -0.14803229531572298 -0.6947973714980207 -0.0026099714911133 -0.005277795761080171 0.46679183380658645 -0.1700965316533062
86914000.0 0.6959448839671722 -0.7170258355770167 -0.16626175519202613 -0.7328391918077709 -0.0002356128994581644 -0.001213997479788948 0.4658331933814219 -0.1714483892081427
87913000.0 0.6894855641843908 -0.7210434988205167 -0.18145781507613817 -0.7596927033326002 -0.004190989419379377 -0.002294904874292204 0.4624226927913792 -0.18018058352821958
88912000.0 0.6813191273659676 -0.7298156104012002 -0.19585420149764415 -0.7944123890780658 -0.002071954317983135 -0.0020684588313744706 0.4690737837247872 -0.1990774619441175
89911000.0 0.6759754794733873 -0.7361636451881635 -0.21155818490238 -0.8325875429946153 -0.0023976885851309943 -0.001848480721466289 0.4766431717198622 -0.19106681765505487
90910000.0 0.6677617926340939 -0.7417966484846783 -0.22818153947838432 -0.8680271564480425 -0.0019413794208236871 -0.0025242605450512203 0.4599150196203514 -0.20755728632985113
91909000.0 0.6579382184224941 -0.7480970107279098 -0.24898166716705258 -0.8958878341124603 -0.0024943716294200387 -0.0025722199283973414 0.4747832767939315 -0.22037130887848574
92908000.0 0.6499617976006701 -0.7551574386554805 -0.2639372512879988 -0.9284829643060425 0.0002097462808596239 -0.00230613502186368 0.45914013888684874 -0.23402865739042564
93907000.0 0.6454306623106987 -0.7609114927330068 -0.2812154983717268 -0.9586242335323791 -0.0027536478006784174 -0.00026560715609826003 0.4630108717653525 -0.23972770764366869
94906000.0 0.6294985506607467 -0.7699211010934948 -0.2990422649616767 -0.9928871744939555 -0.0018751523832622775 -0.001685540802693842 0.4629551068533633 -0.24057400461893427
95905000.0 0.6247531313233539 -0.7746930385169756 -0.3189177666213203 -1.0265080020726915 0.0005863460452469669 0.00044802851004957457 0.45545433268457264 -0.2642086264466977
96904000.0 0.6170870796942468 -0.7846782313307961 -0.3334622231653124 -1.0680905006307504 -2.97949781380594e-05 0.0013044192395628609 0.45663132628931324 -0.2615599400161705
97903000.0 0.6073257013406188 -0.7906547046645114 -0.36079940405026556 -1.0978193012936934 0.002782219915319977 -0.0016337159429340516 0.45644751367817654 -0.2717150534696427
98902000.0 0.6026853961130583 -0.7957563790231569 -0.3790271285732455 -1.1357727172553145 -0.0014802915145451974 0.00043880132459404235 0.44977397614052317 -0.2842823137371442
99901000.0 0.5903066779899917 -0.8009426121529685 -0.40849419443739393 -1.1653063351389388 0.0008860605962185456 -0.003092188029867174 0.4620957397098058 -0.2999758375387048
100900000.0 0.5836395502391334 -0.8059675233740266 -0.4335721150256284 -1.196420761786255 -0.0018419142581856361 0.0022545244443102543 0.4614249921251114 -0.30600178997408
101899000.0 0.5730036264224148 -0.8115855729538086 -0.46477119597613964 -1.2338169536405752 -0.005207487944430189 -0.0004657917911892055 0.434829032035111 -0.3124193459061209
102898000.0 0.5639848199164292 -0.8174000179556109 -0.49520276862941237 -1.2705607877176774 0.0003169093325000504 -0.0008920693208850826 0.4579655313983648 -0.3278397525484262
103897000.0 0.556066616287252 -0.8255314879251101 -0.5390284670178815 -1.3011107290962411 -0.0021244987924127464 0.0011125452190076516 0.46538881831063517 -0.33105309544607897
104896000.0 0.5485477794356554 -0.8364181254045202 -0.5795404503539247 -1.3374145767440888 7.810099937254314e-05 0.00011514598520321938 0.44525015399961226 -0.3332678302436669
105895000.0 0.5371603615387861 -0.8387562401148027 -0.6300556391744135 -1.3801589278211843 -0.0020369529263936465 0.002959103568423444 0.44670727935954985 -0.3511837473448751
106894000.0 0.5273240114988892 -0.8460548342523193 -0.6869435077792558 -1.416078311766666 -0.0005166473077692593 -0.0008491182001651927 0.43428318609016325 -0.351169230863663
107893000.0 0.5182231605171872 -0.8528167279835555 -0.7354694957856875 -1.4513535297885716 -0.0016920820729327678 -0.0018782773401868924 0.4339959175434936 -0.37457099465999916
108892000.0 0.5095944598339724 -0.8550857027032565 -0.7947046584721372 -1.4851304598491286 -0.002591979084209579 0.0011617896905292597 0.42935919983548065 -0.37704329846403023
109891000.0 0.49586929218299686 -0.8616333499783615 -0.8518733529174181 -1.511707055315029 -0.0004991316082737059 0.0005914132331484508 0.4352193181254786 -0.37173208810431396
110890000.0 0.47807667221308486 -0.8697307437590456 -0.9265099762692133 -1.5121943548279835 0.0012956261615620166 0.0011658600523991181 0.42583058741675395 -0.390857787208215
111889000.0 0.47573542805498886 -0.8696128986476319 -0.9807186231194019 -1.5821425721997322 -0.0010049381456763073 -0.00030190597005303686 0.4269753149298665 -0.3992913166205112
