! Created with skrf 1.9.0 (http://scikit-rf.org).
# Hz S RI R 50.0 
!freq ReS11 ImS11 ReS21 ImS21 ReS12 ImS12 ReS22 ImS22
1000000.0 0.9808711638141894 0.007001141767396317 0.011775434966561289 -0.04291524818439578 -0.010733662603768276 0.011230019992790146 0.31073448752093835 0.3219757557753375
1999000.0 0.9947021265266104 -0.018674671537917246 0.013440006667122889 -0.028698119637315826 -0.0017216128631100276 -0.000734870585011465 0.2701881125841311 -0.06332067660081417
2998000.0 0.9976113390612343 -0.023495053106790738 0.007794229795012616 -0.012253622710424765 -0.005353749228227255 -0.007663938965835785 0.18022622643353065 -0.1418484929617856
3997000.0 0.9966211669739212 -0.03443341625194291 0.010868532379920085 -0.013423210970055884 0.002673268252242569 0.0009703158369458681 0.08422242468260689 -0.22032870776635666
4996000.0 0.9929660302794288 -0.043596383271467656 0.007032665833178201 0.0026383639738383237 -0.00116325305459023 -0.0069846070404129745 -0.06445544853830083 -0.18593951265389091
5995000.0 0.9957430583697683 -0.050190800199440465 0.006943645907260127 0.0015937698759198832 -0.000580286099100013 -0.0022639056571713166 -0.12426186767446558 -0.09910169231382279
6994000.0 0.990202427915135 -0.05957425512930708 0.006239950057123834 0.0023344037386665265 0.00400523744039691 -0.0007255621181393141 -0.13706420472440678 -0.007781843328544015
7993000.0 0.9901215370173143 -0.07033321540517688 0.0045413752482628125 0.0025634102766755617 0.0006575162027462956 -0.0036082148586526956 -0.14762684372800064 0.041472992376587345
8992000.0 0.9892625811013646 -0.07242800095726938 0.0019072980801536814 0.006350949078582042 -0.0029726540874984034 -0.0005735121513691175 -0.14393965858894053 0.06908808363899839
9991000.0 0.9870319454759551 -0.084015030303876 0.0015943405882627014 0.006080612098910614 0.0027803970646139305 -0.0012210605857148277 -0.13675758246975547 0.08704178417931258
10990000.0 0.987647064687 -0.09190754245519168 0.003186571821418282 -0.000657339421318221 0.0027008001625971187 0.0013714558921873422 -0.13841169933397757 0.10221973035319841
11989000.0 0.98361877413462 -0.10339038186363159 0.0008264851775947439 -0.0032165102548277666 -0.003209670898756199 0.00424575038028351 -0.12080044868070701 0.1407837295447875
12988000.0 0.9847348901400597 -0.11029101046252394 0.0015651241642176945 -0.001138806424938788 0.0009748698829543807 0.0030373595636026553 -0.10538735567345094 0.16608559453835106
13987000.0 0.9835272468435747 -0.11808176721788219 -0.001439568522224554 -0.0030676520734790338 -0.003479599096800269 -0.0016824073240588177 -0.08503304944392961 0.188576833067655
14986000.0 0.9804220757387956 -0.12283271280091242 -0.002019776675453514 -0.0026699009118867976 0.001896329224217682 -8.103954801184927e-05 -0.080001436520529 0.2041578900805496
15985000.0 0.9831201851187245 -0.13468488028403566 -0.0013109263742027172 -0.006334257569567227 0.0010744222505220792 -0.0030103244017187034 -0.056716975140627214 0.2052516992990496
16984000.0 0.9801981048504529 -0.1436832993829853 0.0005275888945939328 -0.0030970883721949476 -0.0017106857966318822 0.003917062497038048 -0.049325213207910376 0.22250267200922372
17983000.0 0.9819976964672112 -0.14617595145266202 -0.004910648930198328 -0.0076043049765275724 0.0008983998725291124 0.004186260207555626 -0.04424327872498738 0.23256453330166893
18982000.0 0.9775593066690439 -0.16208148025218103 -0.0038899830190344993 -0.002573888993201385 -0.0032490607319717105 0.0010946129921389804 -0.010534196622834861 0.23485952849803957
19981000.0 0.9783926916261954 -0.16592087332656022 -0.0028136809277678784 -0.0012445780147565236 0.002263600807481412 -0.001135865696669064 -0.005210942382033061 0.23598364591964258
20980000.0 0.9763085785068757 -0.1759629227959224 -0.00017866146027661732 -0.008256451564336631 0.001287925384137484 0.0012320042625309031 -0.007636465514807274 0.2653386591440796
21979000.0 0.9747383319498405 -0.18365810916930025 -0.004492340888420207 -0.002084877391869349 0.0010140677716320488 0.0017431234489092306 0.024595857498530032 0.2298632264416429
22978000.0 0.9700658327241349 -0.1949023236860725 -0.0039129338746663805 -0.0003421816375689147 0.0015494787819526517 -0.0016430054513842998 0.02722744563573409 0.2605954444624141
23977000.0 0.9720294861717563 -0.2006473501361816 -0.004916170144494843 0.0016505611440893523 0.001024332259706942 0.0035564316026916176 0.036948483313968654 0.2488483039760516
24976000.0 0.9700837344963399 -0.2125702544045965 -0.007490249006927277 -0.0007038864177613695 0.0032013449056897377 -0.005214413023122963 0.07715654927699925 0.24697845395887472
25975000.0 0.9655625078938331 -0.22502217769315866 -0.004379710293185653 -5.83829667698184e-05 0.02240522109273421 -0.015957235045135427 0.08205447248121252 0.24980904268018392
26974000.0 0.9642190844087755 -0.22799584168774384 -0.0046851834802918895 4.955814654506877e-05 -0.00029625355345777577 0.0021136611754961204 0.08797024754619387 0.2669072065411898
27973000.0 0.965471936913246 -0.2371091951253373 -0.0062932478900437575 0.0009757916023720425 -0.0017631308950393286 -0.00430847832862808 0.10458531369502896 0.25711190436911396
28972000.0 0.9622418058383928 -0.24388434904656897 -0.004157190516022824 -0.0007462583252459474 -0.0026343433001289733 0.0024112021262361213 0.1169450034203631 0.25987234700716283
29971000.0 0.9599302434874075 -0.25410236225428223 0.0038291822826840463 0.0008900556872126578 0.0017361010874641634 -0.002587249845184216 0.151812446930917 0.2705423781015602
30970000.0 0.9564079812064282 -0.25924929324232376 0.0014426007889581734 0.00021796067580473255 0.0005540037311353038 0.0030256982577410397 0.16178724153562915 0.2433775222289273
31969000.0 0.9566003361309287 -0.2685132806663281 0.0014558639593379948 -0.00500375271939978 0.0020080551198752433 -0.0015748330153202979 0.1515171899209856 0.2535883022113756
32968000.0 0.9543133618517442 -0.2780280966381311 0.004174543539788564 -0.010087172350332355 0.001135748583075096 0.002805640964225984 0.16360043279330058 0.24184604400288368
33967000.0 0.9521252366098323 -0.2888399232095018 0.008185157426962242 -0.00783816529001812 0.0014297832492835584 -0.0005840031117358449 0.19123179795362524 0.24024556443652367
34966000.0 0.950592580490741 -0.29486616470519994 0.013287524638724292 -0.01384626824907328 0.0008151866535393277 0.0043415485788155525 0.19157263953522544 0.23963442315641256
35965000.0 0.9452796281463404 -0.30156919409070354 0.015023227709030933 -0.011433542847805537 0.000914569654077082 0.00140462335791675 0.2111933388881498 0.24465511206446336
36964000.0 0.9428922639591485 -0.3141502923681459 0.01564464703540186 -0.012764026519390025 -0.003874100077269018 0.0017926426966086107 0.20869041680232295 0.2504967139921654
37963000.0 0.9423679347564632 -0.32098355707861176 0.022088298882620087 -0.019269278270138825 0.0008810366329619327 0.0034235685795057625 0.23337759045145723 0.23020822592833623
38962000.0 0.9395628853131204 -0.3299064073916784 0.020127455017564796 -0.025604741104840442 -0.0033884742975314767 0.0009490319320068033 0.23102069097584518 0.2401559169394813
39961000.0 0.9346121850969812 -0.3394630953332722 0.022247157125963427 -0.02713533746432306 -0.0009168460478419868 0.0012330330743566976 0.24653195975104245 0.22976186852763533
40960000.0 0.9324808368662538 -0.3476761545363888 0.024490522526741533 -0.02217335532722022 -0.0007468025402915803 0.00224797673567567 0.2761363959198304 0.22786734221780588
41959000.0 0.9295933399194797 -0.3571638259375476 0.031892745277976337 -0.029375978221058755 0.0027763322998690396 4.956383980424277e-05 0.26388211000196066 0.21304025700771467
42958000.0 0.9238587202874654 -0.3648577121794284 0.03211299710388566 -0.03706284667771529 -0.0005857171263105394 0.002586745395542925 0.2784939628779554 0.20279710692594216
43957000.0 0.9219420124472405 -0.37218433809972756 0.032070964397238284 -0.0462770525042496 0.0005222784177004891 0.0008306332544253651 0.2858478528946438 0.21591231754469697
44956000.0 0.9181950051463457 -0.3807589359454379 0.03300675100469962 -0.0485442797797409 0.0005642138334253454 0.001570763165342082 0.29865042006859993 0.19351524288760513
45955000.0 0.9142836848297964 -0.39121680173536727 0.03208849344126018 -0.05380283096789799 -0.0007213239213797678 0.0005935980000390117 0.29909205561494295 0.18543489410849257
46954000.0 0.9119456933148369 -0.39810634273460355 0.03477315879366272 -0.061586865631891974 0.0019468544135503116 0.0017265277426209151 0.31914239022538043 0.18944084797696356
47953000.0 0.909136963151857 -0.406350173632323 0.03287448297084004 -0.06999812558718946 -0.0006419794503846118 -0.0010886130611309382 0.33300033349723795 0.17433518831471836
48952000.0 0.9018966292622923 -0.41753951580936055 0.035141939842241475 -0.0779020356928128 0.0017356812450501549 -0.0020512369179061557 0.33179531353303127 0.16181937256866835
49951000.0 0.8988837166734219 -0.4218210287413077 0.033168731951388246 -0.08683281814490969 0.001440502681155443 -0.0021850861914542367 0.3466813209669753 0.15290943266389112
50950000.0 0.8966113785344604 -0.43263957817395116 0.03659625036922247 -0.09164246285932731 -0.0003297355186411181 0.0016302211279340215 0.35740725591385536 0.1463611506552469
51949000.0 0.891087068604325 -0.4404869190057192 0.03678018836675347 -0.10303716349160691 0.0004915558439190419 0.00012013570688433346 0.3564459308633173 0.13638552852844485
52948000.0 0.8893843787274763 -0.4467901281513962 0.039421168287106324 -0.10860850101129121 -0.0003860800364900974 0.0003420883395174484 0.3732002227249231 0.14253912928760237
53947000.0 0.8817391559450439 -0.45796641723855847 0.041582349540571995 -0.11655987453255812 -0.00012689350915487475 0.00232556175096685 0.37385795180002523 0.13758555280584514
54946000.0 0.8775836364073358 -0.46566909913271787 0.04489609746122303 -0.12581872984064163 0.0009700107243037539 0.0007157002518371128 0.3884945386625372 0.1223860660425948
55945000.0 0.8745948018072188 -0.47228348771134443 0.04232127050925934 -0.1354922347335525 -0.0071318138973490534 0.001471004477382346 0.38422566800318003 0.09992725345730309
56944000.0 0.8716663825307077 -0.48228765252578254 0.04179506464670377 -0.14755784544600756 -0.0008044212654033625 0.002772187421320545 0.39281931279152865 0.1004166837048563
57943000.0 0.8651231755859036 -0.4932331284222116 0.044369661010932995 -0.15667063120465458 -0.000345952588674655 0.00574086411902443 0.40327693251520924 0.09806912108040632
58942000.0 0.8616964546131871 -0.495806212216087 0.047577506423319246 -0.16663737888405775 0.0013359203783255382 -0.002056287709143482 0.42350800494005447 0.09584455204019059
59941000.0 0.8565169122153864 -0.5069184002292875 0.04670799639095207 -0.17594858062940666 -0.00045513481279039244 -0.0008319454950507603 0.4136968033729722 0.09670771302742293
60940000.0 0.8484984957686539 -0.5124311834415735 0.04722469443837007 -0.17969028860058794 -0.0005838601612042693 0.002523480206287049 0.406248905270373 0.07636353669699637
61939000.0 0.846052302098086 -0.5198997609919908 0.04825829540593267 -0.18426111608940648 -0.00048418524234193215 0.0021951434493461433 0.4087916546419622 0.05620580720643317
62938000.0 0.8381582082172789 -0.5314551108823778 0.055591982263366056 -0.20253460254149064 -0.0017633019393461697 -0.00043734468960653533 0.4352152343390736 0.053244671100733464
63937000.0 0.8356902638388313 -0.5375448051706804 0.054598503845669014 -0.2240843458085693 0.0017214857092711802 0.0006621842782791672 0.4295620477122269 0.03731178108745984
64936000.0 0.8301920190719203 -0.5423156059106986 0.05595860443217997 -0.23748295335584155 0.0019522769995485077 -0.0023121352887609916 0.4353532479357047 0.03780069754902454
65935000.0 0.8235065042865388 -0.5549489492653938 0.054483994438879926 -0.24862739011266258 0.0005584686545942411 -0.0024882618543796186 0.4431120835679811 0.01866652218982984
66934000.0 0.8203305316500284 -0.5597146874460073 0.05221086843470414 -0.2635827479451074 -0.0011786376437280149 -0.0014884894655949946 0.4400709386887178 0.013838290399855699
67933000.0 0.814459190571118 -0.5690200699757778 0.05503805283087715 -0.2782130416730955 -0.0013689235059553598 -0.00016545366513007762 0.4402137352886954 0.01224431722981797
68932000.0 0.8124104091704192 -0.5712746179899402 0.05303844050432931 -0.29100662831296253 -0.0021914850353470486 -0.001543794522289137 0.4550655330714336 -0.01888160687605703
69931000.0 0.7998381143731204 -0.5846108511010133 0.051752533026410856 -0.30226547704359197 -0.001673773098842218 -0.0003651117288284761 0.44890907595601304 -0.016771341543195345
70930000.0 0.7968225769120274 -0.5893648135860133 0.0513050843485591 -0.3183626512791305 0.0009188608251348209 -0.0011207957200652383 0.44739579793320877 -0.030872719111173466
71929000.0 0.7915195626489985 -0.5994958342573684 0.04725272183190284 -0.33152179398188414 0.000574336557318107 -0.002236409252178363 0.4497296542185277 -0.036332722785989376
72928000.0 0.7853410744964793 -0.6081442428056977 0.04299116718697293 -0.35052086985322534 0.0022107443180194707 -0.0013807204626732476 0.45836223742138127 -0.048869818921552635
73927000.0 0.7801398487357246 -0.614006833837866 0.03333361107343162 -0.36993935279665463 0.003463011660049852 -0.0018894339159014725 0.4634660174017041 -0.05601239568178888
74926000.0 0.7748719337735316 -0.6224732073359203 0.02639072786131724 -0.3887181776350444 0.008040586676738657 0.0017465592132111705 0.45831705625329594 -0.06415150636519089
75925000.0 0.7683054306659399 -0.6272650568071082 0.0228540836043996 -0.4044638822782612 -0.00023164734665826354 0.0021798902020936342 0.4676462515522751 -0.07098626167158137
76924000.0 0.7613199353396999 -0.6343532609755823 0.0055771649543290116 -0.4267409973048198 0.0003980786069428576 -0.0027407705462689563 0.47016779091524075 -0.08471424963300103
77923000.0 0.7537670845174389 -0.642673457671219 -0.007867276854100852 -0.447544239843293 0.0015098062080511874 0.0013502583065214202 0.46344601281342723 -0.10122491520044202
78922000.0 0.749158960602086 -0.6527960305812239 -0.022046654353371557 -0.4759261484742281 0.003749494822674676 0.0013649179905165726 0.4602539260908969 -0.10020260141291353
79921000.0 0.7392819571878196 -0.6561174662105459 -0.039953013291286116 -0.49910858936728014 0.0029039005647060845 0.00029152472005015577 0.460338850382394 -0.12372105786249894
80920000.0 0.7350465302435673 -0.6653069685091934 -0.05122561088184131 -0.5297576883583496 0.0006017400475348808 0.0006780464896131529 0.4650768275939398 -0.12963489331255215
81919000.0 0.7291785170410164 -0.6728847435266043 -0.06605043093695946 -0.554892024932817 -0.0016250299055943507 0.0022672047993341966 0.47029970745210564 -0.12372043758596994
82918000.0 0.7213095704007788 -0.67972035447031 -0.08371726968240015 -0.5848573252007059 0.002116275211925224 -0.00015392463693265505 0.4777308922990773 -0.14333473324050752
83917000.0 0.7122326949994086 -0.6884057608699099 -0.10315722453915782 -0.6116515485105698 -1.91781483075488e-05 0.004925590445119498 0.4776976533037742 -0.1367455945654819
84916000.0 0.7071538296256556 -0.6952981450707094 -0.11887815605776393 -0.6450187738890287 -0.0016794813143907155 -0.0003599768754912383 0.46945727410876426 -0.1669346472017375
85915000.0 0.6994889933716084 -0.7018239100693093 -0.14127079326089712 -0.6714435815922561 -0.0024752289196628705 0.0012665611652678205 0.4657894845805024 -0.18641081717333335
86914000.0 0.6928316447936318 -0.7095392244045081 -0.15256752752781744 -0.7120651948480903 0.003326975502796106 -0.001832481483097332 0.46179943904164406 -0.17670491381346165
87913000.0 0.687149411143293 -0.7160191857362661 -0.1741417722484743 -0.741766969948892 -0.002646295465926599 0.0006686242848097319 0.4606933808261719 -0.18216285548912475
88912000.0 0.6776471132801111 -0.7237987675784839 -0.18333513465070628 -0.7725562587874151 0.0008856903775337573 0.002492591812159406 0.4655247400653735 -0.22031257254198286
89911000.0 0.6695619904447183 -0.7333360450609987 -0.19904643272394787 -0.8070438532371528 0.00305764604766268 -0.0025112349471351323 0.4708527405812415 -0.2094155494158304
90910000.0 0.6637047348963432 -0.7374512329104717 -0.21769954558097573 -0.8403444986830322 -2.0553482971370204e-05 -0.00039196779975145355 0.47237884133951796 -0.22003852217221992
91909000.0 0.6549956936592567 -0.7419042500335398 -0.23364751906371245 -0.8686960947796255 0.004012416544017896 -0.0004858058690387409 0.47450714312734776 -0.22899472665789197
92908000.0 0.6468106812061198 -0.7506176301278004 -0.25031960326948677 -0.9027821447968534 0.0018475996186178001 0.0014829132090865469 0.4614641879552381 -0.23359416811815462
93907000.0 0.6422556747018026 -0.7557015752976384 -0.2646612811328819 -0.9310237531632057 0.00028436336469295556 -0.0008812196571789018 0.4652971341669699 -0.2567964103837995
94906000.0 0.6277486033283592 -0.7641621021931762 -0.2814242536710839 -0.9614303846996274 0.0045043558252763245 0.0007405832227239855 0.45523353954058715 -0.25555204491912936
95905000.0 0.6226390160232975 -0.769617258626351 -0.3043928937189829 -0.9982916781949972 -0.0007619241642495502 2.2451500297852095e-05 0.46925433582742304 -0.28123284561402867
96904000.0 0.6135234761283256 -0.7773184010593188 -0.3188462713559147 -1.0330158756904126 -0.000730829038181167 -0.003753023433919803 0.46101621773465096 -0.27480940566624873
97903000.0 0.6068801314360076 -0.7827727091392584 -0.3380921737516525 -1.0672378621979648 0.000319210060861134 -0.0022044195706285206 0.45486404949991843 -0.2915612207368047
98902000.0 0.6024062770243024 -0.7898958529772894 -0.3561381629864483 -1.1069120283625244 -0.0005346019978912221 -0.00018149540986678892 0.45535876826847943 -0.28702485086314955
99901000.0 0.5930095972455509 -0.795814989945948 -0.3833959363043458 -1.1350144349065847 0.00043478799522328167 -0.0008885684905800562 0.46864513981213135 -0.31507982238707044
100900000.0 0.5818936854884371 -0.7998311382596229 -0.417020480952412 -1.1604233450802421 0.0015589655318177596 0.0028254758033124565 0.46055230551327075 -0.3194663572184259
101899000.0 0.5730579541381303 -0.8066719909101967 -0.4399570389455615 -1.2014288657707763 0.0017850382321133445 -0.0017776193558784361 0.46161371159903153 -0.3247666859297088
102898000.0 0.563960575198359 -0.8137062760596948 -0.4729288802052098 -1.2341206395502209 -0.0011749688102925474 0.001458060921931836 0.45485454023163974 -0.3459653282623327
103897000.0 0.555685706358574 -0.8207623601614372 -0.5117030776222873 -1.269223136675691 0.002626942890656831 0.0012815651314734384 0.4575379586261133 -0.32510579057631234
104896000.0 0.5486949301443139 -0.8296801551115506 -0.5437667040482903 -1.30078542590408 0.0006796195240460348 0.0005136876000376504 0.4387970415580196 -0.34089278505115017
105895000.0 0.5370146506542413 -0.8309997577717475 -0.5935747317374748 -1.3407481940855954 -0.0030354702201243937 -0.0015060012726548285 0.43762557048460893 -0.3455918001964464
106894000.0 0.5289600815894614 -0.8381214569350139 -0.640565596676209 -1.375403190651691 -0.00028159082582682556 0.0013120090581360962 0.43749746577587767 -0.36978403849366565
107893000.0 0.5214460481703044 -0.8439218388793908 -0.6916359444208766 -1.4062195572761893 -0.0040587729051309255 -0.0011248325462801393 0.44205199728123057 -0.3816922162026296
108892000.0 0.5091551934651085 -0.8490362880987526 -0.7480533016482103 -1.4475083002156541 0.0017377663668279467 -0.0012518340210753176 0.4294068618995422 -0.38189345684573794
109891000.0 0.4970719293666044 -0.856406482292586 -0.8087238623622092 -1.4819581705321345 0.0007623351783148431 -0.0038785413246127305 0.4466289737406975 -0.37863366826700895
110890000.0 0.47768009897004493 -0.8657977811781271 -0.8811705419357282 -1.480398510849256 0.0006627874720137011 -0.0015906896856790413 0.4237869727496812 -0.3871983860150517
111889000.0 0.47928954729954815 -0.8619915133801459 -0.9308790353386431 -1.549115763546094 0.002607589514170889 0.0004250282478245859 0.42547685115012884 -0.4048317918980315
