! Created with skrf 1.9.0 (http://scikit-rf.org).
# Hz S RI R 50.0 
!freq ReS11 ImS11 ReS21 ImS21 ReS12 ImS12 ReS22 ImS22
1000000.0 0.9662127302728062 -0.002791033907341345 -0.009965426563087503 -0.02854297782551446 -0.01155258599708701 0.008076802379030277 0.35857080641104455 0.29061960505054235
1999000.0 0.9961205156545218 -0.012951184622645327 0.003559305039582641 -0.022311357070956075 -0.004806421258902455 -0.0015999299208310773 0.2721276962870712 -0.047988440657428626
2998000.0 0.9967562659984225 -0.021134019105986376 0.007116074865115939 -0.020939552651135247 -0.0009002986941210646 -0.006620897351328813 0.1928913161507426 -0.15720529139833134
3997000.0 0.9999151606660495 -0.030921435953533024 0.011446790624690438 -0.010674642486027298 -0.009197345026594864 -0.0050345064157244586 0.08217873062465214 -0.23753268416822315
4996000.0 1.0003666496732895 -0.03700025104682563 0.012350859447339617 -0.005876189524220754 0.0017076434808481217 0.00018153520682476527 -0.05007234345719316 -0.20170358160614027
5995000.0 0.99982923831039 -0.04582456072801276 0.009331248051784848 0.0028467582387975074 0.0021614346564366674 -0.0020038850356131977 -0.1261700506880405 -0.11851191952870095
6994000.0 0.9943299297732633 -0.057071125308575416 0.00849624128421131 0.0059930390909924275 -0.0013712300968967545 0.000637945199161744 -0.13975561933277933 -0.03263110488784101
7993000.0 0.9968022673386813 -0.06532973124439063 0.002731054379883005 0.008148263011158995 -0.0015589612332332801 0.002289518585156227 -0.15084760818062798 0.0399902549522223
8992000.0 0.9958856660615658 -0.07102397593321214 0.0021369805625738357 0.007513629069636166 -7.813784082336849e-05 0.0005652621461151913 -0.1675276484075753 0.06388501340876303
9991000.0 0.9936854297772132 -0.08071079026446881 0.0026889122721810385 0.006135593567782517 -0.0005754295255840505 -0.0016547255873307558 -0.14762972135200547 0.09558520994949593
10990000.0 0.9946831382196164 -0.08907593983127911 0.0017665600867076703 0.0026945464515297167 0.0017756899490430876 0.0009325646790375219 -0.14883655619032407 0.09622000407069474
11989000.0 0.9917357860371233 -0.09696768815605215 0.0022788678476604795 -0.0005893040739077683 -0.00046344637043520335 0.0005518055630413998 -0.1290005109461621 0.14164009326327454
12988000.0 0.9900535988154496 -0.10928343518382265 0.0002811906857630658 0.0027759316133595755 -0.004224838828809024 0.0011285629596471738 -0.11568770334254723 0.16658115606312374
13987000.0 0.9884677525333775 -0.11444270920689402 -0.0003917942232319382 -0.004427226691924199 -0.0033844161362912737 0.000884914340324671 -0.09940093559191385 0.18443169139248333
14986000.0 0.987790582534826 -0.12501371408173304 0.0007893205639347282 -0.000973453965481554 -0.0003030175925291002 -0.00182962775442817 -0.09090068674189483 0.18851305526180911
15985000.0 0.9900920856844454 -0.1321862991804554 0.0031680256053422443 -0.0024706117073299695 -0.001142926833839805 -0.0035908636750632736 -0.06834095658554362 0.2164575944571658
16984000.0 0.984248035439968 -0.14414666578718907 7.002657234395745e-06 -0.005228501813547328 0.0022519561564564618 -0.00299546028222673 -0.06623683542842665 0.21871635431105174
17983000.0 0.9857412743165518 -0.1466798137672001 -0.0004891658360166197 -0.0015019773306528836 -0.004153498434826836 0.0015659532612409038 -0.05103000149815557 0.22115064621408695
18982000.0 0.9836116820932439 -0.15870446394383272 -0.002467398485516051 -0.0054921733112287255 0.002577931945388918 0.0018349404654765527 -0.02630153699383576 0.2394466739208584
19981000.0 0.983778039291725 -0.163712076379017 -0.004314442109402056 -0.0019512073575144024 0.0010074076951326794 -0.0017263618438775987 -0.020671207134367375 0.24911947892699618
20980000.0 0.98175631445381 -0.1749838138202267 -0.005695117897496865 -0.0030425248126204137 0.0020215490761857106 -0.0012088968519161178 -0.008141768544436464 0.26121006663735474
21979000.0 0.9799600536179067 -0.18100233098551324 -0.008265443661237944 -0.0016919608417754542 -0.0019807112548131437 -0.0007540829919581414 0.011221839303781435 0.2452624479652972
22978000.0 0.9764446757389317 -0.19265299519626622 -0.00539120794331409 8.368322679643958e-05 0.0038965980300790784 0.005426706956090761 0.027988824973984243 0.2640334365050489
23977000.0 0.9793528454674788 -0.20062313622250164 -0.005415451455389802 -0.0041330995131398035 -0.001900175931093155 0.0026436421174951532 0.025477041748695566 0.2644150649818864
24976000.0 0.9743975028733489 -0.2072728708494716 -0.006710845112270844 -0.003740080865437341 -0.00030554215725607194 0.003095853470927735 0.06418554727829445 0.2697750566345892
25975000.0 0.9724481739817786 -0.2150711766474171 -0.003929655624458701 -0.003018899669939381 -0.01654745465288857 0.016975554988294093 0.07216976002791588 0.2623085191063245
26974000.0 0.9698501996343951 -0.2258539698989675 -0.0013536123009315053 -0.002547949561758811 5.279271465088609e-05 0.001887359714660319 0.09027554374681122 0.27035168432628187
27973000.0 0.9703233633863804 -0.23023274232728563 -0.0053495936554415965 -0.001080718700911582 4.390187927137254e-05 -0.00051970826758373 0.09773584582493067 0.25467066852090636
28972000.0 0.9684455459336674 -0.24058694952810933 0.00016437200555868977 -0.003282863056310326 -0.0025530448889609482 -0.0015289146853079735 0.10765799614570357 0.25518316838477356
29971000.0 0.9654221933081086 -0.2509642526519685 0.0032553482189939214 -0.00041717054019801606 0.0007984996669941587 -0.0015099651788075172 0.1398540751148906 0.26540219524856706
30970000.0 0.9643280196738698 -0.256275664402363 0.0016643032114369038 -0.00020615758673841878 0.001991949932424847 -0.0005021332071040983 0.16652885914270898 0.2622662353956906
31969000.0 0.9623412319310903 -0.2639735907441337 0.003314055512479872 -0.001862170012942367 -0.0018150299232275228 0.0011160757977344967 0.1586394221337871 0.24829397405103915
32968000.0 0.9587975513342936 -0.2744122980760203 0.007488946633031246 -0.005103408620481997 -0.0009135796911856378 -0.0012271871697349817 0.16177145642635965 0.24321696950602442
33967000.0 0.9571144624114392 -0.28348731887486917 0.012785574592324354 -0.006984287602018545 -0.0028795929177780908 -0.0010883915234796084 0.18578940817039208 0.24558056587746405
34966000.0 0.955304834322998 -0.2890210763544925 0.014209794229998907 -0.01500442368740265 0.000182013459834903 0.0022326254082167315 0.19316045942256352 0.24992567317037317
35965000.0 0.9502477084487434 -0.300394717265321 0.017034248384606154 -0.01483322300012855 -0.002391885098099061 -0.002715910072147391 0.20624131728645717 0.25669318249993883
36964000.0 0.9472213363807676 -0.3097358127986375 0.017096005150541847 -0.013301067172698838 -0.0035966449040173414 0.000131880091625274 0.21036655619840025 0.25168260195974074
37963000.0 0.9458851473372479 -0.3176823901458704 0.023933627524198635 -0.020729233763526374 -0.002468120847791849 -0.0006338923836577026 0.2120004191311819 0.2430647744824478
38962000.0 0.941641387354853 -0.3279447614056788 0.026223630113514525 -0.025753712446938092 0.0010635241929132994 0.00023219086422405792 0.23431436928610408 0.2301352789253643
39961000.0 0.9413842926982385 -0.33328756497360806 0.02711276602478059 -0.027617162868866587 0.00085333258398076 -0.0008106335860243636 0.24188962935293173 0.22947485329879025
40960000.0 0.9375265035580904 -0.34163090722026584 0.026500242257814 -0.025410277038378965 0.0016159027457810704 -6.244070097458601e-05 0.26276619945688245 0.22716053510895295
41959000.0 0.934463801312641 -0.3516782407774601 0.029879463287865803 -0.032758730827659975 -0.004304049069693222 -0.004483541792408421 0.27336285105933217 0.20806600510586387
42958000.0 0.929363118585098 -0.36043642733467035 0.031584578969462866 -0.03884392867426986 -0.0032823751613088423 0.0038138681476976564 0.2758671233165528 0.1977171300698295
43957000.0 0.9269239337885341 -0.3661883112976016 0.034209982921988215 -0.04303041089935436 0.002316822151199974 0.0019179703149447137 0.28249384175203746 0.20403573187354906
44956000.0 0.9253701510093677 -0.37547567745714244 0.03335122101296948 -0.053838890599120476 -0.0009075323168684506 -0.0010226164737204182 0.29675312216044697 0.19105912721727492
45955000.0 0.9203689561592513 -0.38465752638721407 0.03583841188110339 -0.05786820682914226 0.0013053101570321853 0.00029191642228146763 0.2983383107881891 0.19422954035122947
46954000.0 0.9176180600015581 -0.39240360801600294 0.0369294722114306 -0.06588358355004055 -0.0006430177004992711 0.0027361410517998943 0.3231645990244878 0.17685455906575326
47953000.0 0.9157726468550274 -0.3993685539976042 0.036779455474877897 -0.07205557315760854 0.0012444215058435098 -0.0003041382332413533 0.3366962001255312 0.1675091248410911
48952000.0 0.9076386002697852 -0.41252917809205325 0.04074278673506184 -0.07942276487985839 -0.0001410430432355755 -0.001644514839050061 0.33552526612159717 0.17479516654081542
49951000.0 0.9056460537930421 -0.4159986909439626 0.03849859280589239 -0.08958231857379051 0.00012325304957960651 -0.0004338044525766501 0.35704049391499415 0.14975908870227891
50950000.0 0.9028935718587261 -0.4247511526825929 0.041011185647738306 -0.09902261346645394 -0.0006701679377651611 0.0025037687803740167 0.35228813722861313 0.13845374197180024
51949000.0 0.8980320867300685 -0.43333948484674056 0.040048625603294974 -0.10412465832494774 -0.001109775716230759 -0.0012816827987706262 0.3599038514013081 0.13520341252906715
52948000.0 0.8963899418944764 -0.4400479075957721 0.04251262457435907 -0.11374393551697427 -0.002538373425190959 9.303968190679966e-05 0.3767966628465397 0.13853186102016787
53947000.0 0.8885920079434944 -0.4496450289994862 0.04560923953939797 -0.12548841497778915 0.0019369881351023609 0.0022935647612554303 0.3727128325568621 0.1292525307003328
54946000.0 0.8853330982106878 -0.4575911897596635 0.04417877764010491 -0.13226318993248337 9.582369871192001e-05 -0.002549493524613061 0.38595547599252455 0.12503003594490317
55945000.0 0.8816280805261831 -0.4673101727928873 0.04615741643831158 -0.14433774073921304 0.001421513410751987 -0.001712897335146579 0.3766619391303425 0.10437979348001272
56944000.0 0.8787675992698908 -0.47494117838573724 0.05158659011123829 -0.15481327893402777 -8.671593585943546e-05 0.0001592863317465509 0.39381899756667454 0.10351605973094023
57943000.0 0.8731780104676247 -0.48544530514343304 0.051047309836232506 -0.1654941846069634 -0.0018625973397679205 0.0013807777230204234 0.39188626611463256 0.08269031110439345
58942000.0 0.8681048676070712 -0.48841876487488617 0.05373816596667435 -0.17554841422325115 -0.0009635222886092415 -0.0030762243845911517 0.410519806581025 0.08829365176663508
59941000.0 0.8654290531713498 -0.496501720473294 0.055125145294586515 -0.18913816992952723 0.0007603282848210368 0.0012709715945941123 0.4118829602091225 0.08882514011348577
60940000.0 0.8582941240955124 -0.5048692452597179 0.052710061702836174 -0.19104205483969544 0.000229803520943357 0.0009420019192353253 0.4103584446592682 0.07568836392812546
61939000.0 0.8552257744537558 -0.5105216450024169 0.05447927331177992 -0.2002195983135277 0.0008650127568435436 -0.0018384778237604427 0.4218258635639169 0.06557791459207746
62938000.0 0.8489145789320043 -0.522064549701182 0.0552867123277677 -0.2188060605496033 -0.0032711089470988156 -0.0012986333265052447 0.44029601326870965 0.05425049948562946
63937000.0 0.8454224998626415 -0.5297944170440095 0.057526593946907276 -0.2376895349056783 0.0019903843657684277 -0.002020966145437527 0.43018910364278007 0.04753478135072669
64936000.0 0.8379842370619774 -0.5341885762917957 0.0574396345228701 -0.2509205348115796 0.003548920401388887 -0.0017596145075571923 0.43066657973676875 0.03525476739170701
65935000.0 0.8351812745055243 -0.5450199892383104 0.05710844400771137 -0.2684661943448897 0.0005661841269279101 0.0003270274321825008 0.4378083437177453 0.018758086972903956
66934000.0 0.8308022036748797 -0.5507612306453348 0.05834455978142828 -0.28128973112232764 0.0011393394797889393 0.0012336686482983465 0.44089832226187975 0.014096838289121963
67933000.0 0.8277790830570466 -0.5596256660181296 0.057450505350908614 -0.29607724327729956 0.0008208549191893786 -0.0003717148015489816 0.44085043123868156 0.008726580049394852
68932000.0 0.8218406409904747 -0.5623321359271277 0.053348609041730985 -0.30566874498475066 -0.0016974449369379233 -0.0006174345689219303 0.45323849146386574 -0.0071159018823558785
69931000.0 0.8134109608621165 -0.5750526247652196 0.05381837921248142 -0.32466618344267323 0.002090236898533954 0.005453706881902176 0.44710199381225113 -0.026017492694526724
70930000.0 0.8085064390543805 -0.5817722055139841 0.05373126319180661 -0.34067678761203085 0.0038937801066522676 -0.0004537069702661119 0.4463302111273304 -0.03077004017535046
71929000.0 0.8041138039204435 -0.5901309858341574 0.04859371303944975 -0.35565935075621113 -0.0014535440566714956 -0.0028125350521931223 0.4466848699868419 -0.04101320907620049
72928000.0 0.7969367584619923 -0.598790137237657 0.04645041629750235 -0.37088950854840685 0.00115930438226138 0.0008805624514448477 0.4647858006441135 -0.04577724695108217
73927000.0 0.7911488179378096 -0.6061287711465334 0.0358100538111967 -0.3954692056186539 0.0015844219142281538 0.004505507572539812 0.4534791516002492 -0.06500086158935281
74926000.0 0.7875477200919238 -0.6159269405238035 0.030353411161540753 -0.4135768398449445 0.001962754726021771 0.0019358027964591852 0.46079748138276716 -0.05761445750320264
75925000.0 0.7802741513787331 -0.6195623994499649 0.024137715611224766 -0.4334517613625394 0.0007352967385989242 -0.0014869052889928077 0.4663455235904558 -0.08115348951920462
76924000.0 0.774901079216926 -0.6269596575206761 0.008072278546484487 -0.4570239967772786 0.003484142792432419 0.0025423912370721438 0.46620835108698233 -0.09375245179064379
77923000.0 0.7682748852480159 -0.6332140208224609 -0.005887794978597196 -0.4805803120671716 0.0006518463111150583 0.0004021265740257545 0.4562419320668637 -0.09628907797821816
78922000.0 0.7631336540016794 -0.6455998896608062 -0.02177965988279845 -0.5102883464705417 -0.0004971237646451666 -0.0006471152961219639 0.4640554556161017 -0.11487513710517293
79921000.0 0.7542241003701913 -0.6465784864297419 -0.03687334498651256 -0.5363138284195138 -0.003017798859318377 0.0035865564288320773 0.4595843089357984 -0.11896003196874408
80920000.0 0.749240522652818 -0.6598093796695619 -0.05113767858700755 -0.5638390305454402 0.0004196761495054998 0.003065417192149421 0.46611552919790444 -0.12412460327653603
81919000.0 0.7456495490785542 -0.6655132946350124 -0.06857961310538116 -0.5942628930417213 -0.0003819425080223398 -0.0027566804799913983 0.4694803982996239 -0.13674049707905295
82918000.0 0.73469935268577 -0.6711801570339446 -0.08382925511777646 -0.6243194663731052 -0.00099905703036983 0.00313968415230969 0.47069927611675566 -0.1490727295790958
83917000.0 0.7279237055470387 -0.6798140446038666 -0.10352426724791826 -0.6533850213134531 -0.002277225420180264 -0.0014113405221224322 0.46772438871704536 -0.16142730560926252
84916000.0 0.7224021477021795 -0.6871409006421306 -0.12373143563722205 -0.6858044316488134 -0.0008163296317742095 -0.0020168013543191065 0.4580538634764505 -0.17370390717337725
85915000.0 0.7155814380574076 -0.6942911628334992 -0.14402883810447198 -0.7173121394959631 -0.0006168564601666595 0.002037417308838486 0.46762741763053994 -0.18160093639128783
86914000.0 0.7086627906844666 -0.7042453840248468 -0.1557920385512522 -0.75461226352349 -0.0018658586303849489 0.001956959798109814 0.4635180432042334 -0.18423321593056566
87913000.0 0.7018079515650435 -0.7082175913616362 -0.17995787164129767 -0.7858694125695019 0.0036179609033846114 -0.0028419388069732265 0.4652562236100891 -0.1861902239353044
88912000.0 0.6933777733064561 -0.7161100378451491 -0.19243387595625316 -0.8233758875322092 0.004491528615749738 0.005298594924996743 0.4658966397828817 -0.21028920717911265
89911000.0 0.6883539705020914 -0.7253946375442858 -0.21211313804366017 -0.8617342262294512 0.0018809674643544907 -0.0011085161572750473 0.4691604934189596 -0.21916329822504124
90910000.0 0.6826460938400635 -0.7292853133375875 -0.22509077774812677 -0.8946851129831899 0.0029875732692606198 0.001766389709350519 0.4608175280081276 -0.218405785302218
91909000.0 0.6700444762097862 -0.7364353152597674 -0.2518209361473772 -0.9269247080231806 0.001990643095574962 0.001093704993229771 0.4758420780325481 -0.23246563546826968
92908000.0 0.6646675455620742 -0.7430309075835863 -0.2677146251944307 -0.9632737921489433 0.0008457169194169645 0.0016535090544635307 0.46013778643412795 -0.23539130710478856
93907000.0 0.6582283887217716 -0.7479165587809514 -0.2862114681512377 -0.9923543392733832 8.189070073373036e-05 -0.0007676587241949567 0.46361715531343783 -0.2594027796768486
94906000.0 0.644215188465375 -0.7570202738939833 -0.30557560639251563 -1.0225719959297959 0.0012329073702443956 -0.0023748697333531893 0.45034270347064514 -0.25824078774614706
95905000.0 0.6408462651107456 -0.7620557837229557 -0.32662246140392087 -1.065246503458915 0.002117290191376684 0.0029753122392280258 0.46158022236113033 -0.27023517975098926
96904000.0 0.6314728406858897 -0.7709268225720862 -0.34585316095607266 -1.1009931585040356 -0.00036654158250124387 0.00035495041394888356 0.4590207075719542 -0.2764667365672452
97903000.0 0.6234907195470969 -0.7761067867340443 -0.3724533211371445 -1.1349567149622541 -0.0004031960095497822 0.000122443233080199 0.445525918144705 -0.2868324057464875
98902000.0 0.619354890083942 -0.7837635372860287 -0.3906442426455384 -1.1766292171231743 -0.0013160437706352087 0.0016081657159547527 0.4396254810727719 -0.2949630347561095
99901000.0 0.6089314960320519 -0.7889328000306282 -0.42095608216246827 -1.2047064988147218 -0.00027692074380006044 -0.0011118618184780074 0.4591828948285045 -0.31814737878208993
100900000.0 0.6013924380681025 -0.7929731526120563 -0.4456564388107291 -1.2342496229108353 -0.001969546052620408 -0.0001848036626412143 0.45392485686453515 -0.3107064686315869
101899000.0 0.5928688495009123 -0.8015670805169487 -0.47823586799597395 -1.2762580024317722 0.0007142559946526877 0.001331329306955533 0.45784825201512014 -0.3348778605039441
102898000.0 0.5828213884031004 -0.80643151475428 -0.5172971797604349 -1.3148844599309477 0.0013352868553305889 -0.0009370985521711937 0.44351532169455055 -0.34677752125415995
103897000.0 0.5746204619009904 -0.8119084137910462 -0.548511508869493 -1.3509592797318921 -0.0014274920989266681 0.003833983927457435 0.4455162941122193 -0.33218542346483915
104896000.0 0.5667203482220801 -0.8240504402207697 -0.6012570451263807 -1.3849082102023562 -0.003008755948986099 0.0011767458427123336 0.4398403713348159 -0.34443618693896155
105895000.0 0.5554771695705941 -0.82446496665343 -0.6450023893923841 -1.4255484422544593 0.0007724503394917974 -0.0025857410416567253 0.4340511103119297 -0.3674293769188591
106894000.0 0.5478861840615495 -0.8339867093751997 -0.7002560549044963 -1.4660899535409113 0.004458313712775897 0.0025425312112684873 0.42894300813621605 -0.37216428217261005
107893000.0 0.5389078451015353 -0.8396997635375514 -0.7519201355809279 -1.505913168163742 0.00042074951696504574 -0.0025306823438817207 0.431606070604942 -0.3825887857046542
108892000.0 0.5285116753257443 -0.843531904357728 -0.8131590521753072 -1.5409841537440792 0.0006704804797095518 -0.00038502776162953393 0.4231447731337404 -0.37889987869567254
109891000.0 0.5167522013388052 -0.8502450798166956 -0.8660698920472646 -1.5790190899698584 0.0024370361891292657 0.0013238360011248774 0.44139134890147075 -0.38216170310084724
110890000.0 0.5119034920125339 -0.8539291021773256 -0.9284335560127475 -1.5967101208013696 -0.001225760763855866 -0.00019939198452165505 0.4300963372331212 -0.3937904841672197
111889000.0 0.49615894948829825 -0.8553861337569533 -0.9999548374872793 -1.6483379092242554 -0.0008106264350611314 -0.0002422223252594224 0.4252370223078602 -0.40586822696380703
