! Created with skrf 1.9.0 (http://scikit-rf.org).
# Hz S RI R 50.0 
!freq ReS11 ImS11 ReS21 ImS21 ReS12 ImS12 ReS22 ImS22
1000000.0 0.987934077744264 0.01440696868291877 -0.011196315827270023 -0.06751162511550159 -0.01727277720978128 0.0027047473585827698 0.2640441231561546 0.32768645268869057
1999000.0 0.9942211686361588 -0.012162320050088101 -0.001112798740121745 -0.03412701592844565 -0.004693067766542937 -0.003925392930807779 0.2388757954927985 -0.0843737554926454
2998000.0 0.9980798948400363 -0.019421930796450933 0.012871794991927591 -0.009197826247858119 -0.0011480204243235117 0.0003919932654524363 0.1890854307823894 -0.12982664233445396
3997000.0 0.9994471172706854 -0.029735523802462773 0.014824549923245568 -0.005829948789835108 0.004477519011115979 -0.0029657992873414387 0.09691511183097089 -0.2177758702676456
4996000.0 0.9967452616819339 -0.037621279529317306 0.008065022803948389 -0.002107695562454991 0.0012049611244423718 -0.002534077454041722 -0.03180554651490734 -0.21367121939767197
5995000.0 0.9953181490753178 -0.04757973716450457 0.00876759572842747 -0.0009266539154341022 0.0004984052834374465 -0.005541271306529454 -0.11574421866470734 -0.12490731409207553
6994000.0 0.9929057327936711 -0.06207420528128427 0.005392877362705856 0.002442772791586383 -0.003353261104174621 -0.0011437223674168491 -0.13558885565772066 -0.03292401182905561
7993000.0 0.9996967953258572 -0.06481029710857068 0.0018152700465529797 0.006769095655350686 0.005356935062795954 -0.004585320161503153 -0.158236347187428 0.03765686854200382
8992000.0 0.99265820737222 -0.07306387480780531 0.00781941895635125 0.0035513603919561207 -0.00035348988392750505 -0.0007711179439579389 -0.16311939146703672 0.05082132989467737
9991000.0 0.993239266696716 -0.08116320651705194 0.002836167157855055 0.005453794917413413 -0.00225767498400674 0.001847095048309687 -0.15558325234922532 0.09016971654295733
10990000.0 0.9922594103943398 -0.09327933044826686 0.0012886322886764049 0.0001368212555000522 0.0016495680796048376 0.00036542868542276217 -0.15073959118546426 0.11459186865672061
11989000.0 0.9921606127579713 -0.09959048346969246 -0.001994916986400465 0.004116116242511973 -0.0024888065289021175 -0.0010231290293131134 -0.1344381084934501 0.1358229009066709
12988000.0 0.9896419548088926 -0.11049206672894536 0.002316603217391181 -0.005074067929282463 0.00042964068548979797 0.0008595505791335705 -0.11339583974248027 0.16539570161917067
13987000.0 0.9877531785029096 -0.11414720801403565 -0.0002757716553152907 -0.0016490824847243588 -0.0003453867449449975 0.00326173861743278 -0.1039305342015661 0.18196713843597448
14986000.0 0.9881418004163725 -0.12408915202341461 -0.002929062649241101 -0.005076588617351292 -0.0007501371889794189 -0.00032298862588341326 -0.0932686055318253 0.2086342575162544
15985000.0 0.9893738886273862 -0.13320417981551613 -3.8532394178556525e-05 -0.002764776220777665 0.0036107101694343186 0.003587805675387617 -0.0746445953776821 0.21827243295913967
16984000.0 0.9864033739566628 -0.14311835412312432 -0.002487329695068972 -0.00950681762499566 0.0022358890479538787 -0.0014551727806140062 -0.06904014788915258 0.22472157744908244
17983000.0 0.9873601707166244 -0.1456168728253638 -0.002566544660847039 -0.0007469133888226657 0.002138596463552034 0.0026443029419078922 -0.056725632627809164 0.2375867706780511
18982000.0 0.9826038074113713 -0.15859675774326817 -0.0028186690327914325 -0.0034721153161412443 -0.0025196542920164398 0.003737846225732559 -0.02834021376662098 0.24134690942629083
19981000.0 0.9837775027558044 -0.16497226831365602 -0.00924361998792904 -0.005059410881037312 -0.0010404459705560913 0.0016570178061667273 -0.022314771125567737 0.24391661424522423
20980000.0 0.9838915580742603 -0.17296530553901363 -0.008369312012720872 -0.006495768077465986 0.005449328752653292 0.00016955451054207423 -0.004470134917235861 0.2556809289894682
21979000.0 0.9801912966824956 -0.18026586941483927 -0.010450925830705015 -0.003568491877740886 -0.006239106521458735 0.0003112578634188686 0.012498652824616513 0.24649485586571518
22978000.0 0.9784287891044647 -0.1901886609752822 -0.005729272943040268 0.001191967233881329 0.0059378640238947735 -0.0003456613750076301 0.02820063371203637 0.2600717456654597
23977000.0 0.9800616100045862 -0.19742398245455942 -0.006634651726198591 -0.0036903542802351726 0.0003141366139120732 -0.0006266729191124003 0.03731262394638338 0.25602406232119235
24976000.0 0.9758993024118056 -0.20917332951681794 -0.002734229431242438 -0.006552688546469125 -0.0020806589028578007 -0.002826313544966052 0.057317614335510116 0.2554161617574262
25975000.0 0.9718437120589976 -0.21230188092758004 -0.007101838903488981 -0.00025586847317798786 -0.021877644969040027 0.012680187534442765 0.0660172903045442 0.26809371491485123
26974000.0 0.9716213304177207 -0.22475195685532576 -0.002113837878019085 -0.0060657391050433235 -0.000700629347316585 -0.00010497178184172268 0.08335743900983437 0.25932564563878324
27973000.0 0.9708800142779599 -0.23256013159101094 -0.00402425673014922 -0.003778956858691127 -0.0005801944567130823 0.0006930206020742899 0.10164747421443188 0.2590123023542055
28972000.0 0.9677110068684235 -0.2408171589146049 -0.001442539200461524 -0.00214298356044367 0.00010616634368838544 0.002948064782070408 0.11863423842594997 0.25568024625124025
29971000.0 0.9650542059596915 -0.25073457829248325 -0.0020859751710081663 -0.0014439774130288368 0.0011653355717113948 -0.00024863795183575037 0.15190659404989404 0.26863785968132026
30970000.0 0.9612915603158644 -0.25557857576583143 -0.0008241172241509429 -0.0032711946648393986 -0.0025881322527186263 0.003530397187858274 0.16725500701884552 0.2505149763030664
31969000.0 0.9625843315889241 -0.2633867487241988 0.0029425805441597765 -0.006696242158205776 0.0014670900381609465 0.0024309732237169767 0.14872388552029536 0.25181511288194375
32968000.0 0.9597306415022148 -0.2737618215287651 0.008848416625757872 -0.008448871598527915 0.001827827634007701 0.004538191224216738 0.15916919664195456 0.2431910269836344
33967000.0 0.9579009481823699 -0.28328546464002785 0.006296039421058083 -0.011518137041578495 -0.000672018874544247 -0.0019487468855952752 0.1804101292534157 0.24266634499815962
34966000.0 0.9546508968248768 -0.2925561354414882 0.013988128189884918 -0.015621997081146408 0.0031791083580791934 -0.004864700640059058 0.1952555736630109 0.25392991596014935
35965000.0 0.9524369869624657 -0.30017450466496975 0.01634233374569797 -0.012902434647547006 0.0007351987722093523 0.0035207242466063515 0.20778326353962825 0.2520769916728248
36964000.0 0.9484158506984903 -0.3089397848187553 0.01683250567989533 -0.017694060162559963 0.0005212942685121597 -0.0002700097586410025 0.20487933975010375 0.25026424387746954
37963000.0 0.9459279708622608 -0.31718174241971414 0.021664815797836932 -0.02329394679237066 -0.0018882478583814298 -0.0013900071682613525 0.23073377134659584 0.23856853963835384
38962000.0 0.9425513073915289 -0.3267829049055653 0.02512764707866859 -0.02555815714189656 -0.0008101165322078482 0.002400936043909652 0.23042001541165863 0.22704122642086613
39961000.0 0.9410258859056688 -0.3325183253678675 0.027202848267365375 -0.02991033159566601 -0.0018953094461326612 -0.0015839156800159235 0.2455900042554941 0.22428827537298152
40960000.0 0.937175584991469 -0.3420404071098878 0.022355015522896045 -0.025466249943622968 0.0024941480768248796 0.0019332282937539363 0.2594317179819693 0.22333842492039738
41959000.0 0.9346803610152008 -0.35143834310088284 0.028772496546301565 -0.03470963423969006 -0.00020305196789828208 -0.0008345263655227648 0.2656426124957183 0.21716367054931085
42958000.0 0.9282052381717046 -0.36147151281340145 0.03087405418964664 -0.04295442624357544 0.000559837709193766 0.0005436981680589666 0.2833344099421167 0.19556096995247427
43957000.0 0.9299781484365283 -0.364081414317686 0.03529165781987057 -0.04647033846622131 0.0008071474107772706 0.0008635260164312063 0.2845282826725009 0.1996577726296611
44956000.0 0.9254527742756108 -0.3732979129161795 0.03357205153770984 -0.0540528089231203 0.0008726753573316116 9.865805219756335e-06 0.3040592804045018 0.19980070737836875
45955000.0 0.9199370297545512 -0.38390186271803123 0.03710344104575219 -0.05698654835638312 -0.0036912527658132946 0.0012733971594815578 0.3013170705036906 0.19118651101234607
46954000.0 0.9177319097814793 -0.3919977272113177 0.03545677519037458 -0.06590254625482417 -3.876584368990039e-05 0.0016628642406598985 0.3163870716554082 0.16784868860469415
47953000.0 0.9136975895946255 -0.402174697679965 0.03552278704055408 -0.0737113014493805 -0.000838949746530029 -0.0013526576822305047 0.3335312127578803 0.16371267281813465
48952000.0 0.9093420461366782 -0.4092442558435723 0.04038074407349531 -0.07875507812605402 0.003536189290060408 0.0009580247589634983 0.3300026941040462 0.15391557630750474
49951000.0 0.9053582146127886 -0.41692478305941927 0.03911246002791973 -0.08827843206273196 -0.00046201891511158354 -0.0009980654696702593 0.35163246579476765 0.15625931799445306
50950000.0 0.9033605226582919 -0.4247168459662713 0.0408235273784687 -0.09662864888359672 -0.002301020364037315 0.0013906209460113792 0.34335196934973433 0.14741031104932617
51949000.0 0.8983975279726718 -0.43078880636872646 0.04150166723566728 -0.10111042880074211 0.00028752884886310557 0.0017846958225623372 0.35380598762911897 0.13693214108376356
52948000.0 0.895435370797514 -0.43961353561135785 0.04245890949330935 -0.11270529653250093 -0.0013244646399572725 0.0003052301755050647 0.3747333836356978 0.13581995396089988
53947000.0 0.8920879445232016 -0.4471486785772369 0.043367018226244114 -0.12229467271003512 0.005794814238632607 0.0018965302672619793 0.3627590348020885 0.12537078428189397
54946000.0 0.8842349126393768 -0.45797603057216163 0.0456658520614041 -0.1295917623449344 -0.0007781305122864143 -0.0018782365712372024 0.3828906645969935 0.1230407800262685
55945000.0 0.882930626037784 -0.4661787912523765 0.04643515306937564 -0.1433055599538052 6.3829360643509205e-06 -0.0003824091259874016 0.3812577835944466 0.10615452691119732
56944000.0 0.8776512497635031 -0.4729620154870379 0.047174729457897115 -0.1508586306038346 0.0005124515862889584 0.00010101363674757154 0.38814353153300796 0.10026931593126999
57943000.0 0.8737530896856438 -0.4830630060662803 0.04997025239487704 -0.1637735304644871 0.0033838288429723124 -0.001175600813358284 0.3981917611887049 0.09032657839416598
58942000.0 0.8689691332698909 -0.4884023373348805 0.051600927508066705 -0.17695887518727976 -0.0004019613062580027 0.0006192794023252834 0.41003832780668686 0.08712180229257202
59941000.0 0.8652549404780736 -0.49783535376998417 0.04978094195634902 -0.18343481425680516 0.001409847173693257 -0.0012799014180120026 0.41696129399234333 0.08512961014524055
60940000.0 0.8573840185760262 -0.5046982717430527 0.05232643542326104 -0.18844127228676658 0.0024692423191973157 0.001444436791169853 0.400848403949582 0.07546935984114819
61939000.0 0.8549564731886449 -0.5110535987866969 0.052353588878297705 -0.19684153532873133 0.002344577451590132 -0.0014718962904006255 0.41160331752940654 0.06399849426413508
62938000.0 0.8496063546945704 -0.5215196687102067 0.05450041888923618 -0.2141490933746575 0.00263717989453922 0.0012256352825527291 0.4359982446438799 0.05561437382274009
63937000.0 0.8447621443312386 -0.5289431265106747 0.05645272544095692 -0.23470185496433116 -0.0006140544884110112 -0.00044373598111860526 0.42631747634621825 0.034614429638543436
64936000.0 0.8376304957105543 -0.535793605904075 0.05793299832636529 -0.24843295036127427 0.0009133998488832285 -0.003430419250494041 0.42573895749021423 0.020023286787417074
65935000.0 0.8348425643752617 -0.5457111082205831 0.055508050185032846 -0.2628090858412164 -0.0020821425940357042 -0.00011977169133500243 0.4332241318523937 0.0035164002886170042
66934000.0 0.8312199467669156 -0.5496926691314029 0.055065673412325024 -0.2766646147574662 -0.0031926297506230323 -6.927363976084104e-05 0.435400969168201 0.005509273613766077
67933000.0 0.8279094658350561 -0.5574514752879501 0.055809551103000773 -0.29320612601806517 -0.004892195726595059 -5.913223244599157e-05 0.43707507864442896 0.003336911652445908
68932000.0 0.8204021933448205 -0.5523884498213262 0.05339072270034568 -0.3022415695399043 0.002676794531626026 -0.0003988334204313943 0.4518549288339303 -0.0070050429673055884
69931000.0 0.8136857969989231 -0.574387068533256 0.053238688157589 -0.32252952058417694 -0.0006432108721161391 -0.0005360863467629032 0.4435250298006888 -0.029997373560832603
70930000.0 0.8080771444753501 -0.579860653483718 0.05205068084062823 -0.33680094917745856 -1.3962532337447175e-05 0.002728626981749562 0.4386644721376118 -0.03927312053199229
71929000.0 0.8034541204834301 -0.5897647212263528 0.04346598516331204 -0.35568290639842776 0.0004038010213192551 -0.000817979805194802 0.4425931227812508 -0.040012067445092545
72928000.0 0.7973426115575916 -0.5987107693298321 0.04150609820073888 -0.3697709938556033 -0.002739103080271523 0.001774719134299018 0.45951985431448067 -0.04983619507755854
73927000.0 0.7931151558371369 -0.6068343370652605 0.03236858873150086 -0.39295084689969945 -0.0023036392140653793 0.0022253896229694797 0.45783169548756875 -0.06571147945357894
74926000.0 0.7861725711358908 -0.6133364302750838 0.02575352146033331 -0.4092344545549318 0.00010017923238015413 -0.0029797867739483866 0.4422686775325902 -0.0634084301681076
75925000.0 0.7803695497633121 -0.6211425377819535 0.016845354943196382 -0.43137112708725384 -0.001754114132822752 -7.533215048466458e-05 0.46411232579535844 -0.0885361499887083
76924000.0 0.7756452185320784 -0.6264337662014431 0.004900921408830987 -0.4573052836689999 0.0007992822071744943 0.0011277827215356107 0.4743535725836113 -0.08037663896409554
77923000.0 0.7668875711143344 -0.6350331177122629 -0.007684325149394351 -0.47550892403671924 -0.0009172353331666709 -0.0016066300801337644 0.4584428087065646 -0.10398132518022737
78922000.0 0.763077253831204 -0.6431711869163828 -0.018010043666224516 -0.503890677005827 -0.0005123399126519627 0.000645120536297504 0.45382886216854035 -0.11891065571599549
79921000.0 0.7545817656797821 -0.6482359831948413 -0.037956922205496846 -0.5282142592698306 0.0010999099610345055 0.0011902565406319227 0.45732262931030865 -0.11875193758716528
80920000.0 0.75130734243538 -0.6584587109513296 -0.04887742988571781 -0.5559243086571919 -0.003628505640739454 -0.002025008622184599 0.4673964893461912 -0.13607569871162067
81919000.0 0.7449453939043641 -0.6645611063707173 -0.07218209567324053 -0.5836423815498829 -0.001051411869979095 -0.003605691840987949 0.4572714326780758 -0.13328396811897505
82918000.0 0.7341269310707623 -0.67201567034603 -0.08534202540455062 -0.6160095739514517 -0.0037580256656300067 0.0036866024590490017 0.46870274500775355 -0.1543880052568746
83917000.0 0.7280870643538017 -0.6816460541290202 -0.10447864349450567 -0.6442946563603861 0.0014958831675310235 -0.003536407870664433 0.4708122900306042 -0.15891014461367214
84916000.0 0.7240118369541798 -0.6870783186000226 -0.12267823029171394 -0.6798041531135958 0.0036645259183768542 0.0019337710717777 0.4662742434636485 -0.17236586649160626
85915000.0 0.7170915775804191 -0.6924747926561845 -0.14203278204923647 -0.7098739196669746 0.0008245524130710442 0.0005782345149666511 0.46116674111152045 -0.17076220104455156
86914000.0 0.7100595292505524 -0.7028391367571131 -0.15374238400713805 -0.7455907988835443 0.0009446222862225549 -0.005240020893072152 0.45784157328519914 -0.1768828576904321
87913000.0 0.7022251657618064 -0.708351730520794 -0.1764077823945326 -0.7738889602266228 0.0002240962259810149 -0.0008695245521582849 0.45607778229693113 -0.19340192103521897
88912000.0 0.6958661540509534 -0.7158358294017803 -0.18874592057478184 -0.8102462356668978 -0.001361949744392078 -0.004416568162334909 0.459090033671003 -0.21266862123255834
89911000.0 0.6900936826493957 -0.7247495347272704 -0.20831819447962208 -0.8464624920991777 -0.001986243268814713 -0.0013188586219865428 0.46517720381451855 -0.21063762353460458
90910000.0 0.6815553433398719 -0.7296408247246513 -0.22597884131542542 -0.884660645261638 -0.000823186951531947 0.00045394977485790184 0.4506303052210918 -0.21734789452935965
91909000.0 0.6733223418003866 -0.7347847010801485 -0.25056225776503416 -0.9176109451568724 -0.0016128044193957972 0.0004178344423732753 0.4619181552235907 -0.22656881949605237
92908000.0 0.6656561351529096 -0.742164979398982 -0.26909602976973546 -0.9497212306420056 0.0013888295213477712 0.00015814129089257602 0.4539269607458643 -0.23783419991250743
93907000.0 0.6605199639150375 -0.7485322836656262 -0.28737548977807154 -0.9809616300410601 -0.002806182133711279 -0.0003201368598284548 0.4552162026424813 -0.25896917361099053
94906000.0 0.6486099815472027 -0.7575327880576109 -0.3017327124707232 -1.0170535639690075 0.0018182315052189951 -0.003420723383734655 0.4577147105443491 -0.24853797182986484
95905000.0 0.6429151419683956 -0.7622023222772008 -0.32463086674008734 -1.0492243710572966 -6.488862967100156e-05 -0.0003542117102234476 0.4504076261677856 -0.2756442923677185
96904000.0 0.6327718551342912 -0.771515646368178 -0.34690531823977516 -1.0913266941012485 0.002916855126673255 -0.002690925391031856 0.44727841649921496 -0.27578446069703555
97903000.0 0.6237964850559161 -0.7766070391239601 -0.3726590533757755 -1.1256521862129842 0.0011381636457662484 -0.002059645810620137 0.4456090759815893 -0.2949552851481631
98902000.0 0.6201243601853262 -0.7844491762311563 -0.39180455388688107 -1.1626773828773407 0.0026146314535888436 -0.002962735447117054 0.4388618115366202 -0.2958062386694982
99901000.0 0.6060424410760492 -0.7875033559214738 -0.42104422774125505 -1.1893599215299673 -0.00035165375589014773 0.0003884069140339193 0.4591824756948466 -0.3169061806414505
100900000.0 0.5989867095351162 -0.7922300723838337 -0.44923366839769485 -1.2188470890451968 -0.003348850383038624 0.0003010834112053727 0.45978762340064544 -0.32117428925209174
101899000.0 0.5928580499292099 -0.800762985765535 -0.4757480775382831 -1.2622943180097215 0.0016560173680407317 0.0026549927564585647 0.4429568450538942 -0.32359511546050923
102898000.0 0.5804757695002066 -0.808125510315782 -0.5173252035302511 -1.3026713198487117 -0.0012726475110320051 0.002452667431749368 0.4434449652921501 -0.3432698104655342
103897000.0 0.5727635417233047 -0.814863241950805 -0.5539786971049958 -1.3331077438372532 0.0005407892906015211 -0.001275923619624115 0.46113986889355285 -0.33170703444732214
104896000.0 0.5666204531161492 -0.8243696360349826 -0.598279844233991 -1.3735021050017913 -0.0016163191930562404 0.0012604261727519085 0.43190349519294347 -0.34390476704041056
105895000.0 0.5571886434251103 -0.8272881763950729 -0.6433457684582712 -1.4126102194985837 -0.0006507869770155071 0.0010917025056905467 0.42450347578565933 -0.3659536994633258
106894000.0 0.5478185879559808 -0.8328842866946855 -0.6940148546063887 -1.4484193842563944 -0.000908249365467516 0.0011767147325995604 0.42320594270782946 -0.37139773845538876
107893000.0 0.5400720434889378 -0.8376993845447679 -0.7474221294135925 -1.4888863998115676 -9.675183418643807e-05 0.0031108642609862557 0.42568504401817814 -0.3806305576385607
108892000.0 0.5291325074709756 -0.8435444122531297 -0.8056475929372143 -1.5245898221287169 0.0015888113149582616 -0.0015675081718640575 0.4162671795809067 -0.3733869934327616
109891000.0 0.5166849684042625 -0.8501067623105266 -0.8603491776219033 -1.5625920870032954 -0.000730749850188269 -0.0026280631803970813 0.43721321823971265 -0.3688177925730718
110890000.0 0.49762925309228945 -0.859454076045841 -0.9433175556925819 -1.5605774796921084 0.00012181212318044427 -0.002965279191011577 0.41953258276556005 -0.39183155192002916
111889000.0 0.49773301049076024 -0.8564771868998057 -0.9862716309545091 -1.6347242117477594 0.0022335985653341786 -0.004018090329626388 0.41308391021854995 -0.405174086095783
