! Created with skrf 1.9.0 (http://scikit-rf.org).
# Hz S RI R 50.0 
!freq ReS11 ImS11 ReS21 ImS21 ReS12 ImS12 ReS22 ImS22
1000000.0 0.9710295654642584 -0.0068713827795719145 -0.012338630785656274 -0.05274275921200231 -0.0022827604165233497 0.01035939359667129 0.3470625161842826 0.31185009241755013
1999000.0 0.9958018147720951 -0.01141146716431305 0.0012780544454356843 -0.02824784931906502 -0.005036341874549428 -0.0035533442403403504 0.2798811688777886 -0.036933085165103574
2998000.0 0.9974175034662206 -0.021150845615525157 0.015229748154997207 -0.020093050506713984 0.0027946866033320933 -0.0042833139838746506 0.20459696368259173 -0.13010240719089036
3997000.0 1.0003858941850376 -0.030440498363245548 0.012408619313319727 -0.004303178753573769 -0.0030204184008650755 -0.0024528657599256548 0.07312093115919381 -0.2317602823717913
4996000.0 0.9947838491493233 -0.03541037550417016 0.010808801938897833 -0.0008786572808999203 -0.0011866607115750371 -0.0028218728329965945 -0.04837993521233452 -0.1986551405875275
5995000.0 0.9959233288194889 -0.04688437167231977 0.008073027148450687 0.0023260377548049746 0.004678261040327868 -0.0017778462388942443 -0.1218329953607338 -0.09569858104711594
6994000.0 0.9916941131513839 -0.05922824051118048 0.0022321771805216316 0.0030668797789379517 -0.002580248993705012 0.0015433212146161509 -0.14484819646433783 -0.003952784554486715
7993000.0 0.9933981602163519 -0.06741998723499713 0.001706164369490662 0.005361505610897048 0.0025012851757381686 -0.0015869600100924025 -0.15200219016711825 0.0438952203649693
8992000.0 0.9935979537136272 -0.07179450389899472 0.004460670006191718 0.001752218365632999 -0.0022857665181219467 0.0009933942812059434 -0.15680902708155464 0.06545984872222256
9991000.0 0.9921062230834142 -0.08392788558264049 -0.0007427396956813057 0.00224029184367132 -0.00448621966177953 0.0007761020669749267 -0.13838141654935293 0.08060728684681347
10990000.0 0.9914711743341394 -0.093185889202618 0.00613042998252325 0.003396942568587227 0.00041114022301195775 -0.0004397834624990776 -0.12951617758438042 0.11989260623129033
11989000.0 0.9876515408031574 -0.10167349077881191 0.0013658452012029311 0.0018845423229927535 -0.002477581176180646 -0.003102754500751764 -0.12331516912049395 0.14383606407915914
12988000.0 0.9884671335097176 -0.11230651869362697 0.003486653519902114 -0.006836947934382285 0.0015722114133695931 -0.0012798166408788357 -0.12186431022356102 0.17022436171634095
13987000.0 0.9846951883396104 -0.11954919137668492 -0.0001609074429375683 -0.0029581754690530602 0.0010720974295268183 -0.001164203939351688 -0.09513036268873812 0.19352649045440562
14986000.0 0.9856708568533272 -0.12510415679356016 -0.0006207044421259674 -0.007583823748071028 -0.0010799930894229866 -0.0008386090250406278 -0.09870855203418502 0.203959305668446
15985000.0 0.9865696488419812 -0.13426462676300846 -0.0014533117192942074 -0.00469572858981033 -0.00023819384647210691 0.0021285579333292343 -0.06996318355273393 0.2149401866785652
16984000.0 0.9845297566984188 -0.14193387311474384 -0.00012281370310888068 -0.0015946790402076787 0.0022066485994371035 0.002234862329675425 -0.05214101756500389 0.2134600655452348
17983000.0 0.985294443318687 -0.15109256087352152 -6.457368910888988e-05 -0.002364000120317016 0.0024995768719258435 -0.001516048442277955 -0.05433873892275888 0.2318378270094081
18982000.0 0.9834002353960116 -0.15895125476405977 -0.0014192945241978832 -0.0011980211866581924 0.0007504688331829132 -0.0011475847734568792 -0.02731699164513905 0.24346416592441159
19981000.0 0.9827827926156876 -0.16822404815754036 -0.005303225543229865 -0.0011250657993798876 0.007707223757926436 -0.0037548281996057148 -0.018019650794292148 0.23988943603098026
20980000.0 0.9804141374474894 -0.17510404516485506 -0.003336664309167869 -0.0057343522669021044 0.003826250856579817 0.005450967747576775 -0.005902788773734715 0.2492082241638361
21979000.0 0.9779546064999457 -0.1843005140403481 -0.0064112354514199235 -0.002924488342899722 -0.004411686877884339 0.0003987047611856854 0.019055992696623867 0.23972272444035467
22978000.0 0.9755290289617173 -0.19279861271028087 -0.006214328674958005 -0.0027216048547859945 -0.0029502210714984706 0.0014813285304031711 0.027263244008625495 0.2527785412849084
23977000.0 0.9749872236701109 -0.1993974329825964 -0.003933552800220485 -0.00015335923986245005 -0.0011889755274208593 -0.0016084363724108855 0.04037845169287583 0.25204424009551596
24976000.0 0.9728079663483922 -0.2120427453371264 -0.006495982175715383 -0.00208038349389915 -0.0009540960756499187 0.0015809109981821951 0.0629891469687916 0.2545843529772283
25975000.0 0.9645549967811193 -0.22235702828688544 -0.006177912572487803 -0.003567659627444461 -0.014117233762573615 -0.02286562041959176 0.07926732203600918 0.26289209613133985
26974000.0 0.9680821951158324 -0.23062894359709374 -0.002402834642858587 0.0011472327352715522 0.0032659255267164706 -0.003126899726636872 0.09045480761424443 0.27117009238393164
27973000.0 0.9689669271810036 -0.23402506850208085 -0.008289314275159476 -0.002451392730212225 0.0009894239933201853 0.00012631708983280241 0.10522871681528406 0.26529646284375663
28972000.0 0.963291643050024 -0.2450187329450242 -0.00021019011616595388 -3.0080970717428944e-05 -0.0016141201191948134 0.0009117247472891811 0.11425885771380025 0.24859832384579256
29971000.0 0.963217980762238 -0.2542656675257532 -0.0007516931767171472 -0.0029923160247543844 -0.0014740073972505895 0.0036472441526926246 0.148382940847157 0.27332687608530026
30970000.0 0.9612482446515955 -0.2584118191941426 -3.195914949492948e-06 -0.0010531150470466392 0.00032984428409534966 0.002308642222882018 0.169791170180928 0.25651316059335266
31969000.0 0.9588849876242871 -0.26961721977420267 0.004538864360292507 -0.0034006773824881557 0.0002756537069758296 -0.0003375973287342236 0.1532463537528007 0.2462625410602909
32968000.0 0.9576339538523659 -0.27683670175589953 0.0138427200621288 -0.0055435051755308076 0.00027643099499156763 -0.0016529869814469113 0.17268263350119667 0.242040646935781
33967000.0 0.9543072551570545 -0.28944093241041197 0.008751001830001801 -0.010601627522173428 0.000379518725043377 -0.0003176897424759724 0.1892960215491418 0.24192880735180514
34966000.0 0.9514155112307315 -0.295826066261183 0.01154568328253252 -0.01609917548414977 -0.0012123196423127775 -0.00028191780327538535 0.18791070028510973 0.2532630545230782
35965000.0 0.9493000806613363 -0.3046378373698521 0.014009254114619934 -0.011970132029430772 0.0020325773714225375 0.0018094328436504756 0.2206788876115772 0.2428218239214031
36964000.0 0.9449998651553028 -0.31464899789044265 0.01569457854137022 -0.017434895343785735 -0.0017068974932481487 -0.004307140515335341 0.2135309512380903 0.24934434800162666
37963000.0 0.944400042304915 -0.3219109700996143 0.01913962311137417 -0.02216972047195345 0.0018785175700758883 -0.001624692720921769 0.2240917112124228 0.22972218091183116
38962000.0 0.9415355826918069 -0.33034256109408533 0.022229065877525742 -0.02283758467751397 0.0013491413218204827 0.0012743715080997696 0.23561766422693972 0.24231263062671968
39961000.0 0.9376060681460326 -0.3398603978484949 0.023451130172810274 -0.02829899781101634 0.004310102095435894 0.0008623957002699596 0.25536277211123715 0.2270002099573134
40960000.0 0.9336189487255204 -0.34741853777490633 0.021153371999841127 -0.021834501183364306 -9.276655089191833e-05 0.0026309735334132164 0.26429810228884343 0.22420332803844822
41959000.0 0.9306416014583003 -0.3568307422450177 0.02871300953431549 -0.027512601348151505 -0.005396727580674687 -0.001844596624572739 0.2684612070226735 0.21122199451981616
42958000.0 0.9253085464313826 -0.36614293751080595 0.032052793423011115 -0.04169640761146906 -0.002294651300324679 -0.002366177245351299 0.2824086533718104 0.2101511567175414
43957000.0 0.925981229261856 -0.3687936414862679 0.03303548373174661 -0.04816773172964972 -0.0031254046354041044 -0.001252548843396751 0.2841340514978809 0.21032699376066677
44956000.0 0.9208706200633799 -0.3795232928676263 0.03371578437599993 -0.050155740098328516 0.00011934520070776588 -0.0012632933355615683 0.30889272248706323 0.1969367868620034
45955000.0 0.9168549562992457 -0.39014235442144474 0.03350735590504505 -0.056653567060359435 0.0012401690912224603 0.001719510333925463 0.3034563501900983 0.19299872077634195
46954000.0 0.914082222588855 -0.3986382192816177 0.03323192053694529 -0.06606874106925419 0.0014528071365838859 0.0007763839635205834 0.3296672357173275 0.1748038763171344
47953000.0 0.9103448937395289 -0.40474256618789917 0.03303739457018659 -0.07154671983385266 -0.001085482594796304 -0.0009831557488100668 0.3456802347959619 0.1728039296642547
48952000.0 0.9044322158276444 -0.41747582303421726 0.03574363556891371 -0.0793545155799384 -0.0002644905144063255 -0.002746915578128508 0.33358635393868874 0.16865188654708818
49951000.0 0.9013268793636843 -0.421952725624 0.03735998108517532 -0.0859894085714941 -0.004243606470614299 -0.001377234300531486 0.3491431160861428 0.1574453526137186
50950000.0 0.8978831736254799 -0.43030305035548655 0.03659742202213604 -0.09445708060375184 -0.002450463618031534 0.0029420303046712158 0.34711566301679697 0.15063990814325876
51949000.0 0.8946410208736624 -0.43801628441774976 0.03925204947994826 -0.10132923268590213 0.000989611140861072 0.0010110143724520674 0.3587019043500869 0.14158638428754763
52948000.0 0.8929142772308549 -0.4471307783471185 0.04013736860547997 -0.10856203173153048 0.0016178030066194293 -0.0008865373343165728 0.36816678021112964 0.1373151563301363
53947000.0 0.8846440039355092 -0.45614416090305326 0.04120868287579416 -0.11901862305846185 0.004564696865598522 -0.002753962176754618 0.3714366623525094 0.1254102749276467
54946000.0 0.8799002711813779 -0.4637655394872906 0.040524029201709166 -0.12771630182192492 -1.6689963185658766e-05 0.0006639608979968258 0.37894077490145467 0.12703549009267087
55945000.0 0.8778361435146445 -0.47430921275085564 0.044963159483707084 -0.14108562242766878 0.00015371536631964832 -0.001246557837525069 0.38728973147118756 0.10116733210965617
56944000.0 0.8743897785700208 -0.48138000335729586 0.044975007847854145 -0.14859390274531947 0.0005492553845056436 -0.0004552591384272892 0.396905478501864 0.09832645310808474
57943000.0 0.8693769836247498 -0.4911196757568683 0.04661036141187984 -0.15985511668950086 -0.0019483500526681168 -0.000411342443679407 0.3995339438763527 0.09455886242763
58942000.0 0.8628785500696697 -0.49589212107338854 0.049469856203219115 -0.1705476894434012 -0.0011322401410763364 -0.001307664289615434 0.4160437021963416 0.09102132246238683
59941000.0 0.8596528275152593 -0.5067380554704963 0.04953036649868455 -0.1812535525402633 0.0036999824871428084 0.00048647518030473126 0.4196091400040553 0.09262194092771489
60940000.0 0.8524345301912154 -0.511418280176493 0.049255312377535776 -0.18235121754085265 -0.00012525077662610808 -0.0026331552226322623 0.41086233923575505 0.07882281653000835
61939000.0 0.8484151393622635 -0.5196914509753947 0.05140803618335164 -0.18947707777686779 -0.0003279280209326054 0.0022489988637205277 0.4208847816520883 0.06651656208068739
62938000.0 0.8425633227609358 -0.5313532734763673 0.052697703808056814 -0.2064079990591651 -0.000527966285398459 -0.0016217936963533778 0.4411201308890869 0.04317995466689189
63937000.0 0.8390098765026809 -0.5367650951207205 0.05554125356743785 -0.22780837620212208 -0.001729624381466111 -0.0017481519293350832 0.43605569523039606 0.03593837099947605
64936000.0 0.8331549160329657 -0.5415405629452904 0.05521798811534163 -0.24227819939345346 -0.0012434665326693244 0.0008425341102099831 0.4395775180251105 0.04215864050089432
65935000.0 0.8291527971830938 -0.5554729879341129 0.05273495432347554 -0.2538170568490442 0.0017028794663376601 0.001325584068712945 0.4402113312164456 0.017111173018401964
66934000.0 0.823978389632464 -0.5592535137910993 0.054845641099720205 -0.2659831047714322 -0.0005249441394766184 0.0005152063455249291 0.4406339216462804 0.005811972093839295
67933000.0 0.8194986982608914 -0.5688067925866432 0.05557511154669543 -0.27983923346552453 -0.0023908964175026266 0.00043250521041613647 0.4390611426728142 0.010415811962716941
68932000.0 0.8155402782832427 -0.5612264933720529 0.05368434388868047 -0.2901109257573763 0.0015035623824828069 -3.455156540051273e-05 0.45273625398053585 -0.011692423531148771
69931000.0 0.8059606635607303 -0.5855552220267081 0.053800672762325495 -0.30870029923400005 -0.002291007651987263 -0.0011199401898100668 0.451033655630714 -0.02283841385658072
70930000.0 0.8002979885835618 -0.5928194472443573 0.0506405364740715 -0.3213443752372651 -0.0014982153387778638 0.002790837700521249 0.45661917792578127 -0.02854315564936089
71929000.0 0.7972027663643724 -0.6003561531107947 0.04541258650028543 -0.34116581577630856 -0.0022365438638615814 0.0014798732120094304 0.44826332907119926 -0.0439695048211343
72928000.0 0.7910470279692259 -0.607263404587379 0.04034774063111343 -0.35757085208396727 -0.004458158911268366 0.003862236934521037 0.46807302124781414 -0.051664692706947846
73927000.0 0.7842214280016018 -0.6120579570597288 0.03370260554276519 -0.37672243818193474 0.002973573466203563 -0.00030098791297015375 0.45517589219753884 -0.04910634718867338
74926000.0 0.7798128326073201 -0.6228532332748604 0.028316776861649705 -0.3903050132374992 -0.003585387004578819 -0.0005548651860419148 0.4628404710684427 -0.05522996936475701
75925000.0 0.7727841445831538 -0.6262132071753863 0.020157102883374443 -0.4140070188187503 -0.00141272899900034 -0.0039697077352852436 0.4743585639786513 -0.07222975147480315
76924000.0 0.7668795101373064 -0.6344314534932558 0.005947002802328665 -0.4369610713322516 -0.002628375111623346 -0.0009231785756829294 0.46746271154155905 -0.0807430428161654
77923000.0 0.760501506620965 -0.6432379786465056 -0.004443942988496775 -0.4581715280319424 -0.002139382075660423 0.0011111527747537247 0.46104225771325985 -0.08431686405850317
78922000.0 0.7535174427740338 -0.6514525060534194 -0.023491138710492663 -0.48632488489660325 -0.001132433205311642 0.00032192022497600365 0.4697341290037965 -0.10217995336192238
79921000.0 0.7436207692254898 -0.6570199029683125 -0.04069296642657579 -0.5109969130236068 -0.0016562472622604746 -0.004220238255271221 0.46279315295107504 -0.11708278942100266
80920000.0 0.7410256119019677 -0.6675709103198808 -0.050164017404778764 -0.541120205653802 0.0005939478817972332 0.00019030758086471494 0.46786919550932304 -0.12375967191883955
81919000.0 0.7370354345095078 -0.6731589056926909 -0.07247626393112216 -0.5701035732869829 -0.004656778330185903 0.0008966013559609362 0.4682263525819943 -0.1256165482321575
82918000.0 0.7243051876725651 -0.6798454111013843 -0.08593389783434761 -0.5952009753125375 -0.002256334809465659 -0.0013114041981759736 0.47655550365310334 -0.143467780340873
83917000.0 0.7187514285072266 -0.6876106014808244 -0.10623512808263694 -0.6242488509907452 0.0006135703567194914 0.0014049591468278059 0.4827505499989578 -0.15094506797078122
84916000.0 0.7133339010891842 -0.6952854680962964 -0.11858032573092493 -0.6599322738838794 -0.0037112489852135573 0.0003201123199383939 0.4681754712586004 -0.17245421742534295
85915000.0 0.7051566262703457 -0.7016882217310079 -0.13928621786487014 -0.6874018302586195 0.0003325398958375298 0.0009769672961882421 0.46715966783642715 -0.17144135696779544
86914000.0 0.6987583914801005 -0.7109979905661779 -0.1570555295191305 -0.7205740725723245 -0.0003996692028991292 0.005854011745592503 0.46339641516440877 -0.179890001608691
87913000.0 0.6898267070042379 -0.7166635419056068 -0.17068110896626978 -0.7530755003417947 0.00031603703493687807 -0.0038944431960688387 0.4662232502464965 -0.18101098345015593
88912000.0 0.6837020626935713 -0.7228329411963431 -0.18794175744430902 -0.7863567432875135 0.0025971587422955497 0.00015188408052788126 0.46548762905098384 -0.20463040662739662
89911000.0 0.6779863345059682 -0.7318996275946322 -0.19732878404567314 -0.8218627994890974 0.000367692287678802 0.0017107618442584373 0.47440783710146683 -0.1974680427834036
90910000.0 0.669428059844586 -0.7375701090511417 -0.21596119256675395 -0.8536187337946288 -0.0005134597685098812 0.0032903227173950245 0.46999957430657 -0.21245003165131082
91909000.0 0.6610638275296437 -0.7420915554821099 -0.24016461417690568 -0.8866256592831374 -0.0009279656877819015 -0.00330165130666451 0.46774838230150717 -0.2169287523458406
92908000.0 0.6519957093727261 -0.752316798427734 -0.2573706593434557 -0.9180971954739405 -0.0011715777477751858 0.0008984666799153008 0.46918605712256495 -0.23559706416205872
93907000.0 0.6482483396203645 -0.7560221640900749 -0.2711985086518093 -0.947982046071567 7.612034827104512e-05 0.004432836068863262 0.46340790909513296 -0.2429809156540426
94906000.0 0.6335099738669155 -0.7637213681265832 -0.2882975674337126 -0.9831698330348648 -8.788935200418735e-05 -0.0019032613389832421 0.4603734545792299 -0.25029755137592896
95905000.0 0.6282298087032472 -0.7707796966719358 -0.3103992011713885 -1.017639254265068 -0.0026061789372750104 0.0009793855118920732 0.46628187341595534 -0.2712810720428298
96904000.0 0.6184374192126066 -0.7788411161884372 -0.32542835045614 -1.0546988099871903 -0.00324760131767444 0.0038166783206656603 0.45228114465570207 -0.2747909582972625
97903000.0 0.6099357036958931 -0.7852839556752677 -0.34767502005379836 -1.0852928814654554 0.0011869280395591939 -0.0017953273896067446 0.4490486248614345 -0.2945096266237399
98902000.0 0.6052962256724795 -0.7910290227840258 -0.3667637848773612 -1.11890928339988 0.0015202528461977268 -0.005189160000136507 0.44373149391686323 -0.29582435517602124
99901000.0 0.5932106661088615 -0.7981770145673708 -0.3973489895117527 -1.1501756904677605 -0.001640421007263239 -0.001714310932774291 0.45949244162115765 -0.31117833333480494
100900000.0 0.5890192379934707 -0.8015697519309166 -0.4267421358263989 -1.1805981846213907 0.003198075232373013 0.0006043851811041531 0.46254146931066437 -0.30926780416482375
101899000.0 0.5777357817853201 -0.8093979304735743 -0.45576179666426153 -1.2188164583141157 -0.0007718518529050177 -0.001979604619001252 0.4408466585251186 -0.32708852391399706
102898000.0 0.5682197182105303 -0.8137485939267395 -0.48277341743017427 -1.2545994817007502 -0.0009036947289798709 0.0003619335043927237 0.4505906994993705 -0.34858936850780187
103897000.0 0.5598418708969809 -0.8210199845579694 -0.522886073552483 -1.2930483809142128 0.0011538788820771365 -0.0013657740061944427 0.4602474717729029 -0.339006955941395
104896000.0 0.5526579880373577 -0.8318165270680188 -0.5671005117757312 -1.3242697240187526 -0.0010879436652752737 0.001462404351287086 0.4393223926177873 -0.3349629615070638
105895000.0 0.5408294493423542 -0.8326931224605173 -0.6102676160147562 -1.3644205303350088 0.0007545870875261929 0.001960315619627293 0.4335488025601162 -0.36787248921832877
106894000.0 0.531645915663532 -0.8405564124431414 -0.665785093028118 -1.3950988025679543 -0.0005709574517086163 0.0024607783622828372 0.4309360828491828 -0.36943992936958275
107893000.0 0.5239035666489614 -0.8471570322162811 -0.7201471361257592 -1.436845344393706 0.002887732478601228 0.0008364301296776709 0.4437175100265194 -0.38730033810708925
108892000.0 0.5129289498712077 -0.8511975487464822 -0.7746194073866496 -1.4703989219174352 0.0011240106505360117 -0.001987017759754958 0.424540637849427 -0.37564913298369484
109891000.0 0.5018377267012138 -0.8577159985259444 -0.8315466631144998 -1.5081687814906992 0.000657052924254586 -0.0007508856033567944 0.4509787189523797 -0.3713128094653759
110890000.0 0.4894731171091641 -0.8581321683408906 -0.8866720705748607 -1.514227202556634 -0.0010199698744725923 -0.0003377314299756007 0.4380265095560519 -0.37499454229514056
111889000.0 0.4795472283897314 -0.8638227322244575 -0.9534280448204774 -1.576560884631419 -0.0013780263162842072 -0.0006847142590286682 0.42032114605854065 -0.3870915583593046
