! Created with skrf 1.9.0 (http://scikit-rf.org).
# Hz S RI R 50.0 
!freq ReS11 ImS11 ReS21 ImS21 ReS12 ImS12 ReS22 ImS22
1000000.0 0.9929085914982116 0.013806408984149362 -0.013435317371777639 -0.043930296845794366 -0.0066012775997500005 0.012010861277491257 0.3304608286907615 0.3595123841900515
1999000.0 0.9936708291249898 -0.006681999896580071 0.0017016196150347587 -0.027302182260944434 -0.0035107453507491537 -0.003854348280681599 0.24290640368440325 -0.05328025044985926
2998000.0 0.9969907768231521 -0.020551017876927112 0.007554086525983717 -0.01359862675959787 -0.002341699662666447 -0.006589355771383714 0.18652821614781823 -0.12732297416300328
3997000.0 1.0015344676552358 -0.02601939014338672 0.01394839133982545 -0.007035586136967011 0.0004453794943912446 -0.0025731497126978056 0.0872568302621592 -0.230625862548871
4996000.0 0.9961251650542763 -0.03806952447615738 0.013372729637925048 -0.003030247709901126 0.001546105685963188 -0.005104158958166595 -0.03801949143493237 -0.18762766838747186
5995000.0 0.9971304441515129 -0.044893340513449655 0.01299056825385725 0.002204340594889133 0.005577040964319794 0.00037341075911513107 -0.12560863935134411 -0.09882469453504
6994000.0 0.9950864291699569 -0.05832673737956 0.009162645236486662 0.0069410790195248645 -0.003269495365250213 0.0028417982900986087 -0.13134267394624838 -0.030349511511875912
7993000.0 0.9974154882615063 -0.06462623668875461 0.0034594521778490805 0.005561453397384109 -0.0008179740105702196 -0.005342080155464973 -0.16546436957295832 0.04005714777456661
8992000.0 0.996881062283265 -0.0728983011376062 8.798672247037047e-05 0.007089996422553747 0.006369616125643309 -0.0011250593895189382 -0.1522269687701082 0.07756845994542182
9991000.0 0.9938797353465427 -0.08168517075777086 0.0020311678615350963 0.003644427995552518 -0.0012855361274404008 0.007023472610471656 -0.1453513464517095 0.0993015597142115
10990000.0 0.9948257565615404 -0.08978173471546771 -6.772837914383146e-05 2.2821477840171013e-05 0.0001083797287015852 0.004720431110770664 -0.13319867877134692 0.10554790024234273
11989000.0 0.9925726551091621 -0.10037531345180649 0.0018625098806131421 -0.00137835042609578 -0.0008454374126513033 -0.0014678451819352303 -0.11589061657233754 0.1324356079703772
12988000.0 0.9899999975226247 -0.10769393120414614 0.00017914603797175612 -0.0045224152508294745 -0.0072470701770568 0.00023742189830535033 -0.11940751375806191 0.17408563922138512
13987000.0 0.9885083308241277 -0.11558130632717835 -0.0019894703475123363 -0.0019070365127257384 -0.0010789108620572277 -0.003607149856137797 -0.10255796161942922 0.20094728273223225
14986000.0 0.9898290089421716 -0.12378157375618734 0.0014369135691035928 -0.0044050979195389035 0.001612548781509625 0.003372687887094183 -0.08410519987622954 0.2075527251399496
15985000.0 0.9897699977655896 -0.13115459216171066 -0.0008885545124191822 -0.005298703359701174 -0.003035883754184487 -0.0033668705266877586 -0.0681387280551343 0.22036060842863556
16984000.0 0.9864357586500728 -0.14335190975168582 -0.0007763708917895096 -0.006286330784686959 0.0013825051806376863 0.0005115764200888844 -0.06118573724116571 0.21479290387136868
17983000.0 0.9869203831047924 -0.1500701375667057 -0.005353698415582787 -0.006030174992244118 0.0001934514739876394 -0.000482232977840597 -0.055609131566057506 0.22787729930319717
18982000.0 0.9847008071785585 -0.16037205968277507 -0.0018080770648705568 -0.005225371077396233 0.001692040725277466 -0.0031933376675357256 -0.012036341978761708 0.24283499436118075
19981000.0 0.9834052210494388 -0.16760099030943748 -0.005737378269274917 -0.003425507236855874 -0.002646866783820519 0.00215083662801423 -0.009895073969371402 0.24586907567018726
20980000.0 0.9833460924770342 -0.1730000658934796 -0.007534958867929585 -0.0027260155381635858 0.004284971785327771 -0.0031788310504720033 -0.0038644973653788025 0.2653928968893376
21979000.0 0.9798446045507699 -0.18316787399198928 -0.004827491420720209 -0.005813867888813159 0.0016501624247799308 -0.0005771787511970785 0.011160956236010986 0.24659256117177958
22978000.0 0.9785570302695669 -0.19178245494050267 -0.005164448577695156 -0.0010818798563719911 -0.0026708615628998683 -0.004242768511564598 0.028229875260692535 0.2611224909113839
23977000.0 0.9783205583733532 -0.20086428421710598 -0.006819707337059137 -0.0039864997696302164 0.0007706959135513011 -0.0038487546271877768 0.04136156543731675 0.27098227464395996
24976000.0 0.9747351568232778 -0.20889705058401378 -0.005231157175715675 -0.00047272387458156584 -0.0025041904309082235 -0.0020691286214848236 0.06650712599943036 0.2582415408804244
25975000.0 0.9762917216030935 -0.21613733971312718 -0.005269784588770733 -0.0006560974925447192 -0.001507469295927886 0.02460507583775825 0.07115112842379775 0.26499026020029537
26974000.0 0.971612271594624 -0.22435806100903627 -0.0029132917088513176 -0.004441778269380201 0.0005381652465925145 0.0028422371427044963 0.09246612663346485 0.26301471631649065
27973000.0 0.9706182607627589 -0.2350480799621151 0.0003398385500022228 -0.004069190926100346 0.0005030193265016796 0.0003596762223428131 0.10025414689044808 0.2686086431134867
28972000.0 0.9653183581698825 -0.24239972714547844 -0.0003055153660106334 -0.0027204765646355765 0.002189459526167297 0.0010157667098991162 0.120756047047001 0.25095471800821456
29971000.0 0.9659084930293145 -0.2512829336541558 0.0004195544724977535 -0.0018436563823956275 0.000376928320784571 -0.0007082104637574367 0.1456624124230684 0.2749840728680334
30970000.0 0.964218446006431 -0.2576570382154216 0.0004460743115241216 -0.00030941881819191434 0.003749759349476026 0.0015713623173594087 0.16530418005208508 0.2532169082314762
31969000.0 0.9619414724769219 -0.26519893860445853 0.005753504984803421 -0.007536828408624027 -0.001289875719654745 0.0022473887727638836 0.14036911430141621 0.2457941725168356
32968000.0 0.9605721613967785 -0.27312792463884267 0.006269365051171945 -0.005463453387267414 0.002221512504538061 -0.0030016007416345416 0.16507074038365344 0.2415272741579975
33967000.0 0.9587670957831878 -0.2824490381139076 0.00820751591782482 -0.010147368958929807 0.0009767448874429844 -0.0015192635476894692 0.17960282348455747 0.24715244212100126
34966000.0 0.9549583043816454 -0.29192769483646536 0.014017834890877705 -0.007793751188105227 -0.0011301440694477844 0.0002584478600433783 0.19526257537042327 0.25514062442055313
35965000.0 0.9508778688212762 -0.3008796284993518 0.015968212949275695 -0.015606563999054504 0.0039184745167858805 0.0004355809170012662 0.20634463882077028 0.2529846148976769
36964000.0 0.9502909867644884 -0.3097080905742935 0.016223677444373526 -0.01730946865247243 0.0037677686163147526 0.0024765977187289857 0.2138707608358241 0.25581962683990006
37963000.0 0.9448851479081841 -0.31905846650344366 0.023457804749742687 -0.021162819149937225 0.0020000018416533867 0.0011770507327566906 0.23267346553612817 0.2345624467224201
38962000.0 0.9432436961293614 -0.32919224150216664 0.024430623175705865 -0.024073862367029176 -0.00042897357697201284 0.0020458431243095933 0.24470855691771284 0.2317249265211891
39961000.0 0.9416641700350239 -0.3328387725089276 0.025951903184920633 -0.028341215219896732 0.0011678508456320084 -0.0003077209966602907 0.24915680700521167 0.22868151417193242
40960000.0 0.9373499680390842 -0.3430509354631291 0.02359784613743602 -0.022235202549423648 -0.0001947578290993465 -0.0009648076162455963 0.2774113019492899 0.22418676763537998
41959000.0 0.9323789682902166 -0.3519159470428575 0.02943667918880902 -0.030867754304373003 -0.0015428159638009075 -0.001745118416280419 0.2715468405786944 0.21786490641847098
42958000.0 0.9288293639123804 -0.36184591374799685 0.03314011984986341 -0.041359767520341435 0.001313919994933229 0.0004019255141374621 0.2840156919169649 0.203449141912488
43957000.0 0.9291921955391671 -0.36455118771319645 0.03631779409862673 -0.04792116072874022 -0.0006819558274186084 0.002007602223527809 0.28408601828307084 0.2128103882710399
44956000.0 0.9241971364780405 -0.3728877193992723 0.03640236510663351 -0.05226151772636681 0.00022410734115360496 0.004472994274889033 0.2961760604587562 0.18970474440859716
45955000.0 0.9209388191142921 -0.385255667016558 0.03568022860387519 -0.05752175130413892 0.001149309318259259 -2.1353361037484956e-05 0.3110928173892663 0.1924318052864666
46954000.0 0.9166371843535276 -0.39282619642462374 0.0392460332037758 -0.0666919019147612 1.4858163145236338e-05 0.00373728995976014 0.3210984283819269 0.17857064993625504
47953000.0 0.9142437090134402 -0.4007471874066592 0.03890093655329605 -0.07386063754535588 -0.001139888286595207 -0.0025191272042084426 0.3341534346125667 0.17229608635608976
48952000.0 0.90773331075103 -0.4135030748651984 0.03816629092773289 -0.07975081640754314 0.0017905933138874675 0.002326685040988895 0.332361235638327 0.1533815839563683
49951000.0 0.9057433114136437 -0.4160966396817538 0.04037252084880913 -0.08629545306696333 0.005044394949764837 0.0019675745961175153 0.35125676875366213 0.14570980626483712
50950000.0 0.9016799817261145 -0.4269519205008845 0.03953251899588804 -0.09623520353020382 0.0017419438758621993 -0.003247240675888712 0.3536700402972803 0.1488131385231833
51949000.0 0.898433870927745 -0.434161503981857 0.04106465169612856 -0.10445166385805277 0.0028352331086520005 -0.0061787823073161845 0.35183384767164516 0.146603371511591
52948000.0 0.8938195918755067 -0.44227014538232473 0.04367549588579856 -0.11015570632236714 0.0024080136807916905 0.00025977915721061103 0.3688463221702103 0.13560107202566446
53947000.0 0.8893938512567576 -0.44857904058445774 0.04458412605082498 -0.12185210480186277 -0.0009131903968169117 0.00022789404481331053 0.3716946209017194 0.12178969980144923
54946000.0 0.8842763657508643 -0.45864682535415385 0.04833384725494481 -0.13084404522321857 0.0039023239495687713 0.0006810094443331826 0.3845177056016611 0.12356121692842896
55945000.0 0.8823363584012334 -0.4645092230518683 0.046023812057466744 -0.14310565542178608 -0.00024201519722846315 0.00020403539110769013 0.3856150419086142 0.10326563745785765
56944000.0 0.878764069052838 -0.47493033691131914 0.04964277205924035 -0.15287597245834383 0.005078476302569455 0.0010280653291447383 0.4002484307084242 0.11022292812951277
57943000.0 0.8732859466267964 -0.4853198229313739 0.04915959830315589 -0.16397719711265452 0.002525604606734532 0.002421006050414024 0.3982305339518205 0.09857940669256407
58942000.0 0.8682213224962145 -0.48963945658813507 0.053142579351419195 -0.1757210906366055 0.0008572749138369425 0.00562002297171514 0.42751735147108 0.08596691625941366
59941000.0 0.8642194872418392 -0.4979704152210778 0.05557391908605029 -0.1842744329409458 0.0030363364975607462 0.001769799213040999 0.42230917791609185 0.08369020599834073
60940000.0 0.8574351466388561 -0.5044683066996412 0.0513233381543882 -0.19050227609782075 0.003153225001325533 -0.00010592331018521273 0.40970201168007486 0.07472747928165252
61939000.0 0.8540167162253353 -0.5124851898071741 0.053074665831319506 -0.19926532715927717 0.0005753863335978727 -0.00031565208613091336 0.4160390047573503 0.06362989847487956
62938000.0 0.8497402757113983 -0.522652116572694 0.058641530096869704 -0.21671292624284763 0.0016715178154208166 0.0005636888137792169 0.44705239831837235 0.048056083265298935
63937000.0 0.8432418217373997 -0.5304471811009948 0.05872514424080356 -0.2355301084811384 0.0008029426012700282 0.00095977436568952 0.43177093641516323 0.03480668914135711
64936000.0 0.8389901312268839 -0.5337973245454647 0.059457691164434334 -0.24910685854459075 -0.0043774299930050145 0.001900871978156373 0.43923907796138345 0.0454439425569978
65935000.0 0.8340546722668132 -0.5461089976844353 0.056194152628915445 -0.2659960027096801 -0.0016990395267266008 -0.00245055279000895 0.4396240782878576 0.027033362787751404
66934000.0 0.8318400654693688 -0.5502381934616282 0.0582663999356088 -0.2806090468500681 8.289079952286872e-05 8.904877430082679e-05 0.4349796056009851 0.005938020280485643
67933000.0 0.8270496015903618 -0.5608479351332443 0.05839232208988653 -0.2954455218828692 -0.0026523969298057302 0.0028538858566447846 0.4425073851142088 -0.004424033786634828
68932000.0 0.8130459741868258 -0.5535374431631482 0.057120933997892046 -0.305141639041771 -0.00016873610386960834 -0.0023680567331706612 0.4493016514023772 -0.011233069084481493
69931000.0 0.8124999474164283 -0.576355214302171 0.0562416138550221 -0.3243434174791784 -0.004700363732785547 0.00215763366833073 0.44461088780579594 -0.016398186082062245
70930000.0 0.8081939416858618 -0.5814755467964839 0.05343967387469948 -0.34044373073024237 -0.002139411331056174 0.00013369531389487288 0.44057569169311894 -0.02224680851762327
71929000.0 0.8038545933745254 -0.5923059568438228 0.0452050398596966 -0.3622829703384955 0.000149236048964087 -0.002313169771582907 0.45014754308571897 -0.03811214478523539
72928000.0 0.7974970027956877 -0.6006759737328395 0.04453355612514295 -0.3771124803376424 -0.0013490288359028926 0.00042420239594736717 0.46510177182945056 -0.05014764835827998
73927000.0 0.7924576205391438 -0.6065131092148285 0.03979063659212898 -0.39677678810712086 0.00015856283824740403 0.00026842145449260867 0.4502810414669949 -0.0630180396544388
74926000.0 0.7871687809132886 -0.6163630163187006 0.03388237898314319 -0.415846455675475 -0.0006171259845595627 0.0019510498517273692 0.45441965207439544 -0.05681351942614902
75925000.0 0.7787558610553539 -0.6214315114032554 0.024917029105266747 -0.4376145684957613 -0.0021640197917771904 -0.001809564745815028 0.4727748262224415 -0.07148906192796359
76924000.0 0.776567587296631 -0.6287593243843699 0.011374170405947823 -0.4605331886213376 -0.002435490596581025 7.05204179043594e-05 0.4676401334801198 -0.0890469222584124
77923000.0 0.7688138441208484 -0.6335269366791942 -0.0029006185430430764 -0.48341105674532076 0.0016631194482006587 -0.004515511447390731 0.4637119477152253 -0.09218155424569602
78922000.0 0.7633276333644934 -0.6445815454131167 -0.015514818335964702 -0.5123540184878441 -0.00036919516366402006 -0.0037110942062447156 0.4634620272642715 -0.1028201753552857
79921000.0 0.7537918490827329 -0.6486607428559513 -0.03355932124514271 -0.5364609288329629 -0.0038474721683011393 -0.0008185209081777503 0.461543185399874 -0.11586491242363911
80920000.0 0.7501434108552241 -0.6592397930703899 -0.0480127559428738 -0.5653754103904591 -0.0002517896726353131 -0.00042741742317575434 0.4690726938210386 -0.1296963454090906
81919000.0 0.7452668666137849 -0.6658608433814612 -0.0675958225574889 -0.5958700763411235 -0.004155128783557933 -0.0008461521072581279 0.47215489283186485 -0.12745316630013628
82918000.0 0.7340193370802752 -0.6728323082910284 -0.07882843529120973 -0.6258963883947084 0.0011828238779739507 -0.0024486455492362847 0.476221347411232 -0.13967431792505977
83917000.0 0.7285945690029311 -0.6804457108318289 -0.10062431452821147 -0.6558529741540611 -0.004034414264480123 -0.0007037446462207086 0.4730169871988961 -0.13918581001409372
84916000.0 0.7214663284352907 -0.6874814741286497 -0.1136085520984828 -0.6934005601930866 -0.0016864888425665433 -0.0031113241837517607 0.47098024975973973 -0.17459518583641748
85915000.0 0.7162199635586884 -0.6944799462655427 -0.13785821976749496 -0.7206219795735743 -0.004250290884313553 -0.0002708752682330476 0.46316035027575175 -0.17031956970777892
86914000.0 0.7072408770453037 -0.7047720818535518 -0.1531092232752976 -0.7560203939134413 0.003212054523984559 -0.0005841655657211625 0.46444761267582935 -0.17753717914770095
87913000.0 0.7012700243584445 -0.7095877122761545 -0.17039232962906875 -0.7879506052593518 -0.0006137770847617648 0.0008075411156135331 0.46515089320247005 -0.17390843564917804
88912000.0 0.6960052746933526 -0.716783014413728 -0.18954191080772048 -0.8261499081845607 0.0019711380346169025 0.002312465296039405 0.45644884733506574 -0.1963996809862221
89911000.0 0.6893643827492102 -0.7252959811158478 -0.19985407292267243 -0.8651302632374035 -0.0006936612820320433 -0.0017680755769971096 0.4723767102777747 -0.20849191789646737
90910000.0 0.6803333838330731 -0.7311870679020795 -0.22322909053270887 -0.902162914846836 0.0002735131568578631 -0.002712490675266303 0.4684661349332543 -0.2085394824432487
91909000.0 0.6716065088027088 -0.7362595194161071 -0.24439655389780035 -0.9282773325875622 -0.0002859012753773471 0.0011088982940678585 0.46942880539527443 -0.22857033367251653
92908000.0 0.6639276341071061 -0.7430866214849656 -0.26008372756518744 -0.9638087139862335 -0.0006410967129127742 -0.0007197793095007912 0.45064525791419074 -0.23619223050822927
93907000.0 0.6573994085534182 -0.749050479801339 -0.279723893461181 -0.9965744250119596 -0.001467561711736867 -0.0024233598179477923 0.46892852697922005 -0.2562492491112879
94906000.0 0.6448390591867293 -0.7575626301634565 -0.3037120269665214 -1.0310595796096782 0.004262092692829009 0.000649993262053206 0.4630348573015503 -0.24427476042508547
95905000.0 0.6379939746661426 -0.7637975280267001 -0.323991075704293 -1.07008049407742 -0.0007672000149063575 0.001194726354642219 0.46374082963081165 -0.2612959169051949
96904000.0 0.6316800237792582 -0.7746775170632202 -0.3437682257728342 -1.1158929952240033 0.0019721684224596743 -0.0008733345158946371 0.4629489456708885 -0.26132070017358494
97903000.0 0.6218220028078361 -0.7753161398823395 -0.36335461925669243 -1.1446623558525124 -0.004019714358046444 -0.001374428740901204 0.4486993367923236 -0.283679449342262
98902000.0 0.6168549164562479 -0.7850686935451925 -0.3910653029625928 -1.1855549052316285 -0.0009219138581582983 0.002346272776613939 0.4483376793172709 -0.2902144472031052
99901000.0 0.6070989414811512 -0.7888162503932497 -0.42084803487383143 -1.2128661373963883 -0.0016968801316936523 0.002031156485272204 0.46220486821941215 -0.3034187927391378
100900000.0 0.5976173842625828 -0.793740288692182 -0.45343676768700797 -1.2457191526124811 0.00148180892219404 0.0009325691690733388 0.45874323680628476 -0.30872200907368585
101899000.0 0.5906167355154939 -0.8011910438210234 -0.47621608154655426 -1.2870749662709806 -0.0013684813217535279 -0.0001604868649619876 0.45130618588757315 -0.3216906647147399
102898000.0 0.5807410653535032 -0.8066104449342806 -0.5160740394257362 -1.3244746845749087 0.001348510930542625 0.0017468143357286328 0.4520391584749173 -0.33450472538110526
103897000.0 0.5746419304750882 -0.8156662436302388 -0.5528893289314978 -1.365475924230698 0.0030840966282815216 0.0005217773052285334 0.4577366884068301 -0.3284249485900067
104896000.0 0.5648583303584752 -0.8254101495557441 -0.5984863319115382 -1.399731947392454 0.0019307661967975958 0.0011516866480635035 0.44747559812512994 -0.3407599201014657
105895000.0 0.553619327435601 -0.8264475186959864 -0.6437430578588703 -1.4448428369090913 0.0011121066763728335 -4.1364523640070594e-05 0.44300490067564824 -0.36241512262509007
106894000.0 0.5464324139690963 -0.8331214062385542 -0.7005061691723993 -1.4830908085739085 -0.00016081357907838064 0.0006678687351643295 0.44733492020896964 -0.3677022862842096
107893000.0 0.5370249145594339 -0.8392427672863393 -0.7536353677399484 -1.5218938845006484 0.000968576806577142 0.003278875321243677 0.43312423325470045 -0.38166986341801706
108892000.0 0.5304057064720419 -0.8414915595297995 -0.8128601800866149 -1.5642641099183208 -0.001578076657008467 0.002992701655963217 0.4304319643012904 -0.36528443915493125
109891000.0 0.5158719493814767 -0.8512458057989802 -0.871182971238482 -1.6011443452493876 -0.0006722147411166845 -0.00034933957857281064 0.44896705415767685 -0.3702651630210134
110890000.0 0.5051182018601382 -0.8506659798155681 -0.9306258288232949 -1.603563641059174 -0.0015165563804956325 0.0023246140259789334 0.4383149189631989 -0.377901175329324
111889000.0 0.49823924613695025 -0.8573690290778432 -1.0001916490679787 -1.669915284418547 0.0011181559999255642 -0.0009092024267623034 0.42569760996066025 -0.40262781356208066
