! Created with skrf 1.9.0 (http://scikit-rf.org).
# Hz S RI R 50.0 
!freq ReS11 ImS11 ReS21 ImS21 ReS12 ImS12 ReS22 ImS22
1000000.0 0.9805796648371874 0.005503486185809842 0.0003603653781640778 -0.05240601588335582 -0.010195809626521257 -0.011187565155105756 0.3182200666256243 0.324149250094433
1999000.0 0.9995078065186795 -0.011945311066181803 0.0036663088256674854 -0.019817273949674127 -0.0034832916848843206 -0.0019917695753564842 0.25163380061549817 -0.04443871205334053
2998000.0 0.9945561949301016 -0.02032643905773244 0.007466179712917114 -0.013723148446931736 -0.007263638447924223 0.0032952952743475023 0.2004424141352227 -0.14553753582029577
3997000.0 1.0005448287211918 -0.02906197973454495 0.009139597888974912 -0.004739422441853578 0.0045590952686721965 -6.840838351714434e-05 0.09430746545129275 -0.24112361646291144
4996000.0 0.9956163201803659 -0.035993772731777715 0.011177150348462542 -0.0035403827117225194 -0.006791480298642305 -0.002939066300401102 -0.03682875104937555 -0.2165609960698212
5995000.0 0.9955125422988882 -0.04883026006498657 0.014138666777507514 -0.0019840931082500354 -0.0037045594257559098 -0.0021747757775557107 -0.12534762472994257 -0.10992173696117384
6994000.0 0.9935812837650735 -0.06199687627613574 0.006455290341342077 0.001508845902892567 0.0010044409993783827 -5.171032657985954e-05 -0.16215269959341513 -0.03648600007300972
7993000.0 0.9965848777880462 -0.06718125542281086 -0.0009148940189194029 0.004516781410587245 0.0006743581680714267 0.0010501396117356728 -0.15832738727396295 0.02011198359189248
8992000.0 0.9942105393203103 -0.07205754639076742 0.004434377248577338 0.005532098682172949 0.0023182217507273055 0.003828222450453321 -0.1543327444718661 0.06650229653013257
9991000.0 0.9945679517210079 -0.08135539745394227 -0.0014748778808429115 0.004848647665236186 0.0009135452254253231 0.0034383648523195723 -0.1527779115839015 0.09498175726186361
10990000.0 0.9952778329986085 -0.09096195132908061 0.002160292440368862 0.001094451663156097 0.002471262768562479 -0.0017520199175000586 -0.12945524452708815 0.11421027682495045
11989000.0 0.9890681153766724 -0.09926407123545544 0.0037417789105483744 -0.0007091973930552881 0.0022102832958925903 0.0028548150196463147 -0.12955832224912261 0.14141655232677855
12988000.0 0.9893517841826289 -0.10849115668407736 -0.0036073383621075456 -0.004207600190306494 -0.0013415794989180291 -0.0018357898193918742 -0.11155582618600329 0.16465942034684267
13987000.0 0.9901590719916676 -0.11563362838551569 -0.0018551322132937685 -0.001022257781237083 0.0009232870753839443 -0.00027097330295430025 -0.09671532228865208 0.18677190899675508
14986000.0 0.9873390093755275 -0.12575454313205525 -0.002769779125401401 -0.004645130177367547 0.0031280029447681153 -0.0011956746736558402 -0.09604729607719785 0.204718524014973
15985000.0 0.9904758925420895 -0.13150900655830064 0.0034175468648434864 -0.0031522440642181336 -0.0026293376469522854 -0.0020115818353771795 -0.08211183724024525 0.2224781000841015
16984000.0 0.9857363240555573 -0.14657337343268473 0.001600396935694822 -0.005371023495370191 -0.00020186796607219476 -0.00232735542907457 -0.0765892307268876 0.21618671813278348
17983000.0 0.987682091730965 -0.14580496020007555 -0.003982467064868449 -0.006181507498065345 0.00568796368978292 0.0015844853731451973 -0.059775788920398136 0.2274802981677842
18982000.0 0.9831587734042109 -0.16081506853005875 0.0005436931066210032 -0.0044778833338127285 -0.0005154741504008427 0.001402152411861681 -0.025863416717693464 0.24909473905712448
19981000.0 0.9830119835398007 -0.1649483031320618 -0.004591025595852858 -0.006253293037626169 0.0049208486122714916 -4.089242295008538e-05 -0.016804035147921777 0.2500004915643916
20980000.0 0.9818164755329638 -0.1747126945760646 -0.005832238709323241 -0.010913431570952904 0.0021191833351362267 -0.0007796803694982318 -0.00531724319455144 0.25897372912014455
21979000.0 0.9786408861450347 -0.18570287044163064 -0.007826061670893354 -0.0026390136467767523 0.0007627687325198535 -0.0008036535193745226 0.0072130378189207605 0.25046445254189825
22978000.0 0.9780261811575122 -0.1945523836796999 -0.0023657351256816373 -0.004291990881585851 0.00015584204465716198 -0.0021054852324300624 0.020298801706667452 0.2561509063460119
23977000.0 0.9791399998493033 -0.19965428394128254 -0.0049103851385770515 0.0014479693675425703 0.00028174817358829317 0.0018946760299944846 0.038495807149956145 0.25825095722593827
24976000.0 0.9748680807497636 -0.21114673061232173 -0.0062597163868966625 -0.00014926493832575106 0.0025145146308978355 -0.0031278376943666246 0.06123029940384977 0.2587306711699927
25975000.0 0.9679407424567034 -0.225128439050614 -0.004837637872140216 -0.003659174090164977 0.02130087455225316 -0.019519893067308888 0.07084531891398328 0.26966677093306474
26974000.0 0.9700785611608009 -0.22791126326969946 -0.004668878795495341 -0.0028783970741150314 0.0013244915177758698 0.0024447735830214977 0.08992712097563113 0.2633901817203409
27973000.0 0.9713306135658285 -0.2328734768985748 -0.0018504486611486829 -0.0023576303227930044 0.001287537850305541 0.00016721748938010745 0.0984876718070366 0.26147487778375467
28972000.0 0.9665630816553051 -0.2427781045296302 -0.00035542130631427714 -0.001303561263057035 0.0012370619966899036 0.0011290553568561593 0.11539139218685507 0.24991590992607773
29971000.0 0.9646993037935517 -0.2518390050453598 0.003570289429598423 -0.0022544233179014462 -0.00011107748371173169 0.00037253787869325443 0.14941671560815473 0.2655352057616312
30970000.0 0.9627540024659709 -0.2584929868482959 0.0045430641793630325 -0.0002949062156237059 0.0008413422442984246 0.0018419092964801198 0.1632622293273094 0.24311330782184065
31969000.0 0.9604071312110297 -0.2653908184621313 0.006239422479462847 -0.006619275577619782 -0.0004240091734141407 -0.001100337033167864 0.14968077077975547 0.24967565813827006
32968000.0 0.9586245083723616 -0.27633491975834 0.010024847238665964 -0.0091808295952823 -0.0010003529378883596 -0.001906149103679491 0.16437770908115207 0.2502136109931515
33967000.0 0.9570726348165731 -0.2869479804376787 0.010792210870639364 -0.008904054187484124 0.00013993903870482166 0.0031793737899225333 0.1810000053933203 0.2466314750262383
34966000.0 0.9531417282198761 -0.29482111824974094 0.015631077966801157 -0.012652987037288208 0.0011322553938499197 0.002758977572072264 0.1834465726419829 0.25227182824070876
35965000.0 0.9502228490546785 -0.30216130946798886 0.01757279095278491 -0.01612475086752415 -0.0025926657175573574 -0.00030424192127941903 0.2084665378092129 0.25248148799236747
36964000.0 0.9486608976234541 -0.3119845761095609 0.019000540569577513 -0.01249927768808418 -0.0021252613997987937 0.002890729196504798 0.20956995876729792 0.24943220587621207
37963000.0 0.9459249052464925 -0.31912686005163254 0.02007312415485586 -0.02348587366298606 -0.0007515433004592355 -0.0021798100910996442 0.23515295029574992 0.24067127961641901
38962000.0 0.9422989371811179 -0.3312027229195673 0.02509559732341453 -0.026984868925400203 -2.6334026026248118e-05 -0.0018265487790683442 0.2326776791284141 0.23484900328384356
39961000.0 0.9401134310747494 -0.3366017708715484 0.025322401200714856 -0.029961345804720367 0.0026197637057466493 -0.002757203833914457 0.2542241667445801 0.22606049943106812
40960000.0 0.9363548713860834 -0.34320876971538955 0.024624920278375578 -0.025392452240058407 -0.0005336486127649372 -0.000746164577894219 0.26178591584244076 0.22945565537492096
41959000.0 0.934451380333963 -0.35426734095305945 0.03045125236460228 -0.031658206688113345 0.0002568663962200471 0.001451789034195026 0.2654781107365733 0.22207592056037892
42958000.0 0.9280733362443926 -0.36311544404115137 0.034252208019456595 -0.03911550227687066 -0.0014673922318993976 -0.0005000200124368076 0.28112918397845454 0.19986436633779484
43957000.0 0.9290964686534757 -0.3662419607208341 0.03426449008235636 -0.04930307174858482 0.0011687734128420823 -0.0014397111833744545 0.2882385906791014 0.20356919059456283
44956000.0 0.9247308548652216 -0.3735487562236511 0.03465030121552093 -0.05221340575842251 -0.002938283346131475 0.0007082767394814154 0.29656040433852393 0.19607943316822185
45955000.0 0.9185151172000543 -0.3878385712019508 0.03678914567025297 -0.05886427099483104 -0.0014390471564126445 0.0005012176980321846 0.30480452449582784 0.18447616015320864
46954000.0 0.9170674889006517 -0.3955491585978322 0.036391771005390934 -0.0651584140918975 0.0018366401835881083 -0.0009177189868529689 0.32931595624477755 0.17049854582250176
47953000.0 0.9118104308894046 -0.40587991373592036 0.03629307298035732 -0.07317375845487546 -0.000686581415668054 -0.0005786238272290997 0.33632484710630983 0.17434677838124032
48952000.0 0.9077135703069782 -0.41293440333006703 0.03789604269465521 -0.08401632442213161 -0.0002396614086408524 0.0005587887144908014 0.3274762196601401 0.1673683553097886
49951000.0 0.9044085271184996 -0.4198418532785245 0.03583507605581453 -0.08860273973977321 0.0006738230098943524 -0.002999804484553271 0.3473025849220966 0.15585217596950604
50950000.0 0.901635053869913 -0.4276915687197948 0.03750759003692547 -0.0964789299570737 -0.0019311595246784671 -0.0027047278441173403 0.3475907638206744 0.1446553984494189
51949000.0 0.8957724850937366 -0.43595107640077163 0.03787512177950596 -0.10340375186223948 -0.003774630357222539 0.000832666963383349 0.3632509693099351 0.1394640814560959
52948000.0 0.8951744093072715 -0.4432550188394684 0.039886093747539264 -0.113711638988287 0.0038913306948798305 -0.0010180169165028923 0.3757196190631508 0.14904179164261552
53947000.0 0.8883730892533797 -0.45261022774613346 0.04028228751257443 -0.12394505058014334 0.0012518423132406437 -0.00021527402648790199 0.362528023179937 0.13655560943164177
54946000.0 0.8829962201352609 -0.4607881121641939 0.04135946625373499 -0.13340343180010836 0.00030524229801693974 0.0013180105035341479 0.3860771328547124 0.12422573152002253
55945000.0 0.8819412637425844 -0.4687749080157055 0.041177909022388784 -0.14105795326213927 0.0004529167807319122 0.0005444980051096983 0.3807066531055211 0.10694468526505857
56944000.0 0.8774170442077097 -0.47842481456421765 0.04416735326556948 -0.15378271458481407 0.0015854825685486693 0.0005782744165336329 0.3879218291959519 0.10115005659329479
57943000.0 0.8709519554157628 -0.4870992301435705 0.04534843849497811 -0.1621153471921372 0.001369661947644781 0.0012780850483336016 0.40224834636907764 0.10212460965850749
58942000.0 0.8657921464145512 -0.4925641503437742 0.04783473301925719 -0.17224142054388772 0.0018314045702934225 -9.484154706332278e-05 0.41692358691728415 0.09957894845812441
59941000.0 0.8653874672036912 -0.49923240840993094 0.04874627938378412 -0.18489471685661563 -0.0012346617730786815 -0.00023318910841247756 0.41885510499801415 0.09502989884632397
60940000.0 0.8548495917071177 -0.5077409762055589 0.049077773645422006 -0.1891273319803849 -0.0003031119168207504 -0.0016210653056315315 0.40975357663715073 0.0715609570465811
61939000.0 0.8530952088376258 -0.5146979062676355 0.05197587664397701 -0.19521797556449583 -0.0006846792882851634 0.0010877173957684607 0.4126061358050715 0.07400906151659348
62938000.0 0.8465373663608555 -0.5261709380646434 0.05254114703582155 -0.2143698965549272 -0.0028581523830914905 0.0012759948231589478 0.4355207609306553 0.05099768391939969
63937000.0 0.8445770702513606 -0.5317553846042637 0.05345730347172281 -0.2349849996556634 0.0018735217409050155 0.0002893655892676937 0.4385428153362671 0.04418465634528299
64936000.0 0.8357003682081864 -0.541140582697049 0.054186562779597165 -0.2488317177795925 -0.0029979589955507814 0.0029928137401943593 0.43307405314595565 0.04451492411522191
65935000.0 0.8348774135083712 -0.5480037709820728 0.05435868346653494 -0.26334751216524727 0.00045679329740565424 -0.0013032096822792063 0.43994626098822887 0.023001749361344866
66934000.0 0.8283821112211459 -0.5562471685337346 0.05203633457477531 -0.2774700551632771 -0.0033657665225501946 0.0017070684646142262 0.43573498686596673 0.018171822065005238
67933000.0 0.8251647551153779 -0.5619418582410269 0.05322534518395072 -0.28935418924185163 0.002804116509910102 0.00043806001880288947 0.4528326733474722 0.011000308662560012
68932000.0 0.8166953276694644 -0.5563650069836045 0.05216133499867817 -0.2985244629811695 -0.0024453294973399656 0.0007957770509684681 0.4561633403071308 -0.008855399262075342
69931000.0 0.8117867573693368 -0.5786728210325568 0.050126209579704394 -0.3183119100921792 -0.004914674472756701 0.0034061685045419653 0.4501456365843761 -0.02457367382579995
70930000.0 0.8053922473863308 -0.587522896798921 0.04472450871740667 -0.33536147452643783 -0.0007401162792796621 -0.00023345506915513573 0.4460969830536028 -0.021219789397720304
71929000.0 0.8027377397559577 -0.595671719758036 0.045785163261402 -0.3499564780779701 -0.0010835440430018565 0.002253114885827216 0.4525161966799483 -0.03601713848439885
72928000.0 0.7950073144966003 -0.6030923193565836 0.040945759846521775 -0.3657677819677821 -0.0019409589203004932 0.002857303003569265 0.465097813955498 -0.04525369071387462
73927000.0 0.7887999841536691 -0.6110484601463058 0.030823790471943915 -0.38611451164679017 0.0009333029641011973 -0.0029550740028921304 0.46568113068451383 -0.05361143286280251
74926000.0 0.7845461303290672 -0.6199617506674797 0.02720358592293159 -0.4036352079518486 -0.0018186377959214374 0.0008281824999008471 0.46378555117383136 -0.06774628412448518
75925000.0 0.7780273104614389 -0.6239358754007818 0.01573954595875849 -0.42503670915898795 -0.000854422995975002 -6.559110026597836e-05 0.469036623803415 -0.07115694948558245
76924000.0 0.7710242204617683 -0.6328423387284722 0.004474743475567501 -0.4485505356766703 0.0006288959153967753 -0.0011342421485847948 0.476212815031085 -0.08461602742488938
77923000.0 0.7658116867975397 -0.6364717038017532 -0.011097744804732515 -0.46822552089899916 -0.003227236484823262 0.005799932143053538 0.45875389821411483 -0.09189020197688964
78922000.0 0.7581166043787138 -0.6486240083887498 -0.02219421457859334 -0.5001926385006074 -0.0007179803692096468 0.0006017817547762472 0.4599506117449798 -0.11504219037126721
79921000.0 0.7518921924334293 -0.6517271773676859 -0.04508968362179711 -0.5220657258724961 0.002543555304318705 -0.001768776456161767 0.45670470751963427 -0.12157490723996174
80920000.0 0.7450673105362285 -0.6638095334953478 -0.056040435393867896 -0.5497253338669373 -0.0017638118999695343 0.0023246608638951747 0.47222996128441536 -0.12741112503356822
81919000.0 0.7419892366200683 -0.6682593859856876 -0.07598562640441235 -0.5770291648607799 0.00128316345463701 -9.761211865856472e-05 0.4680948042384601 -0.12487106296879867
82918000.0 0.7321596603491248 -0.6756637172080904 -0.08975280176163816 -0.6086054854911646 0.002414937789069168 0.0010020819830366778 0.4735783851550099 -0.1391962692746222
83917000.0 0.7257891831611568 -0.6837446601007285 -0.11124115359143348 -0.6393414800876345 0.00044305623090842497 0.003967699327023435 0.47423247160783 -0.14996748069407828
84916000.0 0.719837007628844 -0.6927902144415374 -0.13042024930789917 -0.6718545091874174 0.00047879698969796266 -0.001169009999084768 0.46904306588111166 -0.16090636617874124
85915000.0 0.7133666381690181 -0.6966846419861952 -0.1467043389197867 -0.7018908742953626 -0.002356351090006448 0.004978767701532722 0.4692108720516756 -0.17380286502099468
86914000.0 0.705044197091873 -0.7077488509380118 -0.16286836671798235 -0.73940976817974 -0.003588024604335715 0.0023977712043440538 0.4647789612683545 -0.17243320950533123
87913000.0 0.6971938774667891 -0.7136252308851082 -0.18679450062966396 -0.7670493718395931 0.0003022445697001711 -0.005435742461685246 0.46037070692345156 -0.1872969925220409
88912000.0 0.6917621777261601 -0.7203234677924637 -0.19766782206033628 -0.8056067810780413 -0.00023495365324103091 -0.0030223237150692004 0.4618030892309981 -0.20219603895652064
89911000.0 0.6818647816635605 -0.7306168428464437 -0.22011166724903813 -0.8377401659738232 -0.0006654522842593082 3.9572467066874604e-05 0.47442977849382223 -0.2004331535432768
90910000.0 0.675802382285984 -0.735315241709016 -0.23664586528539935 -0.8711287181400488 -0.0007336620379054329 0.0010511712290490294 0.4704032547441803 -0.2048465680334475
91909000.0 0.6657823470064315 -0.7399737565343838 -0.2572740960377599 -0.9054722811858756 -0.0001578489959966068 -0.0009896794907038658 0.46548727091906 -0.2225361853504405
92908000.0 0.6586376819672267 -0.74708868937017 -0.27404516220884145 -0.9394165943019794 0.0009819931580031301 -0.0036921891778909487 0.4487545526175109 -0.23509611076973952
93907000.0 0.6534916799193918 -0.7513362831443262 -0.2895351065890779 -0.9675059338409513 -0.0010630821073620454 -0.00021672047058520446 0.4493029181017743 -0.2383507617676735
94906000.0 0.6404306294151102 -0.7607302551331621 -0.3058520629932242 -1.007264423236912 -0.0006858982383776943 0.0005881878619313524 0.4562858648826201 -0.25344308804408017
95905000.0 0.6347878997536625 -0.7672829874878853 -0.33215977875900193 -1.039869699079539 0.0003705288182174727 -0.0041741310487861845 0.46520562187812514 -0.26115944466548935
96904000.0 0.6261109954719816 -0.7774645311845964 -0.35016716481735594 -1.0809173722259138 -8.989376250283297e-05 0.0023525070097466416 0.4603935642923898 -0.27488577311885226
97903000.0 0.6153226004586627 -0.7810529002140566 -0.3736329189921671 -1.1097283784158143 -0.0017201266262931681 -0.003067085340973949 0.44854204231710654 -0.2836821784568059
98902000.0 0.6123713981950294 -0.7886479596712748 -0.3895720250216414 -1.151162509240784 -0.0027857640199821514 0.00374829721529295 0.45776183390360253 -0.2856442949810316
99901000.0 0.5995755769560106 -0.7926360125876613 -0.4218068700415519 -1.17557535038242 0.001283788721752823 0.0012956198812924464 0.45949068080365335 -0.304377022185636
100900000.0 0.5919131946154196 -0.7975222945712356 -0.45140437354443447 -1.2096778901616565 -0.002495876878978816 -0.00116453400481865 0.46580284109670117 -0.30643070196578115
101899000.0 0.5839527513882619 -0.8046391749890622 -0.4764179213776588 -1.2496051415892107 -0.003619574145196929 0.0011132103211082438 0.4462296404551846 -0.3264608389749629
102898000.0 0.5728491883524205 -0.8109534929883297 -0.5146339620555397 -1.2838890190491612 0.0014938065883154893 0.0003160794280576307 0.4518776733490506 -0.33196425838582194
103897000.0 0.5652063010361748 -0.8187679933125166 -0.5482848542883026 -1.3205538994070083 -0.0019642052497124453 0.0024282844558869273 0.4703791600036437 -0.33246703430455565
104896000.0 0.5587363439007764 -0.8296035927486051 -0.5971021585940497 -1.3525974739231645 -3.605942438253886e-05 -0.003116964730764402 0.4405227012986605 -0.33756524473134253
105895000.0 0.5465165812840888 -0.8302543135561248 -0.6394028717226616 -1.3944382975767746 3.7689899199755445e-05 0.0006091323221345855 0.4416551676076482 -0.354404469677599
106894000.0 0.5390889031762435 -0.8369013155278434 -0.6891992874794991 -1.4276039438996204 0.0014401231057567024 -0.001659663652299968 0.42374520417785577 -0.3515867922622625
107893000.0 0.5321684665303799 -0.8434355222924298 -0.7406208455828769 -1.4697024033756307 0.0009918343660765682 -0.0009023917785094743 0.44214167861248477 -0.37508823693063775
108892000.0 0.5208347495484127 -0.8469100345519837 -0.8030313373387626 -1.505591579929935 -0.0005628705175849356 0.0001374953122243324 0.4347729067005297 -0.367890650214398
109891000.0 0.5076781022935394 -0.8550097572996641 -0.8625263487806042 -1.5363510632857322 0.0024083194897176435 -0.0007446536955405189 0.4346714689483782 -0.3716029344976423
110890000.0 0.4918598820926876 -0.8708685913780376 -0.9424896031510882 -1.5485785216294665 -0.0010614236570108185 -0.002001388200559247 0.4229656868628136 -0.3781878719084846
111889000.0 0.4876940464736251 -0.8617763346107745 -0.9895484181693941 -1.6093296224510536 0.0012753407682706145 0.0007553735211058956 0.42590138861000976 -0.38331739346664845
