! Created with skrf 1.9.0 (http://scikit-rf.org).
# Hz S RI R 50.0 
!freq ReS11 ImS11 ReS21 ImS21 ReS12 ImS12 ReS22 ImS22
1000000.0 0.9903994642723757 -0.00012250097978266578 -0.0025267239584206816 -0.06281794378327617 -0.005288580586652958 -0.0007875359897188501 0.3299979381488691 0.34123999517421055
1999000.0 0.995502083253661 -0.013871639795679656 0.0018833420167492264 -0.017473363390545244 -0.0034252088170623036 0.0028322547134780533 0.27643236379441793 -0.07561206281566835
2998000.0 0.9977219877519459 -0.023371658376461314 0.004023154077856634 -0.016565524775853786 -0.00010123745604776504 -0.001343419107447105 0.20128324574602183 -0.15393947715562303
3997000.0 1.000088866519747 -0.02966083677996861 0.009932507950201352 -0.009961290692700768 0.00013464854583089151 0.00041332923433459956 0.08764452464268083 -0.24708267104740167
4996000.0 1.0003038685471253 -0.03399929120534199 0.010372169416219284 -0.0005668974637986671 -0.0006494907047572972 -0.0020700728455527524 -0.06688163556456365 -0.19665698158839645
5995000.0 0.9976576646850102 -0.04826169018488504 0.009765775216516687 0.002196827351925597 -0.001186189987877687 -0.0035549361518821595 -0.13534851432394876 -0.1031102307159665
6994000.0 0.9979240102522217 -0.05891893026331786 0.011325573885412946 0.0010764100847039126 -0.0023444586716313974 -0.001543034874852912 -0.14274771497294275 -0.013776093970842982
7993000.0 0.9972397058715703 -0.06715379306624421 0.008730019468839854 0.005759831318378786 0.0002919670215462162 -0.0016397873930648545 -0.15972111211524337 0.0389780839328956
8992000.0 0.9971038785260931 -0.07130794649730361 0.005551817196557584 0.008979883994334642 0.003117451606146608 0.0013730869150690844 -0.1493597822636655 0.06840872571471003
9991000.0 0.9980694207984356 -0.08350905454359649 0.004293342775136499 0.002745014046154086 0.004054546474440154 0.0019043911696668106 -0.14392638616450446 0.09640723333664304
10990000.0 0.9962268863281024 -0.09224411659837171 0.002733060332708319 -0.0028244597263505622 -0.0008702537421434454 -0.0027488576969851184 -0.13342366243551207 0.1297538552193904
11989000.0 0.9957524203817169 -0.09925975851750059 0.005723279563271223 -0.004051910505310051 -0.00010951450877575178 -0.000578045745030275 -0.11585741248020409 0.14915975899481684
12988000.0 0.9933299120726021 -0.11173231195512143 0.0008188465039837084 -0.0071536854454262 -6.878218568520729e-05 0.001874991393508369 -0.11572930321648571 0.1813485609621061
13987000.0 0.9914816181294595 -0.11860707112305283 -0.0019009769881834539 -0.005053854244316605 -0.0056904580065983874 8.562030580015947e-05 -0.09013919722874607 0.19646561504947177
14986000.0 0.9919845992721965 -0.124675110173522 0.0017221465180895367 -0.00168322331160547 -0.0004143229845962492 -7.02384302758555e-05 -0.08050892901249687 0.1963844317325096
15985000.0 0.9910509962341569 -0.1337143749500598 -0.0006729445401565532 -0.0033100503372297052 -0.005057933072188872 0.0006211850168138617 -0.06433472797641888 0.2167315717946054
16984000.0 0.9883067185241509 -0.145684067368484 -0.0019732389489507895 -0.003198434878771738 -0.002613962360085292 0.0007150139506200767 -0.04865524229980701 0.21800719631055088
17983000.0 0.9874558659162069 -0.14964087871859716 -0.004802662219706847 -0.006050266976580496 -0.004199266670650355 -0.00013457867518328536 -0.04803191390393312 0.22694386759664859
18982000.0 0.987421545221867 -0.16299137972807182 -0.006889906725375406 -0.005824301969998359 0.00378332805497828 0.0004236699551576301 -0.020501219669325502 0.24223705803330353
19981000.0 0.9863720864574683 -0.16545414735974634 -0.0025538083521900582 -0.0033517065794583362 -0.0010822599333149563 -0.0040384452868326825 -0.029682774985029744 0.23882018642105632
20980000.0 0.9855473927266198 -0.1757371368116645 7.974704232137044e-05 -0.0029354306901519843 0.0035223647092827654 -0.0008270048808346534 -0.011816333206123186 0.25888997226542004
21979000.0 0.9821695672094266 -0.18506564917252358 -0.00448165961813857 -0.003198370411310431 -0.001646432043425357 -0.003804991666861072 0.02050819294924391 0.24126655497230978
22978000.0 0.9814658431311193 -0.19291869995653893 -0.005123715250807899 -0.002343777862583942 0.002602198028476343 0.0013023565004613123 0.03244295474534302 0.2472580350451763
23977000.0 0.9795003781927515 -0.20099019765465387 -0.008984913174578661 -0.0032405577289384624 -0.0027098387711245193 -0.0014469967357980998 0.03898463150436605 0.256035212928747
24976000.0 0.9758549765358071 -0.21310416406137936 -0.0030907920103682976 -0.005256370708411223 -0.0011217529900822312 0.0012358582723927423 0.06378538636886899 0.2536103453950846
25975000.0 0.9782265473172519 -0.22206995586924513 -0.004860305998870247 -0.0027951829635724916 0.021218050654116655 0.01921211278020561 0.08950518124839123 0.254312993407617
26974000.0 0.9723096924190653 -0.22876118991853184 -0.0034583040166784322 -0.002990739302116756 0.001863300870348005 0.001916630846840457 0.0821403291312509 0.2661231910474917
27973000.0 0.9723621226129279 -0.2338471591289519 -0.0036693084413971662 -0.0004600019779310718 -0.0005318487197575364 0.0008977195233397064 0.1062154085597131 0.25366352363217937
28972000.0 0.9679840276877093 -0.24701030541959218 -0.0029339591971796262 -0.0017430337035998708 0.003510853462850228 0.00015315110517903863 0.11239042389551288 0.2538861612171623
29971000.0 0.9684634732913615 -0.25128866606640354 -0.0023231339471449807 -0.0030413909464951363 -0.0019997789338657163 0.0006241494434796033 0.1501786218408764 0.2721261103954838
30970000.0 0.9638169430365507 -0.2578326980149695 0.0019283268176033376 -0.0010697214376237322 0.00019538361568794129 0.002742427589380749 0.17030446705706345 0.24955974937960168
31969000.0 0.963008348248083 -0.26716159651884636 0.005202763150761212 -0.0049287009568426115 -0.0006180091333295907 -0.0003551916329211714 0.14839435992544706 0.24978769435526016
32968000.0 0.9624392780180869 -0.27655781334293117 0.007302997166151086 -0.007588387607469006 0.0024128665074837994 -0.001472308321671426 0.16604722834986532 0.24486113022145367
33967000.0 0.9588344419361757 -0.2858104973945888 0.00921309193069991 -0.010300854842418284 0.0006699999531007844 -0.0009549376389094457 0.19083393778641528 0.24399461065960165
34966000.0 0.9554252610910657 -0.29530828005673826 0.014496702044744396 -0.009894198809196411 -0.000614707067152928 0.0014242784867620675 0.19241878369651402 0.2546772175632405
35965000.0 0.9515021228491141 -0.301530798913858 0.016678364388194842 -0.013285863203216947 -0.0006013621530968874 -0.000420144386995323 0.20846286851266332 0.2539500282663344
36964000.0 0.9512227366146085 -0.31000288239372065 0.01832136592585535 -0.01384470247354224 -0.0010765921879806973 -0.004021416673583942 0.21986764044159632 0.24459365463283164
37963000.0 0.9463520802790674 -0.32230870440539106 0.02216025801423553 -0.020576475846765162 -0.000933534504333042 0.0017166590896050566 0.2316263875581263 0.2435650177278598
38962000.0 0.9445283366036384 -0.33054532865821007 0.024495121017373788 -0.021492471337289553 0.00036860524920623674 -0.0004761578076085786 0.23653042165151172 0.2383649343199584
39961000.0 0.9423141495710429 -0.33508794026673416 0.02538617792951895 -0.02490415953873579 0.00016159103525868458 0.003680142619691257 0.253475996405748 0.23068430545469107
40960000.0 0.9383345791575554 -0.3458012397999949 0.02273237483088915 -0.02141047533540434 -0.001051196346617662 0.0003037436769361299 0.27714339018576184 0.22769370651237278
41959000.0 0.9344693272778765 -0.35418164435333604 0.029866723508325276 -0.03133269460511257 0.0015289728871115205 -0.005879490934330783 0.270224824979344 0.21092386904967123
42958000.0 0.9317647575127357 -0.36240381912616865 0.03471916413545509 -0.039538437491450376 0.0025760241152521213 0.001026576265369761 0.28603419698431926 0.2040902333982095
43957000.0 0.9288132650799114 -0.3675765069867689 0.032917251931236596 -0.04288541574236516 -5.12323068709824e-05 -0.00025335310042493556 0.291560338793084 0.2057553485182393
44956000.0 0.9253036059806278 -0.37786398057005544 0.03380215425038942 -0.05117887754926715 -0.0015802305931286369 0.0011379232753750653 0.3077083203905752 0.1994100576887011
45955000.0 0.9205429097142137 -0.3860828071177075 0.0363469154199913 -0.05849615728175654 0.0013307445560305576 -0.0019125964204700985 0.30040117514900644 0.19458817056310476
46954000.0 0.9183519480123288 -0.39483518885727614 0.03818586352296698 -0.06382896483059505 -0.0008394916839193708 0.0010544499446437556 0.32890300601048156 0.172163771363981
47953000.0 0.9154080373160712 -0.403080555059579 0.03728961089361635 -0.0711324890342851 0.0014768122089530236 0.0033264742113516066 0.33208681643096305 0.16889048357662984
48952000.0 0.9095717276744668 -0.41364250303889905 0.03760526537436547 -0.0769290869292854 0.004655484032480357 -0.0001570065264931297 0.3271196051015379 0.16628903975973247
49951000.0 0.9072736197106656 -0.41712843303125074 0.03818334590708643 -0.08387121429065986 0.002532045255711166 -0.0028370350838032607 0.3539992347456131 0.16103612380307805
50950000.0 0.9031245583990286 -0.4277629638018696 0.038632036073457575 -0.09167674497095255 -0.000309959390512477 -0.0020350485969816874 0.3521365065408183 0.14793877234257494
51949000.0 0.8993130512417539 -0.4332877265642849 0.04080363382409299 -0.09976959228336725 0.0001175093913163355 0.0005533415456681925 0.35845828459948453 0.14748066016937586
52948000.0 0.8969787396434593 -0.44226860257950873 0.04220977218887526 -0.11132400443683857 0.00074305314956528 0.0009124844525585724 0.36995736379092553 0.14421495642917478
53947000.0 0.8924706205750655 -0.4498519445721641 0.04751950016794622 -0.12036065322620411 0.0036937355385898846 -0.002048609122370126 0.3724641208981919 0.12823142369769225
54946000.0 0.8862830159353031 -0.46149699675905076 0.042662742282230215 -0.1315883924193924 0.0011038232887899705 0.0005479391365232944 0.3890146644932415 0.13013725424032402
55945000.0 0.8843483645093325 -0.46895035572506905 0.048370293939322725 -0.1379477779525046 0.0016372084677514307 0.004301185916828406 0.39245826470438755 0.10934410527609999
56944000.0 0.8802223299332141 -0.4759307564257051 0.04920412556460963 -0.1481905832650379 -0.0005356852367054988 0.000783258315475025 0.3965219440204815 0.11046418924238809
57943000.0 0.874660174965252 -0.4865664930857394 0.045185825014265525 -0.1592959194229098 5.421737391415053e-05 0.00024964624601826713 0.4015984675886919 0.09596811808775031
58942000.0 0.8703456339380489 -0.49178246986343027 0.05110143181286112 -0.17228586423710307 -0.0027435321301391706 0.002923110814200178 0.42745299323489316 0.09481909305709653
59941000.0 0.8670211331678347 -0.4991058046280003 0.053458679223609196 -0.18164351896205172 -0.0009034296807197708 0.0033423710783298094 0.42109016610244854 0.08876664397769182
60940000.0 0.8597277761561183 -0.5062696922487612 0.052582575494687415 -0.18065998635809064 0.0003424729106629339 0.0005910203032705883 0.41375140735032945 0.0805591523516834
61939000.0 0.8564283087183067 -0.5131338211723145 0.05215247129362154 -0.19344740111259695 0.002508747856844719 0.0028135628037733638 0.42461515512133424 0.07400376325008931
62938000.0 0.8512170097423003 -0.5239688202606875 0.05923520230097321 -0.20729742145796887 0.0008268555599387879 0.0005849107201029175 0.4499056962180742 0.06302257784270607
63937000.0 0.8470140687681917 -0.5304406742829522 0.05851180650198616 -0.22782745854107256 -0.00428094086464314 -0.0010016068100075224 0.4368220426202378 0.03683054534056126
64936000.0 0.8396512693445054 -0.5392581103304437 0.05751037451958282 -0.24503292977193356 -0.0044213703471127 -8.349675680845023e-05 0.4293219332773038 0.04894402992805456
65935000.0 0.8378413934614295 -0.5469766425393411 0.055239126883376115 -0.25490986371382784 -0.00019243254986793962 0.0028956382795738513 0.4473295176191546 0.020317383183866302
66934000.0 0.8321811850550207 -0.5543864912364129 0.054972479766034206 -0.26878641025426303 -0.002904974791379238 0.0002256916965135269 0.4413578887983278 0.0032533566117004015
67933000.0 0.8289803215412024 -0.5623767534584307 0.059669427902255844 -0.28360445386710254 -0.0016764419560910911 -0.0020470550961704664 0.4551483582388345 0.006938816142079865
68932000.0 0.8116738424041963 -0.5584795543892436 0.05426926801047585 -0.2935321620429474 -0.00033533339695305565 -0.0013193980219770394 0.45911215880782186 -0.005081977613229003
69931000.0 0.8156434109953502 -0.5771253030814627 0.05775567315229917 -0.31347282808373483 -0.0028466429517380355 0.001634238845646549 0.45527598026889843 -0.0214032693344642
70930000.0 0.8116545455056303 -0.5826054964425318 0.053767143355544646 -0.3259214895661136 -0.0008926888492784516 -0.004210521347490582 0.4498564775444132 -0.02669632858077801
71929000.0 0.8063913380594042 -0.5918486523459893 0.05049427465308785 -0.3455301625457588 -0.00207580647721735 0.001696496420138426 0.4567727088130756 -0.02980933799625975
72928000.0 0.7984344826299018 -0.6041634676124673 0.047633670590818696 -0.3581151523173731 0.000580726409596657 0.0002118222542462803 0.47393718082627934 -0.025181770287225545
73927000.0 0.7946728700228742 -0.6074634853113462 0.03857704332483253 -0.3805898970284865 -0.0006583067918176251 -0.0009254616154264778 0.4729655491508217 -0.054492251940543746
74926000.0 0.7902448718175663 -0.6171122057130601 0.035812660450479025 -0.39758997536132457 0.0004923014696681231 0.004275370627379878 0.4600924079883608 -0.0542758078782045
75925000.0 0.7809769497076918 -0.62185574624206 0.02689543148700725 -0.417321299456004 0.0020119679176302005 0.00013309510913610907 0.47619741793261045 -0.06611543485907585
76924000.0 0.7792068404211563 -0.6293175823396948 0.014046405242382725 -0.4383253948995618 0.002743185211760683 0.00028731441868012095 0.47503782979545883 -0.07364152225626969
77923000.0 0.7710995205826541 -0.6371371832236767 -0.0012150811530149456 -0.4609227295732785 0.0036985126551350566 0.00016260065790147364 0.45847469427259363 -0.09068467837320573
78922000.0 0.7647736941996787 -0.649278958856805 -0.01213166454363227 -0.48866999730841953 0.002225509695694201 0.0018723044941651727 0.4653953398517191 -0.08678395686590308
79921000.0 0.7560643942006285 -0.651764236965359 -0.024578056946726542 -0.5123093033605025 0.00016403243497051253 0.001220095944250961 0.4689404914818521 -0.10896233082473503
80920000.0 0.7529726839326067 -0.6628022562426342 -0.04205102961807081 -0.5417250682382164 0.0016915097641193872 0.0006104078836432037 0.4811902970140285 -0.11573487453896947
81919000.0 0.7459250238757702 -0.6673736074141168 -0.06099579422531906 -0.5662463924671596 0.0016095282707199333 0.0005209832727922282 0.46839266020725284 -0.11900845614061598
82918000.0 0.7367642993913265 -0.674844471035666 -0.07168153721662514 -0.5952729961608049 -0.0013526522371777594 -0.0011363649194946147 0.479855635734379 -0.14231252458569832
83917000.0 0.7286522394716184 -0.6843425552112007 -0.09492925794981814 -0.6258966761256181 0.003060190980711494 3.029519369507873e-05 0.475287611844884 -0.13722665873942602
84916000.0 0.7237895878563312 -0.6904843118969193 -0.11031985429204541 -0.665219661773449 -0.00039885984024718655 -0.0004163794912984894 0.47311223014064285 -0.15976806778686228
85915000.0 0.7175934942717541 -0.6953798536942626 -0.13245891348715555 -0.692489632343187 -0.005017434947372234 -0.0015076005347199216 0.46977498264235457 -0.16875508875401493
86914000.0 0.7096000441202107 -0.7069835184257091 -0.14387363495720404 -0.7281798723950018 0.0006875596854913193 -0.0034071458068588843 0.47453289371772384 -0.16470083588702103
87913000.0 0.7042427358054475 -0.7133858021451357 -0.1621275512776517 -0.7559007802395182 0.000258557975808695 -0.0012580971644649353 0.4581677800284926 -0.17398182774290785
88912000.0 0.694688522715813 -0.7202566920368885 -0.1808129357349179 -0.7887265834501335 0.001920134477540067 0.0012349695762495258 0.4699715097547547 -0.19328394317903524
89911000.0 0.6885050357530925 -0.7280147625966334 -0.19457773834509454 -0.8286343384590745 0.0019693191834336673 0.0004949361832005761 0.48002169178171755 -0.20244534607399048
90910000.0 0.6823145485826703 -0.7308928057146457 -0.20697446748097548 -0.8620545181019391 0.0019499309162825651 -0.00016525427000363868 0.47697717651699534 -0.19806067778051026
91909000.0 0.6731236405833801 -0.7386420859230648 -0.23149880454381988 -0.8941563890689269 -0.000431477733996914 0.002259248663004116 0.47386382294931245 -0.20356240570366288
92908000.0 0.6649663371407845 -0.7465302373183342 -0.2491371856366891 -0.9282945929946108 0.0001956509512667101 -0.0012136434270626738 0.4722564371233841 -0.23240638407868047
93907000.0 0.6586385332058555 -0.7532167344857914 -0.2681508435656641 -0.9556717222514344 -0.002637028694769531 -0.00241189321441935 0.46738121505610647 -0.2407074467765331
94906000.0 0.643371491105342 -0.7612653415924625 -0.2848965133242193 -0.9885227505508929 -0.006426812583648875 -2.4039065216228015e-05 0.4640955799227171 -0.23655082842635936
95905000.0 0.6410302671234507 -0.7670444196346373 -0.3065583205747579 -1.024088110951584 0.0011943967560484267 0.0007813533685996336 0.4648072625293092 -0.27215255445431674
96904000.0 0.6313847659712142 -0.7762863653552567 -0.3237212845726842 -1.0654567369516281 0.0015062179427347867 0.0019367410512466003 0.46358449359175713 -0.25475576233379704
97903000.0 0.6221848515661496 -0.7793298625656586 -0.3475965718183758 -1.0923918675256206 0.0010035737787560805 0.0007023770387777793 0.4538598918959301 -0.2735599791969115
98902000.0 0.6171554564833512 -0.7876274738585661 -0.3673544039939923 -1.1323446926864709 0.000823708774016761 -0.0006294231020941356 0.4502032019713415 -0.29603249517705227
99901000.0 0.6059645607811236 -0.7938449620003517 -0.38820675985407627 -1.165835868908055 0.0001864115079343225 -0.002762254064614966 0.4663940529509568 -0.29850937930319726
100900000.0 0.5987838922349195 -0.7979797508220371 -0.4181768960457269 -1.195997031450564 -0.0011105964963189143 -0.002992083584287737 0.46842307051827564 -0.29816458082111386
101899000.0 0.5884746006169117 -0.8053284830140843 -0.4491533180876204 -1.2322617129651805 0.002238569992286985 -0.00242294970317839 0.4535134185689823 -0.31795263837854065
102898000.0 0.5827103192215134 -0.8101455233214351 -0.47483188954358463 -1.274358793461429 0.00256990336290599 0.00023284480503325182 0.45695822459434904 -0.3229528882322939
103897000.0 0.5738127422506376 -0.8185498887000129 -0.5167849001745874 -1.3056928053748103 0.0012599055963589325 -0.0006844308791049999 0.45221675914248116 -0.32424618909506275
104896000.0 0.5657920052097455 -0.8279067472950896 -0.5648950608718292 -1.3394132628996969 -0.0014543313145841924 0.004983377298220537 0.4494391753489334 -0.32989998573305623
105895000.0 0.5528786821217705 -0.8310219110620937 -0.6056647071694776 -1.3807883986180907 0.002908843602900998 -0.00022051571614272985 0.446611772754873 -0.35425140951130973
106894000.0 0.5453978822431174 -0.835910113664575 -0.6583286486058118 -1.4189620288033946 -0.00041196905445179457 -0.0026756178622933235 0.44798456984595353 -0.3536681480723647
107893000.0 0.5364811513752589 -0.8425476769068185 -0.7070032669745723 -1.4538158147703175 0.0014789498813322518 0.0007151990624828297 0.44145505262251633 -0.37339467921095415
108892000.0 0.52954919395721 -0.8455283299359455 -0.7618002741434823 -1.4917791967978757 -0.0009166500924683701 0.00038051891120249 0.4325416983241011 -0.3797212135645075
109891000.0 0.5149445240663593 -0.8553364920842972 -0.8147899993986104 -1.52341750334733 0.0015536211327129106 0.0013235850093166867 0.4442120478668442 -0.367351635060938
110890000.0 0.498607979901126 -0.8560675777314068 -0.8782872566052199 -1.5192621508103452 0.002057915751763852 -0.002410702664834927 0.4257520454353004 -0.3867788235382826
111889000.0 0.49739823007523537 -0.8606641000913325 -0.9334991693309327 -1.5922963695425731 -0.0003575769045685644 0.0024632680867528738 0.42509800594347175 -0.3985035712046808
