! Created with skrf 1.9.0 (http://scikit-rf.org).
# Hz S RI R 50.0 
!freq ReS11 ImS11 ReS21 ImS21 ReS12 ImS12 ReS22 ImS22
1000000.0 0.9890068996141328 4.901898054039341e-05 -0.022285935923870587 -0.04575554181612468 -0.009529821990489091 -0.00231863078753184 0.3322813435571107 0.32551693904600626
1999000.0 0.9925068910031246 -0.013588391978511758 0.0025841906066079103 -0.019946138679963085 -0.011664190859924374 -0.0035570011193780454 0.2579923142337609 -0.06007327496148658
2998000.0 0.9961843686454191 -0.026365664468920438 0.007170759827429614 -0.01450997571995631 -0.0016777507905975646 -0.0030679560345528495 0.1876364512145231 -0.1198166370777443
3997000.0 0.9957225164386933 -0.03199520410868415 0.017624718902429615 -0.004881248266165137 0.005036741524877809 0.0031299386401767632 0.07236552549987525 -0.23119796675768345
4996000.0 0.9921038783585034 -0.03571001757456742 0.016078438368390145 -0.0024611053541609427 0.001355166902102826 -0.0009345348898489717 -0.05341442322478817 -0.1883264299369932
5995000.0 0.9938223339335697 -0.05035091778182723 0.005457054635408885 -0.005220392659040352 0.0010515582292267645 0.0020424146531851633 -0.1236872547832423 -0.08909688314096796
6994000.0 0.9898377447475415 -0.06052806969581041 0.008152470535208201 0.0009805725618546078 0.005110108787387135 -0.005353908528352794 -0.15426661497230806 -0.025275899746510698
7993000.0 0.992021119600331 -0.06903348906078742 0.006684184177889174 0.005641135525233906 0.000875035729708474 -0.0012988279113718484 -0.14919531598195884 0.039144672768251045
8992000.0 0.9915978122402709 -0.07171636315059922 0.0020691843550017255 0.002846019755169682 0.003153052142964704 -0.002867376229769245 -0.1659818073949013 0.05889971087511293
9991000.0 0.9896429700118692 -0.08535766051091549 0.0018774510300782487 0.0075432456825996405 0.0064000168216006926 -0.0009852477335818462 -0.14954388147470576 0.10590710560901546
10990000.0 0.9885009561811012 -0.09325957178782525 0.004272149286155419 0.003252563082140259 0.0036146894052826173 0.003188006813329859 -0.15237069393913477 0.12300215606852799
11989000.0 0.9858755360225955 -0.09864785745346973 0.0022272698926394455 3.64229403134023e-05 -0.00328672186085501 -0.00046398162069071137 -0.12315479900245307 0.14726897121819446
12988000.0 0.9868989348925581 -0.10697213605857549 -0.0039765251606481864 -0.007445403805485094 -0.0017317707142750817 -0.005076228117616384 -0.12369816462705124 0.16769298915845868
13987000.0 0.9850006888400024 -0.1180899331938193 0.00043317676217924383 -0.005817910190399032 0.00412931766999691 -0.0023045711324346865 -0.10413260345478868 0.19102420540268641
14986000.0 0.9827675506335546 -0.1263122983391705 0.0005770955473462726 -0.0038794511274346665 0.0011231849470988693 -0.002217488741777624 -0.09688149112467509 0.19659102429536174
15985000.0 0.9851286919727132 -0.13365670217812198 -0.0031182540351047143 -0.002471771070336645 -0.005318584416281304 -0.0006583307133148647 -0.07654183919393234 0.22207929523037534
16984000.0 0.9792734040101762 -0.1451376835674398 -0.0021458522936780708 -0.004982879746142442 -0.0017210514922272474 -0.001331901070501246 -0.06659520488601327 0.2100561398866501
17983000.0 0.9819214588210539 -0.1498240244811674 -0.0028634729738522776 -0.00584727239223705 0.001674492926643766 -0.0025309275018893756 -0.049989847640437304 0.23033025304619856
18982000.0 0.9772032832594766 -0.1626501359756553 -0.005699703971318184 -0.004594617569672117 -0.0024930023725504465 -0.0033913084460216597 -0.02353291791339142 0.23797032378227664
19981000.0 0.9777180002111486 -0.16662100795251594 -0.003259006816090271 -0.0037639221976918115 0.001945589763799377 -0.003711242684586806 -0.017680019895279626 0.2391373580480317
20980000.0 0.9776876373309453 -0.1751610987754816 -0.004977538969586321 -0.006007876034236187 0.0029611354134832964 0.0015111061582546435 -0.017547659146459865 0.26006963724881393
21979000.0 0.9774257191178768 -0.1841497057611044 -0.006037429104401567 -0.0037217765376127707 0.00040733254464516897 -0.0003545466173197701 0.011822582379130968 0.24284179740820702
22978000.0 0.9733706177080346 -0.19537132817452793 -0.008208318002199531 -0.0038261409607811257 0.003982017346667339 -0.0025439988180501194 0.02042701584188153 0.25254866152891314
23977000.0 0.9758155257033132 -0.19995896458615312 -0.0029282528584906307 -0.005577494522278031 -0.0007524607828190746 -0.00011002825951325167 0.0349542789614937 0.25030307175496685
24976000.0 0.9694623215086063 -0.21345650826138707 -0.002243842570414327 -0.007628343351317928 0.0008045132209088632 0.002393977366698952 0.04931183119749173 0.2603386903232789
25975000.0 0.9707715674083397 -0.2186546865094719 -0.0051820174306413305 -0.002370401901076994 0.0035955329698663207 0.027396307586153 0.0733338378362611 0.26023219146926263
26974000.0 0.9661103843040881 -0.2274380767677371 -0.006167222370610599 -0.00012980553171833617 0.0014421665468153228 0.00023874568309347052 0.09013879994522639 0.267751519121133
27973000.0 0.9636174346097102 -0.23613601929015618 -0.0033510299295100667 -0.004362044981751995 0.004169287733049739 0.0015270094263759371 0.10145378940113955 0.25898150876491016
28972000.0 0.9606959350356598 -0.24618889400409477 -0.0017634832497514328 -0.004230943197863347 -0.0010155492589884268 0.0026714638774095485 0.10008673351560976 0.2526081701908616
29971000.0 0.9601084403711672 -0.2551528149522265 0.0011701715859944507 -0.0028007483401818216 -0.00127407033516984 0.0012748463394229956 0.14333950486311733 0.26772833355398973
30970000.0 0.9587035799158088 -0.2605060241464916 0.002705827176449707 0.0016443026694882565 0.0028079322915314955 -0.0013414343684931753 0.16958835667704858 0.2523319805347276
31969000.0 0.956558154555393 -0.26851016382733256 0.005976012554097399 -0.00646219440194817 0.00046873708420424383 -0.0008007798602011065 0.13717334146591295 0.25619018393388154
32968000.0 0.9563277966207067 -0.2774706089148623 0.0075338598183859184 -0.0063776198924136345 0.0007226754585617446 0.0006046759749258871 0.15415039207848708 0.24712700485185488
33967000.0 0.9535966891750298 -0.2857625380616248 0.0127351961451089 -0.010165416427554919 -0.0024250723532700854 0.0005499645634457641 0.1776627093436237 0.23888569264332907
34966000.0 0.949463984687154 -0.2970489731054325 0.013832626976188707 -0.011346452749543197 0.001727487551940881 0.0008880335968449063 0.1886693782860077 0.24502767737986528
35965000.0 0.9471760006927564 -0.305365606761265 0.019291273971318464 -0.016140361501946934 -0.0002663317344342756 -0.0010365804384003348 0.20587809659399472 0.24729531363904525
36964000.0 0.9446276992129418 -0.31446198850205104 0.016822617893850755 -0.012381453615690383 0.002726021332816185 -0.0010162937228631649 0.21265871180972246 0.24799992270448273
37963000.0 0.9408105359741821 -0.3222039689078521 0.023729611953765745 -0.020251299437164468 -0.0013374525328498823 0.0013704789998294153 0.22078910374793892 0.23527775909376109
38962000.0 0.9386785107279809 -0.33133672294887523 0.024381418844288547 -0.02639495551936717 -0.00012174680311472561 0.0006696936829450867 0.23413809182683104 0.23962170262455454
39961000.0 0.9355853852041067 -0.34113932609050435 0.021584686587659045 -0.028404159227171846 -0.0013948725211500503 -0.0011969689207078445 0.23561099410719216 0.23235007609385597
40960000.0 0.9317153496776289 -0.34831805746055355 0.021324948624344867 -0.024925656525938325 0.002511361137118397 -0.0013985150473167568 0.25894115098159337 0.22514666132618458
41959000.0 0.9284476443937916 -0.3591454673688914 0.028133213339171664 -0.034124665737742456 0.0006584082246474325 1.8705871366396218e-05 0.2612329061482588 0.2185391586199943
42958000.0 0.9241855810296374 -0.36677654204557775 0.030073832191280937 -0.04071039419203251 -0.0008824577507801323 -0.002303282883849066 0.28481142621628885 0.20212115206886053
43957000.0 0.9241073921202839 -0.37083869071962766 0.03367374719841627 -0.047202606355869293 -0.0015228011521646408 -0.0027389716480215784 0.27151849098654973 0.21740486278919088
44956000.0 0.9180334552181846 -0.381805160883351 0.03280994250159869 -0.053601599381378436 0.0002471316807234969 -0.002290880382643926 0.2935158796772202 0.19552541476316465
45955000.0 0.9133880740259879 -0.39294793035222436 0.034731476082926815 -0.05681762640968983 -0.00036672254331315997 0.0001211843672877302 0.3028058335718181 0.1914087845734265
46954000.0 0.9110315355355076 -0.3998551336181833 0.035980560714174915 -0.06637531382753359 0.003510542178788555 -0.0021528662142935185 0.3194831861305134 0.17724843906194412
47953000.0 0.9071810874244118 -0.4080731893428698 0.03204734764173612 -0.07389868319442308 -0.0011261212110574533 -0.0022586587571845583 0.33181875687767176 0.17713531361407456
48952000.0 0.902223316765193 -0.4181666268644764 0.03664387290463966 -0.07931923925125993 0.0013411621345239334 0.0025084239929324564 0.323499244939765 0.180072282032527
49951000.0 0.8982130079598386 -0.4253424674844244 0.03450466744805407 -0.08893520521649005 -0.0001344895768626576 -0.0020575790526578324 0.34956558808188176 0.15159535001433316
50950000.0 0.895065223477869 -0.43415255720254886 0.03899392247392311 -0.0953392839502567 -0.004540353715310175 -0.0026800734993595024 0.3471115112386397 0.14479871230997785
51949000.0 0.8896833364193956 -0.44304762905431777 0.0386333705935791 -0.10052858767370194 0.002064808003457308 0.00272307267630863 0.35529400516027315 0.1471077385699739
52948000.0 0.8875630580544162 -0.4494201578101423 0.039521934498092166 -0.11293834824424569 0.0008024731486265418 -0.0031848786508999684 0.36934623503411623 0.14206600786649623
53947000.0 0.8828657374543939 -0.45696360115233386 0.04118781818011772 -0.11840574243021984 -0.0009721550105429364 0.001976239157744139 0.3566759618820104 0.13765176804001705
54946000.0 0.8766821943418585 -0.46815869171034735 0.04132477337259252 -0.13037723067907167 -0.0008641530647021024 -0.0002926566733340692 0.370681965114299 0.12462078226364026
55945000.0 0.8740382938578102 -0.4740123020166545 0.04518164281350113 -0.13975491161212616 0.0017717960494562372 0.001273704891853396 0.3744449765398253 0.11287448706563272
56944000.0 0.8713938623956788 -0.48275683242305417 0.045247061386779724 -0.14903411600268238 0.001961396549107818 -0.0009496505536501008 0.3900279890200587 0.10467421090416186
57943000.0 0.8632205659411624 -0.49469803030962173 0.04467097360584671 -0.15982459542134228 0.0017800408019205058 0.0021113470171428956 0.3931889591321816 0.09982541827431349
58942000.0 0.8576794264106627 -0.49785309995607785 0.04974487405419085 -0.17043188347789473 0.0015527961454650054 0.0028829639096473307 0.41117405264035956 0.08745490823911942
59941000.0 0.8563607380030014 -0.505717261346649 0.05329892511995852 -0.18006035843701707 0.0002036794593273599 0.0010361733939279248 0.41393898695905607 0.09654199437840731
60940000.0 0.8473966596948237 -0.5146992650685012 0.050841648297132 -0.18412696190314098 -0.00021322645752257387 -0.0018348758564985736 0.40246690768453075 0.07969105492394621
61939000.0 0.8448962833046857 -0.5210009596794696 0.050459787005169246 -0.1903103505449794 0.000733985629805266 0.0022456620901941966 0.40747073002869205 0.07447597560210094
62938000.0 0.8377971971115696 -0.5329034758162099 0.05630211945192667 -0.209059410288346 0.0016729466413064732 0.004503702960846928 0.43852032240856453 0.056228540511902216
63937000.0 0.8333395759469112 -0.5386944257319006 0.054348608065027386 -0.23050982298219752 0.001703714267548416 -0.002228639987649859 0.422595529500157 0.03807179688393951
64936000.0 0.8263599801791719 -0.5462254441329867 0.05313755679827107 -0.2426567523949633 -0.0021567926672994594 0.0014300605551106156 0.4287096730467986 0.054095875882982605
65935000.0 0.8241765630281058 -0.5571003670032704 0.05155385191774072 -0.2564024820359656 6.561735448423424e-05 -0.0015274308582031238 0.4351698302060095 0.022136692178267088
66934000.0 0.8188551152001246 -0.5625701851783392 0.0533791478923671 -0.2669251255582449 -0.0012506824525248745 -0.002861181935205513 0.4288233511890571 0.021472372372167578
67933000.0 0.8149696471557664 -0.5695168637712194 0.05470462284247347 -0.28155303958519556 -0.0010481965728713603 0.0019007523173706076 0.43948714188080573 0.017807953260689444
68932000.0 0.8113448781836644 -0.5725250454033735 0.053940619021101775 -0.29609835561554604 0.000548790350857192 -0.0005543790076527432 0.45369325065866956 0.0037786880077175043
69931000.0 0.7992293710890521 -0.5877754611266093 0.05045711874837091 -0.3128188668728483 -0.006677845219366253 -0.002774620431732469 0.44695487386798893 -0.011749794594379455
70930000.0 0.7959686801560529 -0.5913964214049923 0.050552289687562584 -0.32517314733216324 -0.00227584236432282 -0.00024073842568897634 0.44554149578675295 -0.027614437050079103
71929000.0 0.7907381896293423 -0.6016613035377216 0.043338327711991885 -0.34361170580637673 -0.002561025761758748 -0.002582699044915614 0.449375148512543 -0.041227539546035086
72928000.0 0.7853093508459681 -0.6128409070059571 0.03833298874893916 -0.3559000379766007 -0.0003261951441674208 0.0025680735021057313 0.4554240908261844 -0.03413509655989501
73927000.0 0.7795546342006511 -0.6168725812007607 0.029620391014481367 -0.3831796045398017 -0.0002706155179278053 -0.00022561977046496988 0.44940610775734247 -0.04742926790501747
74926000.0 0.7734214329606989 -0.6265292719793858 0.025402561315011108 -0.3974629773780723 0.002293624631140698 -0.0024655268796597405 0.45928498446619315 -0.05409603039760599
75925000.0 0.7683415456593328 -0.6303385557427275 0.016646969706193906 -0.4173583692806472 -0.0028968619135543005 -0.000953772699054926 0.46222881528278853 -0.07222899304482781
76924000.0 0.7580928926344449 -0.6380453059886422 0.0022274936688445423 -0.44160718589131365 -0.00023842651950275114 0.0008549963999934761 0.46268887468268555 -0.08066051012651794
77923000.0 0.75476260253378 -0.6452061668687267 -0.010120379751362334 -0.45980068599763774 0.0019871924425641715 -0.0030776691281253483 0.4528426170942919 -0.08395735366954185
78922000.0 0.7490218802132119 -0.6549170581545917 -0.026853595945300218 -0.4874649059069756 0.0019249769338108894 0.0037885387784733085 0.4571017571731058 -0.1014790382949063
79921000.0 0.7394984981029694 -0.6592106222092091 -0.04256076180418327 -0.5148958650452901 0.0008235634957379971 -7.310630572536141e-05 0.4584993059972887 -0.11304582046676731
80920000.0 0.735780423346318 -0.668556859109465 -0.05561903611011729 -0.5419674316711119 -0.0006373556610532741 0.001926232598688005 0.4602935664966787 -0.11800801710802375
81919000.0 0.7287009256769016 -0.6765091529252407 -0.0722743451138058 -0.5659283203855153 0.0034876737737484986 0.0011185505651113432 0.47163808681931885 -0.1251727797183265
82918000.0 0.721231563637496 -0.682696393439289 -0.08800364526970467 -0.5987943174273149 0.0032665643875950568 -0.002681844156731657 0.4691406071159735 -0.13430567761586168
83917000.0 0.7108940216917883 -0.6907577854819121 -0.10546046238982966 -0.6231655532180218 0.0037942790664132553 0.00020085049354969257 0.4743960035001899 -0.13348392159375533
84916000.0 0.7061419195392454 -0.6964220213882023 -0.12498532801630569 -0.6620056975560381 -0.003162713543571688 -0.003191784242787758 0.46438534801721576 -0.16033484851375698
85915000.0 0.6991812110017255 -0.7030949958306918 -0.1439692837537827 -0.689077772644295 -0.0003638394257336415 -0.0032083811873626885 0.4710210354375714 -0.1642051529042803
86914000.0 0.6911209975365493 -0.7123746959634972 -0.15574355221810912 -0.7278979734155641 0.0015802232409550124 0.0005850331270711407 0.46046365252355326 -0.16594397062161795
87913000.0 0.6865283175742548 -0.718460846601026 -0.1742808620688723 -0.7570713810457576 0.001591363819975881 0.00017764868139542178 0.46139039722216857 -0.17953932939935324
88912000.0 0.6785936033703173 -0.7256697784039848 -0.18945480257929304 -0.7897992947278701 -0.000383938695976973 0.0025606616164802996 0.45920911847178614 -0.1994596614289844
89911000.0 0.6710624479992011 -0.7339385333407148 -0.20319074180973257 -0.825814996494863 -0.0003554311787558422 0.004362036213641726 0.4672174391129056 -0.20568025769572143
90910000.0 0.6625849455706105 -0.739234704207122 -0.22173875216284233 -0.8586792948419484 0.0023946919770266345 0.0024394525118895567 0.4630067104027978 -0.2006868554040841
91909000.0 0.6552415693823316 -0.7441018646787407 -0.23766914753600046 -0.889869525994969 -0.00026035953739879863 -0.0010836449797394364 0.4706180533037528 -0.22049012923390948
92908000.0 0.6463632925779081 -0.7531893292578206 -0.25742588868767563 -0.9207450199997611 -0.00043876237556414016 0.0005357218049905309 0.4512317114773789 -0.22498209489911733
93907000.0 0.6407018962192499 -0.7575914473639849 -0.2750658662400105 -0.9518030441460212 -3.3628862848464116e-05 0.0022102406304211585 0.46394232110279526 -0.2502567010965956
94906000.0 0.6276951259779364 -0.7659670753710909 -0.2899076591481025 -0.9898045331540302 0.0021531571078928446 0.0015865311320394945 0.46231080413643544 -0.2399933050331247
95905000.0 0.6224865678313377 -0.7727932095939777 -0.31331970318464625 -1.0212268439838845 -0.0019432068480061098 -0.0015296807155619628 0.45685770921034397 -0.2668385333513074
96904000.0 0.6137300239617449 -0.780785302124032 -0.32823783126849365 -1.0599722427937233 -0.002101457391521517 0.0028466180209714793 0.4505565183063225 -0.26660611609016865
97903000.0 0.6043601401644338 -0.7872073961621715 -0.3526890801458092 -1.0893289757896385 -0.002034070318589441 -0.0012605590064465244 0.43933225120682173 -0.2737335448708215
98902000.0 0.599277145553693 -0.7924024766506083 -0.3698318514329114 -1.1263938210349453 -0.0033204936027484457 0.002456218060068497 0.44729425961297176 -0.28508848489948413
99901000.0 0.5876452194346707 -0.8002931051412212 -0.4010762484646459 -1.1554957694801506 0.002662608248954113 0.00046808482735665754 0.4606570165683964 -0.30576249293905255
100900000.0 0.5809375068245836 -0.8018588649085555 -0.430271320416556 -1.1875512490629587 -0.0028553988634561264 0.0024997456666376004 0.45708177274624634 -0.31114412781080864
101899000.0 0.5720992956816122 -0.8091988591227767 -0.4524087935004507 -1.2268004780274855 -0.0006484510561420495 0.0015068001664667618 0.4567136609012554 -0.300206597632652
102898000.0 0.5591072961079989 -0.8178596215872271 -0.4957073756487283 -1.2571068599731092 0.0007072749802812456 -0.003368351876176859 0.4406095402160607 -0.3275421587316533
103897000.0 0.5525984769735763 -0.8247476399162862 -0.535051771455665 -1.295418658435625 0.001255049917964279 0.0038078701219996795 0.4569130538832483 -0.3267706239200272
104896000.0 0.5441997237093407 -0.8337220413181347 -0.5771255125233274 -1.3286622632628227 0.00033921673183486857 0.0022246749489946327 0.4321526888288962 -0.3258960098374254
105895000.0 0.5353122849108422 -0.8360615496358705 -0.6200376527965464 -1.3687840102859725 -0.0024972513262955473 -0.0022118763457560486 0.4339718138945691 -0.33918026779141713
106894000.0 0.5271092527977016 -0.8414757100237943 -0.6703935719429284 -1.4010054892103747 -0.001224656339341356 0.0011713650878402639 0.42970087493580866 -0.35095265181417346
107893000.0 0.5172371848709724 -0.8465881702030519 -0.7195434966208301 -1.4437939103139579 -0.0034582602680863894 -0.0015710948174680773 0.43584285984637566 -0.3680688970653898
108892000.0 0.505754524146027 -0.8530469055303032 -0.7827282900482636 -1.4787317693287452 0.0009752206306315465 0.000783198819669443 0.4192845360750545 -0.3628849338651665
109891000.0 0.49285456792516624 -0.8580609382370797 -0.842440753815771 -1.5115322005535694 0.0019483820231387292 -0.004007098321342992 0.4366479979559807 -0.3669697732321204
110890000.0 0.4895329084467397 -0.863949820272379 -0.8909938306339394 -1.5284689331393877 -0.00020744928184427864 -1.7258240437328396e-05 0.43378398724364414 -0.3695270589226261
111889000.0 0.4768997404940615 -0.8657075902674627 -0.9569001069740894 -1.5854572650415326 0.002141393052211672 -0.002487425172088515 0.4301169988826354 -0.38692359274176474
