! Created with skrf 1.9.0 (http://scikit-rf.org).
# Hz S RI R 50.0 
!freq ReS11 ImS11 ReS21 ImS21 ReS12 ImS12 ReS22 ImS22
1000000.0 0.7770504998937005 -0.6032238232256335 -0.11141155587866489 -0.24233463541700997 0.018885165542509328 -0.006143874681739396 0.4594144091856698 0.36007301735284475
1999000.0 0.33760087994925464 -0.9174580449538219 -0.20454879530136638 -0.19927861966292248 0.00858352343558601 -0.001853625008367579 0.2910863399174915 -0.03928769028434458
2998000.0 -0.06564639084156954 -0.9609819067572948 -0.23190355633695214 -0.13513321208449855 0.006577719136070965 0.003548049705720853 0.20712721854766844 -0.1256849026960136
3997000.0 -0.3365605006969612 -0.8991029588737938 -0.2119995326602457 -0.09047792083512644 0.006221307896597876 0.003035327002520307 0.08233969853281656 -0.22242506962645844
4996000.0 -0.5176528091928 -0.814986982669541 -0.16525397701735173 -0.06781294149171367 0.0038443874766317526 -0.006472819648469819 -0.047165161135420505 -0.21996872723484995
5995000.0 -0.6323762101212008 -0.7212821205809464 -0.12045157897569211 -0.05064647774043728 0.006509324691156916 -0.0015360424503557605 -0.14638176468014896 -0.13274028997303527
6994000.0 -0.7192749189417721 -0.6430507415424594 -0.07450652443148688 -0.04770567596827708 0.003279058766731539 -0.0024013245315702408 -0.16100327309961043 -0.04537480116344592
7993000.0 -0.7763737313605525 -0.5714021430265138 -0.03925334353291991 -0.05360055633234206 -0.0028988728115282732 0.0060951314698767705 -0.1741141632062563 0.015789547396462527
8992000.0 -0.8203589102265233 -0.5062120434343212 -0.007782890576044912 -0.060171078485944655 0.0019565339568174064 0.004068938451036145 -0.17050783412841541 0.03726991848296386
9991000.0 -0.8525754193596471 -0.4508194932827571 0.0014076422250665454 -0.06184456736948775 -0.00042495515498343627 -0.001215237771540205 -0.16498293625893473 0.0819827810724928
10990000.0 -0.8796329957077167 -0.39928416918689363 0.011533018272791918 -0.047207383939056054 0.0028688695281962806 0.00023760689155798885 -0.14412269102090622 0.11177188404465767
11989000.0 -0.8959818444362608 -0.3615466677783053 0.01238536179321237 -0.04301629937106672 0.0010704278020423137 -0.0016106058848193933 -0.13159043168929388 0.12870778215720013
12988000.0 -0.9111784613301317 -0.32564896479653316 0.0010339299064926785 -0.0369527219092329 -0.0038053886685392112 0.0016645091617511053 -0.12409567521948858 0.1556392259355565
13987000.0 -0.9226025093718433 -0.28793858602969125 -0.013725038210148706 -0.028005722806061586 0.002612152559942477 -0.0022710886565006586 -0.09604747595945537 0.1810652514355746
14986000.0 -0.9324063895446988 -0.2572079710433163 -0.026143366235449928 -0.013915766429813941 -0.0008614059632404651 -0.0005607705578030702 -0.08395347965775186 0.2062205029305172
15985000.0 -0.9399926055483311 -0.2255002533024288 -0.036607236056464834 0.0010831998799211329 0.002747600021045515 -0.0025952058294575952 -0.06874412813482408 0.21406205615819188
16984000.0 -0.9456884935105491 -0.19876502745641175 -0.050388962970859597 0.017224973068232674 -0.0006477640261677071 0.001990034837650839 -0.06201453212258984 0.22099587619151692
17983000.0 -0.9529837433716198 -0.17536888569359857 -0.05383300302726128 0.024859688964403343 0.00011185338411774559 0.0015073707605504389 -0.055564871559944766 0.2245715919565225
18982000.0 -0.9558580407831925 -0.1522261734594843 -0.05625085544791985 0.036109053623949026 -0.0009400123634399445 0.001249266650881248 -0.022931509584860198 0.2302714387945658
19981000.0 -0.9581921669998463 -0.12933465371716352 -0.05609178651652446 0.03890433203172424 -0.0020823915253980834 0.0024294459557994376 -0.010855179237016071 0.23629890680421936
20980000.0 -0.961810820054667 -0.1094305762596948 -0.05492737250758383 0.04646173261925479 0.0004736162432054822 0.0008591973357133538 0.007613115940420602 0.25313616263301403
21979000.0 -0.9649561377735835 -0.08680197562641648 -0.051233512085436306 0.054924276353826004 -0.001826822112480808 0.0028438416262427757 0.02826031175309927 0.25359547544658134
22978000.0 -0.9676558298689676 -0.07146803007533917 -0.04530691909889169 0.051080102866541716 -0.001007214563657875 -0.00015875769736134568 0.03724315904858307 0.25299827312448586
23977000.0 -0.9662044795865022 -0.055844409813931524 -0.03861218411189297 0.052144741360172456 -0.000998243084104885 -8.142516705864108e-05 0.04709076609731213 0.25401552428664326
24976000.0 -0.9663596674287804 -0.0359501344077738 -0.03387451599858899 0.044828499147989975 -0.0023955368422967395 0.00030424278302034716 0.06925514403455832 0.24557258956160516
25975000.0 -0.9655407704083269 -0.014087933861701369 -0.02212103335952294 0.04274723073611755 -0.028169356733048486 0.009439101065581193 0.08358871059483473 0.25711156893913384
26974000.0 -0.9704123128869145 -0.0070118121308991 -0.020310209392066216 0.03055956115114262 -0.0002443771741123221 0.00017959951426959873 0.09308873890281553 0.2699573295314158
27973000.0 -0.9664577645926643 0.007927111271466397 -0.018148652172226824 0.017297228471102724 -0.0018353231026444082 0.0016459392584781808 0.10314754791409397 0.2585508742497493
28972000.0 -0.9711281295133223 0.022716462453383733 -0.02015277047290518 0.006623177741937856 -0.0022365890582501445 0.0016993882654401649 0.12187858449970143 0.24940116251603384
29971000.0 -0.9690712551732408 0.03503476487147931 -0.017426972221862597 -0.012714747578242735 0.0024995076729167477 0.002232362928094423 0.13984477386473362 0.26739157567642535
30970000.0 -0.9725074924316759 0.05218733008828636 -0.019976222107003956 -0.02566469801364603 0.0008606417860050999 -0.0007063624681719379 0.16824425865531265 0.2450895286533561
31969000.0 -0.9676158282515146 0.06174787682459626 -0.029723195993419455 -0.04555849853229114 0.0017303875896208408 0.00413799524917395 0.15654298126668775 0.25463877693928993
32968000.0 -0.9661729039881471 0.0759927001698878 -0.038745436656756886 -0.06195697366049474 0.0037077287898582153 0.000675305025345238 0.16173540662269928 0.2556916221028568
33967000.0 -0.9657329611579638 0.08808489692376809 -0.044479479909100506 -0.07715992624585592 -0.0007457913808101988 0.001334374574673175 0.18702347744310496 0.24342337255507823
34966000.0 -0.9633215044092016 0.09880466913963375 -0.05519656329810956 -0.0874616454060166 -0.001932615745687909 0.000490285407169301 0.19725458480182767 0.24749001507062576
35965000.0 -0.9638580274743314 0.11326857676907252 -0.06687233065410089 -0.10040775707926454 0.0031407499985610775 0.001607646339385187 0.21979937354251414 0.2517811650368596
36964000.0 -0.9600670295965096 0.12202793530062984 -0.07365177508142763 -0.11092405548984764 -0.001628761543626186 -3.8118500999562355e-05 0.21757273849565237 0.24799110677502625
37963000.0 -0.957820008353279 0.13773400833172897 -0.0933765725512338 -0.1256038471459938 -0.0029726084898894856 -0.0027708787210624993 0.23197573915033246 0.23110184231125658
38962000.0 -0.9582570542359861 0.14546836801164212 -0.10708555120467927 -0.1360985696184571 0.0022350251352036836 0.00224308741992098 0.2433476716488578 0.2357661862610491
39961000.0 -0.9569613360617186 0.15570901840603346 -0.12761609023988274 -0.1442925037446024 0.0013374909976148486 0.0016663182952243057 0.24891979247881943 0.2265895416304589
40960000.0 -0.955799679820434 0.16285403808366494 -0.14160364709739726 -0.14700819180479632 -0.0010971694298346042 -0.0012109239357764837 0.27725706585104115 0.2184032275234765
41959000.0 -0.9524390212346804 0.1794682956472374 -0.16857530794088238 -0.15663123862319636 0.0016509631464374898 0.0017039523345167916 0.27772905084763616 0.21367083903815967
42958000.0 -0.9518415785807005 0.19011727585361668 -0.19132758481191975 -0.16476304758967544 -0.0009211054032671544 -0.0027286528947031816 0.2899867844764843 0.19924455231947755
43957000.0 -0.949613915039221 0.20151769939358433 -0.2186958453490903 -0.16986087565136 -0.001036064820590232 -0.00035990037797191914 0.29070212634978726 0.20324150019302736
44956000.0 -0.9467055836179246 0.2102529354649889 -0.24550603263641974 -0.17527618164235897 0.0004215817505563159 0.00014943381052450017 0.3172786445441753 0.1903234704528342
45955000.0 -0.945349557159386 0.2191862270822528 -0.276030653392565 -0.18403868077573698 0.002532573016359981 -0.0025050033981823872 0.31364346827334816 0.19825391152626784
46954000.0 -0.942305308563231 0.2296523903632487 -0.30515091419933443 -0.19096826256818297 0.005008748420949418 0.004207264847455734 0.33338398173902706 0.17611568767384722
47953000.0 -0.9395081835031175 0.23847016551273725 -0.33343822239135656 -0.19096209335491754 0.00010461082339508419 0.0037180146009117023 0.3423194612371146 0.1679924244075656
48952000.0 -0.9355772929526001 0.25104508309760737 -0.3608312931609172 -0.19600898880617748 0.005962719084495646 0.0008521603136237979 0.3363422256281536 0.16270432280827768
49951000.0 -0.9355626385398467 0.25640554863801246 -0.38968142234668146 -0.20651517406202213 0.00036136376866120355 0.0008858232318493189 0.35448392151682123 0.14741952409045464
50950000.0 -0.9296928209890982 0.2682740028298165 -0.4147142096406396 -0.20964557951967325 -0.0010590268747777717 0.0038619405418833714 0.35803989827851684 0.13981520619270746
51949000.0 -0.9290878900795866 0.27601542691752223 -0.44239595805628346 -0.2126476934167476 -0.0032884193139512716 0.0014025671140563115 0.35781592584773453 0.14288783780899114
52948000.0 -0.9214289520660118 0.2890623750119191 -0.46643602317398186 -0.22168867357319055 0.0036443073312880316 -0.0002721627779772728 0.3839356389940073 0.14028801151653458
53947000.0 -0.9243733476590755 0.295906594604706 -0.49832978898920327 -0.22872734360145075 0.0021115622521302416 -0.0006220088105667483 0.3704558000429984 0.12830593774062837
54946000.0 -0.9210461717727184 0.30167805383855834 -0.521396932801256 -0.23841587601173425 0.004300550051202785 0.0012986861805685506 0.3928256993339481 0.10825026292829303
55945000.0 -0.9182059077758012 0.31141718269488083 -0.5520821896810826 -0.2427638111559075 0.0009919979403782185 0.0014482204514456257 0.397291275381511 0.09762737232340318
56944000.0 -0.9128303618371505 0.3224487330309379 -0.5826565204239647 -0.24942000069649192 -0.00018947159027743005 -0.00038898164641502263 0.4092291490862 0.10158127340029106
57943000.0 -0.9067764599528217 0.3274547494852207 -0.6083819718549408 -0.25002813590053 0.0008147270366894053 -0.004802138888858099 0.40038851659554026 0.08416241843740467
58942000.0 -0.9063219601976328 0.33976174499716755 -0.64245309683103 -0.2507385876111197 0.00433676258435819 -0.0025275258288316007 0.420906744313524 0.08858915870595992
59941000.0 -0.9034778943975568 0.3460189953672445 -0.6756320770435585 -0.257454063241983 -0.003887929536134471 -0.00067628607300254 0.4260519947392199 0.08433163352231338
60940000.0 -0.9010926831173826 0.3558428972683258 -0.7067425775207599 -0.2621323914080685 0.0006446389336397917 0.0008716677525879642 0.41605376383720494 0.07737408020064153
61939000.0 -0.8960044689921073 0.36421965172567505 -0.7374246784444998 -0.2709687566971996 0.00018615122266781362 -0.00021695520012499835 0.42259444749342645 0.05619085293502525
62938000.0 -0.8894907047617265 0.3732504986419807 -0.7737179722802499 -0.26630801856410263 -0.0024110979118572157 0.0023480563726277466 0.4428265488827549 0.04390633350929051
63937000.0 -0.8868253883658171 0.38069054302125444 -0.8093974928822514 -0.26618443073351555 0.0009815059881310784 0.0009222401415639179 0.43793759780926894 0.038609382989203106
64936000.0 -0.8853430547584196 0.3875908443707487 -0.8484486596238529 -0.27564575471334146 -0.0007778287506666279 -0.0020390908129694456 0.44219728033110867 0.04000447062493013
65935000.0 -0.8796571232149442 0.39630363919374817 -0.8825292440497063 -0.27275153950262837 0.0004314709312548242 -0.0030252794922603593 0.44995748006766273 0.010976073833521921
66934000.0 -0.8751840108018539 0.40499806621363055 -0.9130310346633053 -0.2674324392620581 -0.0010924505327045472 0.0012578092600205929 0.4388195465281152 0.008088038691139719
67933000.0 -0.874836328872776 0.41276895738948705 -0.9553077996342558 -0.2662461059751986 0.0016599781135573693 0.0010507049613433439 0.4535568000011577 -0.009143709878918299
68932000.0 -0.8786350631542578 0.41734652239226017 -0.9992894388424785 -0.2571199475767764 9.885753451735695e-05 0.002187421868965872 0.4653050458495033 -0.011468342818020715
69931000.0 -0.8634305256137492 0.42846520904662105 -1.0339271363338551 -0.24767179447097734 0.0012982581464137334 -0.004088897791639011 0.45635868138425695 -0.030312286630709704
70930000.0 -0.8595679686351161 0.4393404105457409 -1.071164246978296 -0.2336063920024872 -0.0020190241332444935 0.0020932025178602093 0.44294853882750446 -0.04204866520044063
71929000.0 -0.855642292996913 0.44490053319251566 -1.118042366829738 -0.22044565189124943 -0.0028025634944816883 -0.0009666339168721456 0.4506404709158451 -0.04625524309940838
72928000.0 -0.851581665113813 0.4520326908609439 -1.1575676493364087 -0.20249122635507347 -0.0023882260517350223 0.0028819574136885067 0.463446458017211 -0.04921341312397921
73927000.0 -0.84584024699559 0.45877194315197534 -1.2098681981628632 -0.17590111892238436 0.00218262629805968 -0.00032034249038068256 0.456872559295878 -0.06390530207419756
74926000.0 -0.8425576490944251 0.466331781951944 -1.2532868471792287 -0.16020852354915094 -0.0001916234081453012 0.002073183822402958 0.4788603293064587 -0.06317331857770273
75925000.0 -0.8374828965137334 0.4784298116536712 -1.3069783951910519 -0.1264607302107363 -0.003424197593360178 0.0030703636098883083 0.4756442777884551 -0.08549562302304692
76924000.0 -0.8335953562323822 0.48186076330492794 -1.3609540321031943 -0.08805999936809229 0.0003938719878098349 0.0009739220233872573 0.46705341751218993 -0.08853518270260675
77923000.0 -0.8314324930428942 0.48736919664406114 -1.421653252369173 -0.060394336630123176 -0.002923159504893094 0.00034786246503202943 0.4602354439864663 -0.10865459424515955
78922000.0 -0.8248601316672334 0.4944362811433992 -1.480423276485283 -0.023802998546183035 0.00047129191231151706 -0.0006766529768793997 0.47107448321953516 -0.11044495996399235
79921000.0 -0.8197275413378883 0.5055811877237333 -1.5411988093599753 0.013566342631466747 -0.0004892465117007493 0.0016710135531077083 0.46666548479023967 -0.11530641984941926
80920000.0 -0.8137266539855869 0.5081930689515758 -1.5919607904796824 0.04591441724888201 0.0005051819568306305 0.0002961023797485845 0.47480274905784836 -0.13559240782252455
81919000.0 -0.8117807160662062 0.5159324241807618 -1.6572370281320663 0.0853755537141485 -0.0032709883699712384 4.456654096854322e-05 0.4753228731415083 -0.14302043535279002
82918000.0 -0.8057913752750612 0.5247226071119153 -1.720209487059892 0.10251431399147576 0.0012592523291389672 0.0008068128041708847 0.4760819408766869 -0.14504448727230815
83917000.0 -0.8020741692231823 0.5314778408145931 -1.7784161160645546 0.1479004742077059 -0.0010351272660701204 0.0019845665095086125 0.480939525080139 -0.16812413627046643
84916000.0 -0.7962048205602396 0.5374161486870642 -1.844843462101044 0.17792709115824268 6.913584530787492e-05 -0.00046171582252122964 0.46115506440820825 -0.18106646962003023
85915000.0 -0.7902470580039229 0.5446515355685179 -1.9009743969227184 0.21767779630754072 -0.002931408657829123 -0.0006216284318662244 0.46069387896175595 -0.1799379130816264
86914000.0 -0.7841952820741507 0.5487818206105622 -1.962679925618341 0.23404692214123235 -0.0023482231893855237 -0.0017757277391909152 0.45980154765925063 -0.1782185636659602
87913000.0 -0.7797428064233795 0.5566922128133214 -2.0115472357544775 0.2718452690935055 -0.0023891156769619256 0.00032784645951993986 0.45690746537086613 -0.19079276810815132
88912000.0 -0.7747353114201697 0.5641162508337202 -2.0798166895981414 0.2987493087490388 -0.00028109158918917344 -0.003981316416703287 0.46781463164025733 -0.21094007754642163
89911000.0 -0.767294071971889 0.567594969214666 -2.1298207958850512 0.31652748238433825 -0.0034069580208905925 0.0012488384483147754 0.4693790498806535 -0.20464996993436127
90910000.0 -0.7640860184801312 0.5750394060089973 -2.1974878139935434 0.35061709583372885 -0.0004314326013199647 0.0005673035112673712 0.45822580742879626 -0.2243522271323102
91909000.0 -0.7592402598906112 0.5823123839368669 -2.2595775799651374 0.3769521530153319 0.0006190647346695595 -0.0007547340684641896 0.4594325942638394 -0.22465401409722974
92908000.0 -0.7524768188037224 0.5890179653262112 -2.312976430256467 0.40446604864073754 0.0009266415516220407 -0.002603210849687842 0.4555071350082883 -0.23916985978701616
93907000.0 -0.7446298644232225 0.5946977613486143 -2.3570450273093635 0.4371105251823647 -0.0035228324979358428 0.0058232300387746246 0.4585408185958193 -0.2639914020768024
94906000.0 -0.7412083508133074 0.599200637654548 -2.4179740036795607 0.4472042899736483 -0.0030243846610150857 0.0017822260292164578 0.4601145786644614 -0.25749840563666615
95905000.0 -0.7368414815432031 0.6051745326376661 -2.4800332624238024 0.48365143898013196 0.003120340041178376 0.0004556323866045215 0.4654134405456398 -0.2745921997589701
96904000.0 -0.732173557345379 0.6138261236549101 -2.540563130271757 0.509574695827581 0.00394581280339274 0.0006532131199278856 0.44935924292226914 -0.2944507964487872
97903000.0 -0.7238929565383203 0.6163642174008882 -2.5838958848250915 0.5420450203479045 -0.0012478987936042 -0.0004634437819036763 0.44215649247459965 -0.29250346029159946
98902000.0 -0.71932471205775 0.6219845487413936 -2.6486884264979507 0.5762487671698838 0.005041179644251819 0.004098754343209789 0.4456965488348017 -0.29347911790235987
99901000.0 -0.7144142518736875 0.6269777679629154 -2.6936326552925753 0.6140742613613339 -0.0011289850361919792 0.0013866822696474471 0.465228437970722 -0.32642375365975146
100900000.0 -0.7097406863754178 0.6359960698937933 -2.7439393979555815 0.6735473845596607 0.0030131336270343 -0.0018807777579063203 0.4531074774864998 -0.31337587379985243
101899000.0 -0.7024941379884235 0.6406759866054771 -2.802120345180655 0.7112198239283312 0.0017363492249765113 0.00044680067511639813 0.4478995916473177 -0.32919399008968253
102898000.0 -0.696998901750822 0.6447536623262778 -2.8589585905743933 0.7620921859466081 0.004032095724774612 -0.0002432953775625374 0.4495869021225554 -0.3436783174683032
103897000.0 -0.6912330853325629 0.6513515912190787 -2.902467038632166 0.8265727918059151 0.0003174633600979453 0.0021221610455326714 0.453396236412627 -0.3483830043441632
104896000.0 -0.6831560742315517 0.6532715095804614 -2.92965453600345 0.9080624750392521 0.00013421116475261416 0.001520239039235852 0.44129631564361016 -0.3475005779338722
105895000.0 -0.6831271895464113 0.6592168085602957 -3.0113918443700265 0.9609725976122789 0.0010037186120535853 -0.0010484410086019262 0.4337836767910605 -0.3793052664986723
106894000.0 -0.6743395853174076 0.6656466055828324 -3.053036962674686 1.0633778289216531 0.0013742670119949376 0.0022733553440328035 0.44250824706048647 -0.37689124249902045
107893000.0 -0.6662306888913349 0.6704415845615317 -3.0899606157993316 1.1530547723803137 -0.0004762863469287979 -6.8075345655247026e-06 0.4321153294277068 -0.3815251807726253
108892000.0 -0.6587571527222533 0.6760492007141713 -3.1401351387539767 1.233948051160397 0.000603971204235793 -0.00252778226437523 0.4303154548763318 -0.3880481364722367
109891000.0 -0.6537550656668695 0.6822111609493847 -3.1806759094833956 1.3225715245807974 0.0011449186056522044 0.0023909971403018055 0.4240837625144209 -0.3849477738922675
110890000.0 -0.6451233417446044 0.6820956885542339 -3.174994484672809 1.3987357623215493 0.0003245232177044893 -0.0009867911981238607 0.41837499473270207 -0.3956787119045091
111889000.0 -0.6447209853385132 0.6932589090319262 -3.287149496025143 1.4920436048526358 0.0037145810698665394 -0.001994390495938335 0.4196324295987234 -0.4042812485251727
112888000.0 -0.6360912741251566 0.698234044732019 -3.3382198485490906 1.602719565224337 0.00039398788734480115 0.0022399958616090296 0.41102251153297653 -0.42348324098850026
