! Created with skrf 1.9.0 (http://scikit-rf.org).
# Hz S RI R 50.0 
!freq ReS11 ImS11 ReS21 ImS21 ReS12 ImS12 ReS22 ImS22
1000000.0 0.9844687345872285 0.00894259266910096 -0.018339449723565084 -0.035557311792890484 -0.009309301694613798 0.015837488754492007 0.366120507146211 0.3369388638076665
1999000.0 0.9914567765397424 -0.014281933776046347 0.0106138783448282 -0.03387713213203247 0.0006410895456786846 0.003014180326776335 0.2843432811613672 -0.05196195382198082
2998000.0 0.9995754236507317 -0.0208008132665622 0.010381861963197596 -0.017688821200891564 -2.563491331954837e-05 -0.0029201537848575557 0.19243015516556788 -0.16843546915942456
3997000.0 0.9985993714881487 -0.028637605896519314 0.010085607904841629 -0.009520044374654774 -0.0028292545631839828 0.0003303233371888991 0.08903208505361275 -0.23057899480493937
4996000.0 1.001241866467378 -0.03352719215683464 0.006994533812142734 0.004166298913867323 0.0019136980172077326 -0.0007654727218335041 -0.03949757531582307 -0.20966196272269055
5995000.0 0.9999228483917991 -0.046922096673965595 0.01056826103287586 -0.0017932836035043844 -0.0023953372289817337 5.339882009066202e-06 -0.1162730219592559 -0.09811920637175167
6994000.0 0.9992316386418719 -0.059691347918851896 0.008310401802875277 0.0045552429204672885 -0.00577669515601315 -0.007493073921622168 -0.1408865095940371 -0.037840632373802904
7993000.0 0.9985349289344131 -0.06659505499927541 -0.0004022411379951055 0.0055242547750932345 0.0038643763612488204 0.0014692188821347635 -0.15289272154334305 0.030468829921081
8992000.0 0.9976915639791932 -0.06708991788571093 0.0012430804358077238 0.003976649013618386 -0.002896066409951511 -0.006776679409271961 -0.157006198966799 0.06036694844273582
9991000.0 0.9963327903557332 -0.08262051270694523 0.00012845685606917577 0.003687227393957935 -0.004439728099715067 -0.0012537796173173492 -0.15437845824117807 0.09637278171811184
10990000.0 0.9961639631776847 -0.09139866897897622 0.0014427490991873121 0.006247579623533756 0.0011398369497899255 0.0009722187499604185 -0.1416311098009167 0.0976341427800781
11989000.0 0.9973002619510903 -0.09698582107858116 0.0029583499940170977 0.002103947570853189 0.0034154260140429266 0.003838086710171989 -0.1255962943409545 0.1335654447071559
12988000.0 0.9955409580882356 -0.11018873801236671 -0.0008601546563064187 -0.006812545574690739 0.0021819848520468125 9.031229575029918e-05 -0.11650536084634655 0.17306274847598654
13987000.0 0.9922276768875244 -0.11508492556536863 0.004612756775075818 -0.0033436268762815236 0.0003055585187169135 0.0058117894007343835 -0.08832610795985614 0.19268133163737955
14986000.0 0.9908032459937228 -0.1252812507772104 -0.001252984950348175 -0.004785325296842523 -0.0019170891113220007 0.0010345089695844214 -0.0824082200294296 0.19706594851366666
15985000.0 0.9937826155646677 -0.13315410195126445 -0.0028479756561516855 -0.0015542451713830019 0.0022701105870715425 0.000778870295766051 -0.06754493039871724 0.2158480628994211
16984000.0 0.9896596573945359 -0.14401230500110007 -0.0015790705532708897 -0.0016065219095277744 0.00012749064786728517 0.0013034706446492688 -0.06522615477812184 0.21615429541572959
17983000.0 0.9910038277415244 -0.14798029692714867 -0.001468706718591839 -0.005810218941835427 0.0032218336157021094 0.0006910004730880234 -0.04558416889926451 0.2250020503158212
18982000.0 0.9877804691136398 -0.16063526372075923 0.001114711649230449 -0.005417831763313618 -0.0002837993092033465 0.0030051384846932934 -0.027812487275025437 0.2280145501335749
19981000.0 0.9860731324973606 -0.16727950390840635 -0.0009652242833598987 -0.005712727437976748 0.0009528813698839108 0.001215707446665176 -0.010981392434342506 0.23204124040108012
20980000.0 0.9851724478694622 -0.17619091468033057 -0.007376332443530402 -0.007649605218344331 -0.0010684823815218687 0.0007622003474765383 -0.005247878888955975 0.25364813102113276
21979000.0 0.9817886577984388 -0.18518080567742423 -0.0016516957261682795 -0.006562468387387282 0.000426407846955796 0.0014983942128570578 0.013577956196010378 0.23064085238922705
22978000.0 0.979137328738662 -0.19408953159435838 -0.005436012683870215 -0.0007712193091482717 0.000850330145103477 -0.00016694568916057626 0.04304254217197308 0.2490857527873963
23977000.0 0.9806485421306401 -0.19902932219411795 -0.0037864223555893546 -0.003770931096373038 -0.0031228369478179872 0.0038339691862797794 0.03793702547206038 0.25219168817130405
24976000.0 0.979047442967568 -0.20928733408323258 -0.006399751389766054 0.0018590141083078009 0.0011657897629228338 0.0014423541330631402 0.05657901303324949 0.2471331421168423
25975000.0 0.9707883982026434 -0.2192549505852627 -0.007360086295984984 -0.0024844966408015183 -0.01628427098187738 -0.012105221922327002 0.08137442993687448 0.24746278646838737
26974000.0 0.9739441910621254 -0.22628495503754126 -0.003956184826788309 0.0011714324559230693 0.002688022194207778 0.002996225691757282 0.08820951166720876 0.26454616105563233
27973000.0 0.971801741937789 -0.23346041050396288 -0.002983074234404689 -0.0012845253833735164 0.002039835766129435 0.002277376167965921 0.10344766370307261 0.25400960080354446
28972000.0 0.9683051856648424 -0.24555493070711307 -0.0008099529784245184 -2.896961163118412e-05 -6.422189936560015e-05 -0.0031718707143743854 0.11541453275565663 0.24832400744348795
29971000.0 0.9697928359934906 -0.2503463986912983 0.0023828162696843233 -0.003604911782599914 0.000738734033992559 0.0005698314792867105 0.14840527839832282 0.25311132630428906
30970000.0 0.9649282524558345 -0.2562007937976176 -0.0006453966472190645 0.0017547317216208267 -0.0030305932924697084 0.003523530019417688 0.174294835806266 0.24811245457708644
31969000.0 0.9631559017024587 -0.26721659631977157 0.0059663844164090365 -0.008016057272632937 -0.004014260931031724 0.0018406784138714494 0.15015222260979336 0.2479245078957283
32968000.0 0.9629866517422468 -0.27414347885779883 0.009165543053689195 -0.009711377563784127 -0.0026871005641857125 0.0013165581186384539 0.1647886913132636 0.2437264031496422
33967000.0 0.9608215711652701 -0.28222846634686194 0.010901414138137992 -0.007570097450416679 -0.00019697108709299674 0.0012863660463874205 0.19026218122906885 0.24269604127788522
34966000.0 0.9561475781363007 -0.292422471489601 0.013208334829149432 -0.0103911343057954 0.0004489041365198433 0.00037605010678814317 0.19774043183481133 0.24442377915984836
35965000.0 0.9532220956997767 -0.2984696371420818 0.014963463204611546 -0.01636194631986783 0.0006704336975739412 0.003336304611199843 0.21079245958938325 0.2412526849451799
36964000.0 0.9518166171793162 -0.3104023706599594 0.014198746942030662 -0.01482000916079929 0.0009258614435043929 0.001251524973801147 0.2081660695818569 0.2470511892540522
37963000.0 0.9480324184048547 -0.3174087700402157 0.022578456754686595 -0.020811366616028545 0.004068593094015305 -0.0013142260832257793 0.22380484685935526 0.23606783064886355
38962000.0 0.9463100476469894 -0.32559843511195297 0.02413664239808304 -0.02178025107860468 0.0002959372967006945 -0.0015150506777350668 0.24297191982674574 0.2264082259828592
39961000.0 0.9432054903880531 -0.33285128527592056 0.028088575134280914 -0.027279136018134007 0.0028763455526096566 -9.135111310095931e-06 0.2561088327284651 0.2218944910142275
40960000.0 0.939423302300264 -0.34285243598852655 0.021537943071812157 -0.02441382380384889 7.264349241998633e-05 -0.0004332582698972028 0.2657007485477867 0.22362087981032946
41959000.0 0.936942348498598 -0.3514534634499022 0.02696415972940634 -0.0290086946568966 0.000904957878740173 -8.608344121308336e-05 0.2665169935557024 0.20774133136193593
42958000.0 0.9313295098005764 -0.3597009420610656 0.03275639520098728 -0.0414519658058184 0.0016920112660038574 0.0014765597034038362 0.2768802333729575 0.19229769172129085
43957000.0 0.931340199315247 -0.3644576528109073 0.0335210908127277 -0.04559337759866955 0.000770513137509929 0.0010914664077513359 0.2885057240806602 0.2025522266100621
44956000.0 0.9281661515823063 -0.3710633137146426 0.03215760589545243 -0.050872123725698375 0.002489334250566166 -0.001787796973360842 0.293487809475319 0.19606522730300455
45955000.0 0.9217036918257047 -0.3848033643133419 0.03234707898906324 -0.058061739170001646 0.0017268202466200458 -0.000768699132170113 0.31369659427508906 0.18767028914884246
46954000.0 0.9185740813343252 -0.3904107564883435 0.036241529392420965 -0.06665209679506179 0.0009245157898228716 0.001605528486364908 0.32836724353454366 0.17657830175456357
47953000.0 0.9176911471680419 -0.3993171093772508 0.034925378348660066 -0.07227978941490455 0.001701555789552166 0.0007890684526690347 0.342633065690748 0.17000143566852488
48952000.0 0.9109109353145607 -0.4111744868524217 0.03526214697056113 -0.082225945318534 -0.0010643082483846565 0.0035022832058650517 0.32890316921698515 0.15368389112728517
49951000.0 0.9074223471313894 -0.41453475106263454 0.03584115479676867 -0.08556851634178349 -0.003129459312943675 -0.00042553614475635367 0.35542111300337764 0.15285886312360253
50950000.0 0.9050369175389074 -0.4258641411350254 0.03323608957793752 -0.09453844059898235 0.0038419250289305055 0.003711139511508202 0.3561363889227802 0.1420189886530749
51949000.0 0.9013976406498286 -0.4334355879850227 0.03559063632459972 -0.10299297994703369 0.0016545343190655785 -0.0008689147875961156 0.35932697424431786 0.14860099864544438
52948000.0 0.8995474146313522 -0.4401865831736017 0.03917885033903319 -0.10950091136457102 -0.0012893145337570507 -5.7363587375028335e-05 0.3731336798632458 0.1369890565399762
53947000.0 0.8936042466957205 -0.44651129900303094 0.039912378655331614 -0.12154834253840498 -0.000437615938428465 0.002937656981030524 0.37188437516241163 0.12552187467952622
54946000.0 0.888029679632596 -0.4598043588980304 0.0413182430492361 -0.131606420799193 -0.0021388820437480967 0.0005519436795914653 0.39293352184472097 0.11783395065881568
55945000.0 0.8856459967172119 -0.4659120402949212 0.04334695593677281 -0.14166176397188296 -0.00011798668296416275 -0.0022392807808854867 0.38109512490634295 0.09606661199724288
56944000.0 0.8828724219273155 -0.4721587233634428 0.04356649090657549 -0.1488728221546743 -0.0006041042527307063 -0.00015993185055414988 0.40306038869381233 0.1062322641185477
57943000.0 0.8768594211428065 -0.48268918006632616 0.04564386883301469 -0.16058516839037332 0.0011800768662850894 -0.000552910008647667 0.40417197385107706 0.09887961830713278
58942000.0 0.8703039509291635 -0.4899182106199852 0.04506691793654303 -0.17228940916649782 0.0019537846142594507 -0.0013660647494474962 0.4161581991926011 0.08803304716628477
59941000.0 0.8695255977166018 -0.4951937847758052 0.04880172090021636 -0.18117321487512272 -0.001909566747427987 -0.0020222911918952964 0.42457729535958627 0.09000093144178352
60940000.0 0.8609126605989391 -0.5051967198086859 0.048524188293145185 -0.18733329840551943 -0.0004963882820693693 0.0018814234605713358 0.4134719669767079 0.07498219738346013
61939000.0 0.8588164736417662 -0.5099663708888281 0.04933227267074159 -0.19292830855099935 -0.0005406296904512874 -0.000740540212935493 0.42159534166469087 0.06482041954656413
62938000.0 0.8527141976497582 -0.5201280059759606 0.05242721434689228 -0.21059364274560857 0.0008865319659418952 -0.0028710188668845766 0.44704389665351113 0.05177557714641967
63937000.0 0.8492379260706362 -0.5272567994898166 0.05275361025513356 -0.23139058163643886 0.0010735435416969574 -0.0022579760373406875 0.42770126865309804 0.03372771784127206
64936000.0 0.8413350863803006 -0.5340750120109087 0.05428123939134082 -0.24399737352838444 0.0015416667889906067 -0.002814314078816256 0.4390605556661058 0.030077283294328225
65935000.0 0.8389265834204861 -0.544902404666588 0.050243723534296875 -0.2572709069027611 -0.0012250653484270708 0.00201673986765355 0.44295840361354655 0.018328562722995805
66934000.0 0.8350850087425326 -0.5486365380199211 0.04899584798099953 -0.26892535810819845 -0.001484384827710098 -0.00406684458578934 0.4428033527494475 0.010226397894097461
67933000.0 0.8315636411210574 -0.5593010828082574 0.05405482068385477 -0.285679923988082 0.003303358857071572 -0.0013886106568101798 0.4470804489179619 0.007601088616351473
68932000.0 0.8273335511302787 -0.5610793904637403 0.04658718867641862 -0.29746113816342085 -0.0019169489183495745 7.863211168089343e-05 0.45777986399513954 0.0017485153135003545
69931000.0 0.8167070687465164 -0.5746876031023054 0.047824289934148376 -0.31470879030574367 0.0011205774757053158 0.0013412737716595752 0.44805367796402684 -0.029462348727114868
70930000.0 0.8112902394549646 -0.5817840093145447 0.04421816473528247 -0.32908248060529355 0.0017071805022072714 -0.0026613718780702797 0.44897155844565384 -0.0411217072891049
71929000.0 0.810316784325369 -0.5888144091762643 0.04480292069913048 -0.3460225939224741 -0.0011311771177405974 0.003609583058934103 0.4542518513618803 -0.04194855346187998
72928000.0 0.8025163400030836 -0.5989157351130918 0.0385687158138265 -0.3595275556772836 5.612233478838266e-05 -0.0008872233964632601 0.46285867342138737 -0.06280734882005018
73927000.0 0.795402414530353 -0.6050196895319065 0.025814576699992535 -0.3785166250775005 1.8252368878097316e-05 -0.0014566733132880645 0.46039741681540086 -0.057951637378645504
74926000.0 0.7908731742857604 -0.6139947463294496 0.020005810570943996 -0.3987480800534588 0.0013310158013224468 -6.65235477553989e-05 0.4653376551463442 -0.062354035623302245
75925000.0 0.7849873744990995 -0.6187638903281368 0.013098696782817327 -0.41708680597530506 -0.0016474417574509253 -0.0005674985505276705 0.46593127663806727 -0.07963248345003959
76924000.0 0.779702353364354 -0.6265621910928619 0.0011450975255987337 -0.4373260465084338 0.0011953483583939453 -0.0010532807396819238 0.4694207276269481 -0.0947101897326079
77923000.0 0.7731188439009024 -0.6338358669200822 -0.012976794487780803 -0.4647349108479284 0.002247701699737147 -0.0007428776281459414 0.4633845206235681 -0.09468583448154202
78922000.0 0.7675459200522887 -0.6455892454774054 -0.028489270719130634 -0.4887213219350391 -0.0019042649701156082 -0.0017773129403936157 0.4606578179039187 -0.11577362693636284
79921000.0 0.759622130879282 -0.6473497999995204 -0.04503258836899217 -0.5158839827217249 0.0004965479649520172 0.0008207818438361135 0.46160428702652884 -0.12685787474465252
80920000.0 0.7532420544829783 -0.6578799836469126 -0.060338262245109624 -0.5412606006994509 -0.0009892446371807392 -0.004276011258943216 0.4681938869324798 -0.13617460315732982
81919000.0 0.750141902168636 -0.66430088558109 -0.07817970241080995 -0.5684466710228473 -0.0010383298300393196 -0.0006692074835441679 0.4671560002231732 -0.138083911602643
82918000.0 0.7393628137546183 -0.6713191493334996 -0.09273950640396514 -0.5950724775705467 -7.73904256178392e-05 0.0017001351830055896 0.4892875259807702 -0.15443781783493687
83917000.0 0.7312808436676622 -0.6803394403014661 -0.11406218540041176 -0.6266004780653156 0.0013084623651407805 -0.00130765255416345 0.47164244089931817 -0.15650379394613145
84916000.0 0.7279933150848998 -0.6860005422342592 -0.12691775727349625 -0.6607317230908971 0.0017018418278042144 -0.0028770681075768805 0.45927462374718553 -0.16963823953307572
85915000.0 0.720745814653486 -0.6945990968749405 -0.15098644362888683 -0.6881146896181631 0.0011683409235968775 0.00027883452594288874 0.4653857034129009 -0.17564102847535196
86914000.0 0.7136500890123691 -0.7025244931542511 -0.16430547545764407 -0.7281736462744566 0.005620815592470908 0.003999528690662928 0.45369974292643606 -0.1822842188410337
87913000.0 0.7086176764445122 -0.710362759901855 -0.1871473827902775 -0.7550507207828818 0.002804420189244796 -0.0013555307990437489 0.45476184322204455 -0.183496337844352
88912000.0 0.7012193370257697 -0.7141957757324947 -0.20298121846564543 -0.7925136259334611 0.0007547868773049082 -0.003824695777326257 0.4604437744360536 -0.21735283546133138
89911000.0 0.691224418449411 -0.7247549707703104 -0.21747327878490494 -0.8240692245537039 0.00048173456664823446 -0.0031740566080957406 0.466718606127382 -0.21856903948069512
90910000.0 0.6854233771336364 -0.7288971348899108 -0.23373685405937888 -0.8590326483780604 0.003114213229577665 0.001691368948551276 0.461761110390726 -0.21145428601880797
91909000.0 0.6754892141159972 -0.7360269157829435 -0.2564065711719398 -0.8921507463791357 -0.001303300071725614 0.0016594681116369817 0.4664214978343164 -0.2178808136068726
92908000.0 0.6681857370022795 -0.7441199741518303 -0.2726022080209837 -0.9261176911813552 -0.00010715997061107202 0.0022546259820379064 0.4513526565797136 -0.24370108588891254
93907000.0 0.6643658823009778 -0.7496402912326974 -0.29037611183532674 -0.9541075485585458 0.0007008304818576869 -0.005058212349515204 0.4532515997426161 -0.26207995107745147
94906000.0 0.649467409399041 -0.758542799185714 -0.3096396076826391 -0.9889929489880811 -0.002165022867731213 -0.001755741513150759 0.45539573778987935 -0.2543948016348043
95905000.0 0.6465420008464414 -0.7641707162110309 -0.3270308526251472 -1.0260623696595006 -0.0007542437168179722 -6.575626186617531e-05 0.4574298010955155 -0.2675796368087773
96904000.0 0.6356087687685318 -0.7747786941814748 -0.3491230147392632 -1.0606253676276878 0.004112106974311976 -0.003597034993020614 0.4503579809653356 -0.2799031724736725
97903000.0 0.6276028357527368 -0.7780597962863287 -0.3690144501660009 -1.0916179740663325 0.0011934140899445733 0.002622021535937828 0.44800694894743087 -0.2911097777382513
98902000.0 0.6210414022518406 -0.7848503779861914 -0.38775456303940076 -1.1275002014931632 0.006988329075962645 0.00479966705345851 0.43818870322042963 -0.2995537517374774
99901000.0 0.6124291902019475 -0.7896619368448671 -0.4172464816154471 -1.1566266226836255 0.000924421923973718 0.0001463313962366568 0.4659315331491309 -0.31528274463138706
100900000.0 0.6035055949980588 -0.7936290442108574 -0.4457830250982202 -1.1860574743811025 0.0033041818100382524 0.0041418138708918745 0.46097134648267474 -0.31888969220554914
101899000.0 0.5960292691089917 -0.802241442364081 -0.4710193347358769 -1.226398894450322 0.0008902519764660143 0.00499583523083962 0.45648652301656645 -0.32202285777603695
102898000.0 0.5869067887624311 -0.807306987714445 -0.5084403695488541 -1.2648435049353044 -0.0006558752687716298 0.0016303436076526147 0.450415970874902 -0.35499881396818705
103897000.0 0.5769137509124509 -0.8156652947460291 -0.5452243822959424 -1.2962548321989038 0.003918027333985212 -0.0009739178256633023 0.4585388166488817 -0.33480163881953046
104896000.0 0.5689148235332917 -0.8246518777557494 -0.5859980245695582 -1.3278045884201393 -0.005469686746710938 -0.0017688387843030546 0.43951870659820574 -0.33692782521371
105895000.0 0.5565795227112784 -0.8263492642820502 -0.6360882986683186 -1.3622367459609377 -0.004739996112878547 0.0012146333769892338 0.43161025804463193 -0.36672614423387684
106894000.0 0.5475549730126221 -0.8335269406930688 -0.6923512997701331 -1.3953365884529823 0.0011139550603074108 -0.003253817278249735 0.4266833120041609 -0.3853401993851146
107893000.0 0.5421395751315727 -0.8404300360982809 -0.7391802632787969 -1.4362850278559227 -0.003200416020903052 0.00030209693605211284 0.42776570107785883 -0.38605574963516337
108892000.0 0.5312083212936451 -0.8443414329389429 -0.7970888258039603 -1.4701911116186437 -2.4055461262680147e-05 0.0007522649369170742 0.4207708265342532 -0.3812649306068963
109891000.0 0.5215841431377792 -0.8507342469162908 -0.8564997375546796 -1.5011660749223468 0.000767059254903667 0.0030923238498686764 0.4351139407882774 -0.38895537569970084
110890000.0 0.5092265732891679 -0.8685500440125322 -0.9331126774016893 -1.5172409297709613 0.0016768847402252568 -0.003702837267245169 0.4234740573196726 -0.3943642809500053
111889000.0 0.5006184996086632 -0.8578566569250198 -0.975805153666801 -1.5655472426526487 -0.0013483402036167406 -0.0005040484195657853 0.4138489318844385 -0.40468431078942185
