! Created with skrf 1.9.0 (http://scikit-rf.org).
# Hz S RI R 50.0 
!freq ReS11 ImS11 ReS21 ImS21 ReS12 ImS12 ReS22 ImS22
1000000.0 0.9909456843423149 0.0031388418299464244 -0.005761087357644294 -0.0529662561385189 -0.004254916575335931 0.01739363336606333 0.36403671703732715 0.3403121418546289
1999000.0 0.9947290615501038 -0.009164850225725475 0.006542954062705498 -0.02256444931741578 -0.006164465429859573 -0.0034692820564731007 0.24785449367863072 -0.06361498541593488
2998000.0 0.9992881113418147 -0.021852850968902188 0.010719622443350379 -0.01663986761371673 -0.0020815955701214413 0.0004882004288934942 0.19898410843836598 -0.13694512466308761
3997000.0 0.9984173444074272 -0.030097434578894067 0.006970044638311852 -0.0005885785027200734 -0.0008993266498970459 -0.00022776259620481198 0.08690423508726462 -0.24070308297181706
4996000.0 0.9965171360620939 -0.03665304229517859 0.014716121033020514 -0.004932398884882614 -0.00017732029207969503 -0.0026236469491991055 -0.056594979781676436 -0.19514847217695977
5995000.0 0.9986727247800967 -0.04787949782054104 0.009676076932750383 0.006826904486368325 0.0007174482074936124 0.0009376274115346684 -0.12195697986173518 -0.08805565982379736
6994000.0 0.9974795507846329 -0.05364358637010382 0.007677503821465648 0.0037016413904618546 -0.0006819629571452785 -0.001487020596036809 -0.15319081985146493 -0.022606538042699527
7993000.0 0.997141087765528 -0.06412809477342642 0.0033228372947189605 0.003033229563818865 0.0012801381553286494 -0.004596481866794621 -0.1583725220108279 0.037682869070306144
8992000.0 0.9941974195862925 -0.07243335799593588 0.004093144136847222 0.005666316086629232 0.005084842277325943 0.0042094422041428145 -0.1539278906219971 0.07768611598549961
9991000.0 0.9935107263240415 -0.08297726036430465 0.004425731268115504 0.00800492976519624 -0.00037866654142026723 0.003053020747749647 -0.14156430202789855 0.09338074455563052
10990000.0 0.9932625830076048 -0.09211888152306796 -0.0012800553660940637 0.007386352216610969 0.0015225764780349858 -0.0028155396268450174 -0.14473785771326347 0.1207006623452212
11989000.0 0.9932464059373847 -0.09976039571627648 0.0027568626403384373 -0.0027221252932784295 0.004520237293463416 0.001631286745389213 -0.11515157696434948 0.1432284649349545
12988000.0 0.9922361082790975 -0.109859307080244 0.00019266867379649538 -0.002321316886058752 0.0009546181869233771 -7.19069989181802e-06 -0.11070164070995807 0.16799878662991394
13987000.0 0.9918037200070361 -0.11827820735116305 0.0002543965630645654 -0.004810324037144061 0.0033038296966532437 0.0010105439502273703 -0.10174879009559686 0.1883828010125186
14986000.0 0.989140602662078 -0.12438041663501936 -0.0026866273231705806 -0.0037419523645943545 6.776767723548383e-05 0.0033715596554845517 -0.08194166622294381 0.20897564436854277
15985000.0 0.9910402184754223 -0.13387753695518556 -0.0018393564622945253 -0.005059593364798733 0.0029683900851930063 0.0024152589164989856 -0.06675507042032676 0.20783680323414144
16984000.0 0.9865582238731649 -0.14441924862436542 -0.0015498793407831488 -0.006229615737508501 0.00018246658630236896 0.002154951221680936 -0.05226387054819181 0.22265497590568656
17983000.0 0.9880272100348348 -0.14913706139246663 -0.0014809243596521405 -0.0022262148364182864 -0.004125420135082452 0.0027504322594014727 -0.04445491308123713 0.2281741928074901
18982000.0 0.9856004691188205 -0.16256879029740304 -0.006487483017631228 -0.0079708907517508 -0.002614844584537336 0.00017520554499435298 -0.020620789216897913 0.24085801141940924
19981000.0 0.9840681868233654 -0.16712362945787756 -0.0029785947200526718 -0.004795566366653093 -0.0006289110224256691 -0.0004334241456719961 -0.008466155343875495 0.23806761903756982
20980000.0 0.9824326600971651 -0.17645095306744035 -0.004331910311732458 -0.0026699033234194084 0.004918140190460108 -0.002729237670024546 0.0027961143474850947 0.24731272241750077
21979000.0 0.9796060534960561 -0.1846886101276469 -0.0025698322318226047 -0.0030288601702266895 0.0007070443390411169 0.0039525310798215 0.005738085223194238 0.24588689126427898
22978000.0 0.9787107716932196 -0.19253358780135565 -0.006477800577977865 -0.005505900728704581 -0.0025800706929130124 0.0004862123012351358 0.026974737422623817 0.2549545304366849
23977000.0 0.9801822853890766 -0.19882580892441157 -0.006823760231348861 -0.0015330441390454944 -0.0005105340879740534 0.005462379130270299 0.050714338863617585 0.2570489597000466
24976000.0 0.9749928117429193 -0.2095357100726183 -0.008401794866673331 -0.005085416425283346 -0.002412570231159493 -0.0020667467948742605 0.06550559999854558 0.25123536377236094
25975000.0 0.9738856082814631 -0.22541788736310306 -0.009920916230439803 -0.004128736712445598 0.023716161108859855 -0.007915118096415447 0.08506494320803758 0.2508588321917794
26974000.0 0.9707509680730791 -0.22652943804763978 -0.004232820333984863 -0.004097804171004792 -0.003516808433232466 0.0036801467253419406 0.10532355849424695 0.25241384145705825
27973000.0 0.9715382035980317 -0.23243440244187083 -0.0038750657681304664 -0.005665163219472448 -0.0023628352452916292 -0.002342930278904527 0.1062387147167507 0.2523967237967499
28972000.0 0.9664276415569742 -0.24507014815481803 -0.0030591018334227543 -0.0035331574550746454 -0.00103630823287819 0.0029337800960387065 0.11653205674739067 0.2501523023124571
29971000.0 0.966887160744133 -0.24992648995684585 0.0021097150656657626 -0.0022766033251761073 -0.0002658678937123333 -9.610366518805322e-05 0.14587511007246384 0.2689054770013927
30970000.0 0.9633621555973865 -0.25902111729501276 -0.00026281651942007295 -0.0003711392250947324 -0.00016338564987793662 -0.0007696575714328835 0.18189821946651416 0.2416340270738206
31969000.0 0.9615269334950123 -0.2666527740258448 0.0007343849633861838 -0.00425422141992836 -0.00343866850814199 -0.00012854995923044555 0.15973342576859847 0.23960685594161876
32968000.0 0.9604471834054711 -0.2753012947181639 0.008053062881122773 -0.00933441549387976 -0.0001823350468802588 -0.0006379132634200152 0.16528141189732035 0.24458715365126668
33967000.0 0.9578489726972322 -0.28511773742237895 0.0072474789121330435 -0.007314144546232789 0.0024573267967868085 -0.0034967052543063283 0.19645541674363964 0.24405650842598495
34966000.0 0.9545250440225902 -0.29548218586350017 0.012809764264358309 -0.010636440471396847 -0.0026948832400240444 0.0017465516978427832 0.19781759373379745 0.25088771163484724
35965000.0 0.9513084022676159 -0.3018038654557557 0.014306126375757709 -0.013890067193892536 0.002738677915253472 0.00019045880379729523 0.21375394937982758 0.2446432454034366
36964000.0 0.9490070026909224 -0.3097605681774094 0.01258282918644537 -0.012640406043902961 0.0013466652570430875 0.0025158226817431064 0.22195913904265174 0.2395702267591797
37963000.0 0.9463159487029682 -0.3190291563406101 0.02098625388402591 -0.022941994680393582 0.00013052111134389624 0.0016168812936213205 0.23169958173704708 0.23569043535085896
38962000.0 0.9453845105982732 -0.32638060080504716 0.023258328627368822 -0.025612631242442 0.003400554403617399 -0.003947591078650158 0.24477392684330934 0.22783401303296713
39961000.0 0.9401552424322948 -0.33700658170438297 0.02572656431701016 -0.025455450530146577 -0.0009568503513491987 -0.001572315597334999 0.2576844790913729 0.228590202667148
40960000.0 0.9375393965878134 -0.3434895900253148 0.022822712237817986 -0.02366380154412543 0.0008284466071277684 -3.006040531145705e-05 0.2767190054814173 0.21863213807072215
41959000.0 0.9349856372700095 -0.3530904830490259 0.025747591984100506 -0.03028584062000399 0.0036830608485295306 0.0034522475848827727 0.27507993230806826 0.21717405127314027
42958000.0 0.9284217721174424 -0.362356178315353 0.02960291480069392 -0.03968203886524554 0.0013486956174947231 -0.0008523472552378683 0.2896486367488625 0.19941164844242545
43957000.0 0.929659507698395 -0.3653782616795609 0.032682938965575614 -0.0455315644842395 0.0004507548705029606 -0.0017173561816766082 0.2878351829529917 0.20547178729552576
44956000.0 0.9255840710597568 -0.37225911979217796 0.032960505866127 -0.05104774766225252 -0.0013800735790476407 -0.0018195597617046372 0.3066704580634484 0.1899429437256218
45955000.0 0.9205794178792891 -0.3857631320422279 0.033228351642787216 -0.057512632768838536 0.001507572957480282 0.0002324980641428136 0.31139193129384585 0.1824059310167539
46954000.0 0.9184077147510508 -0.39422847140174 0.03567955183232468 -0.0642840074762336 0.0032451008855555368 -0.0009062050155823867 0.32786050594379823 0.17426889122065548
47953000.0 0.9123506527874736 -0.4031825837040468 0.03481715133109161 -0.07159068747566172 -0.0013224985212584573 0.001163767056274233 0.33943042593501715 0.17515052282985868
48952000.0 0.9102127838837706 -0.4106101203228632 0.037464897018156064 -0.0781397776142149 0.0004269176951590161 0.0005312878320619751 0.3319858855888744 0.1620314799869791
49951000.0 0.9064955787187292 -0.41712054539113314 0.03711227763921375 -0.0848221610849424 -0.0010717706099669312 0.0011511424838442513 0.3594338485191333 0.15103500630888445
50950000.0 0.9019683505577392 -0.42520375133946237 0.0370158152153598 -0.09338963579580091 0.0040857727409039975 0.00033168535452570265 0.3594561691369777 0.14024223646736556
51949000.0 0.8987472087361555 -0.4348172756020271 0.037743403594206075 -0.09910640791979534 -0.0006647847102283153 0.0024685290705216854 0.3652471589427094 0.14076000118740817
52948000.0 0.8964343912677926 -0.44227316831155616 0.03721714720143225 -0.111621193845734 -0.0009758785158068602 0.002396465445297011 0.37580688442084387 0.13976171778744895
53947000.0 0.8913411219754475 -0.449801815603884 0.03982730024613306 -0.12004465265206264 -0.0026586570229429713 0.003177368138390013 0.3763338995949214 0.12572149763536716
54946000.0 0.885292213577981 -0.46133220692706706 0.0420337619424765 -0.12893858168233902 2.8116088693114413e-05 0.0026015851416560636 0.39197179477521094 0.10261446259075728
55945000.0 0.8829750730100979 -0.4663758964695884 0.04289923313862235 -0.1407007282254009 -0.00027578360873460633 -0.0004844188033492481 0.38789900667879107 0.10275701518289236
56944000.0 0.879189734522241 -0.47577868171631166 0.045866576104347134 -0.1508281208743056 0.0003747107676968723 -2.0012112053219033e-05 0.4068126864586465 0.09643542640201791
57943000.0 0.8722875438643001 -0.48673384199908115 0.04567372483633575 -0.16269521328540887 -0.0009492361705891868 -0.0009618737228941104 0.41101289947781067 0.09146605844297173
58942000.0 0.8659672211467964 -0.4918444491292906 0.04595349094572091 -0.17329578076257818 -0.0008969444476860487 -0.0010819586584034386 0.422316810434083 0.09377401497548674
59941000.0 0.8663396395870407 -0.49840870169490037 0.04859169458547491 -0.17812291855556356 -0.0011776268375749165 -5.057542929428733e-05 0.428395477990708 0.07840566471628725
60940000.0 0.8573964921884016 -0.5082313902535182 0.04961269733270494 -0.18541110766815838 -0.0007227700171963109 -0.0016507086693775025 0.4166788879230277 0.06706388025896609
61939000.0 0.8557977369975067 -0.5130259494664439 0.050300980136343695 -0.19278976250779803 -0.002133083325533413 0.002111726061858241 0.4216910495108936 0.06896956035499367
62938000.0 0.849560082079115 -0.5246486523862681 0.05483301513159176 -0.2087429770209734 -0.0013014508696638834 -0.0009551892921469133 0.44114421424204037 0.04730992593592618
63937000.0 0.8439119067091188 -0.531164743036075 0.05243728333999437 -0.22796962715373104 -0.0030991566773696717 0.002624848595941293 0.4408756109307492 0.03106081616785151
64936000.0 0.8381342916853628 -0.5376015018125185 0.052644446076182266 -0.2429540256029769 -0.00025376747618927596 0.004310986817376166 0.43675033705307786 0.03840382390378418
65935000.0 0.836385481445441 -0.5469123292304515 0.055483100487707354 -0.2566880878055524 -0.002353059072673777 -0.001498054179763744 0.45040570993471996 0.011571284717392407
66934000.0 0.8311765282921241 -0.5523344442611304 0.05693829440939927 -0.27058282001484973 3.478047414264759e-05 0.0009422204879915171 0.44118558428015425 0.008550536438081319
67933000.0 0.8285458083043473 -0.5590112602929351 0.05578084561055843 -0.2842682254925109 -0.0029380013272359653 0.0010684393184733074 0.44692666018803706 0.007450516651669769
68932000.0 0.8113256748805627 -0.5575844564194732 0.051145569770984355 -0.29566243061723513 0.00047523865911033224 -0.0018684471177218298 0.4518614108805896 -0.013034065370902303
69931000.0 0.8139655465347931 -0.5780168494077967 0.05296417451027588 -0.3166875620343891 -0.0055013788517121135 0.002618469636817412 0.44663260577748 -0.019899194000215233
70930000.0 0.8094770834244427 -0.5830939674089057 0.05307582838551395 -0.3281846516575714 -0.001424690940192149 0.0008224490184099013 0.449971934649852 -0.03833517448648549
71929000.0 0.8045980009667145 -0.5930568137888366 0.04430693993335971 -0.34714457739828175 -0.0035378483043078286 -0.0034738306729900086 0.45479419431508644 -0.04192136649611256
72928000.0 0.7985944791620501 -0.603434118512447 0.04390439739607315 -0.3586824392279857 0.001660993082477719 -0.0020508848122118327 0.46827497761009723 -0.0473341902577086
73927000.0 0.7914503777037208 -0.6085576010515665 0.037830606198122146 -0.37719666687627634 -0.00036944591434429915 -0.0021735048670288976 0.46230722877714114 -0.06456852121552777
74926000.0 0.7885248053385473 -0.6173384540451098 0.03565135419214725 -0.396287540295372 0.0028268406553515666 -0.0010972708078462335 0.46913507433681495 -0.06345442057950827
75925000.0 0.7802210089862618 -0.6214327525947273 0.02385015662537565 -0.41509178306509686 -0.001168045540930156 -0.0016326823980533321 0.4778652619613777 -0.08037318197373973
76924000.0 0.7770653073747202 -0.6308752579192114 0.012055853388911015 -0.4398901412300065 0.0010284355188296594 -0.0017519112545247744 0.4651395650020171 -0.08317099081851972
77923000.0 0.768840648883007 -0.635873332107234 -0.006622056106617403 -0.46274114848571746 -0.0008480878331185449 0.0010770135014159716 0.4642338476185316 -0.09801806086275118
78922000.0 0.7630517277868196 -0.6474185114178844 -0.015912045952431536 -0.488134160613143 -0.0008358061860613777 0.003300246374768183 0.4709839614071346 -0.10473570968033166
79921000.0 0.7546036879069323 -0.6512013700862869 -0.03466242758131552 -0.5104844301062081 -0.0009342975967612817 -0.0016288281423115494 0.46582283837413857 -0.11873154466720794
80920000.0 0.7517816841316693 -0.6619583394966414 -0.051564622300383875 -0.5374781900712519 0.007492186121060056 -0.0008828081510130451 0.4619212915674861 -0.12581683219118758
81919000.0 0.7453671342295145 -0.6659901623871638 -0.06686428777169263 -0.5687035533788972 -0.0004096716977151416 -0.003614735479836968 0.458485683761796 -0.13846165286272727
82918000.0 0.7353516337177419 -0.6752672956975245 -0.08277654444963652 -0.5937331261989491 0.0012592577702318047 -0.0037221235675936153 0.47271135440087103 -0.15949937764923758
83917000.0 0.7278127644827778 -0.6816516738048376 -0.10377812254638646 -0.6259548255159849 -0.0020598063013406885 -0.003578791677180608 0.47397949042216386 -0.1411066966700938
84916000.0 0.7237779037028076 -0.688041760468483 -0.11927814647438598 -0.6600888297575069 0.0005797977130454908 0.00039007299204023185 0.468846257731469 -0.17819076757283742
85915000.0 0.717470255052573 -0.6943561271219516 -0.13975969260624752 -0.6908415749248211 -0.003505202802689175 -0.002639404969499746 0.46361151116407157 -0.183745411910518
86914000.0 0.7095638881701797 -0.706766599668389 -0.15925381998015598 -0.7267364785957342 0.004887365365132492 0.0011298624417898605 0.46254963283261685 -0.18242408537912785
87913000.0 0.7038425572476892 -0.7096853776935477 -0.1697949109907501 -0.7592433642743566 -0.0004995636517753455 0.0010474489093645002 0.45394166412520925 -0.1855613633282418
88912000.0 0.6950496045193402 -0.7183819686089766 -0.19482672834719308 -0.7899632926399359 0.0018978534843164742 -0.0031433484927172513 0.46313727408081584 -0.20718651706853722
89911000.0 0.6887876515472725 -0.7244857625523037 -0.2047539494851692 -0.8264967875631608 0.003341370908180379 0.0024384178168160246 0.457988019799954 -0.21156218894858528
90910000.0 0.6805758210534815 -0.7337279246855605 -0.22864515929486515 -0.8622697768007561 0.0004644673480059909 -0.0007165478612488365 0.4709918812831471 -0.22531115744534683
91909000.0 0.6725626167313198 -0.735047970560779 -0.24248966701339847 -0.893908018026313 0.0006723824764585724 0.0016816343093587374 0.4677359686470659 -0.234524052488846
92908000.0 0.6629805176071503 -0.7451450063701393 -0.2585001830129483 -0.9240022322068665 0.00013015643738715138 0.00035472948804925213 0.4557195282075829 -0.2353362503743486
93907000.0 0.6596903178301444 -0.7522465210535461 -0.27963431251700543 -0.9589243828306493 0.0033564538051412654 0.0013880310632160653 0.461825472361201 -0.25211580985403037
94906000.0 0.6451495790216956 -0.7586330368301455 -0.2961785290886044 -0.9898139679191796 -0.0005510991648746001 -0.002468093751227963 0.4565972887459223 -0.25705880169111667
95905000.0 0.6400061830159173 -0.7646851695968716 -0.31613197162125584 -1.0270016810365294 0.0013152130137867458 -0.0017908547464733106 0.4579207724032974 -0.28022047108405096
96904000.0 0.6315098830970454 -0.7727800856024669 -0.33291747211622535 -1.0654842808079068 -0.0020082511419875874 -0.005008127487914574 0.45299108994336473 -0.2852084281800284
97903000.0 0.6219569751956932 -0.7798566921014553 -0.35415473063364583 -1.09369478807335 -0.00014388562816442272 0.0015473002869211166 0.4603829046842483 -0.27738901356126994
98902000.0 0.6168543424591406 -0.7857150376257929 -0.37467759866571065 -1.1331649827571872 -0.0026383082266133763 0.0013706445654086184 0.44747219447895586 -0.2857391923506251
99901000.0 0.6072242443073063 -0.7909894681001894 -0.3981709229863936 -1.1646766549189365 -0.0006720324225461469 -0.002347140405478709 0.44747747920085756 -0.3150025288676999
100900000.0 0.5995605734882837 -0.7946948857973104 -0.4292588940129883 -1.1940678963973304 0.000183868452552152 -0.0015034935070575186 0.45851364287171187 -0.31276821861166176
101899000.0 0.5888385857926681 -0.8040330214006702 -0.4568263601006075 -1.2316652548636056 -0.0027820982703691236 -0.002183049051329156 0.44939391875862483 -0.3210433074505159
102898000.0 0.5781651266993874 -0.8102400586947559 -0.4925864262411014 -1.268097545130902 0.003498233960681889 -0.0014359603475137832 0.44338943207430986 -0.3391004462380151
103897000.0 0.5716536085392308 -0.8168351456824541 -0.5262852604841577 -1.3032914351433922 -0.0012413817544562292 0.0022432199460380997 0.44578289438516283 -0.3491491141096978
104896000.0 0.5631719844915289 -0.8256496962464609 -0.568317105650193 -1.33304961531872 0.0008690086223057399 0.0007810823247304217 0.43100666848271313 -0.34925557631114873
105895000.0 0.5545895942809945 -0.8294793960432302 -0.6077001756285533 -1.3742633720164508 -0.0001768360095397049 -0.0023403589637487395 0.41623726791395965 -0.37039562927162434
106894000.0 0.5429014615896317 -0.8365248273547186 -0.6621568579453708 -1.4070271319771745 -0.0010250351334099325 0.0031365657375155205 0.4295945048087596 -0.364460695405028
107893000.0 0.5367193248111257 -0.8423208434559182 -0.7051710353373967 -1.4514804725624744 0.001551645657157819 -0.0008632803260953422 0.4337573657557791 -0.38002691721193554
108892000.0 0.5267749106645625 -0.8447802622838333 -0.764065196577346 -1.484545784645331 -0.0014100080684722185 -0.0009140789487414334 0.42888087794134017 -0.3742944176290441
109891000.0 0.5158113252979477 -0.8535083967298592 -0.8212748918097502 -1.524770793565998 -0.0025278603746861474 -1.4472520015858006e-05 0.44655545811067565 -0.3677014256112758
110890000.0 0.49933580225829305 -0.8687766194189775 -0.905701547335398 -1.5281294764365572 0.0033042391312159618 -0.0035157493814180194 0.41437302916979496 -0.3858810007109035
111889000.0 0.4976509582299955 -0.860365675092729 -0.9429090173312484 -1.5899688686057407 0.0018387469547420823 -0.0013442504341553026 0.4151712626661417 -0.40471326426520987
