! Created with skrf 1.9.0 (http://scikit-rf.org).
# Hz S RI R 50.0 
!freq ReS11 ImS11 ReS21 ImS21 ReS12 ImS12 ReS22 ImS22
1000000.0 0.9813897089800463 -0.00041340544265690304 1.2241618934435879e-05 -0.0518130079866459 -0.0065406174552142165 0.005555869936980805 0.3659690745764387 0.3217407333905129
1999000.0 0.997576379843108 -0.0070018551268120266 0.012937742067925818 -0.026168220624142986 -0.009517777749207531 -0.0003608292743098893 0.2536003211793733 -0.07802500729592209
2998000.0 1.0003359851734328 -0.02062826898185115 0.009413686026096935 -0.014120447138251937 -0.00785273529981375 -0.006010107177002674 0.18890046791881251 -0.12903509843857866
3997000.0 1.0026406583447938 -0.027834431630057114 0.013481568520436887 -0.012839725573343268 0.0010093120352604324 -0.0013903703850335865 0.09478889746840531 -0.2439160405089508
4996000.0 0.9985274042403554 -0.03929460487468895 0.011556962935144995 -0.00072973165652435 0.0009823790982357934 -0.0014101113015554587 -0.05148491376432311 -0.2150995315738512
5995000.0 0.9998834872951279 -0.04802561223528262 0.013341727336350716 0.00398138079457015 -0.0007586106118986339 -0.00044061632010149177 -0.12262054756790004 -0.09560824213313601
6994000.0 0.9970203106788033 -0.0596429309822425 0.008644371626744285 -0.0010016816057202775 0.003327075308653525 -0.00837571557011985 -0.15654874308639677 -0.026260619282670115
7993000.0 0.9980750721352273 -0.06603057516416833 0.004321722878236624 0.008578468484329013 0.003393753899369936 0.0019015900338956754 -0.16341604050342753 0.02503555797644886
8992000.0 0.9991439244789176 -0.07104520152520381 0.003073280655633751 0.0066059325676400445 0.004659924561245682 0.007244490448168129 -0.14861743014903747 0.05948779886948216
9991000.0 0.9955306833775821 -0.08237653517601012 0.001148262200478367 0.0037510649294637084 0.0014097313011016911 0.0011512869454198347 -0.15253776797746726 0.0983545563276677
10990000.0 0.9980357234313934 -0.08976316203535409 0.0009019984253425365 0.0034157090286907614 0.002879768373560207 0.004589779774100539 -0.13842869224638926 0.10475533917158808
11989000.0 0.9952117750259014 -0.09988431644054309 0.0013528686598386283 -0.00017186372160067333 0.00044791344493673246 0.001025380988517882 -0.12359634009791881 0.13862352013420948
12988000.0 0.9944671608128425 -0.11039363899176494 0.0012459187747531726 0.0008312578507650637 0.003706761159233764 -0.0035056242340125335 -0.115544427361147 0.1634835161561698
13987000.0 0.9929434632206032 -0.11715953876434758 0.0008833758615162376 -0.006175061220444656 0.00023557715214333517 -0.0004950394462879052 -0.09319964493704525 0.18485744232183
14986000.0 0.9905532491348766 -0.12481340617633638 0.0029474896325635083 -0.0020246417212017136 0.0005849893124021073 0.0019693868988726695 -0.08363028279294596 0.1994359869863558
15985000.0 0.9916195049820354 -0.1329405566228114 -0.001225150924049324 -0.0024951385763322016 -0.0005855785912948856 0.0004544703757277226 -0.07681035871501564 0.21656065686202242
16984000.0 0.988729291138618 -0.14613499683691825 0.0014576044983405207 -0.00508717094150742 0.000781601122287026 -0.0047635082649052545 -0.04669736351587098 0.2051484242044199
17983000.0 0.9883857090100501 -0.150797761089814 -0.0009492069383022464 -0.005533423260729192 -0.0006301893665974096 0.0013700907231375431 -0.04837363768281928 0.2241654790602945
18982000.0 0.9853684750431149 -0.16362168191045612 -0.002431028717364845 -0.005493123766186907 0.0022007698489714535 0.0017699509553538951 -0.026514423617266678 0.24297376699243506
19981000.0 0.9865517797139974 -0.16514104141352695 -0.002712180628816394 -0.0023688052324269105 0.0031637516468043356 -0.004541161346147354 -0.01317105832140137 0.24921540748095483
20980000.0 0.9845702108848221 -0.17640671925472937 -0.0039747724036271895 -0.00712576353602642 0.000708437022371841 -0.0005631438628609208 0.0005108462385598148 0.25230382935143125
21979000.0 0.981404829529875 -0.18481993331736973 -0.004121760568617001 -0.005522914594984614 0.0010623971429293399 0.00011996018986137027 0.022392836757891832 0.25197257397680095
22978000.0 0.978445388235795 -0.19491624275340505 -0.0039760143791012816 -0.0051653904944815015 -0.0005508340781226966 0.0006272005198185976 0.037822234773860576 0.2552366793776924
23977000.0 0.9804032690832908 -0.199703475835541 -0.00992072952825512 -0.0027136904661561787 0.00038974677088298354 0.0012476490906145393 0.041646665466652834 0.24692519860419007
24976000.0 0.9773691108371644 -0.21116849071149477 -0.004573627916820669 -0.0019083099770421546 -0.0006704493447075488 0.0029909881986863837 0.06551219711804343 0.24956014274873026
25975000.0 0.9698080487822577 -0.22322462916342858 -0.0017421188170600914 0.0018233098880182568 0.007310887449029185 -0.025587142986508427 0.0880427268383949 0.26437090379241773
26974000.0 0.9729542336023825 -0.22742901850951272 -0.004949308176512724 -0.0011366013684244334 -0.0007498169889696935 -0.003072219530040362 0.08626523129885333 0.2583092459320134
27973000.0 0.9726204443872485 -0.2330187643795046 -0.004059099938409461 -0.0008673060470562332 -0.0011801793029945652 0.0029836150759243833 0.10871094342395618 0.2611922571074292
28972000.0 0.9664749389737476 -0.24536507010104544 0.0006900020966739823 -0.00026959861274589007 -0.0023673926166893947 -0.0014087631801138689 0.12227488793092213 0.24776518648002274
29971000.0 0.9670653077849836 -0.2511043234051042 0.0023039427640163665 -0.0010397342482753112 0.00017003770554115816 -0.0010644383292118423 0.15293372894142468 0.26287454302208657
30970000.0 0.9648346916035487 -0.25807491662361365 0.0012247194072466368 0.001111250806259976 -0.0020799666648316888 -0.004420307713959396 0.1677720965384287 0.24669096330246912
31969000.0 0.9633029069353064 -0.2661872084135305 0.007308989131311705 -0.004849610326208424 -0.0027784712593888787 -0.002417606522151605 0.15306679719611127 0.2437040724939256
32968000.0 0.9609414622862041 -0.27512633647154117 0.0050460395049537745 -0.008917447190919935 -0.0018675213649358125 -0.004880381013405437 0.16562288125343239 0.25613075078036107
33967000.0 0.9589061270897143 -0.28427877997980167 0.01074946430650045 -0.01041788890146525 0.0007073108926482585 -0.00032664909363738293 0.1957491081348767 0.247903189742287
34966000.0 0.9554040407191535 -0.2933550448697175 0.01215180941246553 -0.01148221991833958 0.0014489021892727947 0.0002875819363181614 0.19847819720917995 0.25402412041692785
35965000.0 0.9525568154937323 -0.3008521499431902 0.016770931743445298 -0.013309879130055949 0.0008598158610720873 -0.0006356731447637732 0.20988760797794662 0.25717481949307514
36964000.0 0.9512086589632246 -0.30911188361721675 0.015904272041680812 -0.013637512186400056 0.0014822439294677663 -0.0015145210789407836 0.21248518906783523 0.2570278465532603
37963000.0 0.9464266331721959 -0.32071745902326854 0.02357767880929612 -0.019061030849502045 0.0014734659390167864 -0.0018614643077581102 0.22254628798835796 0.23823239493948514
38962000.0 0.9444664378962373 -0.3283811905965278 0.025765093789484973 -0.02664668889654103 -0.000676868276679826 0.00033971758894187765 0.2378975374318296 0.23124327668685035
39961000.0 0.942829424324046 -0.3328851130086593 0.0257800824576226 -0.030898018702308083 -0.0009684812383306287 -0.0016478983372167021 0.2579351077671158 0.221855806609082
40960000.0 0.9381156049680698 -0.3432563328656771 0.02334744350857591 -0.02300426783498785 -0.0003089990243924118 0.0026988006521454187 0.27178024546494056 0.22737090517481928
41959000.0 0.9365626620058647 -0.3519723730443749 0.02884246472068522 -0.03334482263929482 0.0004172014535018936 -0.0026155573326149643 0.27033838462812415 0.21408070832435233
42958000.0 0.9296120067680145 -0.36296901310269564 0.03492341449128874 -0.04310489151360486 -0.00044919629174815804 -0.0035768361067283617 0.2821792335337094 0.20534411568712727
43957000.0 0.9302361753846328 -0.3644510074643376 0.03370478301983206 -0.04881729487165425 -0.00115041453528268 -0.001150335400398656 0.28452965632220206 0.20815043223152235
44956000.0 0.9271474185668359 -0.37255143737993074 0.03442215226002968 -0.05264302208039858 7.486485576932111e-05 0.002130503134385547 0.3074584597779912 0.189311794537333
45955000.0 0.9219298535179766 -0.3856201334906183 0.03485892403026243 -0.05988079158513515 0.0013288739139737818 0.0006668405574805735 0.3136792368046205 0.19031153652805913
46954000.0 0.9184942189320711 -0.3936645582642214 0.032334864092284955 -0.0648373720410803 0.0010509030940324604 -0.0005136586742935446 0.3315862738666136 0.18341540762775385
47953000.0 0.9147145512995828 -0.402324263353334 0.03796643812276392 -0.0722920837358444 -0.0033178504469150373 0.0016614690224935548 0.3363729834038601 0.1734109509949889
48952000.0 0.9099548272223693 -0.409969323661793 0.038035601795073114 -0.08174196856662208 -0.0005379032238563772 0.0012909166294803533 0.3451437228689447 0.15716196028672183
49951000.0 0.9076143081816992 -0.41626815088816926 0.03695945594257725 -0.0887456195502555 -0.0033029625888394767 -0.00015077968915351382 0.35546608869381346 0.15191591604806234
50950000.0 0.9038836661629983 -0.4254918626586617 0.036339993607714706 -0.09652971291183485 -0.0005417663934068342 -0.0004935001519634532 0.3602245057618503 0.14986613779847235
51949000.0 0.9001144288011785 -0.4331881524348606 0.03927548715616407 -0.10261793909709936 4.393139726198192e-05 0.000915153217596141 0.3604969926306894 0.14040568352181715
52948000.0 0.8978165040128925 -0.4407152205076062 0.040626369961197124 -0.11487588808856253 0.002983634640328294 -0.0005147148590258991 0.36763619572029327 0.13196762366698217
53947000.0 0.8922513534007831 -0.44784990788261964 0.041923304242455356 -0.12472754358474526 0.000924570981448983 0.0006274677182194032 0.36629463201868456 0.12148959138253973
54946000.0 0.8879927743623154 -0.45621915485906345 0.04163095050775811 -0.13124161032047188 0.0003886513621657216 -0.0016474782627433145 0.39075956571320797 0.1148993815970526
55945000.0 0.8845467038825339 -0.467106804398678 0.0437317603452393 -0.1409138690479633 0.0012366444804187775 -9.583463596096772e-05 0.3943383479742758 0.10149305005668606
56944000.0 0.880857547128407 -0.47497180433361114 0.04443354407886905 -0.15202498267666797 0.001059641507070717 -0.0012088844946862788 0.39820430876873797 0.09900257419633877
57943000.0 0.8746179071396343 -0.4846582526839772 0.04527900657296861 -0.16266537484435664 0.00046566790478429736 -0.002262780203550005 0.40670918071479323 0.09323616195656963
58942000.0 0.8703548664481592 -0.48880024254802373 0.04827725546159942 -0.17604518569542157 0.0008759274712882189 -0.0004905766641082984 0.42914507276053726 0.08512972532907133
59941000.0 0.8675295152724922 -0.49692699563323656 0.0492129845149681 -0.18526470546525992 -0.0004736861164219474 0.0009754180803502123 0.42254151326798406 0.07943048566899269
60940000.0 0.8594492975761051 -0.5052277466261523 0.04977640358744722 -0.18925276281433667 0.0028318614983595756 -0.0008302393860957569 0.425163323345959 0.07082271750525758
61939000.0 0.8579573762973518 -0.5125262774794718 0.05106453950652392 -0.198007123217794 0.0011634250137264475 0.0011979910627528134 0.4218667341182322 0.0648392383180643
62938000.0 0.8519669295228821 -0.5233877692106994 0.05185289777742603 -0.21479985231813778 0.0006973702430258162 0.0018526037457025487 0.4431015795619823 0.05502389377966834
63937000.0 0.8480778584483689 -0.5295083387659049 0.05201063902660614 -0.2340442734504181 0.0025644069304327655 -0.0024666457604707657 0.4386897437635434 0.03667743100650049
64936000.0 0.8415697255381003 -0.5371527443686077 0.053629459154436496 -0.24576051479691086 -0.0055163535660800855 0.0006524130622324586 0.44573338501040893 0.02981248517441899
65935000.0 0.838874492246158 -0.5441902063026773 0.053680308891270026 -0.26482331192660863 -0.003402281218927879 -0.0012794890354475997 0.445026363183501 0.013321035734008713
66934000.0 0.833358665691756 -0.5518361929499153 0.05039028312054122 -0.2741472730684033 0.000694467082351566 0.0018379026715727095 0.44747412265279146 0.0029845958863085054
67933000.0 0.8305360090159167 -0.5608231104875342 0.051911431083309686 -0.29009830709282464 -0.00014012379957409557 -0.002874463774128475 0.4499281375661454 0.01231751143168587
68932000.0 0.8261600254900909 -0.5563200941321571 0.05371890949530273 -0.2992205253185107 -0.0010359496926747385 0.0010034122315420093 0.465466082596061 -0.007813332534005346
69931000.0 0.8171131451810285 -0.5750460468626556 0.05052444004689813 -0.32217219278843323 8.192590233241693e-05 0.004680074010872907 0.4540516715189522 -0.02655493851782653
70930000.0 0.8109903938729618 -0.5809185466481325 0.048213797005533306 -0.3372431170143569 -0.002582078513856119 0.0019459666238871047 0.45514928870499055 -0.02930144850670612
71929000.0 0.8072698429048198 -0.5900674726142999 0.0455249193225223 -0.3543141321409123 0.0010520916902941823 0.0019961145186872245 0.461378948422192 -0.0430335107803475
72928000.0 0.8017013910977013 -0.599070665037949 0.040249323478431825 -0.3668604504377224 -0.0024830331993733515 0.0031502583060774142 0.46210371237187775 -0.048295770087750815
73927000.0 0.7939231027372144 -0.6066651188432662 0.03343563815914274 -0.3909728426507229 0.0005230583284131729 0.0017998044732641422 0.45950705142292086 -0.0572362961818213
74926000.0 0.7912791240028775 -0.6154067147523163 0.02881670231623429 -0.40843628612519245 0.0012935200372285168 -0.000789869076478714 0.46611702447338627 -0.06324027954687295
75925000.0 0.7823244044817491 -0.6197782471128496 0.014944648846816134 -0.42981806503273606 0.0009187302230554845 -0.0008187133952638246 0.4729679158702123 -0.0717394404173027
76924000.0 0.7763113910727686 -0.6300619116155673 0.003444518846104283 -0.45131479750631803 -0.0005326346776469658 -0.004556661792304638 0.47529622608602157 -0.07675439237193842
77923000.0 0.7720572848362871 -0.6332450265420331 -0.009793293167235631 -0.4729202769113422 0.00149194810883792 -0.0029667291709616762 0.4701586769825133 -0.10395888546946193
78922000.0 0.764926715986212 -0.644157084850853 -0.0214874555158689 -0.5015458066303152 0.0025003422363077316 0.0011442951148705703 0.46843112250919844 -0.10934500534899776
79921000.0 0.7578831674890042 -0.647336149824675 -0.03853664303870551 -0.5264752195935887 -0.0022584894650697234 0.0010013148275487963 0.46085870960672065 -0.11654660288755009
80920000.0 0.7534176925405739 -0.6591599216425686 -0.056346126107176715 -0.5555375001883528 0.0010587536425441697 0.0018574296671474409 0.47713603537540744 -0.13828542248276907
81919000.0 0.7462454013476089 -0.6645874625371337 -0.07189909242971448 -0.5809265078112578 -0.000837046797434761 0.0007479593173891281 0.47658769314898747 -0.13492325193207635
82918000.0 0.7393741219102155 -0.6731779922869566 -0.08506018574600188 -0.6171186539336302 0.0009581543113600954 -0.0006183259143332594 0.4779378517932062 -0.14122836834466124
83917000.0 0.7315605016419648 -0.6810242033388805 -0.11214370782170942 -0.6422913446373064 0.0037711904190624885 -0.0014323133163422351 0.48320085776315574 -0.16294487961562495
84916000.0 0.7258437043920153 -0.6886278897310772 -0.12940010139503125 -0.6792175409159834 -0.000363002096800545 0.0005270743266697855 0.4710138806692075 -0.16877348007590978
85915000.0 0.7180240030200119 -0.6944007274421002 -0.14891895231035257 -0.7043208207001884 0.0006102315131526685 -0.0006041368078973542 0.4745572865985187 -0.18286020168765915
86914000.0 0.7116058890572149 -0.7050697916717825 -0.16316195658341717 -0.7471748448046621 0.0018635099933110159 0.00018515213421242953 0.47159630650733336 -0.17496420217473438
87913000.0 0.7041387618879045 -0.710438313820397 -0.18529267336280902 -0.7742863183545627 0.0004790254878115845 0.0011188359530314863 0.4586014720400045 -0.18712403898147612
88912000.0 0.6984046003094787 -0.7172246042548716 -0.19912328405748814 -0.8111517875140021 0.002833623724901578 0.0023778487232527863 0.4709091108493606 -0.21653688953401132
89911000.0 0.6881578355949926 -0.7267716982176832 -0.21430730989890343 -0.8497365456256988 -0.0009058662603721395 0.0018837310978097152 0.4764208149927402 -0.21363372711642034
90910000.0 0.6814836899222507 -0.7309914256234156 -0.23182021120930255 -0.8850362085224955 0.0009509638146551741 -0.0005568299641869852 0.47050018273533695 -0.217291435970253
91909000.0 0.6731286297814616 -0.7353836999563779 -0.25204097198041703 -0.912639152093075 0.001097436937957178 0.0005028634087465233 0.4719622828821537 -0.22832225742722922
92908000.0 0.6655999790312259 -0.7444656339775743 -0.2715934898416256 -0.947875252801046 -6.351306528723059e-05 -0.00051495102297871 0.4652245592776023 -0.24437840157624544
93907000.0 0.6608797373678674 -0.7496280231705446 -0.2901412447610175 -0.9833970561586642 0.0008326975798806504 0.002331084793794706 0.4596847956938394 -0.2482843260153833
94906000.0 0.6475825391664298 -0.7596477377388544 -0.30728170123107085 -1.0141721539430764 -0.00035547318701132714 -0.002724293771690566 0.46211125410065035 -0.25365303436687703
95905000.0 0.6400021426069026 -0.765382829739846 -0.3306439801064491 -1.0510439775101543 0.0027136132673959827 -0.0010191029529505345 0.46151467511819494 -0.2658255130335441
96904000.0 0.6326666636241025 -0.7734810276915309 -0.3511680979412888 -1.0893867481699497 -0.00288628909225265 -0.00038411624939251347 0.4557075716739974 -0.2822946373489736
97903000.0 0.624376238967721 -0.7787511733086013 -0.3727518901548756 -1.1233319738665715 0.0006918665034572007 -0.0009695720194446142 0.4469333712118479 -0.2886976963039584
98902000.0 0.618445966145764 -0.7861896943861784 -0.3945027330056531 -1.1595203180311549 -0.0004775392429523106 0.0018396679679508839 0.4439272222262241 -0.3042095225243757
99901000.0 0.6102629129293808 -0.7917848887469039 -0.4209852625997658 -1.1929375609908535 0.004388587082145664 0.0006200806180975295 0.4579063901719316 -0.32082383705035195
100900000.0 0.5992136639571093 -0.7952928981526848 -0.4570756736870986 -1.2199948146399988 -0.002753645863037537 -0.0001809356468613867 0.46240215607700214 -0.3186716924239424
101899000.0 0.5909398871757068 -0.8027579165039501 -0.47732954923218 -1.2575822296954597 0.000441698413166964 -0.002075245016257547 0.4464250524680689 -0.32439004585511233
102898000.0 0.5812244414099274 -0.8088537241384983 -0.5191103516702217 -1.298088271177973 -0.0013164551942634387 1.9983518654431457e-05 0.4466830211708917 -0.3379905260323797
103897000.0 0.5738058319813514 -0.8173528079808554 -0.5550205554429276 -1.3387901306776295 0.0018889309254695803 0.00019812679762009727 0.4609281938761394 -0.33695254478350517
104896000.0 0.5655929888748097 -0.8247127588013049 -0.603172770971339 -1.3662042222990516 -0.0018972436052578693 -0.0008197671581077906 0.4393007943482999 -0.34073602009466625
105895000.0 0.5540963742414927 -0.8289667714314198 -0.6510092603653245 -1.4154118111516496 0.0006691653116151047 -0.0007417248783451045 0.4390539865293877 -0.3659281046075201
106894000.0 0.5469062755927914 -0.83507639758421 -0.7102823987053825 -1.4448933517852893 0.0014789163969536174 0.0006737998233531459 0.4338463439035779 -0.379948823029495
107893000.0 0.5382587368032483 -0.8410350235935311 -0.7555973388613236 -1.4820479804411484 0.0009891843125352997 -0.001376250814819038 0.4330082251225381 -0.38872325289494747
108892000.0 0.5265556890645197 -0.846729976080798 -0.8156826276484116 -1.519966779911187 0.00434952230447048 -0.0019311046725161737 0.42276354327714577 -0.37593414492534843
109891000.0 0.5174996004581637 -0.8519034394147267 -0.8708980376981392 -1.554409272628522 0.0036161414537518137 0.00032788585577291025 0.4307362037628763 -0.39297019768036595
110890000.0 0.5138657293168188 -0.8648466325648113 -0.9417790921505391 -1.5787732574971323 0.0017507335180937066 -0.0015519839279848336 0.42740436103321966 -0.39354294197048595
111889000.0 0.49546102173415846 -0.8602818529942055 -1.0032720339943852 -1.619742996961175 0.0016950325368633703 0.00047501855315190244 0.42089540614956833 -0.4158038454213596
