! Created with skrf 1.9.0 (http://scikit-rf.org).
# Hz S RI R 50.0 
!freq ReS11 ImS11 ReS21 ImS21 ReS12 ImS12 ReS22 ImS22
1000000.0 0.9902358215900515 0.010016079206869592 0.006535081054344668 -0.035714525217637225 -0.005636221735890339 0.014933972645491128 0.3069864934306845 0.340558966553712
1999000.0 0.9954231233240461 -0.016242577789283712 0.013437699955863355 -0.028227884337055618 -0.0039578447814420424 -0.0006498552311345895 0.26168918694920396 -0.06462791816254458
2998000.0 0.997053498052686 -0.02044185722758051 0.009845744911110045 -0.025349495071802727 -0.0020898488430099206 -0.0008571606103753812 0.19823017674057514 -0.14705802479089797
3997000.0 0.9987304163846585 -0.02865055947126643 0.014080588938982171 -0.0075411753038576775 0.0008755927152185489 0.0012961759578854289 0.08833691878667913 -0.22490226142901643
4996000.0 0.9974394708460328 -0.038138527706192915 0.01582020552453415 -0.0026856374516861397 0.0011811873676696924 -0.0034509852535989692 -0.053670569715680086 -0.1990904244059827
5995000.0 0.9960354493757492 -0.051745925868704266 0.004958915198587783 0.0001862648311278673 0.00048244247670130373 -0.0018471648569140526 -0.13467106379517088 -0.10360287844107909
6994000.0 0.9962524681138863 -0.06084573023211835 0.005540664730412987 0.0013896225392737336 -0.0034251321444616948 -0.005920106809059717 -0.13993041437749723 -0.015894835898238164
7993000.0 0.9964848945896677 -0.06806465717175751 0.005484365240041658 0.002569956241266144 -0.0033599863440468944 -0.005642447655859855 -0.1697221990148984 0.0356296091882471
8992000.0 0.9953610862598309 -0.07382047906956149 0.0017326909193102916 0.008617968029172519 -0.004272288999497554 -0.0029234205049517245 -0.15664284604583645 0.08251166231794377
9991000.0 0.9942646507364702 -0.08261292619030519 0.002370716970213197 0.005877415097910234 0.0019231850409495903 0.002437989658728626 -0.14149982105838654 0.09610677030102815
10990000.0 0.9919544576443399 -0.09435323445713706 0.0054855496249597725 0.0015706572347599257 -0.004630619962948972 0.0002939764035827645 -0.13774067376479837 0.12082225507256264
11989000.0 0.9903594573926853 -0.09870384467621371 0.002259054790419365 0.0016410144854885707 0.0019045871952049521 -0.0007490689580921991 -0.11815977376748375 0.13778637526336576
12988000.0 0.9892190652625418 -0.11032373838437094 0.0007221564407362665 -0.0012872810443442903 0.0010211399504734078 0.007552195191283601 -0.11105685842412627 0.16699291368786753
13987000.0 0.9886090805005785 -0.11656617510153108 -0.0008956648189524681 -0.0011291368536129013 6.401844953156575e-05 -0.0008115011131852035 -0.09151987839811629 0.18343477489242332
14986000.0 0.9882760357079587 -0.12402843228615609 -0.0031914870787209965 -0.005816179285094032 0.00016102137341890774 0.0002755579648246239 -0.0761619740773998 0.20542099196039698
15985000.0 0.9894812694446549 -0.13271767148045627 -0.003989003161306374 0.0006179347660948918 0.0005569353070890861 0.0015502947617684144 -0.07580480579726066 0.21448276650649487
16984000.0 0.9855412891754921 -0.14532906663950312 -0.0010921413371144273 9.117964515675071e-05 -0.0004949685154914952 0.0017162059532317634 -0.06542980431176955 0.22114792787291393
17983000.0 0.9898797365570484 -0.14928768172474402 -0.005014239427141741 -0.0038705031639177452 0.00221254913243913 -0.0020310034135478097 -0.06371385495381637 0.23569364810349483
18982000.0 0.9823662426567266 -0.15831656497506993 -0.002611010904745481 -0.005661943787587455 0.0006482985518032959 0.0014090616397112474 -0.030172873332481396 0.2347103269114975
19981000.0 0.9831562448604607 -0.16408172037700522 -0.009039218681900076 -0.00668442037709992 -0.0023374963245745297 0.001403561716990231 -0.0027442360230138505 0.24744143452570752
20980000.0 0.9833463771164688 -0.17419025113913691 -0.0016706282448297719 -0.005545719567024373 0.001468579655783998 0.003410519056377981 0.00793833095649264 0.25989982217821
21979000.0 0.9793282042244466 -0.18347160200020235 -0.006269820962250332 -0.0027249389967164976 0.0016905590135473769 -0.000512679277827493 0.005200506022310796 0.25136902688667806
22978000.0 0.978965218060341 -0.1922475492615419 -0.008109631462168173 -0.0064898267081881416 -0.0012186813171775662 0.001220885271457704 0.02944869367228813 0.25602772831440684
23977000.0 0.9803485986368496 -0.19644191192503946 -0.006889362965525789 -0.004247704987654121 -0.001093193732612193 0.001934874348240066 0.039528484750051766 0.25944766580126505
24976000.0 0.9744960291526978 -0.21067854516923232 -0.003484010949040817 -0.0022634484803422637 0.006777480190634298 0.0008407216512500929 0.06986014104833965 0.2571665561866785
25975000.0 0.9670817069080895 -0.21700646761959935 -0.004978478323393549 -0.0019714742637175257 -0.01728004410836128 -0.016399960158887235 0.08422834950380156 0.2665544848212189
26974000.0 0.9693560071799753 -0.22693861906712942 -0.006777356297571322 -0.0018466443490207703 0.0005823574450827967 -0.0048773019901127345 0.08900436799204993 0.2593155878152637
27973000.0 0.9711948123296505 -0.2309541692045735 -0.00247629721282633 -0.004750699224614052 0.001974069526413878 -0.0002646236126653988 0.10157474843154442 0.2539842752102351
28972000.0 0.9655586640012416 -0.24548673428952827 -0.0033116798827788913 -0.0005718451368137954 0.0016352788304892132 -0.0030234567939121985 0.11500246990607452 0.262640244700812
29971000.0 0.9665570663354611 -0.25078820376163463 -0.0007682889048057405 0.0009965127999942576 -0.0013137569443612222 0.002252914818905203 0.1508870577809283 0.2689696966838733
30970000.0 0.9631053127488581 -0.256871148050777 0.0034297801178265796 -0.0007491933619583769 -0.002822738934711611 0.0034303031157848366 0.16891447433767978 0.2490339839946053
31969000.0 0.9618561645474497 -0.2647851094643909 0.008276345899974757 -0.005291415166292572 -0.0008355901545964096 0.0005457469678399948 0.14939013899934567 0.25298713306165627
32968000.0 0.9600832128689777 -0.27388396255929476 0.008071922194024346 -0.009660008233382473 0.006106008280605525 -0.0001918001746655926 0.16478947091193935 0.25360309431582867
33967000.0 0.9575682051067889 -0.28323007469822603 0.008035322954175502 -0.012217221300467642 -0.0058450727216655925 0.0018453735121759984 0.18365357770255117 0.2366070438703231
34966000.0 0.9540499948044667 -0.2918637361622662 0.012954003549517156 -0.012236695859957333 0.0002170116324240473 0.002114111737986583 0.1973572625534254 0.24037701041159967
35965000.0 0.9522685955332416 -0.29814171118638816 0.01857700253651115 -0.016318617613280188 -0.0012924125263034712 8.422867712293614e-05 0.21494874569309974 0.25253726388389325
36964000.0 0.9499766169661121 -0.3088125501621016 0.01717558233003319 -0.013376433959178043 -4.555330228509799e-05 0.0022207559465708885 0.2193121889452436 0.2540891147393878
37963000.0 0.9443928156427476 -0.3192725084161856 0.020272836804054974 -0.025375068300324915 0.0005685512620615718 0.003980112477845846 0.223843534944821 0.23286046471525965
38962000.0 0.9434667755528134 -0.3279261354359808 0.026921318403416265 -0.023180014028293443 0.0014275141045352333 0.006122019575585574 0.24411961915557345 0.2333277871864767
39961000.0 0.9408866588789058 -0.3326021157910597 0.026925509883105297 -0.02891527566728007 -0.00026784589477599045 0.0009095922764665766 0.25216525969939474 0.2219072096772361
40960000.0 0.9374027953506152 -0.3410398655301938 0.02576195616848303 -0.02492027432379425 0.0016157789831196018 0.0012317794324508695 0.26328922206613353 0.22386135440001745
41959000.0 0.9351149166147422 -0.35108257571774154 0.030308634077249774 -0.0317084615795433 0.0013635840618980398 -0.002136784052527921 0.27557923478010077 0.21362823767941852
42958000.0 0.9297030440704913 -0.35911709770778394 0.03324106825741819 -0.04090453087966742 0.0008514335610353862 -0.002378681940939478 0.28058225544499116 0.1904199841886395
43957000.0 0.9275109040114244 -0.36660361354589804 0.03431190759713688 -0.044790648613583846 0.0027527247017779706 -0.001303198168323369 0.28815932872438094 0.20971136728874332
44956000.0 0.9254003735783355 -0.3750371975872225 0.032070626663266176 -0.05223627810961842 -0.0007417525955561484 -0.003914762352498772 0.30522927825051144 0.20181358219820547
45955000.0 0.920992554658566 -0.38468612554196496 0.037624620684298636 -0.059026360787555306 0.002184031213169433 0.0006751168871259657 0.30536072715806717 0.18742942319576306
46954000.0 0.9163099013998378 -0.3931505525070765 0.03729188947995625 -0.06414154470906301 -0.0003584110076525267 -0.0003764837346732266 0.32127137028743263 0.17818907543852225
47953000.0 0.9148081197738305 -0.39908173086457965 0.03624960705228745 -0.0737294585566363 0.0013385039163784772 -0.0005035246233785186 0.33531080154784604 0.16963587606795047
48952000.0 0.9090371717959046 -0.409565253719481 0.039298112143144895 -0.08110545133118247 -0.001716779844817242 -0.0026474528036830583 0.33922918266618773 0.17136324474236078
49951000.0 0.9053003448499971 -0.41638876058735824 0.041897891180460736 -0.08501306565228824 0.001552781327679554 -0.0006648067294866394 0.3613024706206713 0.1466994698436193
50950000.0 0.9029779432546654 -0.42620886406264974 0.04283607137394995 -0.09735353842432162 -0.0005141285196964299 0.000733203310600653 0.345807970290493 0.1428797340023053
51949000.0 0.8992737249181283 -0.4335297047456775 0.04093148305998287 -0.10361367378391878 -1.8418534895049005e-05 -0.0006485310691578391 0.3574187856148731 0.14202098336016894
52948000.0 0.8947586822431489 -0.44143091878515234 0.044901505419210556 -0.11211315094839948 -0.0004409522813605645 -0.002647974600555661 0.36820840764274926 0.13937777032651588
53947000.0 0.8907377198991815 -0.44887157104767417 0.04549464755385875 -0.12266670954191351 0.003731408455618887 -0.0019433652331293449 0.35813138769636077 0.1305966154373036
54946000.0 0.8863113043942845 -0.4580639070772788 0.04757565990505553 -0.13167489745584954 -0.0009347240485388041 -0.0009093887947655983 0.3885884250552825 0.12244896015505852
55945000.0 0.882304065584753 -0.46454580411259316 0.048731346422082086 -0.14283621618108983 0.00249813911087751 -0.0021809268196122766 0.38709879215739096 0.11444171040184183
56944000.0 0.8788506373210412 -0.47413620094377934 0.04850420746944489 -0.15284535685996825 -0.003006937925083756 0.0015275447571816009 0.39986515189390354 0.10350644248966066
57943000.0 0.8749172964052747 -0.4841929032801748 0.054027294054920356 -0.16606493038782502 0.0005237644061725611 -0.0029202527380565372 0.4023973444222489 0.09396458120144002
58942000.0 0.8670333451610546 -0.4885547525496313 0.05390573509501323 -0.173987212523525 0.0010784616703612354 -0.0018071790319881573 0.4191054433119894 0.09136339308536454
59941000.0 0.8655519479355092 -0.4973775868312176 0.053769168555506855 -0.18426121316397406 0.001972961895022986 0.000799574214248626 0.4177227887141857 0.0840889607332837
60940000.0 0.8576019549977916 -0.5057313490470663 0.05535363235404367 -0.1875562796358026 0.0007706845264920904 -0.003045877984706817 0.411384712943109 0.08265740415326281
61939000.0 0.8555631312301736 -0.5123764256917183 0.05800560831913354 -0.19877432591501165 0.00423656662585509 0.0003112770774029359 0.4181640102680007 0.07098954045120594
62938000.0 0.8484925825120605 -0.5231948058763716 0.05563188637544372 -0.21403716943773976 -0.0008131953751064002 0.0011587922676677476 0.4360736214480279 0.04420975327020103
63937000.0 0.8457717186864511 -0.529146430768617 0.06004640588207524 -0.2375401044824538 0.001857887084865441 0.0006746026624726544 0.4319573132037035 0.04186279781772352
64936000.0 0.8381091026368218 -0.5360985934614093 0.06079624455112664 -0.25358155955370576 -0.0008063553243219054 -5.913997621503479e-05 0.44530760928627555 0.04162834375749025
65935000.0 0.8360235301809982 -0.5458019089126582 0.05765998780527038 -0.2686739925146944 0.001956684923425614 0.0028631119795318695 0.43064151421299146 0.024982107237868603
66934000.0 0.8301792384054895 -0.5512004712094152 0.059140643181326 -0.2806279674028572 -0.001911973811831601 0.0012186318906750053 0.44486422011858634 0.004356716916666179
67933000.0 0.828183317681121 -0.5597044020880052 0.062276648977488185 -0.2941810157973738 0.00237519681392907 0.0010513112934436672 0.45100119889269924 0.005097469700542304
68932000.0 0.8227378714786768 -0.5542555043612434 0.057211729811468534 -0.30660483695054375 -0.002403850325614289 0.003741927254777152 0.4575231963673673 -0.012693361890272495
69931000.0 0.814630059483082 -0.5750179325130568 0.05816887408689904 -0.32554538609716543 -0.003925644745556561 -0.00039432156006002174 0.452501421108562 -0.029658021106976386
70930000.0 0.8084614004805906 -0.5813261118838223 0.05381264371713263 -0.339686187162759 0.0029535853054237205 0.0023360891042905597 0.45049217814003506 -0.03382041480728636
71929000.0 0.8054847566583071 -0.5893374862496936 0.04993290853521849 -0.35881627233650304 -0.0017782935146986424 0.0007755232104100745 0.4563284278282971 -0.038716999510740646
72928000.0 0.7988386109804774 -0.6020122044309246 0.04437299397719678 -0.3765853183163938 0.0007418299477558332 0.0014296981714224085 0.4659624027356949 -0.060037857873412474
73927000.0 0.7903720447768927 -0.6056487373388914 0.036214963639471257 -0.39960605469506066 -0.005981349456566315 0.002461817768932918 0.45738871820102306 -0.054496593759841144
74926000.0 0.7871680618862664 -0.6150513877573311 0.033474304248271844 -0.4154363008252541 -0.0007438216300140878 -0.0017301086835800766 0.4712599728972431 -0.061642676116872804
75925000.0 0.7797630467976285 -0.6200875557192543 0.02181641414992386 -0.4380038980131422 -0.0015602131586213458 -0.0018646584583147667 0.46885843757572765 -0.07705675309826843
76924000.0 0.7727901598924879 -0.6287698698302447 0.012921320966471955 -0.4620735374107583 5.79271807660447e-05 0.0016220314346021467 0.4712927868893968 -0.0866599090469498
77923000.0 0.7676889696129343 -0.634259216913425 -0.001978979015622595 -0.4815828846468858 -0.005036518046580832 0.0038462341517600815 0.454826349663909 -0.09138705549148424
78922000.0 0.7625392901597177 -0.6448260960039645 -0.01637118132935957 -0.5112322651889659 -0.0005538959872664758 0.0011386499609072561 0.4660177149137657 -0.09475834425818234
79921000.0 0.7538478677541869 -0.6480274602109589 -0.031158131872916755 -0.5398846170545608 -0.0034362444418714485 -0.0006058993474072883 0.45798891593935465 -0.11093587411966745
80920000.0 0.7487971790948418 -0.6602259279736046 -0.048667998201459506 -0.5656194609437539 -0.001174825599559146 0.0011654048657528822 0.4618374872808799 -0.12661522234740596
81919000.0 0.7443224427725982 -0.6652141644748947 -0.06606899952505599 -0.5929341927556195 -0.003184103116303177 1.605286321493505e-05 0.47138792960251485 -0.13699396172844439
82918000.0 0.7354161735499197 -0.6720867957981277 -0.07583513521341657 -0.6291600568282787 -0.0036552143860731257 0.0028764319767455066 0.47776579845006834 -0.1571285167605445
83917000.0 0.7292860749177762 -0.6806798850612701 -0.09842253471733396 -0.658854405756549 -0.002880749993893907 -0.0035120847558224237 0.4758918036985031 -0.15626057429046333
84916000.0 0.7231931418256463 -0.6873472336172967 -0.11256898204572041 -0.6925713924745883 -0.0006032279835720154 -0.004678582996834793 0.46288681052775504 -0.16830251625998405
85915000.0 0.7164910853924453 -0.6941983526731791 -0.13623135488184893 -0.7205475239233397 -0.0007359744156697172 4.876791184393993e-05 0.46569291109175104 -0.17405522128591955
86914000.0 0.709122254945904 -0.7038833804441161 -0.14767197113748845 -0.7591031417444989 0.0003929601937059073 -0.0017121848350755288 0.4626777789317729 -0.1693310833331007
87913000.0 0.701652425722219 -0.7095920937123849 -0.1716003939355487 -0.7932010008283931 -0.0011956903859984011 -0.0034538302656660757 0.46878569216960225 -0.19190596760410275
88912000.0 0.6944110941659842 -0.716748627698861 -0.18855160248524114 -0.8273102751206755 -0.004785447856046005 -0.0006798980823040269 0.469635583208258 -0.21152590037543714
89911000.0 0.6870427131422712 -0.726421053218522 -0.20494486760167896 -0.8594650977909052 0.0010931134958066756 0.0023147613854964206 0.4669329157671768 -0.21606119251999537
90910000.0 0.6798393689995034 -0.7305343548378521 -0.2193213925962839 -0.9009082555952225 0.0018266529586475613 -0.003490552260655054 0.4590036114444734 -0.2119507863324194
91909000.0 0.6719597466309011 -0.7356098794875823 -0.24311155279614974 -0.9329230900251344 -0.0046009871171508706 -0.00048039756427434657 0.4726495895954072 -0.22868211084449333
92908000.0 0.6628537099535868 -0.7449755076415372 -0.26065879559402294 -0.9680133194091253 0.0007833774167079207 -0.0027871052817604546 0.45371237924209235 -0.23530721538975333
93907000.0 0.6591941407441043 -0.7477247176191529 -0.28005630912677404 -1.0011779133442211 -0.0019740293854126553 -0.002638111599596828 0.4650865088180524 -0.24416487649831128
94906000.0 0.6426461189988413 -0.7585801793427819 -0.29606619777228116 -1.0320841751066936 0.004513659464328091 0.0002461509209762351 0.46200002399530404 -0.25665198499395725
95905000.0 0.6399251881200652 -0.7642844454687661 -0.3227596688225531 -1.0731313236517495 -0.002721680458468339 -0.0001662034676473809 0.46261572946171736 -0.2678526569190664
96904000.0 0.6289936944729622 -0.7716819563714405 -0.3424859197473661 -1.1120059105507492 -0.0004585773940336158 0.0063847017564799486 0.4561293686737563 -0.28105088363903163
97903000.0 0.6213480139095022 -0.7767396062585692 -0.3669820137853166 -1.1469379025854338 -0.0016924142683136462 0.0003515673949790924 0.4542416509383412 -0.2865255721271842
98902000.0 0.6167270364486609 -0.786073029496784 -0.3879244891758262 -1.1834571433869816 8.359061369846176e-05 0.0006323341238360575 0.44690610032876027 -0.29244485044011304
99901000.0 0.606854027500398 -0.7889335071287986 -0.41497369561118524 -1.2176005948338706 -0.001354954833286391 -5.071883219089161e-05 0.4689639419872246 -0.3146533785704566
100900000.0 0.6009867822536742 -0.793646490090755 -0.45070447128971275 -1.2526026296697053 -0.00044389542301694583 0.002186730120516386 0.45005256866654597 -0.3170562680860354
101899000.0 0.5911544075416962 -0.8015788605203021 -0.47707213640471774 -1.293652184153932 -0.0010627244892426467 0.0012107306848609873 0.45187150430603906 -0.32735016584873955
102898000.0 0.5817110275720508 -0.8062249915718742 -0.5089046019023737 -1.33163270738841 -0.0008963791720184275 0.004251928824753721 0.4501993588392818 -0.33505607490791695
103897000.0 0.5732980378999993 -0.8135789313041549 -0.5489019227562741 -1.3683594694434156 -0.0006317291705530677 0.0013961472799219048 0.45833114009576775 -0.3298963670177557
104896000.0 0.5648626234105152 -0.8253796443151421 -0.5978813760261203 -1.403172067793937 -0.001293220084795113 0.0006810306457741243 0.4395393640045029 -0.33378321342979056
105895000.0 0.5534827049469012 -0.8264578770540345 -0.6420932365304919 -1.4503079218658352 -0.0015495694474940392 -0.0010097018231106734 0.43099043707437323 -0.35318245836315365
106894000.0 0.5440715941398868 -0.833296958891656 -0.6981484028222722 -1.4857602127842533 -0.0014605463844567287 0.003329424490110923 0.43423208562642274 -0.3638770266979315
107893000.0 0.5377066377911089 -0.8397854489935993 -0.7455920870914126 -1.5290154006600691 -0.0016759135054009266 0.0008010313261513429 0.43252656893448727 -0.37560599737725203
108892000.0 0.5262345885532762 -0.8413495760527631 -0.8085375857217441 -1.566438509595654 0.0011054009252499323 -0.004397508447627656 0.4303303892936348 -0.381441026743832
109891000.0 0.5158028297911289 -0.8497617645319562 -0.8656072421931539 -1.6020343708743465 0.00037151932102189554 0.0018925739572953101 0.44322202082004136 -0.36769388708299033
110890000.0 0.49896111312343355 -0.8682255250058156 -0.9558082056831623 -1.6154665984936778 0.00214650682367874 -2.482956507082361e-05 0.4265265606533997 -0.377324182816556
111889000.0 0.4956940787630225 -0.8577722511490322 -0.9899226048759582 -1.679122522407343 0.00048774252060321857 -0.001292644277912767 0.42330713400214964 -0.3846578102039345
