! Created with skrf 1.9.0 (http://scikit-rf.org).
# Hz S RI R 50.0 
!freq ReS11 ImS11 ReS21 ImS21 ReS12 ImS12 ReS22 ImS22
1000000.0 0.9828032537101042 -0.0010518206997783565 0.0020214852386161294 -0.03791271596592042 -0.0035100109335127285 -0.00606219942092976 0.33380637558196113 0.24880411280530454
1999000.0 0.9961478053836391 -0.006079118142263701 0.01108310058126093 -0.02721743515222648 -0.007765128253996875 0.0034478709456531925 0.25545411512829663 -0.06942933124601564
2998000.0 0.998775375586316 -0.019609154009633138 0.011441961863784749 -0.01637654839359306 -0.00864375380016408 -0.004494233649394412 0.19149320020840557 -0.15877376224976056
3997000.0 0.9998128951532559 -0.030843683944600263 0.01525720443799587 -0.010076450634385064 -0.003607189495158975 -0.0018416167946982724 0.09004779293631662 -0.22216859179753162
4996000.0 1.0025106128842844 -0.03557820739070953 0.01136545985463477 -0.002970147730784686 0.004236703499496123 -6.250272009625523e-06 -0.03867160365260001 -0.21543859973929047
5995000.0 1.0010072004419872 -0.045814140722109625 0.009719335158864051 0.0005280214356350834 0.00016501455389352255 -0.00017530556140442816 -0.12385978005376592 -0.12239351450968604
6994000.0 0.9989249243662092 -0.05839835356731563 0.006239663432620532 0.0074061812898563424 0.0027512596718606247 -0.002375783688721128 -0.1654216172130861 -0.02613513234340344
7993000.0 0.9996200160907429 -0.06851210617834391 0.005834428429074969 0.004994850307546944 0.0029127718193310403 -0.0033727468718851316 -0.15891595586149238 0.035628532403653865
8992000.0 0.9974699031071352 -0.07496264823151846 0.0017259047753836294 0.008471742623546113 2.538460478452989e-05 0.0005446941880736228 -0.1596285833249908 0.06565399584538988
9991000.0 0.9931974647954589 -0.08236080596638852 0.001243424741433801 0.005399721276583661 -0.0005566314161951396 0.0006328216101513863 -0.13976710777882265 0.09663280317150577
10990000.0 0.9945742146910899 -0.09282062458635974 -0.0013719720869131225 0.0006289232934788243 -2.3319173266347506e-05 0.002086793664261808 -0.13932465675877748 0.10111604671390609
11989000.0 0.9936869198481875 -0.09638371739366575 0.001150939507019341 -0.004042138601988071 -0.005455574179631265 -0.0024290129670178065 -0.1279146784710918 0.13903973005093617
12988000.0 0.9929473063444982 -0.11077648934771873 -0.0020024406211481974 -0.0002657785032703367 -0.0012767943833928202 -0.00047604644255844187 -0.11668957576832376 0.17308177116036405
13987000.0 0.9918506441743222 -0.11634251028743527 0.00011516706896309107 -0.0034124327854942746 -0.0024663887055949955 0.0016909105417240269 -0.10727017401064495 0.1862397988420465
14986000.0 0.9913621571944601 -0.12253088657047516 -0.0008325357365923426 -0.00726984144051338 0.0012041469930848523 -0.0008163057196257471 -0.09473865299892766 0.20281059390522177
15985000.0 0.9917120114133555 -0.1337843744705513 -0.004092361799369184 -0.001611312305254267 -0.003227284241587661 -0.0020531011388872098 -0.0648359813554177 0.2146517646544978
16984000.0 0.9881634581868147 -0.14463103105584027 -0.0004475996947849448 -0.0039151011737405235 0.0005737302859187618 -5.7637304012382214e-05 -0.07364250713210464 0.22579004832318877
17983000.0 0.9885738060547613 -0.15086788599103246 -0.005083583578133456 -0.00326609131350179 -0.0011815352438393097 0.0016272550582393601 -0.05021416328798962 0.2271394396697701
18982000.0 0.9857061370024054 -0.16174397256094325 -0.0012858169843240484 -0.007022555511216969 0.000992667384761474 1.8427753664553927e-05 -0.008036704401630653 0.23680502889680197
19981000.0 0.9853004327634037 -0.16671658284720609 -0.003349363064398643 -0.002948606747676287 -0.0036603850174481986 -7.161633302733329e-06 -0.02670376435491255 0.2385233643267831
20980000.0 0.9836462756945896 -0.17602718168840686 -0.003500408206179662 -0.005687864229753562 -5.5632249238246346e-05 -0.0019606742236253057 0.0016910219561190008 0.25526974900276767
21979000.0 0.9809034820827014 -0.18571348283318437 -0.005552459081019512 -0.004418298978396997 0.0025631789743233773 -0.0035749171977245233 0.0212804530052003 0.24240377757407877
22978000.0 0.979904600500988 -0.19256421095831594 -0.010035042688697841 -0.002748417211052936 0.0007712428150094901 -0.0022483989311813052 0.026850755607823653 0.25998408270995926
23977000.0 0.9820748944346711 -0.19952127351771157 -0.010100084365405411 -0.0035398285989710196 0.0003513009201132505 0.0005470631307048424 0.039655507721824676 0.2558614792508132
24976000.0 0.9760888401047124 -0.20952537420569642 -0.006692403347965206 -0.00220446645321359 -0.002528200427477469 -0.0007045930557021853 0.06093078121038776 0.24997361813019758
25975000.0 0.9687860763400344 -0.22296619285147468 -0.003555000104145781 0.0013281050779300131 0.006857805954114007 -0.026453130185354595 0.07637122195220812 0.26035330429748066
26974000.0 0.9724213989773475 -0.2251806750610237 -0.005532235212674139 -0.0005384128249190689 0.001729660716592641 -0.0029586862455448417 0.09006447683823053 0.25618845378483757
27973000.0 0.9714053589110232 -0.2347492279837062 -0.0034732612251972034 0.001737325533094366 0.0020938904461410735 -0.0005544904317336202 0.10657077614914844 0.2615638564021568
28972000.0 0.9664142493333029 -0.24153139969691018 -0.001622208253437972 -0.003978317032977353 0.0014470102418088144 0.0017606691939999397 0.10055127339852873 0.2595531812903366
29971000.0 0.9667281085967796 -0.2523143323751018 0.002302683027127383 -0.0025232657046532912 0.0022797326493823743 0.0020918981683485504 0.1424815829751031 0.26400187691171595
30970000.0 0.9644964879605668 -0.2568594207182837 0.0022302480628651035 -0.0010508445162755774 -0.00043502418261518437 0.0027275307251937585 0.1677782678586102 0.2543386290191965
31969000.0 0.9627584386793807 -0.266691231546223 0.0029086767023658515 -0.0037551025470836503 -0.0007556885610159117 -0.0008899126605654628 0.14803160146173894 0.25242202620546583
32968000.0 0.9617224228952178 -0.27507837266050544 0.007252185948515717 -0.008858600678202579 -0.0009926272649042915 0.0001320116309785836 0.16500577226669716 0.25359498728616636
33967000.0 0.9593360292091598 -0.28382014159534574 0.01068879607291802 -0.012211748585340772 -0.0015807749631428537 -0.0022715136328229925 0.19036519945573985 0.2465424515842584
34966000.0 0.9562915938638129 -0.29057535902138765 0.008678078613977248 -0.012561259856309428 0.0014763492115436663 -0.002472165726397483 0.1978094261607999 0.2504783043916879
35965000.0 0.9525980183382962 -0.3015432116810978 0.01766742793968044 -0.015435679165368754 0.000828153828569174 -0.0017404578981699672 0.20649379161344866 0.25600838711866775
36964000.0 0.950516173433965 -0.3099961391186224 0.01840298018831913 -0.01568065400671584 -0.0005148519567280219 -0.0018403037233156183 0.2084169222534472 0.25095367845162286
37963000.0 0.9475507596698981 -0.3181997686894181 0.023041412064291836 -0.023670364033185183 -0.0009220327418101516 -9.57809906289568e-05 0.22991468980926602 0.24747922145487078
38962000.0 0.9447133818676708 -0.32855608677994114 0.024030115417550593 -0.025587372768598137 0.0005945897158231161 -0.0007051274340765548 0.24492669359354516 0.22585690799781538
39961000.0 0.941135334720461 -0.3359355802540211 0.025820276443467106 -0.02664357545512497 0.0011266461061101164 -0.004309208764831766 0.24998323028315078 0.22296169515681658
40960000.0 0.9379883418655518 -0.3421911262647129 0.026374701468566356 -0.023840865811123636 -0.0022812698968780083 -0.0025983815251995235 0.26799614820264767 0.2262761335504575
41959000.0 0.9345061946017554 -0.35311464350964844 0.03036574634821945 -0.0316425088805486 -7.09450332667939e-05 0.0027870205614882832 0.26560151860488235 0.2211726578643489
42958000.0 0.9295032647954602 -0.3620493777491968 0.03253384857358022 -0.038152145045742214 -0.002250396843871697 -0.0030418050054025992 0.28384400599500986 0.20400039225870326
43957000.0 0.9301782544676793 -0.36437412334777725 0.03276394223238715 -0.04526729535860076 -0.0014432116733863122 -0.0026140269321492235 0.2843758178448526 0.20195174723203363
44956000.0 0.9272616440148435 -0.3734947536296729 0.035459358636390756 -0.052006224606443226 0.0025582285021561874 0.002517880415598746 0.3024491507429835 0.19915541947897877
45955000.0 0.9228864772081369 -0.38533645036559294 0.0370800976104003 -0.056594457022602365 -0.0003892274036704952 0.0008875461189351938 0.31195023361363616 0.19480609389954368
46954000.0 0.9172502797278828 -0.39421577623951176 0.03896265417202618 -0.06550815169855649 0.0005760413546575708 0.00026127134009927436 0.3256070018271263 0.17761293730229713
47953000.0 0.9165643065950301 -0.40049414222429225 0.0386682289440615 -0.07537553289111557 -0.0005644979835244747 0.0014781646444631267 0.32933416818092576 0.1700883035178425
48952000.0 0.910914888504432 -0.4097110479666838 0.041677734411766316 -0.07814656768043156 0.0018240478855649563 -0.0008487503615374851 0.3377126908435296 0.16398082823068852
49951000.0 0.9067624267496849 -0.4184033490114799 0.040530769872031 -0.08683228973360352 -0.0002419372576876846 -0.001202382019003762 0.3462393065746038 0.15649081448678553
50950000.0 0.9042364421041518 -0.42663061949633296 0.039543090721882196 -0.0980604214592768 0.0003707672418872283 0.002404987757773278 0.35359944480029093 0.14725878583611235
51949000.0 0.900223185874732 -0.4342193487784112 0.0420784089305791 -0.10553849108884852 -0.0004935774940806096 0.00131865105732074 0.3531041855090757 0.14170941005089352
52948000.0 0.8981999496472441 -0.44158080091721386 0.043357779969816504 -0.11376239107248484 -0.001875027466218083 -0.0014540618779913719 0.3849882502902679 0.14029709220948974
53947000.0 0.8918004121616798 -0.4493842601886029 0.04560680987150883 -0.1226235862941304 -0.0008782071270315059 -0.0012013799497640487 0.3692737748944893 0.12677770557623316
54946000.0 0.8866356019378524 -0.45934412702058375 0.04722813677042484 -0.13355792923224005 -0.001136147117462886 0.0034064149899571505 0.38213630394973336 0.11955291764167458
55945000.0 0.8846508926671508 -0.4664160521296553 0.04638673100455955 -0.14134066618730304 0.0004273803254345982 0.0007605241612016129 0.3890425008742706 0.1009563695806417
56944000.0 0.8798310215387116 -0.47480041234517395 0.05200111260381872 -0.15449209913524695 -0.000585834840260076 -0.002725926325684987 0.4022068123208295 0.10031833106046485
57943000.0 0.8761366520434878 -0.48520293141223736 0.051060981139358926 -0.16676602474450852 0.0005714477572086144 -0.0022785443230969294 0.4065666629409578 0.09042490972239692
58942000.0 0.8719352229437208 -0.4889070055890832 0.05012999067259308 -0.1769035779355684 -0.0011457214578667726 0.0021355135884099726 0.427820128660143 0.09539996986806992
59941000.0 0.866772270314213 -0.49899737363571833 0.05474668636779635 -0.18624054078128677 -0.0035731544983124896 0.002375863338996841 0.4198395175545867 0.08531754400527423
60940000.0 0.859597776668842 -0.5044820308900839 0.0554092880892097 -0.19025596659712665 -0.0005665841710225027 0.001009361655801697 0.4117869886824532 0.0700356449165504
61939000.0 0.8577357301006893 -0.5112882496269961 0.0563299898023049 -0.20052379928607533 -0.001128598598173039 -0.0019049064569689115 0.42329810436754445 0.06029796292789208
62938000.0 0.852319226455513 -0.5221531004813397 0.05806831765734468 -0.21865691917214902 -0.0009060626392968008 -0.0021233555369203987 0.438265485460952 0.05341964532759498
63937000.0 0.8457504595435394 -0.529160609937939 0.05742839544497272 -0.23771083500468765 -0.0009426383773643986 0.0014467216753141614 0.44122322097934064 0.037265235231592954
64936000.0 0.8398662668428207 -0.5358179460791732 0.057277320422136874 -0.2533009182623503 3.1499956059557415e-06 -0.005222579829850061 0.4343670562711422 0.03514030854079658
65935000.0 0.8367624381591593 -0.5458685047068929 0.05887021892632228 -0.26662788812008564 0.0032737034883247593 0.0016976748080331236 0.4391185842084793 0.013761444035806996
66934000.0 0.8335581610935437 -0.5521723634195665 0.05379681011363622 -0.2796756456323063 0.0032144429542135273 0.0054721970662437785 0.4313544163172223 0.0061122411371341175
67933000.0 0.8304108783539087 -0.5585265029203983 0.060943255010245244 -0.29706071763751635 0.0001430753733598135 0.0007265145126960301 0.4504972622713635 0.008875936257450904
68932000.0 0.8133333724181673 -0.5559707648140241 0.05311100816294981 -0.30662809638668964 0.0017968233921792792 -0.0016127372408787947 0.45493946971973764 -0.009050539712300012
69931000.0 0.8169491337695237 -0.5761417645529828 0.055089596565044 -0.3255561147223482 0.0014919136426847237 -0.0024110111060240266 0.44774316710700546 -0.02939327906900215
70930000.0 0.810085310731614 -0.5829469451561304 0.050201781585342976 -0.3421044051482201 0.0057911173484212165 0.0010271744523321312 0.45417776179202224 -0.03198220830522934
71929000.0 0.807244045374428 -0.592078833220314 0.05121686965982299 -0.36475259575428476 -0.0026010815627391937 -0.0011625325424168712 0.4498793211873702 -0.04164914352049755
72928000.0 0.8021326485853778 -0.5991740719009849 0.042263046970889236 -0.37644818556839454 0.0016962102103176746 -0.003319737869427957 0.45932085487900626 -0.047336744971098965
73927000.0 0.795708640706686 -0.6060775040378235 0.03665217581212967 -0.39821926117182826 0.0015667396294684701 0.00034025824083040344 0.46635567641989184 -0.06743113695011506
74926000.0 0.790357295820678 -0.6148904998721522 0.02848544127932212 -0.4166122888617333 0.00032745886175388763 -0.00010285939787325383 0.4605903825255999 -0.06522618533289808
75925000.0 0.784642807456469 -0.6202041915303623 0.020048923885585133 -0.43930214130989664 -0.0022347446879160036 0.003922724627198703 0.46791015025509547 -0.07719351989807136
76924000.0 0.7775985298118634 -0.6265881036378114 0.004883434187232516 -0.46214750993354814 -0.0011806140679945923 -0.002544330332180407 0.46645708586209583 -0.09005917140436802
77923000.0 0.770195540573959 -0.6356458974885206 -0.00608931763593125 -0.4842954379894764 0.0015925783896459402 0.005044522894470075 0.4523029905823808 -0.09230143393921217
78922000.0 0.7654537156857936 -0.645240106695804 -0.020621430920458206 -0.5150721481889239 0.003492530705717864 0.0009361937377161201 0.4676298981160029 -0.10797233515126323
79921000.0 0.7555458425155827 -0.6494822439439113 -0.03529760389399226 -0.5391575638606796 0.0016639557679814765 0.0025214064188070068 0.45979663439064866 -0.11938193112876058
80920000.0 0.7528884944567119 -0.6604955733142392 -0.05460608413912349 -0.5692900948613379 -0.0015839026942497014 -0.0030426894355074325 0.4640600690284518 -0.13426673562095914
81919000.0 0.7442711603219696 -0.6646243050761753 -0.06373373882530724 -0.5961312472537801 0.0005346133506571704 0.00380250694642365 0.46081587240676614 -0.13291921613518118
82918000.0 0.739264116809505 -0.6719216241570609 -0.08288142931115469 -0.6277338000182402 -0.00045238547149618457 0.0011986123188067002 0.4653650333050491 -0.1496024338605177
83917000.0 0.7296990168462191 -0.6812799050307158 -0.10931546014473309 -0.6537426381920834 -0.00202465943560901 0.0033156013958555697 0.47356288176808864 -0.14699675797956668
84916000.0 0.7239843733581401 -0.6879716442690216 -0.11850714830712593 -0.6944091077550127 8.332984481610867e-05 0.0007897873617341083 0.4622146608434369 -0.17144541934501087
85915000.0 0.7178370815869138 -0.6941216568814017 -0.13988555528969726 -0.723784332286416 -0.0036771663756266946 -0.0026613769967744967 0.4676057238705727 -0.173350664493903
86914000.0 0.7098897339414613 -0.7033210273598547 -0.15624004229152033 -0.7591269471944359 -0.0017966722475302576 -0.0008607297379610935 0.46164293867506195 -0.18532969438666066
87913000.0 0.7049188291858471 -0.7093147556284549 -0.17693417265414033 -0.7936856961771422 0.0003698370330228461 0.0035806375043515447 0.46115078110331786 -0.18605806182425916
88912000.0 0.6974585562756068 -0.7169033167108004 -0.19160243441956143 -0.8244769388348576 0.0004141684319617948 -6.062257164578346e-05 0.4781750605228021 -0.20190663781563628
89911000.0 0.6898623755637744 -0.7252767937074134 -0.2113600560971298 -0.864862335655576 -0.0020955922080152403 0.002588844863680674 0.4722809791364476 -0.21175704891199804
90910000.0 0.6819030109421801 -0.7309147321931533 -0.22309484171481922 -0.8985812466244996 -0.004039133990608294 0.00415442920724529 0.46827991323688084 -0.2152143198554858
91909000.0 0.6736157609414813 -0.735890126883918 -0.2507599826282018 -0.9309559097832206 -0.001785134664945289 -0.0005740611127220441 0.4667404180766828 -0.21905298248506766
92908000.0 0.6649374275959566 -0.7448893810667944 -0.2673107674697788 -0.9658481477844837 -0.002692341969614072 -0.0013677846033475507 0.45439692797881254 -0.2513399675249001
93907000.0 0.6601385316438605 -0.7492049391662391 -0.2881019806394847 -0.9993158859788059 -0.006175065154638984 0.00027431788902550447 0.4567032701387436 -0.254439163979482
94906000.0 0.6477659649875166 -0.7591753692723384 -0.3068656079007401 -1.0386146012702253 0.00044845022291928506 -0.0018827657149185194 0.4648413685035312 -0.24719512175155134
95905000.0 0.642967013010746 -0.7645007631389515 -0.32856914825140854 -1.0739312447514244 0.00019674742479737552 -0.000650189252730004 0.4595649985577045 -0.2745283224253138
96904000.0 0.6334689120641771 -0.7742022921647984 -0.3529079953467986 -1.1133273738304936 0.0014698972479147026 -0.000576707974293561 0.4514124614749549 -0.27635638563840415
97903000.0 0.6243481381173557 -0.7778634259671755 -0.37507288881219225 -1.144714773641922 0.0023804305689846044 -0.0013444824039174456 0.44731368374663644 -0.2972308891047735
98902000.0 0.6197216978170846 -0.7848976770864531 -0.39549326337493224 -1.1818092983933774 -0.00011935049077535765 -0.0010202563358547112 0.44297932176073246 -0.30232766846321135
99901000.0 0.6097325008346464 -0.7919907503746039 -0.4268779025673847 -1.21697580947555 -0.00676619093853329 -0.0029779365228140755 0.4520496991275239 -0.3186215929652526
100900000.0 0.5992854688440662 -0.7963817549193024 -0.4620719985211949 -1.2466733084908928 0.00010654848184940899 2.198825126257572e-05 0.44740614973360415 -0.3150498367188147
101899000.0 0.5931241173588211 -0.8037491619363093 -0.48817094118344323 -1.2923860354724015 -0.00032960037637803566 0.0025193694185504946 0.4506409707042862 -0.3240450032120517
102898000.0 0.5815437681931813 -0.8099278798094776 -0.5259284215488442 -1.3296242667882312 -0.0007232047507359168 -0.000310949068617355 0.454875436447554 -0.3382703079737376
103897000.0 0.5735439401788133 -0.8162576802788211 -0.5672842444855479 -1.3665642859314966 -0.00029360418853368773 0.0007969351499792658 0.4589465512233854 -0.33473440403125654
104896000.0 0.5664094153697224 -0.8266295101619161 -0.6217437254877957 -1.396625747135057 3.0771432393423225e-05 0.001601575240434697 0.44167752588832226 -0.34466991144886794
105895000.0 0.5556755103532937 -0.8275436217061954 -0.6654679060975123 -1.444189438096745 -0.0006811428234916434 0.0026175448600262484 0.4286161693345547 -0.3666276110100988
106894000.0 0.5452178502183787 -0.8346321940778761 -0.7241368512928541 -1.4786109404372305 0.0007064867624519128 0.00016341773629818953 0.4273510801800714 -0.37804677750898263
107893000.0 0.5389517563957387 -0.8408726880015478 -0.7684404819355337 -1.5174350422007146 -0.0015753605570028371 0.0010607747182317792 0.43325660974168223 -0.3790867951909479
108892000.0 0.5296241081347239 -0.8442508864475644 -0.8328590160621709 -1.5563972828182246 0.00171764826677445 0.0010035011969214225 0.43305962745744303 -0.3838784821885966
109891000.0 0.5167785265510084 -0.8529092984607266 -0.8935516300418505 -1.5927497336837173 -0.0010064117625486052 -0.0021107525933192197 0.4447836917697306 -0.3781322402502719
110890000.0 0.49783303404478163 -0.860151957356238 -0.9641090918469485 -1.5901386793352497 -0.00102145209923683 -0.0016816165564612737 0.41265566434804196 -0.3935785943003966
111889000.0 0.49626192950180265 -0.8591926276971584 -1.0172170784687518 -1.6638356747502132 5.574169762894009e-05 0.0018235915761840543 0.4098159230689131 -0.4042972657094958
