! Created with skrf 1.9.0 (http://scikit-rf.org).
# Hz S RI R 50.0 
!freq ReS11 ImS11 ReS21 ImS21 ReS12 ImS12 ReS22 ImS22
1000000.0 0.977254460743048 0.004642418746184211 -0.007189281281370172 -0.055342566195147117 -0.006388635008395872 0.0069105211349650515 0.3247216669227848 0.37457522856148395
1999000.0 0.9896995842822551 -0.012767641142410491 -0.0008590663114351947 -0.026122234243950843 -0.0067985513285794535 -0.0007894195639015729 0.246063847719809 -0.06319330766412415
2998000.0 0.9989617579158925 -0.023353686890939473 0.01598276787046824 -0.013891129652001961 -0.007457050920788525 -0.0029350595553867408 0.1889961616843014 -0.1481821091245546
3997000.0 0.9959473108306944 -0.029097001546521725 0.007177553277896813 -0.008579978541013535 -0.0037030644608511756 -0.008144218819443704 0.10082036768868852 -0.20817057064848923
4996000.0 0.9969918131356775 -0.03582665056343112 0.011212231702515967 0.0017050922475619651 -0.00194137851187858 -0.0003712510938436543 -0.040773451125923135 -0.20875240967838424
5995000.0 0.9945785128120229 -0.05215723814759328 0.007491978144033988 0.005411592835332036 0.0029922061439123094 -0.007031560891554123 -0.11404132600303482 -0.11697630022987363
6994000.0 0.9951180849042672 -0.06002607077223648 0.0065468396205795 0.005063538260239619 0.001964857592096554 0.0006901293607408184 -0.1436715563945144 -0.028143287342061965
7993000.0 0.9959595040332037 -0.06788346998750829 -0.0008550003492509213 0.005654133549367295 0.0011731466802707999 -0.001807411526208019 -0.17433862512453005 0.026872051657783416
8992000.0 0.9922780413015675 -0.07467103850064488 0.0018582548430755939 0.0040038799116214885 0.0038468860356115605 0.0007526914778531571 -0.16237817099450297 0.06433123183555525
9991000.0 0.9923024863177651 -0.08394534361351831 -0.0004990282079565647 0.0040923102906582805 -0.002905299882233133 -0.001600962494125375 -0.14708177242414255 0.07487457678419787
10990000.0 0.9909386715047442 -0.0925720050631534 0.0023366625470208832 -0.0015092931081635136 -0.0016375387170408414 0.0006716061282539309 -0.16083767036349525 0.0972008838698684
11989000.0 0.9900220601463989 -0.09834625723676566 0.0027852963519765907 -0.000586129833540228 0.0008748340292739696 0.0013814763147970619 -0.1331471118710686 0.13534564531743584
12988000.0 0.9888613804528286 -0.11182127406681724 0.004456335051668742 -0.00187271253663464 -0.0049704418592858715 0.007858260631409398 -0.12436174682920219 0.155890527776993
13987000.0 0.9869883098350188 -0.1180000177881883 -0.000991155791429537 -0.0019937149013125443 -0.0003787152325069389 -0.0005170408645486498 -0.09847798384559471 0.18048879695899905
14986000.0 0.9870717986814612 -0.12747130254196362 -0.00014777684934459402 -0.0038560324273930564 -0.0018911630115952711 0.0019158201544962157 -0.08960059345735034 0.19525303777900774
15985000.0 0.9886732989894754 -0.13480671352446622 -0.0035270966966250207 -0.001695492035503814 -0.00017397950072033623 0.0036096308757313537 -0.08431769873933731 0.20662407985400044
16984000.0 0.983912310608992 -0.14794024142901258 -4.8084056703238515e-05 -0.004347516486490529 0.002416911173784709 -0.0016667873146069413 -0.06855217030910528 0.22229495094911947
17983000.0 0.9853717500578323 -0.1526140974876333 -0.0008354239451117307 -0.0033057273014073544 -0.0023024182543509167 -0.0031280471423128643 -0.05820468541354089 0.22096554578694105
18982000.0 0.9817092226229722 -0.1648472437227857 -0.0047471653615108154 -0.003989117913746332 -0.004161039298097182 0.002834918419794634 -0.03648136436255275 0.24023084719803714
19981000.0 0.9816533792415538 -0.16740229975910678 -0.002189599425103896 -0.004361949925731001 -0.0015513073991726732 0.0010778415734105434 -0.02327014321877373 0.24284451330754367
20980000.0 0.9802534108942706 -0.17954467619828834 -0.0031682736608632227 -0.005005298186559952 0.0021994372705813722 0.00020849965112336078 -0.0004446002706559407 0.26061815214668327
21979000.0 0.9788970562581774 -0.1866096260889956 -0.008119798332331837 -0.001733124987172348 0.00716182268358376 0.002351320070302022 0.003829947298387568 0.2447387819590587
22978000.0 0.9751246344749515 -0.19577915311414615 -0.008086583735957076 -0.004789682542147705 -0.0032993333472721795 -0.003557196477870987 0.02951498279468438 0.24778855550543388
23977000.0 0.9787048570626573 -0.2031698523599488 -0.006090459428531276 -0.0007482308741394483 0.003699220390509533 -0.0007610713687214208 0.03899104770772867 0.2568507227421088
24976000.0 0.9728501604266346 -0.21588261573334566 -0.0047301009722652 -0.003334764212740656 -0.0014291621196315264 -0.001987658390144122 0.04848674906802366 0.2725943757892017
25975000.0 0.9733896137847943 -0.22147041202356824 -0.006000199113101232 -0.00384161721695944 -0.001838973950689892 0.027857940941562496 0.0752305304663563 0.26073017977930874
26974000.0 0.9674659532464447 -0.2305811632830145 0.00035651612597348905 -0.0004013193741670782 -0.00426570472494747 -0.0038880711148409873 0.0867009572125266 0.2733635909983655
27973000.0 0.9692431570337758 -0.23744988237562745 -0.005183631532741496 -0.003864113455602469 0.0041161880773982135 0.0005519674849017822 0.09649873023449754 0.2594442707502513
28972000.0 0.9655118470761079 -0.24826041523706963 -0.00300781147001891 -0.0015896621465653273 -0.0023159338699438948 -4.733876257924582e-05 0.11453096154531033 0.25685708800908463
29971000.0 0.9619312417326519 -0.2550382933535247 -0.0008535857281926903 0.0007580589188676264 0.00029460800371860086 -0.0009889521868330848 0.14480720561746535 0.26412320602563705
30970000.0 0.9609126622177223 -0.2624221221041577 0.0015242344686036925 0.0006839610523534354 0.0005442371097573154 -3.004942423231822e-05 0.16275280235163786 0.25360002511768154
31969000.0 0.960226688977289 -0.2706762809052771 0.004189489222394945 -0.004665527364825611 0.002542112131738003 -0.0003495643274627239 0.1545634880253014 0.2475065255088288
32968000.0 0.9576142590507705 -0.27916408593449793 0.014984908409988973 -0.0064174513720511904 0.001929693730748964 7.368852341524533e-05 0.15676420939044847 0.2412421734983078
33967000.0 0.9540703402454904 -0.2901850287245264 0.01400498094717493 -0.008836120090637474 -0.0012102797996179726 -0.0018314326960706692 0.1884943264700064 0.24078204451665128
34966000.0 0.9515551934190998 -0.29988509211552944 0.013703061388250394 -0.012389472978696114 -0.0008041279122740377 0.0005271757428692991 0.1944962295557316 0.25572620986243116
35965000.0 0.9480887932586068 -0.3053186308980154 0.01804875215502048 -0.01425090173100087 0.0025377749496768263 -0.0020161753993124653 0.21479083250402084 0.250039034397091
36964000.0 0.947701007873365 -0.3157037613789364 0.01380267915303033 -0.013725706159557035 -0.0014619627606725345 0.003900627699397463 0.21509258517603164 0.24886446734576548
37963000.0 0.942849509907694 -0.3249555904840248 0.021852383216894845 -0.022931585302415805 0.002864856798704256 -0.0001579468727705646 0.22395943689222297 0.23795541287165206
38962000.0 0.9401551593186116 -0.33639176933242 0.02409637783287052 -0.025608682696607925 0.00318804275655472 -0.0006345408117717756 0.23431980591939067 0.23614391237950447
39961000.0 0.9371549972330725 -0.34241259553509396 0.02797449732684346 -0.02965556596257148 -0.004921011432624851 0.0001317177429221894 0.24379459124218072 0.2251125658222082
40960000.0 0.9339976609981755 -0.34944517193393465 0.025494291115107308 -0.024995208339162935 0.0006354893852287359 -0.0011913328408814235 0.26088333603860003 0.2272068353975533
41959000.0 0.9309971692837377 -0.3593522228659057 0.03219188109589959 -0.03244155113365363 -0.003028506149789807 -0.0005139478416350424 0.2666899813483737 0.22153103951005174
42958000.0 0.9252844689874195 -0.36779035921659115 0.03234601772215197 -0.04446654259742072 0.0020328931680031123 -0.0046904506359715875 0.2761046386153725 0.2044599702902125
43957000.0 0.9242013038737293 -0.37607281572602225 0.034253776679900046 -0.04628797398130033 0.0015830170260079822 -0.0008774261230951832 0.28065546565815885 0.2127277414682956
44956000.0 0.9193657689888587 -0.3834226057870407 0.03397684963100863 -0.05443677859647675 -0.001427662135534698 0.0009203215190950964 0.29616409198426 0.1962229307678865
45955000.0 0.9163020342248333 -0.3933204527804682 0.03748127277366239 -0.06131515653406028 -0.00016600154095748823 -0.0014024389953062983 0.3030159418984986 0.1933419955011474
46954000.0 0.9134142274035302 -0.40210255001530676 0.03869597552358198 -0.06871861308559964 -1.4521293388557688e-05 0.000959604724757524 0.32781431421724616 0.18026721841831536
47953000.0 0.908782927883654 -0.411700951896171 0.03696225311024883 -0.07418304705567101 0.0008661641610680742 0.002376753667984387 0.33062673263820347 0.17619658670356225
48952000.0 0.9044077464723077 -0.4211370833705836 0.04107414447626007 -0.08359211349369816 0.001915728464640152 0.003763154160058751 0.34198840903378863 0.15480878114479835
49951000.0 0.9026823696041549 -0.42395996233350614 0.041785834156146257 -0.09022769691045562 -0.00045794533380005375 -0.0006561320986049664 0.35247171840686764 0.1486876639009094
50950000.0 0.8976460634260871 -0.4350269399343552 0.04117365198515062 -0.09801757741959195 -0.003537254295087007 0.0005393445332341126 0.3509643087241072 0.14345702660312443
51949000.0 0.8942991575115609 -0.4423816405821025 0.0423249615151983 -0.10520044171973321 0.0014739682691982585 -0.0030676695854502797 0.356096158921259 0.14619284439918892
52948000.0 0.8917186698273355 -0.45063890134049406 0.04336622865344457 -0.1175299112958789 0.0029021902251535605 -0.0003958843634031602 0.36789509548990484 0.13488265300798996
53947000.0 0.8852075613980609 -0.45811928519949696 0.0434165093696689 -0.12444370523414774 -0.0009695456321754656 0.0031657176879705297 0.3659875883813246 0.13134251951604292
54946000.0 0.8789520533266015 -0.4697620847343377 0.04664098604716818 -0.13639396235404946 0.0002890494656388749 0.0004578594994131725 0.38917436983032355 0.12404228782222046
55945000.0 0.8753223365008077 -0.47639217585595023 0.04800822609240671 -0.14476728789163787 0.002477730576742498 0.0031732984897540426 0.39185044786327744 0.10323504621003916
56944000.0 0.8724368520560707 -0.4845996621949853 0.04956691293120337 -0.1558451846144452 0.0025521586385907485 0.0008801262639136594 0.3919192786625995 0.10041427398232629
57943000.0 0.8680186728565578 -0.49462820890578013 0.05288863839333393 -0.16539316046904465 -0.001692502490961246 0.0007984198828974496 0.3984323698416841 0.08918862189892517
58942000.0 0.8616675780960519 -0.5003851556691947 0.05384817442659041 -0.17888546396511232 0.0025799903019054324 -0.0035636290976298183 0.41819462022181597 0.09563618650563768
59941000.0 0.8588222650242174 -0.5098816864839065 0.05654980007418008 -0.19157556476265514 0.001903466490067844 5.7068946589210807e-05 0.4169061879733193 0.08863039320664978
60940000.0 0.8503482266395818 -0.5151083733312034 0.053795342442385534 -0.19265882823685107 0.0031030725097397774 0.00010537554857878475 0.41293665956680714 0.07658640544879272
61939000.0 0.8470605652832819 -0.5220425279763775 0.05610930693419199 -0.20184709673147302 0.0012644104272605098 -0.0018195042842584612 0.4102204686505287 0.06637330603450903
62938000.0 0.8421286713634635 -0.5340369023930909 0.06248058468734721 -0.21845201504020792 -0.0002973246761354108 0.0029307100950423624 0.4448259145898269 0.05414468736602004
63937000.0 0.8369116013512241 -0.5404151638034685 0.059037195056926936 -0.23719185259747091 -0.002676067491243801 0.0038760557878864577 0.4380450922191047 0.05107015025478231
64936000.0 0.8289741767676589 -0.5483459860912472 0.06035412423279382 -0.2541926566279649 0.0016975165913773757 0.003411891948816453 0.4313505952512394 0.041607898344562244
65935000.0 0.8256772638371113 -0.5588405089750218 0.05972789317138381 -0.26968190724731195 -0.0009001628732811646 -0.0008871408897526921 0.43089843950170637 0.017313217049348826
66934000.0 0.8212860645966581 -0.5648829759236278 0.05833037215765446 -0.2828327947550452 -0.005576336238803614 0.0010652793984704475 0.4361996891736137 0.017606066567398836
67933000.0 0.817864039556636 -0.5714589156834473 0.059433007836223045 -0.297222056995068 0.0025697253157856304 0.0034372250524966268 0.440749488403108 0.011420792512279293
68932000.0 0.8060278458271198 -0.5774228645016517 0.05159572619380112 -0.31101060260379276 0.0008712523493323137 0.0011490547593321757 0.4618625694783415 -0.011776187034614213
69931000.0 0.8028698789878977 -0.5885645740706439 0.05205955543429537 -0.32858521600375373 0.001975508969484941 0.002517851280056975 0.446820149838315 -0.010906542890658429
70930000.0 0.7979632446377838 -0.5925544855345715 0.05206101862040639 -0.34298345664017926 0.0010499032274668679 -0.0035257707576685495 0.4409150192162224 -0.028418583120349738
71929000.0 0.7950061526191757 -0.6038445172050964 0.0502770493246233 -0.3640452420774778 -0.0013002463307851097 -0.00043440715950460493 0.44351202663480666 -0.036772091185116845
72928000.0 0.7865644535790389 -0.6116096466234879 0.03945967122269886 -0.3788359680087451 0.000715422046020441 0.0017880345744609991 0.46728410696997646 -0.05169163249580766
73927000.0 0.7802305042569049 -0.6178047746715915 0.03163545434591508 -0.40347290315586487 0.0001143167712068172 0.002701199939757301 0.45692825307336266 -0.05353980060230951
74926000.0 0.7759153828652146 -0.6282135302356417 0.02565474303146878 -0.42100993550745247 -0.000499172599447365 0.0015919598972527417 0.4561668059512445 -0.05806819844527369
75925000.0 0.7696974838445335 -0.6312277866676927 0.016148264578329612 -0.44143253370551233 -0.0015595241573439157 -0.0009609109561373257 0.46025092811529567 -0.07709469005067057
76924000.0 0.7640600263078675 -0.6413926341356133 0.003602955678370821 -0.4651916027011555 0.0005916668345593623 -0.0046058118442613896 0.46685496199664395 -0.07457116324097475
77923000.0 0.7563497740881205 -0.6466741704304023 -0.011600012231415434 -0.491614988223743 -0.00022157509478179844 0.0012827211367824407 0.45795552522808947 -0.08245133261545701
78922000.0 0.7514817698851938 -0.6557782037878482 -0.02652434760397382 -0.5180790576373393 -0.002290511466506889 0.0005221473556626156 0.46043589221168196 -0.09673427006615806
79921000.0 0.7438808168497295 -0.6611456538373214 -0.040847965969222126 -0.5481474471838552 -0.0026238987685210714 -4.558841500430405e-05 0.44620614021676336 -0.11115995618413176
80920000.0 0.7377688439390028 -0.6734042345381467 -0.05592562016916254 -0.5730128949663302 0.0033737801588341514 -0.0034362451396192637 0.47123122403236034 -0.12466704020695848
81919000.0 0.7324737630443925 -0.6762650316470513 -0.0745556870230263 -0.6015936512418698 -0.0013795533318293478 -0.001108594584817888 0.4710166686877888 -0.1278110707382494
82918000.0 0.7216810922911258 -0.6851367614421865 -0.08802768076218541 -0.6352276022132782 -0.0009090592111548869 0.004130052911144778 0.47862221290332013 -0.14618074880273693
83917000.0 0.7145120935227905 -0.6932601518071546 -0.11031452801219029 -0.6603887589764438 0.002180889172973979 -0.0013163964221331176 0.4802786253225565 -0.14488867189768642
84916000.0 0.7081650439368176 -0.6998795779925037 -0.12514821020252742 -0.6987158124481684 -0.00184254609786787 0.0012367007583614904 0.45497221867024035 -0.16444951361520946
85915000.0 0.701937098666727 -0.7072474572908253 -0.14945601309603285 -0.7334067535272896 0.0025770311861879986 0.0018656417273191757 0.46419128961593903 -0.16954763556797656
86914000.0 0.6935116785977589 -0.7172547124658847 -0.1609568188064577 -0.7695116129160788 0.0032882711717180267 -0.0021666888483001336 0.46182791336562273 -0.17126343246984996
87913000.0 0.6858335394121606 -0.7222950718559475 -0.18371333039034432 -0.7984102139920857 -0.0027875548183551803 -0.0001398405081005455 0.4571593865794185 -0.18531982011735765
88912000.0 0.6805584623003447 -0.7283184298316158 -0.19632708643510838 -0.8345531788789144 0.0025205477835826334 -0.00036644460520067056 0.4658299790410038 -0.2105147605838079
89911000.0 0.6717428259528272 -0.7377240804399092 -0.217611393634609 -0.8692887030994958 -0.0002718701497321283 -0.0014625531259016302 0.4599848738199627 -0.20177304164291376
90910000.0 0.66479842416795 -0.7441738006324936 -0.23231423751241945 -0.9047772976036828 0.0013227082908716552 -0.000930117262639171 0.46102095370350016 -0.2122863579939021
91909000.0 0.6551657406793571 -0.7469228863035791 -0.2468065521868631 -0.9414614175114312 0.0016777871620671121 0.003434340465606575 0.46128180405740205 -0.2226433825887231
92908000.0 0.6475829973208452 -0.7564709021032799 -0.27115891308346746 -0.9738891565149459 -0.0012059591214382574 0.0006416477258464077 0.4590841774168263 -0.23303889715992895
93907000.0 0.643319315084893 -0.7619712629402136 -0.2883899844532867 -1.0072939565176757 -0.00011645900898168266 -0.00029161462402973613 0.4676365755620663 -0.25129083357851295
94906000.0 0.6295041681706433 -0.7712621650157528 -0.3082952568149749 -1.040231616720713 -0.0012137410553712709 0.000248315975865898 0.46376246319243336 -0.25424263003416037
95905000.0 0.6244786804188299 -0.7766140295895747 -0.33070668234604195 -1.080731131565883 -0.0032827034812140383 -0.0014996343160334903 0.4474152785225682 -0.2576091159966446
96904000.0 0.6139614137887184 -0.7839682386216664 -0.3517388528222381 -1.1165415944510513 0.00489770559374247 0.00140779847628406 0.45001289456192456 -0.2757680261107117
97903000.0 0.6048137141925253 -0.7903438388287989 -0.3779201178254423 -1.147646688901599 -0.002714295125839682 0.0030670249191754122 0.4495264459523266 -0.2868931232261762
98902000.0 0.5988369221005598 -0.7965488465462292 -0.3960135414602166 -1.1874325243903914 0.0025242440318804346 -0.0024082282341414416 0.44724510242300636 -0.28820487906111947
99901000.0 0.5882539631198493 -0.8038156474228347 -0.4310745388830062 -1.218299196400787 -0.0031167386725382946 0.002199840527516535 0.4669005320875111 -0.309712563693175
100900000.0 0.5820044198988498 -0.8063877956313596 -0.4618232639876487 -1.254322487825517 -0.0003760390706771955 0.00442922538045483 0.4602516419259577 -0.3077450728857573
101899000.0 0.5721320277972956 -0.8138251545747125 -0.4946774454535734 -1.2949933213914762 2.3544105807500443e-05 0.001733742299393634 0.45305460356876964 -0.3157600240216373
102898000.0 0.5618597385525836 -0.8216367731051369 -0.5337783510722578 -1.328616502339024 0.0007916035269710578 0.0056346147337406295 0.4476663391401189 -0.3315564628986804
103897000.0 0.55343042371856 -0.828635126715429 -0.5744810867658221 -1.367123747342705 -0.0015645935902609796 0.001551885054446449 0.4585561537133236 -0.32383732663737635
104896000.0 0.5448167520724126 -0.8358375474039601 -0.6227023432782669 -1.4012748531308035 -0.0007482318564034352 0.000528668149511647 0.4465648634970865 -0.3424582802836405
105895000.0 0.5343397244864616 -0.8397131453447257 -0.6726685121448708 -1.4467103535099228 -0.0016817240056718375 -0.0002265622722863611 0.4378528280028931 -0.3458706460685395
106894000.0 0.5237182197233944 -0.8456486179653806 -0.7246919211793172 -1.482764599126048 2.8115127165181852e-05 0.0012940581060077966 0.42309412491497117 -0.35625841577068
107893000.0 0.5153653722496216 -0.8535994356031457 -0.7818726269526762 -1.5209604952654492 -0.0015814022762724509 0.0005139383383338031 0.43702145735268605 -0.37753851447678083
108892000.0 0.5062271463688538 -0.854839944635981 -0.8417312196386357 -1.5613084345784003 -0.00016224793428272784 0.0003389403844542394 0.4288421732871427 -0.37306968442284383
109891000.0 0.49349403632309097 -0.8625459137295498 -0.9028138271643762 -1.5981212213035694 -0.0030449647435732315 0.00015887205212057815 0.43413452044719 -0.3789847222462778
110890000.0 0.47994724736185795 -0.8794504314398711 -0.991980244772285 -1.6097176368796848 0.00200860300150963 -0.002572901538443806 0.4347318686388389 -0.38219230092033957
111889000.0 0.4722534279555639 -0.8691035939180202 -1.037247703639457 -1.6639837351653033 -0.0006402631115199769 -0.00494008161253706 0.42122550379305046 -0.39417976060585713
