! Created with skrf 1.9.0 (http://scikit-rf.org).
# Hz S RI R 50.0 
!freq ReS11 ImS11 ReS21 ImS21 ReS12 ImS12 ReS22 ImS22
1000000.0 0.983633561112532 0.0017164999091324785 -0.008041931064752221 -0.04629323633703063 -0.012528949045339079 0.009819463913539116 0.32280738419078475 0.39623453297372135
1999000.0 0.9987522430398197 -0.014063024834251729 0.0051895089012798865 -0.02256438364288147 -0.0031386781479878704 -0.0020670178209786757 0.24773403362657753 -0.030704483975402642
2998000.0 1.001914243523444 -0.025131916937137424 0.011291344447024907 -0.013950630760959872 -0.004697690656546169 -0.00881334417076735 0.19343915756582475 -0.11820014426904908
3997000.0 0.9943397190697261 -0.03739932236482711 0.0088974017663783 -0.00764904953874325 -0.0030850049414520974 0.0018845041240910408 0.12339172686494249 -0.17310203339732155
4996000.0 0.9915298236654517 -0.04156917376034924 0.00798963039831992 -0.002858772911083055 -0.0006393539342674438 -0.001782875714803682 -0.009907694123035788 -0.20518909516395936
5995000.0 0.9888666344032395 -0.0532685911982819 0.00590177269886407 -0.00015354236230988088 -0.0023162122028096096 -0.0006793715298390529 -0.11829923135251338 -0.1304962170578309
6994000.0 0.9880545981876548 -0.06246331273893554 0.004490514275912069 0.0056042920320973555 0.003979139473168537 0.003293413745640232 -0.1558811813392976 -0.04366000886652481
7993000.0 0.9902252356121047 -0.06869625325184572 0.003715167119319132 0.005740893596186049 0.00019797420854747734 -0.005143673881502792 -0.1696465504126681 0.027721460215725694
8992000.0 0.9874046742626844 -0.07697743692986928 0.006556400028843423 0.002899651377645588 0.007321114663510938 -0.0005991014549858239 -0.1714254292380218 0.057831300715529374
9991000.0 0.9861187767555104 -0.08772905893839154 0.004647194758363521 0.0013193360482601129 0.0034534765901327864 0.0045431043947508866 -0.15616955774773217 0.09819587004491455
10990000.0 0.9856947365248198 -0.09287667853808107 0.00573840037404702 0.001963657222057104 -0.0013513411419932046 -8.471852279278878e-05 -0.15741715496240552 0.10585296284725342
11989000.0 0.9837993405034025 -0.10240921481034011 0.006406837986840189 0.0008908052471879315 -5.828822684890578e-05 -0.0007188336453386211 -0.13775234116123566 0.13777863281945624
12988000.0 0.9836124979947763 -0.10961929633269919 -0.002027488397040294 -0.0017014116844159088 -0.0005102585308608476 -0.0018723331991941845 -0.1269007683832115 0.16634286983742502
13987000.0 0.9805604668193787 -0.12031925627663342 0.002025108073869773 -0.0016737606556934772 -0.0008610704611817151 -0.006516911911034574 -0.09862636513120038 0.19561712218005647
14986000.0 0.9803445047928793 -0.1260970569537783 0.0003025337228645546 -0.005562668750011519 0.000396938844048363 0.0003841327690715143 -0.09056880179329423 0.2085673060228208
15985000.0 0.9806865553520563 -0.13821619252720904 0.003344552734877308 -0.0038093497366118428 0.0001927405620950485 -0.0028129742136735426 -0.08139160364703434 0.2194070124909504
16984000.0 0.9773573872545989 -0.14663263567113638 -0.001673609376031613 -0.0019477651351379802 0.0021409376954258604 -0.001961968364883747 -0.07658570572414594 0.21902211576456043
17983000.0 0.9791500939050489 -0.14785713010110094 -0.001979568198246397 -0.008604551794358118 0.004878700974547584 0.0009586172171896627 -0.051459355754230926 0.23262402235968557
18982000.0 0.9764884873306542 -0.1610105409707413 -0.004634327276384728 -0.004785854266968073 -0.003414742302966075 -0.0012156623376719147 -0.023888498754082 0.24302603711233542
19981000.0 0.9759552356455646 -0.16883615175965838 -0.003170593425817153 -0.005140770229436932 -0.002059372847278518 -0.0034478123568564413 -0.026679410264332112 0.24888982923411604
20980000.0 0.9744219576415213 -0.1758672582235406 -0.007046876241230246 -0.0036118092569769906 0.0009114674590320223 -0.0012849120659133482 -0.005488380131344339 0.26031890158271537
21979000.0 0.9741848392501596 -0.18381320214593042 -0.006375023563395951 -0.004470346607316529 0.0018492598628037239 7.414961895379201e-05 0.005209674791393595 0.2499687779102181
22978000.0 0.9696375363573135 -0.1956154605748726 -0.006499751678703064 -0.006171875339651369 0.0005287700287748621 -0.0010672619940569567 0.016300728142316867 0.25863653403336173
23977000.0 0.9716943848724897 -0.20041145795905427 -0.00659283977416435 -0.0045267605585779065 -0.0033218600759280887 0.00039348327925850903 0.035522682387469445 0.25938427227886995
24976000.0 0.966586741117787 -0.21414840595319937 -0.006059768481245353 -0.001366971705268764 -0.004628121856766902 0.0003921423035844026 0.060535011239594275 0.25579108895194574
25975000.0 0.960390892784267 -0.2232829542576832 -0.001854259860415398 -0.0032461530679640275 -0.01047254037202703 -0.021522968275920124 0.0604250296207081 0.2672755980814121
26974000.0 0.9637784476206408 -0.2299218407066798 -0.0030490748860856074 0.002706564311214873 -0.001873640991462366 0.00505991603670574 0.07772619800590662 0.25639520576749597
27973000.0 0.9620408741545247 -0.23663809710399125 -0.007026059702151147 0.0008291842702365599 0.003883945381914905 -0.0037794166906682685 0.10012156630775768 0.25584136264896906
28972000.0 0.9608995102235258 -0.2455080840872418 -0.0037388909040817755 0.00027005023921219403 -0.00047404896041351903 -0.0030717685559527204 0.104578933062969 0.2590951778389769
29971000.0 0.957650429066335 -0.2553710589104889 -0.0005803715687870771 -0.0017791653014387469 0.0011299786436336898 0.00029287455678629165 0.14661445451932376 0.27182216046158036
30970000.0 0.9559516909297071 -0.2617223822385731 0.0024422061596583973 -0.001960516740205649 0.0007435619803073805 0.001817247868070112 0.15734100656934735 0.25529548122468715
31969000.0 0.9549641752182711 -0.2703352692688972 0.0041220573950720985 -0.0023908515112886935 0.0008305352243868956 0.0002380233034234438 0.15390306174819782 0.24575502297314375
32968000.0 0.9535300845497321 -0.27925452179612187 0.009154236488173172 -0.007879900898786665 -0.003235258952870954 7.02885512282424e-06 0.15459853489223485 0.24518631991645548
33967000.0 0.9503368534078983 -0.2902424746427975 0.007200445083246978 -0.0061159831898513605 0.0001910831162212256 0.001544975968453615 0.1827387403226773 0.23608388135423625
34966000.0 0.9471945336901352 -0.2994057856079729 0.011804022317306314 -0.01251896991699135 0.00197274805536244 -0.0001096520292229463 0.20252887058400318 0.24789441651027175
35965000.0 0.943407714113683 -0.3067469123965155 0.01674370916402146 -0.015275284492298785 -0.0013941671262489555 -0.00044884834065832166 0.20926690351958585 0.2504794280561267
36964000.0 0.9420344399838815 -0.3152010463961929 0.015605039293990796 -0.013407678154065426 0.0016980251357681985 -0.0009958216307649637 0.20972084018439058 0.2405922537517642
37963000.0 0.9379549822289601 -0.3259608843724519 0.020390407281088613 -0.021656496221949862 0.002418852637016171 -0.0008212515621561501 0.22021531336676312 0.23298306050822307
38962000.0 0.9345290617348969 -0.3361579938449973 0.025673764674458324 -0.0263200592227779 0.0007342689169322251 0.0006255929907497185 0.23961737877620315 0.233768195682008
39961000.0 0.932983241108551 -0.34289148992587054 0.02991850525479125 -0.02630486228929983 -0.006169698525775561 0.0014024703749965159 0.24946105500181867 0.23003622233548265
40960000.0 0.9290972208693612 -0.34929864021754986 0.025770475462482224 -0.02347789541947066 0.0012619880267177377 -0.0012086367338952886 0.26310149615577905 0.22137282282518458
41959000.0 0.9265176597944754 -0.3597477525558272 0.030355530965589742 -0.03257417484537593 -0.0026308723545668063 -0.0005798698322038397 0.2561999894409669 0.21375686895734713
42958000.0 0.921651768015136 -0.36815424470128527 0.031570758329543654 -0.04069038652885408 -0.00016207438407445327 -0.0031759363984410777 0.2690091706244169 0.20512116843700784
43957000.0 0.9196100649036917 -0.375055108145227 0.034838870261731825 -0.04869068589921708 -0.000639911869066786 0.004028362342899215 0.2766091627464859 0.21270742529279052
44956000.0 0.9162598145609738 -0.38557311109786935 0.03510935927750634 -0.054166764021704124 0.0018071097186709772 -0.0006805350045617799 0.29355625097904225 0.1954419632323866
45955000.0 0.912518644557573 -0.3943386731032218 0.037599244305944704 -0.05969501190854965 0.00013639952889461888 -0.002797337657863658 0.2988796767116848 0.18477965964553228
46954000.0 0.9076571764385445 -0.4026717496169915 0.03980607824638968 -0.06561388920177115 -0.0013825185861942998 0.0013820805625314736 0.3271409432384457 0.17655283495333637
47953000.0 0.905165603494184 -0.4105348638800483 0.03705600326290717 -0.07300763275897537 0.0031573554806683503 -0.0027488370308174927 0.32727130593800696 0.16948026913665043
48952000.0 0.9000215304325588 -0.4200276881061945 0.03622786435094348 -0.08097513855171622 0.001076320450223083 -0.0015830618374490556 0.33599463127668344 0.16332674793261986
49951000.0 0.8959776845928746 -0.4284802384201532 0.03651583668845288 -0.09130233518471605 0.00022556165373817844 -0.000758473746219273 0.34671084914706374 0.14327021640495283
50950000.0 0.8916431048340719 -0.43757200774141863 0.04285995027869768 -0.09621511479163532 0.003626607322242598 -0.00026110884922839016 0.348659434679456 0.15482621165036034
51949000.0 0.8875373924420624 -0.44491641594589926 0.04176623770444632 -0.1048279902956538 -0.0008645096808447698 0.0047472710071031 0.35621520100895776 0.14180365484058516
52948000.0 0.8845108087908238 -0.45548773133115544 0.04092307955714051 -0.1175850066062844 0.004030830981731691 -0.0004006415103155629 0.36235181419218077 0.13575542872620341
53947000.0 0.8789599649417982 -0.46143689089030665 0.04299199296712706 -0.1245861765434452 0.0027576930232251543 0.0031909383419544963 0.3682037980932416 0.13068315352298235
54946000.0 0.8741947899668698 -0.46899120385757836 0.047118018391709184 -0.13294315300807544 0.0029801836556864925 0.0020059451999691054 0.37813409081721544 0.11704930224002982
55945000.0 0.8704806862378975 -0.47922046292264997 0.04906325098894577 -0.14414950052718084 -0.0011168530853141738 0.0029429453798895436 0.38451976176951574 0.10272476346025257
56944000.0 0.8667942915859967 -0.4866392543948033 0.049561563727320915 -0.1542280985357166 -0.0008500830671924611 0.002731656904640233 0.3882618848596895 0.10330926519655055
57943000.0 0.8607279531037259 -0.49775494546098714 0.04951833837715697 -0.16727168051444147 0.002153094306325729 -3.665493408433308e-05 0.395489362106289 0.0921578289428014
58942000.0 0.8527462530938394 -0.5028735690602734 0.05238676662791259 -0.17743369253476812 0.00312692249872885 -0.0007062484769061969 0.4147984052860961 0.09991735278019336
59941000.0 0.852222732160858 -0.5100090088520816 0.05252176242516921 -0.188603748358812 -0.0033558384184609177 0.0016533722117181378 0.4100026056655278 0.08622595748084044
60940000.0 0.8436643971208811 -0.5190941013656967 0.054223926647991604 -0.18824221134847313 -0.0006872929689780881 0.0007304151628856597 0.398609829902081 0.06629129217268331
61939000.0 0.8404945233935436 -0.525688572257815 0.05506703114780702 -0.20068601966895064 0.0003790929919505616 -0.0009683131034035279 0.4159375013026634 0.06732873884974311
62938000.0 0.8346600410758795 -0.5360074268479972 0.05595822852109192 -0.21595104498830575 -0.0021581573312423035 0.0022727792795837207 0.4322810593667385 0.05536197814547743
63937000.0 0.8304294530201188 -0.5441733432847534 0.057477343512094124 -0.23720996773154945 0.00018128095836168924 0.0040465905321414065 0.4227839944341214 0.039985016769019575
64936000.0 0.821124494839378 -0.5503264160003373 0.05855860252215702 -0.25379189806394925 0.002558133756923412 0.0024455087059114936 0.4261824026291064 0.038761744297338176
65935000.0 0.8195783637930137 -0.561076908816756 0.05752793239792613 -0.2686528708994372 0.0026725114847174635 0.002514175742515479 0.43339966487271664 0.016666866429085655
66934000.0 0.8143962568366035 -0.5651223689675793 0.05582905411392204 -0.28133988479992444 -0.00236745438276616 -0.0004840366097417639 0.4306206425433666 0.008540803839687682
67933000.0 0.809566708690056 -0.5740099563515862 0.055432405915948876 -0.29687179714081885 -0.0010329526818495865 -0.0003069868192296648 0.4315198263505003 0.0018540640560800042
68932000.0 0.8038880957879845 -0.5776429548695009 0.04971604658801027 -0.3115785414557601 0.0002036241817487178 0.0008533056008448352 0.4436200605006515 -0.003913955504132521
69931000.0 0.7952556231621751 -0.5899993173300631 0.04865287984583742 -0.32466408360672805 -0.002347680362164242 -0.00037300207215560125 0.4410118591091047 -0.026738076077781208
70930000.0 0.7899063504848716 -0.5965384228594762 0.051082781497698064 -0.34190324050821524 -0.00024137436400547703 -0.0025625702337061813 0.4366076508255608 -0.04224073701860774
71929000.0 0.7857350410576659 -0.6041013564817646 0.04264425743112957 -0.35852130655372155 0.00011829111476703062 -0.0026601737198303746 0.445150854689991 -0.04310850842954928
72928000.0 0.7790926964140447 -0.614958201665197 0.03370428604898042 -0.37566786096387716 -0.0003703446907117239 -0.0006530977023138557 0.4609444757409023 -0.054600562390003896
73927000.0 0.7720386920994368 -0.6196736415948246 0.0274081745597301 -0.399582298725521 -3.632264536363016e-05 -0.0026989994545932737 0.44996647796542016 -0.06403616692530113
74926000.0 0.7680021073665073 -0.628090974609255 0.023441212783402648 -0.4194458108957619 0.0038798994750691078 -0.0029117165719654897 0.4543879142899677 -0.06323024546728348
75925000.0 0.7614494185728655 -0.6338441561512146 0.009409539934374257 -0.4387784757590935 -0.0005902563493656755 0.0014799387159117453 0.44597943808992524 -0.07589685139051894
76924000.0 0.7538840992519548 -0.6414481458707857 -0.0032785316903159415 -0.46314687274475425 0.005654237388764906 -0.002099141334639718 0.45699084625432657 -0.08563406831252651
77923000.0 0.7462945925149596 -0.6489488707470955 -0.018774053167593136 -0.48397370065645134 0.00308243355390304 -0.00020708635047649618 0.4429073189873035 -0.09882577495511462
78922000.0 0.7413150365061539 -0.6595546654121094 -0.029337528680058726 -0.5147904594202936 0.0032813035857082906 0.004119329963139384 0.45352846115865025 -0.12103012595245305
79921000.0 0.7314524560378229 -0.6649564311240524 -0.05014021794546051 -0.5389117803768458 0.0020528275077077445 -0.0027663791936750845 0.45150732814356387 -0.12656006331248462
80920000.0 0.7290658416510591 -0.672640666482211 -0.06374918723104943 -0.5690234770353334 0.0015132117419814968 -0.001895161993189322 0.460777379917055 -0.13493810457307437
81919000.0 0.7225979076687216 -0.6780744593463065 -0.08345341741235465 -0.5969413885752933 0.0002717910864737528 -0.001162959474150934 0.44983002160085006 -0.13659012702087503
82918000.0 0.7104920030427457 -0.6873579871830304 -0.09420355938774384 -0.6281048760355868 -0.0009584980220004429 -0.002923113074586962 0.4748457473142883 -0.15855796875128997
83917000.0 0.7035872601630321 -0.694936563767714 -0.11354134708360646 -0.6570739806006932 -0.0019959539648779666 0.003887046984715766 0.4683907531004594 -0.1584246993810766
84916000.0 0.6982121098662107 -0.7023196059403257 -0.133098658783178 -0.6971299535747401 0.005724579058250748 -0.004345528071240247 0.448938848503964 -0.18554041095118562
85915000.0 0.6921639856925591 -0.7061586709049114 -0.1538805470480685 -0.7198095008890805 0.007520697392989662 -0.0028280385784459337 0.4636231222353043 -0.1781000528769941
86914000.0 0.6826796757264153 -0.7165788139563412 -0.1670589789157713 -0.7608941272618812 -0.0010327550231319876 -0.005049617421022671 0.45432431406967083 -0.1822192177272284
87913000.0 0.6784863284910376 -0.722485034169395 -0.18521096618600838 -0.7885558184234298 0.006092574474976113 -0.0020640004845371386 0.44314994051203616 -0.19299963983432405
88912000.0 0.6705378662028545 -0.729139234224248 -0.20393442047253435 -0.8256269367332509 0.00046645289627524246 0.0009029758077542488 0.45507932622438063 -0.20668282112493952
89911000.0 0.663509396034058 -0.736788797716496 -0.21897553454251403 -0.8629533325828346 0.003867718039585218 -0.0030449393245789123 0.4565126178611056 -0.21552871376593927
90910000.0 0.6549238329312412 -0.743339792893971 -0.2367922087194905 -0.89949489664686 0.0003375017165553056 0.0005680535505726747 0.45924373388101036 -0.2221152060801505
91909000.0 0.6452558800967132 -0.7470942462538553 -0.254879948438462 -0.927437728803938 0.0007725778669384265 0.0005020555220430017 0.4563000976121832 -0.22922555691744337
92908000.0 0.6383324632140834 -0.7562512575275766 -0.27893102540290593 -0.9605578850041696 0.0018819975708685886 -0.000995640362854345 0.45171621991810207 -0.24575106657734128
93907000.0 0.6297889026528619 -0.7594543562237984 -0.2973963020062656 -0.991632868141228 0.005109268040770314 -2.1291308721407105e-05 0.4451728868962689 -0.2656708267470137
94906000.0 0.6186134056469362 -0.768279935035986 -0.31144501476051123 -1.0262577564850972 -0.0029632999027317366 0.001989378290439021 0.4551710588457721 -0.2507853142614589
95905000.0 0.6137938004672668 -0.7751131054007209 -0.33781867974517094 -1.058496505821455 -0.000774204019815144 0.0013983316264484875 0.4441394626347957 -0.2784724556926141
96904000.0 0.60555796376655 -0.7847352482206402 -0.36265905379555613 -1.1033795989069726 0.007800331062044296 0.0011965640660791697 0.4507952695063892 -0.28695019984600456
97903000.0 0.5937987989011453 -0.7893426984172066 -0.38721999842256494 -1.1357320381774163 -0.002738211046039125 0.0017157727033174643 0.43077513558602193 -0.2897291305510104
98902000.0 0.5896876445148823 -0.7942812961806981 -0.40679972346603704 -1.1745083638088558 -0.003057205234237618 0.00013057590732639752 0.44171928314680536 -0.30183557949531453
99901000.0 0.5784768678783772 -0.8010903339290911 -0.4372832828820322 -1.2048196415878654 -0.0022459665439950125 -0.0023370290294634976 0.44517289844000385 -0.32468957487964717
100900000.0 0.5713250559496896 -0.80489470633685 -0.47004092404198955 -1.2375075186542313 0.0017000573675901 0.0006135486520754652 0.45646078497355025 -0.3194995185369304
101899000.0 0.559842699105125 -0.8126596498360729 -0.4985906109804716 -1.2743585240685293 0.0005475568609406532 -0.0034023041209945972 0.4357399995742952 -0.33058049518535304
102898000.0 0.5513543173302693 -0.8190321850490814 -0.5379774039762489 -1.3072418603839062 -0.0035674295304214117 -0.0012590250225481096 0.42191115038931426 -0.3485095196263159
103897000.0 0.5424858313639564 -0.8255693015097868 -0.5853962654721087 -1.348759160366412 -0.0022900508081523975 -0.000818141992893991 0.43996489940676387 -0.3434040785474106
104896000.0 0.5341532554028872 -0.8354489103251604 -0.6335630924792426 -1.3779881922324801 0.00031066278233148585 -0.0019637863310541345 0.4302103041132351 -0.3506268833686285
105895000.0 0.5259738883519895 -0.8389195240426156 -0.6796546655814586 -1.4253181782077138 -0.0002991621467731066 -0.0004728920374325478 0.4270887344795118 -0.3640546383315135
106894000.0 0.5139076020928977 -0.8454735988001802 -0.7401421133407443 -1.4624989413973937 0.00021076600084159387 6.786726187294764e-05 0.41602029395709794 -0.3780561774351132
107893000.0 0.5077254930876927 -0.8508269200682705 -0.7900886842885544 -1.501857163046866 0.002494231122284457 -0.0022199496928145958 0.42840733793783453 -0.3855214304043525
108892000.0 0.4971970845813768 -0.8550873898104095 -0.8490639317965266 -1.5330307077884067 -0.0002516316298919782 0.0019875965481097285 0.4091036831146539 -0.3761194568259197
109891000.0 0.4855444621307954 -0.8612350116885151 -0.9094056351291385 -1.5727780058849272 -0.0017002697771552043 0.003043160895991632 0.4281857638211286 -0.3934378647282397
110890000.0 0.47698394361802293 -0.8733116366948277 -0.9864208511452176 -1.5949046242725435 0.004785310585937911 -0.0005830675571583168 0.41913525469330337 -0.3921389061419177
111889000.0 0.4626941525874688 -0.8695374123557675 -1.046987542544388 -1.6395577645989985 0.002679436165561359 -0.002151304802760836 0.40813887580293234 -0.4122125240338029
