! Created with skrf 1.9.0 (http://scikit-rf.org).
# Hz S RI R 50.0 
!freq ReS11 ImS11 ReS21 ImS21 ReS12 ImS12 ReS22 ImS22
1000000.0 0.9744734240900814 0.00226402974978804 0.00660035511899976 -0.05534587732900703 -0.010206457123564555 -0.004461791724547252 0.3483684602639149 0.27289416257104
1999000.0 0.9917419389516235 -0.012029644576398532 -0.0017662485661942074 -0.016898188485589716 -0.0048126558858078315 -0.002270391330255476 0.24718204476717962 -0.04821987593592506
2998000.0 0.9995678461491939 -0.021357434449657535 0.0064018828995069796 -0.012692924397044997 -0.002037100015631918 -0.005857906667873127 0.18967563102990223 -0.1218391546400762
3997000.0 1.0003879519828973 -0.03291383660870086 0.013761607446127921 -0.004627249455862146 0.0017584060610252553 -0.0009106025791478114 0.09893625433607918 -0.22746724301788301
4996000.0 0.9934521273687152 -0.040179627606710566 0.016341290870289904 0.0013952044230792382 -0.0027329335350681854 -0.00046019077759524023 -0.042195362380110076 -0.20642708029580611
5995000.0 0.9974244956271087 -0.04842488390546681 0.005331812584588004 0.008495467220425785 -0.001746787937448842 -0.0031832834131103097 -0.14022873873232702 -0.11578557922099265
6994000.0 0.9957757603896775 -0.057038404693675424 0.009531449872351298 0.0040959958311690735 0.0022999485844743843 0.0015395134204268164 -0.1603987677133877 -0.036642059036941343
7993000.0 0.9961244003582661 -0.06696598792256277 0.00785063462696713 0.007706493163765519 0.010436479647535267 -0.0007218337437569319 -0.16923472856316862 0.04251978159528383
8992000.0 0.9929145721324195 -0.07180587277691354 0.005604542407519402 0.00269092282557799 0.0011888079913682837 -0.0013316120683438202 -0.16602601025539562 0.0521041531791398
9991000.0 0.9935115116665216 -0.08295205276153905 0.004339550075079449 0.0017752275593787838 -0.0019826266056216114 0.002409882271643436 -0.16164747554303982 0.0773411787831188
10990000.0 0.9927035990313805 -0.09297715590479244 0.003971564719561731 0.0038290624222820594 -0.0026081387281615817 -0.00101131082475354 -0.14256901686218362 0.12490954573190316
11989000.0 0.9921254539256116 -0.10162994929595852 0.005859480376858878 -0.0012211959710487707 -0.0009532604064405055 -0.0015543149902750991 -0.13306726151926057 0.14159477465558082
12988000.0 0.9919993264745383 -0.10834483576092833 0.003909980134933377 -0.0013954025322201365 -0.0008624384338917045 0.00504295453263535 -0.11034585607541997 0.16355135115609015
13987000.0 0.988445931552419 -0.11689014334181777 -4.485893565561405e-05 0.0031402797376218704 0.004626121775341969 0.002171880474567344 -0.09970506675356655 0.1821500212834378
14986000.0 0.9898165362938162 -0.12319668536252323 0.0039597182775675 -0.00409634876010306 0.0010970148364311302 0.0015856193865962853 -0.09292597743665112 0.2042521668190646
15985000.0 0.9891215364852797 -0.13501478645318601 0.00068641114161934 -0.0020163587048332536 1.5702140944550888e-05 -0.004265263451697698 -0.0757383914674486 0.21984611288975184
16984000.0 0.9875732276264881 -0.144826596609189 -0.0014890500136338766 -3.866622755327851e-05 -0.00048189096472242766 -0.004008099645782137 -0.053403512560863786 0.21706741999250295
17983000.0 0.9859728623867297 -0.150108666631607 -0.004083337203688003 -0.0026264852946052144 0.002309263932194223 -0.00046960007643938247 -0.05629492513004542 0.2260829033191422
18982000.0 0.9822403106606418 -0.1604848864762229 -0.006065643489703201 -0.005631590284521876 0.00046351553978463605 0.0014481215070729244 -0.027126681290205644 0.24088289957867412
19981000.0 0.9835144882926061 -0.16356454376952514 -0.00623677958136037 -0.0054901962039371945 -0.0017602627576710208 0.0023124137901241668 -0.015400270661568231 0.24247265668928616
20980000.0 0.9822615102413872 -0.17650002166093137 -0.005711764680141956 -0.006301903800192673 0.0022199886789966536 -0.0031389407036812103 -0.009550365624519299 0.26533425133879357
21979000.0 0.9811141468631398 -0.18291804541655657 -0.009417396675108448 -0.0055649488396441096 -0.0019984905100006584 0.0031672986946351153 0.00902337261264879 0.2517665679840222
22978000.0 0.9769750380302202 -0.19521909960567346 -0.0058250869759390355 -0.005468691026831322 0.0014488282761052663 -0.003701796819053937 0.022533669851460037 0.24936314267707124
23977000.0 0.9789810274943397 -0.19828724744200488 -0.005886471744969764 0.0016307061821715862 -0.0016144995143183088 0.0070526967981947115 0.040379101967912424 0.2594905381545827
24976000.0 0.9757029030296898 -0.20934454950018597 -0.00666205408597343 -0.0043151941710153335 -0.0013956768688866397 -0.00271765537391237 0.05889710215514491 0.26056587868922215
25975000.0 0.9702707833353295 -0.21412915436914803 -0.005440018468239328 -0.002866502844096799 -0.028009062627549444 0.0015590326892381135 0.08256009295706568 0.264630211261074
26974000.0 0.9726370964113474 -0.2259479185797098 -0.005192774087546608 -0.0021846841035958703 -0.002476303687352942 -0.0003440305207423058 0.09711420324437217 0.26453376123325123
27973000.0 0.9723689758659168 -0.23262464817484005 -0.0016716021258356966 -0.004903262082063489 0.0006210240320190788 -0.0001675337211064279 0.11190438628903641 0.24983908139895591
28972000.0 0.9669124959224688 -0.24412688719184916 -0.0003013628520251879 -0.0034376577634714087 0.0012873297178468033 -0.0004011876772004223 0.11578509148189826 0.2550678193648278
29971000.0 0.9663024568704659 -0.25198109731109114 1.4572594475816869e-05 -0.0010870075029645763 -0.0013621640089309943 0.0011958920296051153 0.15424616920575887 0.27126664344763884
30970000.0 0.9641402287210123 -0.2575740740288002 -0.002409908290128087 9.012717544071279e-05 0.004475952373026364 0.0012699428345006917 0.16714984931292362 0.2529800918899883
31969000.0 0.9613543829873608 -0.26575414210881254 0.0027318953203972667 -0.003464582780132626 0.000731934850697263 0.001830474956517782 0.14263623692790242 0.2482029396281343
32968000.0 0.958914916514065 -0.27848060662068314 0.007911720704807241 -0.007437020743572281 -0.0016620617559033758 0.0006252013012777463 0.15560241697531918 0.24185030486116593
33967000.0 0.9590789039092441 -0.28323233926450375 0.010977423504071375 -0.007804285097166898 0.0005900314823328224 -0.0010243003522000431 0.18178100150398005 0.24429248591229732
34966000.0 0.9534144673688826 -0.29453986506024926 0.011245792029356176 -0.013538803325717863 -0.0004918466533605697 0.0002917860965502083 0.18760484401366848 0.24640759152998332
35965000.0 0.950364246309208 -0.2998558917582426 0.019730045205863966 -0.016262876670951065 -0.008604446243115009 0.0010731425046768134 0.21328939618201606 0.24889231063315512
36964000.0 0.9497851786225198 -0.31019826923918853 0.020704529330100068 -0.01408366102364815 -0.00031257581970523207 0.0004654820502442626 0.20868064375275308 0.24618951273548703
37963000.0 0.9458670316216418 -0.31996617205771055 0.019790496600400064 -0.024932816462637224 0.004469426361557636 -0.0013644164820221405 0.22577690251059193 0.2297886335259485
38962000.0 0.9442762259036755 -0.32669157513794383 0.02598505893859417 -0.024532562605805927 -0.001348482807610285 0.0003026994325985474 0.23587790997158828 0.23793569253778485
39961000.0 0.9402129869813214 -0.337467882655019 0.02341318792381887 -0.029018265493546337 0.0023346183422923456 0.0006523703102480525 0.24302318886290764 0.22763029702766616
40960000.0 0.9366792951386588 -0.34281420384159306 0.02170781275583615 -0.027527523993406258 0.002924953733832495 0.0018511936742921704 0.25518231258969026 0.21781535640624053
41959000.0 0.9355191991417224 -0.35270515626686033 0.033734743739248514 -0.03422894164968051 0.001189790462664292 -0.002457985234445702 0.2624856129461954 0.2073652590533432
42958000.0 0.9298123750167089 -0.3605990885121411 0.03213675377861114 -0.04274585367100443 -0.001955596170656312 0.001481959075721853 0.2788221564130218 0.20249909456141368
43957000.0 0.928028921368932 -0.36603380742332586 0.035385543338927496 -0.04672294600631347 0.002211420414851735 0.0002150530038873692 0.2804506652034681 0.2036732424373223
44956000.0 0.924229977639897 -0.3749709907349576 0.035958235549126895 -0.0549532966374494 0.0010299807515733467 -0.00029695541957237284 0.3051853331259586 0.19686052689606842
45955000.0 0.9213529458968324 -0.3855316597845481 0.036784292026826586 -0.05719621653164781 -0.0003839047502846197 0.001458865748357231 0.3014491884279171 0.19523945634310222
46954000.0 0.917752540347236 -0.39468705563673484 0.03852974384833553 -0.06961880979327104 0.002108394420810384 0.0005272984511181924 0.3244409373652549 0.1786224350342216
47953000.0 0.9148551022383835 -0.4017720582885236 0.03706416603907675 -0.07603974163605337 0.001031746922794398 0.0036472984709650914 0.3307180111640723 0.1722638725463948
48952000.0 0.9080697824046774 -0.4112540804618501 0.03737342860177841 -0.08373956613422219 -0.0024034111495485283 -0.002860598176522844 0.3366985567654637 0.15899670563270749
49951000.0 0.9041355867971275 -0.4195201801820908 0.03632605069991888 -0.0911699106649059 0.0003215424600017897 0.0006575477413435449 0.3476772424137832 0.15284107853436332
50950000.0 0.9021091338943641 -0.42736067276875195 0.039327234840223775 -0.10040189575731073 8.063967080506232e-05 -0.00017425359387496483 0.35115588880065146 0.1473629591370386
51949000.0 0.8977435434772498 -0.4357506222943476 0.03819704584415975 -0.10689903862252063 0.00014374466038595966 0.0010769926879020699 0.3634778432620605 0.13937874559114447
52948000.0 0.8954125636523095 -0.44265466185571667 0.04301505373436688 -0.11733114992221601 0.0017123868683773264 0.00012679201762308897 0.36526288460869066 0.14147285482500999
53947000.0 0.8901866666374882 -0.45123239935629333 0.04269323095462604 -0.1246996506127622 0.003317008069775998 0.003003674210286613 0.36763596800731246 0.1198077344428413
54946000.0 0.8861196069081201 -0.4589078081815548 0.045276789456632466 -0.1378104518742674 -0.0031236650287655736 -0.001945525781136547 0.3823191602450689 0.11958225320466784
55945000.0 0.8824580798389314 -0.4689684903562137 0.046453837940841486 -0.14574737626048723 0.0019059202246795826 0.0017264639043018909 0.3806667650874584 0.10425996834403783
56944000.0 0.8778991205823373 -0.4766423232265036 0.05010047128722994 -0.15775867651006537 0.0020731320931851043 0.0014529790573872524 0.3958630071180691 0.09872015572921046
57943000.0 0.8734981725975169 -0.48586601075378644 0.04876395805088662 -0.1692847194800859 0.0032714987361045582 2.431600638010038e-05 0.4041808213622619 0.09136661985368255
58942000.0 0.8690979719627488 -0.4906657229828031 0.04973343989489372 -0.18032438494133562 3.849918362847443e-05 0.004681356952173263 0.4194824487804326 0.08683638492580001
59941000.0 0.8638346870876447 -0.5023307595700176 0.05348916452557867 -0.19349299081257587 -0.00016575454107745554 -0.0012909438930783172 0.4130516777064923 0.07856624553115665
60940000.0 0.8566437885963653 -0.5059263648084232 0.05066466325319924 -0.19602719741260377 -0.0018211801778318154 0.0002521407770918407 0.40585150682484 0.07912721222466311
61939000.0 0.8551216294702103 -0.5147660562480907 0.05424482401154102 -0.204485554517665 0.0008932144905655469 1.6990843987887707e-05 0.4056332796350674 0.06128749965326727
62938000.0 0.8488421222582037 -0.5245940749590953 0.0542033590410503 -0.22386935563740518 -0.001351857978876342 -0.001222936761344744 0.44602563416870766 0.045314358162199905
63937000.0 0.8416120962994339 -0.5333602878612846 0.055332799183496775 -0.24600223244775407 -0.0022649022127927783 0.0011110342874035778 0.43923915676609165 0.029966447757957027
64936000.0 0.8368608737106822 -0.537936468470203 0.05619525584050016 -0.2562302424593567 0.002698221703522988 -0.0013538331878180218 0.43304780783688185 0.03632060508349318
65935000.0 0.8335606080041442 -0.5496463385648643 0.05442216187445944 -0.2726973253982337 -0.0010712074061723753 -0.0022297227218561174 0.43221906682683026 0.011490878832972685
66934000.0 0.8307397662328139 -0.5555776292548591 0.053576796421203804 -0.2858357312214148 0.00285481465385878 -0.0011997994637076546 0.4296413236442304 8.314008442802827e-05
67933000.0 0.8266514181258872 -0.5618065877964226 0.055363585274196755 -0.3011144134236632 0.002553668523686136 -6.0779613841069766e-05 0.4438864862969526 0.013851422912658756
68932000.0 0.8240451258938323 -0.5626161628816027 0.052028425773358325 -0.3148224445858906 0.002887632966220612 -0.002440812288009045 0.4546146154409808 -0.014258104119734005
69931000.0 0.8110737520893329 -0.5790129040675445 0.051475476178905695 -0.33131914517901756 0.0012197731276903324 0.00021877753210406233 0.44201706651488376 -0.02391646120012027
70930000.0 0.8064863231507093 -0.5849590995717988 0.04745999278441621 -0.3479890392924225 0.0007493971989684148 -0.0031044578909592726 0.43993186324544126 -0.03893554673295762
71929000.0 0.8053165302566031 -0.5925538389787596 0.04449318511202156 -0.3648896913109459 -0.001546748551073916 0.0010332613517163704 0.44450077909570596 -0.045097261595360476
72928000.0 0.7946606755497004 -0.6021109593612242 0.03832363697176156 -0.37979754697898804 0.003395787206959136 0.00036631458286788527 0.4616808857036116 -0.04977153577667399
73927000.0 0.7891885783709733 -0.6068536606833662 0.02594761181127222 -0.4009996753309863 -0.0006094642884864665 0.000939555420398757 0.4550296240383776 -0.058479256931862136
74926000.0 0.7839528471169984 -0.6182841976786663 0.021832397120585934 -0.4199291433834611 -0.00020444257630984768 0.000450549596223093 0.4631361103832314 -0.07174847491822615
75925000.0 0.7796848374709044 -0.6215556879684789 0.009341496463934567 -0.44210399803044564 -9.519696806047953e-05 0.0015874499750887568 0.46413234023352756 -0.08217636411005919
76924000.0 0.7733142279257359 -0.6296083313359369 -0.001371611198469794 -0.4663630425253809 0.002293753825217967 -0.00023069605991205144 0.46531036894987887 -0.0872684200139293
77923000.0 0.7664773974672137 -0.6374847503477138 -0.013703617558209754 -0.48838503978593395 0.0030341253459572276 -0.0003414143135194189 0.45956461415613525 -0.09738840947218791
78922000.0 0.7598798147666596 -0.6456076506301542 -0.03017347513587663 -0.5194563143886353 -0.0023404332408522906 0.002359473938405263 0.45360989205831564 -0.1150847914880297
79921000.0 0.7531917405163344 -0.6512355690070798 -0.05054786002853382 -0.5444451121659792 0.0011003737093797051 -0.0012828791388926502 0.4563229442871308 -0.12021314594138241
80920000.0 0.749244105258926 -0.6612395339147162 -0.06668962682851494 -0.5735693765199406 -0.0010120534196699084 0.002738997281462587 0.4648495456672281 -0.13261725702551555
81919000.0 0.7441804936001964 -0.666438051901276 -0.08484481982813258 -0.6027198236472164 -0.0011702047806324504 0.0017803703278770286 0.4637281967132574 -0.14256120063702624
82918000.0 0.7309217016876984 -0.6766425917417255 -0.0972239521973608 -0.6320781104650953 0.004455492541826711 0.003357164836156627 0.46330359375911395 -0.15572405121203964
83917000.0 0.7252985696728652 -0.6834038545768497 -0.12148906751217196 -0.6616483402269084 -0.005996466584479593 -0.000751419418466571 0.47976569028394556 -0.15899455375694233
84916000.0 0.7213435399070377 -0.6908211003019407 -0.14118467781290567 -0.6984108644335839 0.0059363591244599445 -0.0005595768068149015 0.4564289752249787 -0.18556413635203264
85915000.0 0.7138327196448055 -0.6964910184909066 -0.15800489908643056 -0.7295944598560812 -0.0007466513079248698 0.0019927055934226916 0.4677236390677393 -0.1817274252644083
86914000.0 0.7064899271156925 -0.7059488971335415 -0.17787107917015038 -0.7669379689941332 -0.0022762698852352645 0.0005874060567103792 0.4629288932769023 -0.1780134651828969
87913000.0 0.6989151006165604 -0.7115736022957453 -0.19416888045844805 -0.7970649885439159 -0.0009175430687990115 0.0004956123560323055 0.4535279989623423 -0.19612731549229356
88912000.0 0.6926814919246242 -0.7180212474718813 -0.2132663852595591 -0.8335721504322954 0.002162612830397526 -0.0013306210541698194 0.46195431281985 -0.20970822515137594
89911000.0 0.6860843129968036 -0.7264264533266284 -0.22865060467027198 -0.8712356248409032 -0.0032635453357962806 0.005229042929036092 0.469061290902072 -0.21620248754878327
90910000.0 0.677285757499006 -0.7338159008613793 -0.24768353595749343 -0.9051364983694961 0.0013802415811359618 0.0023215995880003296 0.46065571584062415 -0.21565817801178366
91909000.0 0.6689726850464952 -0.7381665124473492 -0.27204376166176303 -0.941728901524169 0.0010308040654048245 0.0016304553932091753 0.46243457384928516 -0.22345963410385786
92908000.0 0.6610654759121083 -0.745207714473688 -0.2899388115522679 -0.971016356952167 -1.5805710406666973e-05 0.0021346907909267658 0.46199870308597824 -0.23593107206740296
93907000.0 0.6551041247609586 -0.7524027584759233 -0.31016883275753926 -1.0064723304591268 0.00015550132437747144 -0.002203377461078619 0.4595431813282105 -0.2672314077793766
94906000.0 0.641970927653234 -0.7596693068131989 -0.3329389144417797 -1.0386703777615538 -0.0034274309397704923 -0.0013761023200343637 0.45448245983194147 -0.25710574489712923
95905000.0 0.6376146724374309 -0.7665155813409847 -0.3523883440285296 -1.0726632098421345 0.0014438895868910812 -0.0021534688274659334 0.45643078499694445 -0.2779192778003589
96904000.0 0.6272869437422083 -0.7754034735275304 -0.37429458702716467 -1.111840726159626 0.0020950329924918293 -0.0021800516330744858 0.45178282937958475 -0.2856034109771398
97903000.0 0.6190037749215784 -0.7816330549982107 -0.4024870621515511 -1.14971275564665 -0.002825159236787227 0.0019205892697283856 0.44572113687494547 -0.30303869793956373
98902000.0 0.616640819784886 -0.7847796959408567 -0.41959540914689863 -1.1837853950982191 -0.0014086163758179825 -0.0040429890114589 0.442491058555829 -0.3016221976681126
99901000.0 0.6066207212193134 -0.7922082190518854 -0.4500689098226385 -1.2189157235166266 0.0004639241171016329 0.0021641101603031834 0.45521837303758694 -0.3233221590643183
100900000.0 0.5948337807951974 -0.7958552356741087 -0.4846872002064656 -1.24463976558883 0.00036442971325434327 0.002327617833167283 0.46066832066834096 -0.31891403056719003
101899000.0 0.5871316350740821 -0.8040270847081179 -0.5133342458504012 -1.2873981979411808 -0.0022922960315168842 0.0007336956825830065 0.43750004233765455 -0.32481369213681627
102898000.0 0.5762538877747417 -0.8108006439005184 -0.5549365063024528 -1.3246890773361981 0.0008262147386223041 0.0010969291212126141 0.44337862881760143 -0.35159958305979777
103897000.0 0.5694015759865134 -0.8146056019216138 -0.5877065679753958 -1.356043663931063 -0.0003902755142516299 -0.0006821417264034109 0.4485570033097739 -0.33574563800555257
104896000.0 0.5621964738489408 -0.8273897606091203 -0.6388464918399319 -1.3944718455346496 -0.0018957947345164124 0.0015000911059931813 0.4261080105707838 -0.3383790605702558
105895000.0 0.5490984375487351 -0.8282724964029277 -0.6862846509380784 -1.4351522782418595 0.002490913125116053 0.0008901665993226095 0.4269915621048332 -0.36160343930233085
106894000.0 0.5411832177872705 -0.8352267949068778 -0.7448829869416947 -1.4705380489701103 0.003980740095914792 -0.001567400926781751 0.42743494782863733 -0.36917172572223095
107893000.0 0.532273379998359 -0.8425260426806536 -0.7980562547789495 -1.5130765563527169 -0.004311530434618554 0.0006330046114823731 0.4279936360825506 -0.37898531975900757
108892000.0 0.5245117231169164 -0.8450451813737081 -0.8562106096587367 -1.5529249427569942 -0.001239780694851037 0.0015653983075162308 0.4137928466902989 -0.3816017707728029
109891000.0 0.5132198465226934 -0.8527374221794322 -0.9175267124873595 -1.586964241333792 -0.0006035157875796499 0.0025390320800962947 0.44456151309622793 -0.3798374371999057
110890000.0 0.5069524958752502 -0.8687415431391862 -0.9954758737257831 -1.611316825962507 0.0015758826856937863 -0.001602389480348189 0.4153412770220493 -0.39039329736522543
111889000.0 0.4928821583008233 -0.8608158786417234 -1.0463793101259424 -1.653777104038013 -0.0008356310708961556 -0.0011177924658602528 0.40989885297114115 -0.40356748243254537
