! Created with skrf 1.9.0 (http://scikit-rf.org).
# Hz S RI R 50.0 
!freq ReS11 ImS11 ReS21 ImS21 ReS12 ImS12 ReS22 ImS22
1000000.0 0.976414779107366 0.0006752990787524674 -0.017061231683673912 -0.035935538632891 -0.010756286060642953 0.013912773073029622 0.3265117080127898 0.31612110378867575
1999000.0 0.9952962121026863 -0.01336058986739838 0.006088793108837258 -0.020532708772837933 -0.004586375230010811 -0.0017701508092937389 0.248992293153328 -0.05260338959855316
2998000.0 0.9995274222991894 -0.021191637217018323 0.00986977797516317 -0.014156399106166933 -0.0057104813186911576 0.0011453383121939568 0.18822114895570521 -0.13374779700164874
3997000.0 1.0012839432604201 -0.03173577691980436 0.014641101759398364 -0.006620388928986131 0.0020152192970101426 -0.003851968230328224 0.0747712653264306 -0.22675410809827573
4996000.0 0.9989116035149628 -0.03370521794879171 0.015977116167828175 -4.1854944326267244e-05 -0.001296356402994441 -0.0016555328166228884 -0.04389548247326054 -0.2071761102744225
5995000.0 1.0000461878315057 -0.04894499277426657 0.013069827060888854 0.004060213086200949 0.0006074800714251173 -0.0018680256998184833 -0.10898185375142849 -0.08804893809502902
6994000.0 0.9947333811896261 -0.05831974212515084 0.001659267017224705 0.007712247344539088 0.00023640168714069432 -0.0030607144675297683 -0.13882558123859293 -0.01205878208016171
7993000.0 0.9974477240396509 -0.06744928257832274 0.003377573989273445 0.0056920268121191655 -0.0027107964650591393 -2.3033370160222157e-05 -0.1680789050998459 0.03891914229626585
8992000.0 0.9941117424300934 -0.0736499504646392 0.003192839410909146 0.0052264759550432575 0.001136942925900706 0.0036421581064314526 -0.157309583463104 0.06660406504316921
9991000.0 0.9930770234372557 -0.08066567025228356 0.0005539337109631247 0.006960401959771764 0.0016108405211587974 0.004230012417333176 -0.13268399582593232 0.08563364536952738
10990000.0 0.9923788184700281 -0.09022677784405832 0.004119895845666343 0.005209129975059291 -0.0012436789583089834 -7.845684350706228e-05 -0.1346464935475568 0.11113297368624554
11989000.0 0.9898103269994292 -0.10084656859944843 0.006013114499010508 -0.0018844029805191904 -0.00393159503664525 -0.0025960899200771987 -0.11642141992441152 0.15107426169862237
12988000.0 0.9935463401032367 -0.11095686827079897 0.003930978193883896 -0.001871931874884689 0.00341763436064673 0.0032367836338295488 -0.11267446479377663 0.17039273715870637
13987000.0 0.9879636247344148 -0.11586082068428678 -0.0014986707514985788 0.00041529776257847223 0.0019723271534034473 0.001202186566073442 -0.09303944574235869 0.18574035419626694
14986000.0 0.9889265061263409 -0.1249221958090242 -0.0006234264505015515 -0.00502975284778527 0.002287072654326394 0.00037259597310816846 -0.07908084741754326 0.19876731112688836
15985000.0 0.9911948774807752 -0.1323102840744853 0.0012218446602512202 -0.004432659837999706 0.0025320337579688634 -0.003445545728981996 -0.06643403899797276 0.22566860431299662
16984000.0 0.9855481768596694 -0.14290371273547042 -0.0034482790480113074 -0.002577136705618511 -0.002610281188306379 -0.0039159724692691385 -0.05577433736731105 0.22320472991600643
17983000.0 0.9883375354438789 -0.14498081607481497 -0.003056375382620142 -0.002806939377598594 0.002692250900949541 0.0013838990931554177 -0.05072941398898487 0.22582763297474073
18982000.0 0.9840916022973887 -0.16048793208138204 -0.0029105678905856935 -0.003940979566363107 0.0006992575758280915 0.0004565308404215655 -0.017985363240973943 0.23611779249878698
19981000.0 0.9830102571287179 -0.16437724970242076 -0.003391959192480377 -0.009093376198873983 0.001254543775406595 -0.0020276280798481186 -0.0141644064260023 0.23828450365468382
20980000.0 0.9809872177996927 -0.17358734458081415 -0.008132466268597167 -0.008321369177402796 0.001435329004399702 0.00026361403443284445 -0.004544313606611127 0.2543964488680133
21979000.0 0.9803042491605378 -0.1820770711533831 -0.005527260743525989 -0.0020136544637987244 -0.0018792330622147484 -0.00312919275435039 0.020069506481753274 0.24216973160134786
22978000.0 0.9767020519036714 -0.1929760161086293 -0.010286206113635876 -0.004981528537537443 -0.00017349017121435017 0.0013862508793364265 0.041151419338963845 0.2580744447628992
23977000.0 0.9806733949133236 -0.1978475674229438 -0.0026414842906276534 -0.0011842574011030383 0.003554180226836678 0.0016069271214847233 0.04440683830261909 0.2569208850616373
24976000.0 0.9757839837627468 -0.20892472821115107 -0.006947350953298471 -0.00307133340513576 0.0008854191518191836 0.0020424866476008593 0.06820888059246509 0.2594089335114981
25975000.0 0.9713908705987712 -0.2224764011920397 -0.004672105397893781 1.027875341672713e-05 0.023084249315392474 -0.007375821158006897 0.07611943642693246 0.26116008271145913
26974000.0 0.9704497687590097 -0.2250019594149892 2.6454515286058473e-05 -0.0013805149565993076 -0.0011874121956348136 -0.001688585114158511 0.09372717979869778 0.25443570784963065
27973000.0 0.9701528105162571 -0.2318472678670318 -0.00451025483505998 -0.0019474959168681377 -0.004066052949437586 -0.00021496140492169183 0.11049130901832238 0.2547117017029598
28972000.0 0.966451036987745 -0.241198389684327 -0.004649878596613328 0.00039641595476629083 0.00029905305439833363 -0.0013886064728799257 0.12405899596302453 0.24561130660180583
29971000.0 0.9651073505814968 -0.25093528616271554 -0.001632932704123569 -0.003932475312103521 0.00284800893375751 0.0002826680300394991 0.16308692079415957 0.2624680221719963
30970000.0 0.9631894223543305 -0.2569499552475758 -0.0026154188838452977 -0.0011658901683372302 -1.879267263048828e-05 0.0013940927074406648 0.17241618667154987 0.2437789277883576
31969000.0 0.9611158895532929 -0.2638309266029717 0.003296632984545728 -0.0040846983542735605 0.0007887592941641832 -0.0010380632982812847 0.15940133842141985 0.24456180932120206
32968000.0 0.9587182011211441 -0.27443653737619833 0.006883911314444618 -0.004013647875656427 -0.0014377673181913825 0.002374233670711617 0.16893904677902352 0.2454941911764816
33967000.0 0.9568797606199999 -0.28298290231180323 0.011463978524581496 -0.00821305600172885 -0.0011463428006983404 0.0017630061666616726 0.19476246111285025 0.249479102383878
34966000.0 0.9537438715162665 -0.2920319340588686 0.011259530812399516 -0.012705340803560755 -0.0004713150315422176 -0.0007133153561576803 0.2013388184576543 0.2485095151660711
35965000.0 0.9514334928001994 -0.2997170503324978 0.014297866029224294 -0.014567125320403952 -0.002756826452888335 0.0011250220136313422 0.2116186889136657 0.2416944485739405
36964000.0 0.9492776341374938 -0.30691963177894377 0.016961379205231608 -0.01316698042894941 -0.0035099594082712714 4.1532681793789796e-05 0.2227719643010908 0.2401773512103785
37963000.0 0.9463960838791599 -0.31832119281504057 0.021314597228193094 -0.020882983913461772 0.0010813623705952105 0.006247208193646239 0.2361760098101038 0.2308405467225759
38962000.0 0.943755961946175 -0.3268729515821859 0.026331240142736405 -0.02400965929361654 0.0032376987699483935 -0.0011004745340418645 0.2489953427022571 0.23338387547683226
39961000.0 0.940905642136459 -0.3330417242940856 0.027167528490333354 -0.02788637723023422 -0.0005539780300022161 0.001698431111892344 0.2518563819678077 0.2237750245896216
40960000.0 0.937795058875136 -0.3430744119974269 0.01962507997862957 -0.022868686675067126 -0.0009301701466549333 0.0020392907289515975 0.28109582814084316 0.22071955092110346
41959000.0 0.9339498887178691 -0.35026371370280407 0.026363922395136616 -0.02884503634654001 -1.3592185535394114e-06 -0.0004371611746166552 0.2755627855423291 0.21761906897409591
42958000.0 0.928932227321861 -0.3590542762143994 0.03235316937499766 -0.04093166894511771 0.0009118626648508377 0.002179192155986968 0.29269162172381613 0.19898745221164704
43957000.0 0.9301037453846662 -0.36428184985998924 0.029949594461418504 -0.04650489167567827 -0.002934243395418889 -0.0037910497638702434 0.2897786269556442 0.20403646488973878
44956000.0 0.9248172737935714 -0.37240960883686447 0.03223459118700894 -0.04855176531483079 0.0004316952438429204 -0.003922602407706318 0.3142070193449289 0.2010457183811072
45955000.0 0.9209367809288697 -0.38436106048528285 0.03437315738719354 -0.059543680492939156 0.0018392243046895795 0.00035784278219370725 0.31141903652219616 0.18616767653002245
46954000.0 0.9174461363398618 -0.39110945104926786 0.036942346123241716 -0.06115109841933019 -0.00046281823910728983 0.001976643593382132 0.329133273350345 0.17782897929945807
47953000.0 0.9156314333677169 -0.39882787317586027 0.033773914589138074 -0.07058977093556548 -0.0005066620674930957 0.0011706435315020631 0.3440256437848833 0.17261269345965438
48952000.0 0.9080902534407749 -0.4101622760211735 0.03331287297405325 -0.07533592604232454 0.0024483826201415343 0.0005471911435228788 0.3473002842641478 0.15635156782086373
49951000.0 0.9071262599476444 -0.41345837920327455 0.03483726442446308 -0.08614071323131726 0.0027336086774606776 0.0010928898350980696 0.3619483397468192 0.14957359128710235
50950000.0 0.9027144822923152 -0.4246378216312312 0.035726830631432775 -0.09067958420175358 0.0006388354772124691 -0.0035541699394078946 0.36246431667643586 0.14227273723832126
51949000.0 0.8989888910921275 -0.4322070174464394 0.037842872699750625 -0.10173156751628508 0.001255063191154226 0.002088685943269062 0.3598446126027131 0.14736308607586687
52948000.0 0.8957017707954301 -0.44105698565937146 0.037477184971811704 -0.11099301580729577 0.00024763923377764987 -0.0020152351103476782 0.3792812794757735 0.1330203289096078
53947000.0 0.8913987796959696 -0.44696516606838194 0.03940437375049476 -0.11670137441217784 0.0010269009627676088 -0.0017831883249581236 0.37656511455309705 0.1299600251677911
54946000.0 0.8854782824555908 -0.4576344394421128 0.04066373685028475 -0.12659327244755464 0.0004320812124304835 -0.002265913340845277 0.3878942956270388 0.12100494272550787
55945000.0 0.8844572577889874 -0.4673303226224302 0.04146068234709341 -0.1370812877133616 -0.002056439095688521 -0.0036774843527775584 0.3906780447791697 0.09806320995401419
56944000.0 0.8794251867926455 -0.4712689447807065 0.04370066271812394 -0.14953016048840037 0.003130590228715725 0.0006646458555461125 0.40209890702639584 0.10585869295635515
57943000.0 0.8734675989801985 -0.4833234193092314 0.04443191745073056 -0.1590653123422623 -0.0029481061376827066 -0.0025893733775486207 0.4102550085858502 0.09491151316417812
58942000.0 0.8684863424546292 -0.4879009522247118 0.044700640612353584 -0.17064952166676356 -0.0013254375392688538 0.0033130645502309377 0.4262631109899255 0.08590022993822816
59941000.0 0.8669886886596578 -0.4947317529188994 0.04610322304864468 -0.17951587748187323 -0.0009964786608789224 0.002327664813811677 0.4180621882380249 0.08459389658388036
60940000.0 0.8580122437600441 -0.5043011154537085 0.04458123159248433 -0.1828991678868367 -0.0005078408500037572 0.0004109690064219703 0.42358333661369435 0.08136421408856433
61939000.0 0.8565073624671001 -0.5100062905961568 0.04710283840310261 -0.19094852975116414 -0.0006156253090108493 0.002714987525885579 0.4282446688173289 0.06205440847334144
62938000.0 0.8507401095118058 -0.5219695175897159 0.050127078257196776 -0.20815674098130205 -0.00020460635393344784 -0.005192577399058301 0.45323546256957464 0.049119269267607284
63937000.0 0.8470167292420213 -0.528158139962974 0.048327309248130675 -0.2230190389539098 -0.0010311620320843573 0.001814571415159144 0.44484041190591617 0.042144805741453385
64936000.0 0.8390482472604515 -0.5346834664791538 0.050460475938507734 -0.24193152893415792 0.0004477462195931623 -0.00398075451126241 0.44082546816625323 0.041193859154534614
65935000.0 0.8387437709075084 -0.5435936076673942 0.049800216436577636 -0.25695596625077616 0.0008278190884763683 -0.004261651556807308 0.4521727298773506 0.01653695783614938
66934000.0 0.8314036344083359 -0.5514881158308037 0.04763048762198405 -0.26842326241011977 -0.0020401339295008556 -0.001144799122204153 0.4477741015858758 0.010983139174289485
67933000.0 0.8283295840394908 -0.5566638397794168 0.05051848093203429 -0.2781903528975792 -0.0036726720749076253 -0.0016000651996071033 0.44983330023397594 0.014894551743832148
68932000.0 0.8246009028036215 -0.5574195546582953 0.048858713212178585 -0.2939678840467783 -0.002370020837265141 -0.0005989450947533005 0.4547876122999228 -0.005950456162773133
69931000.0 0.8151271346984592 -0.5722684341533086 0.049574768451388744 -0.30907134577380546 0.0005858191430005685 0.004892070809822675 0.4598078826296416 -0.022447095465910446
70930000.0 0.809815618604331 -0.5807923045465433 0.04573073113729038 -0.3201546178952427 0.0002514583405763812 0.002321403657586197 0.4603355982421537 -0.03307822621723268
71929000.0 0.8072112891668062 -0.5881835202635849 0.041403217972963806 -0.33909416895977906 0.0013486355713485563 -0.0011936019275677098 0.461027898177778 -0.043783304409219376
72928000.0 0.7994668278147397 -0.5997588219491543 0.03727338935439536 -0.3559751685061693 -0.0009371242335863802 0.0016589093540760869 0.4778247643963729 -0.051622135083225204
73927000.0 0.7944675508603736 -0.6027330256041392 0.030302044229588126 -0.37077834026446055 4.4547960833112054e-05 0.0001984237090863174 0.4685086098931963 -0.07148908791944986
74926000.0 0.7872642818952427 -0.613140349633726 0.022906973771912722 -0.38988414055232584 0.002731578602929353 -0.0024183037155242775 0.46075427923769446 -0.06281300704943774
75925000.0 0.7845444359556001 -0.6176041099839842 0.019384364591447323 -0.41003602554973856 0.0014585457569332347 -0.00255790321088036 0.47269101178221684 -0.07582987292818115
76924000.0 0.7781554257653828 -0.6273923404791422 0.0009947007243168195 -0.43054361065601593 6.989199826823088e-05 -0.0020492520268024805 0.4695436067276601 -0.08092349677430177
77923000.0 0.7699980252467777 -0.6329931576415835 -0.010140261137130105 -0.4529011259423858 0.0004460176736628107 0.006064629374179548 0.4599594938255645 -0.09251286498498737
78922000.0 0.76457071070321 -0.6427558478122065 -0.024973526657003007 -0.4817752603394574 0.00011994198426098753 -0.0036224586518165446 0.46537840127355773 -0.10799220896466338
79921000.0 0.7556863604462293 -0.6473697774444925 -0.041143968607110136 -0.5036566985838837 0.0004373716732737847 -0.002509529573113991 0.463089912744864 -0.10888954042493826
80920000.0 0.7515778909475928 -0.6577754383098903 -0.059876699685190785 -0.5317944198833413 0.00463077121333081 0.0010914608739348807 0.4651498700917316 -0.1241171540708422
81919000.0 0.7462890789144183 -0.6619299378862307 -0.07627994823128306 -0.5593425687026089 0.0014772749252186777 0.005036245013918619 0.47672177004104327 -0.13626425207637785
82918000.0 0.7361424761309235 -0.6695591895074197 -0.08893534298848457 -0.5852971445988102 0.0019414332395444572 0.004299809840550151 0.4786689275044193 -0.1466049141972021
83917000.0 0.7291896975574115 -0.6804541963278136 -0.1131938451303482 -0.6110076486179259 -0.00281313446091793 0.005142151357330508 0.47618186065421697 -0.14312685467405453
84916000.0 0.7255212133228524 -0.685037811805696 -0.12607049393488415 -0.6483950158383501 -0.00019730983689550453 -0.0007955511493413038 0.4640176293025788 -0.16798940621781655
85915000.0 0.7190290493474005 -0.6912076256773889 -0.14596114406780095 -0.6789195566489589 0.004997290808197201 0.0002917282451196787 0.4725387777930076 -0.1874891607717378
86914000.0 0.7109974901054441 -0.7002235313903402 -0.16285049428527068 -0.7174640487662381 -0.0030381934909462153 -0.001398663328958063 0.4674347807324273 -0.17942354576149602
87913000.0 0.7055529185087426 -0.7071151066267752 -0.17941197907043244 -0.7439640283414453 -0.004881840701954864 -0.0007176014320260484 0.45913496603712434 -0.18424769318254353
88912000.0 0.6985248049726114 -0.7143041178503559 -0.1972291326011886 -0.77641273756642 0.001444144488374093 0.002128194469215332 0.4653952781438882 -0.205047875525139
89911000.0 0.6890616971252594 -0.7226082671405422 -0.21374061613296785 -0.8116864170559337 0.001777583534600589 -0.0013352396839956774 0.4718460953445701 -0.21464232274433395
90910000.0 0.6817895169848421 -0.7282906429946603 -0.22745593204202894 -0.8484588659133051 -0.00047166705274779425 -0.0010993212280735823 0.4733995874802155 -0.2160160783241883
91909000.0 0.6748684663605914 -0.7331286093422512 -0.24799731826140353 -0.8763684387060913 -0.0011063823827930281 -0.0002434670016536555 0.4751041360483955 -0.225961891421336
92908000.0 0.6666785072442528 -0.7407135431079782 -0.2661419598463751 -0.9068526252192969 0.00043061693500789336 -1.2526369778102464e-05 0.46204854927674566 -0.24142545313875813
93907000.0 0.6580943760632745 -0.7473715297841426 -0.27970923214207327 -0.935404202558173 -0.0008903527067669839 0.0006496654675267149 0.47706166214498597 -0.2469372631590121
94906000.0 0.6492370628107065 -0.7549717341556084 -0.2995137519547014 -0.9780732120051226 -0.004290847674888269 -0.0014365676259424519 0.46136914620760805 -0.25028785667839104
95905000.0 0.6395759395094858 -0.7640752675349194 -0.32239113483470605 -1.0033465231239855 0.0021963123277592062 -0.004197716985866596 0.46560004753433076 -0.27192904620880226
96904000.0 0.6348600918138216 -0.7706323301336028 -0.3384507537783886 -1.0484075181449437 -0.004806869648907157 0.0012377899579957762 0.4554696506212363 -0.27076167525883155
97903000.0 0.6235694175621405 -0.7757519915502719 -0.361294252414149 -1.073352348353746 -0.005815000943569408 -0.00019943988263858425 0.4654770042712725 -0.2851474718100124
98902000.0 0.619332613736314 -0.7821105418945237 -0.3781553496483345 -1.1119503513886517 0.0018383589773708164 -0.0037460070985677707 0.444850280416626 -0.28738989875994114
99901000.0 0.6096447420609883 -0.7877649005905194 -0.404052304917175 -1.1390794284562065 0.0009518149064934121 0.0004278486480730509 0.4594392563871402 -0.3251701741479862
100900000.0 0.6024007861258098 -0.7921073286146306 -0.4352317355884243 -1.1704285401346328 -0.0024337241916901234 -0.001555326232943512 0.46291525005450296 -0.3106118943762087
101899000.0 0.591591624866893 -0.7991417413171141 -0.4586441168199466 -1.204410894028882 0.00011481967617398128 0.0009503759772959868 0.45196040764647094 -0.3237569352416034
102898000.0 0.5847120254480346 -0.8054882631630687 -0.490288007219155 -1.2458462020253824 0.000262906508278741 0.00048529751526324585 0.44971080586707446 -0.3428246993674559
103897000.0 0.5772046978152428 -0.8118757069188697 -0.5321362714797704 -1.2765294550348645 -0.0021062626928016756 0.0009825890572420573 0.4598231559064094 -0.33289740914021837
104896000.0 0.5675741936546391 -0.8245592250252776 -0.5721352389674941 -1.3065126087246952 0.0023144504699158107 -0.0005500883416465776 0.43784818373946705 -0.3363824937746463
105895000.0 0.5588019707631837 -0.8266421083644251 -0.611523035320733 -1.3445253621170996 0.002251853181027179 -0.0017533304695914501 0.4306494880932901 -0.35797764801449156
106894000.0 0.5494945216032513 -0.8319609533800333 -0.6608271877425952 -1.3769870210227884 0.002312101560382442 0.0016104608625722879 0.4252621581690108 -0.360796836702368
107893000.0 0.542939659110537 -0.8390657873575431 -0.7110226992802218 -1.4187556789328695 0.0009418180655618397 0.002856853715660176 0.43556051337110635 -0.3781186680989161
108892000.0 0.5307241131630086 -0.8420313698475479 -0.7696003998957941 -1.4525977338562228 0.0023430783555845533 -0.0016375609143146961 0.42323423359249246 -0.36506679347124343
109891000.0 0.5193266647885 -0.8505676801052653 -0.829437192465523 -1.4865302056520449 -0.0004612912918532314 0.0006081557322375387 0.43571907263484916 -0.3755511594806053
110890000.0 0.49948339096890293 -0.8615715220863593 -0.9018808345882509 -1.4838624802192422 0.0026648079851666682 -0.0008941358397872003 0.4224737602761504 -0.3937844397435351
111889000.0 0.5010170432571869 -0.8572238252252595 -0.9508654148733334 -1.554458675165655 -0.0015899950391962915 0.0022055951852348573 0.42420726381072027 -0.40703334989190015
