! Created with skrf 1.9.0 (http://scikit-rf.org).
# Hz S RI R 50.0 
!freq ReS11 ImS11 ReS21 ImS21 ReS12 ImS12 ReS22 ImS22
1000000.0 0.9902309378264081 0.005025206601178285 0.0016755578725553535 -0.0569266192041809 -0.013929297337054159 -0.006474589812145314 0.2952784925866158 0.29051098376614926
1999000.0 0.9976356615862476 -0.01528675283406982 0.02182444899248106 -0.020578911800787532 0.00164109749496477 3.793201250404274e-05 0.2960739253699236 -0.028914856024799703
2998000.0 0.9988585893551339 -0.02665104869366465 0.014018484870134202 -0.011364456104707274 -0.001942145853340045 -0.0030815035065458007 0.19120874277458527 -0.1386551699561271
3997000.0 1.0006027349515014 -0.033451032696549095 0.014677333571684997 -0.009721214847352597 0.0005110328571538228 -0.0030865140515368146 0.0901078330747187 -0.21492473161744002
4996000.0 0.9968804526580384 -0.03434499284181659 0.010559233481196506 -0.0016367469968442672 -0.0001153601126519135 0.0015572657071652666 -0.027008475669396615 -0.21229122324951546
5995000.0 0.9976994088783997 -0.047005677337229705 0.014524981656320319 0.004176239325656307 0.00366078700007771 0.0025338626502954026 -0.1234868091241595 -0.1086665920756393
6994000.0 0.9944444365743499 -0.05975875048194871 0.012656388435773441 -0.0010969843030874825 0.004461602997649465 0.001426376653575524 -0.15019371415043378 -0.03729297358897234
7993000.0 0.9943315272162672 -0.06583814946408974 0.006288746357489677 0.011830436412240266 0.0018200636909362698 -0.006267579029532491 -0.15837819802449127 0.034317208589933854
8992000.0 0.994411347339706 -0.07182067199129175 0.007543272637018715 0.005349729470469019 0.006000008256359995 -0.0013679018838395859 -0.16925916683609663 0.058806572788340616
9991000.0 0.9953646560134081 -0.08629666557468943 0.004151504711926199 0.004969575604078739 0.0001793785655022591 -0.0014105007079272776 -0.15288680561114937 0.0918297159139057
10990000.0 0.9909126899561942 -0.09257340475416956 -5.601785499784975e-05 0.0033547707562483135 -0.003962764161219624 -0.0005595527514706082 -0.14249020173877977 0.11788957796362598
11989000.0 0.9897986975456255 -0.10232056335841452 0.004309543051126341 -0.004225243819365774 -0.00131882543876641 0.0014238745567157895 -0.13062613443769386 0.13404947758893182
12988000.0 0.991396092033613 -0.10837064192150865 0.0012161959368930575 -0.0029710166152488644 0.003800588578051983 -0.0013518442607344996 -0.11312929861053894 0.17537670187595478
13987000.0 0.985531163509074 -0.11785350640711059 -0.0029526890586328374 -0.006080804798250798 -0.0029796695844941435 0.0020559462143355063 -0.0905129445964963 0.18099301243904858
14986000.0 0.9864977942278057 -0.12609403536120903 -4.71051567495091e-05 -0.005437078112417699 0.0002814258048159002 0.001230798797727607 -0.09315956159040388 0.20042901913406588
15985000.0 0.9880448539196586 -0.136001067657135 0.003959980466626784 0.0012751524916002452 -0.004786405679344022 0.0009331354388529528 -0.07200501353154869 0.21976261970947536
16984000.0 0.9840836948352769 -0.14723897083431986 -0.0010436858323461225 -0.006319634928408442 0.00010954380208717252 0.003360534801048828 -0.06190982798601064 0.22056318028796776
17983000.0 0.9876453650818497 -0.1475622934808885 -0.004824657816820435 -0.0041756684063265215 -0.000380781894033028 0.0014180122135653908 -0.048988845619170614 0.22292332843179752
18982000.0 0.98147721233728 -0.16417216726242506 -0.004502097178514257 -0.006936028790865415 0.0041846587041501635 -0.00041885183419590444 -0.025285297982373063 0.23514330890721216
19981000.0 0.983105042582527 -0.16504479715158438 -0.003028649052611843 -0.005940342934958669 -0.0007148846423177104 0.001647990764632581 -0.010970646671715939 0.24562572375792557
20980000.0 0.9798945041992099 -0.1758396145275141 -0.007944831654246167 -0.008304526600727348 0.0007801367045284336 0.0018567601141096595 -8.823620458721428e-05 0.25940259564350665
21979000.0 0.9782463136661008 -0.18448162982986882 -0.005344153180917525 -0.005492855786409207 -0.004917664311928565 8.537429946512181e-05 0.015798608887368185 0.24609421226732248
22978000.0 0.9775710940303481 -0.19690508945506807 -0.010783996329804245 -0.0021038782163349174 0.0010777934546652083 0.0010752190516731164 0.028592453285486964 0.25684458027984014
23977000.0 0.9754184707481369 -0.2041376348725684 -0.006265627795962066 -0.0029985248422628647 -0.00020530466199972865 9.522255866504414e-06 0.04056827654755912 0.25950399099782795
24976000.0 0.9726386314834995 -0.21372468906494002 -0.00522581779783328 -0.0047824571441832 -0.0012925174162124096 0.0016951230911316135 0.06581926751468782 0.2554604910403759
25975000.0 0.9749655146476351 -0.22314525335052948 -0.004872261407915779 -0.0009307733066561109 0.011897845746377037 0.018691691779382034 0.0784713591710307 0.26209847977088896
26974000.0 0.970552815502331 -0.22922071247053197 -0.006829874145519833 -0.002003707972450012 0.003978257485163966 0.0014018113759478752 0.09341043966736669 0.27366978080582666
27973000.0 0.9697628895499827 -0.23464739792221878 -0.0016244084672278245 -0.003301230522910897 -0.0008327404879232246 0.0012922209229285797 0.10071972679614459 0.2549989957276499
28972000.0 0.9651709230391915 -0.24755365162662227 -0.0017492145520761574 -0.003089822514207735 -0.002171050809686879 0.0012384598091007828 0.12056225063917579 0.2613441223154187
29971000.0 0.9638732836796947 -0.25566642556566327 7.341556491483162e-05 -6.18493560239274e-06 0.0013415319125413584 -0.001816551029432734 0.1574375020029762 0.2723770975450448
30970000.0 0.9621164108419766 -0.25890467157151253 -0.0006479838259910933 -0.0011035915982780698 0.0011692615849480785 0.0011390208143685116 0.16524081586005 0.25457698406357365
31969000.0 0.9601264786494339 -0.27047255832383077 0.0033350121797317625 -0.004109478966966591 -0.0003076159188201052 -0.003456919843507723 0.15185267834324132 0.250799719682826
32968000.0 0.9579187482203488 -0.27895081768648733 0.007011822526913824 -0.005826204328331081 -0.0024343008731875656 -0.0004214691709938648 0.16471906816471926 0.24351058745554902
33967000.0 0.9556278857361762 -0.2871075531284502 0.008167645097523766 -0.009147805991629688 0.002594391666954041 -0.0029559801062996743 0.1869407421935536 0.23482434958522364
34966000.0 0.9531928949446579 -0.2964038310346588 0.014076502224074491 -0.014924459614191258 0.000441261914522172 -0.00031418082413990097 0.18731893121282162 0.2549814693056855
35965000.0 0.9498808354978224 -0.30485690087639294 0.014822836471557521 -0.014025387156776252 -0.0012735569381617008 0.0006420833540313858 0.20988909390582758 0.2615730312635282
36964000.0 0.9484394871699356 -0.31377900858220215 0.015285772307507925 -0.01484777283544653 -0.000941969665969448 -0.00268790316041955 0.2127993565644886 0.2602011555541974
37963000.0 0.9428535955717952 -0.3236575426007212 0.021144759435839374 -0.02040754456691157 0.0013105421776599202 -0.0020098017281001616 0.23444248793031677 0.23268562322378938
38962000.0 0.9408114949162985 -0.3303239897893574 0.020878289886162023 -0.025167128433521865 0.0015273405245892246 -0.0016458072270006325 0.24576011321555813 0.23310381732025764
39961000.0 0.9374102713878886 -0.341086256172079 0.027370519151228265 -0.028451826263392065 -0.003021209195774781 -0.003287847718168514 0.24839418950628384 0.2273705901375909
40960000.0 0.9344166533369864 -0.34695408072323647 0.02329951667996897 -0.023993280183623244 -0.003520371804481983 -0.0007485819563129089 0.2760928635951426 0.2311179160035716
41959000.0 0.9329117833253199 -0.35709098115574356 0.027483940844340454 -0.03181027069854633 -0.0023318271475082477 0.00012533290367876013 0.2710177855806549 0.21733273228843863
42958000.0 0.9257534608136204 -0.36556216114035184 0.02919456829861147 -0.03949995231525869 -0.0020166901499264352 0.0007222289116413799 0.2803193897490489 0.2041809113696009
43957000.0 0.9248383656352235 -0.3712224845711378 0.032468194858721856 -0.04325564796157916 -0.0015836463835924375 0.0018835890425818985 0.28570418628277733 0.21324265316417365
44956000.0 0.9210173961065565 -0.38054909489197086 0.031161843938461546 -0.051620355659322686 -0.0021048787136835156 -0.00029661413689679143 0.30455361480183085 0.19455326646226745
45955000.0 0.9167839366227908 -0.39019101863371847 0.033194325509563916 -0.05597468788001514 -0.0001335508435726666 -0.0019215407892150063 0.31147084903222805 0.18701350220811064
46954000.0 0.9134569818527287 -0.39859417360205324 0.03262894540004468 -0.06475083240994593 -0.0025718769081340465 0.0017350022826517714 0.33466489978595376 0.17295410366700623
47953000.0 0.9116840504649719 -0.40648970936025247 0.031136884608606922 -0.07212726896694686 0.001891657358388984 0.0012384944899565809 0.33937771111860043 0.17354863718825267
48952000.0 0.9062240642873576 -0.4160388136057778 0.035579653878554496 -0.07836494661557719 0.0007848143122100802 -0.0022623950182298442 0.32747481004044193 0.1684164121752285
49951000.0 0.9016397727941619 -0.42418833240990045 0.036065353765410514 -0.08523155825453264 -9.897952501280254e-05 0.00044566970017940425 0.3540821024917287 0.15753299555660363
50950000.0 0.8976668533435368 -0.43124685676340085 0.03285685764641246 -0.09314980260689439 -0.00039629700485500956 0.0016743661919615877 0.353212577720942 0.14414167214489884
51949000.0 0.8934824719267503 -0.43971691645837724 0.03483127096373291 -0.10143416099747174 0.0032348528884409496 0.0012014328047149554 0.36606223651346803 0.14233345553227383
52948000.0 0.8922712942448239 -0.4476006611832326 0.03868957402734706 -0.1098490956264203 -0.0008159931623727768 -0.00024084619291546856 0.37479616078263467 0.13930974130906099
53947000.0 0.887323847465519 -0.4543038216259999 0.040861116752474294 -0.11865237549202572 0.0005338077578460569 0.0009565953570744347 0.3769656159041346 0.12427339427253317
54946000.0 0.8811485666055797 -0.4670413373342153 0.04039206745627755 -0.1271053885811594 0.00020330993074565954 -0.00021254064638133365 0.3834791211705894 0.11850879649541812
55945000.0 0.8786630127415852 -0.47400662345570727 0.04186054280451815 -0.14108318275174084 -0.0024119945752833763 0.002525962379649302 0.390283629104558 0.10540193079794986
56944000.0 0.8749329775619336 -0.4815493044358067 0.04542721765119994 -0.1476213800187172 0.001090812913585865 0.0019355670807167382 0.40090104013298195 0.1088760692722842
57943000.0 0.8690737474912927 -0.49149948208562816 0.046655659971102235 -0.15748189539966456 0.0008494157196092984 -0.0047209408858167904 0.4066994584230779 0.09459797049162921
58942000.0 0.8651068153806531 -0.4946623724389642 0.04584867878592583 -0.16976104904113015 0.0029560958768732174 0.0004455578644005319 0.41861308812020936 0.0938269443139966
59941000.0 0.8602571247444208 -0.5071579064664791 0.04720999690890855 -0.17985034348354978 -0.0009542530132055959 -0.0006805876868633763 0.4214518677517137 0.08615161575752368
60940000.0 0.8525474968072327 -0.5138083430509098 0.046806486609125786 -0.1842525364294064 0.00021280457792283733 -0.002466415665801416 0.40668497395491265 0.07687203046526087
61939000.0 0.8489923420345503 -0.5198420533495621 0.04945567216017079 -0.19155260878626973 0.0014354862398522955 0.0017191070566415338 0.4119981623288362 0.06820606493466624
62938000.0 0.8436998601679169 -0.5310591719249727 0.05145156706414931 -0.20491182184523501 -0.003901445788479814 -0.0031527789298415963 0.44101205889339185 0.05903518362782924
63937000.0 0.8395689783253115 -0.5360472712203583 0.050211616043870866 -0.22676131110988246 -0.0038092041995159485 0.003988093319393375 0.43819446537688284 0.04721820979577526
64936000.0 0.8310359983996942 -0.5441285038378558 0.05320240170565361 -0.23922947172685533 -0.0014728314815119548 -0.0014731411582286677 0.43048824064254526 0.04754308903559012
65935000.0 0.8287891897906072 -0.5546148372106796 0.05295883992094668 -0.2521494261227607 -0.0006576649926484521 -0.003183085742857976 0.4360866011509039 0.01107046527217586
66934000.0 0.8248223300130451 -0.5595127234244556 0.05199490926301757 -0.2662892201666837 6.57914728375668e-05 0.0005110737265266761 0.4269096393360085 0.0030736027783604776
67933000.0 0.8201496795259589 -0.569017959327706 0.0538040963397582 -0.27939949105592876 0.0002920844648295465 -0.0006414852921191861 0.4485872690435704 0.008220055004767366
68932000.0 0.8058861953025225 -0.562366523109106 0.046928079346750654 -0.2873017677199099 -0.0005733424682999067 0.0008713690128486154 0.444596643015139 -0.009519014553990712
69931000.0 0.8071357918384917 -0.5828786130655773 0.052721090509836914 -0.3064203295850548 0.000498701854847682 0.0007683599636456089 0.44971404957237904 -0.009287862693959868
70930000.0 0.7995409424444218 -0.5931088848770399 0.04383754584164623 -0.3196826772818189 0.0017561901231297624 0.0007252795915524376 0.45225499502068645 -0.033178686080808595
71929000.0 0.7964986247407598 -0.5992854852940109 0.03941199017469647 -0.3366761399820748 -0.0006128619763627922 7.634915175489761e-05 0.4501745206592604 -0.036535170556808806
72928000.0 0.7897296492096562 -0.6084166028373925 0.03386577326274708 -0.3520872685319154 0.0023058411000213093 -0.0018083097925832615 0.46351803575126327 -0.05279930057586607
73927000.0 0.7847462100730018 -0.6152729543812729 0.028551000246853874 -0.3734160550384926 -0.0022438294386113496 9.794734780522257e-05 0.4616390481361523 -0.05280380057758376
74926000.0 0.7787049260552743 -0.6236193814798011 0.02484463341670968 -0.38764668714383427 0.001958461912605112 0.0027135197563635184 0.45792199473841466 -0.05199620778558127
75925000.0 0.7742373887023228 -0.6279488922073264 0.01551711520440233 -0.40986014329747084 -0.0003035897875625919 0.0015770696841968333 0.4635525509358735 -0.08393632083219038
76924000.0 0.7662036948525877 -0.6389190264119882 0.0029905491135350463 -0.43288126888286527 0.0027047585460546982 0.0025525202844921867 0.4726571274436618 -0.08432700339574524
77923000.0 0.7597699199857288 -0.6422708457729335 -0.012897767238365974 -0.45570181051928565 0.004670306195048783 0.0013886022443629989 0.4557348601013272 -0.0910739957420544
78922000.0 0.7530418851482653 -0.6545769488748796 -0.028873138413871884 -0.47534267579129 -0.0021909868293286255 -0.0006799689596095527 0.46338370470161555 -0.10091564478318493
79921000.0 0.7449681446709112 -0.6572077124704033 -0.04321327183412042 -0.5047912194690796 -0.0004554557979179605 0.0027302472235757173 0.4674552659451122 -0.12208101074771771
80920000.0 0.7401404946521867 -0.6696733796904402 -0.05979472103211003 -0.5317428491157093 0.003575493233829761 0.002346426051644841 0.46698023636913877 -0.11974925402950647
81919000.0 0.7354354273580702 -0.6742561071852837 -0.07696431747318616 -0.5607236182549177 0.0019158029387257574 -0.003509153881061609 0.474813065417175 -0.13224824831787207
82918000.0 0.7260554561438155 -0.6826053490134661 -0.09448622714704603 -0.5900222352797535 0.0019072814046610664 0.00022847444848691326 0.47253795255243003 -0.148327307905717
83917000.0 0.7186184667374361 -0.6907940998973113 -0.1116628515410875 -0.6183301697982341 0.00034048059097427504 -0.0007500364602909704 0.47564569948854873 -0.14480823424118253
84916000.0 0.7122246220896393 -0.7000394817796138 -0.13336735911720413 -0.6507701702153401 0.0007840540565886669 -0.004162022598752662 0.466429430645449 -0.16805752785508374
85915000.0 0.703638649960152 -0.7041228416031216 -0.14863787542768317 -0.6808996732451444 -0.00034761627215805805 -0.001912988090060922 0.46397850488429937 -0.17419147101488688
86914000.0 0.6974360873778366 -0.7139280485623847 -0.1627962331936149 -0.7190608173652422 0.0021305937510104076 -0.0007489805417067938 0.46710806218234513 -0.17262636991275238
87913000.0 0.6902656129060358 -0.7201238347558387 -0.18111716780689305 -0.7454785585311021 -0.0015835972837173686 0.000560121164056468 0.4627981742795742 -0.1766163166117243
88912000.0 0.6831845799703824 -0.7270759504623242 -0.19971258832101849 -0.7785825011719177 0.0011124559194457934 -0.00662528533181168 0.46644918664973467 -0.20064088485351383
89911000.0 0.6770824763612532 -0.7357272933917248 -0.20865694690208866 -0.8152326127422155 -0.00025653009438328134 -0.0006821660827083863 0.48042529404674283 -0.20461177744475198
90910000.0 0.6694578556394577 -0.7408851139094501 -0.22582359084272793 -0.8431063796697876 0.0003146071905568591 0.0029290087617955193 0.46396021754683897 -0.22170757532815571
91909000.0 0.6605894270127101 -0.7456901152147716 -0.2447637787537077 -0.8783820732797352 -0.002335202905961411 0.00033565166301596463 0.4664532626277088 -0.22795549189253078
92908000.0 0.6526806460566409 -0.7544701766432427 -0.26478827816126366 -0.9067676028478262 0.002317445316823831 -0.000596956153136304 0.45611621001486685 -0.2374832925632325
93907000.0 0.6448165266171378 -0.7596228495124472 -0.28027560789030137 -0.93886030093072 0.0016723107334790368 -0.002273184596197767 0.46621217862832853 -0.2567227446947923
94906000.0 0.6316200183035491 -0.7674121100531475 -0.2988548608201267 -0.9677124258023057 0.0005164725234937406 0.002350569957813638 0.462292649554101 -0.2517236802790893
95905000.0 0.6254944345868388 -0.7730833846810387 -0.3164260164671319 -1.0038163720261501 0.00102073243964529 -0.0010035333578136676 0.4677214573782266 -0.2663011724438849
96904000.0 0.6175300221086164 -0.7832643773717352 -0.3368213745330987 -1.0417001616581587 -0.0008719247972530373 0.003863864177894876 0.4558852800721207 -0.27065604621837663
97903000.0 0.6086203663138803 -0.7861698831957112 -0.3538040119918594 -1.0710087326695634 -0.0009763348472784271 0.0012711415175403601 0.4468217415503495 -0.2893810026641567
98902000.0 0.6043202178686962 -0.7957215246505097 -0.37278831320659733 -1.1090668988102474 0.0054101320314990774 -0.0035402485255484066 0.44877212651125603 -0.28860415018943364
99901000.0 0.5938387840438785 -0.8001578186615987 -0.40304639859322744 -1.1395967331108972 0.0005012488644778268 -0.0009090371715324346 0.45312241622286475 -0.30624862731668345
100900000.0 0.5864664610885363 -0.8033294803399714 -0.4308679352323093 -1.1646473921877156 4.355467245938415e-05 0.0028880637393601544 0.45413436715483413 -0.3055198485432303
101899000.0 0.5746514573501653 -0.8125997061963112 -0.4616321992519214 -1.2014214702583912 0.00141134961139994 0.0007716795152634537 0.4511030629859245 -0.3166374220803931
102898000.0 0.5673520280557081 -0.8150050953374924 -0.49056663216246904 -1.2396215531010957 -0.00027624507863067 -0.0017532637051103678 0.4520458002820314 -0.34054352810966443
103897000.0 0.5566249152486136 -0.8227593655847826 -0.5303588653493531 -1.2680686007158077 -0.00028386151787831174 -0.000898057250226744 0.45148410318869636 -0.3344930587275296
104896000.0 0.5516436431388683 -0.835369073961011 -0.5699678179348383 -1.3009653900786904 -0.0003584401096230147 -0.0005738724525828376 0.4357501269556851 -0.33157731311430866
105895000.0 0.5395123605779644 -0.8362515611893304 -0.6180235675620906 -1.3365438572983028 0.0023181037985195367 -5.071050355001598e-05 0.4313814206520715 -0.36570789857234487
106894000.0 0.5320733766096577 -0.8425742434914548 -0.6625770705235763 -1.3723974762496454 4.141329753761503e-05 0.0035515718687099745 0.42387094598429476 -0.3669017589496937
107893000.0 0.5221243301255337 -0.8481610453604684 -0.7192234772958533 -1.4117604624253581 -0.0011264371255231824 0.00017050943961866068 0.4294037309156191 -0.3710672493817618
108892000.0 0.5109105826894269 -0.8532203307217604 -0.7792966288906195 -1.4476136511706832 -0.000675138861339648 0.004162627882975489 0.42709429984322006 -0.3716783255819871
109891000.0 0.49757104349734566 -0.8599336536925175 -0.8346715042196083 -1.4778008729675918 -7.827808699277468e-05 0.00028892485755017966 0.441563329693822 -0.3615929671256135
110890000.0 0.4797929991500728 -0.8634328368174204 -0.8963113311964215 -1.4751934651661451 -0.0012841019438070414 -0.0029979303680390873 0.4268574367434861 -0.37528174693925737
111889000.0 0.47988431667304454 -0.8677026266159653 -0.9590207875760078 -1.5446438197840606 0.0008870764790965304 0.0006070545795714772 0.4221703631326464 -0.3962832269898002
