! Created with skrf 1.9.0 (http://scikit-rf.org).
# Hz S RI R 50.0 
!freq ReS11 ImS11 ReS21 ImS21 ReS12 ImS12 ReS22 ImS22
1000000.0 0.9915630259461581 0.004248499779963907 -0.01684856231839018 -0.05734762497552381 -0.03267851420869983 0.0072441960017522655 0.3366318873917573 0.3664698283011348
1999000.0 0.992437500820633 -0.013091484127322237 0.008604716805242208 -0.020479462976857626 -0.007606370648710567 -0.0024643325264530314 0.25110719525104613 -0.05551712042571182
2998000.0 0.9987260485967537 -0.020086146934508765 0.007730127636276734 -0.01259984474517328 -0.004215149948052563 -0.004631433484293224 0.18596132353446415 -0.13138614909232385
3997000.0 0.9964040057271365 -0.03118678001840906 0.012192527841682113 -0.0065129206228393835 0.00175322860406331 -0.000826184658534772 0.0900215576784577 -0.2495552578451196
4996000.0 0.9954227631306659 -0.03882899261119531 0.01709996529350349 -0.00408900971857197 0.0032573287581010952 -0.0010378278425864174 -0.04818407967161986 -0.18477213218274827
5995000.0 0.996037021808777 -0.04720492923998388 0.010152321803377029 -0.0019937743404596733 0.0029572746283147953 -0.0014549592948002316 -0.11264728160543601 -0.10480168688005741
6994000.0 0.9959803872235014 -0.061074582250592126 0.004852143363869697 0.00624784797002578 0.003672411917460675 -0.0016092591428023043 -0.1296447574025082 -0.015057998681590851
7993000.0 0.9955547140341457 -0.06897746560754646 0.0034452548143598764 0.004624047182872392 -0.0013058820874380349 -0.0022943046863284047 -0.15828032919516014 0.044876172302924136
8992000.0 0.9967130153077483 -0.0726540787676552 -5.84456460080659e-05 0.004057423351287803 0.0011744772548913783 0.004992993905808699 -0.15211262940548972 0.05456069394635797
9991000.0 0.9918027851031744 -0.08375561067980215 0.0034676776308309185 0.003232431087994741 0.0027776773517863107 0.0016205641629918228 -0.14837433711403739 0.07560690933327445
10990000.0 0.9935630443055475 -0.09140551142733518 0.0028115403846029536 0.00447853494319813 0.0009592419003541147 0.004098732085060577 -0.12255500223784661 0.11101628662264566
11989000.0 0.9896506366450531 -0.10052979509598589 0.006413053148538301 -0.002319965841068138 0.0001270789078348965 0.0040482452860725335 -0.11823817343047341 0.14395725716276098
12988000.0 0.9904690740510653 -0.10958868940007138 0.000955943112938481 -0.00751300793024801 0.0037191442089681784 0.0012192290402128969 -0.10679644948796614 0.1699775625009498
13987000.0 0.9886967235131638 -0.11866871181711863 0.0038629688870515187 -0.0009014907763793002 -0.0008761057418750386 0.0058756958863336005 -0.09441684524027052 0.19243729035307788
14986000.0 0.9876529329622561 -0.12589777149756534 0.0019189984035439056 -0.004208019946542072 -0.0023491682989741 8.293064683296437e-05 -0.07928513948994938 0.20485250782721523
15985000.0 0.989636490131181 -0.13395495838093044 -0.00020060436951573995 -0.0035947024443682665 -0.0005977153992639935 0.002500971822150678 -0.06144957018582113 0.22461331484884828
16984000.0 0.9860646228604365 -0.14392996401064342 -0.001685534529940934 -0.0032572044566432723 0.0065900583532146565 0.0012605770313732227 -0.0573211255334975 0.22082258771326593
17983000.0 0.9849866347359739 -0.1510642964717381 -0.00022779987776146577 -0.006358316402737194 0.002915382968349901 0.003178335430135611 -0.05338176767978552 0.22826168842147254
18982000.0 0.9805468789403191 -0.16093373249073378 0.00040513591128191515 -0.006995978836682811 -0.001651741386162217 -0.0009139637198597751 -0.020678824520602178 0.2454396179199604
19981000.0 0.9837585928467335 -0.16591386679905556 -0.0021460660457682116 -0.0028815770235932946 0.004574090430954348 0.0016599894796810789 -0.0067247072096521116 0.23863814061030655
20980000.0 0.9810905002562135 -0.17807047051381883 -0.002760022766155254 -0.000910414291982337 -0.0010361990532846272 0.0034387978530051808 0.0052980769696970844 0.2490763901768828
21979000.0 0.9787542772921558 -0.1866840516683469 -0.0054945359438929794 -0.0051806202640869254 0.0008163872935034052 0.003479279746183998 0.013866632807405282 0.23712969652878693
22978000.0 0.9765086801123031 -0.19314529934566776 -0.0071540271665177756 -0.004192138616234636 -0.0010739943299453486 -0.004031671863600167 0.029619887344667032 0.2651303294399365
23977000.0 0.9780206067977767 -0.19998401187822173 -0.006863427239307015 -0.0031696254423099397 0.0002032762314706671 -0.0025979097773831724 0.042618098145199124 0.25467564178636354
24976000.0 0.9727821782201441 -0.21439608338603508 -0.005329091756602001 -0.0012444734927737934 0.003151158412208596 -0.0020376293627563866 0.06136929380536925 0.2523557882532522
25975000.0 0.9691231666510761 -0.21828834385095036 -0.005914241889944787 -0.00392399808055793 -0.02611264585609402 0.0018029544903341171 0.07992023520320976 0.2676564664786256
26974000.0 0.9687989313092505 -0.2292038828162692 -0.004544071101101851 -0.00040892776808626095 -0.00040373538368680467 0.0009996217583767716 0.09221758976708637 0.26639004046667986
27973000.0 0.969488557597014 -0.23525760033091644 0.000177708608877461 -0.004798670473195974 0.002255122194912869 -0.005070678119227384 0.09899594624618448 0.2509928312757609
28972000.0 0.9658621269043217 -0.24761869174369677 7.119939726706722e-05 -0.0008671639349523055 0.002662430637306386 0.005524593387755547 0.1161513471563971 0.24379553218784408
29971000.0 0.963582177429329 -0.2541673121106513 0.0005531507641701561 -0.0027213170086792483 -0.0013294932988997877 -7.052287134149889e-05 0.1518117588279259 0.2633337940154504
30970000.0 0.9607115909346202 -0.26092442676160243 0.0009922883054355024 -0.0031235206281207653 -0.002711606008400704 -0.002649078893729894 0.1694897461535039 0.24992234633745902
31969000.0 0.9608355339351906 -0.26900438203954447 0.004797314442303251 -0.003917427120377436 -0.0020391949834497425 0.0002555342844891938 0.15555828288825252 0.24861728343954367
32968000.0 0.959922242707491 -0.278590043740656 0.010000740486862137 -0.007314088400158727 0.002506287201439105 -0.0006295200824211554 0.16560317003218386 0.2399419947514224
33967000.0 0.9559618548538211 -0.28684639105528587 0.007873417044570116 -0.008608996524326907 0.0035742543764831825 -0.0025207800138430997 0.1848576056392461 0.24085012240670536
34966000.0 0.9521237602551947 -0.2981652270763787 0.01256059163967051 -0.011088648865458732 0.0008569569942271997 -0.00035241772011787825 0.19475936945282793 0.24190970631071604
35965000.0 0.9498976977015422 -0.3046748221404414 0.014389690004003988 -0.013860675597843984 -0.0019124847967192198 0.0015909916204423717 0.22593165656414083 0.23938321325269057
36964000.0 0.9461696594704113 -0.31416987967920484 0.01649383730745237 -0.012797834386148791 0.0004285708844061557 0.0008587961118329109 0.21776007154060395 0.24934949259750067
37963000.0 0.9428283140416566 -0.323069054840242 0.026506576181238875 -0.02035585434778359 0.0031396453378145324 0.002246291156226074 0.23502787725310187 0.2286591040892553
38962000.0 0.9414992056632782 -0.33327289703247115 0.024026828152123075 -0.02336855591405567 0.00296508726233859 0.001388555231208844 0.24278273496070227 0.23681179638270006
39961000.0 0.9381888812511393 -0.3383735024639719 0.024705729733593366 -0.029706998649823926 0.0026258830605512106 0.0016447607839470781 0.25265822755724676 0.22713610239816678
40960000.0 0.9351071733899478 -0.34690845116638774 0.021541062162371265 -0.02170999259780751 0.0006964931277679262 -0.0013246900562550665 0.27380647779459416 0.2272740079699357
41959000.0 0.9337037397089413 -0.35638529490361653 0.030431067279071886 -0.03067575850923006 -0.002702530779004053 -0.0010693970419595094 0.2770269013751406 0.21695988195859656
42958000.0 0.9277515384552107 -0.364521250126779 0.03119497947759293 -0.04022199221374491 -0.00083553086013677 -0.00036852218424419085 0.28877416880841805 0.20413913748717386
43957000.0 0.9244307466382703 -0.3724288214864823 0.030701230477287993 -0.04630488339603548 0.004282891801187882 -0.0005258722816593583 0.2875607471435168 0.2081013500443051
44956000.0 0.9213450153792302 -0.3803100266754033 0.03094585109038028 -0.05261748663345685 0.0027591585750609176 -0.0018012116637885199 0.2957761669098315 0.1961133217507865
45955000.0 0.9177267984765491 -0.39006517140598873 0.03184524430681778 -0.05680737825968639 0.002330776375489367 4.864885286475843e-05 0.311621114246962 0.19290257559577023
46954000.0 0.9142870117011055 -0.3978210109731041 0.03479097456122403 -0.06370116198728452 0.001418302071715979 0.0018862120203111214 0.3287501730197612 0.18076876433022673
47953000.0 0.910725695045154 -0.40671046236545383 0.03508216910173272 -0.06915172226284338 -3.966073623333428e-05 0.0035429707599980882 0.33965648171939583 0.176160914155217
48952000.0 0.9048282032495052 -0.4163370500271047 0.03388707497405112 -0.07864308203588564 -1.808336888892824e-05 0.0007041194398633777 0.33899855899958137 0.15735694691117827
49951000.0 0.902644633188821 -0.4229340929641623 0.03473105408335273 -0.0868830130248671 -0.0028572837629594235 -0.002005873014532186 0.3538213820334498 0.14751049777198752
50950000.0 0.8995100689299845 -0.43236339709042715 0.03958528249481626 -0.09449447586809291 -0.0008925703366769143 0.0020022750173191643 0.35753686081246694 0.14930605601370173
51949000.0 0.8932836142832506 -0.43950580123481037 0.03751665064386309 -0.10297929057570908 -0.0008169018167724504 -0.00034004753932776794 0.3559439849361481 0.14653917961001142
52948000.0 0.891357722280886 -0.44784294875350117 0.03814090613408881 -0.11035325709153594 -0.0030124702890527676 -0.0004094367286777481 0.3702638529999298 0.14417558822021972
53947000.0 0.8872959441060859 -0.45405421513062694 0.03950419621202676 -0.1168727275220857 -0.00022970135272637113 -0.0025192488042082455 0.38075732448979926 0.12845324343265807
54946000.0 0.8813265846401874 -0.46571976002684573 0.04012888019256085 -0.13084131988596379 0.0017388819470062493 -0.0012555802820910162 0.3890943598280359 0.11154452703840266
55945000.0 0.8780618655898986 -0.4727879019526481 0.044102733775814675 -0.13864869323477094 -0.003442707873015138 -0.0007173495347343448 0.3878907680796231 0.11003985585182335
56944000.0 0.8737003190774311 -0.48152734855768603 0.04577407439028964 -0.14998580739390724 -0.0004359316120329351 -0.0004043145393877972 0.40647908583141085 0.10252386020171368
57943000.0 0.8697329822005285 -0.4905248900693778 0.0448768033967168 -0.15568585138634924 -0.0004472708906532629 -0.0024344693719942825 0.401063920606445 0.09896260597209035
58942000.0 0.8648158465823819 -0.4950024991189418 0.04743459347961718 -0.16987237569711994 0.00010802876486217596 -0.002636555890538069 0.4162471017442846 0.09574749539869551
59941000.0 0.8605415334285879 -0.5059929851385042 0.04804761030472066 -0.17819702294622014 0.0008103430114338188 -0.003551998675988544 0.419386763876724 0.08131748932190962
60940000.0 0.8535523452371941 -0.5105699963071524 0.04954574693473081 -0.1839067565014663 -0.0005186827677620385 -0.0009758451108038157 0.41211568908610846 0.07577058838607496
61939000.0 0.8500029753609275 -0.5184192321100468 0.04874984956907089 -0.18997665313020168 0.0007613272869637016 0.0004277161907217091 0.4139411111813359 0.06194623190841306
62938000.0 0.8428188146562186 -0.5291191441400385 0.05366049010802315 -0.20607583015544725 0.002514541573645974 -0.0017611472454357785 0.4452577498586085 0.07024884209052006
63937000.0 0.8407263778185307 -0.5360558975229479 0.053563800419821714 -0.22362578242086825 0.0009839000115692122 0.0009899847781956572 0.439238697612927 0.05084739196910387
64936000.0 0.8323716023002481 -0.543336045497736 0.05392431813045773 -0.23795734396770607 0.004483354193485703 -0.001033067253693658 0.43743523952327584 0.04530352068630314
65935000.0 0.830399896285902 -0.5518888501259679 0.051281792342854224 -0.25306349059576805 -0.00040352200519487775 5.441234069129058e-05 0.4482075395699707 0.027962122535191477
66934000.0 0.8260162187788913 -0.5605355521563489 0.05229695995040279 -0.264973237646948 0.00010319236461114048 0.0016480346239490726 0.44416631730505923 0.016959758604148892
67933000.0 0.8222358317238853 -0.5664865285056042 0.058086957796065236 -0.2776143690135799 0.0006652167009473927 -0.003786263796443886 0.4485935553947911 0.015230751598672161
68932000.0 0.8083461514601831 -0.5592983574189277 0.051903044915719405 -0.2852020668870351 -0.000841055571078032 0.0001379253883068863 0.4467741491347636 -0.0058242188101102306
69931000.0 0.8076780094793298 -0.5831408954133707 0.05105271305169127 -0.30816934790032524 0.0022058918855175497 -0.0010425077582003064 0.45156079937577054 -0.01644322852134236
70930000.0 0.801597456951592 -0.5903274233759945 0.04636682999271201 -0.3177451486257295 0.0024439250159443014 -0.0013042251903109545 0.45882130994879966 -0.029759318814070786
71929000.0 0.798789990351602 -0.5985666162952017 0.04643925053800842 -0.33885554756814606 -0.00029198094286224315 -0.004471213638557911 0.4552684231880799 -0.03880836902524178
72928000.0 0.7905961273378453 -0.6079549345004127 0.03738586972000143 -0.351964308458211 0.004081586042779655 0.0002958394561472962 0.4658342809527881 -0.045452649843973805
73927000.0 0.7839916482206288 -0.612895159097624 0.03244206412308802 -0.37108782274960156 -0.0022031498545798385 -0.0018115488555280083 0.46676168625909964 -0.05304022075719353
74926000.0 0.7796676095969657 -0.6235562910799259 0.025429441372254724 -0.3902581889299205 -0.001561241554817955 0.001136993690004309 0.46774193806331077 -0.05369315604225506
75925000.0 0.7744007454811209 -0.6267930533072972 0.017408017464400516 -0.40848079530180986 0.0007098473842222343 0.0031771618653932084 0.46230982677066096 -0.06705911646034025
76924000.0 0.7658650820447945 -0.6362227995360746 -0.002807917701343667 -0.431612298451078 0.00380168219978196 0.0014737393601179955 0.474067311896507 -0.07805580926631871
77923000.0 0.7604458873758886 -0.6440991450064948 -0.011427044270872377 -0.45559938516653153 0.00025480390454421954 0.0032745683403676306 0.46103051746740925 -0.08456627770413502
78922000.0 0.7557513414911279 -0.654984829158936 -0.02281879163003652 -0.48072438238223886 0.0010214129014121886 -0.0019852013970690064 0.4651291297165469 -0.10029057077376545
79921000.0 0.746786602277969 -0.6564379690512475 -0.04323764508407822 -0.5049973081749479 -0.0031929790729293937 0.00613159682249534 0.45385585450363697 -0.11302185745143929
80920000.0 0.7410068828526771 -0.6674593118310352 -0.05698564562373415 -0.5338620934031992 0.0012210234628342949 -0.001658022936876371 0.47718395633701105 -0.12130887700229322
81919000.0 0.7363618740894196 -0.6731227067909075 -0.07456698645637509 -0.5567808094850385 -0.00390823695020076 -0.0033772642639843067 0.467228570509049 -0.12291105827007877
82918000.0 0.7262314046202009 -0.6801414149369012 -0.08892426631273798 -0.5920050095174375 -0.001293953539778023 0.0038180890836987972 0.49064148740694075 -0.13695420262301106
83917000.0 0.7176681164170291 -0.6901640973032671 -0.11001935333190728 -0.617589114714977 0.0008313038715025292 0.0016067637950305284 0.47805791204921266 -0.14115701039674686
84916000.0 0.7128640478554117 -0.6965631734374114 -0.12196630415184526 -0.6499276675881244 -0.0055000173975953285 -0.0015806342634046354 0.4737988393874122 -0.16745323753257557
85915000.0 0.7051882413264734 -0.7031006241128476 -0.14399710199500476 -0.6822474962849188 0.0011005703140243932 -0.0021824488193745227 0.4808081405083043 -0.16681594901551455
86914000.0 0.6990935383391127 -0.7119926787499291 -0.15923969894096973 -0.7174998240565564 -0.001720819962463906 0.002744663410982433 0.46463868055983554 -0.1718890399985266
87913000.0 0.692175638919783 -0.7184498184396669 -0.17655978008612153 -0.7467259955686159 -0.0017835661478649645 -0.0024419381979669617 0.46149440960437094 -0.17713082479600523
88912000.0 0.6833635048678045 -0.726056871034074 -0.19506621060542292 -0.7787432311442847 -0.0035840807475977835 0.0007544991247171282 0.4705709529660074 -0.19761650600256958
89911000.0 0.6790900137954098 -0.7337880661099295 -0.20604408674376454 -0.8162646184558828 -0.0002472119902033846 0.00021490977830866995 0.46763426149056636 -0.2011464139505664
90910000.0 0.6694762744259758 -0.7385146239288126 -0.22262168514323633 -0.8463271863841937 -0.00033109315742327355 -0.005426191916343955 0.46251313679247436 -0.21614936920654165
91909000.0 0.6611289098777913 -0.7436006712125826 -0.2371269204031639 -0.8775977216151554 -0.0027180586478379983 -9.276044314833143e-05 0.4658613294531852 -0.21680958209938705
92908000.0 0.6538131659896139 -0.7531199668071732 -0.2579893522647385 -0.9095324783700803 -0.0008552776337328587 0.000735924418266796 0.4566817753046563 -0.2360747525733901
93907000.0 0.6474825032316927 -0.7567225437198374 -0.275285556792102 -0.942161961579145 -4.297447206060873e-05 0.0033735733346225206 0.4673894450952189 -0.2504134052154224
94906000.0 0.6334545158230591 -0.7649979512242981 -0.2885738789511004 -0.9741807948246134 0.0020039257712623545 0.0005369285834257458 0.4695588350365828 -0.24287493271041216
95905000.0 0.6285348260768612 -0.7720149935600537 -0.30841383408301454 -1.0008496405850453 -0.0015235252912650203 0.0009847206390016586 0.46215074186015237 -0.2618048358665492
96904000.0 0.619342258101441 -0.7799842940334171 -0.32440632547019427 -1.0445432467370255 0.0016553772912287885 -0.0031544829728949305 0.4648172588082096 -0.2672758894382767
97903000.0 0.61076684095902 -0.7861212972124207 -0.351235497295161 -1.0757512231811874 -0.004575718985107134 0.005351767139350341 0.45991233057048425 -0.2773518481175591
98902000.0 0.6065654231844679 -0.7942335763684681 -0.3661494770230572 -1.1126900636047496 0.001454875473953219 0.0037453757443265154 0.45363231428868567 -0.29264543461002623
99901000.0 0.5970315046941888 -0.7994944975861892 -0.39294935070384707 -1.1429363474478467 -0.0018708825566703718 -0.003307244835999677 0.4688351854326865 -0.3039931260954735
100900000.0 0.5868058088218037 -0.8010338869273813 -0.4238863993071054 -1.1697668922731816 0.0009540657865766475 -4.103762037305604e-05 0.46637503391171287 -0.3160914262564689
101899000.0 0.577345726775281 -0.8108187760278635 -0.4440733306358869 -1.207217275459124 0.0010911413915276444 0.003279418247691977 0.45526597976920224 -0.3165027489371747
102898000.0 0.5685596230290979 -0.8154100143173434 -0.481703274516672 -1.2392976839258256 0.0009573292930620873 -0.0011397724062488282 0.446022933994488 -0.3271453000670323
103897000.0 0.5575411641031252 -0.8228738384488427 -0.5188008673573639 -1.2738782178647405 -0.0014068018192628044 0.0004563897826418376 0.46064517407449407 -0.32289635961849905
104896000.0 0.5513664573091951 -0.8336309232150086 -0.5671732334048568 -1.3068127290721803 -0.0018444867557374854 -0.0031864993793046634 0.44335185845369657 -0.32561047750134425
105895000.0 0.54004430561924 -0.8353582395937881 -0.6096913180839059 -1.3476175307011666 0.00025246825729210206 -0.0008974155857215144 0.4410100934507509 -0.35015446666372824
106894000.0 0.5308692918658446 -0.8420599284812552 -0.6593943709507967 -1.3802779161123324 -0.000867584585372639 0.00024022431346095246 0.4312761762883017 -0.35593250117422787
107893000.0 0.5221648504102533 -0.8489327286546547 -0.7095127209561198 -1.415492558392817 0.0001950233697769696 0.0006386956750956086 0.43941461181900554 -0.36514186361050505
108892000.0 0.5128343109243266 -0.8527620385897645 -0.7694904672327866 -1.451675955755577 -0.00336651698925657 -0.0017094183671784047 0.4335606669030851 -0.36464242371747163
109891000.0 0.49967351423678635 -0.860251385953699 -0.8206422516353233 -1.4827296224972732 -0.0015811193320427312 0.000457375082929479 0.447055515418848 -0.3660458180058722
110890000.0 0.48826359020402055 -0.8764896346329945 -0.9045506228157488 -1.5017099237081843 -0.0006122246482535102 -0.0032012562028945553 0.43821665492851886 -0.3868374618987404
111889000.0 0.47827508162791216 -0.8667306556444245 -0.9475554689129796 -1.5498217120149997 -0.001059978480953985 -0.0012363441675821837 0.4308080103670061 -0.3810467459572665
