! Created with skrf 1.9.0 (http://scikit-rf.org).
# Hz S RI R 50.0 
!freq ReS11 ImS11 ReS21 ImS21 ReS12 ImS12 ReS22 ImS22
1000000.0 0.9909695998055551 0.00793038395759364 0.0027173917834608327 -0.03102472919931421 0.0022734973463838706 0.014462014107156218 0.370821206197905 0.2695827278330918
1999000.0 0.9954198353692246 -0.014313080590697226 0.005356220407177244 -0.02805024899972615 -0.0014697581016394493 -0.0036603521725464072 0.30019731385480547 -0.06467286459837258
2998000.0 1.0020863822320218 -0.016868483319438625 0.008238494095985038 -0.015928611244465717 0.0037264569152836184 0.0003952130725265788 0.19909582921454094 -0.12876482256180977
3997000.0 1.001880419820631 -0.027765721540704585 0.015450374146036385 -0.006283050955100591 -0.0006955587160178303 -0.0073470758079620105 0.09221329107050118 -0.23553750751724664
4996000.0 1.0025322485168244 -0.03596221873091265 0.011656361046294021 -0.0033989011652796495 -0.0008825231874337691 -0.005207018025455908 -0.03746787193301374 -0.20447853331854002
5995000.0 0.9987806082356091 -0.0484434538560852 0.009935433636946324 0.003167003680268708 -0.00018946164452172783 -0.007511288890447173 -0.12258160358514976 -0.1056829728693
6994000.0 0.9996999672656108 -0.053874552365440476 0.006286445809299288 0.0034843683988412338 0.001273949331583506 -0.0010740170181882305 -0.1462792145576554 -0.03738851284827218
7993000.0 1.0001838743021454 -0.06540729221814692 0.003039183325306583 0.0023146996349804046 -0.0003536949365725257 -0.0010106565887298003 -0.1642756894813519 0.03920168560134175
8992000.0 0.9972902791920227 -0.0707072000601598 0.0019313665603141177 0.006195559046429985 -0.004652823382357808 0.0018596226727711329 -0.15697245362313042 0.07129500144872826
9991000.0 0.9978794013293227 -0.08444690689943832 0.0029586661640267496 0.0049990765773533855 -0.0013269468577967627 -0.0010000831344139838 -0.14792568393863187 0.08044914828348396
10990000.0 0.9970254415108128 -0.09229963794711593 0.006315052439524821 0.003090226543224881 -0.0037219716951324877 0.003185239466591577 -0.13484955484372568 0.11840142848145466
11989000.0 0.9954009689086399 -0.10048941451088736 0.0024603708745872823 0.0029755187042736953 -0.003238900636879401 7.316351308684428e-05 -0.12132805030186695 0.1374959517765801
12988000.0 0.9949275914599267 -0.10916546611336969 0.0009195527917845286 -0.0026327083391234738 -0.002207545642362196 -0.0009651638749516474 -0.12459789946205689 0.16906560652788954
13987000.0 0.9915313672833166 -0.11749539894939258 0.0020577910871580046 -0.007926309282390707 -0.0020931513067122443 0.0018678761685424507 -0.09895309108174216 0.18136966623669032
14986000.0 0.9918277806890156 -0.12406406358612534 -0.003828953044105697 -0.0024254821432106474 0.002098867065357479 -0.0020679234544000134 -0.10025790124431308 0.2031192244380762
15985000.0 0.9939855854886307 -0.1338844040873468 -0.002427536699170764 -0.0025161887422606257 0.0016979982302021887 0.001597744238115173 -0.06482692709023749 0.21594899765603692
16984000.0 0.9889419068780322 -0.14610691575158777 -0.0021225982108556817 -0.00866705092898803 0.0005440246547695582 -0.0010329369013758116 -0.061664604396648434 0.2111628207748818
17983000.0 0.9895257991385847 -0.14890306203750575 -0.005582530553575363 -0.0030707128310699383 0.0022920767571999526 -0.0003255401690233483 -0.04970845045297306 0.219126073536958
18982000.0 0.9856686538881169 -0.15986033246364673 -0.00333619668464372 -0.009478976725568654 0.0011682016181983367 0.0008261178722644776 -0.015899629404024746 0.23008578661339488
19981000.0 0.9860057509618637 -0.1630890437035274 -0.0026594876060236352 0.0010480696856157389 0.002081136421916789 0.0002757657223357968 -0.016818600016059546 0.24415745339280512
20980000.0 0.984408862848642 -0.17767480750529432 -0.003862387569169275 -0.010518070184707205 0.0017154669485769502 0.0036978226951599625 -0.0012118077695871924 0.24264749215887657
21979000.0 0.985370437172659 -0.18284029066691687 -0.003305769347787342 -0.0019916047118918078 0.0013305636501466651 -0.0008180797366598093 0.020335405359531843 0.24166047984946468
22978000.0 0.9809766826521896 -0.19179206468909282 -0.004736298174398265 -0.002312417604195157 0.0004313644050572774 -0.00035303641402492907 0.03245517643595745 0.24629909415529902
23977000.0 0.9824347309105615 -0.20112425408859155 -0.005838928775019309 -0.002287670805831009 -0.0003691468897922763 0.0013141047885711736 0.04573938525757924 0.25207435093374486
24976000.0 0.9781126933681061 -0.2090741858101783 -0.005439315878674231 -0.007501573674670028 0.0020554541501646073 0.004591153083547867 0.06438270574075709 0.24470578187641803
25975000.0 0.9781293656132104 -0.22418562614516235 -0.006475970107299035 -0.0023637162723493957 0.027123500696171615 0.0019556400804794844 0.07954568130236618 0.2577818900787687
26974000.0 0.9743081355308064 -0.22693075796701476 -0.006787941568787954 0.00022123931022659417 0.00022367952539235957 -0.00222130394118978 0.08877649204564733 0.2639256521915009
27973000.0 0.9714263938159392 -0.23458267909366134 -0.0016913690540903614 -0.0011086296254680713 -0.001776023551813615 0.00033992973127890857 0.10292430667295896 0.2477498214608654
28972000.0 0.9693027629020314 -0.24256938542093126 -0.004637637650097864 -0.007719883831573813 0.003147925666193663 9.684680113165002e-05 0.10679875179922749 0.25885663938003795
29971000.0 0.9685627843677105 -0.25294366918123884 0.0010417951250945143 -0.004043465270885024 0.0014498448216994629 0.0027084706240775905 0.15337951644030118 0.26926455229483764
30970000.0 0.964983791126563 -0.25712965140567906 0.00029367752965282957 -0.000814448184882876 -0.004007154309413559 -0.004764664766407847 0.16925450204618347 0.24946683287984092
31969000.0 0.9637477859233327 -0.2649656325108487 0.00473251817443935 -0.004238864034125328 -0.0003292352446093353 -0.002352504373893496 0.1514419133333906 0.24746143572266327
32968000.0 0.9619147318589485 -0.27547812666294796 0.007772543261775414 -0.006207782071161132 -0.0007059995136659412 -0.0009167226037425141 0.17294758944698316 0.2509584871676544
33967000.0 0.9587079569703145 -0.2852429213614346 0.008713539439335605 -0.00799808428998113 -0.005595372598545696 -0.0007631475627196808 0.18203627254607516 0.25066016654931644
34966000.0 0.9560187895728075 -0.2918610603159383 0.012216527577547098 -0.012595799982416013 -0.0009822947914839252 -0.0012668122319916052 0.18930683577809607 0.2575014325255007
35965000.0 0.9534512548001368 -0.3006896558597331 0.016810918252421658 -0.015209838058322525 0.0012954052813642647 0.0022350231674668547 0.21551508525269428 0.2535095341669104
36964000.0 0.9507654304195703 -0.30815937458414144 0.015723916314142564 -0.016793229063996037 -0.0012145696670020768 0.0015559177335574218 0.20605078345933198 0.2514455963380458
37963000.0 0.9485957138490472 -0.3169142852148145 0.022305980406052257 -0.021051772937565442 -0.0016515285522481706 0.0003043341569148319 0.22757000332053934 0.23774683416964715
38962000.0 0.9466589199312652 -0.3249865126256327 0.023800967196397113 -0.02469389004199275 -0.002550772442074786 -0.0002388429516477986 0.238315614119163 0.22690149077739924
39961000.0 0.9429955670160449 -0.33458944326007645 0.023470116149960696 -0.02739063947167634 0.00045562933040036965 -0.00046371751066668894 0.2536235197658466 0.2261306934973296
40960000.0 0.9400635124265665 -0.3422457169479651 0.022085917583637253 -0.02509288247170466 -0.002561346472305868 0.002392559217826444 0.26983028692610034 0.2289017502671798
41959000.0 0.9375396762757677 -0.3503333864317371 0.027378593282601605 -0.03333167909475732 0.001330976635872658 0.00011808009522634257 0.2609176167162427 0.22039670934956326
42958000.0 0.9315684030405654 -0.35881960499734505 0.029286862859674082 -0.04058472387153377 0.0004946706410272353 0.004013049805084619 0.2757521369390962 0.1996012349323569
43957000.0 0.931403161441068 -0.36389489907194855 0.03498267151719015 -0.043132367041125545 0.00034021611141953995 0.0006481759200553251 0.2901092984513968 0.2050421459335577
44956000.0 0.9266059394574763 -0.37314962244671773 0.03545085634142833 -0.051304145322472836 0.003098404851825004 0.0020241947916856406 0.2952088762425918 0.1932702614387069
45955000.0 0.923695648514873 -0.3849164375129859 0.034172379418264176 -0.057318869926353176 -0.0008165790395190475 -0.0006052384426109678 0.30456374076075626 0.1963896131871919
46954000.0 0.9195090388550872 -0.39179044900277216 0.03752857089965939 -0.06311651908715529 0.0005487752617787938 -0.0006646979687080565 0.3179990383883377 0.190448292743969
47953000.0 0.9168646924607784 -0.398344070520451 0.03511939091457923 -0.0707161121706289 -0.00332294030242393 0.001015220329055109 0.3317006795639182 0.1675241021072338
48952000.0 0.9118224805266725 -0.40735713681263286 0.03521813283538241 -0.07817222999479648 0.0008747627086297958 0.0012481903977020745 0.3316302587402734 0.16784685224888582
49951000.0 0.9084725195040371 -0.4168421389770796 0.037686416433306925 -0.08414088797882617 0.00010302420941788068 -0.0009357000615386646 0.3634101968906082 0.15672705748826335
50950000.0 0.9049619374213991 -0.42393157419388766 0.0380284365437056 -0.09273482823217691 -0.00015822084216462478 -0.002606231578771487 0.36030460069310327 0.14347884331630018
51949000.0 0.9013997704681067 -0.43192501277541734 0.03641463809751022 -0.10210820634986865 0.002478575729950401 0.0012016955339023434 0.35726866627714904 0.14518745776941994
52948000.0 0.9002817029227674 -0.43844768101847903 0.040763662142573404 -0.10996993834392255 0.0008202541015862503 -0.0008170504209239069 0.3860493314668594 0.1414836720579126
53947000.0 0.8928251837937905 -0.4481158095186826 0.04250081687929217 -0.11913865924578335 0.0009466671761564394 0.002037067243192525 0.3732693765089555 0.13380487831770432
54946000.0 0.8895695785983053 -0.4540849858401326 0.042146085793346305 -0.13021576030826643 -0.0002597428514012306 0.002996779432333144 0.3918410250117719 0.12213536882379293
55945000.0 0.8862380821463276 -0.4627532228192464 0.04502234911798381 -0.13837045901816755 0.0010117581557098512 0.002443386193616269 0.38950035515462006 0.09180154856120253
56944000.0 0.8818395032752193 -0.4719175593981586 0.04473772817148824 -0.15069091903583318 -0.0017946750987476497 -0.0012523104448718433 0.4080214959789709 0.1076427476048555
57943000.0 0.8778048207592761 -0.4823701133567199 0.047748498587482244 -0.1588958119784194 0.0011962113483440977 -0.0023692266575810754 0.40531464111398746 0.08930966385498032
58942000.0 0.8696975060189526 -0.4893869982604911 0.046400686173615785 -0.1698584480294625 -0.001248203475531212 -0.004039137270169435 0.422320728752281 0.09882500415452707
59941000.0 0.8684153766000671 -0.4972932287670562 0.04847933444527595 -0.18106830127414097 -0.0016202956235591927 -0.0009778623560215043 0.423904109807741 0.09132009823290083
60940000.0 0.8616504721128367 -0.5018999616783464 0.0481817739829296 -0.18367201986788267 0.0012598090111333197 -7.155827882423487e-05 0.4165301274186512 0.08176635045966153
61939000.0 0.8594233088434996 -0.5096819486007826 0.05083251684763189 -0.19169364820511198 -0.0017075279858142652 0.0004002876177576299 0.4179536043927879 0.0547016093668823
62938000.0 0.8537651115873763 -0.5193895874660898 0.05191944429080679 -0.2074991444776913 -0.0011137687475099077 -0.0028763184525483635 0.44084326784908695 0.05741244921076046
63937000.0 0.8495212743248399 -0.526190780837616 0.052755666873863676 -0.22876769227348062 0.004560615031057456 0.0012475737337299157 0.44502577424876644 0.043562081667959246
64936000.0 0.8411571498084314 -0.5347679179037913 0.051481761055677276 -0.24523377812969843 0.001698302559233288 -0.0012449654015681175 0.4407542818112671 0.05095871259239346
65935000.0 0.8409962725097921 -0.54277377504319 0.0511112582333337 -0.25450065640939995 0.0014548456120025745 0.002628913364441068 0.448138765910648 0.02286722239550593
66934000.0 0.8362246844309208 -0.5489841115017873 0.055127169966162015 -0.26805556677445047 0.00018214877226310517 -0.0010249163832269652 0.4330769718140929 0.006005269317475971
67933000.0 0.8312659465959918 -0.5574662367739139 0.055168450082848666 -0.2841279105694233 0.002672022190776244 -0.0005691229462280737 0.45940836172648175 0.01275797268965899
68932000.0 0.828135932469023 -0.5617774736874572 0.05159049421242301 -0.29547537917668865 0.0009135574236628648 0.00017933822619416311 0.4595648016707285 -0.0033952512932055924
69931000.0 0.8174757800163142 -0.5743912789829934 0.04936306795780867 -0.31349940136751897 -0.0013700662717450532 0.0023071127581300857 0.4473553658336282 -0.018922489955359997
70930000.0 0.8118922695453142 -0.582031081713476 0.04826138793289079 -0.324669991073938 -0.00014851956798345845 -0.0008339390105703215 0.4488268078127256 -0.03389706911517074
71929000.0 0.8086470816244712 -0.5884951242085407 0.049852879959779536 -0.3421086388300153 0.003763087423250799 -0.0017444485770499686 0.44650447361527223 -0.037176347625857975
72928000.0 0.8029382841544972 -0.5961171145362562 0.0430239160911542 -0.357763600595968 -0.00138314062071324 0.0022444916806112227 0.4646414710192604 -0.04990765366221724
73927000.0 0.796357112467026 -0.6038732895800083 0.034878502915868054 -0.37665475724275377 0.0006760388715258873 0.00045445545369266377 0.4623525199193352 -0.05838460321215492
74926000.0 0.7927229577057878 -0.6136189135222183 0.03368773587126361 -0.3963741689412699 -0.0035015177403231994 -0.0019541146401124768 0.473729473716865 -0.06372226116006932
75925000.0 0.7853411823068668 -0.6168940922012891 0.025801930100487206 -0.41569866947505096 0.0027058825330664687 -0.003677089665992086 0.4742915360015401 -0.074178198861254
76924000.0 0.7800033906097753 -0.6259882315325537 0.009445371263916789 -0.43578708284447437 -0.0008734661192753007 -0.00017507234815111782 0.4656827777286049 -0.0774779472622422
77923000.0 0.7748863564275872 -0.6317208812302931 -0.0016260935027550042 -0.46085646126742147 0.002080048674374392 0.0006524904125597053 0.4625355040053918 -0.09379665801870667
78922000.0 0.7701274943159706 -0.6423573846634012 -0.01924005193249742 -0.4847741682862699 -0.0010738227470587437 0.003181584290701759 0.46665375525024916 -0.108615363226574
79921000.0 0.7603063872141311 -0.6469923894957311 -0.03214181154106922 -0.510504448539039 0.0020896327007728587 0.0009855823359338014 0.4646049749837115 -0.10703844577246417
80920000.0 0.7590187273870168 -0.6574437862606911 -0.04743109311568142 -0.5395533341841301 -0.0007204665042937414 0.001853491150918924 0.46928893929458554 -0.12293275036686857
81919000.0 0.7498744047857379 -0.6636008440465062 -0.06778841569963082 -0.567424044264899 -0.004223155857362298 -0.0004306771915849725 0.47081408976899025 -0.12855043889461132
82918000.0 0.741611109886364 -0.670139418642207 -0.08371181140683784 -0.5931437632218567 -0.0017834377176111343 -0.0032477895149627518 0.47446208932553996 -0.13916164357625038
83917000.0 0.7329479246772482 -0.6792735613648707 -0.10196065363297077 -0.62263061737738 -0.003000781019462918 -0.0007997358102474171 0.4788437574476736 -0.13820143535576443
84916000.0 0.7284194955984198 -0.6876329944295458 -0.12113840426170636 -0.6595760549875408 0.003442919970509381 -0.0017047818358862463 0.4681325443095552 -0.16743032528864762
85915000.0 0.7233396637103781 -0.6916594174587354 -0.13822625258326499 -0.6878372324516807 0.0023644889710536703 -9.099585435367635e-05 0.477991654813133 -0.16619036509678498
86914000.0 0.7149373875245735 -0.700143673223959 -0.14981817733639888 -0.7224921797255658 0.0020874036240338813 0.004365934790920522 0.46843461017931237 -0.16299433716591413
87913000.0 0.7079095512252324 -0.7080502874860586 -0.1789874410155303 -0.7510470074773696 0.0006289163364356786 -0.0037696825661126063 0.4644863942013393 -0.1759771635378807
88912000.0 0.7009255282334137 -0.7162168253097032 -0.1919886124136322 -0.7902744693544693 0.004706071336461366 -0.0012842798540180947 0.46093913343795107 -0.19472732465031903
89911000.0 0.6932757852962087 -0.7232183875282243 -0.2016904565241979 -0.8254728076424205 0.0003450311407614124 -0.004447695388309385 0.46360486767661774 -0.21683052463743605
90910000.0 0.6891480545366895 -0.7277152282763472 -0.219964234702265 -0.8630781134989154 0.0007337228522333388 0.0012177608147031886 0.46311696708714417 -0.2072204989884086
91909000.0 0.6792068489932421 -0.7326184896183491 -0.23998833152598348 -0.8922723026539459 0.0027022822597585977 0.0009114551503518796 0.4740687266441946 -0.22179447743113875
92908000.0 0.6709045047133751 -0.7416330790730014 -0.2582081395311852 -0.9255953174540394 -0.0011929222247865315 -0.0007752218138928701 0.46034824021878734 -0.2213306798355476
93907000.0 0.6655316565772736 -0.7477399840636515 -0.2770335032235337 -0.9570928258375445 0.00012247633905838925 -0.002707164204073276 0.462299266585386 -0.2539897023357723
94906000.0 0.6519432872764785 -0.7566715924264231 -0.2934553761003879 -0.9897198892140038 0.003934392945383479 -0.0008090651959618031 0.46376871458355473 -0.24132314265009341
95905000.0 0.6452457915789055 -0.7635966512889588 -0.3171688881075855 -1.0254781557822663 -0.0034050952625022035 0.0019018592351394074 0.4602427422856844 -0.2585303491649541
96904000.0 0.6364882516875304 -0.7714638230233165 -0.3337126220660544 -1.0603719950610724 -0.00014796397453492764 -0.0023910071205422677 0.4596026784293141 -0.27484394547742996
97903000.0 0.6284038981019666 -0.775975765789276 -0.35258416084874017 -1.0952811788041417 -0.0015089255203298729 -0.003690578251791611 0.4538996324250237 -0.295590921725327
98902000.0 0.62443059770371 -0.7821684510317373 -0.3695024159356825 -1.130155326180297 -0.003629205209462348 0.001205269169775514 0.4429379128787207 -0.2830446001050768
99901000.0 0.6119752318705275 -0.7899756864796627 -0.39678113387409586 -1.1632552112080077 -0.00047069840983150583 -0.00011015730389915926 0.4659789515901113 -0.31122599759817743
100900000.0 0.6062317549791844 -0.7943284359160625 -0.4290285280886462 -1.187243925373 -1.8024879216160443e-05 0.00020781711239885027 0.45715016385505397 -0.3199829466710645
101899000.0 0.595893443370264 -0.8009353013423307 -0.45622739064270684 -1.2270873208766957 0.00045801857607363344 -0.0014607624018479124 0.4521005629084233 -0.3100173932731626
102898000.0 0.5868244772020328 -0.8064509072234719 -0.48708378771426997 -1.2667777780139344 -6.063344157731611e-05 -0.0017023424992766555 0.4447110226411505 -0.3270254469264773
103897000.0 0.5796546388014563 -0.8141067513299182 -0.5222096183484792 -1.3009172973668754 0.0019960259718999757 -0.0012059634294624188 0.45217699423737195 -0.3259288072193921
104896000.0 0.573467584839012 -0.8224746204229713 -0.5610717540209402 -1.3351102646747444 -0.0013250397229819244 0.001399909322677717 0.4434252129354161 -0.3261328174213397
105895000.0 0.5616646296335706 -0.8263870080081027 -0.609367500468512 -1.3771829658029315 0.0007652872600194186 -0.0013378371732467936 0.441966549201487 -0.35512700652995904
106894000.0 0.5500907515160622 -0.83266160585528 -0.6637733220074843 -1.4053653362809786 0.002065331871775447 0.00034140185123916354 0.4359687539435315 -0.35908400748700087
107893000.0 0.5431029514471851 -0.8390396796423615 -0.7156491209652285 -1.444780967910948 0.00043259817642138214 0.0005923611307715039 0.4340487048610979 -0.3655282941557376
108892000.0 0.5353232771823471 -0.8436751424362058 -0.7727864798408433 -1.4767495325176838 0.003323169151933389 -0.0027765394896234266 0.43097239067486154 -0.37201511017160926
109891000.0 0.5236608508047722 -0.8496502398748689 -0.8251682082860673 -1.5097857842962232 -0.0013097249281397818 0.003747280396488798 0.438544254727061 -0.3734631738135457
110890000.0 0.5188248977281036 -0.8550257046214592 -0.8752846758908704 -1.5308732751768233 0.001787914588857738 0.0019943550971052437 0.4273303417863551 -0.3791633089379258
111889000.0 0.5055762215913291 -0.8579951370412512 -0.9461147434980673 -1.57598794875963 0.00363749579904629 0.0007475110936712504 0.42536045179485765 -0.3943616081223863
