! Created with skrf 1.9.0 (http://scikit-rf.org).
# Hz S RI R 50.0 
!freq ReS11 ImS11 ReS21 ImS21 ReS12 ImS12 ReS22 ImS22
1000000.0 0.9758142431148239 0.008342354938134637 -0.006765863626082194 -0.03796539454017116 -0.007370853905131533 0.014280815880362271 0.39969322030712046 0.3034386139576236
1999000.0 0.9979703057161449 -0.011652730611938682 0.010403512038701851 -0.024603472171841632 -0.0014728649659704002 -0.003048586525673334 0.2615046683382593 -0.07580863844534456
2998000.0 0.9972747778147667 -0.018594585683683006 0.008791875415684632 -0.013354310029648861 -0.0004214406221623344 0.00038464430250352663 0.17835895609271135 -0.15949832522794175
3997000.0 0.9985887153439238 -0.032260463233841644 0.012945499413090743 -0.003613172760285235 -8.592427117890318e-05 -0.004166361843478071 0.06226865246647194 -0.24991655765534965
4996000.0 0.9980046755470937 -0.039829035930336945 0.017028601728716914 -0.005590403757228925 0.0013363278298898554 -0.0024185953510998635 -0.06840161236684932 -0.19719826558087497
5995000.0 0.9985690529340889 -0.048335333578622096 0.009095196043846315 0.0015513335737365908 -0.0018653055995133904 -0.0024390905852231053 -0.11836034795781605 -0.08030703501434175
6994000.0 0.9975013677935378 -0.057638327295135426 0.007617849111680378 0.0031199110256016085 -0.0020899866135907943 -0.0018576558661687805 -0.1266086431344047 -0.0028485529139121945
7993000.0 0.9981391606726928 -0.06530952175465865 0.003208288024422389 0.005337732668497729 -0.0008015166720791094 0.0007468694359787589 -0.15166654172950192 0.035135936227362066
8992000.0 0.9967094990925239 -0.07243410255770454 0.0019881018863498567 0.004539510212433952 -0.00033189024742446383 -0.0010628961765386722 -0.1469006112284772 0.06893282538050934
9991000.0 0.9954284371321863 -0.08281772197919274 0.0023014924491189764 0.0026377603620966663 0.003407881897279381 -0.004016142129854904 -0.1317192940365113 0.09668859258864551
10990000.0 0.9935082797765846 -0.09240559234901083 0.0027938801762064725 0.0028759142287454417 0.0005459028048822144 0.00024831513476171956 -0.12346765839013696 0.1070203928027572
11989000.0 0.9906075603601525 -0.10018038621560024 -0.002634998840905562 0.0017289917422955905 0.001157444220958554 -0.0038776747871333466 -0.12269090033849478 0.14171064806192066
12988000.0 0.9915557570153233 -0.11082489869054357 0.003114232544954196 -0.004062829214481961 0.0002725541961871445 -0.003015896995944122 -0.10210631673451469 0.16829411484930473
13987000.0 0.9913008788253946 -0.1166170846145643 0.002547431531639103 -0.00656877515989936 -0.0005314721229938994 -0.00046273669591826995 -0.097004679717006 0.18237426822940536
14986000.0 0.989746528638248 -0.12491872018451779 0.00012136313984413062 -0.0021522932728204524 3.481825254918249e-05 0.0005379677128317846 -0.07940596209926476 0.19897629843207487
15985000.0 0.9902059011676133 -0.1323187606306636 0.0012307908158783463 -0.0020734772547943503 0.0003422390260553618 -0.00021593096158188473 -0.06611842399415953 0.22342257982974448
16984000.0 0.9892775792090651 -0.14207563356273287 -0.0008874183636147085 -0.0009472844750007218 -0.0010089910935260113 0.003492586302485478 -0.052793425696504685 0.21519280304284724
17983000.0 0.9892895529047259 -0.14627937518176481 0.0007149697887695627 -0.004908033924337403 0.00014577033121547555 0.0003514241050729596 -0.036985383134109505 0.21335862498411712
18982000.0 0.9854439572104129 -0.16136416503512163 -0.0018324752935037195 -0.004915100528778476 0.0012684180251968259 0.0010103505347114855 -0.023229982717136034 0.231477902652006
19981000.0 0.9868431605754086 -0.165924192225059 -0.004196138780304714 -0.0037308430685868924 0.0026183030533173546 -0.0039116136513194935 -0.009611331873335061 0.23700055308886986
20980000.0 0.9825116503177203 -0.1728709679354801 -0.004147879166259472 0.0005475587300843935 -0.00736487612431511 -0.0010324196459881314 0.004947220992855251 0.263705505995217
21979000.0 0.9806609611771622 -0.18104420691390347 -0.0028913251593850734 -0.004509375210348644 -0.0014776552627617542 -0.0012472114390641592 0.019721878216340718 0.241414289162054
22978000.0 0.9803766546447614 -0.1910306709733966 -0.0038143471529904667 -0.0024373036863865618 -0.002326329010890987 -0.0012939426050203938 0.028283840472232966 0.259814280085124
23977000.0 0.9783054592622007 -0.19904921369042042 -0.0033523280494177294 -0.0031865936453660234 -0.002939831740140385 0.0035524163202619074 0.04652621371285866 0.24952844983158817
24976000.0 0.9754528261509631 -0.21145735227250673 -0.004441208635929405 -0.0019870004094227228 0.0006047266307676584 0.0038552790765572858 0.0689979123409729 0.2555514054766231
25975000.0 0.9735263225911847 -0.2137109724068577 -0.0049651773092122065 -0.0026908052707106532 -0.02278757961339094 0.008889001111090575 0.08106853693301776 0.2693892743649976
26974000.0 0.970803208065409 -0.2266262625445472 -0.005912823963460152 -0.0016572462070650175 -0.004532463786538778 0.0024846479590104023 0.09102655638884982 0.2615132357802135
27973000.0 0.9725203501970205 -0.23234495939801325 -0.001242486379072993 -0.0027942520395837743 -0.0034797136892620183 -0.0019052107632392058 0.10758131169964542 0.25766118515015746
28972000.0 0.9699138112512312 -0.24142994831650638 0.0028827434283906854 -0.002638478562082762 -0.004682971250082316 0.0031237919904024444 0.12193478496946096 0.25360971648470276
29971000.0 0.9663041117150035 -0.25122380789383403 0.0012975713408442172 -0.0022461399581103 0.0014368252207846487 0.0001382861633936848 0.16261773481561934 0.2642049287663591
30970000.0 0.9637540773729776 -0.25617177871881347 0.003960458452229291 -0.0007064622466024359 0.000416629778640929 0.003898481290053681 0.16232870386719805 0.25448613259035463
31969000.0 0.963159210959759 -0.265172747242952 0.003982419504125513 -0.00459733619677316 -0.0007312065955168394 -0.0013647976398344457 0.15610171169077738 0.24272595081945691
32968000.0 0.9604777987478096 -0.27468218996062005 0.010156601444332072 -0.009763716093915863 -0.0008552475819175521 0.0018476054738293507 0.17098635251870645 0.25244457959787653
33967000.0 0.9576226745220412 -0.28390177930800775 0.010320138609820987 -0.009101116667337155 0.0010853799375316188 0.004277422009868077 0.19795385296493243 0.23875649994573533
34966000.0 0.9561678693392636 -0.2902509021798431 0.01664644724706322 -0.008314239925551904 -0.000722176115491887 0.0024787380754960875 0.20691232314545815 0.24449096387300184
35965000.0 0.9528987798101091 -0.2996060819649784 0.019604091391903337 -0.015170081513225353 -0.0026117895890278046 -0.0032850794914500887 0.22475587885093476 0.24400210898052488
36964000.0 0.9497734168976045 -0.30874591884695285 0.016271495631379675 -0.015108424609071332 -0.004722483699994238 0.0004962204958934411 0.22463204281575327 0.2543388121491126
37963000.0 0.9469671130853422 -0.31750929156138546 0.022761720955553746 -0.021042643231103487 0.0006821487093374079 -0.004258092195752731 0.23200211437232138 0.22978402087127883
38962000.0 0.9438556071052684 -0.3265594697768618 0.026363973173121686 -0.02137177705425827 -0.0016789541311513648 -0.00014045623968402313 0.24647206995034282 0.2365802533674214
39961000.0 0.9405876820882837 -0.33281342097005284 0.026717420347950074 -0.029121772919946737 0.001143869814556233 -0.002567830724823404 0.25703690662278256 0.2232999200756484
40960000.0 0.9383146969429174 -0.3401044616142533 0.019291561859913677 -0.024583869535431645 0.001856158263328637 0.003996029983368096 0.27772700665377226 0.22561827961212616
41959000.0 0.935992298078388 -0.35074198245995325 0.029095780881938742 -0.031711285871282614 -0.00010839718696617611 0.0011211274850222788 0.2730396277814721 0.21838700446215922
42958000.0 0.9310994319090675 -0.35945720210980847 0.029951655810509025 -0.038412436314022066 -0.0003486512569074025 0.001067030633249528 0.28884505153359835 0.20431320133939684
43957000.0 0.928814474365669 -0.3655800602587974 0.031355015198804286 -0.04684806339789034 0.0021728827079950178 0.0002215963647383191 0.28690040785937715 0.19719334894494553
44956000.0 0.9258524565117895 -0.37380397132198173 0.03229101967659897 -0.05140256661894909 0.00458755948414664 0.0015694009979339946 0.3079607608552014 0.1947212003852828
45955000.0 0.922982097804079 -0.3812906014186312 0.032278502459464245 -0.06039402086816509 -0.00021689656358476526 0.004187659898160442 0.3102964201045572 0.1975072130892848
46954000.0 0.9181934265035857 -0.39042700148248527 0.03467719554022568 -0.06145071465097011 -0.0005225234943056642 0.00044277425038003105 0.34215367672879404 0.17915339005993686
47953000.0 0.9164273753585398 -0.39898147443641774 0.03621951186216199 -0.07070441812557902 -0.00128851729918131 -0.0005948955060643026 0.3438608013066611 0.16950271404535375
48952000.0 0.9108406405913431 -0.4080286808107389 0.03539048569514915 -0.0779436545330115 0.001266675484512437 0.003188043537819893 0.343127138061455 0.1685026432782441
49951000.0 0.9066370219196448 -0.4158593813173842 0.036401598546917796 -0.08509990450569867 0.002939266560800848 -0.002630578504636947 0.35469433714767806 0.16349392315425457
50950000.0 0.9038913254095043 -0.42472380580142843 0.034522606486104446 -0.09382856851543446 -0.0006135447890340767 0.0021615473430665654 0.36700846195038916 0.143457181297451
51949000.0 0.9005837070972723 -0.432280487914889 0.04061991166392429 -0.10140816244294631 -0.0026448877692527495 -0.000730578711952528 0.3702425058659951 0.1458191881888957
52948000.0 0.8958760022437616 -0.4402603129521621 0.040813135822646986 -0.11198873438240192 0.0005081323807539881 0.0011998894689554884 0.38223701533035953 0.13443905881974383
53947000.0 0.8925283185179873 -0.4457980062466117 0.04285033757078275 -0.11986657869614852 -0.0016418744603550013 -0.001830936659345149 0.3770070472466058 0.12714593339700464
54946000.0 0.8862960086143435 -0.45810066356127815 0.04167778647860532 -0.12842044814827497 0.0006242169959374829 -0.001957403618638421 0.3963241974519887 0.11976754981228036
55945000.0 0.8841746219013605 -0.46551973792266443 0.04253438331868287 -0.1394965326354363 0.0026151983445686527 -0.0016632387882578304 0.3955138558718243 0.09547617410459922
56944000.0 0.8803859104082499 -0.47315655123715344 0.05115415069516526 -0.14930565332570742 -0.00135963812184449 0.0015225842382696557 0.40229565112827265 0.11353816576693118
57943000.0 0.8743797899616491 -0.4834465315074897 0.04700098402069939 -0.16111379151449437 0.0030272425522147373 -0.0030990492712702072 0.40564438778568557 0.09450081473821459
58942000.0 0.8707902228693264 -0.48618808064903113 0.04835925596296603 -0.16950211697518217 0.002248267366807319 -0.0004619639743251479 0.4247575564556912 0.07979943371277966
59941000.0 0.8675967254139971 -0.49863278923062127 0.051080998564706805 -0.18070395020763222 0.003044550408800625 0.003885611811680619 0.4231868880553778 0.08107377927446814
60940000.0 0.8617264843852118 -0.5013012070253804 0.04921583582898135 -0.1841277264165958 -0.001008673941615857 0.0006565820089997372 0.41751746163997805 0.07533241578596482
61939000.0 0.8577052506155388 -0.5096125229186739 0.052812891539246 -0.19022971804256517 0.0017978562983438785 7.54958761205337e-05 0.4191568691090319 0.0709591305550168
62938000.0 0.8525306635483879 -0.5207196995061214 0.05411706275248842 -0.20812293022366185 -0.003638378685453033 0.0006930499519299146 0.4507571071465716 0.0580003687151572
63937000.0 0.8488267647761357 -0.5264940653356681 0.053636685025012044 -0.2278200507920399 -0.0026150867256609085 -0.0015980200418868689 0.44306152931119414 0.03711877691998857
64936000.0 0.8414903901389693 -0.5333893694345299 0.05370209871239399 -0.24154629312089287 -0.0006926584955024503 -0.0020777466172460205 0.43876849957391345 0.04164110540675772
65935000.0 0.8371759481586738 -0.5451361185517113 0.056018855443648624 -0.25666340345455096 0.002381277355240111 0.005961785037446475 0.4446063051172286 0.022118747704848608
66934000.0 0.8333854323187775 -0.5489028930082662 0.05616580566772147 -0.26876934999745744 -0.002809236577875906 -0.0012414950076516896 0.43704959569096846 0.008996215504366993
67933000.0 0.8311839292871793 -0.5588332752375481 0.058325247214073075 -0.28365717272062285 0.00010538352149365382 -0.0019998746758377807 0.4497907954210082 0.006513345046650968
68932000.0 0.8134324787126923 -0.5528024763261516 0.05093048133880098 -0.29055031227291434 -0.0005433132866336737 -0.0008508186462151117 0.45849895475062047 -0.02149056069600101
69931000.0 0.8169602211677387 -0.5735244548522404 0.05346159307052631 -0.31338968669018363 -0.0010766818325051875 -0.002580924256880328 0.4518946938704585 -0.012360273471271235
70930000.0 0.8120206872238349 -0.5791049745896946 0.05202933249753481 -0.3263426765338407 -0.0023024227336676645 0.0012549774679612054 0.46331443384978965 -0.03812288426140971
71929000.0 0.8074398401751098 -0.5907313031108077 0.045981790044124816 -0.34221248946755 0.0040038107237313205 -0.0020150618021624244 0.4623535892354047 -0.03983581987983505
72928000.0 0.8007410042996438 -0.5996093720066404 0.041325046356508424 -0.3593635667158295 5.909135001364505e-05 -0.003761283685081141 0.4670526994226019 -0.045441714809420546
73927000.0 0.7930224339769594 -0.6041899271770915 0.036121930816128835 -0.37504652352315543 -0.003008997700809211 -0.002663293146261763 0.46514541301149026 -0.05612044803509825
74926000.0 0.7904093650499767 -0.6137618751358646 0.03230530557321455 -0.39571878893613094 0.0025877596724197412 0.0019458481873460924 0.47064893510311373 -0.060045946313761006
75925000.0 0.7861526470434143 -0.6165348569283272 0.025992290705264428 -0.41233370573119504 0.0005310888332441678 -0.002516547000401015 0.48143464058610175 -0.07240954233891427
76924000.0 0.7764200403580176 -0.6268939836913849 0.009757391306036235 -0.43667278998191644 -0.0001624227780130469 -0.001506274882338388 0.48289695262285875 -0.09304218228070807
77923000.0 0.7730629720109394 -0.6328754574595331 -0.0017379665654064349 -0.4578643734649241 -0.0012720665832582172 0.0027359219500851565 0.4640540915915076 -0.09793446199464545
78922000.0 0.7661904681253555 -0.6404367111423647 -0.01676930276927912 -0.484217331315105 -0.003582022294547406 -0.0014640475710732002 0.46675315853652344 -0.10595020713608365
79921000.0 0.7581295006516919 -0.6472592019659638 -0.032343113939264846 -0.5099206332990182 -0.002447211884707202 0.004718676947550853 0.46882969886953996 -0.11720664468321088
80920000.0 0.7523669019295344 -0.6568488517406074 -0.048700836921394555 -0.5396297191816957 0.0028722616935819866 -0.005134045772223066 0.47972229449750015 -0.12961809943851876
81919000.0 0.7469667937549404 -0.6627907483153822 -0.06909569481461748 -0.5650643151881786 -0.0007724104723452759 0.0011808836483800374 0.4751278925211964 -0.12478180375506036
82918000.0 0.7397102519187481 -0.670916606513285 -0.07775430923507216 -0.5960052427121566 -0.0021633397669005004 -0.0029519418741985573 0.4749694222127425 -0.14358628179214583
83917000.0 0.7295246019253847 -0.6793915416029324 -0.09913578180920467 -0.6217906476283458 0.003442421829138959 -0.00038164003408523646 0.48323526995945754 -0.1529404164215927
84916000.0 0.7254676284628665 -0.6870780300937182 -0.11864802347565147 -0.6574011093467376 0.0019248109011152465 -0.003147871476180041 0.47301715259870786 -0.16313403306609792
85915000.0 0.7210141779410797 -0.6922982922013813 -0.13234113286801394 -0.6854067199672109 0.0015439552334935455 0.0008060746153005265 0.4769778299303906 -0.162326584033224
86914000.0 0.7125731130864381 -0.7030105465000525 -0.1490597497891978 -0.7234303762165243 -0.000589925565606461 0.005964883128617768 0.4723163099890968 -0.1811354313056489
87913000.0 0.7058485872824676 -0.7083283749302612 -0.17173364790854484 -0.7519695401657065 0.0024001200088179507 -0.0011780553012790706 0.46301147346025506 -0.1797492529863853
88912000.0 0.6996737631350387 -0.7141807641272997 -0.185802928179724 -0.7864193512553213 -0.0009484657377252184 0.00030301968920411307 0.4644670141311907 -0.21087781188180116
89911000.0 0.689877775805181 -0.724798209511514 -0.19879762287343977 -0.8206679297595768 0.0016509434761629593 -0.0017461218740440095 0.4701203238522703 -0.2136056488532933
90910000.0 0.6854906496887815 -0.7267926103822548 -0.212236971203883 -0.8560202702145563 0.006554865856720835 -0.001611400999315635 0.46597786436071464 -0.2188153823336638
91909000.0 0.6757978775283348 -0.7345411998282995 -0.237275548220498 -0.887002468430986 -0.000991961212818538 -0.0017484519156281007 0.4666786146512948 -0.2307664877818014
92908000.0 0.6678569768186065 -0.742998469028511 -0.2518085243983086 -0.9193355319823914 0.002826983699975012 0.0005039464147025868 0.46013611868688176 -0.23153907214069055
93907000.0 0.6599299278246729 -0.747805137592222 -0.2694545122351483 -0.9531375381617903 -0.0015892013377681693 -0.000991703954271062 0.4619034198706624 -0.257977426796971
94906000.0 0.6507019821084657 -0.7569036667245798 -0.2841418458128586 -0.9853857185224787 -0.0029070724101838046 -0.0020755081490681088 0.4751994693905568 -0.2452591067686034
95905000.0 0.6441112194498203 -0.7635993128492622 -0.3090624524956086 -1.0196250859322753 0.0025750250929245707 -0.0014116936115208594 0.46544415112117954 -0.2636433548490927
96904000.0 0.6341430970320998 -0.7732313531198388 -0.3304241280691364 -1.0595921308214549 -0.0010387776083862449 0.0021281106813218977 0.45250820810893827 -0.27055004528374743
97903000.0 0.6253104432537607 -0.7756796068756644 -0.34868261415679597 -1.0905849452696397 -0.0012524231725970316 -0.0008351305243289735 0.45451424567960474 -0.28046267042032513
98902000.0 0.6224325812948419 -0.7834281765692628 -0.3653981706229248 -1.1287098953058843 0.0011864831124768643 -0.0040501487388158 0.4551221557099048 -0.29028544775094944
99901000.0 0.6134046661901333 -0.7891792158110672 -0.39003071646603404 -1.164122667729648 -0.0019109022795011166 0.0009452961467166973 0.46444947710159 -0.30518761041375786
100900000.0 0.6033664950519897 -0.7929354296168618 -0.4215604542603304 -1.1899416359384285 0.002966614375082419 -0.002501862094931363 0.4730474697529535 -0.3117634971646433
101899000.0 0.5935265156883416 -0.8003243395198328 -0.4493400198303783 -1.2255330531090685 -0.0013617523517187873 -0.00011256110587646388 0.4537672809061795 -0.311939940571919
102898000.0 0.5844061684592298 -0.8057430365965332 -0.48071196131432115 -1.2658745591429426 -0.0007945141918957494 0.002370822105060868 0.45974779956548634 -0.3364315794328669
103897000.0 0.5750889785866511 -0.8125605288999476 -0.5165967990469454 -1.2972041336903957 0.00036512800671172226 0.0006936403646067064 0.4694724410501157 -0.3334765612924628
104896000.0 0.5708010172507174 -0.8248944107645209 -0.5626706359342578 -1.3321695109231926 -0.0019159254425423038 0.00016095521170523543 0.4524450178210023 -0.33940632640826385
105895000.0 0.5572233447945062 -0.8248983176513472 -0.6075760749033776 -1.3735495316911603 0.0023548782081195788 7.59559872855504e-05 0.44691516596456843 -0.37086854384790074
106894000.0 0.5467799175203987 -0.8335726570355976 -0.6617721104054605 -1.405255513132577 0.0023561900271155925 -0.0018555594317135262 0.42920358938640635 -0.36165826340182683
107893000.0 0.5391127087072446 -0.8399610524639447 -0.705747279312093 -1.439975424458202 0.0009036107830972511 0.0012061776668345226 0.44403500360562964 -0.3906303578435097
108892000.0 0.5328541467901757 -0.8416523015857046 -0.7588005960503555 -1.4740713356244417 0.0007054631678471678 -0.00011210855510191287 0.4220474206087296 -0.3759094401934036
109891000.0 0.5189184471169979 -0.8508410632296043 -0.8130211664513122 -1.5104192222684891 -6.998996422943487e-05 -0.003507701339026338 0.4436256357615761 -0.3720351724892922
110890000.0 0.5019631169472124 -0.8648310191445719 -0.9000671086566254 -1.5142555007707592 -0.0009266894277063128 -0.002955925801889714 0.4291770209914795 -0.38835784046016014
111889000.0 0.5013563678311763 -0.8564550152139518 -0.9341304576062858 -1.5798406610073912 -0.0005799531723143509 -0.002203735782705931 0.41471030245053253 -0.3982733080014123
