! Created with skrf 1.9.0 (http://scikit-rf.org).
# Hz S RI R 50.0 
!freq ReS11 ImS11 ReS21 ImS21 ReS12 ImS12 ReS22 ImS22
1000000.0 0.9826174389127317 -0.008202159621220267 -0.03194077678371864 -0.03768868891421749 -0.02512644581793634 0.005441670054607249 0.36802076358911073 0.35089676575495515
1999000.0 1.0018398330301639 -0.01641469767321681 0.01068480973053189 -0.02035600266315396 -0.001269031252002985 0.0014018496767983848 0.25704170552216177 -0.042874239419705994
2998000.0 0.9978372560190759 -0.02323640311518118 0.007489781858475439 -0.013190073077255948 -0.005943092686226963 -0.003747808503834685 0.18362687524853472 -0.13346938700488234
3997000.0 0.9948750829841437 -0.03442328162600322 0.015388952268778676 -0.010007791798356503 0.001493847832421117 -0.004865465751700522 0.0914451478188348 -0.2044439067245621
4996000.0 0.9931572572012346 -0.03905063539522368 0.009846609631881654 -0.009104264721911124 0.0011735737745870473 -0.0005708164985899673 -0.04552538503132872 -0.2009084669096832
5995000.0 0.9935852658198231 -0.05058221455967909 0.00566437714886557 0.0044044067910684135 0.00025266866906901097 -0.004457370969641174 -0.13085410507604386 -0.09551472375371071
6994000.0 0.9923558321626633 -0.057867899601661346 0.005180445082200588 0.005835523237028856 -2.888619225879318e-05 -0.002458780077769825 -0.15323149515972304 -0.01549476518943635
7993000.0 0.991999789947485 -0.06891472018477411 0.0026678150051074588 0.004923206236704236 0.0024271314830511762 -0.001416401366626634 -0.1707879716664753 0.04759214134173034
8992000.0 0.991155276855285 -0.0712791964512322 0.003104505894378285 0.005946381004137768 0.0003753970321057133 -0.0019217276923649256 -0.14738024975415134 0.06902323979678134
9991000.0 0.9903360559243045 -0.08428596674496198 0.0008160151503892253 -0.0021320167139399376 -0.0025912299490406868 -0.0015869195719048265 -0.15385736871833322 0.08401847449240467
10990000.0 0.9912466361635288 -0.09237224578567244 0.0008391364627350393 0.00019513918115674799 0.006272270766088008 0.0030917428408387643 -0.13905784206105415 0.10580858052787079
11989000.0 0.9856705836247207 -0.10258684977570208 0.0015535005665627557 0.001521113475415032 0.0010728382996288166 0.0031341287844390744 -0.11671902583206327 0.1370180756134538
12988000.0 0.9855417195064456 -0.11043937276749799 0.003047755409483674 -0.00202849177665649 -0.006706304135724852 -0.0006152418079777586 -0.11435397767460528 0.17188230833915363
13987000.0 0.9845406980725725 -0.11927016134713511 0.001885573273495059 -0.0028419044762414388 -0.0010789167870797064 -0.0007683189623285394 -0.10623652339655769 0.1871497081606398
14986000.0 0.9852442892189787 -0.12784770414203556 -0.0037779039934348457 -0.0016958871952134802 0.0015409880211131395 0.0005531371068069925 -0.08479506960227329 0.2071642070112152
15985000.0 0.9868997418016551 -0.1318506403011629 -3.2865551785530575e-05 -0.00730753478888673 0.0003876086620764697 0.0007018448954749824 -0.06565706048735032 0.22030300582018947
16984000.0 0.9841719053145738 -0.1419443796403425 -0.0007303927959651127 -0.0034464010924660617 -0.0009711132922806719 -0.0012373834921526124 -0.07492112788149233 0.21988938207645467
17983000.0 0.9833158967964667 -0.146842996347666 0.0014121977978689376 -0.0042642840145321135 -0.0025179157063624463 -0.001990702084128437 -0.051366969808687865 0.22980213971204302
18982000.0 0.9789678960294776 -0.15903499686741218 -0.0022813780296087605 -0.004649797386964129 -0.0022231516496784547 0.0066557967745065625 -0.023407030980933666 0.2407358458379176
19981000.0 0.981069662319304 -0.16874414198331913 -0.00854398896541267 -0.001520509615164115 0.0016598616032820375 -0.0038680586706576706 -0.02173142603780006 0.244302112977198
20980000.0 0.9768494753745176 -0.17693946699798146 -0.004889537377636766 -0.004531947069714405 -9.514413465879886e-05 -0.0008324659204946639 -0.004912374979044049 0.26397829739061546
21979000.0 0.9757703362669569 -0.18357733733353343 -0.008252726267178356 -0.0021752991161503327 -0.0013824751478069858 -0.000907567315738096 0.022586955936206566 0.2515810788325423
22978000.0 0.9748256994592388 -0.19332849629272442 -0.0076593054299439805 -0.0054584960387299595 -0.0036899315358060836 0.0025597864427455183 0.02753363849655275 0.26379137612344555
23977000.0 0.975210776924485 -0.198426387699173 -0.006212563613510316 -0.004712334066488457 0.0012557076537866548 0.004153706497036305 0.04578693945840648 0.26347828171605
24976000.0 0.9708252738611768 -0.2127444507604628 -0.008036176355815966 -0.006819020335585195 0.0030816686108552337 0.00312483401992323 0.06640310194158862 0.25541145919393476
25975000.0 0.9715821687213765 -0.22330730378486682 -0.00738315209074075 -0.005783001314282273 0.020312914487264026 0.016187569191299205 0.07901060594228625 0.2501097430346982
26974000.0 0.9676973565561842 -0.22992496399298018 -0.005298537470151693 -0.0012618664591384071 0.0005153825467678129 -0.0034403783250373967 0.09213089236930053 0.2602791969797939
27973000.0 0.9658508804037462 -0.23566926358842052 -0.003098908116660039 -0.0028485369673743976 -0.0009821184341313794 -0.0009912052874396543 0.09587585392643774 0.26328695250975953
28972000.0 0.9622852755753091 -0.24670790715327984 -0.00014801494012491457 0.0013357064258525593 -3.309043828585967e-05 -0.0019559429025946566 0.1120093586421669 0.2668133693831148
29971000.0 0.9613077348423074 -0.25515853959127455 -0.0011610323003294156 -0.002236302498945924 0.0006722025014970661 0.0009446252077951799 0.1560023487572658 0.26018146946932336
30970000.0 0.9587638281418994 -0.2597487031106996 0.001241591589855656 -0.00044861506557816874 -0.0025208413167120795 -0.001958012884650484 0.17178746851333784 0.2446316774802048
31969000.0 0.957410207269012 -0.2676872384520923 0.00411266117238395 -0.007098087167488539 -0.0027746645343349557 -0.002208989537979703 0.15460204706255723 0.2519504223573893
32968000.0 0.9560365757498998 -0.27667018689841943 0.008256240023872954 -0.006939113457488523 0.0015206435102118417 -0.0005152422112478833 0.17374149633555247 0.2458093425321406
33967000.0 0.9539974921829193 -0.28541209983758714 0.011819893457355372 -0.010273179314446317 -0.0007204710922523029 -0.0005365931563342693 0.1991389336833542 0.2464464648994922
34966000.0 0.9505012289726613 -0.29778512546206953 0.015096684598832604 -0.013983982005615226 1.337012345323423e-05 -0.00017154537794855586 0.20220853993354593 0.2550008894944164
35965000.0 0.9460133686815355 -0.3047262814868666 0.01675750170672746 -0.017004682299561678 0.00047441635303826146 -4.114027067928152e-06 0.21762004711303023 0.24782847028443386
36964000.0 0.9442130489965475 -0.31490501806996285 0.01874213754044602 -0.014520869261686924 -0.0029331578717762927 -0.0022603615793356535 0.2222207553179707 0.24724411324015502
37963000.0 0.940056279253361 -0.324385092883947 0.02590421265246849 -0.017073624784025552 0.0006821891384042915 -0.004353993494757107 0.22687213968858244 0.2347580065133548
38962000.0 0.9384245460799933 -0.333509790356383 0.023225980020584437 -0.024946332412870083 -0.0027429395004624534 -0.0018321114450007639 0.24023432919761534 0.22290905905990402
39961000.0 0.935289011566742 -0.33981682253017825 0.02807678926784758 -0.0273219469236524 0.0021811523948803632 0.00029388930625093366 0.2507615283760277 0.22298901785406075
40960000.0 0.9326889453699019 -0.3477593702242688 0.022967575300667224 -0.024518616267199513 -0.00016140604057729901 0.0012386259647485028 0.27097425218069887 0.2267073792802321
41959000.0 0.9307637696239888 -0.3575628350938369 0.0318889097951614 -0.034155174432669196 -0.002441771407864403 -0.0024075162188936326 0.26883831130082825 0.20536198971065453
42958000.0 0.9258200066174791 -0.36570241682112375 0.03166743307207269 -0.043454175508526184 0.0010216202885860793 0.0007361150527501093 0.28988365020127554 0.19044254239792252
43957000.0 0.9224330367049742 -0.37316200428934293 0.030442420310508554 -0.04961148659230376 -0.001221230210005606 0.000918205101342104 0.29350593320995955 0.19867872564155112
44956000.0 0.9210036893375215 -0.37891572594268763 0.03523197794305336 -0.05837853259949415 -0.001865486721722806 -0.0007832919819740906 0.3076679719689704 0.1915824959501803
45955000.0 0.9140616213314994 -0.3915497593944234 0.034439503267869355 -0.061289265345837 -0.00020111863119041257 0.0003267116103448037 0.31141308445660126 0.19011173206623974
46954000.0 0.9119547949674174 -0.39857976660379507 0.03856484969594971 -0.0671413799204247 -0.003486956085278465 0.00039181503093230446 0.32723581338364965 0.17342306552803535
47953000.0 0.9092493671645221 -0.4065761456171724 0.036581401756290016 -0.07632136406822733 0.0010649823612972017 -0.003044784357235638 0.33888715309450745 0.17369183224751783
48952000.0 0.9019341420967849 -0.41950355394220024 0.03595440560230157 -0.08309928886720504 -0.0011404527201960097 -0.000195639158264704 0.33628221986190426 0.15085543634138573
49951000.0 0.900168705457723 -0.42219119198127186 0.038571652896295765 -0.09103210302606261 0.004165658556865163 -0.00015993180995988116 0.34052520890181315 0.14685878920710363
50950000.0 0.895899189926292 -0.4328448301809941 0.041466118012602804 -0.10055083660743404 7.23438288046959e-05 -0.001969792415966506 0.35108328482249146 0.1428868348038031
51949000.0 0.8922720546756872 -0.4411596344066709 0.041026268161733624 -0.10969457220556321 -0.0009845555451362578 0.0015083907516613348 0.35989214208432324 0.13550891161085052
52948000.0 0.8902362161659605 -0.4491746161422229 0.04321365983699731 -0.1181673236947604 -0.0004091622829169008 -0.0036405203777529153 0.3706979277264029 0.13149295457685378
53947000.0 0.8832532180532956 -0.4587454537796503 0.04525519358241168 -0.12832562791830962 -0.0005256397346671255 -0.002034869755431063 0.38093722984609396 0.11710709792183474
54946000.0 0.8784722781368779 -0.4673618447948055 0.04544405194869417 -0.13863763615474115 -0.003640709612463336 0.0002516789515594513 0.38656627779895486 0.11447031446476114
55945000.0 0.8755876229872984 -0.4729839926038223 0.04686905956352825 -0.1475168304825942 0.0034570648901620232 -0.0003893434099019007 0.3977554751534424 0.09002383967382883
56944000.0 0.8698291016076362 -0.48328706225643225 0.052779007582915954 -0.15818892493889228 -0.0030620670371014308 -0.003555796822766575 0.3911033577899549 0.10433897143940282
57943000.0 0.8670741731539893 -0.49242546668031484 0.04933017352951958 -0.16845675843597813 -0.001829296357966295 0.0017439762811550072 0.39368698762296406 0.08721171907929662
58942000.0 0.8601884729076761 -0.4972403172247401 0.05102524692502407 -0.18080315710034026 -0.001794776682664187 -0.0031742617416282695 0.4108225105457897 0.09370977940052198
59941000.0 0.8555539952565909 -0.5062316543297992 0.05351049361969043 -0.1907901023729142 -0.0015381489653705307 -0.0016326531915044195 0.4236326262661457 0.07571497430005604
60940000.0 0.8492048551874667 -0.5138612202842648 0.05605540138765775 -0.19641843643637064 0.0006943588791182573 -0.0016360193556353903 0.4113762272916392 0.06323705156462986
61939000.0 0.8459393463076323 -0.5203903799779697 0.053172023070812265 -0.20749738694932285 -0.0012024558526437252 -0.002874791818000541 0.41537439688468186 0.05773472316419986
62938000.0 0.8393889571172332 -0.5329556781568648 0.05565932628151833 -0.22340489973207275 0.00354038723489325 -0.004747759054744135 0.4403977581193184 0.03514859802735103
63937000.0 0.8353354760148644 -0.5387382768293153 0.053443796627771184 -0.2427968853273234 -0.0016672498008098624 -0.0012217713922823184 0.43479073657984535 0.02507344199138856
64936000.0 0.830564767126389 -0.5437175669971379 0.05605087426943782 -0.25616168418309887 -0.001204355175905266 -0.0015671919356193087 0.4346893303156242 0.03675889848790644
65935000.0 0.8254144595938097 -0.5554031018228645 0.05869073474881193 -0.2725462721763125 0.0008013897756822827 0.0032319327452519646 0.4363826893837216 0.010259438294580864
66934000.0 0.8207398313265352 -0.5604044321631392 0.05108994148890466 -0.2820948685927312 0.00018673857683509218 0.00198914073686268 0.42702125749802733 -0.004708161195566489
67933000.0 0.8179080663738842 -0.5704351150977066 0.05473264077228671 -0.3046677219502122 0.0007874062033400089 0.0005312475850727912 0.4445889642642569 -0.005198332667815325
68932000.0 0.8137648077270744 -0.5688458945495851 0.052070300469972755 -0.3146615537601897 0.003511941728872927 -0.002091809581917302 0.45209353490987564 -0.018059725079388002
69931000.0 0.8007350839411693 -0.5864500190090616 0.047381494119207106 -0.33336863086055585 0.0009884587072613003 0.0020013847367608556 0.45008263146551675 -0.0392784302202347
70930000.0 0.7961587243566534 -0.5933150324134612 0.047993599560616516 -0.35041283418826885 -0.00022646939451573576 0.0008128084689228306 0.444734967167477 -0.044239364129506804
71929000.0 0.7924882211603881 -0.6027379128634963 0.03807438764893621 -0.36584397796034607 0.002315621903730057 0.0017856245694337846 0.4412903737947788 -0.044756118546567705
72928000.0 0.7864613874789722 -0.6098178245399604 0.034520372506108586 -0.3856535878682188 0.00133134883138519 -0.001331519643703873 0.46616322980803065 -0.057926187417999646
73927000.0 0.7802140498557939 -0.6155544446396441 0.03137871325776528 -0.4063278219276088 0.0001724925958021413 0.0005151338498074448 0.45470835214796856 -0.07049259370231031
74926000.0 0.7732737046291406 -0.6255744891035155 0.01931510081753944 -0.4269348108487036 -0.00037147679274193284 0.0021610813090893106 0.4521045351209777 -0.07270771439155975
75925000.0 0.7670409092509136 -0.6288551104511529 0.008104144799976058 -0.4450514706214451 -0.001424611903722947 -0.0013496291019279634 0.4645535445088245 -0.09805695725081226
76924000.0 0.7606949975115141 -0.6376082348173976 -0.006754222569625505 -0.4716826157306626 -0.00315360147573588 0.004613702968119694 0.46456304054882497 -0.09898321250106404
77923000.0 0.756584728012801 -0.6462933415275112 -0.019044445348835808 -0.49826561149154697 -0.0018459388317728315 0.002337559989188118 0.4568599552471221 -0.10415046108682201
78922000.0 0.7489300204770548 -0.6553226525195341 -0.03366176055192439 -0.525347662057751 0.0021592360254698525 0.0037585721574572915 0.45970002677254973 -0.11314341346413868
79921000.0 0.7399935687598916 -0.6578035845250462 -0.05333777074598808 -0.5517094384300929 0.0010755220385858348 0.004286529258341318 0.4611238227598079 -0.12659051484365363
80920000.0 0.7367069915290592 -0.6675004044711905 -0.06619675239414619 -0.5804388208222018 0.00318290568886515 0.0020065843531458785 0.4615240994776055 -0.14514683641879797
81919000.0 0.7299845116906937 -0.6773236877281789 -0.08481306489152562 -0.6125472747639203 -0.0010573606439871072 0.0008398253790754182 0.4584752274595284 -0.15035880962528836
82918000.0 0.7211348863660559 -0.68381913361635 -0.10299469866262478 -0.6421844625085499 -0.002501562847053431 0.001264448953632345 0.4769688929125239 -0.16158663475610013
83917000.0 0.7111331033625021 -0.6904627448834708 -0.1183292735765093 -0.6729122450541792 0.00039254173570533985 -0.0012350330715464421 0.4778563995648277 -0.16861062467098473
84916000.0 0.7056601704655074 -0.6989076536679156 -0.13711666103638975 -0.7095143855315632 -0.0007307034747108356 -2.348302047248763e-05 0.4533252188563196 -0.18898096252498534
85915000.0 0.6997985319795467 -0.7036358653254334 -0.1610777746224599 -0.7408961195901056 -0.0033142452469843062 -0.0010737157719368446 0.46792284193814493 -0.19374123731031
86914000.0 0.6925975136775394 -0.7144569507714867 -0.17395868189124333 -0.7764423745859452 0.0006002542632054864 0.00392810027851793 0.4585743254635493 -0.19206817113111366
87913000.0 0.6847216304664321 -0.7188273021841831 -0.1953752423205763 -0.8034674594015467 -0.0034167868885426767 -0.0001273162520923991 0.45692982727714215 -0.20485255836694105
88912000.0 0.6783753001482893 -0.7256325802420385 -0.21221563918392836 -0.8413507375986288 3.549746297516093e-05 0.0022399492367621474 0.4545040477467607 -0.2212840244545691
89911000.0 0.6704891790436738 -0.7343789464475003 -0.22662658880395706 -0.8791531652266755 -0.0007503598071704823 0.000735281228957381 0.4610188571418455 -0.23522446827153554
90910000.0 0.6638544256013301 -0.7395754056183371 -0.24923149184320226 -0.9136939298663486 0.00278163217054399 -0.00048692619902684665 0.45747720914423307 -0.2378154075551111
91909000.0 0.654823849848141 -0.7452771431099032 -0.26781400940506755 -0.9512949746615833 -0.0012532306777449937 -0.0010290472908447033 0.46394331459545096 -0.23806745875735807
92908000.0 0.6471399036326156 -0.7542465734442346 -0.2889795035476168 -0.9809457946315755 -0.004431382189106605 -0.0027072154433972844 0.45692224036297774 -0.2515758777440262
93907000.0 0.6417576721134539 -0.7589246094926165 -0.3045098744560198 -1.01723087230175 -0.0012520267990838048 -0.002284400805195087 0.45437272858354383 -0.2706971719330388
94906000.0 0.6282957765523274 -0.7666344200252868 -0.32825356890864693 -1.050204498068227 -0.0014385679814476846 -0.0005664820207363463 0.4578805114285641 -0.2638532818043326
95905000.0 0.6216004172005849 -0.7735616801917342 -0.3518218187163866 -1.0872841043311052 -0.00026225837023097405 -0.002873655903202886 0.45596037026305913 -0.27896321820550823
96904000.0 0.614193642798291 -0.782149149100199 -0.37402631182043133 -1.1264196108209432 0.003095509360429568 0.0013268524155164837 0.4492307967862741 -0.29216539016928283
97903000.0 0.6052548580761202 -0.7865288529737835 -0.39650137521840245 -1.1591570311074837 0.00236355136151341 0.0029782445645024024 0.44499928705867214 -0.2930395285456784
98902000.0 0.6005152907968997 -0.7940574994168338 -0.421106983632845 -1.2004105812915207 0.0037272847861224176 -8.622577863587532e-05 0.43754883298988556 -0.31441000697686006
99901000.0 0.5893708810978037 -0.7983325397063549 -0.45354459750011356 -1.230442636882947 -0.0020925370852251024 0.00037540330519806426 0.45128799463263236 -0.33459659464115465
100900000.0 0.5828769234650477 -0.8023074193586403 -0.48697830261185654 -1.258197392703655 0.0002132568924269791 0.001967094978544094 0.4513664858982038 -0.33005907145980196
101899000.0 0.5712175405775752 -0.8104458109809108 -0.5187009639962202 -1.29834204604888 -0.004657327328885849 0.0011201410771027895 0.4348189942426153 -0.34078890359112407
102898000.0 0.5602975008270261 -0.818402462933115 -0.5553700246244928 -1.3376868164026998 -0.0002717769974753049 0.0012665271036753647 0.44338504654170546 -0.3614403922200861
103897000.0 0.5537900589590973 -0.8223800427436696 -0.5988590900814481 -1.3769860153548474 -0.0030040104123811905 -0.0008382355049181519 0.45318584537908396 -0.34339794690860487
104896000.0 0.5449117008957515 -0.8338199672392711 -0.6522224162698135 -1.4100442518886298 0.0006722489677072371 0.0023668128721216117 0.42745960832980284 -0.35400810928639975
105895000.0 0.5324642324757847 -0.8368415639480232 -0.7056103248625214 -1.4507535695411564 -0.0015130246568976302 0.00273389779802022 0.4271926002424848 -0.378347325164411
106894000.0 0.5262257462658262 -0.8424310325913773 -0.7597313374137269 -1.4880208783187654 0.003419390168492077 0.0010727213056282259 0.4203344904956035 -0.3758110945352749
107893000.0 0.5188789327800278 -0.8476392100705695 -0.8111370108142026 -1.5346097504174798 0.001488042926913028 -0.0022266599830607523 0.4252934889662081 -0.3947234730896426
108892000.0 0.5076354684735396 -0.8511635974204077 -0.8766798103483437 -1.5718655652210185 -0.0002636554015406191 0.001856242399590758 0.41683913967045577 -0.38902534880878165
109891000.0 0.4961431075448679 -0.8606447478604174 -0.940536936887647 -1.606450014301722 -0.0030034129469291336 -0.0006290165849796453 0.4258389527036318 -0.39149680455946767
110890000.0 0.4816240867444099 -0.875378367873923 -1.0264058360320858 -1.6122563701096904 0.001300256034506829 0.0011053341917979264 0.4195540968795762 -0.3992291462099971
111889000.0 0.4743405442005248 -0.8658685975068908 -1.0719753349650758 -1.673588349812018 0.0008604216401490403 -0.002470138550722051 0.40287416767644735 -0.4215081409225802
