! Created with skrf 1.9.0 (http://scikit-rf.org).
# Hz S RI R 50.0 
!freq ReS11 ImS11 ReS21 ImS21 ReS12 ImS12 ReS22 ImS22
1000000.0 0.984308360766919 -0.007042219849244678 -0.015854135990998747 -0.03211892371404929 -0.011266170967623796 0.016276445766452537 0.3644276130084764 0.30415845272973124
1999000.0 0.995175512206373 -0.016471000061412992 0.00395243293379361 -0.028070805311924407 -0.009105287769975223 -0.0018081759411461137 0.23942700817909005 -0.06211831393727584
2998000.0 1.0004617702434262 -0.018978842134074386 0.013242118351216926 -0.012265403731731128 -0.007102219805185194 -0.0037232306159215 0.1953843556373653 -0.13462904159642358
3997000.0 0.9991604162451556 -0.028356292653612003 0.01012355571016161 -0.006405679474314516 -0.0005810139690797813 0.0027521355053322064 0.07057189963265217 -0.21902594543112663
4996000.0 0.9954867384346278 -0.039614357431956876 0.008656421849462902 -0.004656867058424716 -0.0031504828852928287 -0.003362275944055897 -0.04872321594029116 -0.18953190418258284
5995000.0 0.996525955671729 -0.0520394230128201 0.005504733064073371 -0.00030658784407310594 -0.006394188197740236 5.307734194810783e-05 -0.11586233484502302 -0.08998617053608715
6994000.0 0.9950080216449941 -0.05624586786177923 0.006611631240729845 0.0067060936668902225 0.0005130513967551636 -0.0002604515023119962 -0.14526406517208476 -0.01977464728687494
7993000.0 0.9957373205073358 -0.06563469441660556 0.0031709867502304903 0.007087031719158782 -0.0003798422122322943 0.004741357472913267 -0.15990219380623907 0.04746257240723429
8992000.0 0.9971266081414578 -0.07101166356734415 0.006341687587462992 0.004363146177372221 0.0025386729910246036 0.0013071450681321469 -0.1548078857890572 0.057508714998356816
9991000.0 0.9933377116102932 -0.08262402107030324 0.0026929308096613207 0.004556361707555363 -0.001911136623335458 0.0012563114175418227 -0.1398586107765732 0.08640469815633299
10990000.0 0.9944782694869571 -0.09421458459934573 0.0037061448467865634 0.0005432362366470043 -0.003742012560217926 0.0006516326536226375 -0.14336553391460832 0.10779660064389458
11989000.0 0.9932631402862617 -0.10041925910239508 0.002867335431101512 -0.0027178729761432752 0.0006320164472874247 -0.0006538777827783887 -0.1423352276720513 0.15022031906684702
12988000.0 0.9932635359897203 -0.10980192851766107 -0.0019652551042889975 -0.0012050538311486505 0.00420224504271676 -0.0023955847033161675 -0.11797648693281845 0.16207931558650698
13987000.0 0.9891266757709044 -0.11787109660726854 0.0015886217581295502 -0.005114145413908113 -0.0007196967792773448 -0.000991189713628434 -0.09041670686976792 0.16619438074759466
14986000.0 0.9891045436726228 -0.1254719663358024 -0.004935007112075133 -0.005110312296354094 0.0006964279959804278 -0.00030174266273545936 -0.09512212440731997 0.19906955478233818
15985000.0 0.9908564627967998 -0.13338299489370448 -0.003343488148382311 -0.004805068703112061 -0.0018799009952488329 0.0035801006927965655 -0.06198690160523148 0.21266724976740858
16984000.0 0.9872684503922374 -0.14360088055826914 -0.0017811378491648597 -0.0018023934348450057 -0.001126203159708709 -0.001157828107087628 -0.06943507463582166 0.21416799040605455
17983000.0 0.9865911249600563 -0.14672879216789925 -0.005514011127992777 -0.0021535636730711794 -3.9984525200218604e-05 0.004843818464190231 -0.04945497707531349 0.2228352527193133
18982000.0 0.9827627816502079 -0.15970633072031218 -0.0015963894438599745 -0.0055730113316978325 -0.002575866974100307 -0.0007510428771304133 -0.029793227370186914 0.2514983537923824
19981000.0 0.9858296064782195 -0.16666356228941862 -0.004541085999648498 -0.007887245173011703 0.0014811659458245827 -0.0032108225982494846 -0.007158439405000039 0.2440320388743696
20980000.0 0.9816638757577468 -0.1765817224807797 -0.006216581348958079 -0.003923987458732067 -0.0003669903517595755 -0.004423281085407006 0.0026862282980084024 0.24710978560903465
21979000.0 0.9804607401219895 -0.1873860711137319 -0.004054571627792265 -0.0068823561777055665 -0.0021664780506203273 -0.00514140631916797 0.023042328362224782 0.23416743701310697
22978000.0 0.9795203719888104 -0.19082040206671408 -0.007447308822471059 -0.002602364985862808 -0.002766663374808938 0.003858321015025942 0.027252386569267362 0.24725441572056747
23977000.0 0.9791539273187638 -0.19940594742444612 -0.006620393129232027 0.0008112320686624628 0.003957808502939475 0.004170232302853162 0.048307360852108364 0.2557629873628203
24976000.0 0.976126648103697 -0.2087643968372992 -0.0022832613153709867 -0.0002213023336057561 -0.0005444553978168889 0.0007601547670297497 0.049755389847511024 0.2506809811533619
25975000.0 0.9783335678499423 -0.22057922094794535 -0.005786480711874338 -0.0031916061438884108 0.011538487718185438 0.025588428285209 0.08462329659278327 0.2466983871341883
26974000.0 0.9714952719276787 -0.22718649875414126 -0.0019284249300066123 0.0014098774646858472 0.0004418946677950454 -0.0001571614663309886 0.0947816103891004 0.26031968866962174
27973000.0 0.9727078454246157 -0.2335378280159377 -0.0016146026326904963 -0.001713463510965121 0.0019208270391228785 -0.001256363636362672 0.09633298116256862 0.24569882145694594
28972000.0 0.9669451154391266 -0.2441110768429282 -0.001466606520889889 -0.0018177927718481155 -0.0012792820264085195 0.00204743754713254 0.11313591243300278 0.2561706749160644
29971000.0 0.9651388968601468 -0.2527960875578954 0.00289910056842417 -0.0010937551734106928 -4.2889900453089115e-05 -7.03276238496233e-05 0.15290462422859663 0.26824547114632086
30970000.0 0.9647370401918548 -0.257483288191408 0.0013216687222048884 -0.0034202004416328145 0.004370689376463975 -0.0019806832695221477 0.1654693143272245 0.2535652509810407
31969000.0 0.9609912876048535 -0.26792084045957615 0.006661134486758165 -0.005383831526396516 0.0002057252591960581 -0.002273287232413387 0.14460295882626026 0.24562902549310184
32968000.0 0.9594864006537054 -0.27642573658144964 0.006503185726794928 -0.00849250200248494 0.0009864410020356336 -0.0008291139466315442 0.16292555882344123 0.244182787116679
33967000.0 0.956936220925416 -0.28728106939021153 0.014138063693746603 -0.00878455013857649 0.002098517086964568 4.782861351104698e-06 0.18822026062877578 0.23967350388984532
34966000.0 0.9547237540808754 -0.2952681687783497 0.01256126467396002 -0.012370582810875325 -0.000700718821750568 0.0021683742153024454 0.19520296285224878 0.25377733122109936
35965000.0 0.9521096564166147 -0.30193036363247056 0.022795762388694296 -0.014405562070540341 0.0021163532094107935 0.0015751804052605005 0.20285435283936204 0.2584912647656079
36964000.0 0.949989150226713 -0.3109242035231859 0.01619136788019145 -0.015253781217072201 -0.001936443465854114 -0.0011368310533016364 0.21674692788697655 0.24401301089400498
37963000.0 0.9467927419745771 -0.3191077704369827 0.023617288745804686 -0.023020379858231865 0.0009422136618776075 -0.00031040406651844854 0.22488594584576818 0.23318234126548734
38962000.0 0.9442787245604113 -0.3273088325856223 0.024521949906524346 -0.026653455450877477 -0.0018627143456396043 0.0012900613888293922 0.24499729498165734 0.23568028015018735
39961000.0 0.9398539565522843 -0.33662161960429215 0.02860381063559808 -0.028827522409892357 -7.92127583745593e-05 0.0008802000217016038 0.25674917715667384 0.2120272601963505
40960000.0 0.9373354237057586 -0.3448975687408451 0.024238284201698504 -0.02426097815541848 -0.0017233926094808506 0.0015632130438576772 0.2564559041185713 0.226855669985844
41959000.0 0.9343206825390493 -0.35433405741583063 0.02777877403060311 -0.031856367239952055 -0.00383691856078935 0.0011332184834224083 0.2647817650296733 0.21267610744221097
42958000.0 0.9299851294986414 -0.36285627700426404 0.0338178237060844 -0.04311677030442095 0.0004814266108572019 -0.000686336702287258 0.27938402767311443 0.19491026193135247
43957000.0 0.9287361165193333 -0.3667197957754492 0.03584276049425722 -0.044365468396054535 0.0001090258626885813 -0.002209671774988216 0.28694928522983604 0.19650967358144542
44956000.0 0.9238779398195784 -0.3752116551757572 0.03422308214241125 -0.054102274484292924 0.002202536551907457 0.0010864569812061636 0.30740672259291535 0.18688219307543016
45955000.0 0.9201180775044714 -0.38709121903431964 0.034827514234813416 -0.05681462083895191 0.00035312367741134853 0.0016611893643614162 0.30470167828609523 0.19126115121120893
46954000.0 0.9163030239434864 -0.39562781181942025 0.03984974310479925 -0.06371699417746811 0.00014503882418657563 -0.0010046938996548032 0.3306502141541976 0.1703632356929841
47953000.0 0.9162382200561229 -0.4020647801740259 0.038422957206718636 -0.07220883942081238 -0.001089382980440386 0.0031514420258681296 0.3365054942388141 0.17297185888777245
48952000.0 0.9100270893449122 -0.4117958991969532 0.04032302790879597 -0.07847601411129684 -0.0038340089850560067 -0.0026754184866502303 0.3348007659749509 0.15561713774384286
49951000.0 0.9051220301718576 -0.41983847794905027 0.04193468627929501 -0.0876403334214168 0.005825672293789091 -0.0029982633413825 0.3487219959317109 0.1473955751520507
50950000.0 0.9027942953028304 -0.4282938039730037 0.041863536347013904 -0.09545389423885359 0.0008286284542729939 -0.0011657673766721855 0.3433386851777868 0.14639585132574143
51949000.0 0.8992407964531608 -0.43576835717877094 0.04427178113707575 -0.1059532399330519 -0.0014845284619463483 -1.934695731762091e-05 0.35763862816854286 0.13974732677844953
52948000.0 0.8953396689360819 -0.4423926840697383 0.04667608639411468 -0.11461575317878055 0.0017057064377762547 -0.0036677246592851866 0.37259225496945847 0.1366670501978223
53947000.0 0.8887511372233835 -0.4517759665565916 0.04487783786534365 -0.12311109619580164 0.0014820433593613058 0.001353649480431716 0.37717760244280796 0.12307849281046272
54946000.0 0.8855041420291531 -0.45893365354396637 0.04745944167379036 -0.1314560246098371 -0.0011903647197512072 9.0588988407144e-05 0.385416505163185 0.12728488304506785
55945000.0 0.8826325779874852 -0.47012849052696853 0.04964318117914543 -0.14363327699170042 -0.00017930975474426546 -0.004745905642454615 0.39306832327634184 0.09590684127821764
56944000.0 0.8780494709005394 -0.4761924979472933 0.05133114538514635 -0.154563202481894 0.001249473202855557 0.004347909684359356 0.40145931867197515 0.10511256040989343
57943000.0 0.8739189245125948 -0.4857290697958581 0.053797051394811134 -0.16578179304047244 0.002250037186177223 -0.002191344019824291 0.40060289863704435 0.0807772013246805
58942000.0 0.8661329728909273 -0.49117828371490946 0.054961899251207515 -0.17498718624076484 -0.0005635225892206909 0.00026009679412097425 0.4234547365624909 0.08288382262565717
59941000.0 0.8652711458481276 -0.5000514183868175 0.05496634740251969 -0.18740696674114202 0.0014636921887644652 0.00024093343115866956 0.4163290680376348 0.07668181116845417
60940000.0 0.8565578656756552 -0.5081448190566998 0.05496952159891676 -0.19057287446073282 0.00443036238750769 0.0002572259078467797 0.41049625084360164 0.06846924133146876
61939000.0 0.8541042078624572 -0.514822830115997 0.05928510646372214 -0.19782152226892588 0.0005019012302083942 0.0003721698008171815 0.41154122653950453 0.05688869201660576
62938000.0 0.8476439554026188 -0.5257419792173754 0.061141238554846794 -0.21730771415893022 0.0012483612642978882 -0.002256177512586405 0.439181295336053 0.029533514784588075
63937000.0 0.8444494404195397 -0.5316371618229169 0.06022435854094811 -0.2367293873362184 0.002382655609959186 0.0040399558911985685 0.43081861488621476 0.0345415928088641
64936000.0 0.8359245965568783 -0.5386984363771815 0.058045062874966545 -0.25202017414812483 -0.0012936286495567745 0.0021854972522393885 0.43360416353175874 0.03480107483345602
65935000.0 0.8356300495354685 -0.547246294242684 0.05802857276266318 -0.2686906219820266 -0.0012963723784012748 -0.0003719809982287021 0.43696020777568834 0.013948049975884993
66934000.0 0.8289376426120706 -0.5546098237704984 0.05824624107526723 -0.28490596398568396 0.001818245687943366 0.003337787560581913 0.43334732306572155 0.0005834225425529802
67933000.0 0.8270106086429435 -0.5607109623255354 0.06360609171268557 -0.29498753467739525 0.002503250642193495 -0.0028287379364228594 0.4356865523521338 -0.0004864779556904392
68932000.0 0.8151272172347713 -0.5681243936455271 0.052793212386205275 -0.310853556448539 -0.0010119533998906472 0.002249406954467279 0.45157703889403145 -0.026990432370349576
69931000.0 0.8106436416710286 -0.5779496402112668 0.05301595090810548 -0.3270373613896727 0.001743326691943551 0.002747814537856796 0.45344453414598396 -0.018956927635342527
70930000.0 0.8058316382992745 -0.5850668573803404 0.05180375138406275 -0.34072560595907403 0.0002570518317009392 0.0011488776165371976 0.44285213138732554 -0.028414170948893258
71929000.0 0.8034647768972771 -0.5929410372435092 0.04989652522240095 -0.36190409868274537 -0.0008967029326217112 0.0011852255761907193 0.45381256452624175 -0.059957011428236624
72928000.0 0.7962042918277633 -0.6023465135717563 0.042843276889207874 -0.3772822400341748 -0.000228204817334161 0.0031981888641444507 0.45761107536713114 -0.06556071786014737
73927000.0 0.7905081641149725 -0.6086791804625618 0.03557511629578398 -0.40126293892058046 -0.005343570574139936 0.004078796818497555 0.45389751627800773 -0.06268607866078177
74926000.0 0.7840288286215259 -0.6190178439224171 0.029764626341753416 -0.4188923744886457 0.0013849348908671997 0.005812653965011048 0.4645311009261059 -0.06354906831315463
75925000.0 0.7795681265142882 -0.6225843903319475 0.021402659908324313 -0.439516330610139 -0.0029484401840761984 -0.0009827360537502995 0.4608604974808999 -0.09182866280011628
76924000.0 0.7741136800744561 -0.6293143138842328 0.0066931597579001035 -0.4641468675726092 0.00040187256850810106 0.0043595705471044625 0.45932158681182195 -0.09369209602559819
77923000.0 0.7666430175478132 -0.6403661114824732 -0.005820397453082889 -0.4884898301677612 -0.0007245217604960909 0.0013020442255886108 0.46227622043413613 -0.09569529358923543
78922000.0 0.7616851483108417 -0.64852688885172 -0.02073361746226432 -0.514857105240103 -0.00234501079441636 -0.0012127101304807968 0.4743197417540231 -0.11172304096468569
79921000.0 0.7533296986404882 -0.6522144482417047 -0.033640488375079755 -0.5430271516122339 -0.004617131618402104 -0.0006460272081209638 0.46389348574613226 -0.11285412759532973
80920000.0 0.7486870996127467 -0.6635945264221618 -0.04856672125196678 -0.5751495755275089 -0.0040460866395893415 -0.0021039923692439183 0.4658830330988672 -0.13294889648131636
81919000.0 0.7450855273010828 -0.6668368751707326 -0.06790976812482562 -0.5997809026196419 0.0009464846935154673 -0.0020676763615142804 0.47001245679006376 -0.13257192277088106
82918000.0 0.7316060642684297 -0.6757881253245417 -0.08181296591190738 -0.6319005641061709 -0.0015983099547862368 -0.0044188577655918295 0.48324906283459446 -0.15187951374193354
83917000.0 0.7265609968159319 -0.6834066309861497 -0.10412529281730339 -0.6656066647898824 0.0032304022908712362 -0.0027271607382832914 0.46679624828365957 -0.15763553381550774
84916000.0 0.7218520464311224 -0.6911000539091287 -0.12003897673601442 -0.6976244078443433 0.0021548806310666864 0.00032543753410238264 0.4622699411464829 -0.17642180398529894
85915000.0 0.7145832565720794 -0.6966485218902295 -0.1432910649186354 -0.7263835570106769 0.002285199148774682 -0.0018963387117652446 0.47233420482174737 -0.1789230737479311
86914000.0 0.7048187425080751 -0.7082509169004555 -0.15266740932011522 -0.7641207409077995 -0.0030899818728253974 0.0010834074174152822 0.4670377990800164 -0.17829614185532527
87913000.0 0.7007357619246272 -0.7121819947688318 -0.17859818831442598 -0.7956858673903948 0.0010740422257937193 0.0005163647099948579 0.46099387943800035 -0.1946150586612003
88912000.0 0.6905456309071811 -0.7203095452484323 -0.19129698650022875 -0.8331994532985071 0.0033434892439057774 0.0011820136007603173 0.45743633539116996 -0.22358358247844817
89911000.0 0.6860389126366441 -0.726997606377305 -0.209884414989686 -0.8723192769401793 0.0010964357052372998 9.54261825537693e-05 0.46975315694330083 -0.22076570202774376
90910000.0 0.6771013109486267 -0.7344631229793985 -0.23132845506686847 -0.9052866784651014 0.0030347480928096028 -0.0007471764948420662 0.466276812248653 -0.2169526694840015
91909000.0 0.6688923110892774 -0.7374877208541476 -0.25011638929505786 -0.9384746694962007 -0.00010991580418466761 -0.0006415427513201578 0.46478481693153206 -0.23783468211958114
92908000.0 0.6609303931347595 -0.7466529319809385 -0.2673752411211366 -0.9732867968653505 -0.001701875818335212 0.0005749700445161061 0.4627119770648808 -0.24569211982013014
93907000.0 0.6555434203952716 -0.7512258611372936 -0.28940201497142815 -1.0054985003720678 -0.006340455857195409 -0.0030794066157875982 0.45745947481750504 -0.26582079969162026
94906000.0 0.6418398698543496 -0.7605648272503479 -0.30728985637407435 -1.0400730025294382 -0.001366513172399632 0.0037262927694638125 0.46339310805642947 -0.25726164621023917
95905000.0 0.6372026491409828 -0.7668995107657286 -0.3363407723636432 -1.0758526399887802 -0.0010746204979094507 -0.0004271634336279783 0.4554379701819708 -0.2795640999011251
96904000.0 0.6265561944887348 -0.7748428573232091 -0.35304318670252166 -1.1170707472152013 0.000976729333756064 -0.002454543903191881 0.450555789032045 -0.28997465587825316
97903000.0 0.6198896871982541 -0.7807912750756445 -0.3818144530443926 -1.1497955125353427 0.005574436502487492 0.0011744437246884222 0.4431857539872571 -0.2882482887629109
98902000.0 0.6143716721579379 -0.786476806734858 -0.395155663871743 -1.191193635907312 0.0006442568908391512 0.0049087486653022145 0.439352681228502 -0.30223562798307935
99901000.0 0.604606914259711 -0.7947416898982653 -0.43108392243104826 -1.2248860315272037 -0.00215688356320278 -0.0020817275876746405 0.44924134767841234 -0.31363130678725915
100900000.0 0.5941562367073814 -0.7974844637149505 -0.47001233244123863 -1.2503383843752645 -9.649464741858328e-05 0.0015512385394375594 0.44993218499058035 -0.31970852707990477
101899000.0 0.5860444608920168 -0.8056284395400807 -0.4953923820640803 -1.2937782594513159 -0.0025854403114120017 -0.0015395589884852777 0.4377658311831474 -0.3278179817849047
102898000.0 0.5758094995182704 -0.8125964777117354 -0.5328765776927107 -1.3363890847606863 -0.002597460852779349 -0.0019699935891212385 0.4512414635783362 -0.35641678956620587
103897000.0 0.5685088728252495 -0.8185941957923745 -0.5762302320942413 -1.3710407700100014 0.0005393074644195073 -0.0030107402581168313 0.45475875750098543 -0.3396017014064564
104896000.0 0.5607828951426577 -0.8272785480147657 -0.6200515522069202 -1.4045676813193408 0.0010968356072859492 0.0013991470629600247 0.4375653950560332 -0.34784809709765213
105895000.0 0.5513677599498464 -0.8311797596933461 -0.6687971082048865 -1.4535018632550085 -0.00036935346294204494 -0.0010019140094273157 0.42716125255626325 -0.36645217678240677
106894000.0 0.543467851851105 -0.8361296488232822 -0.7205805433075192 -1.490771116320557 -0.0007083937511777761 -0.0005126815080547366 0.4211163824384945 -0.37306972526180104
107893000.0 0.5349825313517033 -0.8420110475887617 -0.7781747487309383 -1.533602017766846 0.0028444133225347832 -0.002712655720209743 0.43739245385404113 -0.38983203034324987
108892000.0 0.5229325196687539 -0.8474358525073673 -0.8360019868132782 -1.5679424848891148 0.001591540338369831 -0.0008155137532363532 0.4208644150331236 -0.3802775146900309
109891000.0 0.5121338246647265 -0.8527239490944764 -0.8963237718774624 -1.6045754738146034 -0.002738258319763652 -0.003766462619852365 0.43913790197150826 -0.39417174343940736
110890000.0 0.507155287275515 -0.8583469962203455 -0.9538543631966047 -1.625096650390616 0.0017246889612074594 0.0037114546578786507 0.41394913717902687 -0.4031784845620352
111889000.0 0.48977110952427794 -0.8615203617926612 -1.0305545365301045 -1.6730173909548045 -8.038124128610456e-05 -0.002192881700630088 0.4137231167389713 -0.41500708660550795
