! Created with skrf 1.9.0 (http://scikit-rf.org).
# Hz S RI R 50.0 
!freq ReS11 ImS11 ReS21 ImS21 ReS12 ImS12 ReS22 ImS22
1000000.0 0.9807772442651005 -0.0030616995017631508 0.0033965561028228997 -0.05317654663348097 -0.002210971778652943 -0.005171144399279548 0.3715824947435042 0.30739191931017584
1999000.0 0.9955378773142639 -0.015724322300803686 0.005272093298498685 -0.019341186221230725 -0.002851750195631184 0.0013471377111926987 0.25135832000629166 -0.05502507274783614
2998000.0 0.9969111934766346 -0.021554773126899844 0.012769721234269326 -0.007560129402143268 -0.0048787281061916064 -0.0025264384586124525 0.190014329502574 -0.14149936789854306
3997000.0 0.9980234693714378 -0.033589560229911206 0.011465356531341842 -0.0038982204630853036 0.003910870643766813 -0.00021630286948618236 0.08142603408513432 -0.22233167079057034
4996000.0 0.9930314960779986 -0.04123096782397908 0.014407714393226885 -0.005416678801009232 -0.009996052509382146 0.00037051520111718435 -0.0487385903092181 -0.1873566239998741
5995000.0 0.9923374651103178 -0.05192252886213129 0.008188148532947382 0.004876237855528752 0.0007537708766705043 0.0007713950889838355 -0.1254237821040283 -0.0912511816031509
6994000.0 0.9928197240223957 -0.05989825705355846 0.008795882348833002 0.000340927409317637 0.002653461594455711 -0.0034805771433698398 -0.12721104922740406 -0.012112588598354367
7993000.0 0.9939649700857983 -0.06775746910398887 0.0019678260290766796 0.0038597669156165775 0.005732832149236322 0.0059823650668596315 -0.14204816229750558 0.052358863784382384
8992000.0 0.9925528500139537 -0.07473358585547848 0.003773877075439236 0.0024426154960357957 -0.0034076332687643946 -0.0015560686278599952 -0.14211470080595556 0.06997512075790749
9991000.0 0.99066343311964 -0.08302306674418033 0.0011475333447665869 0.004493478179400542 -0.0006436512256785874 -0.002678236577915112 -0.14097663529926457 0.07679765358360992
10990000.0 0.9890671638980126 -0.09365891227075927 0.00041106333483703996 0.0033393956444417684 0.001769776932555739 -0.0005474256808943104 -0.13416874986751026 0.11635091791210529
11989000.0 0.9879557997022965 -0.099123027973301 0.0022951750467457353 0.0002966418866591692 0.0005559657792924126 -0.0027358975958744836 -0.11278463961077952 0.1390641833969717
12988000.0 0.9882089722988859 -0.10707234580870793 -5.114766109679758e-05 -0.008204217224159068 0.0030237752073132658 -9.557766248771311e-05 -0.1183237042245828 0.1656949960698073
13987000.0 0.9852528426054189 -0.11906618545557666 0.0016544986224321667 -0.005508516014905472 -0.000835434648543922 0.008450567124654314 -0.09274405920303543 0.1912120240009604
14986000.0 0.9834543663399588 -0.12815630272784112 -0.0005008507986710961 -0.001464167239869314 0.0011015727569410178 0.0005216935778456209 -0.08424368394481432 0.19847378952891045
15985000.0 0.9873868581424043 -0.134488405580822 -0.0015547212609734401 -0.0017378589593741935 0.001036066649992854 0.003981174284915518 -0.07111577014795846 0.22039133730485586
16984000.0 0.9849346436139498 -0.14487008097278656 0.0025759245919046016 -0.004255275119592282 -0.002624891319518253 -0.004752519312208812 -0.059407917006757 0.22000594363098072
17983000.0 0.984036387197036 -0.15154335660861273 -0.002567298550350535 -0.0009364002190799831 -0.001653268975564756 -0.002506793030494353 -0.048488890110199204 0.224866580985906
18982000.0 0.9813413030529096 -0.16361257931900428 -0.0028735173321924492 -0.004698144772991738 0.003209882323162926 -0.0003996942023374585 -0.0299402102975265 0.24653227754261692
19981000.0 0.979119015536356 -0.16942793956168167 -0.002819552458345295 -0.002021535541992523 0.00018943334970044777 0.0013599683241036417 -0.006875440352741549 0.24691776936727233
20980000.0 0.9777000119793889 -0.17646829878622058 -0.006608877663298284 -0.006336916810125963 0.001040300195840991 -0.004375519508116629 0.011071914906737344 0.25118759144260683
21979000.0 0.9779992437442405 -0.18789784256529848 -0.007510556995838155 -0.004389098439300098 0.00010153943881050623 -0.0024000051099221866 0.017995138351229453 0.24838862729394456
22978000.0 0.9756038162679704 -0.19633703733980507 -0.0073351651469863565 -0.007956044792341018 -0.0012574051378183477 -0.0011539402595836675 0.025220506997963597 0.2523976784286569
23977000.0 0.9761842754821238 -0.2031053659592502 -0.010735874166748496 0.0037177324078855206 0.0020092830475400667 -0.0024386252925302204 0.04671209056290413 0.25222246373049934
24976000.0 0.9699460743994025 -0.21361270090092677 -0.006742826218973205 -0.0051732441851537895 0.0018591406520349486 0.00037251324301300457 0.058847751177764814 0.26470778045966065
25975000.0 0.9722870145122622 -0.22188675304269995 -0.005518668187079124 -0.0017467350109907388 -0.001980006837672011 0.02421523770527087 0.08640230251214512 0.25245728085529595
26974000.0 0.9682591195160535 -0.23038509373220475 -0.002563401474881296 0.0004505303389622017 -0.0003031461417434754 0.001042917949771239 0.09178180885029817 0.269199386873331
27973000.0 0.9669146474120096 -0.23646024257178877 -0.000613912914570922 -0.002619538371738814 0.003243997317399761 0.0002000760654294082 0.1135740328136365 0.26229533157577745
28972000.0 0.9627374669454251 -0.2490475028373228 -0.001708101290311174 -0.0003024173299569695 -0.0007012582856480636 -0.0015067220658220078 0.12150342917968264 0.2585574676983395
29971000.0 0.9615100058953233 -0.2555423968839131 0.0011788161660330314 -0.0008772638243169409 0.00040793286276051587 0.0007061917540286136 0.15511203113163335 0.2637049714950767
30970000.0 0.9596849846074154 -0.2613943421251977 0.0022254355563051625 0.0014803819404912814 0.002995632185123451 0.0020304476033506744 0.17466539939731354 0.25497594540147694
31969000.0 0.959153860783153 -0.2701227019444536 0.0021352553043887086 -0.004303706162969294 -0.001024113567227201 0.0015721620421719185 0.15305898310789695 0.24360213183586163
32968000.0 0.9559115212568762 -0.2810956617174388 0.005681341711905409 -0.006886509961153306 0.0005790109364510236 -0.0010785412338367543 0.1714832823670558 0.24172831721091473
33967000.0 0.9524172224087762 -0.29089537189366177 0.01021135051816721 -0.011238939729708769 -0.0003660581091711718 0.0021925071424307896 0.1968993739463301 0.23961763182316798
34966000.0 0.9495365695883213 -0.2980406098494686 0.016299948592194424 -0.01476865990913932 0.0019260869493989798 -0.0019710331943310674 0.19795645748269156 0.248832563316989
35965000.0 0.9463794967688203 -0.30700574989500506 0.016001734028704803 -0.015288735089751237 0.0005688585439624128 0.0023193892968499195 0.2121262771659744 0.2508571559348152
36964000.0 0.9444668005130282 -0.31539655664208477 0.017818708824191086 -0.014743030950543877 -0.0041241009272359064 -0.0005668929098656453 0.2193504940046834 0.25073056659470405
37963000.0 0.9397033950668991 -0.32838947769948923 0.021313449330182706 -0.02358932001774817 -0.0007714224228651853 -0.0022095302018747807 0.2309167492885871 0.230013963808704
38962000.0 0.9380943393694086 -0.3359924722788783 0.023881861019699156 -0.02709782830294291 0.0007239780428819316 0.000415501216538349 0.24416108953164098 0.23457625110765584
39961000.0 0.9344098829711038 -0.34144950587741096 0.024230301346411985 -0.02740583238276235 -0.0016410738502427805 -0.0010219444676934925 0.2553670474265958 0.23210959482456295
40960000.0 0.9319988251294187 -0.3503782020351484 0.02305460525418016 -0.028602825918673292 0.0005866406681938175 -1.4761514080586358e-05 0.26981052580123827 0.22503284116070554
41959000.0 0.9302235339528997 -0.36006284257776233 0.02923755822604608 -0.031735185689523944 -0.0031672982081798074 -0.0010129263148669714 0.2667354205177377 0.21723574018615271
42958000.0 0.9236539306893892 -0.3686127963623089 0.033604342202252745 -0.0423265008074598 -0.00182267162648281 0.0031149196983252243 0.28592299963171125 0.20121198676918933
43957000.0 0.9214546549553683 -0.3767649571272299 0.033656698158317046 -0.048528141727042645 0.0024203463715296468 0.0002999536468844359 0.2870410392463377 0.2051697735568824
44956000.0 0.9184423422358954 -0.38474927983589813 0.03352524195013795 -0.053832008927446794 0.002850397290558097 -0.0007811617861205578 0.30899725092543906 0.1957259995951515
45955000.0 0.9141756262528702 -0.394020540015584 0.033317000337698494 -0.06222208013010974 -0.00017853133714623658 0.0032882413822003667 0.3083859393681812 0.1827427572655192
46954000.0 0.9108794835599667 -0.4021440548044049 0.03836420600966099 -0.07020228005619399 -0.00012644553230431197 -0.00036945883306300744 0.3369934047419666 0.1656680431628776
47953000.0 0.9084982520524197 -0.41011948021728734 0.038277057114443624 -0.07728007322452289 0.0014383399978046035 0.001092222146046972 0.337029896255242 0.16294978393106524
48952000.0 0.9017003551955243 -0.42006988307335885 0.03762805575769149 -0.08180882455643804 -0.001910469253973795 -0.0007379168578890244 0.3434185191992666 0.1542635665864852
49951000.0 0.8983225442790201 -0.4281957844655501 0.03912039517386257 -0.09041172829832882 -0.0013843700335132375 -0.0003657479289067241 0.35912291454225465 0.14689656368913634
50950000.0 0.89409874750698 -0.4347980408953672 0.03881771734496787 -0.09920593023386345 -0.0014868667206861905 0.0034671732478080606 0.36380787934121545 0.13881761038948776
51949000.0 0.8910040728709109 -0.4447171176663301 0.04193892338138701 -0.10583550799126988 0.002051614625389006 -0.0006088794770181768 0.3672223520425189 0.1444343346242863
52948000.0 0.8890024210527172 -0.4512225601401235 0.043090927719318016 -0.11613502618029803 0.0004902009245717011 -0.0007811905506654885 0.36865492503620073 0.1380239444717952
53947000.0 0.8815872093075103 -0.4621497892300675 0.04325082197231022 -0.12444092560170682 0.0007730498396622932 -0.002859961885857765 0.3757121750753024 0.12331511503941972
54946000.0 0.8769452075587972 -0.470401114517874 0.047522916822846865 -0.1365528401275447 0.0013288022230668985 -0.0017088434128592557 0.38236420794112985 0.12455391272678837
55945000.0 0.8745740862076669 -0.47832360524860595 0.04435263182064876 -0.14960015104718968 0.00028902324583629594 -0.0016752170024478179 0.38674498580789013 0.09395757255386523
56944000.0 0.8701846559783933 -0.48560411320309604 0.04946799521379115 -0.15849625878262344 -0.0014427116103146505 -0.0005870778921636443 0.3976050082748079 0.10628682610102705
57943000.0 0.8637480475704221 -0.49716441230168895 0.04898264210572614 -0.16958727946606827 0.0005858525663702155 -0.000967556419836297 0.407084862466504 0.092369678149204
58942000.0 0.858839176122032 -0.5029368381089511 0.048204365127953855 -0.17987523711620482 0.00158150568740828 0.001879826946714847 0.42228320244197315 0.09182377900000367
59941000.0 0.8549483250996155 -0.5097226661689297 0.05197977162886453 -0.19222643434944398 -0.003757809864573743 -0.001384016182496531 0.4180429849274895 0.08176495371780498
60940000.0 0.8480399270356166 -0.5175046725483994 0.04967715147024227 -0.1962385919730434 -0.002501052646146043 0.0002453109506460663 0.4107462657852609 0.07002427776245779
61939000.0 0.8440965816938791 -0.5238348187680046 0.050925057241664705 -0.20673064738294894 0.0007628759933181744 -0.0011452715154507285 0.419858212223997 0.0711436175989742
62938000.0 0.8383982161914475 -0.5363790836861548 0.0560762286115365 -0.22239526925649003 0.0018336179452484074 -0.0019548367164709713 0.44176000790636627 0.04439649724434556
63937000.0 0.8321418045144805 -0.5444364047980114 0.0561291142180374 -0.24198634711144038 0.0035204742511378475 0.0005682095850823121 0.43770050884501566 0.03957443050574957
64936000.0 0.8286362470472339 -0.5480976244515895 0.05723412604580631 -0.2585393737746395 -0.0015649689470845656 -0.0007924491314185573 0.43334934739201125 0.03941992418572033
65935000.0 0.8229647630428195 -0.5622057224067325 0.05131450958412186 -0.2713139862477257 -0.003509625200193901 -0.0013441290327806778 0.4515805133784437 0.016061099249467022
66934000.0 0.8175657297017407 -0.5642410933255927 0.054045624059589355 -0.28215379050165096 -0.00211213450422171 -0.004625250116066818 0.4460612176712847 -0.006171890200804002
67933000.0 0.8155475772241526 -0.5733553392284882 0.05109379630005857 -0.30030222271221724 -0.002246986949241649 -0.00220258071716741 0.4445850606098451 0.0028575588236015117
68932000.0 0.7978411849055876 -0.5775930671921607 0.04699417409300304 -0.3130817792050609 7.819097757540932e-05 -0.0016505926282347689 0.4472950107066164 -0.01707334994246738
69931000.0 0.7994168216430402 -0.589152736440339 0.04788198588373725 -0.32949319611931227 0.003296325185578025 -0.00046279030543540834 0.4444617935286213 -0.022595212147957483
70930000.0 0.796163562274562 -0.5964921884679462 0.04555539331959044 -0.34665521200313354 0.0021624597056110625 0.00039619908065203477 0.4515815190710621 -0.045188719848674425
71929000.0 0.7906757270341291 -0.6046356317684654 0.03984912657306377 -0.36651628749923904 0.0028308386277617515 0.00047518009225131034 0.44888119477581134 -0.03957195471100886
72928000.0 0.7832532431812635 -0.6156640455557174 0.03119575970079978 -0.38070759291727346 7.126544999099252e-05 -0.0016820656505631378 0.46764873594068596 -0.05341580863348018
73927000.0 0.7767430013460171 -0.6195783708619768 0.023262224231522584 -0.4026366745341169 -0.002673484228878581 -0.0005440115355638146 0.4640876591248798 -0.06156693815871775
74926000.0 0.7712777251544071 -0.6286894703131608 0.01647957782469451 -0.4240270307062155 0.0058969633367675425 -0.001104578569645191 0.46159685395944267 -0.05956810673535771
75925000.0 0.7644547830327997 -0.6343573631883493 0.00792652192081991 -0.4450900348898847 -0.0005020424525624335 -0.00043033561088422223 0.4713458599179504 -0.08231525910915832
76924000.0 0.7591986964230918 -0.6430384068269002 -0.004331287824949024 -0.4661239927912072 -8.581290420542699e-05 0.0029965237264992298 0.4731498976957827 -0.08787259495127228
77923000.0 0.7521460248240093 -0.6486151434143678 -0.02315177681103729 -0.49226565444923326 -0.00179912873410232 -0.00017696095049369884 0.46002157971318164 -0.08626128850294845
78922000.0 0.7472326074443331 -0.6601038458848297 -0.036381515674503116 -0.5226580776896363 0.002653775569048425 -0.001096750998732943 0.4598356845514628 -0.11327621770737054
79921000.0 0.7357355136872242 -0.6620110545484843 -0.05186352539312625 -0.5467520151437912 0.0017590317909362413 -0.0008054227466024527 0.4492914698327413 -0.11265841477907826
80920000.0 0.7348047304593521 -0.6741730623990838 -0.07022456833870933 -0.5787140020732539 0.005873076430857178 0.0013379747253165568 0.4685373457553021 -0.13974303612193517
81919000.0 0.7293955955202517 -0.6779964601593857 -0.08820079236623783 -0.6091636325610449 -0.003564087418096566 -0.0006509282455130942 0.47178268379195737 -0.13306722768607596
82918000.0 0.7167259214862687 -0.6874962544586399 -0.10231546200644506 -0.6368581089186254 0.0018528209525309175 0.0009412486961411546 0.4733878628091494 -0.1527286128889604
83917000.0 0.7116479237227588 -0.6936916669941241 -0.12322420727069715 -0.6652976413790359 -9.665982873445081e-05 0.00492127880480247 0.4734650509392095 -0.158105078600062
84916000.0 0.703780664065938 -0.7028029154940291 -0.1398366514161799 -0.7020943435954387 -0.00011984957751983081 -0.0016973349814318674 0.4624782925092754 -0.1709592193322871
85915000.0 0.6978717184132708 -0.7081726888266086 -0.16045150970807767 -0.7342585482528607 -0.00257852053343067 0.005467811586062236 0.4751651699474527 -0.18187315115433714
86914000.0 0.6894359157196268 -0.7182384329349409 -0.17918586255058452 -0.7704389042266773 -0.0020364245458285345 -0.0033283400773879836 0.46237855967218877 -0.18126378914574232
87913000.0 0.6810536706114383 -0.7246523907244676 -0.19715774176291537 -0.8019398152224066 -0.004620182584409186 -0.004861361043115606 0.45484836245323573 -0.19364699451736883
88912000.0 0.6757706160843618 -0.7308581858459012 -0.21430629672740512 -0.834344904383664 0.00338445721689969 0.0008452068396999667 0.46269839431148363 -0.2074949211705549
89911000.0 0.6668980315458876 -0.7389234720167038 -0.22742976813017127 -0.8744236577502101 -0.0008801883122032546 -0.002762493710085289 0.4606971361329253 -0.20598758496307704
90910000.0 0.6604109372669019 -0.7440473937769368 -0.24847460539765523 -0.9081663976042493 0.004328145513704393 0.0024864971662965033 0.46408276268196497 -0.21980443905088684
91909000.0 0.6522803490376164 -0.748891193971037 -0.269618890698973 -0.9394218656957349 -0.00409611461617765 -0.0016708990977422375 0.46442153426922606 -0.23727973866518418
92908000.0 0.6442560788770463 -0.7577217480843303 -0.2921406261944723 -0.973548568894075 0.002116485703479678 0.0009023838129172821 0.45119468307596916 -0.24037979193138456
93907000.0 0.6370627319671557 -0.7625005801332506 -0.30954999911905734 -1.0032408850472512 -0.004666378593537952 -0.00018247593724862672 0.46219566225445785 -0.2543217481894993
94906000.0 0.6241940281094778 -0.770994918816891 -0.32611141980004665 -1.039677156181667 0.004334617216698056 0.0004495924869951598 0.4504943999192376 -0.25106998650258067
95905000.0 0.6169353452526934 -0.7788150699279899 -0.3602635127387929 -1.075447773056928 0.0019325156696678417 -0.0031042294957828514 0.453657827486869 -0.2828898699297912
96904000.0 0.6089736142805907 -0.7866016556161284 -0.3750524181039884 -1.1135943737512104 0.0007416800620135943 0.0006615478393022767 0.4462317869984242 -0.28401949474321825
97903000.0 0.5983198420931934 -0.7918447282842616 -0.3989692891056916 -1.1431928872204808 -0.003502361976420568 0.005272967072704268 0.44644075630439295 -0.28940927353898255
98902000.0 0.5952264556465923 -0.7996010860494097 -0.42421663472660315 -1.1905789531926205 0.002614618935765043 -0.005151511405552634 0.4564816956403956 -0.29890412416236284
99901000.0 0.5848270664893922 -0.804336204320937 -0.4560156144540351 -1.2205499905629054 -0.00077347038585878 -0.0026043749815069777 0.45890733759662444 -0.3313791388454888
100900000.0 0.5755608088524165 -0.8068248696322841 -0.4863241136286516 -1.249675212186073 0.0002800004176235644 0.0011998949755172865 0.4553048934160564 -0.3169218149645012
101899000.0 0.5647201019968867 -0.8164591236195636 -0.5181098974928756 -1.2860899927765248 9.821999189362747e-05 0.0034898475237868797 0.4485131886377174 -0.33138266795357196
102898000.0 0.556464794495225 -0.8205556761539018 -0.5630695358641128 -1.3261215236839243 -0.0016443894762345236 -0.0006560171185519092 0.4430636759812633 -0.3517873173751012
103897000.0 0.5483394575224221 -0.8293926332763125 -0.6002461041186515 -1.3632132944522588 0.002261565538449179 0.0021469756874494587 0.4566214444550975 -0.333490280231284
104896000.0 0.539359455417408 -0.8381717783735247 -0.6494793567147928 -1.3946951291685 -0.0004112624692166139 -0.0001862236907159067 0.4263042370540025 -0.34607929839099716
105895000.0 0.5261484441850978 -0.8407053222566163 -0.6986694150527484 -1.4370839126320532 -0.0008853758479719552 0.0023975389060934844 0.4280886216081027 -0.3663115379150303
106894000.0 0.5164715547803914 -0.8481332250175826 -0.7580639619912937 -1.4754936832935148 0.0009276235976194839 -0.000833751945657991 0.42846927959399106 -0.3772948584399293
107893000.0 0.511381926960672 -0.8530998541483815 -0.8086373847257209 -1.5160101172647056 0.0024927270846949504 0.002410629570989332 0.4199953702500978 -0.37984700835268304
108892000.0 0.4997025609529987 -0.857416089265308 -0.8712532627044944 -1.5512307625646076 -0.003857825539307517 -0.0027184428580837717 0.4208359790819738 -0.38054368029848623
109891000.0 0.48738126473348026 -0.863573273692391 -0.9347454025187595 -1.584338645514286 0.000823540755822035 -0.0015638309832347842 0.43262242370311454 -0.3849549603852934
110890000.0 0.47178532225074893 -0.8789659735153329 -1.0213098457865222 -1.5952342496948562 -0.0001551141319367567 -0.002909800540685651 0.428004519075041 -0.39528508323910083
111889000.0 0.4667212192633255 -0.8706136627858276 -1.0686867045673882 -1.6544212657847748 -0.002184246415333017 -0.0003235307487399403 0.4189370200880054 -0.41055952615154623
