! Created with skrf 1.9.0 (http://scikit-rf.org).
# Hz S RI R 50.0 
!freq ReS11 ImS11 ReS21 ImS21 ReS12 ImS12 ReS22 ImS22
1000000.0 0.9950474892694666 0.004542518919591153 -0.017695913458833555 -0.053702377825450835 -0.027752371844797268 -0.002427043950097276 0.31601226761061246 0.37711544255254076
1999000.0 0.9975172269409249 -0.01336740516807031 0.009626337894303335 -0.02961798373702706 -0.006155612917563078 0.003094542049177967 0.25725919013352966 -0.05918883348099059
2998000.0 0.9971336969463792 -0.025606369133603223 0.00468977311690575 -0.015579143532734657 -0.0008216727879972571 -0.004737833455322572 0.1875120302844011 -0.13128054737706513
3997000.0 0.9997848375621158 -0.029065869223776013 0.006337972541528652 -0.006631575892751952 -0.0052678615017675125 -0.0028062057623766167 0.09399509850683654 -0.21835152450143344
4996000.0 0.9969478223826816 -0.038456924437464644 0.011128473273569866 -0.007646043039706301 -0.0021906932010408915 -0.002428131381312225 -0.03232583804446045 -0.20779231867353354
5995000.0 0.9974084011434831 -0.04899347357965798 0.00507159269830634 0.006176487929340251 0.0019448267965991013 -0.0027418647588147156 -0.114324275578952 -0.12852331943405382
6994000.0 0.9971623749094453 -0.05646642754066212 0.0020716212730860816 0.005803896062706257 -0.0009074636783601804 5.177014482557637e-05 -0.14967271167235516 -0.036447822983053914
7993000.0 0.9957811298169154 -0.06780804636794574 -0.0012185650772655182 0.007683464641310513 0.003209211829085013 -0.0007419420603772418 -0.17693550975626626 0.040645642791450595
8992000.0 0.9964726733637408 -0.07193590322592422 0.005243641473088838 0.004875020161579101 -0.004268488592907458 -0.0008599729938892913 -0.157011686561852 0.057473727660233974
9991000.0 0.9954456833991736 -0.08296398040211259 0.008636811131174817 -2.589139937461309e-05 0.004483361668778494 0.0048248213283942154 -0.15482796165277843 0.09267954207750366
10990000.0 0.9946232743770848 -0.09143910435588533 0.0028112222267178033 0.0036820185828982167 -0.0012281585684166113 0.0007830859609397038 -0.13128294708627317 0.11548972020202841
11989000.0 0.9913780218982194 -0.09777538662758375 0.005114484003270415 -0.00023789683653219795 -0.0029813555359657824 0.0018510912438791827 -0.12666343272772645 0.14053420791618212
12988000.0 0.9884565054959779 -0.10964513938465323 -0.0010301300714104001 -0.0008483015717685567 -0.001885205811434407 0.0036773694936372576 -0.12201692940476422 0.16740622966793317
13987000.0 0.9916595169145629 -0.1145716632103061 -0.0011478910014983252 -0.004014548078473986 -0.004221881292293011 0.0027034432942057976 -0.0943430584450383 0.18531024819606196
14986000.0 0.9890323122058164 -0.12334071515041785 0.0003261679633908493 -0.0032486529915264064 -0.003551152832286584 0.001682548680348647 -0.0869394027821275 0.19718980872379535
15985000.0 0.9906083696246579 -0.13117617052870922 0.00029519937124328156 -0.0015148243228171943 -0.0013072882532283758 -0.0018715348405709956 -0.06394643263402026 0.21466152335626595
16984000.0 0.9871144795571498 -0.14160090006287865 -0.0051938601214902465 -0.007149614762691296 0.0006777538141009734 -0.0014704743312266906 -0.06917763524333646 0.22115229460970984
17983000.0 0.988700073562061 -0.14390413222480836 -0.0049322639273759105 -0.009640683197559516 -0.0009586270029433942 0.00238729748147749 -0.05642952796915941 0.2199152198994373
18982000.0 0.9821156646952387 -0.15896270403534765 -0.0039123606476635635 -0.004668448663690493 0.0016809835860871725 -0.0007761308641469617 -0.023265516884361504 0.24155258597620827
19981000.0 0.9849772818962804 -0.16301154930929077 -0.004164570295711629 -0.007653155479968792 -0.00010093312512320244 0.002580479840142221 -0.016204542952278963 0.24106617674190162
20980000.0 0.9819241184080341 -0.174076667838068 -0.004040224298815054 -0.002215234560506947 -0.0007026160877406168 -0.0005877151723897128 -0.006160014651664348 0.2563647163643113
21979000.0 0.9783044422331484 -0.18173247682208177 -0.0054038048675543226 -0.005147609871376834 -0.0019239574243178138 0.0005938889106233284 0.01401935274068071 0.23881622437466926
22978000.0 0.9775688518479939 -0.19265097633179795 -0.004899399431653068 -0.0010683937641893064 -0.0016444379393692756 -0.0035079189886972778 0.023509819297882754 0.2607437434124564
23977000.0 0.9799729041811928 -0.1959224817796025 -0.008892988989119046 -0.007480926505982222 0.006110874276491554 -0.0008804965534366495 0.03888622511233924 0.26303563786884937
24976000.0 0.9747402867355159 -0.20786970853581346 -0.0033951114389087623 -0.0031189423550124925 0.0024551298161358754 -0.0045349824439484465 0.06646874086665153 0.2570104856332557
25975000.0 0.9660275443305965 -0.22080473844462134 -0.0037246951867943375 -0.00010870342817917248 0.0017135008948295275 -0.028626939079236507 0.0770189420789709 0.2641260858439509
26974000.0 0.9719410302976754 -0.2250396823960012 -0.0038055188532358166 -0.004553123612001628 0.001416962818406413 -0.0003333417228052232 0.09357568174320655 0.27269587112872484
27973000.0 0.9721178071015929 -0.22964278914869077 -0.002784579889326467 -0.0038698566410215506 -0.0006522642462475142 0.0016573279502763365 0.10710201290771647 0.2546853033198329
28972000.0 0.9679306056036187 -0.23958335974314274 -0.0024660695119053163 -0.0016164649325151094 -0.0008538399952450958 0.000629988925992239 0.11461851828456876 0.2492752119229868
29971000.0 0.9660982965312853 -0.25135110718743386 0.0003064398750480357 -0.0022045069902997686 0.000971922305248103 -0.000844860675547284 0.14994569035038846 0.2615881020485172
30970000.0 0.9628548672139882 -0.2547740283512692 0.0024713517763297267 -0.0008340220419940376 -0.00429850657058194 0.0006696889054537908 0.16500510869402224 0.25063840453305214
31969000.0 0.9625681125157922 -0.263232133260332 0.004170863811886217 -0.004163902105621358 0.0018354217063677393 -0.0026001931564970586 0.14431333992787918 0.2471619057538204
32968000.0 0.9583868631207391 -0.2737885920625433 0.008955010138837788 -0.006643629539033044 0.000980575292920978 -0.00013369686339977438 0.16445952738075234 0.25095511673544246
33967000.0 0.9567610221397881 -0.2838917208708771 0.010464254090326357 -0.011452543192806046 -0.0011607876408661387 -0.00013831704658654492 0.17982669679143118 0.24587822677716437
34966000.0 0.9545618591432189 -0.29178444619623145 0.013490155522989714 -0.009498616515427397 -0.0014402932090269132 0.002707195480221359 0.18749761679636157 0.253055270171725
35965000.0 0.9520505644522613 -0.2979483037208483 0.013398596051024494 -0.015760722541542024 -0.00029837016944808995 0.002905435621799168 0.21156289079724316 0.2536590801006614
36964000.0 0.9503160337803158 -0.3059954585366418 0.016763909676895897 -0.01318391664395964 0.0023596273316892446 0.0020361968564078215 0.21853026018072846 0.24579634455040847
37963000.0 0.9469166471480825 -0.3143432667369129 0.0218859782232806 -0.02156041737768746 0.00216929890995187 0.0034922626349949155 0.2237426875830864 0.22992285211152322
38962000.0 0.944360499309765 -0.32341597015671886 0.024091929966407733 -0.023575174087664866 -0.0004333599394502505 0.0015657727583285117 0.24151152383461919 0.23667250971559872
39961000.0 0.942123114110946 -0.33324037471905105 0.02516256202599852 -0.02697312605071532 -0.0006737587560073327 0.00030545659048619587 0.25463122508885805 0.21601646475847
40960000.0 0.9388225359026809 -0.3400336902150424 0.026505040278038898 -0.021626674465565338 -0.0010013814279091426 0.0009355772974621855 0.2576268785878048 0.22705343700130262
41959000.0 0.9358290566922121 -0.34883660133014244 0.03103969099754569 -0.03135369006252504 -0.0028648209416198226 -0.0029316521544952285 0.2698281667638311 0.20848564177149023
42958000.0 0.9310934015142506 -0.35732599408750315 0.02965577525770188 -0.040434221836393454 -0.000265794648146381 -0.0032381617664836854 0.27573713380750575 0.19549010857744606
43957000.0 0.9290135072010524 -0.3635751966897635 0.030771172584704524 -0.044418753437847944 0.00023382952415338705 0.00034380079832251786 0.2852440632207078 0.2007224877121168
44956000.0 0.926029376535293 -0.3711362342087558 0.03379305145401984 -0.05026216802651839 -0.00043660311487085435 -0.002500258427420267 0.2967765435269846 0.19134419464717442
45955000.0 0.9223205447674138 -0.38049790249742654 0.03440382767392779 -0.057134203673479864 0.003469909337392177 -0.003988717418529243 0.29820098148352986 0.1896029829202575
46954000.0 0.918602824668152 -0.3880046792200995 0.033899710786108 -0.06235946627111423 -0.0008112770305536576 -0.0022949107866766932 0.3230695553478471 0.17244854911348007
47953000.0 0.9164659515551036 -0.3969882328863143 0.037102954033800976 -0.07105534023854683 -0.0017500585021173953 -0.0005318684252393807 0.3378214308245827 0.16275799698826374
48952000.0 0.9110497512917155 -0.40610928644923067 0.03506487137165579 -0.07636089793696269 0.0032414230170466616 0.0025524138012987074 0.3331513157239892 0.15507594473797298
49951000.0 0.9073199361824232 -0.4158663174325658 0.03708607705012704 -0.0849109377661797 -0.0014905267328371313 -0.0022864994919959782 0.35292591996397515 0.15019655778872504
50950000.0 0.902923970327643 -0.42282501641194964 0.03526407415825458 -0.09342849089652001 0.0023760719944024267 0.002534150058681702 0.3451937574352262 0.1376722431892145
51949000.0 0.9004839030467885 -0.43052518533370615 0.04021353703029418 -0.10067918967449609 0.003117378926983605 0.0006757313093963818 0.35759860815619343 0.14438088269141874
52948000.0 0.8968615953649882 -0.438456005273469 0.040544269166566005 -0.11050822110611973 0.0012827957214390485 0.0016436576632187347 0.3690370569274539 0.1380787948213741
53947000.0 0.8906658664081581 -0.4467446255674543 0.04163333153701894 -0.11920500938475138 -0.0015398804009127897 0.002941096999655854 0.36578164484683784 0.12197119408344653
54946000.0 0.8869794020567419 -0.4565339477597089 0.04176538987141284 -0.12965872550233126 -0.0013796584707233884 0.0012792605290405867 0.3818789373882166 0.12296775225743757
55945000.0 0.8852396576287817 -0.46511750801413354 0.043619328260720264 -0.1383092754085695 -0.0006795173751174777 -0.00018846909227099572 0.3948664381215507 0.09542698165974633
56944000.0 0.8804940742542935 -0.4718177257883331 0.04672506938818075 -0.1472109538278986 -0.0005315085373090403 -0.003237934896386369 0.3939323162434136 0.09796704305070741
57943000.0 0.8769764912853402 -0.4817762865447547 0.04636094840151109 -0.15853787101762917 0.0016755104856204417 0.0014934346288257654 0.3996331816556543 0.09335889567266097
58942000.0 0.869661185435032 -0.4854989155948083 0.04506687605279728 -0.1732365710366371 -0.0035878778732120194 -0.000855743014777567 0.41702745609000197 0.09157930907656735
59941000.0 0.8698075926666822 -0.49277822938456917 0.05026476122856082 -0.1814890092506865 -0.0009284406699924023 0.000787258111491434 0.4140729231231269 0.07977743115235723
60940000.0 0.8603573231461139 -0.5003129674282422 0.04905216268008676 -0.18307471964533034 8.629596283375681e-05 0.0005572091758429638 0.4155410035750528 0.07479537876899853
61939000.0 0.857399780069787 -0.5088916396093386 0.04969133593493851 -0.1904252579597599 -0.001936226767989038 -0.0017997592063169797 0.41009930078087853 0.06302271566724577
62938000.0 0.8527216986717807 -0.5191301679456829 0.053854268040572015 -0.20941161101788083 0.0027859782650728688 0.0027760798837644365 0.4449865788596347 0.05003649963664635
63937000.0 0.8464723124058078 -0.525907455554078 0.052557974241493964 -0.22700275773840384 0.00024687931617591643 -0.0014164830968071986 0.42429375355177984 0.030279057166866907
64936000.0 0.840958348311482 -0.5320477504521791 0.05213712305470212 -0.24335827467456053 -0.001382704662710068 0.002128498041887715 0.42745239842234756 0.04420846586597033
65935000.0 0.8391824107204718 -0.5412963386116492 0.05299519180387327 -0.2568580190590138 -0.0005133049718734903 0.0011492065879666526 0.43471736524312243 0.013994104055111495
66934000.0 0.8358481261608774 -0.5465476204040687 0.05412012790450912 -0.26935418636696473 -0.0003902047713617255 0.0007683450241861033 0.43358683666770165 0.0005807684011653757
67933000.0 0.831761541332738 -0.5549914046873049 0.05449042046741906 -0.28357666916078245 -9.71899541591309e-05 -0.0009471874519178061 0.44067990917791755 -0.0018486749937136962
68932000.0 0.8185513321001087 -0.5633260232566374 0.0493718101207941 -0.29548975073028544 -0.00048361017743653756 0.0010410873206915935 0.45449132631931627 -0.009692713250106386
69931000.0 0.8168388110910587 -0.571020239886771 0.04820956523314615 -0.31308337868280556 -0.0011652991147535212 -0.00416742918504378 0.4432374372971157 -0.021378688721375456
70930000.0 0.8107591873587238 -0.5786052905992322 0.04632598665901931 -0.3289948608140686 2.401864262950585e-05 -0.000533230793564712 0.4422276920843483 -0.03246804596508422
71929000.0 0.8085072590700049 -0.5875068349526735 0.045667038342825775 -0.34732380785486744 0.0006363433032384944 -0.002018370162540192 0.45098076088414296 -0.05119585168008707
72928000.0 0.8031339059016197 -0.5943665794374784 0.039886505718473894 -0.3591602212149616 0.0016731643732989488 0.0014497514518092872 0.4639028101249252 -0.05818201255721206
73927000.0 0.7956574374712394 -0.602455538931879 0.03438662355602049 -0.3817029941137174 0.0007125575374954617 -0.003616582060047636 0.45856613699130194 -0.05988542772298178
74926000.0 0.7903388427060405 -0.6100427930449442 0.025368387096682425 -0.39742129743983134 -0.0012436818917126783 -0.0014535589304964468 0.46083931938409695 -0.06654179609998749
75925000.0 0.7834245322908473 -0.6148587940127936 0.017441413528152223 -0.4149217353485846 -0.000940335122082175 -0.0026761348711675016 0.4625352726587027 -0.0838989610337309
76924000.0 0.7782532944806246 -0.6228241094523028 0.0052856196261683195 -0.44100846885991596 -0.0023390671480646363 0.0004722088670850739 0.4653228131097707 -0.09232485503703448
77923000.0 0.7736544163756635 -0.6313107486804193 -0.009594070965976425 -0.46266230100161587 0.00119551078680422 -0.0008686057630655895 0.45811835284048336 -0.09620407750569848
78922000.0 0.7669298320711546 -0.6395991116225151 -0.01835873153643269 -0.48941298884752044 -0.0012260583227743124 0.00034033360366681327 0.45831671244318417 -0.10882551134854196
79921000.0 0.7593806702305664 -0.6460732763001233 -0.03786114556470166 -0.5114370729683354 -0.00353380014633696 0.0013180584285034094 0.4577369527265544 -0.121983630658413
80920000.0 0.75533939539565 -0.6554767079457011 -0.053395351480707474 -0.5399451792622116 -0.003660177702104795 2.8895399977554123e-05 0.46312544480099943 -0.13783320930703324
81919000.0 0.7500660988656482 -0.6609670493734674 -0.06957864734645904 -0.5708431750975368 -0.0004905220388702097 0.0007124254439754468 0.47352888592472353 -0.1400380264495689
82918000.0 0.7393394999575598 -0.6675774527307715 -0.08062570139030123 -0.5990894731009067 0.0006807634773897918 0.0017271641511889249 0.47311028303674857 -0.15531020291625292
83917000.0 0.7327255568292358 -0.6751769777223497 -0.1015022924010089 -0.6246222887812602 -0.000629515600275786 0.0006050052295628666 0.4711699124310253 -0.15863268070842126
84916000.0 0.7286582454317134 -0.6832101448371334 -0.12282134108184989 -0.66153192018213 -0.002252022102654163 0.003989649249815969 0.4663423971892315 -0.1709546071002507
85915000.0 0.7192502703704251 -0.6886606105107729 -0.13850664013767336 -0.6883136816298026 0.0017878511988480687 -0.0021135417617065256 0.4663369830031743 -0.18676857255035476
86914000.0 0.7145102113700682 -0.6990763656145876 -0.15271215963549734 -0.7270964507267673 -0.0002068636200363885 9.517886275555454e-05 0.4586221894603801 -0.17605566763545927
87913000.0 0.7076342065483161 -0.7050775590576793 -0.17528684002661293 -0.7581183396234948 0.004391277749235337 7.160929807386257e-05 0.4565294988627504 -0.1868417852786843
88912000.0 0.700350969006923 -0.7114636853269912 -0.18841919773372662 -0.7900796903954554 0.00021603943617316647 0.003608575991183084 0.4581754685342723 -0.20769837419537027
89911000.0 0.6926998926445902 -0.721243686119451 -0.20616256275229378 -0.8250569303953555 -0.0007738677773598368 0.0018062964743751635 0.474690927657466 -0.2193269507030414
90910000.0 0.6845768566605357 -0.7247381889791515 -0.21862198956642276 -0.8643544692468588 0.00191610215282778 0.0014901135419922691 0.4638127837350714 -0.21925522990324287
91909000.0 0.6779960210626068 -0.7306111003381164 -0.24078359549238015 -0.8924681986052848 0.0011037323006626867 -0.0020083928461829504 0.46674942636406874 -0.23411979103401914
92908000.0 0.669654814337432 -0.7382232617810816 -0.2603695056999149 -0.9232626663261013 0.0009726069555215973 0.0012586471221398832 0.45508323746974133 -0.24064675073654967
93907000.0 0.6658326468050423 -0.7439136619545255 -0.2783571329117833 -0.9557659654649414 0.0010828149515960765 -0.0019623238789465884 0.4586156342562788 -0.2539312826134486
94906000.0 0.65143889529734 -0.7523191183332916 -0.29328563759903714 -0.9914308067576508 0.0025346567775310397 -0.0003341789066727072 0.45614719962023553 -0.25375893127260957
95905000.0 0.6460661666993184 -0.7583511368564358 -0.316276559706434 -1.027671482712867 -0.001439639060342363 -0.00215615564418169 0.4488123281526057 -0.26789030395898566
96904000.0 0.6377615321846163 -0.7675363700604231 -0.3322956498184442 -1.0648416136856869 0.0023174470467514025 0.003899681103565162 0.45729251099798834 -0.27991914827527375
97903000.0 0.6278632939213439 -0.77473150009422 -0.3606208018832776 -1.0961640858671946 0.0013673443759606532 -0.0014598712300846167 0.43225764353801976 -0.3065951191978735
98902000.0 0.6236204764904169 -0.7781754880191649 -0.3747460604461748 -1.1352478399257457 -0.0013958627141865303 -0.0010634997669265438 0.4522774756339728 -0.2955715030160404
99901000.0 0.6136745592676318 -0.7862155190103269 -0.4060792135685254 -1.1644083191804186 -0.00045787994145877613 -0.0013706637692660836 0.4549071599626906 -0.31778194567293955
100900000.0 0.605518889924464 -0.789005999592934 -0.43449807576856964 -1.1916525847130992 -0.0015215332543905787 0.0006784929886215587 0.4525235043765701 -0.3218600551043084
101899000.0 0.5968779405614362 -0.7970944105237088 -0.46030327315722364 -1.2325757160636204 0.0025652249718679985 0.0004623226362063914 0.4408396886010309 -0.3226368991205843
102898000.0 0.5856038255690236 -0.8019766383903739 -0.4903936398199751 -1.2639327853885731 -0.0018523418981098762 -0.0018638383961617224 0.44602349986707496 -0.3468375816810016
103897000.0 0.5775489445941506 -0.8090933524922712 -0.5293167478300128 -1.2985174116336133 -0.005982161015346722 0.0019924442352713093 0.45106897603492896 -0.34386503786195055
104896000.0 0.5710174077246302 -0.8205105730436649 -0.5697523819744343 -1.3342806416681832 -0.000518324652761361 -0.0007729036425873631 0.4300656166215432 -0.35399391424702753
105895000.0 0.5614225193999842 -0.8234127236177337 -0.6156982733452027 -1.3752374571846624 0.0014814426874471137 0.002440293797457485 0.4247631501086519 -0.3692546372461351
106894000.0 0.5538843583310511 -0.8310446960454051 -0.6714635550270885 -1.4159271757090417 0.00032670630589025563 -0.0016888837599513895 0.4211646455690453 -0.37621976251082356
107893000.0 0.5429215596621796 -0.8360386553138475 -0.7194247400944566 -1.450516073942314 0.0005799707993551758 0.001780984686019596 0.4352781556137519 -0.3779140120536554
108892000.0 0.5364603160099913 -0.8388650402850629 -0.7775818627796254 -1.4880043986417406 -0.0013110263782870543 -0.0011928989145923176 0.41853118998330785 -0.37429709556868895
109891000.0 0.5219673463768607 -0.8476609274930031 -0.8326976460060418 -1.5172914946970462 -0.00042045332625868076 -0.0013686038011342112 0.43550788493402465 -0.38260040772102216
110890000.0 0.5119251458791971 -0.8482456849737361 -0.8904042393952941 -1.523838582615261 0.001981601718291574 -0.001474633296200747 0.422222441838483 -0.3890746659652217
111889000.0 0.5050993224833363 -0.8542073383083727 -0.9550445545477504 -1.593251814914607 0.0020854737675506515 -0.0014221578974776643 0.42097990300197863 -0.40521976939735393
