! Created with skrf 1.9.0 (http://scikit-rf.org).
# Hz S RI R 50.0 
!freq ReS11 ImS11 ReS21 ImS21 ReS12 ImS12 ReS22 ImS22
1000000.0 0.9779899416644307 0.007872551038255557 0.02031702722389323 -0.04080706881121923 -0.006028650629720442 -0.0036106736665158924 0.367146767225858 0.2767549583089735
1999000.0 0.99281707925778 -0.012225219011983358 0.008053437265350908 -0.030041749536802234 -0.00547725900622481 -0.0071472026248896306 0.24222625195628283 -0.04375640622779006
2998000.0 1.0031557632247676 -0.02072397000900577 0.014059461772976905 -0.005967143688047163 5.3511641669303185e-05 -0.004607613485459593 0.19395900978856798 -0.12788579131333624
3997000.0 0.9967667879761016 -0.029537625250100213 0.009158665397599606 -0.007319230660719177 -0.0027946210895758547 -0.0020671085743612654 0.10477585148496953 -0.20829949674110979
4996000.0 0.9927944775879525 -0.037939044300357015 0.014306085895076334 -0.0032613147792106725 -0.0027194857977979933 0.00038490416544383126 -0.020486597269607432 -0.21661125911723267
5995000.0 0.9937685329626604 -0.05037486993265377 0.01042787937009383 0.005692517738678689 -0.0051939275360681205 0.002062624066807458 -0.1337548542021359 -0.123300600661008
6994000.0 0.993572592065303 -0.05793959548249296 0.003974636214853078 0.008436002516013045 -0.001997144243827541 -0.002209480554032219 -0.14373488865294617 -0.029696211768762096
7993000.0 0.9954201213475179 -0.06579577190627567 0.003635587088923047 0.0037208308880350965 0.006130886259666416 0.004031795555622027 -0.17011148658906555 0.029959408560052907
8992000.0 0.9928629274039749 -0.07354559047998345 -0.0006304635524794318 0.004158400682205962 0.002209087521618754 0.0019361416326881438 -0.15938726054590807 0.05823317854548916
9991000.0 0.9931701107016064 -0.08584380011514374 0.001599332843547784 0.006160884445252106 0.000358994675382568 -0.0035800783458219128 -0.1616809677858477 0.0932704552571267
10990000.0 0.9929814932043469 -0.0950158809813687 0.0036100445823216178 0.0015930321571614103 -0.0016557340535111478 0.0016297490471061926 -0.14747656139206106 0.11289355440402099
11989000.0 0.9895456821038545 -0.10291789173228051 0.007175772703172684 -0.0038783850581526583 0.002864294018184168 -0.0005715732997922431 -0.13816844073579995 0.13825421892527454
12988000.0 0.990568259990795 -0.10921282486415465 -0.0017618537963431991 -0.0034048106403016098 -0.001976039302724297 0.00387967009397563 -0.13629472441375715 0.1688794248035503
13987000.0 0.9869334107274451 -0.11938535748948456 -0.004296677614714813 -0.00478067666936477 -0.0030772650242502754 0.002832473157035376 -0.09513389719861902 0.1914812878954301
14986000.0 0.9860374712187497 -0.12574961159992992 -0.0016109922927506207 -0.003270576851856274 0.00303920094746411 5.611573154294712e-06 -0.10262053310898256 0.19567137939522022
15985000.0 0.9891817086886978 -0.1348193459326529 0.0020951891167117383 -0.00851567829557415 -0.0006208590759190814 0.0022287427669932893 -0.07104507417408151 0.2151848161400782
16984000.0 0.9858838343604527 -0.14587680979762135 -0.004290196290318149 -0.005968994786983851 -0.0033978427253185894 -0.002634066047425451 -0.0628578668618111 0.2135410439962136
17983000.0 0.9864434055949721 -0.14869189269826832 -0.0018384146502586644 -0.0047392171977041 0.0015075035904889519 0.003169642956732338 -0.05225739662474936 0.22456821461750465
18982000.0 0.9814047406282308 -0.16167020945874663 -0.0037477821243636074 -0.0042389023354166356 0.0003073184426455164 0.004169611760099366 -0.028094431315996572 0.241240711502082
19981000.0 0.9813532964458699 -0.16811896866155368 -0.007427381421276452 -0.0025176322116777453 -0.0031145428776236423 0.0035821434724259494 -0.02605531439458041 0.2430430050238837
20980000.0 0.9802184714087298 -0.17794601293407347 -0.0039599673539427414 -0.009552731803154935 0.0009395198426986268 0.0005886889297587883 -0.01853703863524387 0.26958481903778536
21979000.0 0.9785390620788749 -0.18850152887920057 -0.0025170083041518502 -0.004183126439605983 -0.0010170651754552037 0.0006603618654770091 0.00043436495025868095 0.24046552827495857
22978000.0 0.9752388437441284 -0.19737030403182618 -0.007756658810817341 -0.004007614627851549 -0.0029262308263310072 -0.0016235645841881842 0.021747302866393564 0.26176859629727806
23977000.0 0.977158807640468 -0.20313469294942876 -0.008783809110486455 -0.003246197709126042 0.0001548490226737702 -0.0037546745372321194 0.025578461360500026 0.25540912065826743
24976000.0 0.9737472338351932 -0.21369393478362803 -0.008233793627424628 -0.0018617136322167268 0.001504520096403323 -0.0012836143009559123 0.056906890056010004 0.25338583113474045
25975000.0 0.9662215641681751 -0.22448887681443205 -0.005470715372591919 0.00025317571073754766 0.0033449105273252806 -0.025223304025941737 0.06587874685712808 0.2550984429622894
26974000.0 0.9697916459917534 -0.22944259301534609 -0.00534414416643217 -0.0027406394378117326 -0.0015635634957369387 0.005284066098148176 0.09186595719902896 0.25891144128320437
27973000.0 0.9675803410027844 -0.2399148389365181 -0.0023886117572127223 -6.021809421594845e-06 -0.0022628559787515224 0.001951981665981648 0.09401305887253987 0.264620982339701
28972000.0 0.9639429327969475 -0.24760346091244212 0.0021111775583276017 -0.00012776237637859058 0.00045347281352813056 0.002091867379331654 0.10862197809138438 0.25065363699039916
29971000.0 0.9637015432425416 -0.25476983746500254 0.00176985196368035 -0.0005489495483428405 -0.0005531037234766799 0.00030493956694602995 0.136742174682397 0.2763864102160756
30970000.0 0.9592067375531355 -0.26142208658541144 0.0019754064897050455 -0.0016333571060338243 -0.0015399623056283637 -0.002866806210008583 0.16382952472229156 0.2528994411209089
31969000.0 0.959212164946143 -0.26979276464044255 0.003232318673212976 -0.007412858226439967 -0.0011615177326631037 -0.0021222590568564345 0.13974652116741765 0.25702874652770746
32968000.0 0.9558388526782031 -0.281906875793792 0.009316178731299569 -0.007164231015885903 -0.0017414921828271895 -1.5315967616875102e-05 0.15953311653693372 0.25464419943523775
33967000.0 0.9547429936087348 -0.29129832762999436 0.013211099577616943 -0.008239800651101303 0.0010323774409990367 0.002085018608529977 0.17906805030429418 0.24028482158101197
34966000.0 0.9515915095302718 -0.29721211734197295 0.017448665304471627 -0.011387483815686767 -0.0008820954086991878 0.003457530921691347 0.19057573004524295 0.252307535618187
35965000.0 0.9487820442987763 -0.30632002592262064 0.019101350001228486 -0.014836573810033385 -4.284294694487287e-05 -0.0014106487767765153 0.19827951651588896 0.2553762094307638
36964000.0 0.945256336819345 -0.3155219058383635 0.019446371681369163 -0.016960562628640697 -0.004890193031041144 0.001423709751760041 0.20787611897474614 0.24973250914527964
37963000.0 0.9437956797487449 -0.3231067455386912 0.020939827590835763 -0.02168875739423708 0.0007340723092345748 0.0010824333878996983 0.2148024535644549 0.24055248378615882
38962000.0 0.9401592449029654 -0.335053558471606 0.023273325785995117 -0.022371560811640635 0.0009438711309908781 0.002021835077864167 0.23574861097699548 0.23184887790847133
39961000.0 0.9375745416539263 -0.34047812519959375 0.02774491162858005 -0.026737411995222792 -0.0018996520713999853 -0.0013244255394040637 0.23994510737981145 0.2405494169905443
40960000.0 0.9333822557031416 -0.34818134863819894 0.02433441815655896 -0.024517348474737913 -0.001728769216344713 -0.0017208819422374348 0.2591232540632233 0.22136178411976679
41959000.0 0.9314450623945814 -0.3588941521712975 0.03269384828455909 -0.02918809726714356 -0.0009318851375520301 0.0024281468343439684 0.26645333284547107 0.21841102548987906
42958000.0 0.926449107777913 -0.367532930609638 0.03189599037026495 -0.0413055429639893 -0.002429646160969926 -0.0018726164360285055 0.27728224074613894 0.1954694206283946
43957000.0 0.9247477966564912 -0.37217585452036606 0.033965611395219225 -0.04867769312979975 0.0007108502089089153 -0.0016488823606279955 0.2881183634232684 0.20911894430753378
44956000.0 0.9203123003379605 -0.38189007213156445 0.039188486242828544 -0.05146124890979267 -0.0012157441793103345 0.0002837168949376145 0.2986722673598424 0.19759338262232062
45955000.0 0.9160937754000084 -0.39187584963015926 0.03624430822918193 -0.05965770657532902 -0.0007150348838836087 0.0010145851012337776 0.2991690492201001 0.19780839648190185
46954000.0 0.9129279777627763 -0.40025649116281403 0.03804593227909036 -0.06636393582952167 -0.00234299944264945 0.0005534812938350904 0.3165463309397176 0.175317026214235
47953000.0 0.9096764461394208 -0.40963539479780475 0.03734008274991683 -0.07432813535081693 0.0007215726088271146 -0.004472236290735478 0.3310256635048375 0.16364717842413942
48952000.0 0.9055378799974413 -0.417053156802271 0.039970579195797704 -0.08196677123073998 0.005288615790409762 0.006540894809842804 0.3324459788815548 0.16980630186622886
49951000.0 0.9019284818219576 -0.42483274306877344 0.04220904946909748 -0.0888107942289409 0.0017816831051462206 -0.0021184687516544874 0.3501693438224583 0.1558433886212341
50950000.0 0.8968062435853181 -0.4323499618554292 0.0406381014932411 -0.10157484458282492 -0.0009857357294075747 0.002875619276647261 0.3495256331923534 0.1451595449479104
51949000.0 0.8944025641806961 -0.442658862624477 0.043074726186570586 -0.10734467093732213 0.0013126710490823231 -0.0004741523988783703 0.35542241686838144 0.15471580970747126
52948000.0 0.8906862573767853 -0.45175237542279184 0.04231011238450648 -0.11779938054548687 -0.0007220256666434443 0.0029281603421575275 0.3639606945048128 0.13615668318365562
53947000.0 0.8854281171749933 -0.4567657977967991 0.04624975422809935 -0.12224565682199269 -0.0005275502216095741 0.0011468476042197976 0.3644544926763665 0.1251627943959879
54946000.0 0.8803507025584982 -0.4691829463000106 0.044916628379566476 -0.13307779425152766 -0.0007369711120135275 -0.0007352645351263345 0.3742530001264073 0.13256088742303812
55945000.0 0.8774822021068118 -0.4753340300418014 0.04954079580480767 -0.14649274176718227 0.0009900095113729817 -0.0017157674962170806 0.37787021405018845 0.10853592893099846
56944000.0 0.874277543891396 -0.48319068151116923 0.05030112938549236 -0.15679938398996968 -0.0009012107108562232 0.002991849044900832 0.3934003087577134 0.11296304175519413
57943000.0 0.866073674246837 -0.49429965235329054 0.05173638601004503 -0.16767254615058366 0.0010528078547740907 0.0024614246450838134 0.3930615375125892 0.09405066728566813
58942000.0 0.8592366214616908 -0.49921143260055556 0.05155785049797527 -0.17795977741340435 -0.00155246836844537 0.0013856714694243258 0.4088168089652087 0.09134442788760577
59941000.0 0.8589590577013263 -0.5077487287338587 0.054541007885459084 -0.1901569565776606 0.0017195231293651212 0.0023832351824522864 0.4157337638004687 0.09246932451092128
60940000.0 0.8514395767203831 -0.5145845222062309 0.05520957831642598 -0.19428420300673555 0.0036752268078180843 0.002710763436523979 0.41229270427667525 0.07361741914462909
61939000.0 0.8479843367709922 -0.5214684110557999 0.05579331651739803 -0.20020836555568663 0.0006991009438297437 -1.938341459001003e-06 0.4189009552815238 0.06734779154446553
62938000.0 0.841305971060741 -0.5333034187791633 0.055528142698784026 -0.217553161611854 -0.0036085703662290724 -0.0020238872495456305 0.4331355798577702 0.05378736081723318
63937000.0 0.8381487582886342 -0.5397459532893418 0.05678882392234142 -0.23994664382026126 -0.0012621967238905462 0.0022103777686630793 0.43479520280922956 0.049077241359829785
64936000.0 0.8295691252279543 -0.5480869333367896 0.05899283634794976 -0.2551644392088835 -0.00281814425441786 -0.0007906378152938328 0.42879585231833506 0.04071610473796082
65935000.0 0.8275914417064024 -0.5554326633088104 0.0606695156690673 -0.26709252938538136 0.0018674917144640652 0.00015960489162249162 0.433758400141744 0.025204986985062645
66934000.0 0.8223898051286505 -0.5639516710122068 0.05492853370506006 -0.28316517320267703 0.0006300952531028125 -0.0002546056349480559 0.4336572746920916 0.008133719040990885
67933000.0 0.8191757767435855 -0.5692444176472382 0.05782514242296517 -0.2978398359303265 -0.00030316919160838253 -0.0004932302852314727 0.4387779696862499 0.0160686312787468
68932000.0 0.8046424298481939 -0.5637477231288782 0.05402768818358582 -0.3059932829119411 -0.0012368187306512827 -0.001969855807644344 0.44870552694786636 -0.0055265118517531155
69931000.0 0.8046286122924343 -0.586756102294941 0.05171268631995177 -0.32797299377489036 -0.0004163795402633143 -0.002049029245950167 0.4523898995047034 -0.014120546335548621
70930000.0 0.7981941782309803 -0.5954387973546651 0.044986608004532094 -0.34175419775857413 -0.0012310741653429812 -0.0020422384558677477 0.4394320203553957 -0.022079029931931272
71929000.0 0.7941978873608515 -0.6026285763051402 0.043534768408202466 -0.3648946574847242 0.003061615530230233 -0.0026630817272575483 0.43475762662548223 -0.039312193853660186
72928000.0 0.7886932305541469 -0.6100557078890937 0.03852448948837388 -0.38013346935293896 0.0016926513457244479 0.0033977997089759742 0.4514114490045867 -0.04439764897006884
73927000.0 0.7813091902830188 -0.6179783184904577 0.03249958564748648 -0.40402182521157454 -0.0022787200888284035 -0.0004710331282679298 0.45143255215825145 -0.059807495612570136
74926000.0 0.7776816683065783 -0.6255339771498404 0.024889712550736198 -0.4226404670077769 0.0018850673348303677 -5.8220972952495346e-05 0.4514107671296153 -0.05546571378304101
75925000.0 0.7716540280799442 -0.631100599188431 0.0184587657926849 -0.4424518163103196 0.003697196338997391 -0.0017448181246778377 0.4668980089399786 -0.06696591779535092
76924000.0 0.7647509622173445 -0.6395768994168298 0.0009953023475554035 -0.4685670114862195 -0.0032651345126519927 0.0010171487230434062 0.4608074762526753 -0.08690087589685186
77923000.0 0.7573717708859252 -0.6476567932193081 -0.009477791874340355 -0.49104566844890984 -0.0031987922274435746 -0.0013987429772644338 0.45714650737086737 -0.07774709494005244
78922000.0 0.7514400240261437 -0.6562818726108381 -0.028287688892179422 -0.522792374777243 -0.0013590757603892905 0.00205039226286637 0.45882829854761337 -0.09698173645023173
79921000.0 0.7440349130972044 -0.6598654603572122 -0.04297859682191059 -0.5486080322569654 0.002585806497982439 -0.001481380951137077 0.4587238475794708 -0.1002023639585733
80920000.0 0.737319124204766 -0.6707681667923105 -0.05919893418107206 -0.5756801145634832 -0.0006780040801001784 -0.004425288865256991 0.4576228366534254 -0.12069220713564034
81919000.0 0.7325798755630114 -0.6750096567495038 -0.07838196343626104 -0.6062875658991175 -0.0011097759494606877 -0.0019235505542612153 0.4643259083169844 -0.12147072629488727
82918000.0 0.7231970696693559 -0.6846338851266833 -0.09035787999690194 -0.640696070419872 -0.001189630400019948 0.0005416364588442863 0.4735251530476361 -0.13458507871310546
83917000.0 0.7151933559833865 -0.6916432060876628 -0.1107473041302038 -0.6661669100502458 -0.000570216523389086 -0.0012264176206313508 0.4680888345764204 -0.14570876613947603
84916000.0 0.7106654365432132 -0.6989496237926193 -0.12673469575728785 -0.7028372452796648 0.0013887158719952893 -0.002847260448091878 0.4637956965901595 -0.15819025619945326
85915000.0 0.7032917662910735 -0.7059707801086262 -0.14831667327568987 -0.7325597855386494 9.48663365923047e-05 4.3917825831950634e-05 0.4600608406146193 -0.16913704447272881
86914000.0 0.6956897422498673 -0.7158944317127444 -0.1602724689280953 -0.7743033335093507 0.0007556504472465798 0.0007259445399512583 0.45841811232190605 -0.16727105550339644
87913000.0 0.6889202074285138 -0.7214176976160576 -0.18367795356718525 -0.8023636633063408 0.002730754680776078 -0.0039051740030912247 0.4544708908376273 -0.18626290370133672
88912000.0 0.6800836717615675 -0.7285753324285037 -0.19776820625076913 -0.8370465097187572 0.001908696102437366 -0.0011716579118242697 0.4638828901787077 -0.20066287173129224
89911000.0 0.6725450647249036 -0.7358344831408591 -0.2132579711285354 -0.8758913572236804 -0.001676673054372087 -0.002822063030983287 0.4678764944539763 -0.19930113776759603
90910000.0 0.6661693621336457 -0.7414690235447814 -0.23107928486718612 -0.9104979594503603 0.005416783493580301 0.00041993076298479205 0.45753349542404986 -0.20798120436724793
91909000.0 0.657649589951255 -0.7463173305303489 -0.25575649346604495 -0.9400002504781331 -0.0004740463979861687 -0.0007191465428918775 0.4546049946574961 -0.21360784866773494
92908000.0 0.6469425057380892 -0.7543026365447244 -0.2686258627043426 -0.9752620151299588 -0.00021608177938888676 -0.002302931165401418 0.4518206160037064 -0.23146861642138727
93907000.0 0.6436063235643377 -0.7612121139872886 -0.2914416848320642 -1.0069856031519258 0.002699264938125861 0.0006916261723976263 0.45642788093550535 -0.2477514254686017
94906000.0 0.6307434852788874 -0.7694602032777537 -0.3140774480861424 -1.0425824406408812 -0.0005459012333030701 -0.00360190871601741 0.4570094479016315 -0.24777343151485393
95905000.0 0.623267747332008 -0.7735716918273859 -0.33622809625986483 -1.0797803716633614 -0.0018181232864433116 0.0008050527448164945 0.46363612049101366 -0.26452507911357337
96904000.0 0.6148473917268227 -0.7845810983880016 -0.35441165936855257 -1.1216689993664035 0.0026065818533397853 -0.0004775856249969528 0.4419707397804422 -0.2725038060705366
97903000.0 0.6061101885752203 -0.7886327566639056 -0.3793681821494365 -1.154209816106947 0.0027943558378320217 0.004227513397894098 0.4447422581032465 -0.2815623372030166
98902000.0 0.6000461216050963 -0.7950456680610756 -0.4010043235919074 -1.1935857601012996 0.0031591113228778985 -0.003838107765053589 0.4386735568954808 -0.28534652686631273
99901000.0 0.5914128288556828 -0.8017705652086007 -0.4365442944609754 -1.2278859872046626 -5.276652597420757e-06 -0.0005816737302505728 0.4648116892733056 -0.3140181082229113
100900000.0 0.5823236298545871 -0.8041708181835362 -0.46978100476862245 -1.2551752894805506 0.0013834253365118004 0.001464597042977082 0.463881076449818 -0.30661694831949216
101899000.0 0.5738378029394897 -0.8121042997974949 -0.49641583559526875 -1.300513154787083 -0.0013477778165856785 -0.00036715669028432665 0.4344984816400088 -0.3156515806494986
102898000.0 0.5619060975036845 -0.8191130069020879 -0.539002398162381 -1.338760728874358 -0.000540539848956855 0.0019803987908849825 0.44550571934972544 -0.31517442236273496
103897000.0 0.5535436317432343 -0.8261778044038165 -0.5824700806100143 -1.372580236814651 0.0021792380509315424 0.0005955649878527875 0.44681240121416216 -0.32133028012036874
104896000.0 0.544374597936375 -0.835650198211315 -0.6314513804940082 -1.4110331815121184 -0.001273143689239086 -0.0006324670149119949 0.44207699758761304 -0.323440901558417
105895000.0 0.5353585102501258 -0.8394599644454558 -0.6784823185354822 -1.4527376294495564 -0.0011379596896254618 0.00019192373592790074 0.4303707142560688 -0.34910130031800396
106894000.0 0.5255556200664291 -0.8450774393773575 -0.7386850825739708 -1.4890194003365724 0.004950090676443035 -0.00040566623114543065 0.4361186080512884 -0.36660969236015395
107893000.0 0.5188337537601956 -0.850593609477584 -0.7896881765179471 -1.5313827399849327 0.0011372027072095248 -0.0023995897119172952 0.4384051634230644 -0.3756963216229249
108892000.0 0.5074137957327484 -0.8556694458639298 -0.8556110883146707 -1.5724707526860346 0.00038387139587399703 -0.0017212180586464777 0.4243267406512607 -0.3730466168956338
109891000.0 0.4945939213399488 -0.863139457282873 -0.9206157942118391 -1.605523259485114 0.0022372611264101848 -0.0004901080783356172 0.4383821097472203 -0.3663434017006122
110890000.0 0.4760585827109113 -0.8766618934300033 -1.0032242935119016 -1.6158504884139329 0.0011238144214763173 0.00036680717902169024 0.42710027575039 -0.38067607666747444
111889000.0 0.4753018464953447 -0.8684502843387846 -1.0455983169682372 -1.682129041914796 -0.0005868365270441699 -0.005128823274263478 0.42449732251221695 -0.38864496501171714
