! Created with skrf 1.9.0 (http://scikit-rf.org).
# Hz S RI R 50.0 
!freq ReS11 ImS11 ReS21 ImS21 ReS12 ImS12 ReS22 ImS22
1000000.0 0.9759804055479877 0.0011133329565851252 0.005366238928170803 -0.030877304965004383 -0.01905690829894173 0.009648421708348256 0.352490341817311 0.2935975780733133
1999000.0 0.9946741571780271 -0.012742048978929842 0.007332361597639364 -0.027566731329047037 -0.004750187759383252 0.0005010774278547438 0.2573906285014942 -0.07578793889198869
2998000.0 1.0022335434440344 -0.0196704163785389 0.0103708952709938 -0.015199440920246983 -0.0028240987397018793 -0.002220666299405261 0.1911899315515407 -0.15301849638954496
3997000.0 0.9985057969442628 -0.029056127156118567 0.010446234624802873 -0.0064584467989191935 -0.0024444091130921193 -0.0014762722221637167 0.08657148722647381 -0.22471409542190823
4996000.0 0.996829948429211 -0.03613870541824036 0.014924095297258196 -0.002708916862577331 0.0016568414962121734 -0.002421180810561121 -0.047551216229906636 -0.1957261152412132
5995000.0 0.9980819249507986 -0.0500726456887208 0.010143210872073462 0.006896826857842 -0.0002618088856046262 0.0032018326584727164 -0.12065861313625696 -0.10628144737457745
6994000.0 0.9962374361385858 -0.058324475042789314 0.010136844643728308 0.003734264885866659 -0.0019890887263568466 0.0009747545183999396 -0.1268719155688077 -0.018364054996142194
7993000.0 0.9967385859971329 -0.06596377985982844 0.0036777163507250685 0.005718011805139045 -0.0014259075193113033 -0.0004506581392313753 -0.1565227113886074 0.032422180379467244
8992000.0 0.9967091649104882 -0.0733037306669112 0.0037980910393005623 0.00862972280880358 0.0031882493090654262 -0.0026513332517327645 -0.14412004846791407 0.05313216347840633
9991000.0 0.995773119417622 -0.08313119778704221 0.003278809988987264 0.007485319798025823 -0.0033024382048610287 -0.00027750237930199454 -0.13962164117286924 0.09524545760656804
10990000.0 0.9960717245009909 -0.09222756947150944 0.0035358202504595015 0.0007672670292515555 0.00013902525569426546 0.0010359470265994028 -0.13790383565507286 0.11599757309365853
11989000.0 0.9926835423258691 -0.10007016426670033 0.008219975945579728 -1.3850681325991594e-05 0.0035982264660947313 0.000698920851502101 -0.10767657319353684 0.13842333344597976
12988000.0 0.9922593890963338 -0.1088909899815884 0.004043608917510009 -0.00258386591262657 0.0033032261430223165 0.0007601906743297432 -0.09324790021498539 0.15443845248417293
13987000.0 0.99074532596453 -0.11489658613482504 -0.0003404671427241794 -0.007259789243211558 -0.003781663021634755 -0.001281281452960392 -0.10196625550428481 0.1831389351288385
14986000.0 0.9886934239153962 -0.12546521761608267 -0.0009385499044107879 -0.0025287400730117557 0.003734475414470819 -0.0015178888769317098 -0.07783290183227956 0.2033631282311932
15985000.0 0.9899083568390783 -0.1332349000155591 -0.0012366800107438917 -0.005073165540244718 0.0032283992118606855 0.0016578605016277167 -0.05896721254815324 0.21270316645659254
16984000.0 0.9879181278090375 -0.14101820418402095 -0.0013899485300578728 -0.005964168030076782 -0.001314965510952424 0.0024740693426833515 -0.05628355486880378 0.2116314372373357
17983000.0 0.9891317047970359 -0.14837804141890182 -0.004472721334562311 -0.00782141698796012 -0.0012868482584020295 -0.000526408625567309 -0.0396898656858438 0.21587268790444444
18982000.0 0.9837585260566564 -0.16277262051043745 -0.0002581477874003119 -0.002514223747189045 0.0005650537305895639 -0.0012503329224101943 -0.021483584619051612 0.23824514732343668
19981000.0 0.9826784987630287 -0.16744734552939347 -0.003287287014076331 -0.0026879686246467087 -0.0025049320563346384 0.0018966320683904718 -0.00822799819317742 0.23570923190285858
20980000.0 0.9839555367568275 -0.17564759033526045 -0.006774367346330908 -0.004802219445700659 -0.0013440401532375014 -0.0005851868269922983 -0.007772714857444175 0.2554486018688591
21979000.0 0.9810032558627338 -0.18644774245540122 -0.007731088903585269 -6.375670138330166e-06 0.0014943495202023396 -0.00310091094196061 0.022963430642876894 0.24088511260737924
22978000.0 0.9782790895998534 -0.19255404679123678 -0.008497111007241409 -0.0067320174129020865 -0.0039010748161467336 0.0007862310654824874 0.02701649284483224 0.25529938602199015
23977000.0 0.9783202601556716 -0.202904716502448 -0.008565141361823988 -0.0030441872392597564 -0.0007041160835166239 -0.0038832719991694128 0.04552422753312065 0.2497246234934646
24976000.0 0.9756221850295851 -0.2098283775734301 -0.002130086440940319 -0.0037334695395331943 -0.00025428717908626287 -0.0016465545565672432 0.07591403761318243 0.2502030927652061
25975000.0 0.9692288657713667 -0.22254528606903876 -0.00797990015842359 0.0038077124325231228 0.0015406746075835474 -0.02430508031299521 0.07960601678853574 0.2580602501317732
26974000.0 0.9728370604142126 -0.22650946946570155 -0.0010765541357570794 0.0002926587202003861 0.0024441701830961856 -0.001600315929328818 0.09526802819276813 0.2528186714905803
27973000.0 0.9711951733763462 -0.2328146895268611 -0.0015160034367762195 0.0009424798209021196 -0.003417475932377445 -0.00104174985923777 0.10002493496890114 0.24665146781940522
28972000.0 0.9678643560398612 -0.2431780919995565 -0.0013006039964303983 -0.004775820049946321 0.002551340038661921 -0.0022070122141756685 0.11485615039440882 0.25547168252974134
29971000.0 0.9660431698473834 -0.25154257793904355 0.0006217701745048589 -0.004027809559909232 0.0008068872925104955 0.0008004174600257557 0.15262464553304878 0.2635600942212444
30970000.0 0.9627198547173399 -0.25731347723355624 -0.0006980270833991666 -0.0005319189060808544 0.001936821272391552 -0.0015770520976846544 0.16372177330742677 0.2471594019050693
31969000.0 0.9621732643049471 -0.2667662045514059 0.005351130280998498 -0.0066303717727953185 -0.0005038373887140399 0.001039581288617113 0.14524154316409738 0.2526143454602522
32968000.0 0.9591055241268046 -0.27568814789440527 0.008920504213607947 -0.006890289133665064 0.0006842694246848486 -0.0006874975005056136 0.16872424918624454 0.2444199370193398
33967000.0 0.957366336691996 -0.28503367502621146 0.01228960461062855 -0.011088140506163219 -0.001448121727592738 0.0018557979172781245 0.19084267006420144 0.2440398737496935
34966000.0 0.953695601349082 -0.2948086059860073 0.011747945765792552 -0.011073799724304067 0.0001379133500586748 0.0034438628246606443 0.19565741556515495 0.2511393667157028
35965000.0 0.950840925692597 -0.3004905781102717 0.017265349719054322 -0.016386353176004443 -0.005225474775046005 0.003396388100815027 0.21956860976808557 0.2546955919239871
36964000.0 0.9496521056267162 -0.3109598397072267 0.016724403246426694 -0.014192928622060785 -0.0013502453308728312 -0.0002640742558090782 0.21537811382728367 0.25465314839640535
37963000.0 0.9469561565446267 -0.31896340742823226 0.01872173212594126 -0.019526032675751082 0.0005455969607854036 -0.001878545425984086 0.22298572536489325 0.24051931421923767
38962000.0 0.9414453416814216 -0.3299944018848674 0.021769966226946966 -0.022391391505165295 -0.0022660192872894043 0.0023683063591588864 0.23999383495843055 0.22679749647636235
39961000.0 0.9394362417085568 -0.33772348543520336 0.023794287995917453 -0.025300787739067306 -0.0021619257802597287 -0.0025897463401554147 0.2513519320855223 0.22980364958345412
40960000.0 0.9372667272898842 -0.3427876808759466 0.023203516419491307 -0.026670184970307147 0.0006695574928897504 0.0011265899873140147 0.26928479254562243 0.2259245702456045
41959000.0 0.9347650589217719 -0.3530223274015067 0.03082933241647149 -0.034112311870125436 -0.002342693830318125 -0.0001010654952030272 0.2661972367574374 0.20326054241466746
42958000.0 0.9293891734292935 -0.36090178541732704 0.033157884315532196 -0.0399220916897873 0.0005060382762285667 0.0012645018650095463 0.2885553885203709 0.20153916396784471
43957000.0 0.9280680089807308 -0.36801073083069497 0.0335057791450294 -0.0459618936130194 -0.0015919013810024199 -0.00281351966447057 0.28812468849621814 0.21974473581853396
44956000.0 0.9247004353003601 -0.37659215623844927 0.0331606630338985 -0.054108574315003335 0.0014363893871164083 -0.002625251359542425 0.30996148256561196 0.19890945284155756
45955000.0 0.9204264079613027 -0.38438706882965457 0.03290265354707322 -0.05894206158848934 -0.004758519706171564 -0.0028656969112201823 0.30958718854166567 0.18110142436730625
46954000.0 0.9178316959037861 -0.3942395297739434 0.03522484787675223 -0.06409498323761123 0.0006703731056159615 -0.00010526531206817832 0.3269326609557417 0.18035246004809044
47953000.0 0.9121133033050514 -0.4034725254623258 0.03376241351799726 -0.07217241668726188 0.00021573381154816424 0.005384448473167043 0.3394270543251437 0.16701199171962466
48952000.0 0.9096298927811088 -0.4113200548004297 0.0354497234617378 -0.07926233413284217 -0.0010773219281886353 0.00027625457702076334 0.3342715019105166 0.16050572409882302
49951000.0 0.9051994938166856 -0.4186731241900012 0.03631820003855242 -0.08831653038055612 -0.00018554073449040967 -0.0006652298726836906 0.356477691858574 0.14729674858659847
50950000.0 0.9031152341055809 -0.42697262333248215 0.038621982001371825 -0.09588672708678565 0.004911516936186365 -0.0028159177498028073 0.35560094134740217 0.13902678112450645
51949000.0 0.896618829139201 -0.4349236019452707 0.03752135142688745 -0.10527195569148515 0.003487903452613959 0.00020373768146227415 0.3608453927864772 0.14126543833072902
52948000.0 0.8969610342815728 -0.4420982279330367 0.04137528063512197 -0.11374348398556684 0.00029971505368079563 0.0003302330680127564 0.37344561874609883 0.14373717680664044
53947000.0 0.8890277843465334 -0.45278431489385046 0.04113847301179722 -0.12019543387960972 0.0019191088113087779 -0.002193557697111478 0.384907750376138 0.1318809719458446
54946000.0 0.8838747752038243 -0.45877176546992193 0.03890031790300444 -0.13021545695091344 -0.00032581714553102186 -0.0019711244232868755 0.3883829751420149 0.12456781534905795
55945000.0 0.8814365890031416 -0.46780786747499986 0.045282267785231846 -0.14225754168983995 0.0009186231927027158 0.0015588669376417825 0.3883888992293819 0.0953536496037199
56944000.0 0.8782244312215418 -0.4759607353832871 0.044552527178437405 -0.1522665718155321 0.0021796466651662037 -0.0006380287439221267 0.4006895846735531 0.09903399134047643
57943000.0 0.8737188999952807 -0.4860373216287372 0.04617001558221727 -0.16349101822102585 0.0028068527965189917 0.0026546808940385875 0.405623934476861 0.09304826812204073
58942000.0 0.8694308329542121 -0.49023646366681556 0.04716520339507381 -0.17227558547240907 0.002346242579066957 -8.327121785008808e-05 0.4238740595847378 0.0907280676150117
59941000.0 0.8651288850122077 -0.4981311780751474 0.04855269479163121 -0.18107361724842938 0.002048637175099196 -0.0001405861349016597 0.4206265615731966 0.08660772301330774
60940000.0 0.8577518201524493 -0.5066107536384914 0.048501822469085756 -0.1883687977343044 0.0032438222725019793 0.0011009982779137746 0.40862579129212795 0.08109735539320817
61939000.0 0.8545969874528302 -0.5135550567627071 0.049461753200000076 -0.19521366761306003 -0.0008753614348982983 0.0014924519611554646 0.4248617844970973 0.07265001434020582
62938000.0 0.84973183981449 -0.5250870725960429 0.05264655074041622 -0.21320670484714305 -0.0008929715415791124 0.0018081247834775738 0.4439679059567682 0.052925619529791246
63937000.0 0.8440921111234395 -0.5311268699709845 0.0536807911857181 -0.2310243006350746 -0.0012110992063507707 -0.0007583882232244467 0.43082907287564287 0.0501447477549145
64936000.0 0.8377290008562841 -0.5377882110620611 0.05249492495259954 -0.2438164559616741 -0.00029989549574932717 -0.003823325836997714 0.4479011815958953 0.03330282232798364
65935000.0 0.834414489960114 -0.5500830599924004 0.05110129066313243 -0.260324130757892 -0.0024874245573545646 -0.00029070952146334917 0.44692731121358525 0.026365772568629733
66934000.0 0.8316601205795464 -0.5519101760681845 0.05453588318260039 -0.2744188288922314 -0.0012963772449045884 -0.0010811091244151022 0.4394708380957997 0.014120305619406658
67933000.0 0.8261485379439225 -0.5618577788365301 0.04893826222337423 -0.28801742602454855 -0.0007874387967367359 -0.001526054739972915 0.4529919145208086 0.008845350078569491
68932000.0 0.8097260433477951 -0.5604813982482602 0.0468447571835902 -0.29839179672278265 -0.0027486061589220437 -0.001956088383697375 0.44972530835726876 -0.0037022026645685785
69931000.0 0.8142382087249688 -0.5781037593039454 0.04902075030252724 -0.31830076574370236 -0.0014091557394462076 -0.0024294246733714163 0.4613504561982537 -0.0112694599903092
70930000.0 0.8075960673963266 -0.5837297941950436 0.045190320559442894 -0.32901749950380266 0.003456234656292907 0.003154960357950611 0.4560065801910017 -0.030185414907658515
71929000.0 0.8061148055577969 -0.5919137198152408 0.04491309876707466 -0.34971667916693505 0.001729095620455785 0.001370217639764072 0.4447658170610027 -0.03545064823538013
72928000.0 0.797455476162838 -0.6011033793233085 0.03797443025585496 -0.36582072026797935 0.0013702834012959846 -0.0005795137689724961 0.4668875709859366 -0.04997430611676388
73927000.0 0.7923493766305348 -0.6083545815215029 0.03236664245627852 -0.38578115857865564 0.001454321702212081 3.690441083996604e-05 0.460274220854206 -0.050733681244451746
74926000.0 0.7853583143347291 -0.617181241695916 0.02616125394721195 -0.40047849648381856 0.000526670727435531 -0.0005731098376398092 0.4692676309724962 -0.06347545337145007
75925000.0 0.7796175046357697 -0.6224649466166713 0.015731348692180545 -0.42195897895397955 0.0002590090624974701 0.0005915150049763587 0.4743731170326212 -0.07002499762060027
76924000.0 0.7720228732064608 -0.6301641442442126 0.002316614188762686 -0.44546239586904574 0.0028451309938446563 -0.0001567553490268094 0.4718472706236059 -0.0819461294818346
77923000.0 0.7685098863178432 -0.6360837510357701 -0.014545188419277804 -0.4671386016174832 0.002527760248110119 0.0001492522077834394 0.46873920329498664 -0.09570415588876581
78922000.0 0.7613115043626018 -0.646640740607296 -0.027751391835161753 -0.494116301059428 0.001837357199764407 0.0027152510347615926 0.46028226734551136 -0.1031883273063151
79921000.0 0.7531138216290403 -0.6523705062947759 -0.04822460332104501 -0.5148366744071055 0.0027792522073654246 0.0004308770245945053 0.46463412023215167 -0.11545890274073455
80920000.0 0.7481517695912542 -0.6626361450950853 -0.05791412263911021 -0.546653458747891 -0.002384363454728931 0.002251159163331886 0.4722042471077603 -0.12152366898013402
81919000.0 0.744922865668207 -0.6666467615384226 -0.07767025775592212 -0.5718547154978515 0.00048013861147953174 0.00384728871744187 0.47125731178199004 -0.1409338388819812
82918000.0 0.7321700897938344 -0.6765331516372931 -0.09031106381205029 -0.6067668682163981 0.0007000527031125551 0.0016482849606757335 0.47364624875313766 -0.14419837328514107
83917000.0 0.7238222523677633 -0.6814934870167564 -0.11046631685488335 -0.6319686317892025 0.003123437627324038 0.0027863502774626847 0.48445088934697306 -0.15137837080615874
84916000.0 0.720620071234735 -0.6898729409903285 -0.12783113155096154 -0.6718620749464883 0.001278105590721201 0.0015878592041699447 0.46682583962892316 -0.15582139648889978
85915000.0 0.7145269381414906 -0.6948969473887092 -0.14646561967312466 -0.6995475727523951 -0.002191459938951188 -0.0004015084943323815 0.46347326320041793 -0.1773651306862658
86914000.0 0.707308003376222 -0.7068247442845661 -0.16629000696818513 -0.7359189655502302 -0.001808474121167834 0.0025964462152461834 0.46447689219047056 -0.16486736901849922
87913000.0 0.7002694354688129 -0.7114338092058811 -0.18391337930370824 -0.7623210071217311 -0.0009680431993480575 0.0017123785848205347 0.46196440814452794 -0.18055743812891226
88912000.0 0.6927830409209768 -0.7174699754869776 -0.20187027687936707 -0.7970163053348706 -0.0005077595573012243 -0.0011110979512487928 0.47675329910670877 -0.19559101278910815
89911000.0 0.6851013560077648 -0.7271438239126575 -0.2180589344598237 -0.8308045831507228 -0.001202992841244037 -0.002751934292532363 0.46813138350052197 -0.20868579557527908
90910000.0 0.6780111985536128 -0.7330313836363989 -0.23723777338900331 -0.8701690630994806 -0.0008326625937392256 0.0021351078883352624 0.4682479767315528 -0.20942436605086634
91909000.0 0.6700107655400473 -0.7375774573659633 -0.2544361237410525 -0.9034945940915352 -0.0015221642858789016 -0.0030638645076756857 0.473638802951382 -0.22880535830434984
92908000.0 0.6624990001556151 -0.7458021623210878 -0.2740264598369918 -0.9301991020605241 0.00016490854072521942 0.0018742825223601906 0.46779995639411787 -0.23324890856478067
93907000.0 0.6580149196067383 -0.749219802402431 -0.28602200235440184 -0.9633823936584986 0.001578868578419318 0.000994632140269035 0.4686856808499045 -0.2615330101540941
94906000.0 0.64487572157932 -0.7582499153073156 -0.30478294036184184 -0.9979778422837803 -0.0021931479689576935 -0.0020572774079974593 0.45532009204899654 -0.2399121563749809
95905000.0 0.6373184286447139 -0.7656920228334843 -0.3340953626820084 -1.03222061345595 -0.0025059273771667317 0.0014235805235273012 0.46282816350410266 -0.26088191866708504
96904000.0 0.6309365728383975 -0.7741089216899244 -0.34918371312377383 -1.0754694137306249 -6.28642521902663e-05 -0.00311138375859063 0.4670763806276002 -0.27371609289338666
97903000.0 0.6198229139417991 -0.778937388797519 -0.372619817395697 -1.1008953579723177 -0.0012929121697448354 -0.0006029882927144627 0.44857715871941156 -0.2921280006096983
98902000.0 0.6158558314636119 -0.7858817133343053 -0.38903514081797874 -1.1398790879355298 0.0002836816127452877 0.0019067026859335549 0.45348316853796117 -0.29652218520335233
99901000.0 0.604573897561734 -0.7924150666159837 -0.42235057782407937 -1.1718779045278849 -0.0014524704097731334 -0.0009878308565910794 0.46012123185616444 -0.3218816864317785
100900000.0 0.5970525627961653 -0.7955244057598304 -0.44966255216978407 -1.20140080406214 0.0030863745532733 -0.001316957571301004 0.4606173233083177 -0.3075888838454353
101899000.0 0.5871400516691898 -0.8037894586133244 -0.4785639637291828 -1.2387086765098618 0.0015201483296337912 -0.0004669802791045827 0.4567897338048979 -0.31254270460122807
102898000.0 0.5804276177191556 -0.8093815574510366 -0.5067236463201855 -1.2764586900546275 0.0005347040277759862 0.0002536398308490554 0.4553515409824497 -0.3299085958002739
103897000.0 0.5713462317591618 -0.8167088384575046 -0.5483809686522294 -1.3101125652954568 0.003623919583689595 -0.0009502834224330306 0.46333475826709625 -0.3364361381296182
104896000.0 0.562638288347186 -0.8246915269370413 -0.5917762791912858 -1.3409136903926806 0.0011788333932855062 0.00020162859267839207 0.43196633915400373 -0.33902899226745825
105895000.0 0.5515347852767502 -0.8300521114591113 -0.6392362945398122 -1.378851930070452 0.0025850001764415585 -0.0003717075472977544 0.43240857404835253 -0.3599483599677465
106894000.0 0.5429485585321168 -0.8349961999056622 -0.6904436424634228 -1.4171132536614148 -0.0014840414107661487 0.003471671088097376 0.4313180074335684 -0.3730561068961829
107893000.0 0.53484984634969 -0.8408011200329796 -0.73972934985792 -1.4557846720816163 0.0011430822516662774 0.0015984617937647287 0.42900428126753043 -0.3667475991252426
108892000.0 0.5257584430980621 -0.8458581206633309 -0.7990252067984865 -1.4916977546073587 -0.001144109656609924 0.00158049681545137 0.43431845534032215 -0.37120895866317205
109891000.0 0.5138470522357208 -0.8525177906845466 -0.8560088100489641 -1.5276233932139678 0.0014877784925955235 0.0013165582218307675 0.44132489344116765 -0.38128913352093063
110890000.0 0.5022542853788958 -0.8540654742468722 -0.9156535360760129 -1.5272811132438893 -0.0032454099031964494 0.0019725342862253153 0.43443762078066334 -0.3845300590063624
111889000.0 0.4954152870191663 -0.8605283288263769 -0.978615279407871 -1.5958444833408594 0.0002560381329943048 0.0006992976406601059 0.42665596418896096 -0.3956926083615766
