! Created with skrf 1.9.0 (http://scikit-rf.org).
# Hz S RI R 50.0 
!freq ReS11 ImS11 ReS21 ImS21 ReS12 ImS12 ReS22 ImS22
1000000.0 0.9855840389185903 0.003520382902892865 0.005896097335469435 -0.03465687314786304 -0.004883016478961488 0.010293316908999282 0.3180593922864724 0.3692642954353424
1999000.0 0.9948734656838593 -0.015220578769447747 0.010821827719547908 -0.02167469257010176 -0.0020952867133955657 0.0037499550592331116 0.2532536212525925 -0.026534354777315094
2998000.0 0.9991018228504303 -0.02527591623576618 0.005399953105516025 -0.00866307861720808 -0.008027186982952347 -0.001011169907110278 0.19032711034265254 -0.10432340070001438
3997000.0 0.9942087615814456 -0.031864468221648325 0.004175167354911058 -0.009507845828860762 0.00561161453384811 -0.004986455959647561 0.07747365034481284 -0.2143056836731347
4996000.0 0.9929465185778515 -0.04180667593966685 0.013270784014524114 -0.002756877569416396 -0.0029338776254830908 -0.0037313902918469544 -0.05159292166207088 -0.18611930675352148
5995000.0 0.9912112011633427 -0.049988408449193125 0.011601741404724784 -0.0003887955744739955 -0.0003581483162649658 -0.0013338892855078227 -0.11958443326168387 -0.09654739264382997
6994000.0 0.9890765064998047 -0.061631472224438405 0.008221044678569074 0.005650401259501056 0.001986320848715492 0.0006023773895019363 -0.13391587339415711 -0.018425457192973158
7993000.0 0.9902963633288361 -0.0709425982493723 0.004061722154976069 0.004760493487525905 0.0037233483956191954 0.003227093223837818 -0.14963430413637646 0.04701144825063777
8992000.0 0.987105454191927 -0.07584911235366973 0.005077636184572868 0.0025999939696307547 -0.0044732966312367554 0.00042353693176144195 -0.1457351741258821 0.06789607243242296
9991000.0 0.9871855448657144 -0.08255464034312389 0.003215121085579371 0.005016999328200366 -0.0013659659501483255 -0.0014569777837137334 -0.14789728918525025 0.08504792576338621
10990000.0 0.9851383534546617 -0.0933762932688903 0.0024006154357670484 -0.005280837020213462 -0.004828432069732341 -0.002131082634831475 -0.13377496042332385 0.11361463962332558
11989000.0 0.9837267177588703 -0.10135928531890907 0.0021348891825152694 -1.1521596563588209e-05 0.0022558432974004437 0.0023644118374076656 -0.12958213728969803 0.14061399394240193
12988000.0 0.9828947712404826 -0.11107157912409045 0.002097598395712126 -0.005178186338353026 -0.0024842357330066467 0.00497738582363804 -0.1105413402149656 0.16328681617166535
13987000.0 0.9810177005077423 -0.11603448751341813 0.0020826399628139087 -0.000820876190205613 0.002530874247073039 -0.00224220572686863 -0.09279231242342259 0.18186769878258738
14986000.0 0.9815444410294766 -0.12436451603706072 -0.0010778372568171998 -0.005851640697745956 -0.005285118139139359 0.0007858306394027383 -0.09082394310311266 0.19584076969426606
15985000.0 0.9825228502742102 -0.1320385779423655 -0.0022320674096306175 -0.009269753899892104 0.0012626499945081015 -0.003266433121980104 -0.057309605117290725 0.21490524360934102
16984000.0 0.9792276457211435 -0.14418050062829768 0.001327766702895338 -0.007351686050348072 -0.002530212912466774 0.00213385286505101 -0.04006866902588794 0.20435454970920966
17983000.0 0.9813008752715071 -0.1463905515952934 -0.0011999469151259977 -0.00564049556341281 -0.0014524860763483573 0.004862291405470692 -0.04676233002323773 0.23993115105996093
18982000.0 0.9769820114104111 -0.16094841221169973 -0.005996559073637502 -0.006323035666495622 0.005350112827329753 0.0007027918901656652 -0.01707918341631451 0.23898152161219893
19981000.0 0.977121344003824 -0.1645668846917886 -0.0033545280981412567 -0.0002470079302811974 0.0004314776132032424 0.0030397635874930195 -0.014785312961353079 0.24619596271231753
20980000.0 0.9766614996043458 -0.17438788511416348 -0.01006701494598416 -0.002581279368013379 0.001525629302660626 0.0028720355884569487 -0.0032890728590342583 0.2588997286427517
21979000.0 0.9734547444501159 -0.18268311782033822 -0.007162220987777617 -0.0035645340828133225 0.003415222083605941 -0.0032574814708069017 0.029325268062917232 0.24888640034095486
22978000.0 0.9718082574410025 -0.19208785586674165 -0.0056258722742121205 -0.005220472273382107 -0.002747549939295569 -0.0025835671854389456 0.03324057864694312 0.2563335484665563
23977000.0 0.9733468548038108 -0.19875809740367628 -0.0074151172481704 0.0006010091064292136 -0.0038146363576844295 0.004079526808176663 0.045746067327671835 0.25531955078109886
24976000.0 0.9669341170499364 -0.21140559353493898 -0.0046980747166202935 -0.00030311962251419495 -0.0032544311235059493 -0.0038425661902504425 0.05012133776187969 0.26063076011324826
25975000.0 0.9653999604074012 -0.2252302217141125 -0.003346445124362878 -0.0026765147014032858 0.02149006183577689 -0.0095680188542083 0.07960026230711567 0.2641311256006728
26974000.0 0.9654406332346334 -0.22592026864252351 -0.005614645307138852 0.0015883728723204969 0.0026111019447005437 0.0021883673171753043 0.09006010038523907 0.2750097220488044
27973000.0 0.9645248373410146 -0.23464637024315843 0.0003834420760825644 -0.0018577058521233906 0.0005139619034589769 -0.000666978602799839 0.09935859210621621 0.2622163411091508
28972000.0 0.9597012926818628 -0.24426862746321218 -0.0008214909060628814 -0.0016122569730526789 -0.00035544526136329095 -0.005037666810586363 0.11681165892361856 0.25744109954028743
29971000.0 0.9611281413354931 -0.2524767110784292 0.0002978318706800812 -0.0047506493854541825 0.0001393488982827808 0.0009824361993128995 0.15688788996833283 0.2657580789915601
30970000.0 0.9578589032593151 -0.2582234739617257 0.0007614901145690993 -0.0002671594794622494 0.0032169957766453343 -0.0012313057035302326 0.16870924867878767 0.25870816921821194
31969000.0 0.9554718053024981 -0.26662585830520125 0.004856940904645882 -0.006015540336933802 -0.001331658596603173 -0.0011001598576992652 0.1567931217264366 0.2563365483037463
32968000.0 0.9525093385046003 -0.2774837091263717 0.006062600934104811 -0.00833167366381398 -0.003623335156448252 -0.004100452552749039 0.16667010771491705 0.2533520795006387
33967000.0 0.9513848682520623 -0.2856504969766485 0.010833637639460504 -0.00686960628933454 0.0004474297929530835 -0.0037236912915609645 0.19415985053444282 0.2502106472803322
34966000.0 0.9478621243984855 -0.29594599549206635 0.011798973763824997 -0.01226046488394993 0.0015161972553945607 -1.0565603252588661e-05 0.19696665091597473 0.25938186798414525
35965000.0 0.9460138143576622 -0.30376103706115215 0.012662302546520237 -0.02045155885062034 0.0012000218821107847 0.00176910124044818 0.21541120854607212 0.2543481023434628
36964000.0 0.944219030399609 -0.3127187851860236 0.01720073674253074 -0.014291067803497157 0.002040787428415268 0.0013694250768195382 0.21785296053463296 0.2576520435690267
37963000.0 0.9393555955803091 -0.3230724442674777 0.021721703463481942 -0.01890906472421512 0.00016696340487871455 -0.0015785467565070305 0.23297017805876183 0.2383521100226906
38962000.0 0.9367925322165089 -0.3320124958798705 0.0225835215569713 -0.026437360522106074 0.0024359443333682555 -0.0007327653015359593 0.23888683563923774 0.23175264917422586
39961000.0 0.9358628901044393 -0.33539684239176465 0.026258154210528847 -0.027874490105938905 0.0030181693853216975 -0.0025815314690328384 0.25544449482122183 0.23409460537895949
40960000.0 0.9301898435691327 -0.34552485569323693 0.022910560082667064 -0.024427888956446944 7.720406166531489e-05 0.0018850305072168933 0.27117123946828564 0.2277262379596029
41959000.0 0.9275272428938006 -0.35631960553949954 0.02751099188263623 -0.03147328320422774 0.0008148980629220357 -0.0010701476273962925 0.27038616715674374 0.2170429424221977
42958000.0 0.9228268657780436 -0.3661229841942085 0.03156832880542604 -0.03991476830613587 -0.001978137832097899 0.0005127808011460891 0.2906094412042244 0.20228395010224717
43957000.0 0.923116219001819 -0.37013428469379284 0.03373234315404514 -0.04764241576229886 0.0003394395813448715 0.0019120635683398234 0.29007281413185027 0.21456457589879332
44956000.0 0.91887359043597 -0.3783925972112949 0.03423759483137812 -0.04982175562465047 -0.00038349511930171936 0.0004076614656326497 0.3002864131616104 0.20139601109886612
45955000.0 0.9150922914355106 -0.3907178103955674 0.03705450817333731 -0.05703667801758863 -0.0002406964900531582 0.0017266021481661864 0.3130197009141492 0.19484840532479747
46954000.0 0.9115994103021167 -0.39724521958713765 0.035429405352959645 -0.06431184441225173 0.003854057751205524 -0.0014783067165418068 0.33329763234876403 0.18480131670447628
47953000.0 0.908091042655698 -0.4046414558921112 0.03754822536556345 -0.07344288179304279 0.0014085380285481946 0.0007903462927157721 0.33624240087800883 0.17878460278165006
48952000.0 0.9020425023547113 -0.41626153496407836 0.03872638420013128 -0.0796895822195337 0.002997365919137698 0.003113795762617038 0.33818129230463134 0.16749096389109921
49951000.0 0.8981872587620541 -0.42274091372199446 0.04060929323505747 -0.08719327706623439 -0.0006669736797216482 0.004314493928798552 0.3484081737898815 0.15913735433392046
50950000.0 0.8959611451654519 -0.4300904201627977 0.04081915067073039 -0.09551468603000383 0.0029964518895765364 0.00012477440354822223 0.35162095985295827 0.1512428081499557
51949000.0 0.8913918142036064 -0.4385446574065213 0.03899317239777545 -0.10294247046946836 0.002163692843277231 0.004602311764358309 0.36375651804519704 0.14443711005359475
52948000.0 0.8888517292543751 -0.4465579180336042 0.04381840011381647 -0.11143733276701076 -0.0021808137572606454 0.0003027478225647647 0.37633911349810706 0.15248407658329077
53947000.0 0.8819799736750022 -0.4557669928090911 0.04502248906582304 -0.12075455701598944 -0.0028970712112690524 0.001246318394847827 0.3775656475529377 0.13266087106954635
54946000.0 0.8776296457485958 -0.46422229121854375 0.0452012744967168 -0.12903190113035018 0.0007124577317204063 1.4925187597265564e-05 0.3857471162110774 0.13324872201952853
55945000.0 0.8737845364365066 -0.4733220323801115 0.04662178136774025 -0.14037501498624544 -0.0002864417820142577 0.0036377354894742545 0.3880050858086121 0.1148772453282702
56944000.0 0.8711378285194216 -0.48151025645095746 0.05039506202493426 -0.15026939612862972 -0.0033501263159327246 0.0006753243204979615 0.3969793645002567 0.10596791371907015
57943000.0 0.8661647120038225 -0.4909502767209072 0.05012662548025413 -0.16138241145196813 -0.0011466545639578914 0.0006545251600958803 0.40465059423711847 0.1044338132672887
58942000.0 0.8581908663408583 -0.4970361898032448 0.04864624623600606 -0.17160763135780377 -0.0011287128204266145 0.0023925533769027173 0.4198528334478658 0.09476045187291302
59941000.0 0.8562746045868044 -0.5038810222460376 0.054503094361685954 -0.18493226101478663 0.0012916079253698907 0.0006324276448303691 0.4255286776137561 0.0888325748095709
60940000.0 0.8491158603023717 -0.5124326091018828 0.053259815001182584 -0.18585260201377274 0.0024466855552853 0.001928074784871755 0.411605222349718 0.08035735674746394
61939000.0 0.8454673034016774 -0.5191164586715548 0.05491659335878733 -0.19231765039461562 0.001710224058765172 0.0009518370359871389 0.4237390067110021 0.07263336258038235
62938000.0 0.8387397592472009 -0.5307421989666429 0.05726389512064105 -0.21036355933008508 -5.653687573735231e-05 -0.0005074764392164617 0.4351264620462773 0.061863024279852526
63937000.0 0.8342588870930913 -0.5372464989324702 0.05680486299819384 -0.23140660640827962 0.0015676086828304873 -0.006139102538475349 0.43388130478347875 0.03975054679216387
64936000.0 0.8280035753989472 -0.5435894345060065 0.057770494679524165 -0.2467951061048883 0.0010163753365112613 0.0013203896469722945 0.432737318289398 0.04488939983403932
65935000.0 0.8253760045774937 -0.5544556150357691 0.05919388657938363 -0.2620634841847812 -0.0009331377584748704 -0.0040857886269615685 0.43308343062820703 0.029480282441710835
66934000.0 0.8199264859921603 -0.5564290743972206 0.05846171932138217 -0.2725184773189479 -0.0010745482067127657 -0.0019152036655014995 0.4390861087523 0.023679798446513748
67933000.0 0.816900505804808 -0.567021334393027 0.05737256628059548 -0.28500119370167326 -0.0009104789631073279 0.0022404780679355033 0.448392737964567 0.019473821225984234
68932000.0 0.7987024650100367 -0.5688424486093588 0.050702888442146224 -0.3001000320527528 0.00025250255121120796 -0.00036854654017210814 0.4637240182152623 -0.002872269155398582
69931000.0 0.8013888046937798 -0.5838868921730258 0.0520314133809021 -0.3189907394330997 0.0019585044447631853 -0.0007348204664867779 0.4431420582108329 -0.007049503930543203
70930000.0 0.7963734949028701 -0.5894165663545505 0.052571647766568266 -0.3324844496811812 -0.0013730407811131118 -0.001682608214499233 0.44423134431648525 -0.023152819374285327
71929000.0 0.7929380741628775 -0.5979565155493054 0.04590845079626838 -0.35166560624850224 0.0009036977145960832 -0.0026777252510731594 0.45668095927657976 -0.03709937785829981
72928000.0 0.7859875765371844 -0.6076940427264393 0.042163228059767285 -0.36496722329939446 0.003433948709226695 0.0005167569483628794 0.4565071942167616 -0.03766205772856702
73927000.0 0.779189036760453 -0.6129925919595746 0.03118479823649806 -0.38804678861313424 0.00033253232063953193 0.0021077612418998236 0.4560859433773611 -0.03996901622497811
74926000.0 0.7723268500081257 -0.6221186010372347 0.02504739202018161 -0.4076016746306837 -0.0019805330323122497 0.0008976947777613755 0.45924972204994763 -0.04098051495779194
75925000.0 0.7660866887823071 -0.6270742546744849 0.017600362207862208 -0.4238912693279281 0.006831249164386084 0.0028063453701521546 0.47969492326472657 -0.07190659583131523
76924000.0 0.7591482030290885 -0.6355152931485646 0.006168790950020761 -0.4521674860305802 0.0022108339859425157 0.0014363773804615307 0.4792158598758341 -0.06830064295791746
77923000.0 0.7539055915206575 -0.6405477623002733 -0.009002489834603266 -0.47482182221378355 0.00399937612836349 0.004253000557544786 0.46910846239859166 -0.0934607511955107
78922000.0 0.7473471847452056 -0.6514827030347127 -0.02176949872902984 -0.5038239216247843 -8.989596085998009e-05 0.00018616757298560598 0.46825756248652073 -0.10303572220925207
79921000.0 0.740008582930729 -0.6548816571517745 -0.03958724037862986 -0.5263862538125065 0.00020320670210783386 0.0016359874998283018 0.4625912419034073 -0.10358699852425156
80920000.0 0.7351306086090699 -0.6659666933218649 -0.04824601022290778 -0.5539728929315776 -0.0028564681834209933 0.001105735108017997 0.46860882859738034 -0.11832333630603463
81919000.0 0.7288808791188143 -0.6713487058749606 -0.06914924887171628 -0.5853791516653778 -0.0009955746324556225 0.0024194957840241948 0.4650819470661573 -0.12804511405419605
82918000.0 0.721365300055791 -0.6781080631797697 -0.08230499273328432 -0.6151588768246574 -0.00034262302628186965 0.002041336090091598 0.48141944284518373 -0.12769411001543052
83917000.0 0.7136228149962451 -0.6856106581178817 -0.10015574709478203 -0.6436652602315012 -0.002798549711170638 0.002231180375072069 0.4696665051252421 -0.14569898660059694
84916000.0 0.7080171389842017 -0.6934356762920593 -0.11588450006291212 -0.6787886514248517 -0.0025454259955235755 -0.00017990712038875288 0.46380061897877967 -0.15146267054261542
85915000.0 0.6997707734486591 -0.698653232541055 -0.13682670937145766 -0.7076642441812209 -0.0020355123169708326 -0.004585311528376238 0.4722672548240124 -0.1565304915279811
86914000.0 0.6934953465452237 -0.7105844267700497 -0.1546554439101763 -0.7465903344304333 0.0017589720642056693 0.001136072572725901 0.46514474222109126 -0.15651392209344994
87913000.0 0.6878957894456795 -0.7155117683245364 -0.1693822914285785 -0.7729746953758604 0.0037193605334603125 -0.0013351563610820346 0.4709333949314312 -0.17554599799299495
88912000.0 0.6771037917617307 -0.7229193918182626 -0.18979288243471495 -0.805493870351676 0.002708329319253584 0.0010143764045562275 0.47446131425815663 -0.18956267740887903
89911000.0 0.6730683924609425 -0.7306478244784165 -0.19757178532546804 -0.8486213774665986 -0.0010915435089585003 0.0023941908708861462 0.4734543326590179 -0.19882562861060946
90910000.0 0.6643342865724172 -0.7355631095863341 -0.22140428731463 -0.8779960600542013 0.001353113916516798 -0.0027390154023167836 0.4644384076471762 -0.21301947909089297
91909000.0 0.6559045429547914 -0.7400745798561562 -0.23909915234633017 -0.9144546536790474 0.0030510600469950524 0.0025493663523571005 0.47574893042603245 -0.209866241764811
92908000.0 0.6474881747541683 -0.7482246087128622 -0.2535596197702215 -0.9440543015986849 0.002651201728358493 0.00039167742349788324 0.46251363529595313 -0.23320513691238035
93907000.0 0.6413461071927371 -0.7542230030314124 -0.2752617942592791 -0.9779389372666182 -0.00042232918072109254 0.0012052141487766607 0.46737654608041496 -0.243109975636422
94906000.0 0.6285931458190008 -0.7620859981539958 -0.28916464816745907 -1.009371332782039 0.002089441202003601 0.002634028374917352 0.4628452971877395 -0.2356276271730315
95905000.0 0.6208817422399089 -0.7690008287031526 -0.31764065402625064 -1.0477409071358126 -0.0018377261634293404 -0.003171377485060282 0.4646815268611104 -0.25792990925060844
96904000.0 0.6132250360170914 -0.7763367333456771 -0.33126656858066134 -1.087657704236399 0.0008193441193561585 0.0030477071212596006 0.4667802288619268 -0.255062339030299
97903000.0 0.6050507131505165 -0.7820457306411508 -0.3563601572883944 -1.116912602846521 -0.004867618369773441 0.001971655018897614 0.46187890598889614 -0.27237878727702053
98902000.0 0.6017017910323726 -0.7888247957952609 -0.3767380247853122 -1.1602508194049517 -0.0017374734999990383 -0.0007730850702639989 0.45937614720338404 -0.2844526277986808
99901000.0 0.5890768642228291 -0.7935730802751557 -0.40948579118414985 -1.1839009522334587 0.00027768683769334153 -0.0016151327645474477 0.45695490655529025 -0.30981030709620677
100900000.0 0.5821103864773405 -0.7989751273476549 -0.43864007162337637 -1.2213912235345559 0.0014244117672128497 -0.003209584940054643 0.4681579380273006 -0.30450578346400287
101899000.0 0.5736173586334936 -0.8072049070485969 -0.4711069166350065 -1.2598713941207083 -0.0020475555298760544 0.0012323005207229237 0.46586663248347304 -0.30165638941601863
102898000.0 0.5633830243867037 -0.8131029021623837 -0.500076247957431 -1.2969161508955842 0.0028967442105804417 0.0006636199726452591 0.46530852829557107 -0.3218951216458705
103897000.0 0.5535484869672952 -0.8185556958748857 -0.5469136500447418 -1.3320448896413881 -0.0032918120046645303 -0.0027595179164025163 0.4600706661042167 -0.32355624263244
104896000.0 0.548219512693204 -0.8302113972853096 -0.5902079371165955 -1.3669853869319792 -0.0015029271948567235 0.00013752857025396516 0.4558784808815338 -0.3320133053570971
105895000.0 0.5354771843596362 -0.8317135605406925 -0.6362285549379095 -1.407939265831669 0.0018120611241262104 -0.001734713732761246 0.44786057496135223 -0.3531509197457753
106894000.0 0.5264869308735861 -0.837950081509222 -0.690954634671606 -1.4461931006593924 0.0003144320351246993 -0.0009280040013714056 0.4389283662839892 -0.35686462470139596
107893000.0 0.5201993487628047 -0.8455407538207451 -0.7417608270375455 -1.4892976502168986 0.0032329965747653093 -0.0032473929451262555 0.4407166316021426 -0.3665705813868065
108892000.0 0.5113054635917332 -0.8462253547337393 -0.8040529927636998 -1.5254758041898724 0.001477988470291586 -0.0010585428276102661 0.43919470466148774 -0.36547502418401806
109891000.0 0.49894241427448494 -0.8573167367676594 -0.8602519292430404 -1.5641325563498854 0.0030463214757674682 -0.0002510562782861924 0.45218116178818507 -0.37161681641697425
110890000.0 0.4822840417297684 -0.8690695843606535 -0.9478126123318222 -1.56558084559844 0.003403958489316523 -0.0007236086079573493 0.44247118977945016 -0.3732700856526783
111889000.0 0.48038492960988743 -0.863165071471676 -0.9855817478274164 -1.6367611818311967 0.0018696046215482863 -0.0013620332416227178 0.43674487882926805 -0.387959629137373
