! Created with skrf 1.9.0 (http://scikit-rf.org).
# Hz S RI R 50.0 
!freq ReS11 ImS11 ReS21 ImS21 ReS12 ImS12 ReS22 ImS22
1000000.0 0.9746120981375516 0.008473025140878694 -0.022553455539112935 -0.04303054627384198 0.0005467451225052425 2.2918301758364058e-05 0.3334751809090586 0.3212070001395838
1999000.0 0.9962200422722108 -0.010777194850439261 0.0011904490170659221 -0.01632871858365398 -0.007341879229904074 0.003946069508004537 0.23302620398795254 -0.04879498650604519
2998000.0 0.9995203988272793 -0.025173959423316128 0.012707586765163158 -0.005364849716511185 -0.0019936233435070075 -0.0007571184863070907 0.1825628884379095 -0.13759724141932284
3997000.0 0.9947193416692213 -0.0359003757607239 0.010876865662520507 -0.010217739286137728 -0.005783791250598594 -0.009419472643757674 0.07772993404605061 -0.2222258218837015
4996000.0 0.9948603983928503 -0.03505953180205276 0.011942177250875275 -0.007777728175288527 0.0014271591278171662 0.0015062067609688072 -0.04893090438419548 -0.18998450533215785
5995000.0 0.9959728466936872 -0.04623063329182273 0.007520709986693237 0.005140393627705237 0.004771479319338132 0.0007771026586298069 -0.1309328491846272 -0.0914406859869045
6994000.0 0.9938427627634352 -0.056320773996389316 0.007272029974543733 0.004105903659456402 0.00045289143727414433 -0.0017582303677401775 -0.1369603909632742 -0.009036481272573888
7993000.0 0.9950640361639621 -0.06587955962645019 0.004722372405116002 0.003085868246766039 -0.0012796113814836083 0.001044585455995636 -0.15008888807892434 0.0528538615096582
8992000.0 0.9938704487874997 -0.07230901613861124 -0.0009433341868924258 0.004691368410258994 5.0549029404234256e-05 -0.0010857571996880009 -0.14107184558068125 0.0672490814204954
9991000.0 0.9919840987529248 -0.08184538932864564 0.0052920620751528485 0.006119115292166745 0.006722502761737395 -0.0024589658635558744 -0.13797016579882804 0.11296132437893908
10990000.0 0.9918975252525627 -0.09014897400881366 0.0034265033425225936 -0.0011233418461365596 -0.0030098453066811836 -0.002900754852697699 -0.12873228024071928 0.11908923710405117
11989000.0 0.9885870132220631 -0.09883239849705361 -0.00035703958587602523 -0.0024049164971654373 0.0017809063389925299 -0.004143739117359613 -0.12554836318327403 0.14477928318306016
12988000.0 0.9880851296228443 -0.10845782514510771 -0.00015854462493480553 -0.005419676178806284 -0.00121447943835536 -0.00020883132383828172 -0.10958629428557871 0.16588303212430902
13987000.0 0.9882576038456475 -0.116009796264191 0.005099711957408005 -0.005746585412570652 -0.0013734807724206063 0.001859647651758498 -0.0920635880734762 0.18962037347341476
14986000.0 0.9873515835621954 -0.12531196134138586 -0.0007500456229399835 -0.0015041479088681977 0.0020303663234240705 -0.0032404271186844214 -0.08240347417106289 0.20700809876859644
15985000.0 0.9868680782052507 -0.13271556481617142 -0.0010157168276935585 -0.0015932621454237009 0.00017252134295423874 4.167384134293289e-05 -0.06500325053266433 0.21460773288264262
16984000.0 0.9835636116712707 -0.1452637717297946 -0.002310119688624207 -0.004918771188541992 0.000627562866447427 0.0005528840829199995 -0.06261057213143648 0.22372894741184962
17983000.0 0.9852527434803238 -0.14744845643985333 -0.002632150166643064 -0.0012721913127516982 0.00171544310109467 -0.0024085786350681393 -0.05849987423522745 0.23372445523757793
18982000.0 0.9816218757245995 -0.16114525769912963 -0.003295547656082429 -0.007147492867529816 0.007037191717371012 0.005178566292813563 -0.015861609152235112 0.23808196741624876
19981000.0 0.9821597263733793 -0.16629871352228964 -0.004149607662850944 -0.005706189431609217 0.00017750165010607007 -0.001270992780312155 -0.01612186994181147 0.24186950500098048
20980000.0 0.9796509997480503 -0.1750424184523447 -0.003846370154242779 -0.0043835530707236085 0.0010544745559050751 0.00019361358055104133 0.0027739752079888533 0.25735869423655977
21979000.0 0.9771273542981586 -0.18680913792499848 -0.004234203261577722 -0.006474602594989487 0.0008392636190237333 0.0024205201587328674 0.022700592394293527 0.2483296797866863
22978000.0 0.9742814102039502 -0.19460365244260472 -0.0048140015916116295 -0.0019217380836005458 -0.0005314965460560377 -0.004579373070372789 0.028381081217571158 0.25639616295311757
23977000.0 0.9754420216374139 -0.2006358742645864 -0.006549028988150257 -0.002489330778013966 -0.0024352430950374234 0.0018723718545397305 0.04281506924471033 0.2642510271611648
24976000.0 0.9717558512320156 -0.21056960760361612 -0.005910824586942368 0.0004718447434554858 -0.002175793307504783 0.00034015174964476756 0.05698634198087602 0.25792271899776226
25975000.0 0.9678374576248747 -0.2256949553096367 -0.004744510378373741 -4.7659122039286126e-05 0.018312846630144087 -0.024229360149843417 0.07333720186338986 0.26227081427236315
26974000.0 0.9713649918520566 -0.22701049108412147 -0.0033851390111690875 -0.003884052966266188 0.0010112253677809747 0.002905935435631052 0.08364521163714528 0.2736703078523814
27973000.0 0.96777664701305 -0.2347311868503598 -0.002657531126199145 0.00033822117700064774 -0.0008357614121020356 -0.003338109600792822 0.10572744012473564 0.2683258203764044
28972000.0 0.9651224839094121 -0.24470627535174982 -0.0022275164148116153 -0.0008727045668299256 0.00029700569385658973 0.0010533178545988698 0.11870492531803903 0.2663348833447072
29971000.0 0.9640055683343494 -0.25447783447948485 -0.0007510260503736997 -0.0009350294127529257 0.00030634101036814516 -0.0016294606580775813 0.14975551685065105 0.27028741213344426
30970000.0 0.9620908590545104 -0.2567457516781035 0.0002576669268130704 -0.0025578141690495632 0.004917650366754604 0.00105259703514085 0.16027145586722844 0.2656942176341048
31969000.0 0.9593226655388625 -0.267587617339465 0.0077836154565512645 -0.005115115187113214 0.0010910162378088661 -0.0008919697405284485 0.1472193045306186 0.25155517723458004
32968000.0 0.958056845772846 -0.2756319186120962 0.008538907385576243 -0.007052178594147448 0.004154953089633893 0.001564635435602098 0.16476742499338778 0.24888332033715785
33967000.0 0.9568700279192408 -0.28400803771518773 0.009180962334054145 -0.00896879904022713 -0.0004031119320246293 -0.0023498967878203434 0.18982478790342006 0.25090789901759086
34966000.0 0.9505384674991713 -0.2956217153548214 0.012820707799499216 -0.012488260955788038 0.0005402998064997016 0.002860582287968725 0.18955093035191853 0.2535382368770481
35965000.0 0.9496434851773287 -0.3033649515389952 0.016291847647088863 -0.01771024620647734 0.0006926425191076108 -0.0015832029109650674 0.21162468740713639 0.251086216437366
36964000.0 0.9480212617005784 -0.3120252852697092 0.018157484448685778 -0.011432837038361657 0.002345965825421535 -8.878757155849791e-05 0.21296244789461707 0.2571008429541461
37963000.0 0.9424015951074584 -0.3217107956782274 0.02482806002562543 -0.022481984034642948 0.0006855302992896296 -0.0004577346567498149 0.22800514137906858 0.24682217943027518
38962000.0 0.9411757021226946 -0.33112533435370484 0.024561281554578488 -0.023290548666931882 -0.0012288674873565445 -0.0006895422502233008 0.24320332639656106 0.23945497171628696
39961000.0 0.938218103316525 -0.33542426000684933 0.026936831037617737 -0.02977844640122842 0.0024535120151810475 -0.0008052867327394853 0.24743794224300142 0.23340539727381862
40960000.0 0.9352751762801784 -0.3457689565288953 0.02586474896977449 -0.02248518557474119 -0.0026794460368371772 0.0015813575636703873 0.2709431597241158 0.23609048315150752
41959000.0 0.9331452606000283 -0.35446776130941066 0.028069237580009284 -0.031721165416910446 0.00021128567751653695 -0.002014969253760806 0.2628232994134117 0.23074206398151192
42958000.0 0.9270437700137565 -0.3639637612629606 0.03707841329349649 -0.03741709302413354 -0.003266417195900478 -0.0015241478084574535 0.2819068606615721 0.21241162416387896
43957000.0 0.9268658184122476 -0.3674908034168942 0.0351139243681182 -0.044746358440884045 -0.0012002792619131538 0.002907437824050794 0.28410633006502467 0.21407677995752658
44956000.0 0.9220743360494302 -0.37760382632065886 0.03552235499354065 -0.04877898608840571 -0.0005003140717966051 -0.0018020423187212616 0.28978816745106817 0.2088649472346944
45955000.0 0.9173891746546036 -0.3887902317388457 0.03514159044383357 -0.057383344096330474 -0.00043137159036383106 -0.0011489922585861834 0.3042385341963 0.20396388672038687
46954000.0 0.9142648985175162 -0.39731737617772994 0.03847547415550207 -0.06649835292816877 -0.0007607341105344882 -0.0012514075521820624 0.3270871607827874 0.19368054864919967
47953000.0 0.9124584837939441 -0.40414350518776937 0.038369592054579786 -0.0732137710290566 -0.0010368738808913928 0.0004609725542255433 0.3344195894028604 0.18424778851216178
48952000.0 0.9053973812941308 -0.4168753560307089 0.04172313716481122 -0.0814919677606103 0.0007494369640570261 -0.0015175472568358414 0.32553054531312886 0.1810737268853132
49951000.0 0.902718839652679 -0.4227053520611264 0.04101327830862983 -0.0872339556887619 -0.0014316480277536219 -0.0013254854877474762 0.3467801121645775 0.17295964503930691
50950000.0 0.89927300459108 -0.42932456433767163 0.03927663831870167 -0.09673287357461215 0.0046244407951511295 -0.0009608059349535621 0.35490353311769735 0.15690647213730702
51949000.0 0.8931613548297241 -0.439300137368214 0.04433471489468451 -0.1025773578926999 0.0002136564947600583 0.0012254546612954905 0.36472564014606607 0.1560293075740655
52948000.0 0.8928351629670592 -0.44565959857113463 0.04800379796081823 -0.11436117086483918 0.0007010093953064195 0.003479874057253815 0.3634877234993187 0.16462601860666753
53947000.0 0.8856847377528778 -0.4558759107932947 0.04810485019020057 -0.12218505103517517 -0.0006983070753186641 0.0024944479820972203 0.37339514694502624 0.1434861382569838
54946000.0 0.8812360423048234 -0.4626175501555593 0.04728428492700625 -0.13310602390553813 -0.0005550057205247796 -0.0019562951655907575 0.38507550882907315 0.13291748717166768
55945000.0 0.8788619793035181 -0.47300098420267844 0.049983398637398334 -0.14361451496191088 -0.004564658993869776 0.00029470914625061843 0.3839465728350527 0.12004920996498712
56944000.0 0.8731722692304668 -0.4808442114125087 0.052705609652494156 -0.15322516358747643 -0.0017522290076492765 0.0010317301668326035 0.401413044981466 0.1303208628298153
57943000.0 0.8695116147081945 -0.4910726175867966 0.05409290889269809 -0.16409147695360737 -0.0029462060199340915 3.8580404729834757e-05 0.39753617216187515 0.11176424188949698
58942000.0 0.8623063298519733 -0.49557317746950313 0.05612936879637312 -0.17718579205345653 -0.00021875434076060394 0.0019329594383824596 0.41191571756220147 0.09935909193031428
59941000.0 0.8622134734083445 -0.5016606893609643 0.05949239660524997 -0.1870421412323267 0.0014166958824806744 -0.0010599203961912911 0.41570349606731277 0.10226044688296473
60940000.0 0.8523518463113756 -0.5111202392799458 0.05939491724835905 -0.18908882907266253 -0.0009207025287205009 -0.0019088701282454171 0.40351665482939214 0.09030979973545078
61939000.0 0.8490648549213385 -0.5179155456591416 0.061946314043440406 -0.19585150706767987 0.001203858949942864 -0.002309595518514544 0.4092954451066955 0.08648879820480787
62938000.0 0.8433698434315655 -0.5290042342242799 0.06334940562482023 -0.21582465578258658 -0.0007185534255455851 -0.0006191170009866512 0.43858237222675084 0.06044362993207625
63937000.0 0.8374615980038216 -0.5367865121693031 0.06339561662859917 -0.23669480530235487 0.0018152268144980392 0.003629639112698024 0.42860835361748656 0.05088480785615287
64936000.0 0.8338987554843238 -0.5397416480305145 0.06476875906787442 -0.25032611664590176 -0.0004856473837189347 0.00026800851700450456 0.4372222959315111 0.06149676762064977
65935000.0 0.8281100636709664 -0.5513234064103102 0.06207938730059652 -0.2650895115141158 -0.0047387166764183255 1.5444237108616466e-05 0.43930607269518074 0.036265925601679495
66934000.0 0.8237109333525295 -0.5583736705446494 0.06436159575812898 -0.2810669367281701 0.005633663458595742 -0.0002823569641642736 0.42697978418014254 0.025457038142036564
67933000.0 0.8217158861819055 -0.5654582359240035 0.06270026345322288 -0.2972282491823185 0.0019135402377481107 -0.0011229146634178855 0.45100191204032275 0.030320909371473075
68932000.0 0.8036145389104755 -0.5645253279257749 0.056598817125071005 -0.30659748587143176 0.0034473707847158565 0.0027326129335834564 0.45795422914415673 0.004350078720116017
69931000.0 0.8057438311163369 -0.5828243420053489 0.05814342151473581 -0.3277971771244678 -0.0010796761236154487 0.0018179424652545301 0.45066588666756663 0.004149487363035178
70930000.0 0.7999823338266353 -0.5893265351248744 0.05879816704801392 -0.34074263738053656 0.0018913242689982182 0.002413412906797831 0.44495838379146374 -0.00046903318476610253
71929000.0 0.7975681198277992 -0.5974849128131597 0.05158476014924325 -0.36243523093181085 -0.0025765260241364103 0.005664428075061755 0.44767454918591276 -0.018769233573850432
72928000.0 0.790772321985015 -0.6056409482328847 0.048145332863179985 -0.38110359059847965 -0.00018272480694209753 0.0036054400636992947 0.47324407820145586 -0.028639296294677475
73927000.0 0.7830626661241765 -0.612681944969408 0.039586890957018804 -0.40095879449478844 -0.00048694826075413515 -0.004819719145121687 0.4656763668015226 -0.03327340432573434
74926000.0 0.7782860414903849 -0.6218364275484564 0.03376485976468282 -0.4203949095618683 -0.002138339040779502 -0.003669834730867073 0.46099304551411374 -0.042022434791218616
75925000.0 0.7733303931320777 -0.6256772617277906 0.023967801983383736 -0.44053536583885666 -0.002875817347900325 0.004096866987347228 0.47281385088135286 -0.04909996608589315
76924000.0 0.7654134613217517 -0.6363902860206584 0.014442795888334733 -0.46431991498617403 0.0037957271320829484 -1.4212684417613855e-05 0.46243422543442797 -0.05846100178127836
77923000.0 0.7587740557504181 -0.642537799748047 -0.0031648013905214347 -0.49013967887324583 0.0013786961691847881 -0.0013137533588825532 0.4697866715149033 -0.07275193374026831
78922000.0 0.7553180258939142 -0.6519571409990998 -0.012464894179959258 -0.5171758857943518 -0.002878841956593263 0.0037939350638826527 0.4718396544866266 -0.08705683032330526
79921000.0 0.7442451234481148 -0.6556798560270861 -0.031955117606549524 -0.5453854269090361 0.0007172609383580729 0.0020904833637007724 0.4655217601792054 -0.09559846025775916
80920000.0 0.7420434047122515 -0.666431618085494 -0.04632559673408818 -0.5742341209306885 -0.007098212481688921 -0.002238146184344446 0.47023692067401757 -0.10383056399739779
81919000.0 0.73503039106521 -0.6717872316109652 -0.06425872127787856 -0.6039508059765564 0.0003424574990531649 -0.004376913866646596 0.47236231333533113 -0.11426601988996755
82918000.0 0.7273848006958229 -0.6781515148156038 -0.07630827776521269 -0.6366271612133017 -0.0034947057650653946 -0.00360680738472665 0.48028395706200816 -0.10897688062547525
83917000.0 0.7184635978005456 -0.6859559273484674 -0.09144845570538435 -0.6667806644602859 -0.0012629382389781373 -0.002505669089769597 0.4828768948170715 -0.12806080888321328
84916000.0 0.7137948414941852 -0.694295850522161 -0.10694973684188692 -0.7019568671132516 -0.0006822228415207192 0.00018821466269500805 0.46695831044320213 -0.14557938764821768
85915000.0 0.7063799122418739 -0.7006580802689445 -0.12668935635706954 -0.7300932193219105 -0.0033502719065564394 -0.0046690661759648125 0.47522053190046915 -0.15278287408356728
86914000.0 0.7001441557440005 -0.7113897690812829 -0.1471655173579397 -0.7684454392172355 0.006313804441486147 -0.0011403243119261295 0.4720971686840958 -0.14346848889725006
87913000.0 0.6909730075460422 -0.7161308618253908 -0.1593894975817033 -0.7990647424462252 0.0014418067640953264 0.0011310834502922251 0.4682393238637496 -0.1587672703570185
88912000.0 0.6877736985149725 -0.7218994752152377 -0.1770241181547758 -0.8378016852385318 0.002283583412260968 -0.002784323016901335 0.4773960948744296 -0.17837760312506903
89911000.0 0.6776937216368081 -0.7310365223236474 -0.19051735267561887 -0.8747357784168165 0.0009989278684430316 -0.0016239905431817826 0.48007584849578644 -0.17981934059786422
90910000.0 0.6717147997792058 -0.73657899580261 -0.21309681978676479 -0.910018318301762 -0.0007208771481044967 -0.0013705710589227863 0.47237104648435774 -0.1904161930227382
91909000.0 0.6625114168764106 -0.7425799345184402 -0.23277840371883335 -0.941209805590184 -0.002290583939520778 -0.000617245809133988 0.47575042263048206 -0.19753887891733526
92908000.0 0.6540505567226119 -0.7508550801345367 -0.2486110692289861 -0.9796018449813273 -0.0009420686927846096 -0.0005083879984343619 0.47455661433429713 -0.21438084064712767
93907000.0 0.647385934960744 -0.7546180543354387 -0.2667077168009812 -1.0131946593956207 -0.0012717011690151277 0.0018753306273096373 0.48166882393109733 -0.23637200414353968
94906000.0 0.6380494551188874 -0.7631361502500656 -0.2874385272463116 -1.0497562759114476 0.00138132292493927 0.0008107642024572987 0.47926976805976007 -0.22007912597278242
95905000.0 0.6286171102157517 -0.7687677894826223 -0.3104788802051702 -1.0868919254716836 -0.0038160367006976 0.0003449213037273504 0.4789415840831 -0.24758821635120448
96904000.0 0.6202653060581222 -0.7786199947738459 -0.33565620437111143 -1.1212098819097958 -0.001328085125307685 -0.002412009222440178 0.4698677742233312 -0.25216152610264053
97903000.0 0.6118109603034881 -0.7837585725575981 -0.3553788756355007 -1.1599126289199746 0.0011643158704719562 0.0016870412761598723 0.46343001762058417 -0.25326521697458776
98902000.0 0.6058428707306377 -0.7908943261604928 -0.3759763145637961 -1.2036123791271114 -0.002703833053169911 -0.0003227910760257891 0.46223466700694005 -0.26369185145162
99901000.0 0.5956977353756752 -0.7951469275286752 -0.4111805778061291 -1.2320488595847234 0.0004023744945744456 0.005061498629995365 0.46818229577946624 -0.2926181588823024
100900000.0 0.5868715246071716 -0.8003023608269902 -0.4406879902299902 -1.2689642381371715 -0.003149953760524089 0.0012441320347375317 0.4810368561502127 -0.29265571270542395
101899000.0 0.5796942623932863 -0.8070376775828398 -0.4668167624197813 -1.3083314097811432 -0.0011988294862963086 -0.00029950263730145856 0.46556365318022486 -0.2858960338190848
102898000.0 0.569647317572569 -0.8128413684522808 -0.507542943578522 -1.35046470568936 -0.0010014850532432452 0.0017843397517937482 0.4587956667337063 -0.31711183623979394
103897000.0 0.5606323850512099 -0.8200755014337351 -0.547464839382137 -1.3843195899304794 0.0022400333312246703 0.0002574800848208419 0.4730272842879815 -0.30895313059287344
104896000.0 0.5523700548408981 -0.8310928562351282 -0.6038563112033869 -1.4202438546604728 -0.00027206611682113415 0.0020176980940107662 0.45405178271790764 -0.31703437636270615
105895000.0 0.5429505957165683 -0.8327263347949454 -0.6470014280453411 -1.4727072979232123 -0.0007964001018957893 -0.000515703556506426 0.44907270969037766 -0.3350886163932488
106894000.0 0.531976237912975 -0.8402922397505274 -0.704942121269461 -1.5073678733902725 0.004661141169824407 -0.0011531653636699115 0.4479851034234153 -0.3412755424517144
107893000.0 0.5250590183400503 -0.8463612028441418 -0.7527765010745748 -1.5535139291071451 -0.0004237644191601795 -0.0007513076912709171 0.458641597243989 -0.3419972566475974
108892000.0 0.5153656597905745 -0.8474320808115691 -0.8129054155900274 -1.5907630220131486 -2.826795939173214e-06 -0.0026662496353006254 0.4402485947500478 -0.35426438603620347
109891000.0 0.5035603040049181 -0.8570320976319816 -0.8769485654340363 -1.6275384617523438 -0.0004701478347673004 0.0012645045637970703 0.4608373292781095 -0.34000920832356774
110890000.0 0.48757788899594345 -0.87120005640281 -0.9659281118382226 -1.638410285234027 0.0007744911414940107 -0.0018847943552537246 0.45201121663363936 -0.35545911867664504
111889000.0 0.4849504418594108 -0.8639710602429704 -1.0042594504442601 -1.7091398825998394 0.0005699396592165305 -0.002333524188894588 0.44938294126024825 -0.3765402537170339
