! Created with skrf 1.9.0 (http://scikit-rf.org).
# Hz S RI R 50.0 
!freq ReS11 ImS11 ReS21 ImS21 ReS12 ImS12 ReS22 ImS22
1000000.0 1.0053039339147218 0.005038547672092033 -0.01417711503755906 -0.06856887418743154 -0.006977852498044494 0.01419342139991391 0.3231658687582844 0.3552518358709822
1999000.0 1.0000526443775204 -0.010272072625253821 0.009073871569511612 -0.021123391070330275 -0.004194479604790746 0.0063445681547284576 0.2509578422511924 -0.05307118233953003
2998000.0 0.9977306974998318 -0.02572567202833148 0.01060573409107979 -0.01633809780572108 -0.00695064302256013 0.003558346655040257 0.1903517669676776 -0.14091346521281403
3997000.0 1.0003044928747487 -0.031978177675287954 0.010516056502271939 -0.0031573062795877253 0.0036761823134001427 0.0017847392483900768 0.08326588429953202 -0.223326130381796
4996000.0 0.996835717443196 -0.03624265193937679 0.015135839757210738 -0.000995292238309316 0.0013411180714921031 -0.0006777480375230177 -0.03362954779549767 -0.2034085834306909
5995000.0 0.9937468723782605 -0.04922331111562207 0.005059602495288714 -0.0006940896755349514 -0.00022612746820492124 -0.001101727795379708 -0.11129148163309491 -0.11431658653454667
6994000.0 0.99528888511739 -0.05816551017736266 0.004320683925116907 0.003802574572435938 0.0015727015500223438 -0.005580747346104939 -0.14777662655865237 -0.021399216005139107
7993000.0 0.9946158267226861 -0.0674727720751685 0.003747772977326039 0.005999422757642998 0.0023609412778382963 -0.005010177436728091 -0.17437301211833225 0.036061139607338435
8992000.0 0.9938464166861566 -0.07469100705129438 0.006578882100719516 0.01092799812569678 -0.0019233772037490172 0.0009943545563322028 -0.17068357282194682 0.0660971040774494
9991000.0 0.9895375308229428 -0.08353865675406436 0.002763789537754206 2.2840470987244897e-05 -0.00028009345679561726 -0.004555221346519758 -0.1410342173089364 0.08180983968970792
10990000.0 0.9895762170504563 -0.09541429196985207 0.002384945368515069 -0.004933566675104181 -0.0006163481746292516 0.0005067691493137578 -0.1479465158980743 0.11503305896402496
11989000.0 0.9882449050807969 -0.10043836332222238 0.0046004398834813475 0.00325440286519265 -0.0007778082937286076 0.0033003561921538097 -0.13063182439568172 0.1300851910674531
12988000.0 0.9850147681395433 -0.11077700460385187 -0.0029217947600798434 -0.0014439693073157649 -0.004457454216672827 -0.001354530800080101 -0.13182991605063965 0.16001345507200732
13987000.0 0.9848482373303796 -0.11781286364079388 0.0026544196373737027 0.001814422343812174 0.0007729727967225315 -0.00221702816176429 -0.10469758562215548 0.18836896470727713
14986000.0 0.986050906850205 -0.12710562800241457 -0.004286601326193779 -0.0027555295128112384 0.004524237263766941 -0.00043088285930473186 -0.10728279576883427 0.19843342716644946
15985000.0 0.9854909064810503 -0.13674737421668418 -0.00011572969047091923 -0.003346337841854062 -0.005328060481019614 -0.000605074188474472 -0.07786748703284231 0.2131765298371285
16984000.0 0.9842396355631499 -0.14344719453693752 -0.005934367326397759 -0.00555491121918998 0.0010272581013565708 0.0031307728633992744 -0.05834273911473345 0.21663566309839233
17983000.0 0.9833243303186989 -0.15047693455238312 0.003215593338882719 -0.004551072607840166 0.004871495671590232 -0.00023675338252838817 -0.054484306266556204 0.2301292777539227
18982000.0 0.979378145167872 -0.16457405532932123 -0.005679190600526495 -0.004242468721003315 0.0021306573973613693 -0.0028499880105132503 -0.042900522610968564 0.2343745418591912
19981000.0 0.980618360255184 -0.16695105736542712 -0.004186563207693033 -0.007309253984210087 -0.00032101452129563876 -0.0016869832937268028 -0.022794172150633323 0.2304480182503796
20980000.0 0.9780751248311907 -0.17687546379995966 -0.006091593826332104 -0.004109712159445306 0.003864061558868033 -0.0006911305718917009 -0.024639464889953968 0.25189176330832397
21979000.0 0.9746744039335546 -0.18749889114810792 -0.004851351614449487 -0.00466192497612074 0.0008359046936110645 -0.003307167203880081 0.00652472884985027 0.2434162531003958
22978000.0 0.9726746936877505 -0.1960070283853125 -0.005362674004031189 -0.0007349942104561758 0.0017264535295835929 0.0023654458234101143 0.019082017127798025 0.2628553065538043
23977000.0 0.9742658866295827 -0.20330482826257024 -0.005556897007591055 -0.0012584088236839294 0.0006498445774826443 0.0033194648152249486 0.03923722368784088 0.25930953716105454
24976000.0 0.9699640916046615 -0.2135270190457026 -0.007813626119148334 -0.004149637217717102 9.123246619724296e-05 0.003917279103460918 0.045453627867179956 0.256900061708268
25975000.0 0.968867318279921 -0.22798404421817386 -0.00454008087073153 -0.0030415234632035367 0.021061611815552213 -0.007682393355582055 0.07349585597158026 0.26399594386864117
26974000.0 0.9667784377870376 -0.23039497388192945 -0.0041691111822805315 -0.004270841392311758 -0.0019474120588200297 -0.003521982560144547 0.08298213839533863 0.26966723267497084
27973000.0 0.9687193248365127 -0.23526670857835194 -0.000841411647875571 -0.0032470838367218546 -0.0007054837217551299 0.0037850332321635607 0.09288774781560141 0.24739061960338196
28972000.0 0.9633756722297203 -0.24390741431521568 -0.0021219324762421017 -0.005063216938545006 0.00011241814828693836 0.002432465435765067 0.11388869047104032 0.2574797314601512
29971000.0 0.9613685576229473 -0.2557254880804296 0.004900077199686419 -3.0419546056810122e-05 -0.00080017180793252 0.00019560914915975274 0.14560745803065148 0.26015114156553704
30970000.0 0.9596273675999181 -0.2604349374762372 0.0017862753904732726 -0.00036853515253033566 -0.004754652081862283 0.0007336419746624746 0.1641316797746844 0.24814596414880588
31969000.0 0.9585510382319633 -0.26964818432436205 0.0027672540374999222 -0.005593065688371663 -0.0012972446434437112 0.004216259052425099 0.14459275376345837 0.25188857049715435
32968000.0 0.9567716130055648 -0.2786924423800004 0.010327514222612133 -0.007046168061020409 0.0011628887282467218 -0.0021833575452767057 0.160122158257257 0.25304979834024355
33967000.0 0.9547316725771089 -0.28693493802622955 0.010097043926791217 -0.010647536249783263 -0.0018790707609542966 0.004016839335575502 0.18095010910221374 0.24163434100702025
34966000.0 0.9495983405322592 -0.29891363353212846 0.01569056031022213 -0.009290938009462879 -0.00035804142773660294 -0.0014259898244897594 0.18808089936526584 0.24516242737000454
35965000.0 0.947003680501163 -0.30649670700066434 0.018164469435373445 -0.014054572515070808 -0.0026263533499754103 0.0011673602821635402 0.20565864318986604 0.24524423728663508
36964000.0 0.9445953126692415 -0.3152677403942531 0.01659652469143729 -0.012391126455109409 -0.0010964501889660977 0.00044037522237883514 0.2034780478417756 0.2586286248880817
37963000.0 0.9411237451668365 -0.3250623709092572 0.02397395996093046 -0.018541469512465922 0.0026582553399482098 -0.0012159314729608857 0.22185773862234462 0.23977543632820153
38962000.0 0.9384830973664331 -0.3349497392259115 0.021993518201430896 -0.025418753998245627 0.0017212381890069305 -0.0008337953722137959 0.2370650492480924 0.22860057630942124
39961000.0 0.9366983448881776 -0.3411611605044584 0.02699403459971644 -0.029676623994641167 5.67142515562563e-05 0.0006271886360738878 0.23945052584675747 0.22787680782324327
40960000.0 0.9327123731991234 -0.34963410650887466 0.024081792373076873 -0.025356912256424603 0.004278599929934483 0.003327002390315437 0.2590445612131592 0.23413440583323458
41959000.0 0.929610784528613 -0.3583979287232232 0.031045802758579117 -0.03023893871774275 -0.0002022228294779541 -2.731285400997673e-05 0.2627922603108565 0.2150509592857261
42958000.0 0.9244665003660482 -0.36768230212773556 0.03366429811559152 -0.039663233952926494 0.0006672570956456067 -0.0034693041158357085 0.2784637477029812 0.20141594182241496
43957000.0 0.9224205146824352 -0.3749922349302599 0.035553360080471434 -0.044386099444176666 -0.0012279099689795647 -0.001079638700575616 0.277732531535448 0.20183104742311417
44956000.0 0.9192199885492494 -0.38303299949419195 0.03605044787753305 -0.05191256932583161 0.001682361814042098 0.0018338698202307005 0.2935259616628789 0.18877541303327117
45955000.0 0.9157477995742639 -0.39149830131801827 0.03603581192438499 -0.05568096834646783 -0.0027485176946990273 -0.0028835438228725333 0.29488870476321755 0.19494193379586627
46954000.0 0.9125664565949794 -0.4002452019983295 0.04145071414650632 -0.06418737135188371 0.0026715881282985787 -0.0015240606770513109 0.3133942057032121 0.1870995968799847
47953000.0 0.908305108365142 -0.4104221112072152 0.038909632018710075 -0.07261644107238092 -0.0034083059063935678 -0.0025149707088637668 0.33622286829499176 0.17640660268110328
48952000.0 0.9029885498764993 -0.4192688365928677 0.04199166072505594 -0.08259005182733446 -0.002712272171393658 0.0014229032107221954 0.3262668482857722 0.16650697419528387
49951000.0 0.8994312913729546 -0.42587668984012156 0.04189614879034102 -0.08683023954773825 0.002108858276282454 0.00189655160632528 0.34959965150914185 0.15645366697424049
50950000.0 0.8957613922964072 -0.4332316283366232 0.04074294004239822 -0.09663523390498698 0.0013696932932549507 -0.00044301516997548535 0.3479514434214019 0.15628761281996398
51949000.0 0.8919224636384441 -0.44210050852507315 0.04370076906274546 -0.10376313172112042 0.0008762648561248952 -0.002121490659113166 0.34859993436970227 0.14024893428272195
52948000.0 0.8903099284121535 -0.4486005852155638 0.046484028379523014 -0.11514567176972697 -0.001960964099306736 -0.002264574280020446 0.3628973753427817 0.14318438646137427
53947000.0 0.8824896835321051 -0.4601329864945622 0.048313338830428064 -0.12303881133344167 -0.0010993354731395175 -0.004373865115924028 0.3642030008935704 0.12831235244168035
54946000.0 0.877386455381463 -0.468460490298971 0.049116459875782885 -0.13326116383294354 0.0014327352559545489 -0.00018775640995942984 0.37463001328457946 0.12933846735753377
55945000.0 0.8751271308955909 -0.47628210418978695 0.04819769475161655 -0.14553573739367245 -0.0003680738670690823 -0.001876062508813822 0.3785160634585234 0.11490247625209436
56944000.0 0.8690328373157681 -0.48307677393650983 0.050938907789242927 -0.1545891444401223 0.0005510115763402034 0.0009973163856134544 0.39924368834979784 0.10073002289218197
57943000.0 0.8648757259752513 -0.4939043740480358 0.05369597685051333 -0.16288814007480448 0.0011381638853446556 0.002031466686853899 0.3895768527043536 0.10244956742480851
58942000.0 0.8588451847994688 -0.49952574826906176 0.0561738147621589 -0.17642706891150986 0.0002003332146047279 0.002027931566513559 0.41035125448870874 0.0970579710943568
59941000.0 0.8569807317329305 -0.5069325937188207 0.05786990268831715 -0.18597487381526762 -0.0008088111373940965 0.0022859744260284864 0.416688313587632 0.0867098388095911
60940000.0 0.8492266904505549 -0.514950317718513 0.06091590371149789 -0.19046014488929572 -0.0017238124916160713 0.0006253484907420757 0.40388482121791247 0.08611198743969913
61939000.0 0.8456874184877801 -0.5217653477498044 0.057132530116710635 -0.19918992953147294 0.0011785329827583553 0.0006590174486117146 0.40661017494728574 0.069908005493632
62938000.0 0.8390171862066264 -0.5323038504265353 0.06119844090991737 -0.21538034243004944 0.0009615074067246079 -0.0003736964258883397 0.43318604466308575 0.04310201874206196
63937000.0 0.8358042162056522 -0.5401470311136176 0.06304283214280502 -0.2378306442507023 0.0018797823919662914 0.0006763669475879849 0.43348240226373913 0.058194623331523206
64936000.0 0.8273201869980694 -0.5470436927901459 0.062425625318798326 -0.2520649363242873 0.0028554455924869175 0.0027508825159114005 0.4331509663829216 0.05215954337214944
65935000.0 0.8241794046989176 -0.5581405289737861 0.060490251067094464 -0.2689152368886521 0.0026081881750802806 -0.0013037450939395309 0.4321775487385254 0.015166998767373678
66934000.0 0.8209366468046422 -0.562756333450944 0.05978646830104635 -0.28181936030664745 -0.0006265415279703898 -0.0020291741429341466 0.42736592898461384 0.016297665817115833
67933000.0 0.8144682422416633 -0.570358251976576 0.06198698309591256 -0.2956137831337826 -0.0004574102222113515 -0.0001618293750885854 0.4344435381292217 0.011427774866678257
68932000.0 0.8127118879221862 -0.5656162839098214 0.05930107683511831 -0.30838302810544777 -0.00290548000932952 0.0050044191883061254 0.4379982298145225 -0.0055404899877814304
69931000.0 0.799271818313662 -0.5868669682905764 0.05896060971902233 -0.3293086688144136 0.002570497892303273 0.0012006579942220974 0.4390700263117754 -0.00767405594043304
70930000.0 0.7964037619509063 -0.5922233801898099 0.0518258081223552 -0.3433467309602275 0.004033411516036904 -0.0005313006174143677 0.43769228500930524 -0.037858560083857955
71929000.0 0.7912141711482468 -0.6026323924078366 0.051899615040735224 -0.36241928078122926 -0.0012120814223732838 -0.0031859251747706754 0.43646308495568814 -0.043187202798673247
72928000.0 0.7848868069241185 -0.6129454949312063 0.046536333588077336 -0.38005912325924923 -0.00024820899015831545 0.0029703676768865115 0.4517430812430212 -0.049452282419531916
73927000.0 0.7788939351035675 -0.6177716099562035 0.03805014944600837 -0.400650587641462 -0.005713664826675165 -0.0022856990743348204 0.44997555518534244 -0.05222229436402478
74926000.0 0.7751297999808069 -0.6275420538535359 0.033712662638594106 -0.42176341189567274 -0.0029940304093664973 0.0027112589352160164 0.4549437863893367 -0.05264756175193306
75925000.0 0.7677666423058758 -0.633585826309555 0.024564374621380943 -0.44468624840616605 0.002854565388689229 0.003867481634073717 0.4643233071624063 -0.07178050696230649
76924000.0 0.760525237116495 -0.6410172005561933 0.012083524899491271 -0.4631438442862577 -0.0007956681185161549 -0.0048187461265433934 0.4523493988786041 -0.0764481391674482
77923000.0 0.7565474197178664 -0.6451254660670578 -0.0019545220354678186 -0.48956457560188404 0.0041363948783914115 0.0037951865360898005 0.45472980236148486 -0.08679436772789441
78922000.0 0.7479266143687306 -0.6564179078239166 -0.01697519457913718 -0.51783751776847 0.0044828464263329615 -0.004019627179728712 0.45678134782216334 -0.09591480359031047
79921000.0 0.7394354501972957 -0.659876819598569 -0.03461883893878214 -0.5486966382695821 -0.004550330430768211 0.0019656935506138238 0.4514994887481231 -0.11175015134300015
80920000.0 0.7340316070312024 -0.6717287628747117 -0.04976663153412249 -0.5781110412954823 -0.000553505507125655 0.001002568697754708 0.45674103744047684 -0.1259924222395812
81919000.0 0.729127737187707 -0.6773136154378814 -0.06562906736303493 -0.6074394529358941 -0.0024811355637843085 -0.00020596142438624465 0.45274759723104885 -0.1283255764316373
82918000.0 0.7195056829932539 -0.684974504279839 -0.08037366114911011 -0.6386837277553642 -0.0016896091279204684 -0.001066774875113224 0.4720238320128401 -0.13540904482313612
83917000.0 0.7117309510145464 -0.6922359158241715 -0.09769931419784814 -0.6690426532107427 -0.0006135694630291791 -0.0009093178557551176 0.4664297237348525 -0.1565548488984905
84916000.0 0.7069374141991276 -0.6994833075960077 -0.11036063696575014 -0.7040196490564123 0.0013458066487413917 -0.0012967249949790683 0.4671138588376468 -0.1691760317887938
85915000.0 0.7002498637836103 -0.7057127275266016 -0.13746933639705283 -0.7347281341363987 -0.002784976310338877 -0.001554516898605883 0.4642737917677509 -0.17470741641554619
86914000.0 0.6915407820623786 -0.7162050606918063 -0.1527767262275145 -0.7712798225755703 0.003478238841666535 0.0015672169426477764 0.4440058434297462 -0.1668939542171607
87913000.0 0.6858824271263992 -0.7207100961490684 -0.16803276530194008 -0.8019657988256003 -0.0013334623621338547 0.0017446764760471784 0.46008919507596 -0.17981791506786862
88912000.0 0.6805960499371642 -0.7284094692162707 -0.18521849245971123 -0.8399081882056824 0.0038204093289350917 -0.0015825520644154878 0.46215475831213876 -0.19779553825718274
89911000.0 0.6703438874523682 -0.7363941040972877 -0.20007488825220932 -0.8768579894577376 0.0060692629704376675 0.0023779150089467344 0.46496145606092304 -0.2014059541888132
90910000.0 0.6623977186044557 -0.7425633516896807 -0.2189823613040657 -0.910800951707724 0.002464991551784667 -0.0012714015786250297 0.4590935813778613 -0.2007694764316752
91909000.0 0.6543519507343339 -0.7462829707424469 -0.23607516299014228 -0.9495461255400802 -0.004668760291375836 0.00020208848535536954 0.4553017560415942 -0.21360087918929696
92908000.0 0.6469153890253265 -0.7548820411390182 -0.2549910849379254 -0.9805253408143921 0.0016975982603095571 0.0008748819548818948 0.450132201751471 -0.22071233572995638
93907000.0 0.6399886824925316 -0.7598806286980038 -0.27579232802107656 -1.0122237716679623 -0.0019282822615199146 0.0028139823932831643 0.4511768098582208 -0.24951506192243955
94906000.0 0.6271544587600203 -0.7673649723485076 -0.29577456330772867 -1.0467323242281776 -0.00015397155390363206 0.0001847249720679392 0.4606965119184703 -0.24328126133377972
95905000.0 0.620526371851397 -0.7731103226971826 -0.31736836931806867 -1.0832045855411572 0.0010566748596655979 0.004839754706041484 0.4466394620075616 -0.27267816297165404
96904000.0 0.6124551714674766 -0.7832845756420485 -0.33926474253189637 -1.1293996988395056 0.002978757200966516 0.004957580911401258 0.4483995518421762 -0.2752069465542894
97903000.0 0.6030585977015388 -0.7890867469057211 -0.368665611189252 -1.164245803544275 0.0021151439759663415 -0.0010420598333269048 0.4475424728545488 -0.2751472370209002
98902000.0 0.5966630100999768 -0.7936772804902726 -0.3883516432037692 -1.1999470326151618 -0.0011175114255648232 0.0035203963056816595 0.4461611161042611 -0.30188820057531235
99901000.0 0.5861668543594359 -0.8016069052418173 -0.4253947010560285 -1.2346579132899331 0.003336561233390782 0.000578233884083927 0.4526686543797054 -0.3154362409997729
100900000.0 0.5810029227926454 -0.8051261698761277 -0.4535398395558715 -1.2676868854431818 0.0015773690412601029 0.000436720721073759 0.44885917227396627 -0.3119640372407209
101899000.0 0.5695443592707946 -0.8132944789704527 -0.4864224396464614 -1.307708978673919 0.0017161119168177259 -0.00046844344800326857 0.43723167785806183 -0.3208503559315839
102898000.0 0.5584533305910153 -0.8191336381109021 -0.5204979804888064 -1.3469226413684918 0.00610238636603217 -0.0007128954300349272 0.4412091257218297 -0.34218068615832
103897000.0 0.5501065604958466 -0.8258684611634164 -0.5668040697003232 -1.3822496817923855 0.004636122765523029 -8.057363565774198e-05 0.454335560085972 -0.323842167376897
104896000.0 0.5441014143212417 -0.8359493682506284 -0.6157562071914784 -1.4228884031044617 -0.0005414894157180316 -0.0021877596541874395 0.4340608293226941 -0.3287896893041128
105895000.0 0.5304197665787751 -0.8373085116923855 -0.6664618290614467 -1.469617908292176 0.003174739583115657 -0.0002958946653027461 0.42854723414511603 -0.3586794789175582
106894000.0 0.5228195663416134 -0.8432487362809192 -0.7245494772437675 -1.5089429609106446 0.0010841214348506405 0.004361110058115639 0.4355099511094945 -0.36216943597935713
107893000.0 0.5150851126355781 -0.8508927995824114 -0.7734919977006749 -1.549344248599716 0.0008880440480055606 0.0013965527694297475 0.43048517835476674 -0.3710303652881589
108892000.0 0.5049788851880859 -0.8527592995377993 -0.8362615057708555 -1.5895978819078307 -0.0014725981859408678 -0.0007388958177900764 0.42386219558925065 -0.3650460165503246
109891000.0 0.4927370846415546 -0.8626045409571766 -0.8961781060046147 -1.6238116709821928 0.0034310553041150492 0.0020551920788588083 0.4376126897901269 -0.3751918622407076
110890000.0 0.47580548917770804 -0.8742156179623891 -0.9776628210137093 -1.6298772493987133 0.00034780500062375286 0.0008390828446387825 0.42319657347252804 -0.38043564886996495
111889000.0 0.47112778806226 -0.8666480742519204 -1.0247454277258607 -1.6997598221086834 -0.003934487009056649 9.752185698327348e-05 0.4212436913018334 -0.39782100080866223
