! Created with skrf 1.9.0 (http://scikit-rf.org).
# Hz S RI R 50.0 
!freq ReS11 ImS11 ReS21 ImS21 ReS12 ImS12 ReS22 ImS22
1000000.0 0.9897862564905716 0.0012238436544540806 0.00433931399862911 -0.03893525807964937 0.0054740091618787606 -0.002905065528859443 0.3445854101930612 0.26141986721571053
1999000.0 1.0017800928137202 -0.012932551151810906 0.01317160008120576 -0.029788036700507475 -0.0060303501152468054 0.0009589099305940291 0.24870809049989945 -0.03860256306132817
2998000.0 1.0013111314506336 -0.022007519485206798 0.009899774309801304 -0.015418615213598077 -0.000992162212877275 -0.001299442709662288 0.1825560874389962 -0.12193520378859246
3997000.0 0.9980683719706852 -0.03446602280559874 0.012577831307793878 -0.010927563858549634 -5.361094402477293e-05 -0.009309392749455614 0.09307135010679705 -0.224704248501754
4996000.0 0.9943532160059041 -0.04004189908240971 0.013436510449643555 -0.002883421825716716 -0.005975342488903474 -0.0016182903072084543 -0.027913952528589085 -0.19532308264255835
5995000.0 0.9936664037791056 -0.0508367428912327 0.004905716043581889 6.40386967982853e-05 0.004350608015848782 0.0007743912700233147 -0.1289406951033744 -0.11994485988260875
6994000.0 0.9914195339968052 -0.059068219956654386 0.006629372062716335 -4.865981094462756e-05 0.00018655345392575026 -0.0005245212082808214 -0.14790748370853257 -0.012428456875259118
7993000.0 0.9928724367019764 -0.0701300364571392 -0.00019801214481886563 0.003527795892300068 -0.003771906082973067 0.0009856088273401242 -0.17127920844078065 0.02570009165624931
8992000.0 0.9915360193657098 -0.07284593002805866 0.004348247549138181 0.0053347509520514464 -0.00130162294498499 -0.0060345378489482186 -0.15905569723115529 0.06615918664404105
9991000.0 0.9883788085101375 -0.08449654879485333 0.003943417478636085 0.006348755923776517 0.00027309572293923257 -0.001171803257201608 -0.16168130876991701 0.09274663150458214
10990000.0 0.9886634809257149 -0.09504828409207886 -0.00022979317504207927 -0.002387429843011953 0.003813775952777901 0.001680052081845386 -0.14109497488885564 0.10949182635755601
11989000.0 0.9885693900095 -0.10010687345654827 0.0034506562038468624 -0.002656023383585537 0.003968340101221094 0.000995602206782187 -0.12384577818400254 0.1363009717756951
12988000.0 0.9857889766480507 -0.10929569059752012 0.0025082004037821834 -0.0007151974425624664 0.00235035668882181 0.0014214309751481352 -0.12823809930516997 0.17328287127871977
13987000.0 0.9835939024618959 -0.11918767455059423 0.002422386937485216 -0.0030982824459530795 0.0011512145639939017 0.0005129617854619685 -0.10698514086478206 0.1908086704296813
14986000.0 0.9850508892657485 -0.12496912646233148 -0.001913545562062898 -0.0014571201240492796 0.0028728511344285456 0.0016964516458516043 -0.09787238174683803 0.21040603450255702
15985000.0 0.9872832433690426 -0.13137694467334762 -0.0017048636658913098 -0.0048585987094247295 0.005958482541037163 -0.0006998089250047501 -0.06682314530720247 0.22628801842108767
16984000.0 0.9813742300741142 -0.145315812310428 -0.0012378780113484278 -0.010319616251679133 0.0039739439609853405 4.2029668422486076e-05 -0.06809222854479985 0.211891715811267
17983000.0 0.9827939500877019 -0.15154161610597902 -0.004453710020105828 4.840242358537494e-05 -0.005020348872742682 -0.004707639344942566 -0.06093178878569066 0.22328018556185406
18982000.0 0.9786492566649196 -0.16244166077149105 -0.0012082679934138905 -0.007508175712714211 -0.0018051946957284124 0.00043347515756961735 -0.027791430321112275 0.2372722649285347
19981000.0 0.9800194530359695 -0.16606845488255456 0.0002734985436241223 -0.00342364030266199 -0.0013760429076798014 0.004523271356300008 -0.014859341400720882 0.23971462062289156
20980000.0 0.9771721275546326 -0.17699101862906158 -0.006118047288403178 -0.005809687685664567 0.0019156443922044614 -0.0014196360503719255 -0.011583697587628141 0.2574635665308023
21979000.0 0.976217882230008 -0.18579962638110506 -0.003744843636954069 -0.005473114393666975 0.009683379219939399 -0.00048312418434793647 0.005270173849685064 0.2511551886965589
22978000.0 0.9729932515295806 -0.19517936003300682 -0.005702307328535881 -0.005769552540165137 0.0026458294125618876 -0.0008674229805253131 0.012336993717975418 0.2548576672120394
23977000.0 0.9748048269801562 -0.20129662003170282 -0.004982467576620341 -0.0024831853727877488 -0.003145557288666011 0.0002307394758599698 0.036857519593227105 0.26046500878427964
24976000.0 0.9701024950469939 -0.21159000033460282 -0.001310508869341825 -0.005758017360148926 -0.0003202773535764161 -0.005185835364066438 0.0560393915292867 0.248644372224644
25975000.0 0.965062476914322 -0.22381955347108054 -0.002897399197277734 -0.0028301422440779097 0.0006460499843606217 -0.02532738856020359 0.07175607708873337 0.2616610926252425
26974000.0 0.9656916877336601 -0.2283815481143671 -0.008214105464426573 -0.0027214263143207668 -0.0014314146467543666 -0.0002943522410617462 0.08162231772285516 0.26633662175523154
27973000.0 0.96754902884471 -0.2352564962538941 -0.006011380485630607 -0.0006874966585224406 -0.003313733546046261 -0.0008372298309566341 0.09791212720233294 0.2536226594602978
28972000.0 0.9634472608082373 -0.2464125712115848 -0.0010102861956386017 -0.0013256897640858817 -0.0010473754225621586 -0.0007663100085975258 0.11688799165656492 0.263012921263376
29971000.0 0.9614879462422832 -0.25315622371926066 0.0022405802574827815 -0.002884669935153482 -0.0007014930664804781 0.0016567619847705389 0.13935006362044614 0.280061292021903
30970000.0 0.9590092152932974 -0.25965998926776174 0.0009739744091394772 0.000950124061350625 -0.0024175071539116583 0.002504634126451597 0.1643710972754893 0.24875079409210266
31969000.0 0.9556347686286311 -0.2694614074503115 0.005343257003078193 -0.005766840300533373 0.0001742973248391016 0.00019179267485212433 0.1445237764050012 0.2510082511664452
32968000.0 0.9555449054562404 -0.27731754871559194 0.00849671240389387 -0.006180620046016099 -0.004247475689744304 0.0008264031751270991 0.15178429603952734 0.24491461846281273
33967000.0 0.9545360867558671 -0.28602219973595727 0.014755779482021772 -0.008924380299519138 -0.0016712248489353407 0.00018834225173881608 0.1763171938386952 0.249135697961669
34966000.0 0.9497225238558527 -0.29674696731368566 0.01204792635887363 -0.012746592012814953 -0.0007601520476638958 -0.0007833692198716939 0.19283640420079867 0.25283515040418375
35965000.0 0.947343037485531 -0.30589887940247174 0.014697507723691864 -0.012321701893895096 0.002069062991054588 0.0032901493327732465 0.20137152841887354 0.2462725251550542
36964000.0 0.9453888336868829 -0.3140000206324124 0.016702836308489375 -0.014360692280381511 0.0006392282541160037 -0.0005928821101870134 0.20268405426102815 0.2493754923269578
37963000.0 0.9403385186221151 -0.3243821031138522 0.02018463632172938 -0.01745857233480226 -0.0001331153857559262 -0.0027917990292567717 0.22160678263795103 0.23808299014179055
38962000.0 0.9387674192617093 -0.3342321801273931 0.023340915326518948 -0.02558824617300437 0.0016453583346974921 -0.001879517591548825 0.23013455207335523 0.23256061846967158
39961000.0 0.935410917689129 -0.3407063999002392 0.025598004320026634 -0.027368048577161977 0.001045413937459156 -0.00443308142892392 0.23558722907738072 0.22865989598668532
40960000.0 0.9332752351570553 -0.3478349101837581 0.02042664673815437 -0.021774197833322066 -0.00015272858510225395 -0.0010596833497760847 0.2625965698202467 0.23466525124875287
41959000.0 0.9312942142891856 -0.35736737293083787 0.030050736718036607 -0.032200478275069874 -0.0006865199694782343 -0.00014218364456436043 0.2559150813013272 0.21340098084014306
42958000.0 0.9245800904665935 -0.36644023518547436 0.029774036966891446 -0.03765824127590375 -0.00041441677136610643 -0.0002916247767465794 0.2701545550128414 0.21763511044593348
43957000.0 0.9224657470455757 -0.37388836716946394 0.033691862132571526 -0.04545488297696731 -0.0031106714225559704 6.171177367094914e-05 0.27130168007623373 0.21714017801598326
44956000.0 0.9192923777650185 -0.38168478222630065 0.03681098644091776 -0.04850343316639111 -0.0021164883111844976 0.0027286990183271213 0.29663936412341707 0.20152419188140852
45955000.0 0.9151001167076654 -0.39225548551246164 0.03346276502907634 -0.05533889301186667 -0.0010823191189892434 0.0004840333017420889 0.2943887007250194 0.1940026979565876
46954000.0 0.9106785293067204 -0.3988461328241115 0.0366126614011499 -0.061892980915809415 -0.0048677730019057565 0.000498892634122238 0.31140915139329056 0.1804067989309456
47953000.0 0.9098367604245937 -0.40763614710680457 0.03867283273675769 -0.07101542182825335 -0.0008904297460495479 0.0022965944714237506 0.3216954672268658 0.18817334132041255
48952000.0 0.9023569517203262 -0.4178206692098906 0.03568525309806999 -0.07676221634044111 -0.00011370488150471815 0.000277488134155477 0.3220371016037681 0.17161955827831618
49951000.0 0.8987211091383908 -0.4258702716075175 0.03600659111195407 -0.08799503321742967 -0.00022913579601861644 0.0017868552834650363 0.34127670622897704 0.15865185415084349
50950000.0 0.8958514689312127 -0.43188178308628444 0.03752519285356597 -0.09439349086914142 1.1013675898067422e-05 0.0021194860330936865 0.3376496673786943 0.1541523118187239
51949000.0 0.8908390497258065 -0.44346980881861847 0.03786310475930812 -0.10476685951309057 0.0014734910954901895 0.002783335106165106 0.3530691961059046 0.14668443174083018
52948000.0 0.8901001504942013 -0.44946247745078793 0.04235892138878285 -0.11073244649166257 0.0008191770475038775 0.0005887769837237441 0.35937372129832323 0.14088680356298497
53947000.0 0.8823389378003849 -0.4597442478621005 0.04277961944859266 -0.11873412783135939 -0.0007587862167275131 0.0001101121839959023 0.3697116482105792 0.13511765439947845
54946000.0 0.8763497531531593 -0.4678142082476727 0.04015442571524236 -0.13083169511215195 0.00016810369652699823 -0.0031592708573713016 0.3745379784221557 0.12876428046801205
55945000.0 0.8746744791773307 -0.47603574789911024 0.04341576742946761 -0.13757746252246544 0.0018660786989923327 0.0012643397171911836 0.3773734719904355 0.11273660796730585
56944000.0 0.8706623281035234 -0.4834954023787122 0.048300858692072034 -0.147729418984908 0.0005567060499303968 0.0006276942863559415 0.3919447360982748 0.11885785763298835
57943000.0 0.8655039091245647 -0.4956221411832781 0.04970002219696273 -0.16215238062582185 -0.0017682073599867639 0.0011396664556301717 0.3998533106244924 0.09772133552952078
58942000.0 0.8593842336585857 -0.5023930869877145 0.050790218561454645 -0.17053964873729413 -0.0048097780216432365 0.0019615552460529057 0.4067187928266023 0.09430216113659
59941000.0 0.8575375641712386 -0.5061552124509424 0.050155932575083696 -0.17798496961733498 -0.0014445068332258769 -0.0007686645556344773 0.40823257461834717 0.09512251355507594
60940000.0 0.8487549860608998 -0.5153378999275735 0.048853780562722354 -0.18382378789288772 -0.0006593928800606088 3.472168103017378e-06 0.4042150751012372 0.07774368357436602
61939000.0 0.8464376298472568 -0.5217814696638415 0.05132274108995849 -0.19028615348843197 -0.0014565532076731423 0.001698818622577784 0.4130502667997033 0.0714266439932179
62938000.0 0.8401585772318563 -0.5323375925000441 0.05759289298347434 -0.20946955672592157 0.0014249305549609373 -0.001085541225213817 0.42549809378150794 0.07217110595240359
63937000.0 0.8357677482960039 -0.5391472911016314 0.057130026845627714 -0.22784830151376564 0.00378727796349407 -0.0015245910931565253 0.42279379363097536 0.050922487071413135
64936000.0 0.8285254155646637 -0.5453382983776228 0.057751631677815336 -0.24306921754010719 -0.00019336870134346794 0.0010355689101729255 0.42786565982010905 0.04495033462381303
65935000.0 0.8250215055478541 -0.557082446670645 0.05647886350088161 -0.25272763625472144 0.002405668188789509 0.0021304411907504517 0.4322730461443664 0.02900279949672713
66934000.0 0.8199198290998677 -0.5632978006754896 0.05606015011793993 -0.2666721585317898 0.004226158362409996 -0.00046491802071017016 0.43187709845032074 0.01088789398790956
67933000.0 0.8178207351767318 -0.5703198837564667 0.058125397559042266 -0.28434672977891495 0.0006725829343207048 -0.004623973320564204 0.4292106444572445 0.02473567871515421
68932000.0 0.810541508746836 -0.5657378661256492 0.05622723272232543 -0.29649032594781144 0.0029815458050360647 0.0019136845186372403 0.4441027878035113 0.00032853460912333105
69931000.0 0.8030775730238349 -0.5862482025142142 0.052826664436041705 -0.3120880383060553 -0.0008863093583197722 -0.001814587817592412 0.446920943208851 -0.014821957109672294
70930000.0 0.7967769187299423 -0.5924183648514105 0.05173136651536845 -0.3244752153339491 0.0034277480005957066 -0.0054531587042843475 0.440560347201927 -0.02773770694050816
71929000.0 0.7910006954926232 -0.6005583458450863 0.05067048585004958 -0.34555724386267744 0.0024823729575766426 0.0006664927547372079 0.44649208215155395 -0.03570861693667255
72928000.0 0.7861480878608299 -0.6110481400886193 0.0405544173565026 -0.36268141690316125 -0.0032095697094696057 0.0017727061780947206 0.45460529759974494 -0.05056493219700158
73927000.0 0.7776625164646133 -0.6153327278074239 0.035901969883920484 -0.3811052176374578 0.002145023600520352 0.0017457501360190995 0.4433531231121678 -0.04683806414548955
74926000.0 0.7729466301378787 -0.6252087087361285 0.02625410656879768 -0.3966309699400926 0.002519174313298941 0.00028478466313305997 0.45562352818696655 -0.05640180368986872
75925000.0 0.7679425960942442 -0.6298038453121992 0.022405130756818395 -0.4145097747140106 0.002839976122547103 0.0012497328570871948 0.45862981518370843 -0.07380166061517493
76924000.0 0.7595843933418608 -0.6380068529032249 0.007436663058513661 -0.44176166381767906 0.002895578033490157 -0.0005037079689991763 0.45257009834710715 -0.08061580587012519
77923000.0 0.7553410742956117 -0.6462081685756931 -0.0027705568642780094 -0.4615237840617337 -0.0015850461057798375 0.002655063761014445 0.4502622659462862 -0.0863068604162837
78922000.0 0.7476390580902931 -0.6558934038804318 -0.01773706709611653 -0.4895569159695713 0.00023498323341349716 0.0009826094299652014 0.45428552015293294 -0.10418141022456517
79921000.0 0.7403171818253199 -0.6574683762556313 -0.0378150525435501 -0.5130686454488702 -0.0027992609276766087 0.0005087856748170979 0.45006970049010375 -0.11356237829822123
80920000.0 0.7350525361608536 -0.6688026745793538 -0.04955862806119447 -0.5423374253474789 0.0018363870969300116 0.004731593475767858 0.4678550547173181 -0.13053827089193135
81919000.0 0.728240259799883 -0.6744926083683933 -0.0654094844885547 -0.5684987928315605 -0.00022747933854372958 0.0056867254423455076 0.4636776000922169 -0.1274328113702362
82918000.0 0.7208260380527698 -0.6827758729972426 -0.08597419973644785 -0.6030390787666066 0.001671586557782057 0.0017694850270184074 0.4757592403294885 -0.14710039712763515
83917000.0 0.7112531859571272 -0.6896198729059629 -0.10730275724240128 -0.6285681687583125 -0.0019435040535993224 0.003929604003019007 0.46254700890448186 -0.139152102260502
84916000.0 0.7061445832451506 -0.6980471641218324 -0.12301970782676752 -0.6635753351799755 0.0020627797392309254 0.002989847236351449 0.46529334662087807 -0.16582194424244143
85915000.0 0.7009911362723725 -0.7036358382427436 -0.13662499468322906 -0.6942797555400904 -0.0017175660212620566 0.0002489565260081138 0.4501776638543659 -0.1701672338366747
86914000.0 0.6912138658585458 -0.7143792351810656 -0.1551062128606964 -0.7300844794282456 -0.0015873641933373617 0.0011952369396108988 0.46348964332005016 -0.16748267387420296
87913000.0 0.6859026594241907 -0.7183880669386307 -0.17206699874872827 -0.7601535522284989 0.0013852150234727211 0.0003647291702269906 0.4580698103995866 -0.18477798114896354
88912000.0 0.6779681235144721 -0.7261561537219563 -0.1898782873261299 -0.7894716277182453 -0.0030015585527466094 0.0017529846133476693 0.4613367362113209 -0.20756580994442733
89911000.0 0.6708345389015267 -0.7342405175177792 -0.20028404912258183 -0.8293510645969312 -0.0016715254089247984 0.0012493122841462762 0.47122707269973096 -0.21114315019872765
90910000.0 0.664263879243385 -0.739710552630912 -0.2151567815314284 -0.8638424841283492 0.0011598041793703124 0.0035968925922822822 0.4578658740044471 -0.20443472548259445
91909000.0 0.6542309590223014 -0.744255746777114 -0.23473703963306394 -0.8926489689689365 -0.0009181306404988985 0.0017122975566113158 0.4525664843601334 -0.21353822275627635
92908000.0 0.6464042786603744 -0.7535722471877273 -0.25185271355002276 -0.9272984236104849 0.0017924407273280927 0.0021592494095901797 0.45988651329897146 -0.22525098786845527
93907000.0 0.6400168652104875 -0.7587047997417313 -0.27323779632018924 -0.9576516663229313 0.0028994320832422308 -0.0035274833815576822 0.4587978675235739 -0.23967632419540552
94906000.0 0.6284000063618893 -0.7680490748053652 -0.2875972465681998 -0.9922926848195497 0.0016178249552706865 -0.0007780715131197139 0.46451131755269665 -0.2400959729680152
95905000.0 0.6216663930618758 -0.7741400530694929 -0.31021278628350607 -1.0272798714387543 -0.003036157301337987 -0.002018877156127146 0.4602535885279713 -0.26311538889263936
96904000.0 0.6148147959310015 -0.7840758672388285 -0.3282915645820177 -1.0665989223341128 0.00396808936797387 0.0003794874157671395 0.45526148391757176 -0.26673922731044
97903000.0 0.603324050326794 -0.7877025273047383 -0.34743442070381214 -1.0987504023349461 0.005312340567506791 -0.0025409690138452337 0.4391035683944176 -0.2798817883737507
98902000.0 0.5993958927687255 -0.7941901872253161 -0.36711126908895875 -1.133803901176872 0.0018645445025390942 0.0038976536150678196 0.4463067298542933 -0.28174838295856613
99901000.0 0.587213690287462 -0.7997812383664553 -0.39426725498683757 -1.1652625759090283 -0.0004881601463414008 -0.0001884945151693867 0.4645073090543998 -0.3019916119050996
100900000.0 0.5800373596364459 -0.803051396685779 -0.4199167115739314 -1.1987323976943043 -0.00253694538636184 0.0032342311296840514 0.45197776174230403 -0.3126219382423714
101899000.0 0.5695832593940117 -0.8122776324823269 -0.4483456493180782 -1.2347012827556918 0.00040318919136446245 -3.393238637512674e-05 0.4528772134957422 -0.313544986152437
102898000.0 0.5617486097172207 -0.8164934988190473 -0.4810802970754223 -1.2736122551035005 -0.00015234905395347247 0.000363956934432471 0.4468864075397604 -0.32439980203632557
103897000.0 0.5526238614475655 -0.8239960338835266 -0.5225985867864547 -1.3056432462314507 -0.0021163008261153673 -0.0022846719290487666 0.4514686079246033 -0.3237696532098412
104896000.0 0.544845414208572 -0.8351903971262419 -0.56482096059919 -1.3399898527215823 0.0009059093032164259 0.0019826470258081565 0.4318035359182846 -0.3327956288301677
105895000.0 0.5342612762937113 -0.8374671153179775 -0.6117131652449112 -1.3794053024862027 0.004400673191595479 -0.0017380660233929153 0.4434727711626584 -0.35474101465620295
106894000.0 0.5230655458367481 -0.8445253349210459 -0.665670557209686 -1.415225318176631 0.003938949488759442 0.00039524241861456166 0.4345720431817777 -0.36461461689682034
107893000.0 0.5170214623493582 -0.8487340222002008 -0.7112982779863777 -1.456565415733057 0.001277963890811665 0.00022939967838844254 0.4314745158931992 -0.37211247260032737
108892000.0 0.505756275012907 -0.8527684132782293 -0.7732392208798249 -1.494202015943347 0.0011574034708841496 -0.002588744945487161 0.42231438186177817 -0.3662595241378772
109891000.0 0.4943240092560379 -0.8602031525529515 -0.8295670131083909 -1.524539767589689 0.00039671180226143773 0.0015801303211274954 0.4288761458934978 -0.36415742909974963
110890000.0 0.486786736313512 -0.864731612197819 -0.8901017714504487 -1.5439102423589182 0.0020144611222541087 0.0017220886562040632 0.4296343423682327 -0.3681021036924623
111889000.0 0.4724556563237068 -0.8665751367427613 -0.9538237568428284 -1.5925120981274314 0.001380144292954321 -0.0020175240646955416 0.42205111951575097 -0.39527106793123784
