! Created with skrf 1.9.0 (http://scikit-rf.org).
# Hz S RI R 50.0 
!freq ReS11 ImS11 ReS21 ImS21 ReS12 ImS12 ReS22 ImS22
1000000.0 0.9802167948535931 0.007264366392019486 -0.03075634407837655 -0.05029574129479067 -0.01498941133592503 0.012842549278957126 0.3561839345712134 0.4113572520976986
1999000.0 1.001320438914801 -0.00948182335999532 0.00795954448451222 -0.026911756201568694 -0.0017930736154077485 0.00304538478523299 0.252532738125177 -0.03221994665561657
2998000.0 0.99664341700048 -0.021846999013532542 0.0075613597685508654 -0.007510363976202513 -0.006952113561045814 -0.0028197859537423924 0.185871761665849 -0.13042638470889936
3997000.0 0.9966775436251645 -0.03467940479475455 0.008886730651887347 -0.011661460366489523 -0.004280562819901621 -0.001541232074243162 0.08334183523858733 -0.20661875435757074
4996000.0 0.9943357148405516 -0.03596492180638629 0.014350473972434125 -0.0011958571380356038 0.0057836163697080455 -0.002549644366190142 -0.024044868363950308 -0.20088692944283437
5995000.0 0.994372746376239 -0.04741749745174242 0.007246311923850178 -0.0008132746928877889 -0.0016055675898526054 -2.946251043012171e-06 -0.12808110413149917 -0.10281502832006643
6994000.0 0.9918075684114869 -0.06060259601975713 0.006709956195161581 0.004741123886961056 -0.0013202674268635685 -0.0038925452182554093 -0.14829700534651177 -0.025515835833001037
7993000.0 0.99223316753437 -0.06572831078516148 0.00435777412586543 0.005737603225750085 0.004436064924294398 0.0012296108674068112 -0.15504510481543907 0.03544025406976535
8992000.0 0.9923225187941884 -0.07359599379801612 0.002095743347150828 0.0023877088572673687 0.0039421014886725616 0.002271098013275864 -0.1610352736216424 0.06672295829482355
9991000.0 0.9898754655860345 -0.08381775984593949 -0.0012049092808750282 0.0012416307142871516 0.00035774658161219356 0.0055819766158450345 -0.13609896139402972 0.09169702626953835
10990000.0 0.9880116899566544 -0.09623744746716707 0.003869678475788783 0.00021364531479300437 0.0017632520355098668 -0.00036981871187692975 -0.14524883004819686 0.12202878680717116
11989000.0 0.9861974867738891 -0.101920917293091 0.004594522834593173 0.0008561557968044792 -0.0003374088565093182 0.0020828555655429096 -0.12839696074383677 0.13338923169336284
12988000.0 0.9861738503606848 -0.11060591280208057 -0.0018568503438990288 -0.0022286830051988235 -0.0007822288625442144 -0.001583294764668533 -0.11899159629600521 0.16326011102510166
13987000.0 0.9823372329837179 -0.12003443001861067 -0.0038543628812327617 -0.0012829464418965758 -0.004725530536911688 0.00022452157362743 -0.10400168700755465 0.18396428820176658
14986000.0 0.9834927791194507 -0.1257909772833469 0.0015208322255432904 -0.004281611074379484 -0.0005208843615313064 0.002136578937050565 -0.10072954184830668 0.19807582059060172
15985000.0 0.9823383396075274 -0.1366678625322217 -0.001988235066625876 -0.00497424314917749 -0.003634103025803435 0.0023978052782172112 -0.07131663136954235 0.22099153982039857
16984000.0 0.9824552212223798 -0.14382970526940733 -0.003498816432558437 -0.004134762728919164 0.0010762251042590717 0.0009911054480162794 -0.06695558043953255 0.22201005763860177
17983000.0 0.9821437637852725 -0.15249627718308087 -0.004533917034917484 -0.00041359249553279325 0.0016226699969375921 0.002739612493828015 -0.056654526391381244 0.22196748990016146
18982000.0 0.9801865718542173 -0.16235780369811942 -0.0027334171679398176 -0.003403825121214641 -0.002055329899334125 0.0043002070898391824 -0.023769144262502474 0.23501090955780832
19981000.0 0.9786596440591143 -0.16577235262578524 -0.005117822010090781 -0.004272028573023634 -0.003637011578962826 0.00011762369474868155 -0.03385696216984929 0.23065827828161597
20980000.0 0.9775839739035893 -0.17646870494471945 -0.0007316953680420452 -0.007131908122746802 0.0017530714169899967 -0.001503914474241366 -0.007619491633492382 0.26977474986900324
21979000.0 0.9748659343034347 -0.18640748557848053 -0.0056422315538419456 -0.0034066644925689867 -9.226483428474064e-05 0.0027083160216663234 0.016354812008752603 0.2396748657789514
22978000.0 0.9728032336121228 -0.19334652119910867 -0.005678857608473156 -0.003632056358688085 -0.0032329822582002907 -0.0010115997701774892 0.022336479590644952 0.26553043464941395
23977000.0 0.9738072534359615 -0.2023396694187995 -0.0029244404804592387 6.156066534415308e-06 0.0020612143983695964 -0.0003566508708511209 0.03763689650151233 0.2524158099176326
24976000.0 0.9697030441740203 -0.21252853056857546 -0.008796106202386196 -0.00567343654956527 -0.003484030931263648 -0.0042222450275295675 0.0550673309036774 0.25697982094622696
25975000.0 0.966493889311899 -0.21659476755397108 -0.0042875322019260125 0.002046614148770471 -0.023241384166499013 0.008627845529754749 0.07434982288569321 0.2604997545259996
26974000.0 0.9673260492743175 -0.22751225682002427 -0.0028479628164412 -0.0017472797970182993 0.0006661927560720233 -0.0011298708447522493 0.0842135996208567 0.257414268712727
27973000.0 0.964731675917453 -0.23650369891716763 -0.0034992780324627232 -0.002549171993103607 -0.0007274865215217757 0.0008210282377203277 0.10383658411389608 0.2523527853314835
28972000.0 0.9619989836683553 -0.24414040059164993 0.0002709339476652543 -0.0030503334042972286 0.0009698631603321148 0.001180959759191905 0.11646195184530496 0.2680886222079965
29971000.0 0.961615971478923 -0.2544660078765871 -0.0017597086306477456 -0.0017277693743448044 -0.0018099895040925224 -5.059931216671068e-05 0.14122781988369099 0.28526824049637867
30970000.0 0.9580606190358172 -0.25978219867940683 0.0033864207192036973 -0.0010873799096672303 -0.0016603384955919398 -0.0017174207431656034 0.16778348615154287 0.24519251190000688
31969000.0 0.9569726446458544 -0.2688920106093135 0.003505902943726093 -0.007860297820494636 0.0017891701351672598 -0.00042013750033360404 0.15452023036146445 0.24512533026808953
32968000.0 0.9545127113901429 -0.28041644455280773 0.008349074588498264 -0.010111779874764505 5.3136954916631914e-05 0.0030214764369478684 0.16298247353582296 0.23873456985770783
33967000.0 0.9531979669861637 -0.28720911526872644 0.006046376767219648 -0.011638550769993938 0.0026447774471416792 -0.0001702507413074671 0.18167162215757207 0.2509224014563793
34966000.0 0.9492784345498011 -0.2968377951081688 0.010845842115826659 -0.011319152055192152 0.0004931536444689591 0.0003266730258790638 0.2005704415194158 0.25787029685232576
35965000.0 0.9469747036647247 -0.30264128363312737 0.01801258215778356 -0.01388307876910224 0.00014897185914427126 0.0018733390574010085 0.20889700393082403 0.24431642819451435
36964000.0 0.9445702106165671 -0.31298398408348976 0.01678103729159061 -0.016749022087221847 -0.0006500564727164675 -0.0031053283149572813 0.207503295666991 0.2535202935611611
37963000.0 0.9401141241303219 -0.32483265290250246 0.02030031134666169 -0.020079521481315202 0.001983243132799214 -0.0006845663442397387 0.22293861055013722 0.23674923063861103
38962000.0 0.9379664121109348 -0.3336299330481904 0.024640530205598813 -0.024933849461464482 -0.0011355357100888575 -0.0006581196174237586 0.22868600100815517 0.23955859394915902
39961000.0 0.9354830059944075 -0.33879137815721844 0.023511922750597034 -0.027864463218048134 -0.002361469011053665 0.0014530814893987274 0.251358591955741 0.22684969656146184
40960000.0 0.9323626211991076 -0.3482518715293994 0.021457579761000097 -0.024897609037823672 0.002735940478674671 -0.003196024226527297 0.27433951986123684 0.22607564402054914
41959000.0 0.9294836979588511 -0.3573435692002017 0.029366157966161953 -0.03210073268628651 0.002183483021492815 -0.0005424385836697158 0.2621809539983674 0.21622594975050052
42958000.0 0.9245489173163116 -0.3658390220496386 0.030433346096738544 -0.040042714626834786 -0.0020649630473349354 -0.00045189040904318684 0.27795610980084223 0.20231218830654307
43957000.0 0.9224997296088788 -0.37390330656005893 0.031199770308612672 -0.0472792408697497 -0.0024607786677205926 -0.0032717850018439878 0.28948058176365554 0.2133064432261143
44956000.0 0.9187373511970301 -0.3797929314106106 0.03152196102473551 -0.051803873953161605 0.0018613201286032809 -0.001331355035802346 0.3051403005034869 0.1946728360548582
45955000.0 0.9154851986746327 -0.3919020100837305 0.03409982008079351 -0.05774983026345196 -0.0014505331544160803 0.00036735317334104503 0.3033921522740651 0.19287999576812132
46954000.0 0.9093970090497017 -0.4007994837477426 0.03278896064809349 -0.061275416375800966 -0.0012599163844280582 -0.0008722834562656395 0.3276960836466826 0.1726125914168094
47953000.0 0.9084226700770233 -0.4065785798565041 0.03462207548805612 -0.07173615902868889 -0.0038843422366315957 0.0012931569855279942 0.3365671198543927 0.18001658313310712
48952000.0 0.9015124382690768 -0.4190693985763503 0.03242873170037092 -0.08088998866414408 -0.0005405210149809883 0.005185435845596773 0.33123843620185395 0.16157487995524042
49951000.0 0.9004053517689493 -0.4228222058665255 0.034660879192092535 -0.08846200426443643 -0.002668122026366995 -0.001924028599271664 0.35534594191622393 0.15673238647028764
50950000.0 0.8951360136027353 -0.4313814755079355 0.033639199151832 -0.09450009443420354 -0.0015978997804029001 -0.003307098220840797 0.34907673368857395 0.1451692008013973
51949000.0 0.8917565708318712 -0.44146086755020725 0.032917513669951416 -0.10464658122379614 -0.004331171614002218 -0.005693491773960987 0.3534702295822411 0.14840180798116237
52948000.0 0.8901911269536162 -0.4494858073421791 0.03729892768162302 -0.11398292544767859 0.00019246473844658184 -0.002936393696948713 0.36580350805934064 0.14573315138457646
53947000.0 0.8836047118221445 -0.4556491286787509 0.03841450935873892 -0.11845399366090346 0.0026250907984578763 -0.0006201995443345541 0.36543688092611937 0.13423942170610412
54946000.0 0.8774133425969001 -0.4688485715760844 0.04020488194544514 -0.12972533568645264 0.0005467449160395331 0.0016994379676981224 0.377481167700721 0.12648045782372938
55945000.0 0.873947801748713 -0.47351084296728846 0.040829337747765954 -0.13940674236481124 -0.001346527382245543 0.002396696542089333 0.3801477564576554 0.10826037214521803
56944000.0 0.8692143053346186 -0.48302516620322844 0.04160697196723506 -0.14958740849108162 -0.0020576597189843654 -0.0005323957980235975 0.390528108719005 0.10097440003781669
57943000.0 0.8648601313749501 -0.49236658543823225 0.046035734608840306 -0.15860645805030898 -0.0002438162320073422 0.0013907778409288601 0.3976283863208609 0.08674321559562
58942000.0 0.8599341378378788 -0.5006819685249551 0.0440472794512077 -0.16961717688650288 -0.0015463488382490796 0.0018449291054524891 0.4150537452783363 0.09505565348381942
59941000.0 0.8569335139080259 -0.5056189314802634 0.04692213142088652 -0.18091959682621744 -0.001670970579088747 0.0002107290239165413 0.4170903901536892 0.09344997814383545
60940000.0 0.8472390555664646 -0.5158378246579491 0.04779410947739738 -0.183057788623354 -0.0021726137518787536 -0.00017517853212447841 0.40521897986116284 0.07637110052296303
61939000.0 0.8461248229007693 -0.5203531854434467 0.04566622721578846 -0.18939264591077967 -0.0006454175619145478 0.0019836996022513796 0.4055978231894807 0.06522329203831063
62938000.0 0.8401452685374183 -0.5307315389895245 0.050972777377834275 -0.2066878957728288 -0.003752836120624117 0.0010761803195742474 0.44275149509334866 0.06007612662159966
63937000.0 0.8349678344268269 -0.5404600095794089 0.05122597575148334 -0.2289840855459358 -0.00206936909284945 0.0014037122883124747 0.4299247897119894 0.041211432293863856
64936000.0 0.8303766186227906 -0.5431954854512145 0.050456150025893265 -0.2404929170012592 -0.0014689645848312118 -0.0005706717030059103 0.4325429923058539 0.04385093767193633
65935000.0 0.8232996380522482 -0.5556329166338484 0.05297552928427313 -0.2523687921984236 -0.0004704391341400879 0.00036310319189801184 0.43458800799871944 0.02405984211522056
66934000.0 0.8196650063697926 -0.5617398037639917 0.053441511535304805 -0.26459952825517635 1.0594059920754074e-05 0.0038463163773140656 0.44113508392445727 0.013179092495389184
67933000.0 0.8153402744004409 -0.5701485380903941 0.051809334705612685 -0.2771245846791868 -0.00022292571106508432 0.002827145772826842 0.4469373585590045 0.01261937738360252
68932000.0 0.8012165801484064 -0.5645272709686329 0.04866645058968252 -0.28660356257688424 -0.002191057944565489 0.0024247684213459346 0.4407328379938211 0.0009580489299841163
69931000.0 0.8017146872262603 -0.5861830388527971 0.048901149572136086 -0.30532730244793627 -0.0013431040907484623 0.0016885823494028197 0.4488785613583097 -0.016956899483814986
70930000.0 0.7939787613623548 -0.5926869469547149 0.047374212910651435 -0.31687056034737004 -0.003705511376952574 -0.0005708081608001411 0.4386738717468291 -0.022908824953203732
71929000.0 0.793148614244358 -0.6029275176488917 0.04227356364379871 -0.3360436390011031 -0.0016444555819579265 -0.0014671034646088928 0.4467534174451591 -0.034361533188601814
72928000.0 0.7837101699164989 -0.6103488489498873 0.03767376871844207 -0.3529427088684709 -0.0027292231145002715 0.002440988542594463 0.462321278583297 -0.0518400225708428
73927000.0 0.7797688156880094 -0.6164371374150972 0.02989915367455435 -0.37089909192756326 0.0007487966617440885 4.6531167147614264e-05 0.45658701775340915 -0.04697863791446094
74926000.0 0.7754470875636001 -0.6249576596131374 0.025329531015961946 -0.3903239897893787 0.0017354601663570036 -0.0007650647387751718 0.4542462826628238 -0.0560839940357851
75925000.0 0.7671344696699663 -0.6294495408070288 0.011551552134725897 -0.4052971530728025 0.0003592134016067259 -0.003907487974807494 0.46696307771946904 -0.06825286170008633
76924000.0 0.7599899393158802 -0.6397121544785942 0.0005360429560866535 -0.4295542393844917 -0.00355038695086056 0.0011502679785854487 0.4699586613444801 -0.08381344842150458
77923000.0 0.7535952463643962 -0.6464888139650871 -0.011822547717497293 -0.4527713743773533 -0.0016013508744688546 -0.0027102004771119488 0.4597146919505964 -0.09631474029331258
78922000.0 0.7484998205300162 -0.6541559571841669 -0.029706329981030496 -0.4796986143414093 -0.0004202383086044422 0.0006393191876983497 0.45811927600880475 -0.09586676019960509
79921000.0 0.7388813561390735 -0.6588854625616531 -0.04256789191188076 -0.5038694009587588 -0.0005705764825588306 -0.002168086528506598 0.46194825015489904 -0.11428677864401802
80920000.0 0.7365238128868811 -0.6699165730466524 -0.06078134305019216 -0.5313494256880447 0.00034329160284927784 -0.0005065229114316289 0.4633500052431393 -0.11500022602665948
81919000.0 0.7291043266729629 -0.6765069997004949 -0.07678558286656792 -0.5549776347933684 0.001117117299500546 0.0003607573528184935 0.4496142756830382 -0.1310431027105851
82918000.0 0.7206955857190276 -0.6826672443241346 -0.09522626361146859 -0.585604487660058 0.0013606508518844793 -0.0005228619733639465 0.46664649497198474 -0.1414199920321078
83917000.0 0.7127937660305175 -0.6904561491985076 -0.11460919067165261 -0.6122336633619461 -0.0019349173021305003 0.0029588920452791154 0.4687278969077937 -0.1495578043747524
84916000.0 0.706554259857415 -0.6971089860612473 -0.12470571704968862 -0.6478929344421986 0.0014637609744989912 -0.0009032092148188945 0.46358669741723973 -0.16979718983180075
85915000.0 0.7011745326231363 -0.703978315655906 -0.1472187511630827 -0.6751585811607391 -0.0031437250538117693 -0.0006907562349810448 0.45069052415532596 -0.1758125503301673
86914000.0 0.6930976301902544 -0.7131415631960134 -0.16027923588549553 -0.7118983799623101 0.0010525272976654565 -0.004094792558318193 0.45999933112495994 -0.16581547689099907
87913000.0 0.6869692919750117 -0.7193625514185119 -0.17893548105477214 -0.7384678949451339 0.0014760223817239498 -0.0037761424266637453 0.4544479404121068 -0.18121223777712747
88912000.0 0.6788224456351123 -0.7278462030449598 -0.19772366107516098 -0.77455356230285 -0.000564649951354368 -0.002477956296638726 0.45901015552865054 -0.20051770620462434
89911000.0 0.6715143855031065 -0.7338219036165283 -0.20758020390472173 -0.8101329957450655 0.001955781973163397 -0.0035652831328590287 0.4761321471477287 -0.20788351929023519
90910000.0 0.6641633831385452 -0.7385700871413369 -0.2218160351177788 -0.8417959789251956 -0.00254670047312801 0.0013027531523161129 0.4478870445111131 -0.2128810943440027
91909000.0 0.6547634123900108 -0.7451528679568968 -0.2417303107456074 -0.8717327324970837 0.0025379412924689867 -0.00023488206999651876 0.46283331272759826 -0.21927029352285093
92908000.0 0.6482423942203898 -0.7539703190255017 -0.2564225170408994 -0.9050860244592277 0.0026721853451433675 0.0012546984829834705 0.4519205017748861 -0.22611305596213413
93907000.0 0.6422165861028315 -0.7592906367461832 -0.2738703657207408 -0.9351999324042896 0.000507979066326814 0.0008928366533346054 0.45630594384303647 -0.24370949135910913
94906000.0 0.6276193505527191 -0.7665855542186946 -0.29046130611243576 -0.9663019959497434 -0.005833962131023515 -0.002247940849307109 0.4584644443863879 -0.24730898966774464
95905000.0 0.6203457796702484 -0.7723930358200489 -0.3093140672187063 -0.9997013630482964 -0.0003735966118535311 -0.002705613175337628 0.46169498443669266 -0.2665178678175295
96904000.0 0.6130305189204046 -0.7811027744805286 -0.3298777325900561 -1.0378065436020547 0.002025126810488438 -0.004410963380027193 0.45020671049247896 -0.2679813700643036
97903000.0 0.603526444946328 -0.7867762090991611 -0.34806558045839386 -1.068410646347724 -0.003145934084343468 -0.00241025283708287 0.44195168722451933 -0.27977044597562595
98902000.0 0.6005232034595146 -0.7940998124144865 -0.3700672530006503 -1.1047619213009439 -0.003075097964568283 0.0027423438508706387 0.4440243954509632 -0.29533269503799714
99901000.0 0.5883121200817105 -0.7988390000807191 -0.39470309537456455 -1.1319446722511386 -0.0005878861957610068 0.0003036563014703485 0.4547254272916239 -0.3250585905147717
100900000.0 0.5797618040862185 -0.8031451044161902 -0.4230574809900281 -1.1585163947542443 -0.0012031648314966463 0.003613132327603107 0.4565563705158645 -0.30585694306878297
101899000.0 0.5715958644544731 -0.810477371148352 -0.4450621044693672 -1.2013827030406667 0.0008730734819674682 -0.0007292998568093928 0.44256140191454807 -0.31542824089391525
102898000.0 0.5608382107900969 -0.8168003013508032 -0.4860083543161455 -1.2298078584311096 0.00016541265426352097 0.00013738536890621532 0.44503257513963246 -0.33703636428371847
103897000.0 0.551994494433194 -0.8233352380291048 -0.5193009751269008 -1.268429062680783 -0.0011814464941260502 -0.002384793207810117 0.45756563604576656 -0.32015306405847976
104896000.0 0.5436942287221134 -0.832060100339072 -0.5626275488924406 -1.2944491661426045 0.00018508632676547844 -0.00024448778497393806 0.4319442673276087 -0.33307572643892164
105895000.0 0.5334984653168388 -0.8360077399675063 -0.6068933888321086 -1.3382101497212158 0.00020351502204146607 -0.0019376491557212988 0.43229425076416345 -0.3509815822920779
106894000.0 0.5246362559385401 -0.8437748958654735 -0.6574290292135962 -1.3671095564629299 -0.001313851203549842 -0.0004869099556741796 0.4273497383828678 -0.36310302489113805
107893000.0 0.5178870038540745 -0.8481269415600767 -0.6995338356436122 -1.4072201747025004 -0.0009037544904947519 0.0023580231434554605 0.43489962070403215 -0.3770999837065615
108892000.0 0.506366988062592 -0.8504205177160408 -0.7643772230229527 -1.4377017883510195 0.0005362909168510858 -0.004330261791211949 0.42120873792090313 -0.3602623808616159
109891000.0 0.49422853976393427 -0.8601552090854355 -0.8206244786003268 -1.4821528347380177 0.001674551909121774 -0.002827049887100796 0.4476901423876659 -0.36664570016967524
110890000.0 0.47514658002477633 -0.872384447918897 -0.9014933211043001 -1.4819841485334246 1.3756966794204476e-05 -0.0031322109002429295 0.4261353280933458 -0.38545243521967343
111889000.0 0.47517797741048906 -0.8667163914788256 -0.9450552957877761 -1.5447306478488343 -0.0016823798560885099 -0.0004945521359084453 0.4238053356388268 -0.39583943998679744
