! Created with skrf 1.9.0 (http://scikit-rf.org).
# Hz S RI R 50.0 
!freq ReS11 ImS11 ReS21 ImS21 ReS12 ImS12 ReS22 ImS22
1000000.0 0.9824177942088479 0.003693052668714332 -0.007028935100895886 -0.05232538066183841 -0.026881129769199878 0.015210437780071816 0.3498326901467301 0.394779591398418
1999000.0 0.9979944452112 -0.013421341975715538 0.014069929368343264 -0.024381066847450127 -0.007958526658283612 -0.0069325700834458985 0.2711170811257673 -0.047568198475495274
2998000.0 0.9953323154291943 -0.024447721934139792 0.01028171303336721 -0.009630800331249054 0.003805459269228036 -0.0038103222710745115 0.17630589428792465 -0.14210395698690145
3997000.0 0.9977939604624889 -0.030638397675812723 0.018134841341106517 -0.002459048818729328 0.0011247710443468583 -0.0016127604330150459 0.08341715478179994 -0.21325652837123002
4996000.0 0.9950853718868521 -0.038917253353305085 0.010071996845393743 -0.0046566629620876055 -0.00021469388136966192 -0.0022013138663540075 -0.04744975139905353 -0.19579397518099995
5995000.0 0.9933753977865039 -0.05143330497707944 0.009224538674357066 -0.002703218169107106 0.0009988936313436725 -0.004562342303571823 -0.1225465760633117 -0.1060845373141579
6994000.0 0.990310726479709 -0.059297682045093836 0.003697298027106257 0.009269008761618265 -0.0020108771825461075 -0.004097681022678001 -0.14899037712420515 -0.021924883366328952
7993000.0 0.9941906251183911 -0.0687089048696954 0.0030048449104662237 0.0037815722249938885 0.0035638529258619307 -0.00427151003637184 -0.1506710062425129 0.037690535493126724
8992000.0 0.9931896676929256 -0.07805323628944724 -0.0003120384935691355 0.0039921595568278715 0.005300826218744947 0.002925618608818679 -0.16176505023188192 0.06057091935645953
9991000.0 0.9899989463526787 -0.08563961166764972 0.001458958902074839 0.0020080973854264585 -0.002432863481476354 -0.0009596643166377263 -0.1369430615796739 0.08754455436516677
10990000.0 0.9891779794718253 -0.09403625284451271 0.0030685122564677496 0.004941034373327836 -0.003859910689131753 -0.0033452442578123407 -0.14454153208238985 0.10370582976995785
11989000.0 0.9877718227272312 -0.10151045011289964 0.0019521433882471455 -8.30326320126885e-05 -0.0010579923572564239 0.0002967590763363366 -0.12959428790029417 0.1319143687572194
12988000.0 0.9849891173712957 -0.110851483044278 0.0021622558093788253 -0.001041657847763612 0.00048545643819639843 0.0023477570018802345 -0.1301774764479704 0.16474187693976935
13987000.0 0.9837428330585654 -0.11923376877339589 0.003870690572047639 -0.003908227558607804 -0.00326831372595524 0.0010683181515506405 -0.09871676200117306 0.18502317533783097
14986000.0 0.9843729116273139 -0.12616960608389222 -0.0003016230384078255 -0.0023911860170019463 0.00022960586874627145 0.0018308381524258963 -0.0971974097361331 0.19736987901925732
15985000.0 0.9856472541653267 -0.13725300392469328 -0.0018790785536108956 -0.007222502224565914 -0.0005789235682871117 0.0010895093658903157 -0.08222311256873184 0.20978120548721627
16984000.0 0.9824312592452062 -0.14543072676321991 -0.0004106042626060699 -0.003098228208626622 -0.0014311135051444039 0.001277338820318751 -0.07074193516823331 0.2146169657171899
17983000.0 0.9818695495492237 -0.15086165901581727 0.0014707481660741273 -0.008820504174761757 -0.00030420544964711657 0.001707829917029502 -0.06683980631929091 0.23140464816947753
18982000.0 0.9789813163458353 -0.16146049596968137 -0.008898598240480908 -0.004964230237228129 0.001796218472627576 0.002628668717638542 -0.032340754290651405 0.22801506997378862
19981000.0 0.979053411042116 -0.1672609266290171 -0.004659840082857562 -0.0069864439861702194 -0.0009563063610860936 -0.0012748654223651507 -0.015249751592835993 0.23773836377422722
20980000.0 0.9779400111176138 -0.1748975774825988 -0.0036035547263853756 -0.002703547465913189 0.0008387416917139851 0.0022746279965868625 -0.006996967292217724 0.2560499824271621
21979000.0 0.9776222624515448 -0.18605056102071535 -0.003570452871057559 -0.006145890040796112 0.005132699842193545 -0.003760472672277564 0.016399609798170633 0.2504137979031462
22978000.0 0.9745856278301473 -0.19301905387012303 -0.0034850636097954403 -0.009455211693329748 0.004298123383164715 0.0002522134028034627 0.019041421504050016 0.2600728940672501
23977000.0 0.9743996738396187 -0.2015373458772462 -0.0028325779527216843 -0.002639132021206031 0.001539452172011304 0.0008230391072662818 0.028462054487138642 0.2519918886380495
24976000.0 0.9706407517536879 -0.2122175763998721 -0.005709096937881107 -0.00086843816567535 -0.0011469861018411401 0.0019073902071372981 0.05960417668976943 0.25564735836768343
25975000.0 0.9728465415016471 -0.21861626109986482 -0.0036306203340754394 -8.054282951911228e-05 -0.010841071396611772 0.027119577522217525 0.08118687282508846 0.26604332230191935
26974000.0 0.9670164628264809 -0.2276880641899378 -0.0065204052677972895 -0.0019477168631455062 -0.0017716467644701092 -0.0019698961683151206 0.08409097669049938 0.2533031391469081
27973000.0 0.9660436679942878 -0.23721890643273436 -0.0024719054068791605 -0.00466825535161066 -0.0019783488421091077 0.0006863497845629101 0.09547176010366641 0.2581853087371704
28972000.0 0.963719484677153 -0.24327896383905193 -0.008282955775197992 -0.0005005871065241497 -0.0005076849720384318 -0.0026685821888394854 0.11342617719621638 0.25419771204055425
29971000.0 0.96067080217983 -0.2560560320889978 0.0008989673153373672 -0.0024022168113746784 6.81616149093762e-05 0.00012414217872244672 0.14789302805212093 0.26731966796061707
30970000.0 0.9586209010399649 -0.2587839892445546 0.0004085979167689113 0.0012107838025742273 -0.004355326273776682 2.481085719034944e-05 0.17084798396282064 0.244563752673694
31969000.0 0.9563461314988743 -0.26938652175849115 0.0056022036976106195 -0.0039018571110405746 0.00028347912091192744 -0.00041265326545297175 0.1324892126082411 0.2552495103216621
32968000.0 0.9552744410710634 -0.2806315466058072 0.01001086255405868 -0.006754467991081585 0.0007210838910272215 0.0004025469922767305 0.15895624803671887 0.24808844778241715
33967000.0 0.9528550092978565 -0.2891966539536408 0.012831833805718807 -0.007947082951147046 0.0005471274625225426 0.0007362024848991232 0.18547293655370836 0.24428829821165005
34966000.0 0.9488105360562654 -0.29846662781896116 0.012951281216037508 -0.009733629417289011 -0.001564648522090889 -0.002600535014092061 0.19250920305730582 0.2538004345134992
35965000.0 0.9469646684894131 -0.30496673247050404 0.013613755810538515 -0.017707272151605644 -0.0037663392002713035 0.0015507441095808543 0.2060259250180546 0.25376936397535255
36964000.0 0.9446588773950245 -0.31475476814779507 0.016240520204424503 -0.014322815243508504 0.00035533857192535453 0.0013560253266038395 0.2108589273104452 0.2551976048839181
37963000.0 0.939879964566495 -0.32589057789921466 0.017521970682567386 -0.02004689428039289 -0.0008267868896110058 0.00255255067242775 0.22334071552623133 0.23367506220012227
38962000.0 0.9377609301718569 -0.3341038340639234 0.022570554304979912 -0.02159392192020599 0.002465422855062879 0.0010327898918476121 0.22830579995190955 0.23133946545783896
39961000.0 0.9360511952426992 -0.33974511448248124 0.02580249415856443 -0.028456536080964746 0.0005971626678773668 -0.0021099093466314107 0.24842793374734698 0.22060250803656736
40960000.0 0.9325660977753717 -0.34877807993194715 0.021736839230500175 -0.021512899549744297 -0.0017636112555739103 -0.0005444019975284947 0.2571625256568601 0.2270240675033922
41959000.0 0.9294188189501592 -0.3584723210392838 0.030133935418690153 -0.030290680909847687 0.0003172421898145102 0.0009893691896444392 0.26100442441539345 0.21423662470406207
42958000.0 0.9248912657132047 -0.36575129762234077 0.02918924040711692 -0.04379600774129456 0.0030347876976495945 -0.002553868197107022 0.2679956884717407 0.20665754271634434
43957000.0 0.9217911392229109 -0.373736547257728 0.031636991184453754 -0.04732630886023962 0.00041920637578964445 -0.0028050050202880765 0.2889905355737142 0.2146783217672847
44956000.0 0.918349977350167 -0.381835322779268 0.03222269975176199 -0.0509234618414518 0.0010430806584473759 0.001613903525763851 0.29779905849447913 0.202879677759508
45955000.0 0.9149215278635562 -0.3906336094306479 0.034427449093862916 -0.058116409763417747 0.000841565144648584 -0.0028077625268768027 0.29925003107829456 0.1867834836505619
46954000.0 0.9096589410956769 -0.40266330820387874 0.03398074909102074 -0.06530460686860531 0.0018926909525802521 -0.0002605409342538287 0.32550939382486166 0.17052539051053697
47953000.0 0.9084827249967856 -0.4066817855085409 0.03232454018495353 -0.07030405994657296 -0.0025415739400304156 -8.100470778460993e-05 0.32809152562714994 0.17181239813427088
48952000.0 0.902375563797899 -0.41953842343869296 0.03569957579270766 -0.08085624057344443 0.0011953854358036356 0.0009734407800629436 0.32899604777583186 0.1668832296184448
49951000.0 0.9003008064565039 -0.4226891822684473 0.03671101921331633 -0.08700425560867422 0.0030799560518970865 -0.0019142883641663066 0.34160990725487567 0.15746249042332353
50950000.0 0.8968330957210898 -0.4328803965477377 0.035831982700060015 -0.09629201975648138 0.002556651762586514 0.0001891448373233649 0.3419623874313415 0.15194058517478826
51949000.0 0.8920084456973251 -0.4408028371161447 0.03714681260333751 -0.10441981786242746 -0.00039004751348507074 -0.0018998002836414448 0.35149547969659467 0.13673503996730613
52948000.0 0.8891366052594316 -0.4509498797435628 0.038686516410303295 -0.11317138175813413 -0.0005318655876003275 -0.0024633714793531564 0.36718283793013995 0.1485813074736139
53947000.0 0.8838289537218643 -0.45572342921986636 0.040872518245544956 -0.11974575612838058 0.003025613391500785 -0.0011722239605003475 0.36163720515981773 0.13172511045429375
54946000.0 0.8777033754948892 -0.4685514168721269 0.043402433040424446 -0.13131348459477218 -0.0004236647574973432 0.0032747451512360037 0.38164506786255076 0.11729927261253176
55945000.0 0.8747852568181935 -0.47605414122085626 0.042477395686707886 -0.14248457753256966 -0.0013294210403812423 -0.000484448175268166 0.3801224435269081 0.10125572630509613
56944000.0 0.8706289974649063 -0.4842715177493429 0.04456460609241343 -0.15141963811140227 -0.0020669160836567424 -0.0006250154774284192 0.3982315854365709 0.11379051575015013
57943000.0 0.8635783559833115 -0.4958909721714653 0.04566555008820181 -0.15821312954806227 -0.004439870318958984 -0.0011142322390000476 0.3911200718553412 0.09257440113699213
58942000.0 0.8580723554487208 -0.4985400648540535 0.0500309520318648 -0.17353064656026967 0.0020360525566099803 -0.0005247418673004502 0.411196538939219 0.08542519397933715
59941000.0 0.8575412677945553 -0.5064499382271723 0.05078316065691039 -0.18068832625184847 -0.0022062603677260612 -0.00026546902517293107 0.4101691889600489 0.08644445346704271
60940000.0 0.8484290193428458 -0.51517607379025 0.047737036583172826 -0.1871517246236775 -0.002722151419861604 -0.0006058389060686459 0.4143534000554096 0.07745951219367234
61939000.0 0.8468153227414492 -0.521334097248871 0.05129112946242742 -0.19483081232656324 0.0007783405402541612 -0.0023922090877389586 0.4109749141550583 0.06827307288091283
62938000.0 0.8395123914854083 -0.5315112239496456 0.05405462051572108 -0.21139225097981093 0.0007827997179433731 -0.0008049878024720471 0.44013187779220997 0.05790662194182253
63937000.0 0.8348158009574241 -0.5395710378002273 0.05724031801090214 -0.23227208022758739 0.0047287971326738735 -0.003029630493726149 0.42800858145353715 0.04147695201109702
64936000.0 0.8276377313596022 -0.545878071248453 0.053389691213041816 -0.24462045007966124 0.0010913562133157844 0.003013955232656423 0.4272216646864901 0.04313158875979708
65935000.0 0.8258455506850412 -0.5563393675282392 0.05404030286012486 -0.257664578447147 -0.0016792576050521696 0.0029508530603665193 0.4336104742371941 0.02393796591788022
66934000.0 0.8188786046758925 -0.5627347094760223 0.05251243774278208 -0.27151092544012 -0.00032903151588004775 0.00046947283810959493 0.43151829687551796 0.009614466538103699
67933000.0 0.8155648222161297 -0.5678046442620672 0.05776627398287806 -0.2867378560192132 -0.0005184865621488486 -0.00217810301498691 0.43521154198593387 0.0071822313542319145
68932000.0 0.806054942029772 -0.5759584483054145 0.04909322889607586 -0.3001450585532227 0.001626394218572699 -0.0006864715950964762 0.4565723017134693 -0.008363201688036465
69931000.0 0.800563664830027 -0.5868737931096567 0.0480004418813781 -0.3139529546212974 -0.0016391261869935908 -0.0006683070876721654 0.445462543939678 -0.01574497976468976
70930000.0 0.7941459625947541 -0.5937908118684991 0.04808848839658347 -0.32774645950882775 0.0018482526583982303 0.00027946377734668044 0.432856768182914 -0.030776780797429515
71929000.0 0.791439466587007 -0.6027533674683815 0.04265404292131811 -0.3479356365511103 9.44080057010346e-05 0.0018826634742695131 0.44182601169514046 -0.03671646580222009
72928000.0 0.7854769619538327 -0.6093436395702981 0.039569334921468594 -0.3624678164776292 -0.0030390440122103745 -0.002714441948697424 0.4572750634131367 -0.04393926477766602
73927000.0 0.7771666433964736 -0.6160859574538756 0.030896194656788167 -0.38274019210179305 0.0014297440732750505 0.00010035503944534709 0.45087631129300687 -0.05383113885449151
74926000.0 0.7754033215305365 -0.6266344465806292 0.025829050621548423 -0.40289440818480354 0.00020413406737382372 0.0004735733604959418 0.46102973554470994 -0.06003534571454399
75925000.0 0.7700971695175751 -0.6314959160446085 0.014401898777812528 -0.4209618567423344 -0.00094448517871056 0.00022439724161870038 0.4618620236317434 -0.07345857382083384
76924000.0 0.7613216613812785 -0.63879075644271 0.0018059891550367966 -0.445462192007371 -0.0022399001224312296 0.006697151150693297 0.465895876019452 -0.09000596845802734
77923000.0 0.7544586538393928 -0.646592474623585 -0.011789294075565329 -0.4664126483136578 0.0010470715844552129 -0.00045393631184060423 0.45540391909262157 -0.10037731058402106
78922000.0 0.7471355679885106 -0.6545647994557037 -0.026429773576368044 -0.4971652293659945 -0.0009157491433796943 0.00044698421010630365 0.450320886161801 -0.10542279707658234
79921000.0 0.738596351242029 -0.6581486659759792 -0.046398532053577586 -0.5173025569808862 0.0003922078599043099 -0.00026502850592772316 0.45518506957247756 -0.117324250192783
80920000.0 0.7345096255907944 -0.6711973503638637 -0.059578951599674586 -0.5501518167008845 -0.0006747972620053076 0.001354216765194605 0.4553075074984029 -0.13159413063123976
81919000.0 0.7301980922482582 -0.6756553108686443 -0.08200360984829193 -0.5756088981433913 0.0009270400881137609 -0.0018583176016642123 0.46700090953099727 -0.1323938519238009
82918000.0 0.7188634863733436 -0.6834465747980317 -0.09236442555497679 -0.6075289427944146 0.001491317955328115 -0.002082178975548444 0.46611277363583425 -0.14110449474949222
83917000.0 0.7123671405345607 -0.689588152259458 -0.10893169250475437 -0.6374152004588921 0.0016305861053089582 -0.0025459484680906965 0.47727957617435995 -0.15720586659480404
84916000.0 0.7070776682675093 -0.6989287719377291 -0.12731859966669043 -0.672842311437021 -0.0013862884901168658 0.00010513561715470581 0.46157052900789663 -0.1744657916508861
85915000.0 0.7002244134908974 -0.704009486709042 -0.14804386554620508 -0.696706734776647 -0.004334898462857505 -0.0024844018101578577 0.4664561559730678 -0.17402667088647394
86914000.0 0.6932828999584375 -0.715102571128939 -0.16437747765851676 -0.7329797200138786 -0.001311195823214665 0.0030547552706697173 0.46176314227143234 -0.1732353388330826
87913000.0 0.6851904480185399 -0.7202394477513381 -0.18592342990182797 -0.7591948386636597 -0.005657388909292746 -0.00010576653720548371 0.4632603765181437 -0.18522152074007947
88912000.0 0.6798706184115213 -0.7270489729459327 -0.1941905510424956 -0.7998947243617824 0.0016864571690061397 -0.0019198509592173547 0.4564636265663862 -0.20903472770538084
89911000.0 0.6709131819352814 -0.7363765316266375 -0.21489341567563186 -0.8354141771572112 0.0020750502141096577 0.003644797970741789 0.4574442584100017 -0.20415581027177154
90910000.0 0.6649045032965659 -0.7403131493637992 -0.22844982985438297 -0.8686544205663743 -0.0019392169485041573 3.2682985775862004e-05 0.4649946403070186 -0.20633262405820946
91909000.0 0.6540115415914781 -0.7460365937640983 -0.25010586471642077 -0.9002872237144386 -0.0004842471666794764 -0.005662034865184328 0.4602072464947148 -0.22939780270035898
92908000.0 0.6461659979083135 -0.7541641317061912 -0.26591979495078105 -0.9327847306438579 -0.0013573372392805048 0.0005372048580787203 0.4510979928963484 -0.23581216541325006
93907000.0 0.64229684923825 -0.7608061854353031 -0.2828639518706594 -0.9634620278709034 0.006035758138149692 -0.0002275659791440092 0.46150398878506166 -0.2565221894660921
94906000.0 0.6256426065832662 -0.7685768242353501 -0.2989241542477457 -0.9963678897737872 -0.0024178144129149513 -0.0004885251917370591 0.45679516572945894 -0.2452906582367053
95905000.0 0.6218040703429538 -0.7736350927084001 -0.32383792393128275 -1.029542357036308 0.002732180687786788 0.0006205214724132543 0.45845419750444755 -0.262355062025784
96904000.0 0.6132745662583006 -0.7822775676099202 -0.343159254790861 -1.0699655213381323 0.0026927219386382083 -0.0014578669382273846 0.45675123953999897 -0.2712797538421812
97903000.0 0.605132579198749 -0.7859127800266832 -0.3614608003318375 -1.0990509992918742 0.0002506840480796407 -0.0004251366958642883 0.4498613823293367 -0.2952296115530052
98902000.0 0.5997675430458195 -0.7956842023094219 -0.38370266556709637 -1.1399275432226845 -0.0009957830697583854 0.00209778068418664 0.44906024036840886 -0.29978311827263865
99901000.0 0.5893440974668545 -0.799900566694998 -0.4122541575461548 -1.1707710911646692 0.0031489035219685155 0.0017314095212670742 0.46165640120861423 -0.31308567150719463
100900000.0 0.5798818267017358 -0.8026108998001823 -0.44076250680535756 -1.199791908038497 0.0009331301755156295 0.003279756121290449 0.46059506855298055 -0.31628469408062604
101899000.0 0.5708769869906798 -0.8098117697721139 -0.46629825790727036 -1.2356068438211423 0.0013882510257229275 0.003955018461256438 0.4456237237699371 -0.32279913180709574
102898000.0 0.5614677882580515 -0.8180064473667746 -0.5054699163907769 -1.2731050168438192 0.00044064062183374434 0.0019901047232532693 0.4454686275559909 -0.34589361184095585
103897000.0 0.5525338294006789 -0.8248238087505851 -0.5448417352354288 -1.3095199153012707 0.001256768081831615 -4.828710853098479e-05 0.4515130661285611 -0.3359204851347795
104896000.0 0.5468799644612969 -0.83514030452063 -0.589763839643949 -1.3430095397845938 0.0015655454083372232 0.002772302002187755 0.4320787736359594 -0.33602402985835017
105895000.0 0.5351939085762102 -0.8359932778012746 -0.6328831880505792 -1.3813596656580556 0.0023224189369259354 -0.00036291179615549764 0.43283138759641654 -0.3652142176426879
106894000.0 0.5244968044515892 -0.8418026559503549 -0.6860914917364304 -1.4194998980453926 0.0006314136629078676 -0.0002609436982766008 0.4373723677925059 -0.36301128222353773
107893000.0 0.5182804547528981 -0.8480802362047646 -0.7346381975264917 -1.4566212445876336 -0.000603616345115869 -0.0017948261281344104 0.42895012721325576 -0.3753474802962338
108892000.0 0.506145239878027 -0.852217999494152 -0.7981515085575871 -1.4911859989240939 0.0018000617709050045 -0.0007579293886209581 0.4169456399710277 -0.38110083521576044
109891000.0 0.4952207463246328 -0.8601845883452421 -0.8570554696492264 -1.5263630495214249 0.0006164211666002754 -0.004020117361643582 0.43272703500979665 -0.38071748124380916
110890000.0 0.47557206841340394 -0.8640525946057894 -0.9277075588876371 -1.521057283005062 -0.004773054355065724 -0.003063653210888615 0.4244335688543286 -0.39157597181974535
111889000.0 0.4755706010580261 -0.8663689225285657 -0.9799887085984608 -1.5975959253889958 0.0004541281575190059 0.001781945215985439 0.41483943251238486 -0.40275331054729085
