! Created with skrf 1.9.0 (http://scikit-rf.org).
# Hz S RI R 50.0 
!freq ReS11 ImS11 ReS21 ImS21 ReS12 ImS12 ReS22 ImS22
1000000.0 0.9806781371713951 0.008449373090483728 0.00567668810902459 -0.0584008398743696 -0.017231930290116104 -0.007059180885844971 0.33290295037016543 0.309109485923417
1999000.0 0.9940705987922405 -0.008834099501154253 0.007081358232276152 -0.013922531793699549 0.003820944221549128 0.004652155856397153 0.2559186932165837 -0.047363745028514204
2998000.0 0.999782694694008 -0.02500555761721837 0.012375805768044945 -0.015103015724073967 -0.006585145478216617 0.0012519674438351996 0.19247413445396444 -0.1451698159094969
3997000.0 0.9979403944425068 -0.031073185497049842 0.01078848114686765 -0.007445704676777159 -0.0030052535185921426 0.0004462979759370936 0.08120912775239972 -0.21774941359538588
4996000.0 0.9982133333901195 -0.03561070606132852 0.012088110758662358 -0.0032545195861004334 -0.00038176626992325466 -0.0013988062527558577 -0.04598509950841791 -0.19845548728490958
5995000.0 0.9941752036062012 -0.05128759069919859 0.009231662015695183 0.00044958496112608014 -8.526405563004612e-05 -0.0012814953215759613 -0.11485673836720295 -0.10547148820723017
6994000.0 0.9943367256546465 -0.058869161971581895 0.00835262169493955 0.004072544132900854 0.0027371425198018536 -0.0041398382986286755 -0.14294204270609778 -0.03432666502892639
7993000.0 0.9913047220882392 -0.07079021116876831 0.006127277038987668 0.006860150929213912 0.0031963415865758705 -0.0035134709832906896 -0.15402065291582442 0.02905628206830921
8992000.0 0.9938339717600987 -0.07274820985039682 0.002825087553237248 0.0034023800570400684 0.0016780985913738182 -0.0032020162701849606 -0.14516766639387738 0.06246324123551329
9991000.0 0.9922061664313877 -0.08599759066723486 0.003189722931892838 -0.002919860252590345 -0.0013313784042580043 0.0023066739507948257 -0.1365139834468898 0.08382742367120852
10990000.0 0.9903100444558914 -0.0942268673031754 0.005976669608594587 0.0021941430031112005 0.003348925404702344 0.0001661002293052021 -0.13465739090340847 0.11201892992296725
11989000.0 0.9901930734077079 -0.10078973231633093 0.009367845000634626 0.0022491459912341925 -0.004529009991786792 -0.0031059885849750637 -0.1369142746720801 0.1405877374027273
12988000.0 0.9879377964107556 -0.11333830851508406 0.002678959786112836 -0.003283253521324582 -0.0023533345717879905 0.0035059393587635592 -0.11844073030952051 0.16535061997388287
13987000.0 0.9871075857794417 -0.11785965665011204 0.0014372058259010552 -0.006686776111138766 -0.004880189478993633 0.001306851074575775 -0.10036495591184835 0.18454661596816868
14986000.0 0.9876447784926737 -0.1273212554295526 0.0027360084801307393 -0.006366642270329996 -0.0014126145925111501 0.005078974812206156 -0.08733434061791226 0.20135081391689108
15985000.0 0.98597032284823 -0.1381019907479875 -0.003850373895035094 -0.005986545707620737 -0.001963630162904635 -0.0006289594495729563 -0.0844559907851854 0.20703715378207527
16984000.0 0.9847811491790635 -0.1458189963844324 -0.006470177107514809 0.0005320784155059181 0.0001684241983995892 -0.0012445908535376016 -0.05905305144733039 0.2157448218778818
17983000.0 0.986192487604065 -0.15064582441709554 -0.00022160109436828137 -0.003978404534945985 -0.0015696413750278875 -0.0021404939765391918 -0.05360952258400624 0.22523365438209922
18982000.0 0.9814654688781106 -0.1629770576058802 -0.0017991155023536606 -0.0023945763996980206 0.004662692157066264 -0.0008492007446733328 -0.03913136475907628 0.24802018034654386
19981000.0 0.9794232585990181 -0.16853808667562578 -0.0049995590654866836 -0.006088368870691879 0.00015388602540192993 0.00039552803171835567 -0.022357220551016938 0.24337983610053482
20980000.0 0.9818025060930952 -0.17765139094112856 -0.007512078588241355 -0.0024022020473277775 -0.001847253438316614 0.0018922147166554452 0.007233505137328411 0.24352756872187645
21979000.0 0.979909206561859 -0.18689163630646533 -0.005818845379575851 -0.0047355583173569705 -0.0017091225191623266 0.0005446245783952676 0.004870171016108773 0.24525323275864042
22978000.0 0.9750799751001473 -0.19855902551054172 -0.006511506001111637 -0.007333796436845458 0.001398897863385079 0.004165083318724447 0.016898891647505264 0.26185644282571297
23977000.0 0.9772116788636976 -0.20342808455420677 -0.0027180336007822585 2.6592644615211868e-05 -0.0008385096322312839 0.0006508759003568629 0.048083092675364994 0.25814507511549056
24976000.0 0.9711949270236827 -0.21593348204589252 -0.006235942554025672 0.0024554141575896674 -0.0015781181660414069 0.0009463324754070879 0.05302276374197385 0.24762705268643978
25975000.0 0.9664232184813053 -0.22128343214356408 -0.007401029586103067 0.0024226945028474104 -0.026836554109858805 -0.004625179231286118 0.0678651554464439 0.2566217798016957
26974000.0 0.9700260699198704 -0.2304034314106687 -0.007262047143242966 0.0007056288410493729 -0.0019513153860525254 -0.007819781844550058 0.08467348857381989 0.2707141455527937
27973000.0 0.9679591185630917 -0.23900732168609934 -0.005098840078510505 -0.004086122534221776 -2.4611661652583663e-05 -0.0014313918057895466 0.0898304163549439 0.2518758824083549
28972000.0 0.9633807507664819 -0.24783243332261734 -0.002908583984179334 -0.0022423507333767996 -0.00143695081687251 -0.0003446783190011031 0.11348793787076769 0.25723231409339065
29971000.0 0.9639413344862817 -0.25900550838699654 -0.00012115320135168071 -0.002350379083858227 -0.0002120656549948112 0.00043264521284375917 0.14773661256230414 0.25548828396741724
30970000.0 0.9599496252478211 -0.263088467956252 -0.00036575736317047435 -0.00038276998254380097 -0.0028009044647385206 -0.0006016445366466977 0.16325595430214496 0.23880127138249488
31969000.0 0.958952414494515 -0.27172731541591455 0.004385392286113627 -0.0062480492140983565 0.0030245194389774926 0.002519809439411495 0.15156041382724864 0.24792323807282193
32968000.0 0.9562996875850366 -0.2821528863395899 0.00906006071273146 -0.005586871454161074 0.0002314878232796169 0.0006951282928174229 0.165615382846591 0.2445353313216254
33967000.0 0.9542622626491857 -0.2919889474563322 0.011531553253196308 -0.008698287811908598 -0.00044931262585875636 7.043278181443107e-05 0.1787056440904367 0.24915692047226412
34966000.0 0.9509481503617353 -0.2998377241252252 0.01501121156822222 -0.010752714145929453 0.002342672587710382 -0.000563668544234412 0.19535160613950583 0.23850548941002467
35965000.0 0.9484418711029011 -0.30632514420436985 0.019671644829647165 -0.01625330139806113 -4.891353700671031e-05 0.0008484707493264887 0.21176058214215393 0.2512166335412846
36964000.0 0.9464795011352929 -0.3160543812426702 0.017500161581862142 -0.0160275559306064 -0.0032763496453614605 -0.000287057898279829 0.21312854149208663 0.2565840277871089
37963000.0 0.9401467634541312 -0.3256160248923906 0.02526371296465003 -0.021191639023911624 -0.0005535831114462034 -0.0029232601568833284 0.22538979532079487 0.23693316057118344
38962000.0 0.9388400543385363 -0.33550811787885837 0.024041004150779595 -0.024385935627369282 -0.0008769399646097026 0.00035027823493664797 0.23641387884566104 0.22767143578883386
39961000.0 0.9364156786262706 -0.34104978373677536 0.025370869340849613 -0.02805475371856857 0.00038320576252079506 -0.0015249014753927074 0.2538934325290024 0.22276627051607453
40960000.0 0.9336116476977147 -0.3508525946607184 0.022688562742716054 -0.025484956182811793 -0.003915393963265511 0.00039811996551289907 0.2637235080030788 0.22382512914002756
41959000.0 0.9300707381461193 -0.3600878514048104 0.027277758916342078 -0.03153234980590442 0.00033351568607788097 0.0006613672485215762 0.26325881714962474 0.21386655660243015
42958000.0 0.9251033125282189 -0.3686588103305233 0.03267694217795877 -0.040906972362891134 -0.003358489246928772 -0.0017904256423442479 0.2812957545435387 0.2028822917994107
43957000.0 0.924830348450905 -0.37317466891815926 0.029769109750847726 -0.043071374847826506 -0.0042598492601225845 0.0005973777984902581 0.2816775577781954 0.19935148759442797
44956000.0 0.9205974749281478 -0.38197932151874153 0.03183837727341594 -0.05033805661202697 0.0018328421998628091 -0.0044248155450823095 0.3033174715658651 0.2032047349445643
45955000.0 0.9156772983432632 -0.39308010079217026 0.030411503044577327 -0.05836952945689784 -0.0006017193873346765 -0.0006468859866395171 0.31083903559233733 0.19147039055954748
46954000.0 0.912355216215992 -0.40244180995203577 0.03362187532741609 -0.06390756964583844 -0.0005264625583853226 -0.00012258350518785485 0.32579733896550417 0.16849865283733398
47953000.0 0.9086507081279029 -0.4103597990576813 0.03213878227865502 -0.07515986621332699 -0.0012418041476983971 -0.0003857787563553203 0.34164097816436134 0.16911518680738985
48952000.0 0.9040863344415525 -0.4195202904628536 0.03501864915297401 -0.07952148308187489 0.0008346300875321186 0.00354874688985931 0.3364856994748546 0.16629696139712793
49951000.0 0.9008333893133118 -0.42691731146475087 0.035823909482982766 -0.08612832254824808 -0.0017932110860037172 0.0011571286972214322 0.346287291402597 0.1415637007041454
50950000.0 0.8964788139594676 -0.4356266087451802 0.035779359368231914 -0.09648872175176183 9.383324630901917e-05 6.73078782657791e-05 0.35417006224712494 0.1506587893282952
51949000.0 0.8907620770920252 -0.44453320724519657 0.03592699368211115 -0.10414282645566877 0.002405406507244473 -0.000996479524228142 0.3597749369656102 0.13910133418623713
52948000.0 0.8912253588188226 -0.45066649207952103 0.03894049544356716 -0.11380716446524587 -0.004116226461293261 0.001493641808818015 0.37590489905942726 0.1397234434163495
53947000.0 0.8838063514380899 -0.46083468915619996 0.03788844721722964 -0.12174874117524667 -0.0005091723027709854 0.0011557287573072204 0.3635884695033203 0.1289335667126025
54946000.0 0.8778914984341443 -0.47048568152819803 0.0387630609292299 -0.12981013337038372 -0.0033950510623250935 -0.0006149211605614603 0.385836043182844 0.12251523176734624
55945000.0 0.8766240141671268 -0.4771938374135955 0.04016536482055582 -0.13959562339067674 -0.0038461559080128233 0.005030852211838274 0.3845096779501541 0.10385105803832134
56944000.0 0.8724108935946819 -0.48566912147811964 0.04272312414321098 -0.14954260659308363 0.0008669076490545842 -0.002254547610170753 0.3927328939388799 0.0977980406226653
57943000.0 0.8680521229219906 -0.4953609067242037 0.039736753700547744 -0.16460315199588982 -0.005016292195755492 -0.0017380201789687442 0.4103032819195687 0.08978748619000834
58942000.0 0.8625593900205641 -0.4995327892624789 0.04563740924429066 -0.17037970114916604 -0.0015294144362855444 -0.001046765181374204 0.4174919234440457 0.09429638709956553
59941000.0 0.8572824840503388 -0.5110829040131166 0.04633124054187922 -0.17957193908810065 0.0013048522235101798 0.002024810357366966 0.42301702606675695 0.08596543087937544
60940000.0 0.8493832499254649 -0.5172985157789022 0.04575905051749677 -0.18208928576340558 0.00026041833548052904 -0.0003850813005113993 0.39839474232383454 0.0774074836780364
61939000.0 0.8468372793333565 -0.5238857741304671 0.04602548767515189 -0.18892201143229564 -9.959529717230324e-05 0.000805699609883957 0.4156991168325351 0.06272039683938822
62938000.0 0.8414551803145669 -0.5346976987361923 0.0500956818722298 -0.20866716931735177 -0.0039032578390598713 0.0007529434690716561 0.4401915774488885 0.050949447507399284
63937000.0 0.8355571944959909 -0.5411651731837415 0.0492315221525753 -0.2273114549585667 0.0011941344485901662 -0.0009707460234738332 0.43662368882985003 0.04296836815174997
64936000.0 0.8281004755749786 -0.547297940182945 0.05262004695216029 -0.24078000349082654 0.0014410829779609397 0.00013298940769715373 0.4322539030716502 0.03470544802212712
65935000.0 0.8262655918684337 -0.5594790221914552 0.048077151967761474 -0.255897212654532 -0.003388229934464441 -0.0008090313913557937 0.44162988267501174 0.0059781877233294894
66934000.0 0.8209212272089292 -0.5631695866857384 0.05054689271032872 -0.26378270831290385 0.000721842177366786 0.00136500045403596 0.4267774375195062 0.0013938486625109272
67933000.0 0.8175004776876084 -0.571301712733764 0.05075308944281768 -0.28238855142916003 0.0001411546996115306 0.00010697804263618101 0.44818744737866245 -0.00048131760685376015
68932000.0 0.8004582765753735 -0.5713620675779787 0.04505518480233951 -0.2919578932374959 -0.0021860500891669223 0.0015314032291180826 0.4588431485436589 -0.011845691417212707
69931000.0 0.8028365082584565 -0.5890230273337106 0.04410215947900185 -0.31164831201097287 -0.002372159222640911 0.0019401765296332366 0.4512285673880864 -0.03731292798890439
70930000.0 0.7958234006414661 -0.5952055622349749 0.04073801732055174 -0.32307424790719613 -0.00037224793924451086 0.0006152477669176988 0.44539817024128076 -0.02748702736435977
71929000.0 0.7931095720572838 -0.6052280829506445 0.03724525107428151 -0.34005680340413164 -0.0022663350801449635 -0.0021620461875973694 0.4447681090409671 -0.038123984760415654
72928000.0 0.7878617112190911 -0.6143829240375462 0.036175636311003324 -0.3544378415374611 0.0011126405976382928 -0.006535762486819125 0.45741777201809836 -0.052870021335431436
73927000.0 0.7804891669527305 -0.6169746279316785 0.02808488640457545 -0.3734435526554157 -0.0011276519538783625 -0.0014923478765402896 0.4587679118031564 -0.06693100529038347
74926000.0 0.775368148373067 -0.6280679987593075 0.021022102760345617 -0.3944521676538025 0.000391938995927089 7.716931258489565e-05 0.4636300075613174 -0.049735526327795106
75925000.0 0.7682856780341981 -0.6348599718713825 0.009149808087997712 -0.41115876452222544 -0.0013988695789843382 -0.00036012338308999116 0.47071217987602987 -0.07781077216784398
76924000.0 0.7626298467786917 -0.6408722655025018 -0.005633246531266519 -0.43628588071341246 0.004708073226277766 0.003458512301511514 0.46856937331400894 -0.08473367055142185
77923000.0 0.7550880950110275 -0.6488503879991269 -0.018400294488720166 -0.45782845385306536 -0.0006557181472532714 -0.0063892270129932574 0.4684420160864195 -0.09769011785175986
78922000.0 0.7498478720665556 -0.6590089527595651 -0.032578999544480826 -0.48439193703852124 0.003528371082267194 -0.0002035051902940799 0.456763671152944 -0.10523604173421416
79921000.0 0.740105780931533 -0.6619570062985403 -0.05221906925082975 -0.5084302267855315 0.005637879664069321 -0.006126183067455101 0.4587825861615569 -0.12381492838472095
80920000.0 0.7350154592063719 -0.6740967643310909 -0.06755408982012023 -0.5350065899160263 0.0010464475562102207 0.0016297044218512929 0.46680678708736084 -0.13267025048282424
81919000.0 0.7307647087167585 -0.6787407518059536 -0.08154767806537848 -0.5602406796646826 -0.00011926542017639851 0.0019012658833189422 0.466277052711133 -0.1408901777946898
82918000.0 0.7207065864315012 -0.6876595351794761 -0.09595134266134434 -0.5925173277689737 -0.0027001397111963104 0.0006617029423878239 0.47183786512161474 -0.15684012163498504
83917000.0 0.7129407544642473 -0.6928886796505986 -0.11878333048898111 -0.618646599178356 0.0009896125450500034 -0.0005923580911726075 0.4763756718857853 -0.14871966125689848
84916000.0 0.7074778282838 -0.7023988032000325 -0.13448404840003944 -0.6516416643608172 -0.0020508849725054293 0.0008108098979115914 0.4642636988483635 -0.1645149742869506
85915000.0 0.7002278210236078 -0.7085820804356615 -0.15449844390946763 -0.6820275894966075 -0.0020787592045958436 -0.0008948375209746483 0.4680813520431544 -0.17510564342262802
86914000.0 0.6903993172511305 -0.7171444770450184 -0.16494904402902316 -0.7216263456747622 -0.001328342622039254 -0.0011496610110262413 0.46138763417485384 -0.176542258497877
87913000.0 0.6856026540030818 -0.7225221179479078 -0.18783478460001174 -0.7485379484410041 0.0016506969698252079 -0.002387657676847725 0.45323777742398325 -0.18082266038792774
88912000.0 0.6778356219845734 -0.7299962765513167 -0.20189438585723973 -0.7841972439541777 -0.005159237785803764 -0.00021359817905515526 0.46619296255456993 -0.21330780425852536
89911000.0 0.6698510842214828 -0.7383473774974108 -0.2154331930227251 -0.8165136109906762 -0.003756815967929402 -0.0035074123300106405 0.470036234672455 -0.2103799223213585
90910000.0 0.663141491817005 -0.74427986280479 -0.23368685008517553 -0.8469500224843663 0.0006098706965684212 1.4380810959006236e-05 0.4617905610132056 -0.21610965468508997
91909000.0 0.6546194521312894 -0.7479070757275469 -0.2518817911725587 -0.878471091284001 0.0008444843004752901 -0.0008612688179220005 0.47012483676026695 -0.23603444283860855
92908000.0 0.6479359537448766 -0.7585920451354056 -0.26851850252440507 -0.9112690243122781 0.00039374828591042074 0.0004203771339554586 0.4463324745361032 -0.23628147848377534
93907000.0 0.6398129986088209 -0.7624972037825378 -0.28703358697039244 -0.9393079701758685 0.0001558339223850602 -0.001959923889468287 0.4600737130553709 -0.2502196096500915
94906000.0 0.6282842862278234 -0.7704152305167612 -0.3014736519274793 -0.9770423903861639 -0.0005771363146156289 -0.0012646250894636283 0.45819451577738635 -0.252523368686002
95905000.0 0.6201172471143149 -0.7782865999259936 -0.3188580541983878 -1.0105483733982346 0.0018925857377103054 -0.0016088916987838362 0.4656957558381956 -0.26260344459144414
96904000.0 0.6125311604045957 -0.7854764220512284 -0.3388538387246507 -1.0470480335068533 -0.001416202623665396 -0.0017269735514834174 0.4530594044367634 -0.27676825587557047
97903000.0 0.602396998290223 -0.7927817145942059 -0.3629808022282965 -1.0752718110123145 0.0025539724634970366 -0.0027014418270617777 0.4430747944241113 -0.29465718985124306
98902000.0 0.5968059647736774 -0.79832095640072 -0.37944486223630697 -1.1093507491494607 0.003946525150164544 -0.004089598702858109 0.44249094003679734 -0.2923017955852331
99901000.0 0.589346174903465 -0.8040780258132009 -0.41162870185387324 -1.1422936993217179 -0.0022976957084993132 0.0013985897546256504 0.45608428080987024 -0.31418793611331325
100900000.0 0.5793982109830165 -0.8075157566621719 -0.43710056968089256 -1.1689241928412806 -0.0008392442408390312 0.0025412010656070726 0.45963501170409143 -0.3114222120141397
101899000.0 0.5680965315357122 -0.8160380576278865 -0.46312903601063976 -1.2040535661376761 -0.0009628361488726958 0.0007396934980895778 0.44157905146885695 -0.31474040399329817
102898000.0 0.5590224369060652 -0.8205708517353051 -0.5000388117905529 -1.2418803795869762 -0.00566381770473153 -0.0019359188531727432 0.4530711958542777 -0.3450375713805306
103897000.0 0.550416866146306 -0.8286781471606932 -0.536219194366661 -1.2728477261388216 -0.0001831972701593131 -0.0005266902889119712 0.45210617430272076 -0.33567766690287554
104896000.0 0.541891350870821 -0.8376498756881642 -0.5862750482343699 -1.2991054629408603 0.0008410032080107488 -0.0004148312085085078 0.4306665697752576 -0.33624869239599015
105895000.0 0.5317497152674746 -0.8398985482723254 -0.6258994428372969 -1.3410996941752547 -0.0012095963575607736 -0.0005484342113186497 0.435618081979367 -0.36490954664631275
106894000.0 0.5225037168093392 -0.8471119360004473 -0.6813781220813512 -1.3755559848093757 0.0008741763168494318 0.00040927894728847434 0.4390562765068492 -0.3677818651482712
107893000.0 0.5124958216866686 -0.8550029738344226 -0.7267910923948391 -1.4167608601808972 0.003061876161354834 -0.000685095513871596 0.43378112497028354 -0.3746981801563964
108892000.0 0.5044440434186891 -0.8556671670178795 -0.7896210853713136 -1.4532409715257235 0.0005728761922075239 -0.0028145220367783246 0.42785505990844447 -0.37475915747015626
109891000.0 0.4919126883343984 -0.8646307126499874 -0.8449619111663078 -1.4886476847052095 -0.001746916067598076 -0.0036078083596648635 0.4395039842894535 -0.37642301987351384
110890000.0 0.4791452666477702 -0.8798623196944151 -0.9273090359362897 -1.4991404816997334 0.0010956526958102457 -0.002959522587824722 0.4214485785740601 -0.39574144838632247
111889000.0 0.4727597188241281 -0.8694954440888875 -0.9634644495946248 -1.5521025306555385 0.0013762712062415985 0.0020651551962432013 0.4275903762641745 -0.40702448444198247
