! Created with skrf 1.9.0 (http://scikit-rf.org).
# Hz S RI R 50.0 
!freq ReS11 ImS11 ReS21 ImS21 ReS12 ImS12 ReS22 ImS22
1000000.0 0.9859265566815536 0.0081532367101001 -0.01298815517554197 -0.055691904687719576 -0.018801385945916623 -0.007622947890356386 0.3279846750180362 0.3228961129424031
1999000.0 0.9952009163458644 -0.008588536906344625 -0.0006951201990335324 -0.01817533826983684 -0.00903078430515908 -0.0008037827423610348 0.22467432071746182 -0.03706753085163757
2998000.0 0.9967362468430283 -0.017753773578703367 0.01185088703060538 -0.014836215650826502 -0.003607106419265372 0.0004473182039885544 0.18547164244990014 -0.12663543909955222
3997000.0 1.0001974524020818 -0.028931628685494544 0.011590144437790521 -0.008943862306696892 -0.0036574511660304398 -0.003347599902900969 0.10179044630531538 -0.21830818301420749
4996000.0 0.9946074073979022 -0.040497533251710086 0.013806559527174968 -0.0006003921242905281 -0.006332456216832174 0.0025165749315296674 -0.027018078306912 -0.20799622347776311
5995000.0 0.997710254630677 -0.04770251087521245 0.007816349016084394 0.0010207385047040825 0.00017605946125082408 -0.0017744135373097413 -0.1269122008988249 -0.11141291237561426
6994000.0 0.9959006000342954 -0.056498443933797216 0.002519881087351979 0.0035559088968793633 -0.0016771666675544333 -0.0013273404437989364 -0.14110928287965172 -0.03877944003206379
7993000.0 0.9952793587526263 -0.06778487060967862 0.0026786755915441432 0.00652212254166277 -0.0004209989377863383 -0.005638628121401409 -0.1645662646026503 0.030931690906584524
8992000.0 0.9948701312173376 -0.07482083712735098 -0.0007502327664830778 0.00897593307397594 -0.0007773410086266497 0.005842358025065847 -0.15534068753009042 0.06604792155071053
9991000.0 0.9935486915931759 -0.08259218997422302 -0.0011438029777677662 0.005252111886293892 -0.0004684640535765603 -0.0021821005207383584 -0.1404009095897546 0.09245909372803497
10990000.0 0.9913787421399156 -0.09263824580635453 0.0007960759048788224 0.0009463149047861204 -0.0006847389673927333 -0.002542925584363399 -0.13442874567861035 0.09580459086763794
11989000.0 0.990443783050684 -0.09802813808927316 0.00247725089816514 -0.0018724585892189998 -0.0009122274225457072 0.0015164334190974611 -0.1373999379760096 0.14570684554333307
12988000.0 0.9899306715508139 -0.10968148890288858 0.005206744650423598 -0.0007344330302718231 -0.00011548496463375545 0.0012611624227208604 -0.10723544143578244 0.16660126111189222
13987000.0 0.9886808906195119 -0.11903509183769644 -0.0034348900723219166 -0.002841820107811953 0.00031037831083364543 0.00016585370954263568 -0.09653313324056254 0.1773887728729465
14986000.0 0.987772544399121 -0.12568721721912124 -0.0005547868403633094 -0.0021982004910279895 0.0036242029792533407 -0.0017592978739745038 -0.09311832355204978 0.20643810403812515
15985000.0 0.987310282664571 -0.13347986594541117 -0.004575329823168641 0.00037784970126839175 2.386358757334851e-05 -0.0030657966213264976 -0.07178259573257002 0.22498431342059033
16984000.0 0.9866648116661139 -0.1480548666031345 -0.0017887709768742957 -0.006476809999597964 -6.304393070463187e-05 0.0021945491152650467 -0.05531982244256577 0.2088924822892461
17983000.0 0.9865818983370458 -0.1517303700735984 0.00041997589312692344 -0.0028113206423994474 -0.00455712193624081 -0.0009431153572144913 -0.05479111971307024 0.2203391115776498
18982000.0 0.9820701048569087 -0.16246581956627154 -0.0013389448074989114 -0.004970155876727781 -0.0024931339158985716 0.00036935551236884595 -0.01165789149591533 0.23507757173850502
19981000.0 0.9824658300262777 -0.16865907886555376 -0.007400931973404119 -0.0062215161474952875 0.0014105984035520417 -0.0003042864189500273 -0.013730461358277216 0.2344668697542458
20980000.0 0.981218036474536 -0.1786319689670812 -0.007857420791691733 -0.0022659259881095957 -0.0002737258681043654 0.002491735187717891 -0.0065785757266505285 0.25590977191449554
21979000.0 0.9799528028947816 -0.186585150809654 -0.0025256693015717493 -0.004518280410377169 0.0026816734668716146 0.001943940335909715 0.010884699659530823 0.24318951397996547
22978000.0 0.9782903569868046 -0.19596848345494344 -0.007985001085953541 -0.00438314017569833 0.00098501260523423 0.00025885441099906924 0.03616776569836811 0.25434500659473924
23977000.0 0.9754965301605365 -0.20342261408396442 -0.008228045984822898 -0.0005346558708213704 0.0017604397230335368 -0.002512972612915947 0.039715428156652334 0.2595768046787382
24976000.0 0.972670654847556 -0.21338136049905235 -0.006916134037158801 -0.003768884638650207 -0.00026559199004868016 -0.00032547760793944294 0.059295517758726254 0.25852520736029705
25975000.0 0.9658107157096643 -0.2204551421250729 -0.0019503382451476886 -0.002010523318570127 -0.01629300980889629 -0.018727978327016753 0.07110214081151978 0.26141290601129247
26974000.0 0.9712112847786868 -0.2290087143288056 -0.004678004412458936 -0.0015497255934567016 0.002068289570557754 0.0004293762287062729 0.08966199731296155 0.2612822054597107
27973000.0 0.9673153797933237 -0.23897548780010472 -0.002153803403804859 0.00230315319600295 0.0016492558610970362 -0.0009848112464513562 0.10099477618858506 0.2548397951255212
28972000.0 0.9660128687769154 -0.2463755610635803 -0.001117664436021359 -0.0011318037635796492 0.00236448137595319 0.00030455483167158984 0.11981979362530451 0.2501072376233631
29971000.0 0.9641618847578464 -0.25615175269007484 -0.0016869698301070833 -0.0017107442254201762 0.0003422024298713347 -0.0007640542205257125 0.1564563232059796 0.2644991174633028
30970000.0 0.9619010429298862 -0.2612091651519856 0.0018089644101452822 0.0009544884450786877 0.005189437731270449 0.001229584892460304 0.16313725132503343 0.2392241597876621
31969000.0 0.9595055918804211 -0.27057842909441787 0.005964051778523299 -0.00658647524298035 0.0019187844416245308 -0.00022000612076857761 0.15226300164526155 0.25360553218330056
32968000.0 0.9582757080816059 -0.2790935084621224 0.006817301383309095 -0.007051116069923392 -0.0021252683962428316 0.0016528780802380503 0.16862672823262342 0.23417423775163862
33967000.0 0.9544526259750648 -0.288350794655231 0.011875055702640214 -0.008843444235211308 -0.0007589987901424665 -0.0025895726815685777 0.19000380611181267 0.24171510893617032
34966000.0 0.9505901550933074 -0.2995398761979482 0.012839758716339529 -0.012121805074995353 -0.0007445709671197692 0.0002173238257332396 0.1950787817253233 0.24839178759686012
35965000.0 0.9490743336038762 -0.3070142016655879 0.014401092600680426 -0.012563106709195278 -0.001825809122243374 0.004990409814597682 0.21119714864287384 0.2512836312419093
36964000.0 0.9467155959244621 -0.31519903146010914 0.017870143687549914 -0.014470911574476572 -0.0022839042387999744 0.001594013266221931 0.21250436834899813 0.2496187210539172
37963000.0 0.9447721396174132 -0.3246150277155004 0.020789015479687516 -0.020163369142961025 0.001530179767752248 0.0019476567809708354 0.23287613927065787 0.23104175799926985
38962000.0 0.9403909828455188 -0.33405144194845054 0.02447870431535939 -0.02512975962263081 -0.0002594857334390366 0.0005783004283377328 0.2360968338760485 0.22858999361893678
39961000.0 0.9392776506577962 -0.33917991500053624 0.02719142999979482 -0.027559582498584013 -0.003545074447677099 0.0018540753812417957 0.2540154010782565 0.21768039068334225
40960000.0 0.9335280644232841 -0.34960533452897535 0.022886852431475462 -0.0232783367187148 0.0014196214441059463 -0.0008546961586690018 0.26604271799851253 0.21480968561255315
41959000.0 0.9316790188002815 -0.35871611734259284 0.02520512666229478 -0.0326124111187394 -0.001823776008404905 -0.0015998922406420606 0.2703071693081598 0.20887429410439637
42958000.0 0.9259420448379629 -0.3686624314617533 0.031220993666878794 -0.04238412726779583 0.00010333231380432066 -0.001423741726698282 0.27588316598700807 0.2018525961561678
43957000.0 0.9245036669769813 -0.37434496256276095 0.030801191656679723 -0.047993492889854175 -0.0009179369563047578 -8.330146160162579e-05 0.289393404394256 0.20635671214453533
44956000.0 0.9209809079412049 -0.3829922208841762 0.03325962965948902 -0.05173910130620398 -0.001909551468853549 -0.0006498099800251249 0.3021418161118052 0.19100092356232232
45955000.0 0.9176581997292576 -0.3929214827006256 0.03407842767967841 -0.05792930342349137 0.0023162537193179263 0.00023792315933274182 0.31076049572010156 0.1865430554290262
46954000.0 0.9134539641485806 -0.4010767279103135 0.03427291113273863 -0.06696380678162944 0.0028258824444148353 0.000263356164127662 0.3287547600885543 0.17570553325128122
47953000.0 0.9081111574782795 -0.40895280897367536 0.034741008854650056 -0.07138720792278631 -0.00031654839339669303 0.002169670240930398 0.33765318728134036 0.15925401685280055
48952000.0 0.9037483033386531 -0.41963369228591013 0.032818392237927416 -0.07916255278531349 0.002113365030020556 0.002288979465348305 0.3346970020719405 0.16423107500121736
49951000.0 0.9015614595678249 -0.4259621325786288 0.035006776302586876 -0.08564192697312831 0.002006512650512703 0.0006804308804342199 0.3462469499450896 0.15666483568025913
50950000.0 0.8979544171490967 -0.43525956620438105 0.03705802899074707 -0.09509050800327522 -0.001164665542836129 0.003200922255169473 0.35783368426993895 0.13881872857363892
51949000.0 0.893606931983108 -0.4423899362290433 0.036584114836120625 -0.10309391717505713 -0.0015563745560044071 0.00035759718046719086 0.3656446738078859 0.13543577632931675
52948000.0 0.8917518001221584 -0.4488966696155031 0.04163654129475602 -0.11239726197986352 0.0019105376777522102 -0.0017178534826023995 0.3783961544834267 0.14160191524536186
53947000.0 0.8845999016791339 -0.45841194484139103 0.04134989983817531 -0.12232320711239904 -0.0007057948491073247 -0.003277797698548458 0.3781655510390991 0.11674221636453778
54946000.0 0.8804447251783654 -0.46774748409327954 0.04210601855037615 -0.12865271289656266 -0.0003388769141108924 -0.00021340514016227177 0.3964102658510783 0.11325929380447076
55945000.0 0.8779709447483147 -0.4761172079464801 0.042818506819168316 -0.13905972551309326 0.0003711370943098127 0.00011679435292011855 0.38591901825118213 0.1067115674607666
56944000.0 0.872804062869712 -0.4836454063496561 0.04686764142563891 -0.15102578065760078 0.0024408609293730585 -0.002506684975253191 0.395322050227049 0.09938017112468912
57943000.0 0.8679648706800267 -0.49381790444090257 0.04697245353841443 -0.1622493817232642 -0.00014967639696539427 -0.00020821367227071737 0.40383795733088584 0.08142300641162566
58942000.0 0.8607325018386212 -0.4994881398428073 0.047032746791529495 -0.1722168040366673 0.0007030210306080816 -0.003231393451875947 0.4163183342711875 0.08380940023710834
59941000.0 0.8609219126307233 -0.5063754634549915 0.048040848625742386 -0.17906853744965504 -0.00019453579488371958 0.0022018935340507653 0.4207693276364865 0.07251309826913421
60940000.0 0.8514076872580848 -0.513882688135959 0.047880288960254924 -0.1865693226950575 -0.0007594410080140823 -0.0007399402571853723 0.41396046778761353 0.06273103652634937
61939000.0 0.8492611947153966 -0.5211225877052128 0.048407362505711274 -0.1918225549074995 0.000991879731516813 0.001292146795068631 0.42065678824555547 0.05921600096413084
62938000.0 0.8424500397259641 -0.5330377650774113 0.05144387263333139 -0.20964365179629352 0.0010117556210030043 -0.0006799066766570433 0.44740266522481215 0.04938211321698016
63937000.0 0.8368030830253852 -0.5402351394357927 0.05170456984014148 -0.2309794297914988 0.000938899263942773 -0.0032750398670118074 0.4371879248388273 0.031361069108209585
64936000.0 0.830969723751875 -0.5450101543757994 0.05071035274183495 -0.24464550595144535 -0.001634317565456894 -0.0020824268719066828 0.43455581536306886 0.030134949477961984
65935000.0 0.8286564486930501 -0.556132521236101 0.05325766714881621 -0.2601867762394275 -0.001381559469109419 0.0009719975361666822 0.44602919317611894 0.023250476905903043
66934000.0 0.8234308259784343 -0.5623633522185398 0.05325455849744854 -0.2696747301793993 0.0013436570056883255 -0.0008038716527864902 0.4376364916952209 0.005746653042320832
67933000.0 0.8194913431956651 -0.5700993257208473 0.05416274780373552 -0.2856033780219676 0.00011614592339103098 -0.0019755575427652023 0.44212833238029503 -0.005113397506484099
68932000.0 0.80277631295475 -0.566785558499665 0.048224408068537575 -0.29216671923920284 -0.001419573098119185 0.0022931635737766937 0.45173622162265353 -0.02131045707461223
69931000.0 0.8043978162054324 -0.5872198685789942 0.04510162544071695 -0.31244694431145476 -0.0001346621756705397 0.00028072336136609067 0.4458566630088477 -0.026809093420980385
70930000.0 0.7982257113561798 -0.5964114595067074 0.042667262055351256 -0.3263746445187034 0.0008465739024968279 -0.0004677802896192734 0.4500415053123326 -0.036853988136560115
71929000.0 0.7955954011809312 -0.6022050138862619 0.04186052037681865 -0.34460260941930193 0.002949505887091032 -0.000882610102205579 0.45252438883356877 -0.04452156972811075
72928000.0 0.787473469808247 -0.6116713677303851 0.036059203831492956 -0.3620580903266619 0.0009814673064603926 0.0039470086768525585 0.4558112888894354 -0.06393545893939998
73927000.0 0.7813508918795427 -0.6172953617005746 0.028778602733463467 -0.3813060532973637 0.001832413102362 0.0003245679631696132 0.46366617383606745 -0.063945506560365
74926000.0 0.7773994101773455 -0.6277728081726025 0.021311602761619104 -0.3974082340923763 -0.0014424601517786394 -0.0020969993011278627 0.4628596570225754 -0.07466120098782106
75925000.0 0.7724052540175129 -0.6318360865035658 0.012587388936011972 -0.4169913791849102 0.0012587338617402102 0.0006736593078920365 0.465747266178756 -0.08502758157218761
76924000.0 0.7632297636824444 -0.6402341238970632 -0.0032896852726230132 -0.4441803646526567 -0.001107445384497674 0.0007556355078732065 0.4692594105927461 -0.08614275591219778
77923000.0 0.7577407959465597 -0.6467271155845209 -0.02008875814385816 -0.4644732884014403 0.0006931257386343422 0.00022678620287750655 0.4546123940125961 -0.10709132294978942
78922000.0 0.7521803994170003 -0.6551101395863766 -0.028132386808307635 -0.4882454659166409 -0.0008585356536628204 0.0019534471899526114 0.4698890904280343 -0.11639013393632042
79921000.0 0.7445772305356595 -0.6615494582182403 -0.048423008877299105 -0.5148944459804932 -0.0013927664912669808 0.0011657093037305067 0.4602241375006753 -0.1354328436338819
80920000.0 0.740396339213847 -0.6704363584321289 -0.0612975819233001 -0.5435976912969336 0.001051686598138283 0.0017748212097832066 0.4685992963272096 -0.14067098392576916
81919000.0 0.7335154152849523 -0.6758612425811559 -0.08042749723052703 -0.569673231540884 -0.004386274555932305 -0.00012610039335728904 0.46964520685653544 -0.1291585812003294
82918000.0 0.7222019629025652 -0.6859519441248649 -0.09929082884218648 -0.6024304620890545 0.001052034272550994 0.002330832059668414 0.4779267610762634 -0.15937998286219068
83917000.0 0.7155489895565404 -0.6917301414754268 -0.11792741235922663 -0.6286445994361655 0.0014532760402688814 -0.0005127963470086353 0.46868656239943957 -0.15167178579813795
84916000.0 0.7113157443665171 -0.6981458690197255 -0.1314895847799539 -0.666080201323681 0.0013620908168610396 0.0005883236694404081 0.46500076981587984 -0.17995339996409931
85915000.0 0.7031849635617609 -0.7063624153688 -0.14916059225336784 -0.6921714722195826 -0.00025799211967852335 0.0001739878487273824 0.4689920769114055 -0.1795430274734342
86914000.0 0.6950036053339221 -0.7154322573597377 -0.16573639787085756 -0.732967642907784 0.0013471943974414195 -0.0012619631926100107 0.4546220741050527 -0.1784398943802085
87913000.0 0.689006046748945 -0.7200256456733959 -0.1859652863541431 -0.7588201480747737 0.0019327629161655076 0.0005108700232000338 0.4589644926326052 -0.1954316427590355
88912000.0 0.6809695708503477 -0.7293413212042036 -0.20377185433074213 -0.7923290917842225 -0.0014977138504994295 -0.004560610000144957 0.4590513675570702 -0.21373482989205017
89911000.0 0.6743645730950715 -0.7379952536726113 -0.2173037419125392 -0.828040802663014 -0.00398280983136828 0.0012733789222600512 0.4658220609319621 -0.23198304090838062
90910000.0 0.6662980269256445 -0.7423094914925937 -0.2343422666609043 -0.8604762896380294 0.0004395416403430964 0.006340745742994628 0.46070358967471325 -0.22106474805548124
91909000.0 0.6566736961577393 -0.7471685187021285 -0.2539915112639534 -0.8944962673247179 0.0022461471249882116 -0.0007771596409407738 0.4635021695323783 -0.2313420136394996
92908000.0 0.6495291188777826 -0.7554580665363573 -0.2707659643867981 -0.9237340399631743 -0.00010027304710230743 0.0006384932249656753 0.45117570378364635 -0.24954368721594897
93907000.0 0.644268044678724 -0.7609451118023254 -0.28659751723052523 -0.9557913343101092 -0.0007468940389193084 0.0017353809815630697 0.4474275880500738 -0.26407598389988707
94906000.0 0.629217476613467 -0.7706113955089043 -0.308666447387208 -0.9871559346943926 -0.0030330761978629916 0.0006835131556575777 0.45446435268473034 -0.26132956441981275
95905000.0 0.6224835300246374 -0.7767320291851408 -0.3278856209021384 -1.0190617513652542 -0.0005783435229370983 -0.0036119432902106457 0.449632674359306 -0.28422096245086903
96904000.0 0.6171748731244494 -0.7828657268994599 -0.340893493625099 -1.0632433756732624 0.0005475156481824234 0.003375489467490068 0.4560350757886602 -0.2885787900720198
97903000.0 0.6067616312514013 -0.7901510173265226 -0.368517870089412 -1.091694106847593 0.0009676358929903641 -0.0018527633761764454 0.4403552527627405 -0.3019495977630421
98902000.0 0.5984505330023401 -0.7955071894698471 -0.38743030884844903 -1.1298743149070145 -0.005502210820386124 -0.00019345762436994148 0.44638220884765234 -0.31338830596608247
99901000.0 0.5905128116083503 -0.8027808215891813 -0.42066470712464604 -1.1640267860271667 -0.003642142049246062 -0.0012854763478721395 0.45488773810132344 -0.3185584846540142
100900000.0 0.5817142706992354 -0.8055260500529184 -0.44406708641608267 -1.1859907951269824 -0.004685811470388129 0.001896493352606077 0.4552024270421255 -0.317656970486968
101899000.0 0.573770541658391 -0.8136273129031724 -0.47362024166761546 -1.2252083440344785 -0.0029781061149118404 -0.00017787950261259218 0.4413466965148657 -0.32559809712652654
102898000.0 0.5626230038910881 -0.8192000427090862 -0.5117957340026905 -1.263149441745373 -0.0018299382695638516 0.000925266668634322 0.4452004760396801 -0.35204794452324567
103897000.0 0.5545531489373696 -0.8272468352895934 -0.553122307806362 -1.296178201059933 0.00220319988808649 0.0016916535996283867 0.46199305945063496 -0.3490124991879834
104896000.0 0.5467269279109154 -0.8367307877221279 -0.5966542859798112 -1.327634239778005 -0.003949672032406834 0.0026464400297235664 0.4426816129953065 -0.3463905141958621
105895000.0 0.5345812213278853 -0.8392312114534268 -0.6456966968227938 -1.3681824592415053 -0.0007940045394102809 0.00040677277927101714 0.4359405729270124 -0.3732813632704802
106894000.0 0.5231045651473953 -0.8472135345961811 -0.7033722528104984 -1.4016356393789664 -7.743045416360461e-05 -0.0027051087592612644 0.43050132129615665 -0.37525153357083474
107893000.0 0.5198767224696094 -0.8511328833145014 -0.7546378187714892 -1.4428199997504223 -0.002726368130826697 -0.0021864254729838245 0.43582788833772046 -0.3965465956531256
108892000.0 0.5079711976433087 -0.8539165351103248 -0.8165235914668325 -1.4735836482124471 -0.00011777986751532955 -0.00038859800216942884 0.4240357435568496 -0.3924639464157054
109891000.0 0.49581103721918307 -0.8636601865181919 -0.869389439207788 -1.5109285817648588 0.00012250378116001513 0.0002709673073020048 0.4307938675742486 -0.3926764818988027
110890000.0 0.4915298140695484 -0.8734159382165837 -0.9361929633160156 -1.5281889245893574 -0.001968922506965991 0.00024091538244528217 0.4251045675856944 -0.39812773804745105
111889000.0 0.4729638567819466 -0.8699228416721487 -0.995321899695076 -1.5720149607708525 -0.004481587365216131 -0.0029195922750334734 0.41074408033717263 -0.41388474242108786
