! Created with skrf 1.9.0 (http://scikit-rf.org).
# Hz S RI R 50.0 
!freq ReS11 ImS11 ReS21 ImS21 ReS12 ImS12 ReS22 ImS22
1000000.0 0.9765860498493548 0.005650264451434907 -0.004107011059298975 -0.047260632469327955 -0.0001361346291606115 0.007951549369888067 0.3335345946784252 0.28929004038455686
1999000.0 0.9916748696176284 -0.013939420615630086 0.009239989053283085 -0.023359516789422437 -0.007460216106220702 -0.003366360434784907 0.27134577243565383 -0.033908269868991425
2998000.0 0.9978670278203207 -0.02389708403654235 0.009977167539426556 -0.012103530080315951 -0.0016558906589288658 -0.0004717697221400779 0.19142453296201653 -0.1288345590487034
3997000.0 1.000243209024865 -0.02996078887296367 0.012114387840086012 -0.004952631823594013 -0.0054345496058699795 -0.002809995482885774 0.08656874178330905 -0.21706933827626315
4996000.0 0.9979290331908226 -0.03728533442507966 0.013906679819137466 -0.006810877090947588 -0.0001139801213065449 -0.0023695406211641412 -0.023879474881619636 -0.20488723340078585
5995000.0 0.9951807799236074 -0.0493254864130121 0.008866277111657085 -0.0005534711963875804 0.0026420479496213614 -0.0033449871172250515 -0.1286016846612138 -0.11038991451802889
6994000.0 0.9932493608544936 -0.06128961913529881 0.0011001182993331522 0.0036992064413698695 0.0013063803725658044 0.0019861229316874697 -0.13140181029219067 -0.03288258411948698
7993000.0 0.9952957462492693 -0.06737236153104668 0.0011465303969727142 0.004175755399088599 0.0018170805919954134 -0.00025295754707578463 -0.15254551277631137 0.027917549786867515
8992000.0 0.9940791844921989 -0.07022022452488245 0.0013598922323355266 0.005039124903406691 0.0008429563244373839 -0.001314302729160986 -0.14137691581424228 0.05726281938695177
9991000.0 0.9923506063748453 -0.08223680395927947 0.004289208900726934 0.006848993442369823 -0.0020416012227122216 0.00233783320218102 -0.1423664965996089 0.10094874707470891
10990000.0 0.9927318575212948 -0.09289546898702725 0.0016291186146700103 -0.002797166268375133 0.0017578786971370309 -0.0012844966962401326 -0.14388067531023643 0.10648342825186609
11989000.0 0.9893722007741249 -0.10211568899715974 0.0025729215640694606 -0.0026558793876315925 0.0005851737355147423 -0.0016186715278214176 -0.14573575497385743 0.1309350369885761
12988000.0 0.9875118711148868 -0.10971445026146277 -0.0008483652883234082 -0.0035877295904947937 -0.0021758043606034945 0.0036807781090930788 -0.1150033720938167 0.17122075570459075
13987000.0 0.9856818928391013 -0.11804259281346893 0.0022052617275665175 -0.00059828136699996 0.0001895825446827219 0.002175434250091835 -0.09129502163074292 0.1980605975571168
14986000.0 0.9853841153906379 -0.12621641365848604 0.0006117150016769014 -0.002273760978538296 -0.002824826083823247 -0.0008155101769909549 -0.08868644342614143 0.1962673234786214
15985000.0 0.9875629580770657 -0.132612997941664 0.006315296009845846 -0.006140551900995962 -0.0007112575063361895 -0.0012526941862164224 -0.07700504874076466 0.2168201712619065
16984000.0 0.9845590916288126 -0.14645045140608998 -0.0016587566175122433 -0.006456738568167317 0.0015777070461374775 0.0024690391966650013 -0.06340938271243124 0.21720212395662344
17983000.0 0.98415412111648 -0.15017996278281903 -0.002134908565091242 -0.0047644257471913705 -0.0017948088473356996 -0.0018397952448915332 -0.047650520708700274 0.2259371392078773
18982000.0 0.9829536469984987 -0.16123191953627136 -0.007681003866248555 -0.005343784014495227 0.00273698701054513 -0.004280241365823571 -0.018337594477404445 0.23513670837338918
19981000.0 0.9821518465470191 -0.16544460000036382 -0.003821110388837876 -0.004691000727000077 -0.0004443480211536091 0.00431400566143832 -0.012755945125288222 0.23815878748254649
20980000.0 0.9801672833132339 -0.1767820138881634 -0.0022194650057669775 -0.0011116200603514632 0.0034196095558675717 0.0004287660764370092 -0.005076594846420961 0.24723030930556492
21979000.0 0.9775391125098607 -0.1869575467357065 -0.0060168194874089245 -0.006248747851396807 0.0008099179635854414 0.0006609229592218837 0.008291102179055551 0.24835175753478464
22978000.0 0.9756851484217683 -0.196470491754339 -0.005676289762395981 -0.00810476607696475 0.0005858050258675844 -0.00044999638160909554 0.03017746191610652 0.25112080334490794
23977000.0 0.9777861271311024 -0.19863211643628984 -0.006262748123045579 -0.004199818295996752 0.0023599079521267764 4.448804196595622e-05 0.024826016709714547 0.2571554585544102
24976000.0 0.9726530638373379 -0.2110465494667931 -0.004773041085608195 -0.0015601164546584808 0.00477844869102034 -0.0024323907064626744 0.05962110142509695 0.2593796571986098
25975000.0 0.9680194609085684 -0.21765603250837018 -0.0020529100365331136 -0.004084269529757018 -0.0251598464338485 0.0031188333950470885 0.07756501530640443 0.2592527625662015
26974000.0 0.9689790799811773 -0.2289659154739656 -0.0041507193831426805 -0.0006040526013458157 0.001264091325796851 0.002803083287978643 0.08296170469601609 0.27209644239706815
27973000.0 0.968969797579365 -0.2338428165862796 -0.003783459831967099 -0.0019880228584429043 0.0015439220405574056 3.246664033276387e-05 0.09152796750157899 0.25927244495757723
28972000.0 0.965979414209136 -0.24402098237687328 -0.0031089695653258058 -0.004889080968472283 -0.0009786569692341739 -0.0022603149306831957 0.10898809208199031 0.2584866840058257
29971000.0 0.9637348060606815 -0.2543460703297391 0.00017349547021138092 -0.0037274722994412837 0.0020291241627425176 -0.001845341775572882 0.15909049154432026 0.26902600360780476
30970000.0 0.9604041979153198 -0.25856753080893813 0.002082611784263046 3.207477921753368e-05 -0.0013296710403375806 -0.0022043560535874363 0.17928119267432086 0.25062153517459956
31969000.0 0.9587576781417313 -0.2688081034070148 0.0028287742558322725 -0.005598778589240744 -0.0031625276236122795 -0.002793782379998354 0.1459326496765581 0.24706174421666127
32968000.0 0.9574751760892958 -0.2775607940303746 0.0069519998866441205 -0.008803051244551524 0.0018418274594447248 -0.00038365986419795127 0.16293387920855612 0.24860239355857305
33967000.0 0.9543428486472738 -0.28829494719957643 0.008724086520138402 -0.01001833292722594 0.0009043864727352794 0.0003990366978642941 0.189355299037746 0.2502223910271137
34966000.0 0.9501296396273201 -0.2973527814342065 0.014895446002289082 -0.010790877266139679 9.165755313479878e-05 0.0007430369931257403 0.19038915294092668 0.2533192188611761
35965000.0 0.9483216628411305 -0.3052107802719842 0.014141959234400257 -0.015113833962054804 -0.0009148483046235326 0.0004909715081880496 0.2099824477463351 0.25278551596849386
36964000.0 0.946339315255801 -0.3130756452827048 0.015269795973079661 -0.013666691446744534 0.0025904255609399567 0.001173780709216551 0.21365865816538115 0.24880825944483595
37963000.0 0.943815152576741 -0.3215895715839418 0.019512139841834492 -0.02323924647235136 0.0012774059605082243 0.002843400874544084 0.22775576236120906 0.23963765034999085
38962000.0 0.9411724680125073 -0.3310293680026682 0.021577598858596645 -0.026246221502294168 0.0015371340385473711 0.00016158597877866362 0.23493677992959863 0.23425217030651252
39961000.0 0.9373767242126315 -0.33952068420406467 0.02887469334440563 -0.026844559811748395 0.0027791262418309145 -0.0022659125951516256 0.24277831616039947 0.22257181200529672
40960000.0 0.934279157953544 -0.34742072300543136 0.021709927217870684 -0.025761030030741348 -0.0023085882251040347 -0.0022857899920839184 0.26507805894167047 0.2284155623172735
41959000.0 0.9301494253184598 -0.3574386695822642 0.02971140100465162 -0.03347834500271462 0.0010990277393304348 -0.0009316046009349856 0.2610157569719123 0.22298414987254045
42958000.0 0.9254447632323819 -0.36604257325857686 0.032544315634553574 -0.040954449199184104 0.0011008688975960531 0.0010127260243889514 0.2735067241036005 0.19912474169253044
43957000.0 0.9252649718857534 -0.3698526714061373 0.03201426896404164 -0.04475367595268572 0.0004040922236853148 0.0008945435533153528 0.28638768961823796 0.2056515818833587
44956000.0 0.9207908542758283 -0.37814558229601253 0.03695974935373216 -0.05022125500691211 0.0008815965936318921 0.0019218944367331012 0.3025157443103613 0.19688359537896521
45955000.0 0.9170973947528799 -0.39138634662246513 0.03401488831567738 -0.05679106983181419 0.001485624780520285 -0.002564900111584086 0.30092528017828396 0.19155499310281962
46954000.0 0.9137177893851002 -0.39907007740647005 0.03409607581114857 -0.06507678194103032 0.002030060487675332 -0.0018235290849282866 0.32495208735013487 0.18212723598844383
47953000.0 0.9104148442583979 -0.40632042674096147 0.0342740149457267 -0.07253015194986223 -0.0019360501234127196 0.0011847599995499479 0.33539758487903565 0.17187325212292356
48952000.0 0.9035383626393989 -0.41683650192721144 0.03570368411918498 -0.07848699144098631 -8.953197070100715e-06 -0.0008302587196740024 0.33229785502577625 0.15660731749911375
49951000.0 0.9015269247860418 -0.4213593060178243 0.037060504143680506 -0.08814534746012544 -0.0003822145448510159 0.0026458807916898545 0.34774176247648403 0.16336090508670842
50950000.0 0.8989926018499665 -0.4323472162036291 0.03744390879508689 -0.09638611738754299 0.0031049494495789406 0.0036790696493623817 0.35471251123610736 0.15564551391406808
51949000.0 0.894065336051892 -0.43955616070693115 0.03674283758703634 -0.1038147579677026 0.002770605046972304 -0.004740202383252386 0.3590912921000638 0.1501094988696806
52948000.0 0.8922897320977574 -0.4469033835874509 0.03647647611306424 -0.11081592983237136 0.0019737544776358504 0.0023034203946549646 0.37223830136671837 0.13665727147729875
53947000.0 0.8838216548867648 -0.4563297061590668 0.040339400388966155 -0.1215831609833314 0.0024367388757286284 0.0069889802968181826 0.36225578116127194 0.13593566145510408
54946000.0 0.8798508452521253 -0.4641524788591792 0.039667880209119266 -0.13169899349245218 0.002995373017545189 0.0027581274282132496 0.3876328882869096 0.12135570269397411
55945000.0 0.8773967148826137 -0.4711880183516951 0.04439437673601963 -0.14085254631148975 0.0005380847391596865 0.0016969458879435289 0.38544770463381073 0.11120557614835058
56944000.0 0.8715816063906642 -0.4818038653762227 0.0445913296572691 -0.1483503785246157 0.0017373001256084683 0.0036605432762311114 0.39453120102705824 0.11056646767640248
57943000.0 0.8684629830780117 -0.49111969947482353 0.048150947023561756 -0.16039218515169043 -0.001288721221792488 0.0043393338144192915 0.3931152088330634 0.09785980118714213
58942000.0 0.8624123632216303 -0.49547209866599223 0.047435170657508054 -0.16988536634243423 -0.0016339829858918065 0.00020860712311926473 0.4145414118800993 0.08511500041175968
59941000.0 0.8604508484803803 -0.5070151755513769 0.04951835523343172 -0.18006658283150617 0.0038960190315117803 -0.0006507921173416366 0.4150205402290906 0.09125455451737081
60940000.0 0.8531474335628196 -0.5122556061481165 0.049222132185072716 -0.18204278013257003 9.692304314744319e-05 0.0008408592144182275 0.40887075416584673 0.07964633519969241
61939000.0 0.8490906546814546 -0.519390849821807 0.04720748000242391 -0.19199098417545743 0.001804479730071714 -0.0002119496218357427 0.4212280121867902 0.07123945653642619
62938000.0 0.8437455820731852 -0.5303604427160664 0.05520854444902498 -0.21101620901918894 -0.000262247506940725 -0.0014161621815047788 0.4442888877435168 0.05991576989673664
63937000.0 0.8359204818280628 -0.5384659200806857 0.05398052086387554 -0.23008861222456162 -0.0006662816880900549 -0.0028825103536348085 0.4363557068964063 0.04383933354908086
64936000.0 0.8324968968268596 -0.5424078476300368 0.052439799095276136 -0.2398367851703468 0.001834043803698719 0.00041621552669660706 0.4287358607334669 0.043033509754298066
65935000.0 0.8290713320410821 -0.553051193469127 0.05396878240180847 -0.25352418309959357 -0.0032444721214215226 -0.0006891295911644814 0.4340550509866299 0.010611094735421033
66934000.0 0.8244217399579855 -0.5579533528438085 0.05598663842692482 -0.2646538638379247 -0.004391234440335831 -0.002752003916096134 0.43584555441294764 0.009436848395003881
67933000.0 0.8194567911645642 -0.5674295526673563 0.05594163913011912 -0.28145363785432853 -0.00556030778958196 -0.003715207539574898 0.43976803876693465 0.015865800054641298
68932000.0 0.8015465614005508 -0.5690384606535424 0.04504748293313831 -0.2897546443452436 -0.004530735741460038 -0.0010529608240013326 0.44911015236400775 -0.007692975124604155
69931000.0 0.804986237211799 -0.5857111652551872 0.046962557031933375 -0.31136365987382403 -0.0011329744772410207 -0.003000621517622713 0.44757709028426274 -0.021409997427204407
70930000.0 0.8009514417374328 -0.5897033638090661 0.0460207906033877 -0.3183542218816159 0.000762516896964923 6.677951992096813e-05 0.4477907239632773 -0.014790045983836257
71929000.0 0.7972659323320931 -0.598811991830189 0.041543656348950686 -0.34385012128129355 -0.0006309464294908281 0.0006927571898506544 0.451120301085421 -0.032703997860950344
72928000.0 0.7907209997151933 -0.6084970340202203 0.03569552740056414 -0.3554744870161649 -0.0017836693624382336 0.0006379522382241369 0.46558544886742764 -0.042118569336053346
73927000.0 0.7827783492162105 -0.6149403755961586 0.028021515504222546 -0.3777352684494878 -0.0006228047234905619 0.0002886512088504825 0.46078575446026115 -0.05580772078169771
74926000.0 0.7762258882164024 -0.6235484209735896 0.021676060364210284 -0.3932166033242964 0.0005080152321582103 -0.0005343012911459599 0.4572012285694113 -0.052248810496612355
75925000.0 0.7724749724688432 -0.6269541691202475 0.013170272027959342 -0.41091785551976145 -0.002848545640456664 0.002278108975495978 0.46870285109819493 -0.06924191583443726
76924000.0 0.7673915136033039 -0.6351858151113187 -0.0004495605452860957 -0.4376924512266645 -0.003562173208718763 0.0025856028873526326 0.46342480581830114 -0.08526694935477566
77923000.0 0.7589360753837067 -0.6442292132511352 -0.011249017821274613 -0.459782156098969 -0.002637704884059728 -0.003999278445508321 0.4602684188315065 -0.08896267619257477
78922000.0 0.7545680678264384 -0.6520352684400402 -0.026481217804877305 -0.48491189651401695 -0.0005579371144444065 0.00032405880003087283 0.46266842937253033 -0.08754687512387814
79921000.0 0.744792930918613 -0.656489781317015 -0.04623038142461258 -0.5060511380692121 -0.002741083053868062 0.0007912382133702447 0.45934477704725607 -0.11046218026277853
80920000.0 0.7416922200354976 -0.666556094279255 -0.059363475357841845 -0.5368930394198074 0.002439682083745108 0.0010902368308093103 0.45912138923737705 -0.12285495680981251
81919000.0 0.7348225193181138 -0.6736975431920325 -0.07763492330949912 -0.5631621278022237 -0.0006529796481710688 0.0019430226493438998 0.4597868639587887 -0.12175922120702946
82918000.0 0.7253263642254569 -0.6788374188157867 -0.08835859558757532 -0.5937683341133909 -0.0003988128937427607 0.003926657422622138 0.4684172658987786 -0.1460159136290045
83917000.0 0.715622571195553 -0.6894004791088165 -0.10947500244504962 -0.6231756599006867 -0.0033602034610926966 0.0006940514982050417 0.471362378330215 -0.14497739941067803
84916000.0 0.7119824260293324 -0.6945857387467628 -0.12498280835621364 -0.656251286756372 0.0018053278637963372 -0.0002541353234037995 0.46643665878137147 -0.16510755687996362
85915000.0 0.7057502863836536 -0.7010826545011587 -0.14786628640027896 -0.681702789907149 -0.00013778262571408198 -0.0004713912985231411 0.46316768526223134 -0.17146345057132908
86914000.0 0.697512475457349 -0.713662822505391 -0.15631676818295606 -0.7237463795701061 -0.003916491846086021 0.0014111707516958082 0.46626920198911537 -0.16251796808178945
87913000.0 0.6908652955661498 -0.7182017271347211 -0.17840732723672495 -0.7503569882051131 -0.0009463184947828493 8.769233608430383e-05 0.45992542210273896 -0.18000629609993482
88912000.0 0.6810404071207838 -0.7251450981139961 -0.19485754598851804 -0.7788867723496995 -0.0059460746770974285 -0.00017300277305495968 0.4621387433829501 -0.19989537908973243
89911000.0 0.6743641841282645 -0.7350832876960408 -0.21155896331797877 -0.8186619261898175 -0.005937374370625866 -0.0033105297992217352 0.46779921815351433 -0.20191468428016987
90910000.0 0.667374781417047 -0.737005030561901 -0.22742536356510862 -0.851778694305791 0.0005574724723451048 0.002540948449314436 0.46396109688202053 -0.20281767413130533
91909000.0 0.6590235794747056 -0.7428837605529861 -0.2412015232118502 -0.8834912215898262 -0.0025216981189465832 -0.0004997796020259988 0.46970716974104554 -0.21058142623426365
92908000.0 0.6527221733246537 -0.7540704198596713 -0.2613451050914672 -0.9148567971965502 0.001866262573998513 0.001213522195508778 0.4566484118785743 -0.23409875386848158
93907000.0 0.644653729794937 -0.7567272174234756 -0.2731326026149431 -0.9453543928330727 0.0010176701222032517 -0.0019633545498344966 0.4589349335017601 -0.23849776281914042
94906000.0 0.6333245139207421 -0.7662602790364744 -0.2903664285215609 -0.9774273023384569 -0.0027631965597795325 -0.001008899101789449 0.46851103002398337 -0.24908350200257373
95905000.0 0.6259497419260595 -0.7727635922063743 -0.3167924847713304 -1.0071817865596093 -0.00028265660930294447 0.004146917023008461 0.4578857681303287 -0.25920807171015886
96904000.0 0.6182717026545845 -0.7812143005517762 -0.3324114252276916 -1.0484735977229445 0.0010189883228944308 -0.0007284145944603217 0.46434447925410405 -0.2601842524274575
97903000.0 0.6086496410777392 -0.7852472413430941 -0.3547118265900952 -1.0782859181595197 -0.0037267076857678523 0.0008718445653548682 0.44692011490291517 -0.2844296453064713
98902000.0 0.6059270951365565 -0.7931300826878113 -0.37502925991232355 -1.1183998254070924 0.0022533436876920237 0.002319182862052605 0.45247850405453804 -0.29192510208710615
99901000.0 0.5943647060344961 -0.7984266540074468 -0.39975325480197743 -1.1465866029215697 0.0009954181618663297 0.000994491978782462 0.4637893646273607 -0.31291153634621566
100900000.0 0.585475622425163 -0.8031874953296199 -0.42724502549586957 -1.1740424590337584 0.0036670363838879902 -0.0056143088713787115 0.4632001674998817 -0.3094243471158687
101899000.0 0.5738519130815327 -0.8110273662322777 -0.4601345503384188 -1.2075689438640185 -0.0014133441719314575 0.0012029031746850544 0.45127805907225077 -0.31811966375089434
102898000.0 0.5678656941891141 -0.8148123984164181 -0.48954879776565674 -1.2494903227377154 -0.0030536767447064813 -0.004178202127092325 0.45173906995129226 -0.32107998163158896
103897000.0 0.55684140864473 -0.8219807895708713 -0.5263870862650245 -1.2828316198821332 0.0008218613086091969 -0.0007508869551245235 0.46504476375210546 -0.31998154801761375
104896000.0 0.5501248021382605 -0.8335809788810802 -0.5718833651663928 -1.3139483453587368 0.0009902824746762548 2.2284297214017095e-05 0.4389800640349214 -0.3381176274388787
105895000.0 0.5415339772651119 -0.8359295752109919 -0.6116265451190797 -1.3525376579680504 0.0020896515044202743 -0.0005197898523192666 0.42392770733024215 -0.36188757087488443
106894000.0 0.5296386885863082 -0.8428996835457797 -0.670677181594904 -1.3845671897069194 -0.001265947430171221 -0.0030605692760077956 0.42765532944814294 -0.362526379332043
107893000.0 0.522871881082852 -0.8470975184138364 -0.7198717750375949 -1.4274397715631375 -0.001163366279658266 -0.004460391118226527 0.43266324513726206 -0.36241778396250574
108892000.0 0.512719521692799 -0.8529830214676652 -0.7753284397580923 -1.4619414532006 -0.0018636079721882927 -0.002078089878709831 0.44242559789930785 -0.3556672642519128
109891000.0 0.49881417956517565 -0.8593817418183382 -0.8337603036564523 -1.4920995377141233 -0.0018544510889229873 -0.001972346773387567 0.4351986671075745 -0.3754940930930746
110890000.0 0.4939790724278523 -0.8741978176793389 -0.9070728058570594 -1.5182825816937375 0.0036527213628879235 -0.002572501690029025 0.42547336024171384 -0.38070657138224556
111889000.0 0.47812020469449473 -0.8681866120776653 -0.960028943405232 -1.5596757332292612 -0.000513086988651688 0.0008317209824342191 0.43096634674589307 -0.3937529824807663
