! Created with skrf 1.9.0 (http://scikit-rf.org).
# Hz S RI R 50.0 
!freq ReS11 ImS11 ReS21 ImS21 ReS12 ImS12 ReS22 ImS22
1000000.0 0.9781574019521749 0.0011117517403354052 0.007768747542308173 -0.054931142714888796 -0.0027991179315228773 -0.0012613251180512847 0.28133500045025556 0.2640985602491136
1999000.0 0.998742436423987 -0.006981964563791808 0.007604521361636523 -0.018773947313285338 -0.007090677174889941 0.0009039723823274687 0.25359719768214245 -0.045401573228296625
2998000.0 0.9955552025956175 -0.02299007410251385 0.009419600085423844 -0.011939142659152002 -0.007379095483311419 0.000761089751522783 0.2087177109313977 -0.1262553954789953
3997000.0 0.9970330692026087 -0.03191157311566296 0.015084751272472 -0.00747305715270895 -0.005238590488016803 -0.00983364238441992 0.09545984181056738 -0.21682869971890587
4996000.0 0.9955203812693973 -0.04192108575160856 0.017853525574070613 0.0006935322165570471 -0.002111749601173226 -0.0030310369698412984 -0.03686915022384064 -0.19824394088098096
5995000.0 0.9963801429600831 -0.04924452273760205 0.010578913107091897 7.810502934056914e-05 0.0043400995939370515 -0.0009380221716635709 -0.12129602383642364 -0.10374882989929933
6994000.0 0.9936852392764078 -0.062296901742767787 0.006676731096962956 0.0019475783410553354 0.0015704226704887632 -0.004154519879566704 -0.15121018852006018 -0.025174267556730585
7993000.0 0.9963899683660731 -0.06765434131595605 0.0014829113682148377 -0.0002217838453724667 -0.0020446836660524682 0.0013845093774612863 -0.16104676636821408 0.04239812463236868
8992000.0 0.9965429007789026 -0.07153333040737284 0.0026598444403834773 0.005102919233023496 0.002840102640296898 0.0012287294565845601 -0.15771228696102232 0.06161609501651457
9991000.0 0.9919922369094721 -0.08450193515554344 0.001319818457592554 0.002469876244632109 -0.002970737260307471 -0.0014013378422139539 -0.15459475259387895 0.08799347323203782
10990000.0 0.994256644661642 -0.09319505733231372 0.0056671351693732995 -0.002605360908329644 9.858150309162463e-05 -0.0007948426992517677 -0.14063310197121065 0.1076672578036381
11989000.0 0.9895400335987797 -0.09870639388776126 0.0026364742245209853 0.00045060337151476 -0.0028572141663822355 -0.0007654424543286508 -0.12999673947791957 0.13813842794135855
12988000.0 0.9912927723778359 -0.10989477119710507 0.0002181564684180214 -0.006638340280126983 -0.0017932867865560823 2.6136242812624267e-05 -0.1292613667372305 0.1709648851349984
13987000.0 0.9888758267836262 -0.1209716477733514 -0.0006792980582466607 -0.006162036074026451 0.001454726107998311 0.00297486286670631 -0.09734248035852773 0.1800619025448183
14986000.0 0.9875197381739733 -0.12488834237753055 0.004711765183887364 -0.0027306043297605147 0.0010644678136958938 -0.0019459260388065846 -0.10059216050893593 0.2081375487685835
15985000.0 0.9881195367435173 -0.13817694161392122 -0.002703469442758348 -0.003180880135256886 0.00011093099142603984 -0.0011933399926906186 -0.07533004817836382 0.20576388705942883
16984000.0 0.9869145521376157 -0.1468205835331323 -0.00018142066968730735 -0.00745609622974209 -0.0009273312173157992 0.004991504934858484 -0.0671057354431903 0.22152973250405586
17983000.0 0.9861161590069047 -0.15345563436534032 -0.003025921071141349 -0.004883752165315393 0.0023389517615207073 0.0003844538428149459 -0.06128840765506473 0.21839985124215766
18982000.0 0.9828613495201806 -0.16494968205901217 -0.004201408459531746 -0.005645880864123425 0.0027257415863042827 -0.0006428629944921473 -0.022482695267818847 0.23082304969457534
19981000.0 0.9819475640056275 -0.168692580087015 -0.003940711853762994 -0.005048209603692365 -0.0003211518883912986 0.002974162835069341 -0.006675920049070814 0.23776787070794156
20980000.0 0.9791294485445001 -0.17969873344835555 -0.004399555393160308 -0.002079713164600842 -0.0022751995161407355 0.0008471263849939768 -0.009491317251678092 0.25357596607836
21979000.0 0.9778040963290275 -0.18666025802825237 -0.006405178578975158 -0.00651164132810905 -0.0018784813815562879 0.0006203568481989867 0.008008078633840298 0.23976357613981783
22978000.0 0.9767895914115473 -0.19764859645356073 -0.006864589724106587 -0.0023689153958278563 7.215704815134417e-05 0.004038694921595104 0.031505154898650266 0.2499907242175438
23977000.0 0.97943001327576 -0.20328159074457494 -0.005442862988736445 -8.953217254827331e-05 0.0006429125407472438 0.0006181850955093658 0.028289501506624997 0.24199892931115763
24976000.0 0.9731494022618475 -0.2165425629464304 -0.0035841147200518023 -0.0011508608781725046 0.00280234215377283 -0.0005473330234225368 0.06119980978753173 0.24981639246336487
25975000.0 0.9678600027140308 -0.22771847247510757 -0.002145371024397501 -0.0035370165299268277 0.012261688570271045 -0.020405573914391247 0.07271779184060058 0.2550155526489847
26974000.0 0.9689636247085603 -0.2321077363050361 -0.004647811845633288 -0.0017378531212363401 0.0009408464929920637 -0.0008507912571686047 0.08587267456769522 0.26629366478232386
27973000.0 0.9695402216589522 -0.237471274160708 -0.0032670056972913795 0.0013162162320704252 5.338899164242572e-05 0.0026884576116130983 0.09661732459394456 0.25761465647999987
28972000.0 0.967015845922536 -0.24719358419611548 -0.0021729272463060023 -0.002763833402045249 0.0013302014030923091 -0.0021722155734897157 0.10870775577058656 0.2558205676256749
29971000.0 0.963940095783954 -0.2584750939588213 -0.0010703577588469157 -0.00309807928879753 -0.000737274003013756 0.0021722879965844935 0.13230614615139308 0.26650754874968585
30970000.0 0.960555205623578 -0.2632734068880595 0.002571061011875274 -0.0028831691999976154 0.0004927853228940199 -0.004357581233436874 0.16513591016148277 0.2512348219199295
31969000.0 0.9599832399854237 -0.2722817735363283 0.006831242657743753 -0.005382820202739644 0.0027245697437649494 -0.0013872012806585051 0.14127306655427288 0.24459114952579944
32968000.0 0.958959172108157 -0.28138643016257586 0.009070627868874519 -0.00935774788832211 -7.639409417912113e-05 0.0025327510681965077 0.16164474457589742 0.25104161411007714
33967000.0 0.9553112914727616 -0.29061755855186094 0.009792775914544301 -0.010747139637392874 0.0020648419149937865 -0.002853868613318559 0.17377641666074345 0.23969656450928054
34966000.0 0.9514106200235124 -0.3019215997961652 0.013888749219660953 -0.007599946019082455 0.003778575909661871 -0.005649379071094712 0.18587101651854793 0.25948658817627107
35965000.0 0.9489118698178456 -0.307923525325364 0.014868150662866658 -0.015297900388167574 -2.071800240287387e-05 -0.0015186096153605752 0.20284084270444877 0.2484416725751722
36964000.0 0.9471300948787178 -0.3163972044930726 0.014201717006878127 -0.011744252430297494 0.002989787620801082 0.0012788685660006683 0.21532771727139535 0.23831749347181802
37963000.0 0.9417230616794143 -0.32836721170992395 0.020907623465957627 -0.02231775035472299 0.0016690177163495013 0.003561742476908107 0.2299133774513717 0.23021517503175826
38962000.0 0.9413706841955496 -0.3351937541933066 0.025522400396856545 -0.02700829254474516 0.0008398437823468825 -0.0005764811996884912 0.23012771047339295 0.22500083413461877
39961000.0 0.937023126308827 -0.3444942187140912 0.02390262012557181 -0.02659807202999137 -0.0006927496334240216 -6.0881536916570186e-05 0.24471559177834729 0.23041467813829328
40960000.0 0.9330585489675921 -0.35133807462398864 0.024457366202431458 -0.022808707731920355 0.001879060875439858 0.0001615976948635193 0.2586555557322601 0.23311254491518826
41959000.0 0.9300910542081078 -0.36145601669366445 0.026013912110510448 -0.0326905681322096 -0.002670720454978029 0.0006910507037533133 0.2629461382372012 0.2123258048710582
42958000.0 0.9242048521643103 -0.3724235830958419 0.027418871445425777 -0.04359809341770825 0.0008781350267986173 0.0007539113501960239 0.27220221985829135 0.21083042465739713
43957000.0 0.9254074685341611 -0.37475317910485506 0.03105966638103031 -0.045278655608013536 0.0004771860971043259 -0.0030016175900929383 0.28610634286806425 0.21069043254657216
44956000.0 0.92032680487075 -0.38452236668547146 0.03260495800433445 -0.052526320312540335 0.0010220034572890873 0.00020080643095566578 0.29457209908845616 0.1912422453110733
45955000.0 0.9169371975712288 -0.39618155108765646 0.030611220263600948 -0.05854336826851789 0.00039170587114475416 0.00019860172672897197 0.30808005447113873 0.1854965509087977
46954000.0 0.91199384219332 -0.4028744689583418 0.03059129545609272 -0.06546173133096957 0.0016670528714817284 -0.0011349571300205677 0.32782429195744395 0.17507510002167798
47953000.0 0.9101800808263126 -0.4115519396321771 0.03326450352281693 -0.07277090312226789 -0.0022060033749502876 0.004096484524395026 0.32935572307690425 0.17626340507742821
48952000.0 0.9032859258590156 -0.4219086736190915 0.03629393477659135 -0.0788462963831056 0.0003367653222903813 -0.0008638632886473737 0.3301501683661468 0.17608724758143307
49951000.0 0.9003389028572858 -0.4285027161906195 0.03466361802235019 -0.08597267915332521 -0.000985834712779067 0.0015379529133626995 0.3456198755860952 0.15800228203368483
50950000.0 0.8973318472930888 -0.43613012451626504 0.03806705198174895 -0.09323102814491978 0.002290956214506904 0.0017237254529977209 0.34032574115242803 0.14889624502334023
51949000.0 0.893570363273825 -0.4454677198032248 0.03791348257125803 -0.10114245838103261 0.00031860769291385525 -0.0016895907508897266 0.35623367017219504 0.14683388703105205
52948000.0 0.8891856442415165 -0.4543395486327372 0.036330170751490205 -0.10925692941506074 0.0012945016631714268 -0.0035838866699920086 0.3661285788980046 0.14682167742921218
53947000.0 0.8826727489486158 -0.46014020129031746 0.03894161114517853 -0.11972588731476458 -0.00142788163340346 -0.0003020307874208634 0.36888158052038206 0.14749307413497392
54946000.0 0.878612213922131 -0.47115730879489903 0.04108641251288744 -0.13040126108815378 -0.0015016277405256215 0.0007045759866529067 0.3853025472130539 0.12312587654970157
55945000.0 0.8749175165085326 -0.4796839142680745 0.04109520105096207 -0.13845076749379545 -0.004566138210268342 0.0011577838298781977 0.38932298918500874 0.09946524500577858
56944000.0 0.870631792856609 -0.4871584547396123 0.04548854769218788 -0.15022190820854175 0.00037739623044116805 0.0013375746645977549 0.39366211268922296 0.10849376642898675
57943000.0 0.867589275008369 -0.4968262056045882 0.044704843303792666 -0.1606150888138264 0.0010237192498079124 0.0033401690044176993 0.39263437281215113 0.09592413447745443
58942000.0 0.8615869642477406 -0.5005995254605844 0.04544145298704579 -0.16851667373250073 0.0005487663766313617 0.00045686892192387793 0.4162032846409398 0.09433194894892621
59941000.0 0.8566059895758201 -0.5120961390430804 0.04756156789227731 -0.18006975481792686 -0.0003024782382156427 0.0019791885217588447 0.4197714550951117 0.08842061806328094
60940000.0 0.8494283007756249 -0.517473314008012 0.04614574572550082 -0.18167833178045042 0.0019296789349754057 0.0020204517666136414 0.4061472257216936 0.07766423680054844
61939000.0 0.8462201690553753 -0.5245697587098328 0.04775599665752868 -0.18661361269032897 -0.0038465036905168397 0.0004152516182573319 0.40776109566965596 0.07079398231659001
62938000.0 0.8405030590468956 -0.5347496418940465 0.05150790064169102 -0.20474633728993952 -0.0005302817999952058 0.0006835364701980755 0.4431289153114387 0.05061501538987974
63937000.0 0.8355084840451884 -0.5436665288745585 0.05075706536420978 -0.22605553465877218 0.0030542153547315556 -0.0021678597111026345 0.425769483712011 0.045668861665883534
64936000.0 0.8310174889634314 -0.5483998031016359 0.05330454664958923 -0.24016747612472797 -0.004403668859758045 -0.0014139825546651162 0.4286977251131379 0.05039069624673266
65935000.0 0.8254672440001263 -0.5614007465944768 0.04924253432008805 -0.25357071008137944 -0.0012413771400020535 -0.002390575577968687 0.43735314159978045 0.01892261915759224
66934000.0 0.822013344716122 -0.5643707146349942 0.05157708295797418 -0.26607758288543637 -0.004578364183374084 0.0010362267121616594 0.4382793194685525 0.011427617327883065
67933000.0 0.8177346635725745 -0.5727359602616623 0.05509865938121192 -0.2805122822185923 0.0003168994158772037 -0.0005713194075205979 0.4439718571940352 0.013216334387385056
68932000.0 0.8126162305129395 -0.5756863023139782 0.04807495487515317 -0.2887328148094047 -0.0026089887153992472 0.002921168422141967 0.45022235603724114 -0.001580060089267406
69931000.0 0.8032622400130163 -0.589869484345708 0.04912463349919021 -0.3073689694590692 -0.0003219011748933122 0.0009404159323444628 0.4446232150060451 -0.01737315290694669
70930000.0 0.7962990961219196 -0.5978936557619706 0.04529454455217621 -0.3215727301825373 0.0006868289797129322 -0.0013010692972503398 0.4469418538855429 -0.03012727859604918
71929000.0 0.7924212019630236 -0.6068514641792313 0.04431311359915894 -0.3403153635556115 -0.000261174729111894 -0.004186134021967444 0.4519086174624171 -0.05038949933474971
72928000.0 0.7863503329248535 -0.6143778592861009 0.03816950176483417 -0.3535274073456494 0.0014689012492314522 -1.3135836108889206e-05 0.4607264099357572 -0.045959605387760075
73927000.0 0.7794127301371008 -0.6202703970045894 0.031078572127198598 -0.3717675071096111 0.0005392732427534217 -0.004196224342304784 0.4564663708786412 -0.05393693615624455
74926000.0 0.7741402556922212 -0.6293183621322218 0.022509677731914642 -0.3883623453949872 0.0021437981279208377 -0.0017904001338312932 0.4670805135442479 -0.05141337205126324
75925000.0 0.7672391431414399 -0.6350520284209705 0.013266523271265098 -0.40894204215353425 0.00033410537379166506 -0.0034750451344466794 0.466034466411343 -0.07375344031768835
76924000.0 0.7626692373997201 -0.6424189850565822 -0.0009393642097021963 -0.43061410074577394 0.002046999322779799 -0.00040045318161308795 0.4598643335183019 -0.06914579657338504
77923000.0 0.7557394817583369 -0.6509228117746685 -0.011079418923028592 -0.4540934297297617 0.002553232195582507 -0.0016907697823893499 0.46174425282466486 -0.08707684374385659
78922000.0 0.7501152643136378 -0.6593334606734904 -0.02451282474657615 -0.4785051725205838 0.005687957058267329 0.000433933528639777 0.4557364583793479 -0.10425774018675496
79921000.0 0.7400227882397024 -0.6637897160991096 -0.047402462402730834 -0.5062199277037676 0.0011273520769590293 0.00039691318208414674 0.461223155063899 -0.1107804537718752
80920000.0 0.737094365061417 -0.6751375406979726 -0.05726035968869807 -0.535499524984216 0.0029012199429368497 -0.0024802084379957866 0.46061784567309033 -0.12975414191647636
81919000.0 0.7300440043612084 -0.6805158313061145 -0.07510277846129736 -0.5647108238562399 0.0018833096360914125 -0.001283376859034489 0.46526170970889613 -0.12202401171390354
82918000.0 0.7194362017129794 -0.6886542877451656 -0.09210973510481228 -0.5897879415043354 -0.0022823882200508835 -0.0008372842061677505 0.47386375934764907 -0.13445876254790276
83917000.0 0.7126263399826444 -0.6958911893564544 -0.11671936632948 -0.6157633376660587 0.004927792459098848 0.0016449501471620727 0.4761876475458672 -0.14354125109087282
84916000.0 0.707821070745581 -0.7019670710927823 -0.12556628000357975 -0.653008606871351 -0.000598170389011 -0.004288239750866366 0.46747901317344265 -0.16982631119877806
85915000.0 0.7000833711183108 -0.7079699863049433 -0.14336799288247054 -0.6808529832069856 -0.0009391399602432094 -0.001415567615896317 0.45461508044175775 -0.17021230078620686
86914000.0 0.6930602634924989 -0.7193559964549597 -0.16001707617026156 -0.715521256482937 0.005491407599919994 0.001593164917370744 0.4548351872412651 -0.16808343587398286
87913000.0 0.6835354510830529 -0.7249541483933224 -0.17628947123866376 -0.746476575988418 0.0011553892062101715 -0.0006558580708301379 0.4660846562804126 -0.1810088126058221
88912000.0 0.6781004871517458 -0.7331135026328223 -0.19542852656156107 -0.7792506709416279 -0.0019216312520646199 0.004726631763993104 0.4587960804747575 -0.19816025209662969
89911000.0 0.6674188756153703 -0.7424358782368448 -0.2072571820454623 -0.8152750196538431 0.0009428024714736451 0.003688748845541424 0.4559137400016257 -0.2114395058586026
90910000.0 0.6625533446269096 -0.7464207759003599 -0.22711701011337065 -0.8444500115354153 0.005156293275066381 0.0035075908762718057 0.45340092929022374 -0.2180000886439303
91909000.0 0.6536946253944846 -0.7520771223108468 -0.2454886949848619 -0.8801731071872336 0.0014094635259861916 -0.0004140161216952456 0.4620541241430592 -0.21931211636020118
92908000.0 0.6443331787663212 -0.7594916886503025 -0.2635038040576701 -0.9093790038659003 0.0007447630963963007 0.002051000372429804 0.4538236919241662 -0.2293047326775429
93907000.0 0.6371071510154567 -0.7674847266949147 -0.2753265474667692 -0.9427980313588 0.002431538475359498 0.0003409141385922533 0.4609520029299957 -0.24007885450581695
94906000.0 0.6266341114742989 -0.7745188588238608 -0.29423775230376376 -0.9743700450425542 0.0005542749639543923 0.0033050966990504768 0.4565366005606956 -0.2517886570866207
95905000.0 0.622387964718874 -0.7790960698515284 -0.31301809351582704 -1.010792979665825 0.0034948324139624804 -0.0022467688818205538 0.4641075207568412 -0.2666556411965406
96904000.0 0.6110994513028556 -0.7894817227949923 -0.3322849720299758 -1.049717243005486 -0.0003344690375518062 -0.0039205949572466885 0.4601774560885793 -0.26830247636733373
97903000.0 0.6002141907413553 -0.7944999043987986 -0.3563079489977757 -1.074118281747871 -0.0017268960849755274 -0.002227360119759756 0.4511067455420246 -0.2824507006655906
98902000.0 0.5960616626392307 -0.7998926581321746 -0.37640964072899746 -1.1111191626762031 0.0011843541496485862 0.0036426052446854812 0.44914941753906507 -0.29139980315078895
99901000.0 0.5837297687570141 -0.8066860148849012 -0.4016889716671337 -1.1460338821801914 -0.00045775177440203875 -0.00025519825692348487 0.45904560774631425 -0.3060547712449799
100900000.0 0.5779253666736773 -0.8100158873868435 -0.43194417100401894 -1.1714668673554756 0.0008682751635164758 -0.004669194813729819 0.4518429616950605 -0.3027421995339205
101899000.0 0.5685148641170358 -0.8170801875868662 -0.45793039611585895 -1.214298144423013 -0.004033047753753617 -0.0025221546315091184 0.4511700133126189 -0.32076231755225115
102898000.0 0.5562776954814344 -0.823202913951879 -0.49425223887961617 -1.246079436974821 -2.6115512909232078e-05 -0.00044148740263044625 0.45240284028137967 -0.3342745837456694
103897000.0 0.5489256276323972 -0.8318223471693814 -0.5328401243276304 -1.2814878179017213 -0.0004774760443672762 0.0022979788605231727 0.4604703128745602 -0.33438260746367277
104896000.0 0.5395093413526717 -0.8420505637770256 -0.5792898820858399 -1.3123440298903994 0.0029116046337864018 0.002307440902951482 0.4282645783122822 -0.33848441174595195
105895000.0 0.5302972040447443 -0.8436470626644336 -0.6215434390913446 -1.3506429709377326 -0.000450786158521849 -0.004314282706022534 0.4369871098567117 -0.3571220981122258
106894000.0 0.5213603090923361 -0.8491409761165362 -0.6789569459255189 -1.3879027747574726 0.00031842316380102144 0.0001251975800315559 0.428505751144167 -0.36787879074550256
107893000.0 0.5129730778396362 -0.8557132748723315 -0.7296429777055744 -1.420671997377981 -0.002900685523586054 0.002234788849211106 0.4254854200482042 -0.3817733751958132
108892000.0 0.5004995466569518 -0.8604715222604322 -0.7896133546963416 -1.4517181947079774 -0.0007918152006752438 9.698486556480607e-05 0.4152672778887909 -0.3756406453178805
109891000.0 0.4898881523230653 -0.867721257252289 -0.8456600273515563 -1.488786370652205 0.002297476234552622 0.0008357519845802979 0.42658497807326934 -0.383249503476819
110890000.0 0.48569941487942775 -0.872578925502319 -0.898419350253599 -1.5094661081289307 0.0006304369651881221 0.0008706321189011984 0.42749784277515024 -0.3831378789464609
111889000.0 0.4663448324866944 -0.8744502750928477 -0.9632251382463212 -1.5520817923197074 0.002266968477048941 -0.0001786369376456204 0.4147682641997778 -0.39820986691153604
