! Created with skrf 1.9.0 (http://scikit-rf.org).
# Hz S RI R 50.0 
!freq ReS11 ImS11 ReS21 ImS21 ReS12 ImS12 ReS22 ImS22
1000000.0 0.9745954899850049 0.003904997429790572 0.0020688982165897123 -0.0525676660715291 -0.0183491574886408 -0.008521100790106716 0.29942494935025543 0.30123267935533976
1999000.0 1.0008157688646535 -0.011388042439871538 0.008456069163355706 -0.018308797451964034 -0.0031872306610183448 -0.004727275891670019 0.2738328151002276 -0.02999653776229113
2998000.0 0.9963795653419956 -0.02307481666787499 0.012581251667560824 -0.016485518784602988 -0.0020050943986710907 0.00457540554972101 0.19287036437473035 -0.13551372400594247
3997000.0 0.999715949883283 -0.02920072585082784 0.00800329596353827 -0.004531077928364511 -8.201358872854503e-05 -0.0025503519543168675 0.09785876645337058 -0.22031618574872042
4996000.0 0.9963022566385923 -0.03803822505399831 0.016304426876082613 -0.004416784877495718 0.00027916998261543385 0.0016277932348217627 -0.05033401194942041 -0.17989064599093416
5995000.0 0.9932960541220143 -0.05139266911969498 0.0076987435396398 0.0011697619197744667 0.004966495895719124 0.0017414447131922101 -0.09859146275033295 -0.08179584385871759
6994000.0 0.9940642630170541 -0.0583123017008531 0.006750315768497568 0.006878405519746061 -0.0018916706946728293 -0.0003996770951368313 -0.12761954411829252 -0.010267676247992429
7993000.0 0.9922701005896947 -0.0691198098400669 0.001377152754083876 0.0051536164966379866 0.001926032085192032 -0.0013717644898855025 -0.14309246307442217 0.04635438091761264
8992000.0 0.9906851439681349 -0.07659673248857317 5.40033252335239e-05 -0.001656841898459395 0.005271500345861444 0.0012220364919603161 -0.15067336402154655 0.06665080256433917
9991000.0 0.9904657705305978 -0.08290551849496701 0.005459868087546269 0.0004982978574455632 -0.002044291680924767 -0.003619147179474992 -0.14393830989992604 0.0964234879485432
10990000.0 0.9871039106951782 -0.09521828613919504 0.0004197587338133909 -0.0011894233620252206 -0.0013697003578088725 -0.003994127570799192 -0.1302379522502117 0.10136565798470197
11989000.0 0.9890458272714243 -0.10209616115204384 0.001860885885791952 -0.0066344160469901416 0.00519231341895413 0.0013564269809130448 -0.11373839422532771 0.12395114329462206
12988000.0 0.9856639177725758 -0.11039414463737113 -2.3538596928634988e-05 -0.0006364433036701079 -0.0008267486094762464 0.002379841372708293 -0.10713583823107659 0.16274415491661934
13987000.0 0.9841574427551557 -0.11972074803321425 -0.0027107592336861287 -0.0036299071089334217 0.0005861890415589928 -0.0006701604633310962 -0.08097064699815837 0.19529993711330174
14986000.0 0.984256484459569 -0.12696122134057375 0.002870245788196704 -0.006899307891168439 0.00011834065301695888 -0.0003195239550589591 -0.0739666606682695 0.19497258103278287
15985000.0 0.9863768261338618 -0.13588434445545783 -0.0006972561871639125 -0.004799071723975965 0.005320385310279599 -0.00015382030385177457 -0.056180981443786006 0.21509432307307177
16984000.0 0.9847930490601743 -0.14585672426311047 -0.004261112601673422 -0.004660342031263367 -0.00010430350819195706 -0.0012860408472808514 -0.04951495726258319 0.2125036603078746
17983000.0 0.9811925218086972 -0.1534525133997141 -0.0003331522617561318 -0.005420476324732613 -0.00274434335904957 -0.003708506984022077 -0.05922296277970331 0.2258658726429335
18982000.0 0.9811380713465204 -0.16010473940339834 -0.003721405567041412 -0.0022327456139903585 0.0003459490584352327 -0.0007669562995639164 -0.025735024431412897 0.23138317269145695
19981000.0 0.9783558260227945 -0.16803673081875717 -0.003055467930470351 -0.005454499228927183 -0.0017428963437633434 0.0003629196804602485 -0.0088682069527125 0.24138344860767227
20980000.0 0.9790557624421763 -0.17681465363699034 -0.0073643727569583034 -0.002836240129303291 0.002318448146916591 0.001403751345167307 -0.013457566967626577 0.24818395137341545
21979000.0 0.974946385113066 -0.18707132567009122 -0.009414401611365183 -0.008941876013696715 0.0007433547508560425 -0.0010332958601754635 0.02138948623636112 0.24622162403490178
22978000.0 0.9733309721730342 -0.19388983695566953 -0.008085648378232895 -0.0017276386809977832 -0.0007862511550339794 -0.0036577945799616375 0.027625809892701064 0.25526747811409967
23977000.0 0.9752622535920606 -0.20121222871270827 -0.008069281955171117 -0.003825846385840628 0.003385856239169902 0.00034357266948237665 0.035904362549132145 0.2607667336577855
24976000.0 0.9697306895325285 -0.21326201249347407 -0.007808539189522218 -0.0008987241370168536 -0.00048435023713643406 -0.0017917586109914136 0.058552477924593685 0.24337894366376475
25975000.0 0.9644825850057853 -0.2251815249738711 -0.0024312371782434393 -0.003647684399633126 0.005960103637159001 -0.025470762367240284 0.0915398950907086 0.25714032385602625
26974000.0 0.9682825659173216 -0.22785240518714686 -0.007139606379838288 -0.0008222913362965772 -0.0030159978893639482 0.0003618027618429814 0.08595816645559787 0.26002290963265473
27973000.0 0.9669443902664417 -0.2353542315580053 -0.006023183761503084 0.001267337613450168 -0.0017129508005042588 0.0033773885368212847 0.11338688645165536 0.25735914111762076
28972000.0 0.9657671254358744 -0.24448696893971283 -0.0011345456083776686 -0.0006742629207897658 0.0014756885738823667 0.0017259824723944988 0.11879086799033822 0.24671757509772593
29971000.0 0.9617509883717764 -0.25520299528397217 0.00021674495523350013 -0.0027717262665856502 -0.0003713977489994009 0.0014496332134878733 0.1503043324191605 0.27041409864322996
30970000.0 0.9596879884818814 -0.2620868621442139 -0.0005863455532765928 -0.0011778334514390251 -0.0031722596568253283 -0.001078380984578016 0.16937410972435527 0.2420721751153611
31969000.0 0.9577187587886324 -0.26919094485952033 0.004735922636013304 -0.00606563173796405 -0.0013514580086163273 -0.0001198987240942582 0.15482794131258315 0.24299622435936594
32968000.0 0.9559948674828741 -0.27836891743045256 0.00794626698481395 -0.0036303830441643237 0.0006116293600848257 0.0010474933932351203 0.15691699873417497 0.2391047366182003
33967000.0 0.9526378884951463 -0.2880626889819461 0.011946442291940335 -0.009477098121310095 -0.0015382113792675675 5.218609336564383e-05 0.18483084119939377 0.24325641325877612
34966000.0 0.9492222119410841 -0.29949272185259485 0.015063814920727414 -0.012013719184501946 -0.001503629384051912 -0.0017861309040257008 0.20126335862604133 0.24952982211263944
35965000.0 0.9470248434902059 -0.30687712404535983 0.01590215365625845 -0.009586601739028592 -0.00010991881946459816 0.00046881409010893546 0.21625865219875112 0.23782276121973608
36964000.0 0.9462058868344917 -0.31494704605656026 0.015546324496359794 -0.014604733421185182 -0.0024894290617244806 0.0016630609740901185 0.21331997493272772 0.2426838008019909
37963000.0 0.9414632215955321 -0.3226138926564724 0.021152744790805388 -0.02002954075197571 -0.0004949824045683591 0.003705304131494165 0.23033232423522285 0.23516615832725632
38962000.0 0.9400100307919864 -0.3323376541748597 0.024745888519589126 -0.02494626419759214 -0.0010970766344877323 -0.0001286115501265766 0.24042394270336498 0.2252880655160612
39961000.0 0.9358996049117141 -0.34176073656301914 0.0263086255071156 -0.028609651161912938 -0.0002035351256877435 -0.0013389582800876487 0.2436535769223053 0.22657247402534636
40960000.0 0.9320487768084261 -0.34807155320410277 0.02339352533673933 -0.026308218146604587 -0.00013557080257808136 0.0024875996402236003 0.2631529319438891 0.22887768680527784
41959000.0 0.928935224085606 -0.3589024384732222 0.030516500014627728 -0.03111175938961386 -0.001447691809284047 -4.07770904803467e-05 0.2684320875694137 0.21508059867902216
42958000.0 0.9254028391346744 -0.36747668182142396 0.03297974204138567 -0.043361054570705014 0.0007403539629216229 0.0014985246987044452 0.2848834275595238 0.19950699354142337
43957000.0 0.9212417696357112 -0.3738775829151343 0.03176765673115095 -0.04436598947292576 0.0020613531060402956 -0.0013625415466392303 0.28538015681073475 0.20204140105107277
44956000.0 0.9190602981799767 -0.38277252303467685 0.031412825198858775 -0.052472773565592504 4.168631795624601e-05 -0.0012385353845955516 0.3064542171637051 0.19450126971200138
45955000.0 0.915074218216913 -0.3929115055336323 0.03355754506409986 -0.05865840152442706 -0.0001387317628501475 0.00021236689603017328 0.2992259890989291 0.19426576104339016
46954000.0 0.9112433612589798 -0.40104880185637826 0.03373793895829212 -0.06374369748960719 -0.0002120207245129474 -0.0012167480081894545 0.32130692433144925 0.1818156391861392
47953000.0 0.9088642944346914 -0.4078408099966585 0.03602753125389093 -0.07496651226947877 0.0034863124106730863 -0.00011939750955029707 0.33818376016318086 0.16836696244778002
48952000.0 0.9029403351268841 -0.41779167264194017 0.03673982690636501 -0.07957997428832418 -0.0006236025254029596 -0.00011816683808726141 0.33454677714356 0.17082078679088566
49951000.0 0.8987389056821854 -0.42588105506841656 0.033938451322356906 -0.08791700046350542 -0.0034161487512273927 0.001749866120789681 0.35086786185573515 0.14943610639261432
50950000.0 0.8947943809831985 -0.4315813183293439 0.03371731923311048 -0.09429058440365358 0.000809433600574619 0.004429816056526592 0.3552977593957937 0.14023720311789112
51949000.0 0.8906370892437744 -0.4418391703045089 0.03754831450370338 -0.10319478962438454 -0.0011140283792389037 0.0002855129844881685 0.35969073546847274 0.13652969188842826
52948000.0 0.8886361869679629 -0.4506250297265343 0.037348448648296693 -0.11341388073602607 0.002397690785340366 0.002624710406653256 0.3671756469380898 0.13695505518452117
53947000.0 0.8825323518112572 -0.45975569427630925 0.04196513451326531 -0.12377600636025364 -0.0024517985002394304 -0.004650211359661373 0.3736084523528686 0.11730138704863766
54946000.0 0.8765060414204513 -0.46764269738065006 0.03930158786408877 -0.13287835010008708 -0.00030106068072640506 0.00037249554307475094 0.38929808601744864 0.11439790129351664
55945000.0 0.8749649585051201 -0.47407402422842493 0.04007624648983237 -0.14182790320358754 -0.0021901694050266373 0.0011575036186920826 0.3912822495017591 0.10603703351585765
56944000.0 0.868625841101156 -0.4847765618883708 0.04329145860493389 -0.15325346647990476 -0.0009151710403679513 -0.0004924536479272356 0.39620912740392994 0.09436878328375552
57943000.0 0.8656296206096904 -0.4946256866572171 0.04474650414120956 -0.16430644493111254 -0.0008018765955348701 -0.001592050709400428 0.399974368093483 0.09157520221424022
58942000.0 0.8589999036630477 -0.5012639105380267 0.04640391922095575 -0.17321948289177813 0.0018591941910474107 -0.0005555041372839307 0.4202812457597382 0.08967311939596244
59941000.0 0.8562851586769227 -0.5076353355802149 0.046148161689313294 -0.18511353244143716 0.0019168344886638464 0.0025100219352764256 0.42523956020838005 0.07943387611582034
60940000.0 0.8476571176731204 -0.5164665034908827 0.04634148532948543 -0.18815945199669637 -0.001235893686662522 0.0022187593308576124 0.4121753549551078 0.06279533407858347
61939000.0 0.8461598741725525 -0.5227089936717086 0.04797373484315935 -0.19501630027779276 -0.00019084687686942738 -6.539121538001585e-05 0.4174851622690164 0.06178901493124073
62938000.0 0.8418117179758052 -0.5334033240237854 0.0514873824224333 -0.21303732410048737 0.002555649499469594 -0.0012607899442654248 0.43584376117779877 0.052824309324400145
63937000.0 0.8340895039539422 -0.540495626715764 0.049292853268245104 -0.23412521272533907 0.001567930197233477 0.0007001238633037659 0.43196287279369827 0.039246493709059735
64936000.0 0.8295158876774682 -0.5449458063474404 0.04931929724310348 -0.24766415193258473 0.002140526667518564 0.0012132512225181847 0.42914103298987055 0.04238453507633228
65935000.0 0.8250734588704401 -0.5558855699634305 0.05067142781975104 -0.2587336607509695 -0.0010575357601161144 0.0015344728297274058 0.44116287251995195 0.00821474278079422
66934000.0 0.8199975290170071 -0.5614624904230047 0.048890928875972184 -0.2736183272450964 -0.0023242037460657946 -0.002976907167174302 0.4346544672145816 0.006094785210997848
67933000.0 0.8163276143828639 -0.572401999818294 0.05015380058124095 -0.28583853579294916 -0.0001677261701666196 0.0030300172485258443 0.4468097070084199 0.008887038851042361
68932000.0 0.8149648020788655 -0.5694732457715247 0.04629057627728688 -0.298525947998506 -0.000376424962441635 0.00037496293953911454 0.456405315919954 -0.009885007008951082
69931000.0 0.8018992826056324 -0.5868863691776902 0.04228436416161622 -0.3159153431128153 0.0005405603056355514 -0.0018124870539165787 0.44813798691650086 -0.019060249130483264
70930000.0 0.7954793339967005 -0.5927897660631177 0.04120995274685199 -0.3270279965136964 -0.0011681222753532716 0.0013896744975077783 0.4448102881896336 -0.037982441336821805
71929000.0 0.7918679340919985 -0.6017411937692733 0.03296956519948008 -0.344569759282979 -0.0023882589104288836 0.0010720933956316688 0.45041956378811343 -0.049670610994989844
72928000.0 0.7863149350266114 -0.6107043552383559 0.03206261401242502 -0.3627668240926294 -0.0018929435350255148 0.0002217455813451712 0.45796956391251503 -0.04763910186412851
73927000.0 0.7790637024899286 -0.6161142204321242 0.019426539960172073 -0.3834161066585177 0.0016374798455284147 -0.001195707942429187 0.45262885523442026 -0.06159739534159104
74926000.0 0.7743969288250385 -0.6267886111755286 0.016687048922973645 -0.4014301884933448 0.004055926096837831 0.00027646768169190233 0.45915575685630733 -0.059152989230228915
75925000.0 0.7647804622193162 -0.6320548467242453 0.008563694267079458 -0.42130092672162495 -0.000970296432510538 0.0015204720314959178 0.46795512822638624 -0.08271518234657062
76924000.0 0.7607604778981798 -0.6391823098851634 -0.00423557574128306 -0.44302708244031747 0.001474574915046864 -0.0012378346490200271 0.4731146379660619 -0.07962768247438935
77923000.0 0.7537730470149598 -0.6478465285627324 -0.02287244171163107 -0.46552043385671915 -0.00020776643766007993 -0.0012789436476084628 0.4611002210604663 -0.09569721775469298
78922000.0 0.7482169614761364 -0.6553343084711938 -0.03826641130452076 -0.49535679265643795 -0.0027165489093600344 0.0037175561497783467 0.4658408634635419 -0.10799661807918658
79921000.0 0.7407873907185165 -0.6597199667150084 -0.05377557594303317 -0.5195519463075805 0.0020349785097089194 0.0019351832282300464 0.4553903001096268 -0.12246867605254827
80920000.0 0.735328260764636 -0.6717141650812909 -0.07138672045177527 -0.5477286558033458 0.006184628160609915 0.0010720744934079012 0.46895368620624805 -0.13395305256160392
81919000.0 0.7287159314267356 -0.6770067017444252 -0.08935078272192049 -0.5760799530924333 0.0021584592308571213 -0.00275840301100613 0.46918924993209704 -0.13264807876918605
82918000.0 0.7191653421120487 -0.6828576714842265 -0.10292409905924954 -0.6038240895607278 -0.0012322745259762532 0.0033241413581726635 0.47736362446146163 -0.1522260322645789
83917000.0 0.7130459924872666 -0.6901615718495554 -0.12391152131124593 -0.6309954120723325 -0.0001484304717110146 0.0019744766171950214 0.46712305842767904 -0.1561850692293318
84916000.0 0.7068862200773102 -0.6968780068145447 -0.14004284598995212 -0.669110641501863 -0.0005548457317609848 0.002897227300250296 0.4676369892068749 -0.16612581169562163
85915000.0 0.6991254746915411 -0.7044847103566744 -0.16074957832735706 -0.6982719078414774 0.004286499445274376 0.003916942253564949 0.46632737484626874 -0.1844780662680189
86914000.0 0.6907579897025413 -0.7148943448105488 -0.17422727315863512 -0.7308143993434355 -0.0013440839669976523 -0.0015152727559947265 0.4619334197126295 -0.18420299097896228
87913000.0 0.6848610798373921 -0.7205582715290701 -0.19486616108735252 -0.7610114949171779 -0.0007282736629833845 0.0013385540951118724 0.45165774709581885 -0.19130829003817196
88912000.0 0.6773536021001384 -0.7274151407875473 -0.21473965519922328 -0.7971413961292682 -0.0017936390482907424 -0.0019101509150972027 0.46502038802078893 -0.20694760662301684
89911000.0 0.6694396039101712 -0.7352374294345964 -0.22645471929251904 -0.8318994316930061 -0.002332308402640554 0.0015838914127781197 0.4672081189484802 -0.22037204128841478
90910000.0 0.6633488552782971 -0.7411401875994668 -0.24116355385663782 -0.8642653957322579 0.000637371691874407 -0.0006778230898886199 0.4588394822683621 -0.21977823782326913
91909000.0 0.6531578426775249 -0.746483774001044 -0.2630616209325693 -0.8936873269070841 0.00011111656953407557 0.0001855654735530803 0.46658086659868886 -0.23238688797351817
92908000.0 0.6460241338344461 -0.7545215384556319 -0.27678584087237357 -0.9259113897509703 0.003957878087795968 -0.0006892114955110158 0.46253774635382944 -0.23988698722923787
93907000.0 0.6396764071072636 -0.761349203886326 -0.2958945647778393 -0.957502723191393 0.0015297804209215612 0.0003782192994362549 0.4643967224199944 -0.2679545659520782
94906000.0 0.6257599137527315 -0.7691604302908295 -0.3173353834492234 -0.9894262942590187 -0.0026952779658492225 -0.0041101423801259826 0.45727036183782843 -0.25423144962553607
95905000.0 0.6210556698284025 -0.7750277450949703 -0.3387533558033393 -1.0192506325904225 0.0017973795448971465 0.0010266030519662053 0.4571355165671175 -0.2702251793429225
96904000.0 0.6129897239565317 -0.7819207975675638 -0.35909515416028503 -1.0595959451034158 -0.002350138181444197 -0.0018617922012185365 0.449683811476204 -0.2793095502632049
97903000.0 0.604825789242692 -0.7855179776421126 -0.3801737690638099 -1.0878334825329732 0.0005706248723308398 8.2162889293785e-05 0.4453157231544872 -0.28471337954405324
98902000.0 0.5988984751324777 -0.7951277690591576 -0.3979866306556851 -1.1286994081438757 -0.0010876062228765337 -0.001361319466716112 0.44776730025014166 -0.30445791835933494
99901000.0 0.5864062995358235 -0.8014641501805944 -0.43317662447509026 -1.156173253050496 -0.002541178595983074 -0.0024771215608882604 0.4561334522144231 -0.3245796387251557
100900000.0 0.5785425191920022 -0.8042668398336288 -0.46313082368177083 -1.1837026188958293 -0.0006980428414689983 -0.0007356131521002647 0.44385729174028793 -0.3249320095234955
101899000.0 0.5710228156955894 -0.8117002109252411 -0.4886778654142796 -1.2263485681808184 -0.001043867753787754 -0.0010248447429743244 0.4532001848755028 -0.3273504928250606
102898000.0 0.5599174705348346 -0.8196771813243752 -0.5239274499161326 -1.257042849488186 -0.0017341456328917083 -0.00026753811847446505 0.4493717991930314 -0.3469409571382686
103897000.0 0.5512370008652523 -0.8268177106412766 -0.5645970774728281 -1.293138275057289 0.0017934919482749329 -0.0028073743957785515 0.4480394421622388 -0.3520010496006368
104896000.0 0.5451436258392761 -0.8364553851986414 -0.6088900028091524 -1.3213849730472458 0.0012002350225605355 0.000425053616552207 0.42551118119774817 -0.3421370721913911
105895000.0 0.5315496263437328 -0.8374472269097546 -0.6604179332993134 -1.3573229566468932 -0.0006415144175566705 -0.0011767821069713481 0.43071629104884424 -0.3709327085795041
106894000.0 0.523669649607933 -0.842876909116334 -0.713867093817615 -1.3930222522847193 -0.0026884432774574064 -0.0015223396104332564 0.4281155258846079 -0.36860013272182307
107893000.0 0.5169675078606155 -0.8494432033569899 -0.7606088860465966 -1.4346332516416713 0.0013354732169043716 5.779429829220921e-05 0.4282706858423308 -0.3860529858622254
108892000.0 0.506664753738792 -0.8527219869428776 -0.828387901604084 -1.468972981669841 0.002261296635142424 0.0023026274039873555 0.4108715108990083 -0.3753396908835597
109891000.0 0.49333207587921224 -0.8615074673830211 -0.884260255040741 -1.506438889519015 -0.001859139296496466 0.0011420452969224232 0.4415145615513759 -0.3836712974671108
110890000.0 0.4849335735496325 -0.8773242902994213 -0.9637152418594925 -1.524785884217092 0.0024565814478765186 -0.0012682798188289944 0.427336876713567 -0.40059775099430306
111889000.0 0.46988577130656406 -0.868823338690689 -1.0141390069442926 -1.563458473479243 0.004004913482104624 -0.0025821139014684485 0.4137581517996783 -0.4088882463269326
