! Created with skrf 1.9.0 (http://scikit-rf.org).
# Hz S RI R 50.0 
!freq ReS11 ImS11 ReS21 ImS21 ReS12 ImS12 ReS22 ImS22
1000000.0 0.9878926404081689 0.0031890792838527695 -0.012287652105854144 -0.04758033446168173 -0.02007700726383816 0.01845964825850671 0.3390801209507878 0.3591625114471151
1999000.0 0.9954193528974801 -0.009922075037612485 0.005654954595323289 -0.028719748511998357 -0.009321997217805604 0.003243387424240987 0.24219731548633222 -0.01027506381362483
2998000.0 1.0013187367018141 -0.0177907481566475 0.014591149656593002 -0.017003322751418498 -0.0027314897488844377 -0.0018149618840733908 0.19172097982001124 -0.14860016630493672
3997000.0 1.0002616289107369 -0.028123339213707313 0.013511060875087383 -0.008278660903267085 -0.002425054666538494 -0.0011289553088142475 0.08738158785116736 -0.21245935097994323
4996000.0 0.9967754180573982 -0.0385971599487432 0.010108424422953262 -0.0016770996498544804 0.003013495931651488 -0.004989102204958316 -0.023421347322474213 -0.1917473952560765
5995000.0 0.995174624661132 -0.048455882074055864 0.010137190956243767 0.004616237659517714 4.025247364954552e-05 0.0011975977986976023 -0.12094809937979929 -0.11425298039619881
6994000.0 0.9948597397324197 -0.05636675406613384 0.0064818599841418925 0.008744176706676281 5.1617386249958596e-05 -0.008472432969062514 -0.1448381800055662 -0.02303883882306571
7993000.0 0.9960586290400674 -0.06832066750597074 0.005508703009264544 0.001782171841579749 -0.00031799712276294443 -0.0012271518785751374 -0.16004040525957192 0.03266683572925277
8992000.0 0.9958326224126101 -0.07193170918770128 -0.0012035256890305234 0.005675434761764389 0.0015887126069526923 -0.0010419844024790298 -0.15898787205533524 0.0506323446023029
9991000.0 0.9925989773446734 -0.08113195854654658 0.002084030143028459 0.007641212109223823 -0.003178547657310945 0.007834630417237502 -0.1579550307524654 0.10598966184014226
10990000.0 0.9940513010667608 -0.090697430214313 0.004527801241496011 0.0025261898689344746 -0.0008826482918208351 -0.0023376045627243633 -0.1280560132301774 0.10736870998849073
11989000.0 0.9933061201493842 -0.10119986062133157 0.0038210694759791787 -0.0021800347237464373 0.0031007066878774208 -0.0031509256298827863 -0.12688969756337257 0.13591973804152155
12988000.0 0.9905191533981049 -0.10743416750969631 0.0012062025016373672 -0.005094728678383546 0.0035500972924382363 -0.00044346063999266576 -0.11392969077461508 0.15495036581434904
13987000.0 0.9899440770517648 -0.11697728726179948 0.0002518621184124207 -0.002692597749292086 -0.004095515640571178 0.0005009384736131353 -0.10521404403052016 0.1800151631495074
14986000.0 0.9903322735132966 -0.12325110154065634 0.0004872111619308807 -0.0035997943681085397 0.004340768496014161 0.0026611210262239018 -0.08303131312579785 0.2037837430947221
15985000.0 0.9881510494549336 -0.13351787131733828 0.0011063687485163463 -0.004666940844504714 0.0018674905596990476 0.0012910015121350314 -0.07571610798043872 0.2148239687006423
16984000.0 0.9870103559216593 -0.14401066006514698 -0.000878486903363487 -0.0028281653697335013 -0.0026530725842449166 0.000536638075384147 -0.06504064819483574 0.21281557136789972
17983000.0 0.986480961647726 -0.14971983229544963 -0.00022072770398334527 -0.004343718045280361 -5.865274036817108e-06 -0.0006077728494396842 -0.04259176147563759 0.22868895435864933
18982000.0 0.9845587946084337 -0.1588891633850096 -0.003821293103753742 -0.00499194830904769 -0.0009270185137166871 6.868839147676033e-05 -0.014582487037059293 0.23073053958558237
19981000.0 0.9827968881096893 -0.16664721306373717 -0.00333326298359358 -0.006464631488701025 -6.088126982954325e-05 0.0009373215239349314 -0.0005137259968096292 0.2414114633682804
20980000.0 0.9815777673178474 -0.17422788596636793 -0.006788584898071165 -0.008756373446523401 -0.0011068300238092762 0.003745453731885412 0.006842730087201068 0.2566853323002966
21979000.0 0.9809515446794147 -0.18181989901017542 -0.005229997406029198 -0.0028434199910895783 -0.0004246079323465363 0.0015077609349327893 0.01902846693918059 0.24168373184743844
22978000.0 0.9780345919502504 -0.19120357654005068 -0.006300227204179074 -0.003334140591070198 0.001007391841921159 0.0011224644888951699 0.02367414083871572 0.25538089741511333
23977000.0 0.9791207231996033 -0.19920058314695177 -0.008908580388110602 -0.0035578353252323416 -3.3964176547429896e-05 -0.0033623551756797572 0.04485183273813507 0.26116254098266156
24976000.0 0.97429807897229 -0.20974354745475574 -0.010275247477699239 0.0004429093997697699 0.0007813895914878884 -0.003610237922258641 0.06607286523526 0.2511460595663272
25975000.0 0.9714795449708541 -0.2139243415070436 -0.0008413607964983387 -0.0012968676429580934 -0.027342148379390262 0.007260563456716464 0.097099112692111 0.2731384331495748
26974000.0 0.9722063749271153 -0.22513860775992495 -0.0057445089830145965 0.0007173207705487144 0.0016007973280143686 -0.002212013175530846 0.09876473123165047 0.25937228941184104
27973000.0 0.9698359500234135 -0.23248600445442513 -0.0019249494864124034 -0.0076952223781617006 -0.0019879861659336034 0.0017221948183224255 0.10355737351597308 0.26072493473097896
28972000.0 0.9678957718128023 -0.24141277784926754 0.0011036914375856586 -0.004160564008472902 -0.0018742081676586654 0.0006653131320044329 0.11767417730355823 0.2533335746420729
29971000.0 0.965893070404386 -0.25118829675521936 0.0038395204774617797 -0.0016307310645694054 0.0011763049331661893 0.0019209480692379181 0.14834839445324452 0.26952995868389945
30970000.0 0.9637454638520663 -0.2563380640376408 0.0036626042342207178 -0.0013066669687293957 -0.001981021544877695 -0.0023797550221042484 0.16908707744893547 0.2536989334226254
31969000.0 0.9627585319155594 -0.2652266852030481 0.006597907704663093 -0.004872514351517849 -0.00015038809918516634 -0.0017004191016333217 0.15953190680577975 0.24972506458285681
32968000.0 0.9614717381918506 -0.2728155233107922 0.00947819957995139 -0.008476750506456425 0.0013977416675359797 0.0060144424742226725 0.16808284964986828 0.24816784625446497
33967000.0 0.9598632933844965 -0.28088564666616184 0.011438111879917265 -0.008302259934342913 -0.00042807940920474425 0.0037243169413093613 0.18199982574111548 0.25185061252894264
34966000.0 0.9559984800549249 -0.29158254187223415 0.011863206936059384 -0.017168342745944715 0.0020437025805376996 -0.0006748798970628387 0.1906035540932599 0.2586714092821581
35965000.0 0.9517588534774879 -0.29995218737695134 0.015692831567657658 -0.013193678824692046 0.0003251979972316669 -0.00023864362603789104 0.21624082920930754 0.25036772518012596
36964000.0 0.9505300071422348 -0.30894318060637443 0.01473246551346778 -0.0117059464612855 -0.003980380475054814 -0.0006027991961660351 0.21774340582632415 0.2535999424529759
37963000.0 0.9458990550209787 -0.3166594045270403 0.022645993617705584 -0.021357391516681944 -0.0010577809777180562 0.0010910613697120036 0.2290234131588093 0.23183053719924243
38962000.0 0.9439804854612556 -0.325499738491957 0.025183680359825517 -0.023366251402271155 -0.0034188615656336797 0.00012907794177869858 0.24228538624264268 0.2324362393071559
39961000.0 0.9412509731888485 -0.3341025784142433 0.027722911660991025 -0.030490711132357795 0.0006255700321321453 0.0012310996907883562 0.2524537480382076 0.2226841649387338
40960000.0 0.9372293197782011 -0.3422896832072074 0.0250519087480373 -0.024244790888972672 0.0012938485872668476 0.0025314179692471927 0.27261318251441635 0.2245815117153714
41959000.0 0.9359501200182404 -0.3508775774865663 0.03000273943415442 -0.031816203527388925 -0.002154043379680806 0.0034383880210722717 0.2777411616883985 0.21193821636500315
42958000.0 0.9292217654983115 -0.3602654878574981 0.03248593332414391 -0.039641641916793466 0.0019369782218488676 -0.00039204152086634754 0.29261682931620164 0.20413304208023972
43957000.0 0.9287341378781547 -0.3649586336349922 0.03660351968046104 -0.04588142781193825 -0.0009996628206441294 -0.001480107053263994 0.29371738607091175 0.20549056173379593
44956000.0 0.9247915538853706 -0.3744010564224971 0.036294861848177665 -0.05199848748205757 -0.0002561767965334031 -0.00013777817932417093 0.30596675645909016 0.19640625541948464
45955000.0 0.9206238877735125 -0.38235277393368455 0.035175274956263075 -0.05768044948863776 -0.0010947358105913966 0.0006864263751581797 0.32016812732050975 0.18577878682475515
46954000.0 0.9184361838843229 -0.39194049969989336 0.03786680882011102 -0.06653834622615115 0.001191811612601955 -0.0011329238515306878 0.3282201678941247 0.18105997038979255
47953000.0 0.9137031012331696 -0.39981349997078425 0.04078631225209285 -0.07235141985251417 0.002301909659547338 0.00013405064733431677 0.34820411994282124 0.16138251064736034
48952000.0 0.9110414945516091 -0.4088360045912913 0.039410915149123274 -0.08210095683686401 0.003838596550807843 0.001497982479412269 0.33606683421350225 0.16041029914476934
49951000.0 0.9064035393763601 -0.4176149114088328 0.042070980986880224 -0.08674062724566593 0.002861816857651389 0.003759313716393237 0.354858829392862 0.14934264553344323
50950000.0 0.902382561004842 -0.4232419168139453 0.04084329998283334 -0.09632362414014688 0.0011217340278192216 0.0016370028680892607 0.3636690266965387 0.13731908214662747
51949000.0 0.8992969757307643 -0.4322924624898069 0.0447349225620795 -0.10721224146619057 0.0016112871458607316 -0.0013407224477064513 0.35843822979782236 0.14715549897099836
52948000.0 0.8984586134577429 -0.43992744613582596 0.04526598311001153 -0.11296179043187193 -0.002237910116037666 0.005271015322529075 0.3734784017268109 0.13410137739630734
53947000.0 0.8895826303040285 -0.44861339857205124 0.04751558898284783 -0.12113562529191431 -0.0011104362747004011 -0.0003604643116183557 0.3770326708828052 0.1174003809021859
54946000.0 0.8859681375059977 -0.4565092696639944 0.04844579866981649 -0.1343095696973362 0.00167555116296644 0.0028649161555587997 0.38481331835347915 0.12282788678384023
55945000.0 0.8840122317704502 -0.46549445066534134 0.05157084945485705 -0.14384498995496667 0.0011948249680696933 0.0020633735376264896 0.3859305697055776 0.10585640081435
56944000.0 0.8800082377288119 -0.47339916275214405 0.04866895197877353 -0.156409556193149 0.0013970688738143117 -0.003372259183146991 0.4033673726483634 0.10891668935528802
57943000.0 0.8742449763643532 -0.48509419721811914 0.052515007366349724 -0.16332824101349477 -0.002261083974183697 0.0018032174767037004 0.4058437053484654 0.08301558021430663
58942000.0 0.8703138492526985 -0.4864713635065799 0.05311650960846826 -0.17701196103230848 -0.0002955109008154391 0.001820599751180706 0.421206218958086 0.08470743952146648
59941000.0 0.8667524061561726 -0.4958482781441168 0.05830612503017585 -0.1860662447722732 -0.0015027481603354306 0.002966313156817479 0.42182059925990867 0.08118702488089792
60940000.0 0.8580963332898216 -0.5044739823128279 0.05249352004539501 -0.19127944117163695 -0.00018808752194568283 0.0001066583536593936 0.41695359042024976 0.07749946413280946
61939000.0 0.8567957733666023 -0.5101012018865727 0.0572839564002319 -0.20116006722494983 -0.0008609908367145363 -0.0002283207338780314 0.42581409214222243 0.06971892458568854
62938000.0 0.8504705835850337 -0.5212769746128563 0.060654126236909 -0.2195826210031138 -0.0006624204439544458 -0.0037652879184905895 0.450507214880476 0.04680390933080959
63937000.0 0.8469275102170772 -0.5276242074151852 0.05901984679366497 -0.23846852811851782 -0.001664023600546052 0.002531384325191604 0.44255966931529567 0.03780301195600825
64936000.0 0.8389146098556627 -0.5332116057370857 0.06032863188230584 -0.25094813004981575 -0.0019593962588683547 -0.0007661816425715876 0.4421656541197983 0.04485967101139804
65935000.0 0.8376405185394041 -0.5434243173479063 0.05878703990226426 -0.2689961195403562 -0.002617544337303221 -0.003516993170643333 0.44516571107984276 0.01764910092360384
66934000.0 0.8323904916461148 -0.5510541321994956 0.05906494907866137 -0.28204545759429483 0.0026393964193227727 -0.004232578959472125 0.4421132667361535 0.006936985068948265
67933000.0 0.8287297996590485 -0.5577444879450386 0.058459850490738124 -0.29775943548650236 6.069414743344048e-06 0.00199125470118558 0.44260757482091295 0.0023792226125221648
68932000.0 0.8258237728594966 -0.5543334124343459 0.056696127085738374 -0.30997330470149814 -0.0027544529061391456 -0.0017357376041503552 0.4566816671427115 -0.010478806906974461
69931000.0 0.8154827455736162 -0.5752725841005434 0.055471826759243656 -0.33034894365405876 0.0017671663315321424 4.4633951311979554e-05 0.45204065066270804 -0.024155754057275193
70930000.0 0.8082343116123126 -0.5825230215069369 0.05036977245390358 -0.3449855142242671 -0.0008017965750571633 0.0007056556380491852 0.45096358401209446 -0.030316355923108208
71929000.0 0.8082221772432919 -0.5904027460963515 0.049938648279092814 -0.36636969851906015 -0.003409727937220179 -0.002196287827549072 0.4567571210248365 -0.03822805175970711
72928000.0 0.8001325202291174 -0.5975602170256995 0.04072149068975072 -0.37656474401760526 0.0008038568541078886 -0.0027125799796355807 0.4593252780753128 -0.04775844495371032
73927000.0 0.7935090935552527 -0.6049948765263399 0.037241832905974846 -0.4036761919494429 0.00022329459688645023 -0.0009010463365412 0.457208241262501 -0.06045244464486686
74926000.0 0.7884178542447648 -0.6128461204128494 0.028934167150015712 -0.4187623301098423 0.002083800503577727 9.4180244855605e-06 0.4657484033193558 -0.0655834996079857
75925000.0 0.7808541694700323 -0.6178122211693987 0.017156643274248273 -0.4425540132449034 0.0025831096927240024 0.0005967388771643007 0.4717493517401677 -0.07600830601145865
76924000.0 0.7766975719097375 -0.6258094670996263 0.007973001763211016 -0.4631471734536699 0.001728865718875046 -0.0022678267077972845 0.4666005369695488 -0.07882934171822538
77923000.0 0.7704240918276892 -0.63383874162241 -0.004559409303956717 -0.4913955999070494 -0.0015174678374099547 -0.0032059877910133026 0.4642448705529054 -0.09200787854480794
78922000.0 0.7647204246467392 -0.6428209303376103 -0.020544163660018894 -0.5160551892717196 0.0009137350600232448 0.0002174484653758617 0.4641807826935491 -0.09883682204019001
79921000.0 0.7553533735644564 -0.646308984940481 -0.03320279435963601 -0.5435179055106848 0.003750668364622482 -0.0009427108828904624 0.45588830886168263 -0.1245032141281302
80920000.0 0.7509662762566971 -0.6577876231316229 -0.04980041692374594 -0.5749809476845135 -0.0008434008296313446 0.0002787067596545868 0.47261392704710703 -0.13593753273511996
81919000.0 0.746882573368957 -0.6632778118908883 -0.06876738086210427 -0.5992195200470078 -0.005179966999145403 0.00047921849370467144 0.46890553111490585 -0.12185527004954701
82918000.0 0.7351009587707281 -0.6713161333279248 -0.08045740898672615 -0.6360442997906219 0.0028620452938158637 -0.00241002138221769 0.47648288350002543 -0.14126413517061306
83917000.0 0.7274942894776638 -0.6788302205142234 -0.1007756260663247 -0.6639356846411709 -0.00046987745130705136 -0.003645568303740473 0.4772479627991995 -0.15002854520728356
84916000.0 0.7253386830700612 -0.6860326181721895 -0.11636612517713525 -0.6986002266935355 -0.0009464181214155134 0.002999156084994632 0.4754619474531139 -0.182272668417655
85915000.0 0.717613641763482 -0.6920875537263713 -0.13638434650335002 -0.7298347076495157 -0.0011571177556491934 0.001556054038316592 0.46943963651647663 -0.17600317677609764
86914000.0 0.7108582543111697 -0.7039811465108115 -0.15456905512423177 -0.7688991190045689 0.0022421591493482023 -0.002383055998900182 0.4678143469843765 -0.1718838257096386
87913000.0 0.7021426050318318 -0.7087480242576435 -0.1717445659999845 -0.800051289611783 0.0002095673868816352 0.0031022645577693086 0.4659085997206499 -0.18852600975818493
88912000.0 0.6971212254859988 -0.716766466652772 -0.19583762486536002 -0.834017410043756 -0.002410763959875234 0.0023224647593164207 0.4623325530207081 -0.2070973878622185
89911000.0 0.6904230162163725 -0.7229520408047042 -0.20647995343476383 -0.8739601704531951 0.002892045607185803 -7.752909877781055e-05 0.4668250484467858 -0.20654892666788677
90910000.0 0.6831780112479098 -0.7274165241918491 -0.22479003322098629 -0.9057112874208358 0.0012635965582383228 0.004256468678671119 0.469137876800044 -0.2118794652073363
91909000.0 0.6749049389588453 -0.7325710443240009 -0.24487530258732748 -0.9433190136336513 -0.0007233926503741083 0.0030873174471715286 0.46096087008060677 -0.23059211741629418
92908000.0 0.6653171376611616 -0.7422921985036344 -0.2634478301024442 -0.9763851421802329 -0.0009708157471000712 -0.0027241949410023005 0.4677222851985644 -0.23786849633701548
93907000.0 0.6606934534196638 -0.748368887240376 -0.2862779217961324 -1.0093373432748278 0.0005033864205198768 -0.0019831803243742577 0.4679678889349207 -0.24003591214606557
94906000.0 0.6464916381285655 -0.756166511672425 -0.3067591172109453 -1.0412545019753632 -0.0009184139061100816 0.0005526473578274143 0.4587540827591622 -0.2526601745661546
95905000.0 0.6422560137215353 -0.7614807386339613 -0.3281122495002319 -1.0809973902729357 0.00025357641744481384 0.0029999503828396653 0.46874370257529513 -0.27462748167836964
96904000.0 0.63305367483468 -0.7714290977894905 -0.3521845083418607 -1.1238232963985049 5.301359495701894e-05 -0.0019831826389805187 0.45689782658353084 -0.27466688759886176
97903000.0 0.6247330032440631 -0.7753385555082718 -0.3752275876885452 -1.1524335437678976 0.006612667719747161 -0.00018652047443347522 0.44992353456167555 -0.28773774206476416
98902000.0 0.618451560817797 -0.7838689803366572 -0.3970974744930529 -1.1916262009440037 0.0017645951208395277 -0.001788218654641913 0.43832699528372915 -0.2982541105157441
99901000.0 0.6107057871325945 -0.789272112704331 -0.4283841129346965 -1.2277900352605708 0.00037188328490411456 0.0007707730353099576 0.4661612165202159 -0.32078355107672274
100900000.0 0.6030137566825338 -0.7922552174126832 -0.4630995359264101 -1.2596267237502319 0.0025607519767898773 0.002732176869945783 0.45383147666386187 -0.32018522451715137
101899000.0 0.5920331718029966 -0.8015264260558621 -0.49237621147773153 -1.300274267070927 0.0012351515864510258 -0.0014580601763258998 0.44867194042593356 -0.3183173991088572
102898000.0 0.5847252577129636 -0.805022312621525 -0.5307711640247903 -1.3409845427669067 0.0007111792044720418 0.0009783740156803602 0.4387141180213675 -0.3411431666071207
103897000.0 0.5768306439349846 -0.811077664504794 -0.570619865981624 -1.3729692754111849 0.0004865782176881844 -0.0037629451781108097 0.4515274399902605 -0.3469390358778351
104896000.0 0.5674530994413394 -0.824306027095773 -0.621321524773768 -1.4091371078347203 0.0020109358219968575 -0.002157109598863679 0.4413002665722539 -0.3552684390545516
105895000.0 0.5584284303062004 -0.8254549485070358 -0.6630940316041878 -1.4569088856040053 0.0004410880490903717 0.00014896845621355508 0.4452433337035571 -0.3643116295666979
106894000.0 0.5493803422840532 -0.8319312198456411 -0.7177745907708803 -1.4950066511583469 -0.00044015547883675173 -0.0013588739280352645 0.427776013291359 -0.3706413550462915
107893000.0 0.5410607784692059 -0.8368670576025184 -0.7740501447542129 -1.5367818985877544 -3.8701735253039456e-05 0.000492677043355876 0.430536260627122 -0.3779697340042122
108892000.0 0.5290686666178553 -0.8432038636582524 -0.8332219069517927 -1.5744859776081266 0.0024878207217781056 0.0021988606246625695 0.41612058659443296 -0.3745880410988917
109891000.0 0.5188967952032866 -0.8486755941823463 -0.8925650379153109 -1.61448127610426 -0.002021624750042989 -0.0006953975483546251 0.4485982538359478 -0.37606957783412703
110890000.0 0.5001131392104616 -0.852109840568138 -0.9653317097901725 -1.602536058306827 0.00013782309676233775 -0.0015548508408015451 0.41848002438421794 -0.3838032039670648
111889000.0 0.49750355933771284 -0.855338864815172 -1.0219108245005393 -1.679685909707118 0.0022028988037779106 0.0014805695022908753 0.4216720682627857 -0.4034793762659804
