! Created with skrf 1.9.0 (http://scikit-rf.org).
# Hz S RI R 50.0 
!freq ReS11 ImS11 ReS21 ImS21 ReS12 ImS12 ReS22 ImS22
1000000.0 0.9857889376444174 0.005736891779607408 -0.01886298102138393 -0.05383822868285053 -0.006071877782781462 0.0003702154575660931 0.3266493725556908 0.3603039390264468
1999000.0 0.9972098581847908 -0.01964776091745006 0.015548980910650148 -0.010898746952298565 -0.004802582754661398 -0.003762449864055193 0.2812639790540506 -0.01659579212850634
2998000.0 0.9960077484417872 -0.027171712478451508 0.006527309743565032 -0.011343765365925065 -0.006814678259287785 -0.002110130102550648 0.189239961897542 -0.12525137676695153
3997000.0 0.9961072409375329 -0.03337527399821607 0.011558949874875088 -0.0041588149496852075 -0.0016217528634040598 0.003603037300520317 0.08240701669819642 -0.22181917693414874
4996000.0 0.9949198115746054 -0.043415220635645936 0.017507053805032546 -0.001218274571718283 -0.0003198777460339557 -0.004207358235688665 -0.03634520515603955 -0.18280645788257974
5995000.0 0.990671142732514 -0.053917676962706905 0.011508398869466127 0.0033473778235614178 0.0016756276509099393 -0.0009468819232021692 -0.1406634906974923 -0.0952812727530258
6994000.0 0.9903560955792873 -0.06097011813798452 0.006915321976032436 0.004418977782146324 0.006824346783278714 -0.0038854467572665917 -0.12960591481773384 -0.027399496058473773
7993000.0 0.9906626966655437 -0.07034446374408389 0.002537077909842787 0.004346325861217467 0.005189979300101223 0.0005822989850496229 -0.15200339488139528 0.048842737045958214
8992000.0 0.9930078543555012 -0.07385679166687271 0.005654476329520887 0.008286192872621782 0.0008413600359127534 -0.005132451440665941 -0.1529055217486629 0.06641172659048386
9991000.0 0.988002494618716 -0.08497745649402567 0.00661524685073059 0.000685131092261185 -0.002241918034850905 7.182018120761109e-05 -0.13856464834326113 0.10199460310481323
10990000.0 0.9874459392545659 -0.09664819573933178 0.0030515493128331194 -4.596112727884106e-06 0.00010536297840353224 0.003785735109756484 -0.14047522561185102 0.10676075901425373
11989000.0 0.9874905179798429 -0.10322341001876341 -0.000545984701381524 -0.00411919102472589 0.0031686938375075522 -0.0014664409981794914 -0.12488128389700047 0.14205824786064614
12988000.0 0.9858137905333464 -0.11225672863697461 0.0038053548199882153 -0.006994747091932092 0.004996561134973017 0.00047157436801967804 -0.1155422205331022 0.16099884216751367
13987000.0 0.9842478986700894 -0.1179036297851485 0.0022114570306429326 1.2893768149983273e-05 0.0014114936412984223 -0.0020731263942591924 -0.0903835866885799 0.19135742660925903
14986000.0 0.9809946946530023 -0.12862698010395365 0.002552505924646649 -0.0036410690842036703 -0.002677740253189262 0.0012134635494113143 -0.08281552445133791 0.20315625893203454
15985000.0 0.9855530194511958 -0.1344714157419005 -0.003871645755884374 -0.007021188155201547 0.00425638284670538 0.0017417241217748027 -0.06898380928562094 0.2115687818178407
16984000.0 0.9809139984873411 -0.14543778315340408 -0.0032717648332606254 -0.003682563103470064 -0.0057029917349549104 0.0013406502550762365 -0.061699875176614245 0.22079938161697873
17983000.0 0.9821572619281173 -0.15414545964725507 -0.0005803580755790522 -0.003887270093281296 0.0004157111319500378 0.003051453804888551 -0.056686516340355445 0.22860682858207584
18982000.0 0.9790840600847137 -0.16152479001389464 -0.006517942298828969 -0.0038253245953168633 -0.000801243474120661 -0.003815900233553683 -0.027703398577567623 0.2322290324084016
19981000.0 0.9772064143667454 -0.16821693305220145 -0.0015433378729872557 -0.00466068724756373 0.0010021154845701653 -0.004436410830192995 -0.01033071537127524 0.23151087320811045
20980000.0 0.9766776554157788 -0.17970770306121364 -0.002349473271850213 -0.005892020777200422 -0.004603418678962616 0.0009398919754301995 -0.0022989401516715414 0.2556126471915688
21979000.0 0.9734163933320551 -0.18865612160333917 -0.00681743406648546 -0.0038112880945454027 0.001314206530117412 -0.004031373388647689 0.016645514428730482 0.2505386330050576
22978000.0 0.972991676923494 -0.19376167793866558 -0.005283533719654989 -0.007700606369063979 0.0036252396900404217 -0.0004925887954588757 0.01751785917503524 0.24487054979179027
23977000.0 0.9717745253712512 -0.20238187859954154 -0.008288464312312588 -0.0012497213455489292 9.621256843388439e-05 0.002268004757088343 0.03932888788008287 0.26082083788753513
24976000.0 0.9711664737183151 -0.21423243754047427 -0.005258505125351877 -0.0025778505600689973 0.002924596691028294 0.004933943130978137 0.0611930686879705 0.25316907130237953
25975000.0 0.9700252603647249 -0.2188249181065713 -0.010060905853651592 -0.003378399369236727 -0.010787009994057566 0.019425883801724497 0.0669444911009413 0.252747456484919
26974000.0 0.9668383723311661 -0.23097512545731305 -0.0021501157282142074 0.0021303237204204177 0.0003451669544406108 -0.0008980945782690114 0.07798275557782978 0.2689109743500597
27973000.0 0.9643195724593557 -0.23883461048559407 -0.005028787584846707 0.002686712500099633 0.0010727411964625733 -0.0009992066888347211 0.0962188789794018 0.25766775160455613
28972000.0 0.9633362039180491 -0.24579656604347194 -0.004409795146203217 -0.0004297375385029173 0.002440784235418051 0.002148637126793336 0.11703963412395978 0.2551572192220507
29971000.0 0.9594291885480303 -0.2561151386819377 0.0009598213544613751 -0.003032030009567836 -0.0004350937726802326 -9.0467885793369e-05 0.15281545490623666 0.26272135284898324
30970000.0 0.9575992721000156 -0.2612845954328733 0.0020578501068781612 -0.00014746513187035478 -9.558609501585421e-05 0.00018944094537628366 0.16594585602709966 0.24947047935263425
31969000.0 0.955806687001507 -0.2705067653187315 0.006512169913681968 -0.004008364247462472 0.0015861690204264486 -0.0023222395863991725 0.15424821357413024 0.25106099340437077
32968000.0 0.9537233326594013 -0.281619125815426 0.007887993219379283 -0.005849972295526401 0.0027395725593698243 0.00025411926744910477 0.16531550121489003 0.2415962654824567
33967000.0 0.9513678866738519 -0.29091324688767417 0.011645178759691732 -0.009486466506288024 -0.001773569430952686 0.004038406891484582 0.18448122310976664 0.24287466832900564
34966000.0 0.947169432610096 -0.29856600829476365 0.014292453789287271 -0.012712346076987043 -0.0015014894187161312 -0.0013935007778912412 0.19359645744358575 0.2527167482583889
35965000.0 0.9458768889319675 -0.3049984914755846 0.01560588626164688 -0.013716495596125897 0.0024046638287433517 0.001123776644904744 0.2196671930496222 0.24663839360022605
36964000.0 0.9431956595950298 -0.3158909348036071 0.0160869862203577 -0.013107822455160945 0.0013666630461133327 0.0012368296180510175 0.208592055331425 0.2507796309782988
37963000.0 0.9411621012215338 -0.32327881860750995 0.02207540945912056 -0.02203424881297682 0.00033934396323427515 0.0017806037976420962 0.23061657790777768 0.2339500687542235
38962000.0 0.9386136306108933 -0.33290058182051513 0.026224000493505064 -0.02445827432826458 -0.005525204786601045 0.002272187418440853 0.2370085158338689 0.2326520527036603
39961000.0 0.9353189971086171 -0.3422850042226957 0.027813748119064837 -0.027705376766057832 -0.0008824146692141257 0.002121096638411537 0.2537975786403331 0.22143902146935157
40960000.0 0.9325973160086252 -0.35078859290676534 0.0217564018373149 -0.024707593862885166 0.0008514438167521839 0.0034727055195790026 0.26834183873259065 0.22178814159150237
41959000.0 0.9285423136663004 -0.36026183591414995 0.029865626832941628 -0.03333147058735149 -0.0005274042296975235 -0.002365721343449639 0.2708582073673459 0.20907100978076285
42958000.0 0.9241327515320727 -0.36796285821093466 0.03374612418244912 -0.041012542866697775 -0.0022429695779706675 -0.0002667397366705751 0.279582378271962 0.19600675605650325
43957000.0 0.9226689929664117 -0.3742114849431372 0.030635640594001173 -0.045346469337702436 -0.00013720845174734308 -0.0013780156465287674 0.28933893357770907 0.20693002002878663
44956000.0 0.9176394616409412 -0.38254940080507716 0.03334874184855028 -0.05158541383839769 -0.0017460944542222058 0.0005451464248800117 0.2994998151489552 0.19364733375582965
45955000.0 0.9135152525679612 -0.3935379774846312 0.03423825492587052 -0.05929108319326864 0.00015580870078733196 0.002389658777286616 0.3059737933067109 0.19396849454100062
46954000.0 0.9098584127272158 -0.4018414389513749 0.03304886395730018 -0.0650339813200135 -0.0006785630890750737 -0.0014668641008440057 0.3290666940143532 0.16965928695908175
47953000.0 0.9067329870206464 -0.41002562731324044 0.036461128522561906 -0.07438043942537058 -0.0003510481817054418 -0.0015140815196630938 0.3341310816163958 0.16564853080500722
48952000.0 0.90089569292664 -0.4203215468034314 0.03487740818646108 -0.07839452478212351 -0.0014720351398410717 0.0015918021656201743 0.32990513819338513 0.16354966941759153
49951000.0 0.8974043138624394 -0.4273368142087508 0.03644329971427188 -0.08570974008160188 -0.004822631018016569 -0.00010850609365595599 0.3505353894816053 0.15362346619569314
50950000.0 0.8948280968872605 -0.4352402110905236 0.03465076307355572 -0.09745665576998992 -0.002834302762088732 0.001998100477782883 0.3546281024840005 0.14116279137434623
51949000.0 0.8890371797264085 -0.44355088597489406 0.03548953998360952 -0.10323121441556223 -0.0005824791498855132 -0.0017287948974799322 0.3670515546031786 0.13536273916181582
52948000.0 0.8876960133584714 -0.4518058610371014 0.038008414106514996 -0.11372347174681079 -0.0004867300984315602 0.0020800159084972893 0.3747705038290393 0.13724323708193434
53947000.0 0.8812416172460305 -0.4607759394831731 0.0396459590698849 -0.12127336728263552 0.0029091090166428494 -0.001334703950465148 0.3634989674565596 0.12556738870429313
54946000.0 0.8761029768983426 -0.46948008383728285 0.03898566052560184 -0.12941335656953085 -0.002094056813973696 0.0009980554375135344 0.38461929959708113 0.11886026661614371
55945000.0 0.8730122730888327 -0.4763155923547638 0.04258658226534405 -0.14249962050587042 0.002841411241275329 -0.0005027583254707927 0.3916278284936244 0.09578973126597834
56944000.0 0.8678581797490258 -0.48738694616055095 0.04481369048484106 -0.148889037881131 3.1018296098320373e-06 -0.0009047415254674019 0.3975021172656595 0.09751984984405929
57943000.0 0.8644737586668598 -0.4953657293378214 0.045176795480025435 -0.16383188091673717 -0.0005394413423874139 0.00013972318848446338 0.3998372645637811 0.08897477424328173
58942000.0 0.8579726589432503 -0.49972530685752653 0.043091323206570775 -0.17287303876138946 -5.504706127335863e-05 0.00241062395251233 0.4189256076719054 0.08507378792445301
59941000.0 0.8547332606691292 -0.5099815933608961 0.0456365938512258 -0.18105505677229308 0.0027617106682205164 0.0006299013394119669 0.41804823612072295 0.08779752059393406
60940000.0 0.8480274301639336 -0.5170179685025994 0.045362044977193657 -0.18717733461251942 -0.0029854641269172347 -0.001105630650385252 0.40551554021663627 0.07406358649363158
61939000.0 0.8441430374155369 -0.5235145956178028 0.05079664004734125 -0.19233457231839743 -0.001899697776363628 -0.0012801914134140592 0.4114119535206916 0.06389340280168461
62938000.0 0.8369104610589951 -0.5347988119798137 0.049237127939324526 -0.20766938457388606 -0.0009309445850755475 -0.0010774402463795923 0.43861367581376187 0.06493903743812508
63937000.0 0.8317913299195785 -0.541794150919534 0.049885968337117184 -0.2295335468179502 0.0029218224863075764 -0.0031852951650211967 0.43190565693172417 0.03677012839773377
64936000.0 0.8270139112326688 -0.5470766193072443 0.052628518259162246 -0.24330935945568352 0.005035256121034149 -0.0018301603656751314 0.43336802149530057 0.04349350783747788
65935000.0 0.8229356881543695 -0.5573326761673807 0.05237568381556182 -0.25731209961589896 0.0032939406589939596 -0.004642670802622822 0.43160395901164683 0.01943879657079549
66934000.0 0.8183888444599559 -0.5634124829860431 0.051646448164677214 -0.27090543847856446 0.0004205023554866499 -0.002801120202692341 0.4308029969176815 0.006239779562943027
67933000.0 0.8166607976409717 -0.5717243170632258 0.05436381216502113 -0.28181330307117564 0.0015078832302526995 -0.003920374044708322 0.44452022358345056 0.007038884201996302
68932000.0 0.7952528234106936 -0.5728442650514363 0.04415316692546111 -0.2944708172394887 0.004396568451236743 -0.0025604745268191496 0.4550303074553329 -0.017134278173159292
69931000.0 0.8004043507802462 -0.5868783793436699 0.047291931473298944 -0.31549555313084016 0.0008718298920257714 -0.00807285536212927 0.44553390823102407 -0.027096330106297608
70930000.0 0.7939784053944758 -0.5932989942349857 0.04617903836131537 -0.32676309125490927 0.0018900798225338377 0.0010742147436501967 0.4395752204906989 -0.03703740512716049
71929000.0 0.7895864982578914 -0.6052853629998339 0.042354657384062244 -0.34719675695328533 -0.0006655135078131184 -0.000736741139273679 0.4463851730091645 -0.04876231137331665
72928000.0 0.7820093330453785 -0.612184660470125 0.03611979061588089 -0.3588639134789502 -0.004585790044403806 -0.00035258707705498643 0.46798921536905597 -0.05188619650981718
73927000.0 0.7778301249428925 -0.6190874917677827 0.02680266420196214 -0.38035065427505504 0.001765668387696457 -0.0028386121930953144 0.4552604093316461 -0.06059165318607903
74926000.0 0.7709590875928201 -0.6280503059334072 0.023696196490912994 -0.3976548610094237 8.741382735945894e-06 0.003277487308095619 0.4560294661081184 -0.06448903090901935
75925000.0 0.7622560461599552 -0.6337128818744276 0.008637685302623646 -0.4188311812009975 0.00302347481027584 0.0007064970306749159 0.4660210459692606 -0.07968489080570004
76924000.0 0.7567830160742357 -0.6420079576762138 -0.003390157902641485 -0.44296047404665256 -0.0029315152356848254 -0.0034860796474188225 0.4598157217466962 -0.0846294149132842
77923000.0 0.7517414895126775 -0.6469965526131194 -0.015775615026191216 -0.46261767795295655 -0.005529777497771088 0.0009172412744989868 0.46065308560878315 -0.0993319528052638
78922000.0 0.7443705215492125 -0.6592631501438203 -0.028876102387865647 -0.48992039737097653 0.0037036107244581527 -0.002308895193524072 0.4626776447990199 -0.10941518132431156
79921000.0 0.7356200951201471 -0.6614313136111909 -0.048616396843569464 -0.5166032610039822 -0.0008336441927734797 -0.002343996633285776 0.4566288728595539 -0.11070085460832428
80920000.0 0.7309149357237997 -0.6728641751177378 -0.062101931627711764 -0.5459230640741486 0.0015589029342027278 0.0057958488452800536 0.4502500064181803 -0.12248853236294635
81919000.0 0.726374143039661 -0.6786030200554654 -0.08186523333696541 -0.5730647621523105 -0.0017619948604666066 -0.002143189026588477 0.4651976350667658 -0.12763860416930367
82918000.0 0.7182137909767339 -0.6843075747350956 -0.09402130067805449 -0.6042220920529197 -0.002571773224446246 0.00039182337713612606 0.47443335417885446 -0.1546627751871847
83917000.0 0.7114827866178517 -0.6920698452602141 -0.11688848843695405 -0.6304392239327468 -0.0009298770556284837 -8.729728920074637e-05 0.47118550228719663 -0.16573951086075475
84916000.0 0.7027739306196905 -0.7001233610967073 -0.13622010297689197 -0.6655940248244158 -0.0007077591628342017 0.0026010079077750286 0.46220727328047534 -0.16624221598507388
85915000.0 0.6956724055141581 -0.707101718812184 -0.15161451953704463 -0.6929753147952321 0.0034870072485862573 -0.0021897331505018824 0.46045514665335796 -0.18273667456872092
86914000.0 0.6892505160400583 -0.715600440524259 -0.17004854063464556 -0.7338252126044916 0.001761492041056896 -0.0014281626240009262 0.45443925267193697 -0.174658713040522
87913000.0 0.6834468888444176 -0.7217195728833231 -0.1857805355677105 -0.7573551739634283 -0.0039430895791663515 -0.0020323904403607403 0.45502461818126594 -0.17889606102425265
88912000.0 0.6743043644585754 -0.7279899649391581 -0.20610932601820842 -0.788221334962027 0.0017714378434146398 -0.00029860389502230214 0.45657920223877985 -0.21035271566585342
89911000.0 0.6658201033460438 -0.7370872147373494 -0.21328702169274133 -0.8279285143026783 0.002072718219743189 0.003059943219284408 0.46663458688824444 -0.21978802932288516
90910000.0 0.6603498471679135 -0.741023712907565 -0.23513426321017428 -0.8583420163504805 -0.000829798405503085 0.0010663485550463966 0.4542737097631637 -0.21297708891806388
91909000.0 0.6513406925327587 -0.7470908377138259 -0.25239363165987955 -0.8914496124753978 0.00104993019862948 0.00028057501889309486 0.4649963925661145 -0.23236029774791536
92908000.0 0.642495620402219 -0.7556343537855912 -0.2729615501901881 -0.9248815991032416 0.0021839880953981854 -0.0001857398643668216 0.4459116834485371 -0.2395574416796347
93907000.0 0.6356277083775442 -0.760137227155539 -0.2892857547823915 -0.9573970328698446 0.000414908720201668 -0.002632931920260115 0.44852319009268143 -0.2624086755408143
94906000.0 0.6253929245166311 -0.7695474301623879 -0.3062497016392339 -0.9865241618003485 0.0014001191536796547 0.002942041129352098 0.44848577490364183 -0.24355167315803833
95905000.0 0.6203872597656308 -0.7752340288509604 -0.32691059793846394 -1.0260178005471035 0.00030794394198779406 -0.0015796096975145533 0.45726854725330035 -0.2740076127972656
96904000.0 0.609739392086435 -0.7825459117445217 -0.3426628890514361 -1.062615394124762 0.000644514955823944 0.0025168801691936504 0.4634712887773879 -0.2793467479693062
97903000.0 0.600480977300907 -0.7894128114242559 -0.36831682573368035 -1.090333083274311 0.0024302145078557566 0.002328433402764056 0.4474781139655355 -0.292849031391342
98902000.0 0.5937803569987921 -0.7960688024111904 -0.3861213684747304 -1.1305608308194661 -0.00029953032593982434 0.001724772701911293 0.44668003109629273 -0.30387727579536933
99901000.0 0.5846080436979508 -0.801903996678315 -0.4166613587291889 -1.1590071643656679 0.0024915431202742195 0.0024656526092728887 0.4520118639684258 -0.3172467316392547
100900000.0 0.5760668417058151 -0.8046005297861092 -0.4487997314958365 -1.1850700912934498 -0.0012423047668591533 0.00011685062411054972 0.45967353852335185 -0.31190570522422406
101899000.0 0.5692175186411627 -0.8116229610367105 -0.4721728450073806 -1.226931600227835 -0.002043106824621528 0.0001857833830942282 0.4471070336194504 -0.33554014628359397
102898000.0 0.5563843987060078 -0.8174015749321469 -0.5074175424044567 -1.2638799773907416 -0.0008807219018659056 0.0028625332495785445 0.43890565380067914 -0.3412535108197399
103897000.0 0.548716581627428 -0.8244235820178304 -0.5445585228366987 -1.2945203449161828 0.0006490686593900512 0.0015727970006719244 0.45328286649920646 -0.33794768903376543
104896000.0 0.5424245249523212 -0.8353623017770486 -0.5926274939644354 -1.3283671422714556 -0.0031211934921048755 0.0007143921220465504 0.4353074948140397 -0.33862629955117907
105895000.0 0.5288518514711623 -0.838353438108608 -0.636260130218351 -1.3678791001804682 -0.004255524900400807 0.001280490380506117 0.44049004380181894 -0.35478899893383337
106894000.0 0.5196572649325245 -0.8452351470637317 -0.6918069737590404 -1.4007573931367838 -0.0014447820020705021 -0.0023460352217503366 0.4260949709035901 -0.36551214995492104
107893000.0 0.5141405657158642 -0.8501028722968597 -0.7355121120520624 -1.4410099855288008 0.00010615619700616185 0.00110877446190025 0.42950900724128027 -0.37502740668864437
108892000.0 0.5019306861583989 -0.8543281295717465 -0.7999387164020131 -1.4767058498530097 -0.00028019395854571733 0.0015337639335617234 0.4224731457602068 -0.3754653791782607
109891000.0 0.49029865815423335 -0.8595772951353229 -0.8624288172501613 -1.5090604966589272 -0.0027680473179437343 -0.0006171866556346612 0.43712039064223857 -0.38631111318440836
110890000.0 0.4822779729990236 -0.877268016721203 -0.9389271212084689 -1.533780058697849 0.0005446624920416969 -0.001730297718426493 0.42595865270122585 -0.38530211620617455
111889000.0 0.470337944510703 -0.867878275521658 -0.9855581351971312 -1.5765852236548312 -9.222396230331204e-05 0.0006926285542785961 0.4109950914225854 -0.40464096162343804
