! Created with skrf 1.9.0 (http://scikit-rf.org).
# Hz S RI R 50.0 
!freq ReS11 ImS11 ReS21 ImS21 ReS12 ImS12 ReS22 ImS22
1000000.0 0.9729773783099371 -0.007067628943505048 -0.02512215925383185 -0.03388150650347636 -0.018903243011868513 0.005521569283079246 0.38762134779157215 0.3190006369292154
1999000.0 0.9954944874242327 -0.012935151379640623 0.013445287073156858 -0.02202426286281566 -0.003957846168684897 -0.0051530005771032355 0.2797737754866969 -0.03230098031762057
2998000.0 0.9996955454481828 -0.01732669493326135 0.013596215913719172 -0.013455716113515832 -0.0072396381476932305 -0.0015710097274571342 0.18795343547153454 -0.1443514932671211
3997000.0 0.9981076908495187 -0.031960600455587435 0.013328575884827538 -0.008521804727432669 -0.009532980884998812 0.0011165017683583303 0.09582626152267473 -0.22190749165108856
4996000.0 0.9968453740790325 -0.03741265127632366 0.010518717349975263 -0.0019129305353120874 -0.0044390443952688555 0.00351018897833609 -0.028187604086238258 -0.21135025304013122
5995000.0 0.9965663803928283 -0.04723045362926981 0.010856500433432887 0.0027289446488471627 0.005682218447904305 0.0013952611543349156 -0.12325304508341764 -0.11588342674716268
6994000.0 0.994905454968113 -0.05648658364188836 0.011675464204463 0.0060342303746130825 0.003276590706590175 -0.0009917447184063536 -0.15102717292069104 -0.032913797237992565
7993000.0 0.9978614877893497 -0.06521171142874219 0.004117992536910552 0.004395466935246926 0.0018299219656680021 -0.007895506290527907 -0.1702608027243991 0.03632436449345322
8992000.0 0.9968143238547844 -0.07162807538122905 0.001694846483750203 0.008059496372597954 -0.0032922390914737597 0.00014770873134663666 -0.17530955334494489 0.0759473844673793
9991000.0 0.9933139848902172 -0.07983822210900786 0.0034206175135505948 0.007594683289544795 -0.0016482943599871508 0.0001736003378987171 -0.1559091157509925 0.09547770554948218
10990000.0 0.9937500459065691 -0.09163229348156543 0.003487470049706283 0.0076277469644778885 0.0024958143640943374 0.00042933752203176646 -0.1474613336606719 0.1090764324454004
11989000.0 0.9910289139855288 -0.09629887734373324 0.0021342787314156705 -0.0021119617705646844 0.001224843412367407 0.0036912272272077978 -0.13004188259925933 0.13915064712404485
12988000.0 0.989904664361942 -0.10983211772278156 0.00341194866959733 -0.0004131634237647516 -0.002926394893041767 0.001553418458104276 -0.12221616187623555 0.1685441555979969
13987000.0 0.9885430113113856 -0.11706399822497897 -0.0011385887673482412 -0.004348461859021924 -0.0031504245092232987 0.0036287506486096755 -0.09314600180062456 0.17989973114590263
14986000.0 0.989184898044087 -0.126282005949023 -0.0030477843086905926 -0.003898639245698351 -0.0014653975329598798 -0.0007779068376940122 -0.09969286399596249 0.20096506084215862
15985000.0 0.9907062996138201 -0.13087680834468673 -0.0012378204909752868 -0.006170599701643406 -0.0038675689797828257 0.0003390435185203117 -0.07264129887686195 0.21781687227185229
16984000.0 0.9873254171080922 -0.1424239324739066 -0.0014416637878105936 -0.008181460994462762 0.0008038665361324883 -0.00046062419435300496 -0.07428112611151723 0.21771928377395713
17983000.0 0.9883258103037136 -0.14676020488030073 -0.005410561072743786 -0.006699329868353223 -4.378099478537302e-05 -0.004421505127164233 -0.05571350378983247 0.23282429425760176
18982000.0 0.9839588204458047 -0.15821578310301598 -0.0028638473306585423 -0.002230277635201488 0.006669570645918278 0.0008637481377399625 -0.029199075376218533 0.24019728732509432
19981000.0 0.9843808139934104 -0.1648679776113929 -0.0006793660739518721 -0.006017014463797824 0.003757557959646274 0.0024605862870460227 -0.017788517658671916 0.24706182509879407
20980000.0 0.9839130685077182 -0.17344099693188558 -0.004188466352257644 -0.008111210783533218 -0.0009220704542736663 -0.0018375579181251825 -0.012695066715225453 0.2730008517042105
21979000.0 0.9804584352771536 -0.1804308935683568 -0.005819561073663743 -0.003836509074457885 -0.002321810073443806 -0.00021433080404801658 0.012142926023345026 0.2528044330657229
22978000.0 0.9799360339425002 -0.19100329586172846 -0.0038859631583008465 -0.005565767660828873 0.0012648928121847252 -0.0018969295447336513 0.028814762715153028 0.2568128256023819
23977000.0 0.980116858697122 -0.19787594769876865 -0.0051894945713811735 -0.001918231762354418 0.0019716032119676706 0.00012946573374130377 0.046651353531140444 0.25248851257853805
24976000.0 0.9743786364656639 -0.2098158488396754 -0.001457973527632932 -0.00212620169220175 0.003476281064344684 0.0008313364596862036 0.0625513961901372 0.2663855862244699
25975000.0 0.9776657144191181 -0.21761228030227409 -0.003914105864324126 -0.0026849111091176705 0.010260320172863697 0.023587576909897424 0.07964265410335614 0.2683814177303137
26974000.0 0.9706059973045584 -0.22557551903835515 -0.005046950146712499 -0.001618466315744226 -0.00017165448697878928 0.0011175790887002354 0.09278795339524723 0.2652544512171877
27973000.0 0.9715174343837721 -0.23093447123020172 -0.004999479512157592 -0.0018376556445690493 -0.0012920790926570877 0.002146055944475455 0.1010822291162965 0.26381551367362865
28972000.0 0.9685163258481687 -0.24049617396034367 0.00041129837492313577 -4.22480523891654e-05 -0.0005045447706402368 0.000159733315875527 0.1190225649359276 0.2642290017467289
29971000.0 0.9668124662262163 -0.24993940231500403 0.0026277724582606074 -0.0026808952696640354 0.0016177971242662605 -0.0017197553172517937 0.14680761383857646 0.2749094289270985
30970000.0 0.9632930302841446 -0.256213963809528 0.0029980832393356224 -0.003499337164166211 -0.0013811893579065923 -0.0032700492352571047 0.16501867261283923 0.25178812885657775
31969000.0 0.9624921043929497 -0.26517792686841646 0.005526410354610047 -0.00674948008104764 -0.002696669273831328 0.0009544439346415377 0.1573347250855134 0.2530321432768294
32968000.0 0.9613531808278698 -0.2740073253713064 0.009413577664494473 -0.00930780758665169 -0.0027037932279942163 0.0010461824910849033 0.16411977021867943 0.2505747142238575
33967000.0 0.9580929256037696 -0.28328190519164764 0.014214604839007215 -0.011492008517699276 -0.0017947490054117075 2.1708327051545205e-05 0.18609819031555777 0.25114743345149765
34966000.0 0.9532356293377569 -0.2921991551340467 0.01689654814892162 -0.012112204809248121 -0.0007271916472307437 -0.0018188013169499403 0.1966807056387036 0.25197429870417665
35965000.0 0.952141701729597 -0.30118102919584305 0.016052387941872234 -0.013511367058282257 -0.0004001656009711474 0.0007733248098395658 0.21865992237181514 0.24750839356747437
36964000.0 0.9497968311239958 -0.30812387240656236 0.015066088134563284 -0.01578425744093055 0.0012722358708049204 -0.0012110720918001728 0.21201287305423824 0.25074847894311836
37963000.0 0.9457280005542981 -0.3168150206233435 0.022746166266756827 -0.020881156941727486 -0.0010068460268994818 0.00013380442927171115 0.23508092695048854 0.23222785906324644
38962000.0 0.9437561928118054 -0.3275122965178044 0.02390495262188124 -0.02265259639303215 -0.0006962648991223093 -0.0006206917918743572 0.24262335660839052 0.23526759552492088
39961000.0 0.9397980811793394 -0.3347764521477457 0.028579530999218693 -0.02761535462065801 -0.0010587123883880995 -0.0016082431022620821 0.2589678778632803 0.23392651690004945
40960000.0 0.9383306458975754 -0.3417068815438739 0.025444241961691476 -0.024233193067462216 0.00273237060192966 0.003800774379137829 0.2686078920909566 0.2247289621264981
41959000.0 0.9363352217354963 -0.35073371412303506 0.03034683155120983 -0.030217290679551267 0.0018654834955631136 -9.157750600244107e-05 0.27374128591949765 0.22108997132420963
42958000.0 0.9303756676971565 -0.35936764003325367 0.03229806011337199 -0.03736643722343635 0.0018617851725752233 0.0022742311561006825 0.2796517661245212 0.20570658154136953
43957000.0 0.9282477129436235 -0.36754567224758894 0.03297272777943316 -0.04574541652038373 -0.00014648190636254647 0.0026663706467074085 0.29000006153198327 0.20507419738340057
44956000.0 0.9246774059450305 -0.37377296865178655 0.03512864677071659 -0.05206514753833147 0.0019372476004700964 0.0002369518815220794 0.3069086149991546 0.19553966180624507
45955000.0 0.9212006702911854 -0.3827955243456628 0.03815239792934523 -0.05771432356643274 -4.4866846412509065e-05 9.902684748711493e-05 0.310424924371786 0.19460099705235567
46954000.0 0.9188372215223745 -0.39105874587207856 0.03645781230917142 -0.06317927297863778 0.000596600686512971 0.0025235867909388916 0.32662359190709445 0.17872523654679495
47953000.0 0.9156329495239278 -0.39891388306639824 0.03632806248055778 -0.07312310892500871 -0.003339044019801038 -0.00033244624074716913 0.3409450447812162 0.18063888021169328
48952000.0 0.9111788819709845 -0.4093937587459126 0.039172404043062665 -0.0803875105720848 -0.0002970946481927156 0.0026814365385114465 0.3456191337526398 0.1644511701541673
49951000.0 0.9065514277906593 -0.4172332701939253 0.03920284147312195 -0.08635625181770729 0.0012516678056768758 0.0005423971213981823 0.3569168729897174 0.15364629951040776
50950000.0 0.9021891584295729 -0.42431933012548323 0.03813658565834106 -0.09621518735861827 -0.003314254770285153 0.001232731840321369 0.3488837831454199 0.14368499748804542
51949000.0 0.8976930037029551 -0.43076997678084095 0.04125670142057223 -0.10381568424883474 -0.0011437713774749144 -0.0015790380879729079 0.3635294491636486 0.14246280684717055
52948000.0 0.8953882688055473 -0.4406096753617708 0.041590314849348886 -0.11303522698651085 0.0035050893276993623 -0.0035787336824843552 0.3721837417595844 0.14133063915455493
53947000.0 0.8910278366848118 -0.4463876080345246 0.04289450507694347 -0.12288367357059306 0.0005578732737892885 0.0006212082353234071 0.3807594357058817 0.12735547778536485
54946000.0 0.8853218262043726 -0.45912339795108964 0.045762352994597855 -0.1298215561870902 0.003213775898769346 -0.002971900997373446 0.3869613496524192 0.12476945355806514
55945000.0 0.8825011959442995 -0.4642921180441049 0.04572854891350684 -0.14204434977032704 -0.000455499276189527 -0.001068988874505164 0.39142059795424594 0.1039501475681039
56944000.0 0.8795030315883222 -0.4735308318662584 0.048374658586739 -0.15296668751145276 -0.00043869999068438926 0.002610455183096909 0.4060213305276023 0.10360512414951055
57943000.0 0.8741528127552546 -0.48355386904881303 0.05201292380835426 -0.16410157464834496 0.0029874246228407367 0.0011726391136427617 0.40190076820513465 0.09411086541315315
58942000.0 0.869219298464909 -0.4878020154418917 0.05173876191835117 -0.17426575850110707 -0.0010277927114146679 0.0019223767955743965 0.42447883227732425 0.09031644357501682
59941000.0 0.8652894807152083 -0.49786462785440505 0.05229944313113218 -0.18583815197602313 0.0004163066112641583 -0.0018487668063175932 0.4256509254606875 0.0967964708174335
60940000.0 0.8579431703392408 -0.5032422736985163 0.0505754026579645 -0.18768384225378792 -0.0008026366317437091 -0.0007744807695353796 0.4221775899647653 0.06919365650688282
61939000.0 0.8557684828737475 -0.5111839263405731 0.05014780707192394 -0.19443895525042584 0.0005626427587626927 -0.0017831518589194546 0.42081005422612733 0.0647473204437357
62938000.0 0.8504036445612531 -0.5216901587934528 0.05473814832615425 -0.21353567935882267 0.0009989694240968784 0.002311585957783 0.450294716839572 0.05078714831342311
63937000.0 0.844554746711901 -0.5292168311461727 0.05634441637020709 -0.23388649215846294 -3.996105514769293e-05 -0.0034512067674619964 0.4352703130431413 0.03914978407763941
64936000.0 0.840472841985514 -0.5342029127679792 0.058414459136987285 -0.2485438763628934 -0.001954047864412 0.0017584708306329403 0.43585653242281835 0.04091016541541556
65935000.0 0.8355154428954703 -0.5476303389250691 0.05599046718842528 -0.2650007489072094 -0.003200990002367925 -0.004147655018638917 0.45044087894463997 0.005054817973002371
66934000.0 0.8326226161783273 -0.5490506344576589 0.05804415642263015 -0.27393699602360255 0.0019028704544397476 -0.002252055011610567 0.4471229518503621 0.0022006686208551926
67933000.0 0.8291053219747577 -0.5601788344672914 0.05225693182694424 -0.28917811309363317 -0.00040326167260928134 0.0008216970915157025 0.45426706643330284 0.00373107628456293
68932000.0 0.8234128113972075 -0.5521402161760606 0.05952361033689889 -0.3003576364738394 0.0022981002102484085 0.00011803675513360748 0.45880037442452687 -0.010149970756311712
69931000.0 0.814285739172212 -0.5746367691313916 0.051360152464929344 -0.3228703515414031 0.0006134597673437587 -0.00013888293408313859 0.4537573833007428 -0.016332560089367565
70930000.0 0.811306082875945 -0.5796461451967833 0.05123560685905106 -0.3360982190410933 0.0024150473407640056 -0.00010996147776700951 0.4585449630509439 -0.027507412178692084
71929000.0 0.8071551044770229 -0.5882801446944186 0.05311920258773478 -0.3518031582884571 -0.002222227294603426 -6.270038126476064e-05 0.44967822169012583 -0.048382504512023854
72928000.0 0.7980890231778874 -0.5994828882928731 0.04022923384631551 -0.3665050136688289 -0.0016414456166763997 2.7762041762707123e-05 0.46394484545013515 -0.050150579713601
73927000.0 0.793523056960863 -0.6024850149717311 0.036557086876850345 -0.3881667986484269 0.0017240689512960444 -0.0011944577287526577 0.46235705917083714 -0.057034704399207894
74926000.0 0.7883811895817054 -0.6125548667390823 0.03017378669418543 -0.4055171878609983 0.0009454760005735661 -0.002541363611078787 0.4701642584976811 -0.056190057850884205
75925000.0 0.7822712202667068 -0.6195451989648837 0.020767993911539107 -0.4272197842627525 -0.0015649572215927926 0.0008047151668594093 0.4756208842558223 -0.08686078042885438
76924000.0 0.7778804993242248 -0.6279976564726134 0.011297198483641326 -0.44835576323814685 0.0037252532802545795 0.00010449834657302253 0.4729926406779381 -0.09288043588135711
77923000.0 0.7707202058304865 -0.633107473889396 -0.005374551844617373 -0.47360983892000125 -0.006820311929617086 -3.123384739122629e-05 0.4628302085909301 -0.07794177917315055
78922000.0 0.7642574611667008 -0.6432089313893494 -0.01616238687006001 -0.5032519218308287 -0.001525347526705724 -0.0033907923513498625 0.4669658911353572 -0.11271673814106645
79921000.0 0.7567551656832179 -0.6463316091703744 -0.037961985303740974 -0.5232714730793266 0.0008958800346505942 -6.174535907621082e-05 0.4602523612632142 -0.12379947864040339
80920000.0 0.7515988026177118 -0.6596885466973198 -0.05179447147522817 -0.5534777144928347 -0.0018035307632998602 -0.0010921471171779122 0.474382778652954 -0.12932546392146618
81919000.0 0.7459499080125775 -0.6647053679608937 -0.06593661167306418 -0.5810920892914267 -0.00046179947328023563 0.0011361666530782784 0.4816208339896467 -0.13745838373892347
82918000.0 0.7373035362152568 -0.6716995346853215 -0.08099617791734383 -0.6116155949326194 0.0025015740912459825 -0.001923048911314227 0.4716163809652811 -0.14194915858577992
83917000.0 0.7301513971204365 -0.6789185323181821 -0.10287044558950663 -0.6384599521263776 0.0006430276020620545 -0.0011312949127770902 0.48032103109288293 -0.14312986792374888
84916000.0 0.7244130416925547 -0.6872878508359804 -0.12288694969962612 -0.6732323241285445 0.00252114381410205 -0.0034021838222992843 0.4768214701596405 -0.16606935483646307
85915000.0 0.7185303381115159 -0.6918448258839193 -0.13947722143566815 -0.7055996010136242 -0.0003911303466866023 0.0034109198420047664 0.4609682329349142 -0.1837931633844488
86914000.0 0.7095957950097059 -0.7025627049321245 -0.15689403712040415 -0.74407857679217 0.0005075300923482808 -0.002477758799284133 0.45902496927769915 -0.17900435690677297
87913000.0 0.7046181378316203 -0.7088760373709213 -0.1775571708970049 -0.7722041412243603 0.0031271724707240484 -0.002271622115943946 0.46425911253454916 -0.19126404719819362
88912000.0 0.6968496722629393 -0.7150129947120082 -0.19410151611033655 -0.8077166537924477 -0.0019240120994994346 0.0002727320267969591 0.4602882386220804 -0.20326119135531698
89911000.0 0.6915609899903823 -0.724540570215721 -0.20481167529089667 -0.8460187498551888 0.004159307216365008 -0.0022166395003233997 0.4731310091513337 -0.21118733497167996
90910000.0 0.6812670217032939 -0.7283432517464027 -0.22819608056446694 -0.8792610100783586 -0.0012128265094294491 -0.002643880844615577 0.45833088739584416 -0.20960969847537603
91909000.0 0.6731394873702621 -0.7347298443815257 -0.24307372278029052 -0.9137099867128139 0.0009151189936729738 -0.0007326071603444535 0.4694611562053645 -0.22709862907407077
92908000.0 0.6664288644458002 -0.7435592141137659 -0.26090429597006953 -0.9441629119793693 -0.0017439010416943723 -0.003604762659285252 0.4482052009068937 -0.23696278018290354
93907000.0 0.6589941494191054 -0.7474076947967486 -0.28233793394410467 -0.9731274790838939 0.0002135453460842626 -0.0021819387136837376 0.46608071188682204 -0.2593013646398205
94906000.0 0.6464473502043888 -0.7566968253341123 -0.29283562021787096 -1.0076303938312972 0.0012807692974968617 0.00048244139011738556 0.45955876018043473 -0.2463105459748357
95905000.0 0.642146678155443 -0.762472981413722 -0.3197440964151703 -1.0452082520611128 -0.0034635748181970813 -0.00016694848208970506 0.4637581023609794 -0.2791978137782302
96904000.0 0.6317810379812312 -0.7735342838713474 -0.3405040422684966 -1.084794796448994 0.0002938004507016497 -0.003464141696956334 0.4545767955108497 -0.2803438910126046
97903000.0 0.6244282959115947 -0.7755587223575929 -0.3608537811916399 -1.1153179013002061 0.0027717691115576194 -0.0007890018886004558 0.45410864045991894 -0.2923674619937111
98902000.0 0.6197163617119871 -0.783528262420991 -0.3813489172448328 -1.15523443108323 0.002101637228464569 0.0015635304295509467 0.4512055719452525 -0.3005497078613745
99901000.0 0.6094439373957931 -0.7891630473948414 -0.4103106333134073 -1.1893104174041151 0.0037991151239363213 5.07669799604792e-05 0.4647990866040337 -0.31473030475004465
100900000.0 0.6001667045363345 -0.7917950956061778 -0.44139499441805435 -1.2148594588917212 -0.002393002812654936 -0.004371903082345897 0.4641292515896887 -0.31527694971056075
101899000.0 0.5928506482564138 -0.8001131779360655 -0.46771108507741693 -1.257901421336229 -0.0008500086514785842 -0.0019707998115769034 0.4454937092248632 -0.3166901107408835
102898000.0 0.5822055732992234 -0.8078418841235719 -0.5071247377818549 -1.295213261487731 -0.003660500954661288 0.0006015059554192302 0.4547524955194512 -0.3407708022305191
103897000.0 0.5735194733630047 -0.815100308093686 -0.5460075620967997 -1.3306840048494268 -0.004060518043597152 0.00042506638458358187 0.46252247605215674 -0.3390083252540889
104896000.0 0.5659759574682928 -0.825221592817862 -0.5882510538467779 -1.3602686217351172 0.0023690060731828295 0.002934766516372788 0.4491868375733456 -0.34186583173937823
105895000.0 0.5555194996443678 -0.8254983582369328 -0.627198158283831 -1.4064820901221498 0.00026052613109269114 0.0016480055042076996 0.4408511781947685 -0.367989832794718
106894000.0 0.5473963998388742 -0.8322530853054493 -0.6805398054608047 -1.439626135054643 -0.0018707551007058627 -0.0032925915272446105 0.42250460532261236 -0.37077923552726577
107893000.0 0.5376139624066142 -0.8382253668569448 -0.7322380309805097 -1.482064693589921 -0.002590043306992796 -0.0018337054915939532 0.43444947675884127 -0.37044614519923
108892000.0 0.5299896877727297 -0.842492429871963 -0.7895756203238196 -1.521981442303176 -0.00022573599446188374 -0.002309558798209802 0.4250736949946604 -0.3777778802756805
109891000.0 0.5170932744228656 -0.8496525782122003 -0.8444155876116597 -1.5559155257337898 -0.0007962738024478828 -0.0004986488544789713 0.43966887457038356 -0.37554571245856655
110890000.0 0.5150530424730684 -0.8606618825759832 -0.9120017323860109 -1.5810143388106621 0.0003129361432803498 -0.001181140417456714 0.4320522131426533 -0.38534490831790597
111889000.0 0.49710909505938444 -0.8570853698776102 -0.9728155576668772 -1.6230704659260122 0.0009384047449946014 -0.0007836808174643662 0.42003843445794825 -0.3973028904049351
