! Created with skrf 1.9.0 (http://scikit-rf.org).
# Hz S RI R 50.0 
!freq ReS11 ImS11 ReS21 ImS21 ReS12 ImS12 ReS22 ImS22
1000000.0 0.9850751654937504 0.011956630715645004 -0.01165826564453082 -0.03458280139681504 -0.02718385590115633 0.013512679040263193 0.30044691567782045 0.3134405496416899
1999000.0 0.9977458365686326 -0.016072319534204543 0.007469886173314307 -0.02089679109547032 -0.0020402084002393715 0.0014509975165012186 0.2402577809834127 -0.05290572809031637
2998000.0 1.0005798175890408 -0.02604046350839016 0.012591537559450453 -0.023634977500495924 -0.002764489803049576 -0.0021168859136323145 0.1836520526802743 -0.13210111906536506
3997000.0 1.0001259783743548 -0.029400108817817336 0.009047696154663042 0.002352309059072727 -0.006625745804801995 0.0020316141631345178 0.08647212565332442 -0.23165446173556786
4996000.0 0.9952143824627667 -0.03765289955971194 0.013943679195569887 -1.3469016315174022e-05 0.0015267629156300608 0.0013660268306138047 -0.045493362071519834 -0.20616770287685607
5995000.0 0.9952870641954867 -0.04599777536337096 0.01175652642557487 0.004772191139011488 -0.0009112389904396759 0.0007579565562764665 -0.12025753519332866 -0.11618058074491329
6994000.0 0.996383048609147 -0.05674947890996323 0.006479431465672866 0.0032932584471535753 -0.006158497597658589 0.002149170147413504 -0.15361396826208792 -0.024829922452239913
7993000.0 0.9941364591950611 -0.06683462985606133 0.0023659456564275104 0.0039778886542149216 -0.0003128364858313622 -0.00214773797674872 -0.1454058680031 0.03762677019443824
8992000.0 0.9952343906914691 -0.07425206288871776 0.0015413246124050392 0.004785133899578408 -0.0019276920379394634 -0.0005725460235560092 -0.16306264131692425 0.06726290636746314
9991000.0 0.9931418814475046 -0.08158805132781934 -0.002526195356020811 0.0022679872044654233 -0.0009409370493308657 0.00032505578654982287 -0.15035230932300328 0.09370845307121412
10990000.0 0.9925785748235195 -0.0937223598684485 0.002862962925144256 0.0061811124507283825 0.001588390739245504 0.003220314700689844 -0.1483290413062706 0.11597283182781509
11989000.0 0.9900162166175417 -0.0984863411813479 0.0007648722206833799 0.004459785757081597 0.00342920510025322 0.005576643515135004 -0.12086371693997784 0.14805607396001322
12988000.0 0.9914002946438941 -0.10726140146856211 0.0027141380272235408 -0.002394803268825877 0.0013051189565922339 -0.0018688981098881764 -0.10307390804299509 0.17160291403628375
13987000.0 0.9884406783331094 -0.11670119254481791 0.0029252544442583852 -0.009586986041000924 0.0020940689755425215 -0.0002967010319265741 -0.09674342372672723 0.19361104142047506
14986000.0 0.9880746392225508 -0.12579914950120355 -0.0013689864018336798 -0.005679995786661684 0.000493767993715638 0.00021712432415331483 -0.08238032154530187 0.21151940397160415
15985000.0 0.9898048650549535 -0.13239223196073638 0.0002601762641447903 -0.0057876292816972695 -0.000886769205673795 0.0038936686274398937 -0.06574569862907607 0.2171739605572793
16984000.0 0.9833348318408631 -0.14379384970679873 -0.002433775263690588 -0.0020505556925740423 0.0003410798630540562 -0.0012898571482610104 -0.07059226598181782 0.21870218622766963
17983000.0 0.9865041386801977 -0.14666511809848032 -0.0034977832324923335 -0.005320450909255294 0.002396991569628274 -0.001508558886862221 -0.04663397965242152 0.22454438927033454
18982000.0 0.9833245649260126 -0.15913216562991905 -0.0009890021011654665 -0.0033105233376447135 -0.002098160991037743 -0.0016404391123682456 -0.014642129728881507 0.23305188940612045
19981000.0 0.9824940962561344 -0.1636089294868766 -0.003322136301394415 -0.004890743307080983 -0.0008815601666533697 -0.0008394249431724572 -0.01129306841266792 0.24239750453277525
20980000.0 0.9827032814596406 -0.1729045462833599 -0.005633179559342462 -0.0017032959309251784 0.0006946895130386317 0.0008836094540622282 0.0026513838875510108 0.248581402591527
21979000.0 0.9779662450785838 -0.18546146739389127 -0.00045229330768159314 -0.008330415365696387 -0.0002590670768584405 0.0008357394286331255 0.012539533438569984 0.24933006706338684
22978000.0 0.9783300486858693 -0.1954105966632944 -0.006740257054194466 -0.001166616635009866 -0.0013208558466174353 0.0037086070533364057 0.023498217795958096 0.2523330047787124
23977000.0 0.9795642647181575 -0.19682502196665802 -0.004822157293467667 -0.002763808028491953 0.00159611316961868 0.005090013919418081 0.039078802178920236 0.26289242766171644
24976000.0 0.975007837070637 -0.20751693266053767 -0.004743973840414337 -0.002073378480443076 0.0004110588965542574 0.002227459847697506 0.06621299492702883 0.25535885188015955
25975000.0 0.969466971693928 -0.21455305511831912 -0.0034682054445316327 0.001662187437180639 -0.02452734937609409 0.007786516348754225 0.08170692758909451 0.26643530391656145
26974000.0 0.970063608129884 -0.2263912052422326 -0.0050462738209395746 0.002247900683104105 -0.0010906759273428348 0.003611255080233858 0.09398445125366055 0.27085452997420645
27973000.0 0.9700738193493476 -0.23210022319026158 -0.0026168994873928416 -0.0013523840501067305 0.0005300099914942151 0.001383289482509103 0.1055402095923093 0.25184842133357005
28972000.0 0.966980167100631 -0.24188553255421455 -0.0020365089349152813 -0.0016996505736798454 0.0007756951470192396 0.0005177998376745595 0.11824656821954266 0.2578325772692447
29971000.0 0.9640618610069286 -0.2516732350426992 -0.0002573477172351826 -0.004126702449474379 0.0005942069724274124 -0.004107708442981762 0.15319617916544226 0.2682266903369419
30970000.0 0.9634983869788087 -0.25686877113077344 0.002521754862709993 -0.001126540366519773 0.0026005022432820987 -0.004638230110881172 0.17382587092997687 0.2474802386766164
31969000.0 0.9620669989725157 -0.2645192658163436 0.005186189991120829 -0.0026877884531335675 0.001976736353720974 -0.003131991793711776 0.1416604463630452 0.24545818813236361
32968000.0 0.9593087912809164 -0.2743068906902397 0.010794308990429212 -0.00885050509017644 -0.0015941637483069561 -0.004451640476564107 0.1642682092664357 0.2513310414341979
33967000.0 0.9571203150228217 -0.2841384223589176 0.009243465127837643 -0.007073746185137648 0.0016251136536064425 -0.0025346766503563964 0.19117939116365262 0.24950248483791718
34966000.0 0.9544340234286681 -0.29212740833712353 0.012614868391782311 -0.013453175795997448 0.0006519763919050967 -2.7367566304876464e-05 0.19907248802459332 0.25135918731707046
35965000.0 0.9517139011154861 -0.29878001448648234 0.01350790625532268 -0.013523902081774123 -0.0019834846067366555 -0.0012435973188049006 0.21452843775184796 0.25119617282265966
36964000.0 0.9495085440923416 -0.3095476615719165 0.015140921312162936 -0.009932316635049962 -0.0004436261739263086 -0.00011914740549632044 0.21402404439875622 0.24828679276836135
37963000.0 0.9442988616577911 -0.31896638809880895 0.022855152724290263 -0.020163618871605546 -0.0022491358034026276 0.00024859929020095236 0.2277777515615739 0.23380741382290232
38962000.0 0.9421923102759657 -0.32829465986951195 0.025044663159604755 -0.021469483646840145 0.0007918251680469611 -0.0007140516859250467 0.23529534938800345 0.23930963983169876
39961000.0 0.9414642368403651 -0.3331377553139073 0.02682474735570723 -0.025439499557823025 -0.0003367894578592488 0.0013293996568285525 0.25095902299192785 0.22501205283036954
40960000.0 0.9374947913924156 -0.34438969578384737 0.023114555373405354 -0.02394503239984815 0.0008733560511951575 0.001306514310176816 0.26725515305500164 0.23095872633556763
41959000.0 0.935500539117429 -0.3517642217295553 0.02829398373068971 -0.03106402735395825 0.0040442108198478315 0.0006841471825431483 0.27443172488501266 0.21826422150603772
42958000.0 0.9298086390652225 -0.3602239738061291 0.03273551176474124 -0.04067361261986067 0.004564938117862634 -0.00137061561138955 0.27970017443426554 0.21101765126747435
43957000.0 0.9276686603662961 -0.3672881841649708 0.03189385537108824 -0.041359741399434616 0.0021668582688490735 -0.0008309288088936358 0.2905339372384247 0.2141956236825093
44956000.0 0.9244055490294568 -0.3752174449643147 0.0338017064947208 -0.04850669079503105 0.0013682579052346352 -0.0009974429764467382 0.29947576716802204 0.1946978309923474
45955000.0 0.9199428766364274 -0.38259563156927834 0.03628760696280343 -0.05603971669283402 -0.0006803379846420329 0.00045229368175027276 0.3087815355720895 0.19010531665301322
46954000.0 0.9152777853115454 -0.3935431673059418 0.03515412856651766 -0.05981844735103668 -0.0024540211429535546 0.00022387003777399192 0.332497631396688 0.18033246026323774
47953000.0 0.9131447425319797 -0.4011864648504537 0.036797243673001044 -0.07030603905390906 0.0013968662547737185 0.0020285039993242424 0.33247403657479035 0.16990162874930007
48952000.0 0.9082246513169612 -0.41225449068771153 0.03550540548468892 -0.07488524891864767 0.0017016064018038407 -0.00028178288887756574 0.3327196356463835 0.16343632405416422
49951000.0 0.9070424010672462 -0.41508442277224145 0.036592427856026954 -0.08383499047510808 -0.0017251018471439305 -0.002304891526901125 0.3526406980322369 0.15731585230782277
50950000.0 0.9020730975747572 -0.42413619662778435 0.03936512020508814 -0.09156248742874433 2.332917753512905e-05 0.001446431235618764 0.36319898889260055 0.14939500076439188
51949000.0 0.8983156043056688 -0.43454211271284293 0.03730141687815196 -0.09805688315932912 -0.0002645029966889484 0.004490997846142411 0.37084792671473793 0.1395584116718886
52948000.0 0.8959313702572608 -0.44130888263658036 0.03999285345437007 -0.108645888342529 -9.013075882850865e-05 7.725320316677626e-05 0.37702212208662805 0.13781804512579537
53947000.0 0.8885234718510865 -0.4507443418776231 0.04098871988880942 -0.11735329967937297 -0.00058547939596396 -0.002089455424728337 0.3753773315656544 0.13178987695816696
54946000.0 0.8844036269741434 -0.4612337038942189 0.044480676818339344 -0.1258274176830807 0.0010849142767627535 -0.0009633381459676305 0.3835332728221626 0.1268729219428662
55945000.0 0.8826394061837262 -0.4650483891130462 0.04626803357414679 -0.1380405995394892 -0.001509366064012706 -0.0008017491674306822 0.3980370500859839 0.11021302567871885
56944000.0 0.8780785277751169 -0.47549226320234006 0.04437601001027952 -0.14613399976708902 -0.002148970929889818 -0.0016542038685991795 0.39716344931663944 0.11029860145599855
57943000.0 0.8739561837798642 -0.4849232473917252 0.04948447691423985 -0.15755980282462295 -0.0033031185591870724 -0.004130623016211224 0.4091916205786543 0.10011385227616919
58942000.0 0.8687652257076293 -0.48870796407790607 0.04727070229227535 -0.1665303311575254 -0.0022280835756667383 0.0008140997001627763 0.4294026226486162 0.0954284034124542
59941000.0 0.8636781832392513 -0.4991726310822201 0.04885176628041421 -0.17570276960074874 0.0017275155216687442 0.0012015929079324521 0.4296572282335622 0.09610251285613004
60940000.0 0.8571514876480818 -0.5033074696839697 0.054872108029577565 -0.18073498010235972 -0.00045213672197296655 -0.000261948636744955 0.41595790773906804 0.08249084711134304
61939000.0 0.8543580598243455 -0.5121226700871384 0.050292216763615685 -0.19029384319754408 -0.00033514818224010556 0.0038331101383187716 0.4259248574175338 0.06908175972963855
62938000.0 0.8487519280794076 -0.5221313681129377 0.0562756009612272 -0.20553930238641155 -0.000384308543623665 0.0014315882767747356 0.4427566306208187 0.06441406350060472
63937000.0 0.8433346323538653 -0.5307165250993895 0.05779001994502552 -0.2222731877107843 -0.0017514065301494598 -4.0567025559186406e-05 0.4346205329400155 0.04378352083943132
64936000.0 0.8389912749127502 -0.5351012584747659 0.055623722609355004 -0.23963372531853175 -0.0019277739852925219 0.0011057026085387464 0.43684288112223585 0.05261256978388436
65935000.0 0.8334085559184174 -0.5464989100647668 0.05494629510255655 -0.25238920567312856 0.0004153777542193988 -0.0023244061392372136 0.4475514769292763 0.025095236679486932
66934000.0 0.8309809332475331 -0.5510845644354946 0.05523173587718073 -0.2670390879403114 0.00034722711436002213 -0.001256478983770605 0.4335752866528278 0.016805104277066624
67933000.0 0.8255847999157412 -0.5608246745651313 0.056368210199513484 -0.2785414248805076 -0.0022183535626236254 0.0009369332817736115 0.4545935834173348 0.007631661223919937
68932000.0 0.8233944109976252 -0.5595070113697181 0.058329694610680584 -0.291133255295208 -0.0024482495588507517 0.0014648555855739157 0.4492227789522933 -0.0034965976861877136
69931000.0 0.8112168810064532 -0.575955946738257 0.05587334663025849 -0.3062788953293632 0.0003700038477046562 -0.0014122500114189236 0.4629220816123422 -0.013120823371115706
70930000.0 0.8077595330041064 -0.5809358106598249 0.057019026004080486 -0.3184406627936137 0.00374125003702558 -0.0034416208713564152 0.44764438453843775 -0.02856791780465023
71929000.0 0.8028534163830897 -0.5907834452242219 0.052893342736278576 -0.3403859736522387 -0.00017433535548445108 0.001879083265354178 0.4568102742051574 -0.03126447815491037
72928000.0 0.7966355117437798 -0.6006143769189397 0.048481028850975924 -0.35408674515461724 -0.00019452386012581 0.0008707205843551389 0.46471265051615074 -0.04327150067127268
73927000.0 0.7893718230018442 -0.6062960134783547 0.038426239509478516 -0.3761937851043796 0.002316587670701781 -0.003705897872007875 0.4568411972969362 -0.05314622101515622
74926000.0 0.7861466989110535 -0.6145926430866655 0.03422961195125123 -0.3903121066125292 0.0011550197914101355 0.00021528270482063175 0.460690184048837 -0.05259016083877971
75925000.0 0.779352535590647 -0.6211443189609233 0.028149336870027873 -0.4074784178456888 0.003208621760701507 0.00043379089945820755 0.47314121163505585 -0.07347598888420113
76924000.0 0.774778297264586 -0.6282184083269041 0.016035317027512472 -0.4332323969454122 -0.0012263618769315582 -0.0023272404989834864 0.4781064140690187 -0.08093120616958588
77923000.0 0.7669684202236895 -0.6352993383379035 0.0015962347695416246 -0.4565194933743471 -0.0031858959525102614 -0.0026101507686298 0.4663531675865965 -0.0885279020193513
78922000.0 0.7616787425225114 -0.6453080376644367 -0.011428574876012752 -0.48527598837954405 0.0027879162464634595 -0.0020292264120115072 0.4657576887693709 -0.10947162303635517
79921000.0 0.7540380138653144 -0.6501384129476215 -0.026933171206542598 -0.5076116579009973 0.003940810304732584 0.0006285643728031944 0.46526537141821356 -0.10939998881659806
80920000.0 0.7492607813285903 -0.6617275450915356 -0.04136917340978561 -0.5353340265585507 -0.00038576109633983827 -0.00026983072716183756 0.478885129268072 -0.12916506149459306
81919000.0 0.7427727122168668 -0.6658167656735594 -0.05937931572258906 -0.5639498586659253 0.0003481162181065825 -0.002883933396260595 0.4746962285961879 -0.12709131891107173
82918000.0 0.735953339843795 -0.6715745796594477 -0.07288634350769614 -0.5934203238203745 0.0004537840940886254 0.0021834991930662962 0.48030046964551065 -0.14162342895263466
83917000.0 0.7273190130003939 -0.6803576546884239 -0.09615887695684702 -0.6224797684450459 -0.0007781667756281748 0.0006391120671669794 0.48500805901759786 -0.14921252640774604
84916000.0 0.7219728470098737 -0.6878989342268654 -0.10842570403491024 -0.6561707263773157 -0.000572655577928005 -0.0017133404990870736 0.47262791715183367 -0.1593530245013236
85915000.0 0.7153774890237697 -0.6940123388896239 -0.12687423748938803 -0.6846807861416051 0.0012620415148887748 0.0026118896898600532 0.47236965972554 -0.166855114850512
86914000.0 0.7079142379726134 -0.7039279224719347 -0.1397261761442348 -0.7203957396626595 0.0011752152326148686 0.002193138789299478 0.4724213278068356 -0.16201152102929703
87913000.0 0.7016528206758842 -0.7095439289533635 -0.16121904885650004 -0.7492165730800443 -0.002234476024635758 0.0010124608554052746 0.4622710059536936 -0.190577634623164
88912000.0 0.693129669109599 -0.7180594209033245 -0.17734955429435695 -0.7841244362341941 0.0008035160703825286 -0.0022085893534982957 0.4689834486556055 -0.20132424337643756
89911000.0 0.6873388922970584 -0.7247925941590828 -0.1929577068474365 -0.8204197487586332 -0.00078750926494324 -0.0011425823167516458 0.46836495952857643 -0.20560192621372722
90910000.0 0.678032001214848 -0.7313617620477492 -0.20647073099221055 -0.8541641247942587 0.0019437450185433216 0.0004663633335898327 0.4765164610409459 -0.21515154827472813
91909000.0 0.6712021502402411 -0.7340604216117885 -0.22310763621318766 -0.8835619169703751 -2.9832172364547448e-05 -7.383039728536754e-07 0.4669072832947341 -0.21252547024846444
92908000.0 0.6631569944969806 -0.7453968335079855 -0.23941368071991956 -0.9200687844548039 -0.0013086810291859853 -0.001998609233204107 0.46707833822226213 -0.23079304940472128
93907000.0 0.6570631583845209 -0.749210881870891 -0.2602724088763998 -0.9529797728003865 0.0004986027631919115 0.002782661247739902 0.46411480959783646 -0.24735185949566657
94906000.0 0.6451910084153336 -0.7600473145982458 -0.27756176343932015 -0.9872096910983272 -0.001643222850323538 -0.004468642654573599 0.4625270328770517 -0.25307265172663507
95905000.0 0.6360321173144389 -0.7652265121874122 -0.29891750407471585 -1.0231564456615334 -0.0038845294279343974 -0.002168498616096321 0.4696730549234369 -0.26748841890984026
96904000.0 0.6310134500299404 -0.7710501482597043 -0.30919321451801707 -1.0631683452704073 -0.0003200654253212573 -0.0012784743786931837 0.4496062814536949 -0.27095462863435427
97903000.0 0.6193218903857485 -0.7778543849211258 -0.3381208927707063 -1.0921931048893967 0.0024113002594491105 -0.00036055773591708206 0.4555617428537866 -0.28534796126837914
98902000.0 0.6154648544745284 -0.783891568366217 -0.3512389798516443 -1.1293776839719194 0.0007427192214422056 0.0006370715355549045 0.46195344905003094 -0.28535791679709965
99901000.0 0.605572944858325 -0.7906095468849438 -0.38000909882443173 -1.165487791843245 0.0012738853826494245 -0.0014973306496469405 0.4689457930684301 -0.30459357024143036
100900000.0 0.5990643152404163 -0.7930253455158487 -0.40780754318487783 -1.1960698136407064 0.0010914359446647921 0.0003546218545065617 0.46966479108537373 -0.3078528001638644
101899000.0 0.5910738649375824 -0.8031437480207068 -0.43188579353879974 -1.2344540826775865 0.001160519170701617 0.0013050399543822523 0.460065273656443 -0.3140032115957131
102898000.0 0.578558638125502 -0.8081967303419165 -0.4717737188932724 -1.2709722593521118 -0.001800359476794237 -0.0026919216088729593 0.4514324658213341 -0.31809592210286197
103897000.0 0.5718557193933202 -0.816126491180839 -0.5030211161040936 -1.3057437667407767 -0.001842841181524266 0.002143736715335689 0.46112990565512135 -0.32703465628049105
104896000.0 0.563404002659198 -0.824430104687835 -0.5442029814712895 -1.3361604711630857 0.0007184615482766104 0.0003849197201079411 0.44504116070302513 -0.32798980794699123
105895000.0 0.5531966407382726 -0.8273131473437918 -0.5792010036297437 -1.3809590765635664 0.0009146158266463841 -0.0021291327703090645 0.4357089277388309 -0.34416525997066905
106894000.0 0.541609321721034 -0.8329666445938165 -0.6364973782903629 -1.413131686410893 -0.001919573991368173 0.0018314791134388783 0.43595433721730964 -0.3511503069533277
107893000.0 0.5350412282426953 -0.8408617992800886 -0.6836495756500032 -1.4524774790438475 0.0013020979436334846 0.0019863890856741664 0.4324956354598934 -0.3772804131321198
108892000.0 0.5281541135950305 -0.8430138169049471 -0.7341861442167814 -1.4984356379935362 -0.0023403000639735166 0.000848829895718544 0.4315516052503189 -0.35913584930479014
109891000.0 0.5133488082731948 -0.8511594405994042 -0.7949914314289612 -1.5293685337077954 -0.0026598234186682368 0.0006686190738776559 0.4453790187899645 -0.37192661395319443
110890000.0 0.507970507774169 -0.8548675157219703 -0.8496852895363833 -1.5455165380397817 -0.0010717696781601396 0.004264060501071896 0.4313626287153196 -0.38091443889384047
111889000.0 0.4958067922961323 -0.8598429284921869 -0.9164236445984083 -1.6023186674382128 0.0010117636472865357 0.003014711625749542 0.4315696730972704 -0.3926586533908494
