! Created with skrf 1.9.0 (http://scikit-rf.org).
# Hz S RI R 50.0 
!freq ReS11 ImS11 ReS21 ImS21 ReS12 ImS12 ReS22 ImS22
1000000.0 0.9804499445410915 0.003584239026598632 -0.014180263135554665 -0.057956870837946636 -0.021456145217587888 -0.00032220214366204954 0.28828401274921256 0.3674307874827745
1999000.0 0.9962048461776741 -0.007847025893073352 0.005611616123542143 -0.03203674251318479 -0.008856991660884465 -0.0009795375033208379 0.22553460501723685 -0.07038025264922655
2998000.0 0.9977855140815239 -0.024489931200984753 0.0006357700790155165 -0.014631404232039132 -0.0022480092286347063 -0.0004178405293915296 0.19109298614279077 -0.11888840850154894
3997000.0 0.9964309952966048 -0.03207884302242835 0.011794443300878563 -0.005358879999259249 -0.00644959440409305 -0.007376837679086589 0.089681115091766 -0.2287473375068165
4996000.0 0.9940989087310964 -0.03885444784131395 0.008004556918635867 -0.002539892329060164 0.00010863218957102792 -0.0019891812488571784 -0.05470279660520505 -0.19539523005247483
5995000.0 0.9964031864741408 -0.04781907928503725 0.013825244509778073 0.0012795290068033996 0.0025781096757486965 0.0005698952826019452 -0.11452512791808662 -0.09977643730754218
6994000.0 0.9962739798003503 -0.05765944553168623 0.0037707639497010907 0.0012486298912146182 -0.0036673576687899596 -0.001271482721851725 -0.15077287736244968 -0.016228771331733935
7993000.0 0.9950376843736465 -0.06584825238851456 -0.0003146571581325812 0.0033487911128861005 0.005499663401298099 0.00516147724121905 -0.16763900072084081 0.04507778459028277
8992000.0 0.9941921223394574 -0.07251948555674824 0.0013285376933720799 0.0058321441711337695 -0.006143167347185412 0.005911729013332305 -0.1500875172624528 0.07404272907742485
9991000.0 0.9916377090714658 -0.08317906203158992 0.0020826615688836754 0.003200558636753119 0.000171792372996909 0.0019377415179350134 -0.14708945527083725 0.09046692520301748
10990000.0 0.9914551425585848 -0.09650052764175018 -0.0005931331484254946 0.003646936710004008 -0.0026409772075255853 -0.0009540012545229494 -0.13153336688204548 0.1168357245951478
11989000.0 0.9889846014472168 -0.09892374182313253 0.004673187369302574 -0.00039764369298643374 -0.0025350136399113947 -0.004725675547047552 -0.12073396741792979 0.13183792956704937
12988000.0 0.9884368922396214 -0.11097284802004112 -0.0025212793877015206 -0.002333232942796635 0.003885584281894584 0.001032130904390402 -0.11633010749629404 0.1726605119936249
13987000.0 0.9870386036035611 -0.11714586994568923 -0.00179313781437677 -0.004102945759177436 -0.0017344279909857325 0.0036615995262296503 -0.08976381437112936 0.19415836081671947
14986000.0 0.9871258009903242 -0.1253246983048865 -0.004825859700809469 0.0011063981098154267 2.3873123431895655e-05 -0.0006531685831342591 -0.08453494327476051 0.21615147708024812
15985000.0 0.9873440005997617 -0.1350765112099726 0.002947375674195686 -0.005248288116448974 0.0011583926556317345 -0.004639280644828297 -0.06769638210883534 0.23344531694624882
16984000.0 0.9845610111245965 -0.14606829788257364 8.34136097774819e-06 -0.0037457257699585974 0.004798895317623142 -0.0016896229490909137 -0.06183841430083193 0.22753405679853436
17983000.0 0.9829103893949123 -0.15080245246527668 -0.0006501685909779785 -0.003014932279151508 -0.00319941104454241 0.002783301149096167 -0.057948441222605944 0.22352597597630613
18982000.0 0.979712864360329 -0.16245041692737966 -0.005426770125306945 -0.003253460657188901 0.0017097909304686608 0.0019234543376402545 -0.018583173059971928 0.2432587182877998
19981000.0 0.981584503813374 -0.16629879390257812 -0.003508281050980642 -0.0013723178160434128 0.0015103877680782121 -0.007121278309828912 -0.014650695444209291 0.24407102098039216
20980000.0 0.9802700177251717 -0.17585159750793156 -0.004544699192773593 -0.0057070148110639285 -0.0008954069676248746 -0.00235687250693219 -0.005667745390636636 0.26127471843915173
21979000.0 0.9783958730695729 -0.18459508459985713 -0.0074861554697624585 -0.0029992246437613884 0.0007668642973988916 -0.000839563093206761 0.018282788424796595 0.24255713900319265
22978000.0 0.9777195009024785 -0.19417790915294197 -0.005372693263125357 -0.002638120080429889 0.0019061013978616803 -0.0018250988944903091 0.02304614623154394 0.2641166547447629
23977000.0 0.9769227564565264 -0.2026303271708913 -0.004454780639574612 -0.0026124721024675477 0.0013532467545311247 0.0006078858001919259 0.033639485302840014 0.26633566149976984
24976000.0 0.9723529848861026 -0.21230880523446682 -0.004711378734650225 -0.0029893178076085595 -0.0030235054158464568 0.0003375508023337314 0.07016137821395675 0.2510059272373426
25975000.0 0.9669616626975212 -0.22123083151596554 -0.004989756903491552 0.002632015420558626 -0.022376305886218775 -0.015909091786974236 0.07428594859135744 0.26859844279228834
26974000.0 0.9685674079720076 -0.22959189563089247 -0.0036409690082491136 -0.0011157316915233098 -0.003321237832149703 -0.0017570161416155352 0.0782584124751515 0.2613154033040514
27973000.0 0.9670197741881555 -0.23697252116878179 7.009139972869148e-05 -0.0008893708573445122 0.0005648006784292544 -9.092941743138742e-06 0.1014142136179756 0.26426516155037844
28972000.0 0.9644661624394808 -0.24490904154248969 0.0007584806241922536 -0.0020433127399370195 -0.00022723051172237815 -0.0005283064141948176 0.11305934851598261 0.2591108859352335
29971000.0 0.9641017403669212 -0.2539313219543301 0.002305519305020878 -0.002355871155554999 0.0007760447296031831 0.001704593512294096 0.15030894136623077 0.2711784936704292
30970000.0 0.9601897284155118 -0.26061574486846706 0.0034782842682005975 -0.0009222199751622354 -0.0018086437842732297 0.0012045886606264443 0.16912296501005178 0.25114269898846114
31969000.0 0.9580744743433978 -0.27051836583422956 0.003215636645295071 -0.00553628207958513 -4.291201539171551e-05 -0.0027675932014766943 0.14859996260805422 0.25893145266823975
32968000.0 0.9581381911115754 -0.2773289728056525 0.008796856813551928 -0.008615759243013062 -0.0010699586827165178 -0.0014771126220703462 0.1669121979831349 0.25205762621757505
33967000.0 0.9551079417046338 -0.2864054632452704 0.01365632692104676 -0.008231846893346202 -0.0008900767691110439 -6.9974894644880725e-06 0.19260205100163755 0.24416078276816405
34966000.0 0.9513772098279483 -0.29790642897055486 0.010188187416855779 -0.014961186428152065 -0.0009905041738881 -0.0023352571870374904 0.19037756986020196 0.2625913501605183
35965000.0 0.9485010231889566 -0.3048953585453582 0.017171668768991073 -0.01497151254409709 0.0025125446339975682 -0.0012678897617577115 0.22245990002606922 0.25140923888630523
36964000.0 0.9466805390314605 -0.31324523105723967 0.01595229886757265 -0.012971497963598515 0.0007122685453702625 0.0018253542661042898 0.2212747405421066 0.2576846408151316
37963000.0 0.9429186880531989 -0.3244862554393238 0.02249616074105282 -0.021568229490681746 0.0003967345237191562 -0.0017050939470241323 0.23192508099657852 0.23851488941516943
38962000.0 0.9427675520385931 -0.32968445203885266 0.02506517970074227 -0.022743237066202734 0.0001189388820000302 0.0036284215719303596 0.24564614387073186 0.23661897933479406
39961000.0 0.9384120337287675 -0.34062454932526304 0.027262422750119728 -0.025255125261098077 0.0007823009481391754 0.0015227271592759312 0.2553727291030396 0.2353238306153152
40960000.0 0.9351108637981933 -0.3474441193294206 0.020540677060313643 -0.01881730314029895 2.548322393763689e-05 0.00013205558545458895 0.2669401450724763 0.23099816357210565
41959000.0 0.931707045080883 -0.35702856511300246 0.029482808217663727 -0.03349023439870883 0.001817609923676656 0.0022236455832376125 0.26173193921571275 0.2184137074438838
42958000.0 0.9275690743530395 -0.36533468042583284 0.0317166165522066 -0.043001009992095475 -0.001176892066450019 0.0022129234577876853 0.28857378293150876 0.20704860333167785
43957000.0 0.9236712007784569 -0.3728012138693803 0.03019544577173107 -0.04584474120972271 0.0008075977008174061 -0.0008959590686244765 0.28392005917599067 0.2097091488884116
44956000.0 0.9210111146291583 -0.38122883421188825 0.03241586807379793 -0.05306986685900134 -0.0004768572362552861 0.0030578685926736567 0.313468802281754 0.20579897658648025
45955000.0 0.9168807570098378 -0.39105658596943077 0.03409862685207681 -0.056646967272774865 0.0019497297950836997 -0.004912493921926303 0.3101452309055269 0.19472773979728047
46954000.0 0.9145412878754837 -0.3994618569826808 0.03497973776874786 -0.06448274951372371 0.0032198978844728103 -0.00247963292768658 0.32994212257978456 0.18826111831588171
47953000.0 0.9101925758926943 -0.40651777357677965 0.037251053682212695 -0.07190416883390632 -0.0036420186363400704 -0.0015415074097297145 0.3358303182328247 0.18421396295514547
48952000.0 0.9052655952089806 -0.41762814114464303 0.03745828830526611 -0.07710595083688135 -0.003797763771839687 0.00034784691426832214 0.3345888141989859 0.17598552162299186
49951000.0 0.9009220360466677 -0.42383058394897216 0.037027691795328686 -0.08630180959238427 -0.0013164283309711018 0.0004977532768276258 0.3459378521157603 0.16507340746932678
50950000.0 0.898334403711794 -0.43353311342131123 0.03740363167470448 -0.09477682874855563 0.002505772730767384 -0.0017342324586521174 0.3533352356726625 0.15332668036628216
51949000.0 0.8947186000398254 -0.4406375723593878 0.04061838024575085 -0.09905300293510337 0.0009718837133006319 -0.000620148703868657 0.37077758279078926 0.14968130511463143
52948000.0 0.8909553122439833 -0.4498652830884221 0.04381587441597265 -0.11188931576541931 0.0060907440553459365 7.281447972164187e-05 0.37543053626398415 0.148039328512856
53947000.0 0.8854924454331673 -0.4578550483993695 0.044041281927115865 -0.11850983471892236 -0.0028936816721323796 -0.0018250272825262523 0.37329569584626277 0.13476530862449157
54946000.0 0.8819249816735887 -0.46376201489777086 0.042565439233865625 -0.1298301630592371 -0.0010813622158308976 -0.0016412578931640485 0.38722736400975727 0.13573407238808896
55945000.0 0.8770051482002102 -0.47446968950116003 0.04442838694946353 -0.14296570177083992 0.003671853263275857 0.0005808538575747256 0.3860543603451137 0.10811414449166731
56944000.0 0.8733353778838226 -0.4814421257602212 0.04614465457837196 -0.1495988457366324 -0.0013076167685070505 0.0009155516918859244 0.39853960841077146 0.11624497706322161
57943000.0 0.8696308468536517 -0.49108299523054216 0.048711706384544105 -0.1600953643655742 0.001968036725811766 -0.0009316139155015362 0.4051497977212022 0.10011771142749404
58942000.0 0.8617562732729105 -0.49614142368359504 0.05081063112179159 -0.17141125580896144 -8.318967466315398e-05 -0.0005816233572815303 0.417740147848605 0.10308820685061716
59941000.0 0.8608452064478759 -0.5038038495334408 0.04933682137467936 -0.17904261981062775 -0.00029680266165818216 -0.00111080388721755 0.4146594017634166 0.10043445937627925
60940000.0 0.851809079865678 -0.5130013000406404 0.05200598806266172 -0.18685142890980602 0.0020305551070032347 -0.00056533115653401 0.4186536587520702 0.09282279505873066
61939000.0 0.8498981938629524 -0.5203324832273031 0.052357960338890994 -0.19156101638170306 0.0012987169884185919 0.0013002451268099196 0.4164430659319616 0.08418882674884975
62938000.0 0.8423748674248763 -0.5306742170823096 0.055264811044690415 -0.20722131329463833 0.0006508372711856763 0.002513853008661521 0.45612862251229946 0.06478794793688245
63937000.0 0.8394574593781666 -0.5371657078633684 0.058112973644626136 -0.22596137001518424 -0.0033284325247585835 0.0019831526203823047 0.44304578031121206 0.0525539350152702
64936000.0 0.8315241394088071 -0.5444384898943523 0.058993939867007725 -0.2415056369176046 0.0007153771129396323 -0.00021350664491569482 0.4352961272053162 0.05645926557318331
65935000.0 0.8281066967139853 -0.5562908429387019 0.056394346202066174 -0.25610161588065294 -0.0012046465768178831 0.00025934703635275267 0.44965681982382816 0.02748850782028179
66934000.0 0.8247552899015137 -0.5607664880050073 0.056045087706669855 -0.2697523490719621 0.0005217341538416322 0.005672059912314411 0.4309846771470855 0.024520293227956482
67933000.0 0.819556407812634 -0.5685270523363435 0.06175138221078773 -0.28222060858168596 0.0012428494651469681 0.004169586132014051 0.44538160756265127 0.01667145592767664
68932000.0 0.8018157404164828 -0.5649465178805576 0.05291206259862376 -0.2936086874658162 0.0007037142556634588 0.0012670552423600261 0.45956114285876387 0.007678291434743417
69931000.0 0.8073794893661712 -0.583528915698974 0.05413991329733446 -0.3121973704528068 -0.0005627468458319557 0.0022949981169339082 0.4571880202012514 -0.0030432711709895226
70930000.0 0.8014611524608869 -0.590765083159175 0.05452615653042316 -0.3250704968318562 -0.002465996412507813 -0.000968317274876162 0.4515769085133979 -0.01976033290135199
71929000.0 0.7977026467355883 -0.5979909567945298 0.051748250436069114 -0.3433992887989372 0.0028639426748941726 0.0015038781442390909 0.4576795043199329 -0.027293183049078715
72928000.0 0.7900852963651146 -0.6096809509306067 0.04244467204370899 -0.35756999134589307 -0.002157471793098325 0.004738336619024138 0.46798142339148646 -0.028337690407622802
73927000.0 0.7843362901370862 -0.6150722091543339 0.03873635465225355 -0.3800950202696422 -0.0029791913081424716 -0.0015615205128298342 0.46100364612569933 -0.03962014695291989
74926000.0 0.7794451247048161 -0.6243851248827871 0.03484691915105038 -0.3954655699015308 0.0016157050417289866 0.0009539847098290063 0.4627918534131932 -0.0376086241980679
75925000.0 0.7749286364605468 -0.6281125153620152 0.02313980241358638 -0.4162515758067712 0.0013994487498603968 0.00044897705878827794 0.47667757470883093 -0.05336264369450701
76924000.0 0.764381046071076 -0.6373728839802393 0.0036647297959226752 -0.4402866715388655 -0.0022973787003197285 -0.002409037297037395 0.46906541470707813 -0.06995709304049727
77923000.0 0.7584301581672638 -0.6452684378515497 -0.00414281813340188 -0.46155515553384685 0.003976048483921464 -0.004175940171746456 0.4764447332497224 -0.07947560468219707
78922000.0 0.7530462300665297 -0.6544074374543638 -0.019984092852584363 -0.4952709540172019 -0.001621327121652414 0.002782818261528104 0.46407621571105895 -0.0952149646920204
79921000.0 0.7444411311490335 -0.6572729332321143 -0.03618158399315376 -0.5120150018161054 0.0027700673669691575 -0.0006433988450576815 0.4606706099706263 -0.1109331198123043
80920000.0 0.7399336355598297 -0.6689783010503504 -0.048540268530154765 -0.5439903128438138 -0.0017007657112563428 -0.002410748017610863 0.4660678681190183 -0.11899897663002533
81919000.0 0.7345385719875301 -0.6745536377624243 -0.06964654441528281 -0.571356103311245 -0.0035307797944460167 0.0005909492556563059 0.4713911775816063 -0.10931762668127472
82918000.0 0.7252680811086332 -0.6811879691935268 -0.07910261620793546 -0.6011995231651969 -0.00523160426668187 0.005893710088631442 0.4824173902627305 -0.13271418232086715
83917000.0 0.7164552814874088 -0.6913976780397789 -0.10651957838119672 -0.6324107657800365 -0.0023441809766301938 -0.0012456384603106597 0.4799640354446098 -0.13221781011923214
84916000.0 0.7126042661468849 -0.6980061420662855 -0.1149517091981453 -0.6659957250511637 0.0020091701033897926 -1.2311854192218763e-05 0.479027117233835 -0.14839093733662329
85915000.0 0.7053390124174819 -0.7028144771608873 -0.139278568919338 -0.6976837675514467 -0.0037255272002982044 -0.00039133974728094105 0.4670695576337454 -0.16847256291104906
86914000.0 0.6982403248992959 -0.7139304999042454 -0.15077692934185438 -0.7336571168592598 -0.0005959286860681726 -0.0011445946987235533 0.47156339565165534 -0.1496372041889327
87913000.0 0.6908671695420244 -0.7190237085750313 -0.17028955962436415 -0.76518443039828 0.001608153037136751 -0.0006200553335927724 0.47549533945853034 -0.1659529632733835
88912000.0 0.6841289429107223 -0.7264075982820235 -0.18540346553130846 -0.7929228180787717 -0.001690274394858889 -0.003336238870807128 0.4797689671961908 -0.18077348061455378
89911000.0 0.675041744363058 -0.7339452748981221 -0.1968241152064348 -0.8342917237934248 0.0009678446041217261 -0.004774929479730718 0.4785067743338298 -0.18973655065282827
90910000.0 0.6691542758704586 -0.7403402246327576 -0.21713242325107518 -0.8631017089967531 0.004528178168217888 0.0010512044693606884 0.4607134329484463 -0.19022500817152696
91909000.0 0.6612538916125774 -0.7442318546771708 -0.23618179295482744 -0.8968599812984427 0.0012348334918248784 -0.0012369693179572314 0.480009042359712 -0.20511717582375258
92908000.0 0.6525977751536636 -0.7528643692408934 -0.2526556515622309 -0.9317880289994418 -0.002414917088102125 0.00022732129952415898 0.4731015932274786 -0.21799941917725693
93907000.0 0.6460266645125597 -0.7568271937263992 -0.2683660302966217 -0.9636505882937201 -0.001340259926569149 -0.0008445720997338593 0.4801124920714328 -0.2302656355710907
94906000.0 0.6306976132553279 -0.7662015858167044 -0.28387599910631583 -0.9965563276666256 -0.001886318224471192 -0.00090974146105575 0.47180031314518495 -0.22672918426419086
95905000.0 0.6275062549110718 -0.7724535529709737 -0.3044010508807634 -1.0293767218407879 -0.0012408027625023384 0.0005572158453513016 0.4765244265414943 -0.24909683406920285
96904000.0 0.6174465508160465 -0.7809806995171951 -0.3240896991261415 -1.0712423015659562 0.0003606690944728894 -0.004663899439102017 0.46602311552745135 -0.258865716397687
97903000.0 0.608830018181421 -0.7859552414140454 -0.3440066445920806 -1.0992803645296763 -0.0020143850754211364 -0.0007782786875339602 0.4524222107650587 -0.2681649680541006
98902000.0 0.603272373413564 -0.7936785410485565 -0.3618057601138375 -1.1374377690218698 0.0023074996211782366 -0.00085076383941861 0.4524457531422262 -0.273312885873615
99901000.0 0.595354899552876 -0.7997869564724002 -0.3908397134754583 -1.1734750958138913 -0.0009825883942801 0.0025921667605821688 0.45936001676274235 -0.29120616137838334
100900000.0 0.5834242498099104 -0.8026689990486386 -0.4214952712961232 -1.1975866904003267 -0.006235225557810235 -0.0016264984382442689 0.4698433257730571 -0.284145512784406
101899000.0 0.5733522465336856 -0.8128458225394137 -0.4484048633452551 -1.2410009857406734 0.0014198175512288383 -0.002157577528253051 0.46526229681310083 -0.30148141685383867
102898000.0 0.5650594180786707 -0.8163509751587207 -0.4810812208554254 -1.2740554346908355 -0.0025567038259893546 0.0010824259635981565 0.4684561923178763 -0.3181615325947449
103897000.0 0.5572627109255003 -0.8231601980616909 -0.5086452559751957 -1.3124255142349708 -0.0003735058792813644 0.000452747771813683 0.4692365082565743 -0.30799415297076327
104896000.0 0.5498365544866445 -0.8343867997615106 -0.5644939152708311 -1.3445535382227096 -0.0020909870377295017 0.0006603145937439237 0.45141636818070363 -0.32002716022010286
105895000.0 0.5355793921654999 -0.8364827309679702 -0.606872092058088 -1.3819485512746268 0.0017761819303215725 0.0012684766085344784 0.4509842766106536 -0.3432800485579747
106894000.0 0.5296532144866641 -0.8422310536046173 -0.6590621261654369 -1.422664306019974 -0.0017925488050682273 0.001812974730201298 0.442605652155866 -0.3585448192188538
107893000.0 0.5222068563837264 -0.8486835770979818 -0.7113228858417651 -1.4633803618409476 -0.001252952450329857 -3.995410132147857e-05 0.44818654114689926 -0.35245714111190707
108892000.0 0.5116909705928284 -0.8523002238148063 -0.7695100610396638 -1.5014344821815346 0.002574563899802061 0.0007135180878996711 0.4401087748456834 -0.35828178063897076
109891000.0 0.49902668096208275 -0.860472059275005 -0.8249916477617123 -1.5389596612073413 -0.001750195672927849 0.0011643402242320043 0.4563942765213305 -0.3605694847370909
110890000.0 0.48705601091182876 -0.8623959375221201 -0.8852885168629914 -1.5446568883770029 -0.0012248443520451468 0.00230544394787362 0.4359549087371379 -0.35889734303417986
111889000.0 0.4816160365375084 -0.8660129451930273 -0.9464255939969763 -1.6026703059667233 -0.0029334011135377343 0.0029971534892286687 0.4365656628699249 -0.37991155845925906
