! Created with skrf 1.9.0 (http://scikit-rf.org).
# Hz S RI R 50.0 
!freq ReS11 ImS11 ReS21 ImS21 ReS12 ImS12 ReS22 ImS22
1000000.0 0.9822599126564096 0.0075596692585197965 -0.014562697787344961 -0.053362446809010346 -0.01713536343649435 0.019599618698057687 0.3954347631821664 0.3620371126322051
1999000.0 0.9959952307981341 -0.009263092758990092 0.007286983889330039 -0.028289008513851174 -0.00249958044822837 0.004251920397718477 0.24685800308891725 -0.035490694183716906
2998000.0 0.9976333996306969 -0.02157647891335085 0.008009357572044892 -0.012776178074135752 -0.005516120084199868 -0.007439309612160718 0.20182055245710304 -0.14075110460635726
3997000.0 0.9992195061107813 -0.03102400680579929 0.009320909795115791 -0.003893489159855784 -0.00012089792069608477 0.004351728752362142 0.10429120930406165 -0.24102961815282453
4996000.0 0.9961939100610576 -0.03941834393555239 0.008334640189991669 0.0003726193142869095 0.005757966411758563 -0.007205138578130209 -0.02898956547125434 -0.21610560670699375
5995000.0 0.9962245580109034 -0.04628768817104854 0.008007042685977411 -0.0021496909266765893 0.005281208434901177 -0.002221263293967796 -0.10969445502311001 -0.1337204318650777
6994000.0 0.9955049252992451 -0.0567314139547427 0.003865767399253507 0.00461616203521592 -0.004626353728584804 7.4838130201008855e-06 -0.1339309692688281 -0.02096882371336605
7993000.0 0.9943317931353628 -0.06835063412444786 0.0035030643981614653 0.007520590225642776 0.0049012983726300545 0.0008972673104810983 -0.16911452609579541 0.025090195359034912
8992000.0 0.9967812258395986 -0.07187633637573032 0.00010760822676489716 0.008599077586339914 -0.004228615175959029 -0.0022774323400156123 -0.16739651576208328 0.058757046689946864
9991000.0 0.9959264489387095 -0.08176024220134183 0.0025052901843697914 0.004440023470332153 0.001986128460138874 0.0022638115706097063 -0.15313952278447368 0.09009150289735243
10990000.0 0.993955403134671 -0.09252340874283432 0.004864190697703576 0.006706412040046002 -0.0016884959977808748 0.0010916951318376243 -0.14526165335981908 0.12100591489746178
11989000.0 0.9921411650298818 -0.10023171570989267 0.004815350600498118 -0.0023916962720384074 0.0018729797883639734 -0.000315383166583198 -0.14023704735335701 0.14224372773030206
12988000.0 0.9905672432569477 -0.10960976843024137 -0.0037516786932680563 -0.0031584319086183405 -0.0017591813756568037 0.0008497297065174523 -0.10901685217834445 0.16486169982784055
13987000.0 0.9895252134985658 -0.11883641348769203 -0.0025124238546412095 -0.00036438185743777946 0.0013803447223266773 -0.001622870704814431 -0.08960053387890478 0.18593214054978566
14986000.0 0.9888330573453338 -0.12480938036093181 0.002586459414624912 -0.0026602849263374327 0.00027892872434913976 0.00017136935670638905 -0.10366023135040789 0.20047786079609867
15985000.0 0.9906631577038223 -0.13292158602834866 -0.004353546522535698 -0.007985892099153189 0.0011742492447608434 0.0009541535725068523 -0.07674786890909488 0.2081867513058225
16984000.0 0.9867990875372086 -0.14406272415768265 -0.0007049983926774459 -0.004759907748776043 0.000170251145878209 -0.003134070808282282 -0.06625441149667007 0.21738297598071
17983000.0 0.9884248351906214 -0.1486529093135847 -0.006149260415751844 -0.0034326313614292266 -0.0016749375107749714 -0.00020553395315359087 -0.05902314841406376 0.21974263427496588
18982000.0 0.9841717469874516 -0.16037262020578066 -0.0006140494321786353 -0.007801017678833071 0.0020995838426310725 0.0014652195335725432 -0.03065621277353385 0.24354582894277582
19981000.0 0.9848631009609998 -0.16546785033197067 -0.0053436655998758825 -0.002981279457834022 0.0007038409763086336 0.0037126807607724514 -0.022603707453768558 0.2439648470996476
20980000.0 0.9830438712311942 -0.17600995199075353 -0.0037755638930414095 -0.00628716424350931 -0.002963608780421245 -0.00011359676761401345 -0.0031737749124197408 0.2603531209350835
21979000.0 0.9792848115972487 -0.18772116081023252 -0.0018813624761547 -0.0036044729887345604 0.0007233188658083927 0.00384254268387674 0.022343956442546904 0.2489391846653587
22978000.0 0.9806842751637985 -0.1936121410228582 -0.004069631147098153 -0.00452736788598724 -0.003987693895841899 0.0018660529106017472 0.02714050039651756 0.25896340350108665
23977000.0 0.9789546088191107 -0.202034570093392 -0.005300579708279298 -0.004851792608776446 -0.0007382789855580395 0.001261862968574398 0.038254595338199186 0.26329316609724346
24976000.0 0.9743478399556115 -0.21132884737733784 -0.0064480118135977985 -0.00263115531928528 0.0002285847102509705 -0.00039472231040249024 0.06873344859890981 0.2637206861315604
25975000.0 0.9766725231392471 -0.2183824589059682 -0.0046899087012033614 0.0016962414771420375 -0.012088884989007845 0.023944749266854744 0.07635450070637052 0.2685348323576866
26974000.0 0.9718746775618204 -0.22719977899440705 -0.005228623666731873 0.001775579755514055 -0.002649152671575415 0.0007604871653787718 0.09418129881226113 0.26691794109058237
27973000.0 0.9710060499785017 -0.23432162726292977 -0.002840189701157353 -0.0010292741612732276 -0.0006556069751929242 -0.00041410994045830933 0.10640652897603452 0.2529687582138797
28972000.0 0.9664902310930443 -0.24655105414439824 -0.004390322401042859 -0.003937408736390123 0.0017791304428983825 -0.0025124164204510776 0.12345781508645114 0.2585526189986859
29971000.0 0.9662055343565968 -0.251750498034628 6.0849404084286634e-05 -0.0025245282100722615 -0.0007427640697054059 0.0013201675756644164 0.14596121662009473 0.2624456270292606
30970000.0 0.9618925462444206 -0.2600402661308924 -0.0024057842594437614 -0.002450553615412777 -0.0017865114700384055 0.0001437368296652427 0.17208321325719983 0.24650729611124517
31969000.0 0.9616847092679826 -0.268734247735855 0.005018427121355786 -0.004566948297193726 -0.002452292507462829 -0.0003700000318346875 0.1483572713489158 0.24892041098894274
32968000.0 0.9595585370749155 -0.27625164081258957 0.010538905096760573 -0.0043920362128600475 -0.0013641370758850162 0.004133615768585158 0.17227991101810072 0.24077550373863885
33967000.0 0.9578222978683493 -0.28533660142925094 0.0125059216185974 -0.01319312779402588 0.0007003848468604172 0.0015292351944643145 0.18725774828129943 0.2525325447553592
34966000.0 0.9534099644494223 -0.29489215574096095 0.015099880027073955 -0.01008557438661641 -0.0016333651378908534 0.0006333008493218632 0.19377841897036477 0.24858697865806603
35965000.0 0.9516242874608138 -0.30313280696865924 0.01838250864743326 -0.015053313330859805 -0.002185310690117273 -0.006572250991719593 0.21051340773158314 0.25355882894160126
36964000.0 0.9476300573473488 -0.3104823067178873 0.02026002936807692 -0.011135635280246066 0.000773984082057536 0.002162950751075381 0.21250772079516175 0.2495830576830999
37963000.0 0.9458445862489376 -0.32020002073793813 0.026088731440918726 -0.023449829802657817 0.0010618582376743853 0.0018628392205671022 0.2238184406493827 0.23314981964667858
38962000.0 0.944001457902753 -0.329353167245249 0.0243341271921529 -0.02685760832978478 -0.0017879769331833977 0.0034613579078887654 0.23101067190284835 0.2313765027568585
39961000.0 0.9399975579259291 -0.33901511738901796 0.029326150137956607 -0.028402249881585573 0.0012963677650341548 0.0037317112912282416 0.24649537082076767 0.22526071785584864
40960000.0 0.9361145812215518 -0.3443218364864457 0.023458243932640246 -0.025948298868456617 -0.0013075391863941522 -0.0006468842460160232 0.25969630623721984 0.2252154614291482
41959000.0 0.9331153676265219 -0.35571704438671614 0.02899498190111171 -0.03313822203504896 0.0007619721802609374 0.0012554694626861276 0.2740855646240849 0.21471707856082756
42958000.0 0.9288525735980293 -0.3634081113380898 0.033475274181232584 -0.04304947994089248 -0.00036934537327426006 0.000846130646249087 0.28374791422917317 0.20636647221773644
43957000.0 0.9283419168456682 -0.3679764455346432 0.03558687653452267 -0.04926474772052162 -0.0014227441993165993 -5.351600562803847e-05 0.28897432553188374 0.20012265099281715
44956000.0 0.9241816408695723 -0.37551123934128117 0.03744979580293912 -0.05320706164202421 -0.002971938949397688 -0.0010405032338041856 0.3090987162089346 0.19068070207283297
45955000.0 0.9183291494881239 -0.38843030848328375 0.03859064972678775 -0.0586352022403298 -0.0022115221359098342 0.0007842799518824929 0.3056553417848377 0.19592074625060518
46954000.0 0.915739985524717 -0.3971375511144609 0.03939927429788414 -0.06757534828952114 0.0009775861130969005 -0.00152867532951379 0.33189427629826124 0.17381212571467336
47953000.0 0.9110617173210505 -0.4057554067378749 0.040741791544758696 -0.07302005395022267 0.0016315660917714757 -5.3004458327137625e-05 0.33191721436655625 0.1736194774590269
48952000.0 0.9069423724974767 -0.41687700753777285 0.040391149008983225 -0.08029054749641525 -0.0025753941054832683 0.0013549653041838514 0.33040622451767115 0.16307841212428548
49951000.0 0.9036007161566353 -0.41965206800540833 0.043518516677462406 -0.08743374087595376 0.003073331172828024 -0.0016755872162986698 0.3478592935577399 0.1541997548685151
50950000.0 0.9003951426210466 -0.42979338605128065 0.04464396989541142 -0.0989281578691709 -0.0004549317960812964 0.0005713659922984967 0.3566221525765447 0.1431744736909189
51949000.0 0.8973619940861778 -0.43789261320519957 0.04534991065733672 -0.10480213132499538 0.0024379873577682104 0.0009790177935249092 0.35812624503077456 0.13313016252208812
52948000.0 0.8936376756243095 -0.4465757384283 0.04682001386993619 -0.11493266952689728 -0.0008544192851799226 -0.0009289523603267447 0.3762250185002966 0.13307360976711913
53947000.0 0.8896040689459745 -0.4521681711927166 0.048116133747329794 -0.12366702768502634 -2.544485153506661e-05 0.0010832890128172666 0.36640002051554427 0.12890566886762103
54946000.0 0.8837081186067272 -0.46437871790227264 0.051384669259721495 -0.13425196574094933 -0.002412042612875763 0.002065362798680044 0.38740138229735976 0.12209267727466255
55945000.0 0.8806026079482326 -0.4716039411834587 0.05471758408728288 -0.14751126822633287 0.0009710786332166817 5.166786465614977e-06 0.38279135789489477 0.09545209679112625
56944000.0 0.87729679591092 -0.47891722937626047 0.053906529672232084 -0.16001634057053912 -0.0013308990117163102 -0.0017993387768601413 0.3979588010517712 0.09208174696826048
57943000.0 0.873270131985722 -0.487855696527815 0.05589871727388335 -0.16965516342977732 -0.0001323979184091212 0.0012498499230196767 0.4060428620000403 0.09976193765072049
58942000.0 0.8647187843442687 -0.492902485778039 0.05567477542766797 -0.1798809110559782 0.0011969585508276406 -0.0015716483254216238 0.425833997846356 0.09094130987312464
59941000.0 0.8641381142993738 -0.4999231198695677 0.05947037132715778 -0.19088977984211195 0.000325206708236066 0.00018714213035621403 0.42221009320893643 0.08435551388256271
60940000.0 0.8557678479738821 -0.5099753099828956 0.05720156253355235 -0.19294481524964616 0.0007957897064888511 -0.002439229868383746 0.4084932434134063 0.07586373531243747
61939000.0 0.8529273449135534 -0.5157091746311251 0.06364643535677583 -0.20652456445465694 -0.0007242836848821759 -0.001347273951155628 0.4272342692008438 0.05916499143438587
62938000.0 0.8471681646512945 -0.5263553764467093 0.062020554416428744 -0.22317045099214813 0.0040492100201981705 0.0009640309328936141 0.44404668292864113 0.049779357557433804
63937000.0 0.8431999525379353 -0.5332225832286397 0.06227233126633022 -0.24585564039024288 -0.00048733408212077136 -0.0014772991984796124 0.4339141090639811 0.04258070882279341
64936000.0 0.8348449030209933 -0.5415715726197861 0.05912749034470584 -0.2605748971087329 -0.0009697239141077235 -0.0037103324987671385 0.44005807838095357 0.04166495200888262
65935000.0 0.8327722784789161 -0.5516207421608024 0.06084059378611541 -0.27611639386134407 0.0027413331764319228 -0.00015817698263231753 0.43664270089178236 0.011232862652481263
66934000.0 0.8282550287378844 -0.5564247045651425 0.06155917294241202 -0.2904886799245131 3.2015859309174236e-05 0.0018157254357070883 0.44365488207770937 0.010656162717122589
67933000.0 0.8256805296962781 -0.5628214812180445 0.06191023975979846 -0.3042753230532083 -0.0023242491651456255 -1.6682944100561845e-05 0.44848660045490113 0.00607052262131448
68932000.0 0.8201410390879856 -0.5603284906558645 0.06075047426837856 -0.31650169952202006 -0.0019457978083030503 0.0002599779337156242 0.44522834238927406 -0.010659192195443057
69931000.0 0.8116044472201707 -0.5799319191262378 0.056935576324505986 -0.33609694890981434 0.002566496096675037 -0.0016975586442747126 0.4511549422061484 -0.02518997174228098
70930000.0 0.8082043234618183 -0.5867275169238483 0.0559786537015995 -0.35241683165183296 0.00045748946981531653 0.003968577875878096 0.44305247074646137 -0.04182268421402377
71929000.0 0.8022801401223384 -0.5945336215305919 0.05013082725389734 -0.3740390825524519 0.0014296284369664824 -0.002671307543791387 0.45430074752589694 -0.04882580823141879
72928000.0 0.7952583490828206 -0.6057248086037643 0.04642158352768473 -0.39289551995259786 -0.0031902014424372654 0.003471393025785353 0.47195651434228053 -0.04975410906824441
73927000.0 0.7898828985819499 -0.6097426690676789 0.03888384939192247 -0.41189014960394027 -0.00018971308399660177 0.0009864200024870227 0.4533769105351915 -0.057175891408923
74926000.0 0.7833485648285907 -0.6212758674324854 0.031360722973764084 -0.43277048092624676 -0.0015685670171897135 0.004516195478207798 0.46213301405420776 -0.06313746189334346
75925000.0 0.7775044973122719 -0.6252544501658437 0.02217577917103929 -0.4549374036873285 0.0006637990648462071 -0.00450150456650366 0.4621155503317431 -0.08498443381931864
76924000.0 0.7699726277840226 -0.634775400765788 0.009327994310134145 -0.4816402770722566 -0.005796803431685229 -0.005799758226797247 0.47087993676753875 -0.08799685623247425
77923000.0 0.7663640317954296 -0.6385375970718199 -0.004540942026957911 -0.5059745885893854 0.003293367430483066 0.00011087970433478408 0.4587896545178146 -0.0909379234006601
78922000.0 0.7587403714797858 -0.6500573173587979 -0.014479901330642812 -0.5350001938998665 0.0021430123950636204 -0.004883798171987012 0.45943306394534217 -0.1036116092279005
79921000.0 0.7495530993174575 -0.6543174222199756 -0.03687636444669725 -0.5572120707198331 -0.0018002442943017387 -2.7109099071073154e-05 0.46667158188227437 -0.10732759958415017
80920000.0 0.746857674268699 -0.6646090331547938 -0.051329566663724034 -0.590027488579773 0.0018662951098604949 -0.003874809776932385 0.47736997184289287 -0.1311277626885919
81919000.0 0.7417547954149619 -0.6696371019656153 -0.06880341043379028 -0.6207679542330446 0.00041781182333025155 -0.0012187252238985008 0.46338153855311454 -0.13538320278804308
82918000.0 0.7343371994949572 -0.6771235748273009 -0.08147785640274414 -0.6498727943967295 -0.0011675272889695167 -0.004008023572599279 0.47163416898380106 -0.15022137718700157
83917000.0 0.7233460811117541 -0.6851318260519413 -0.10005009228482087 -0.6818851452662676 0.00199361446775821 0.00017474192736844103 0.4823294380560687 -0.16286811573023433
84916000.0 0.7180171242782353 -0.6918483680686203 -0.12036611376280935 -0.7191945217607253 -0.00243927717275571 4.588804934740254e-05 0.474362785275071 -0.183349439287599
85915000.0 0.7125937289290708 -0.6987778090380102 -0.1377438236981072 -0.7495640134091449 0.0009749910529050032 0.004087417425680327 0.4643249767282689 -0.16834291338304835
86914000.0 0.7053562952782517 -0.7076845724652614 -0.15768045380741394 -0.7903059689184234 0.0013553407879624796 0.003047747510241825 0.46296147997419657 -0.174135113070574
87913000.0 0.6974757774524455 -0.7144414155444144 -0.1777958222113879 -0.8158776812177035 0.0021071781341522097 -0.002501494477617493 0.4664455432345908 -0.18100213837020673
88912000.0 0.690953414799258 -0.721809975285909 -0.19508886126416494 -0.8567378507540397 0.005925630529869614 0.003514572531102062 0.4725257578542722 -0.207936903925796
89911000.0 0.6841921454437925 -0.7287431369371655 -0.2069680035957648 -0.897856048948039 0.00160452950555606 0.0037058272503180754 0.4738422401853272 -0.20620975399129557
90910000.0 0.6762479669439145 -0.7345434287053572 -0.23325648879265562 -0.9329492693588016 -0.00190306703355219 0.00026769949646360437 0.4613613691921144 -0.21529415281000433
91909000.0 0.6675892609491056 -0.7391096830399578 -0.24860964354819332 -0.9679472265324388 0.00040548996426811363 0.0019198666440609473 0.4623716087546188 -0.22445027450120375
92908000.0 0.6593787334815435 -0.7499038845060583 -0.272963788482594 -1.0019194189490637 -0.001852339914056809 0.0004790741364559493 0.4553682163264062 -0.24158665075849553
93907000.0 0.6541348581887326 -0.7536512645079332 -0.29114165014427995 -1.0380587023749022 0.000774068508710928 -0.0024032639507315964 0.46909233894827895 -0.2539716781159525
94906000.0 0.6394688096471483 -0.7627636347666682 -0.3140207458444102 -1.0757921827543273 -0.0020125877515402898 0.0016040258990895374 0.45941696673350013 -0.25180356915141217
95905000.0 0.6338464682472388 -0.7693979316286874 -0.3394147587307275 -1.1083351866379423 0.0012908104502996455 -0.0005363742970922698 0.45741039406522754 -0.26915311968671884
96904000.0 0.6256672965358789 -0.7760442987197861 -0.35837068491513735 -1.1519892890918977 -0.0023533035458986207 0.0049359578989048285 0.45300167021397675 -0.28194210041664125
97903000.0 0.6145239574536728 -0.7844854225155982 -0.3931228186379685 -1.1838189950672944 0.0015323922254403138 -0.001228858240445204 0.4408836773807628 -0.28857552613521387
98902000.0 0.611080395621058 -0.7893080182701878 -0.40969784842664625 -1.2305053997620559 -0.0007649620732669816 0.0024872980349914 0.44724373599357203 -0.2942994671546519
99901000.0 0.6020272352230723 -0.7943145633737704 -0.4422762175774198 -1.2640816167168205 -0.0016456401224290303 2.6658350676025047e-05 0.45609462651462823 -0.3123213399200922
100900000.0 0.5924436019811936 -0.7972597588092285 -0.47682991643497186 -1.2938714531562312 0.004573591518113627 -0.001502280531538332 0.4616686425648912 -0.31424442115062395
101899000.0 0.5832825884111766 -0.8074328475869419 -0.5085580716359451 -1.3342012516970327 -5.0498228062774764e-05 0.0002817682909312721 0.4508299620963821 -0.32521324216608194
102898000.0 0.5730354047752115 -0.8132650667907171 -0.545804195796114 -1.368936068248754 -0.0009017154000010509 -0.0014325262354319885 0.44152091517918396 -0.33718531318450967
103897000.0 0.5662873831596403 -0.8216265745064523 -0.5901567042673563 -1.4157040322935766 0.0017183222965286796 0.0012562040228212953 0.4572594561721298 -0.3203782201619956
104896000.0 0.5581228882915807 -0.8271847101107853 -0.6399969113563848 -1.4475387535935913 0.0008877584498508622 -9.44021147612395e-05 0.4420337415592112 -0.34022433900026094
105895000.0 0.5477637269555258 -0.8313754512257338 -0.6867724094912525 -1.4993090485829061 -0.0025348971901050853 0.0006523915966061667 0.43377253189424353 -0.3612259718002811
106894000.0 0.537634675283153 -0.8377893280474386 -0.74522719267933 -1.535982343629081 0.0003296391155689757 0.002538837517416761 0.4248819276611788 -0.3684914419398649
107893000.0 0.5309225507586824 -0.8431889094585473 -0.7980507865489321 -1.5814564856529032 0.0013904314788475841 -0.0004099555695325047 0.4263460015314771 -0.37300232716448517
108892000.0 0.5196140051345592 -0.849396893630429 -0.8652280509955534 -1.6174679081423644 0.002175526486915348 -0.0009244507658765623 0.42507345324054996 -0.37508398849211627
109891000.0 0.5072109507445043 -0.8543244497553937 -0.9223919599399284 -1.6583261209841016 7.584066929049488e-05 -0.0010067547532256601 0.4373785341388955 -0.37915042169897567
110890000.0 0.5020298476291666 -0.8722518505680774 -1.003465104499342 -1.6809613310698508 0.0033186442822152914 -0.001104444744167743 0.42168931220197137 -0.3853518432739466
111889000.0 0.48830079189632203 -0.86236422319889 -1.0585041540838613 -1.7235824201607561 0.0022833282647143553 0.0004852382604510176 0.42127723682938967 -0.4089221341275064
