! Created with skrf 1.9.0 (http://scikit-rf.org).
# Hz S RI R 50.0 
!freq ReS11 ImS11 ReS21 ImS21 ReS12 ImS12 ReS22 ImS22
1000000.0 0.9828057221315318 0.006610314188344904 -0.0020072568634987814 -0.03252889691964418 -0.0043307706402911095 0.0018925242083504604 0.36779344582609114 0.2825942285970649
1999000.0 0.9951399076298456 -0.010247851697913184 0.007598401056319271 -0.021042575586230555 -0.005443658310208295 -0.00316312173709773 0.24690627595679568 -0.0846577815607441
2998000.0 0.998959639138222 -0.01814687832309556 0.011823705137926556 -0.015122083434876596 -0.006619612434442455 0.0013631203951870313 0.182928750288285 -0.13076990809420289
3997000.0 1.000970403923014 -0.030697539194666744 0.011677520979308258 -0.010891869333948855 0.002705454555524633 -0.0070643497600976 0.0942407865327988 -0.2208587261594376
4996000.0 0.9964840798748505 -0.039927212768517586 0.011352274984157824 0.001984470554824258 -0.003127821909833798 -0.0002492504886507786 -0.03661910834374708 -0.19788397060600665
5995000.0 0.9973448045295771 -0.049659607282978635 0.00889895216748158 -0.000776624785012625 -0.0011308331271933075 -0.0014663110305941933 -0.11151841017414162 -0.11537724837346358
6994000.0 0.9941783142996774 -0.05814244827956471 0.008266720229429692 0.004231850815676033 -0.0015816499460845693 0.0010374593591320476 -0.15516759567309574 -0.029394483999394806
7993000.0 0.995237269087105 -0.06504178779063051 0.0069792528686726425 0.004910121897318303 0.0037184629574473255 0.0007644767106989524 -0.17255136449567177 0.03519140041106387
8992000.0 0.9961193410651679 -0.07006745667951592 0.002928365919831569 0.0016684776763172498 0.0011828490768457578 -0.0028456202155602455 -0.16792253761961057 0.055799253687486484
9991000.0 0.9962091147117824 -0.0791366396646124 0.0007662003548742761 0.0026136897358122924 -0.0018417378679294488 0.0025798901893752547 -0.1655483880259499 0.100917755756901
10990000.0 0.9946048927901399 -0.09310634972392849 0.003297974880021489 0.0032537620758818927 -0.0009457064696014921 -0.004295299815759416 -0.14451537435382275 0.11503645029456738
11989000.0 0.9927850649818601 -0.09865305271487369 -0.0036864252043954833 0.001100495452283978 0.0005627857161876717 0.0013195722856047443 -0.13596460278818456 0.14897841424398098
12988000.0 0.9925987236608274 -0.1094612680307364 0.0024761590652979688 -0.00034127744074826847 -0.0007215265848972457 -0.0030799317925679 -0.11393502539977766 0.17481445412823282
13987000.0 0.9881462810781273 -0.11599865268384275 -0.00042524584122123003 -0.007700525308200736 0.0003597307188427577 -0.0011170422438698873 -0.0978923689128454 0.18395910745834623
14986000.0 0.9895325230892487 -0.12429340296502231 -0.000693920027222387 -0.0025716952704480135 0.0008039963750427496 -0.002153023685215543 -0.09166423499869944 0.20521687609147352
15985000.0 0.9906681488244417 -0.13284751114249005 0.00011299254714782704 -0.003030826437293638 -0.000266927343275563 -0.003182469333604937 -0.07415178847866975 0.21836595493669478
16984000.0 0.9893383601434177 -0.14067860719289613 -0.0019919555848133563 -0.00327593967115252 0.0032421456647449623 0.004040775947646126 -0.06663830333431545 0.2196298062695812
17983000.0 0.9897408349909095 -0.1466204975625752 -0.004342512677628733 -0.0043202017715303215 0.003998225456430771 0.004195559037607378 -0.049368594982745685 0.2251437924361221
18982000.0 0.9858796030193879 -0.15942286193433533 -0.006093919593573826 -0.0037541724830323156 0.001982909635947014 0.001910026465279599 -0.03077877900806743 0.24001947077489888
19981000.0 0.9851516081451706 -0.16255951462152016 -0.0064287695282248284 -0.0038925823400755336 0.0021255249996108313 -0.0013271771773690866 -0.014099804030052107 0.2508882913290037
20980000.0 0.9820685457290471 -0.17421110648186133 -0.0026686238755911575 -0.008156434917801087 -0.0014753320254513483 -0.0006310837290618596 -0.01527288181269109 0.2607252852868236
21979000.0 0.9814895734563905 -0.18565949300370466 -0.003905064349085262 -0.006028451715125807 0.002604840442879818 0.0007588026428174007 0.015491672227540172 0.24217953726059196
22978000.0 0.9790432655881015 -0.18872634512326614 -0.00215112501824579 -0.004066528453260478 0.0009456577626139783 0.0005284959026339982 0.024461943684317828 0.26099887944040157
23977000.0 0.9783668380999541 -0.19735460528778692 -0.0072385592546798175 -0.0046890243184578555 -0.00045148045174316814 -0.00445776245820196 0.04081289047217384 0.2601662710482401
24976000.0 0.9765317774199094 -0.20801460204060793 -0.0043519114885843336 -0.0032429440047629086 0.003212151429994511 0.004959630398092605 0.057957741227080285 0.25383804473936683
25975000.0 0.9737375306143543 -0.212046888223005 -0.007109647447207025 -0.001672411684640668 -0.020707424662749118 0.016607842971818148 0.06463397770990838 0.26333490736405435
26974000.0 0.9734075325004474 -0.22552309245926497 -0.0013158618066803718 -0.0011354723192222116 0.0012377455810491825 0.0004888773312327151 0.09074487518353985 0.26055871594879293
27973000.0 0.9703260968457084 -0.2313119839722383 -0.00732396354095319 -0.004566371613971908 -0.0043871120903896926 0.000574889008979634 0.09777133720586093 0.2568980852672472
28972000.0 0.9664397440065478 -0.2411866649849415 -0.0002469642527310121 -0.0034113267375925765 -0.002754887333038248 -0.0029619084720945398 0.10960756724561954 0.24670843832851966
29971000.0 0.9668653306059639 -0.25130349701749133 0.0005880075888066597 -0.004081025991469153 0.0012543181937626218 0.00011679606538969687 0.14559550431078677 0.2710652113873849
30970000.0 0.9649258203638604 -0.25432820545926643 -0.00027838060102215934 -0.003564753707004671 0.0006225456761142785 -0.0022472624196687436 0.15821176146550048 0.2618511267017646
31969000.0 0.9637592815712208 -0.2643230806840833 0.004549529140363795 -0.003943299065957422 0.0022118811740567245 0.002014333679397097 0.14738843244473857 0.25302523646364355
32968000.0 0.9609858184529336 -0.2723269846661275 0.007585062888313668 -0.0058631693096930695 -0.0007521830939796655 0.0010376778840565975 0.16624274305646752 0.24612893067874267
33967000.0 0.9584508109907997 -0.28102759907894903 0.012104415094587121 -0.008843408704110167 -0.00029189283867943463 0.000781558804024791 0.18963138487547548 0.24492320448705812
34966000.0 0.9548410315872388 -0.29353090196334947 0.015330035658524765 -0.0110583371764637 0.002398682122390772 0.0014879970457708914 0.1984547981416585 0.2519275676549781
35965000.0 0.9521063866126365 -0.30035572389323434 0.01726445634786078 -0.018112067002769443 0.0018496307386570718 0.0020448309988883914 0.20911755478958477 0.2503719134164713
36964000.0 0.9503878454192667 -0.3071627755837678 0.017276500329358263 -0.013662239832826967 0.0010446356757485855 0.0023480690226978626 0.20960614056234303 0.256494610486379
37963000.0 0.9457354470227384 -0.31624147938671987 0.02149621325281346 -0.018119491653729336 0.0007706421749772708 -0.0011221886854586003 0.22609484860319634 0.23240790332537686
38962000.0 0.9451960981896009 -0.323450241311016 0.022480259395475592 -0.02223587477056235 -0.00027776986890488736 -0.0008896968679738968 0.2331714104333723 0.22772521065642212
39961000.0 0.9410523144616597 -0.3350849142580929 0.02535963039058992 -0.02940418320958207 -0.0030913187870125055 0.001375596337180182 0.25618073017436166 0.2334611807203307
40960000.0 0.9372051353567454 -0.34076659912753254 0.022444125439548976 -0.023228662478795258 0.0006666784369123224 0.0008442510141599727 0.2572383048606114 0.22478998025143196
41959000.0 0.9343605562478533 -0.3502750353553651 0.031306788533067106 -0.029634214515586847 0.0011711222006382219 -0.0013210972831976789 0.2655506340786085 0.20911863792223057
42958000.0 0.9306959749490891 -0.35906971342423827 0.033177124883436854 -0.03892184716940905 0.002492070804082168 0.0005434984107338847 0.2769668840431683 0.20053096310400084
43957000.0 0.9287883639028698 -0.3670190485296782 0.03185305975019369 -0.05036297882145764 0.0018238263117433798 -0.0011764895297419948 0.27582120967837126 0.21094881159314446
44956000.0 0.9247625760589134 -0.37471539745636606 0.034010213498137216 -0.0517250145278967 0.002728226932521148 -0.0018392679108727608 0.3107946470225303 0.18815799010443532
45955000.0 0.9218958931817308 -0.3840642698412061 0.035512314807025165 -0.0579497476672396 -0.00037750348924759215 -0.0006057231928751722 0.30384871418685555 0.19061227738263495
46954000.0 0.9192497012931863 -0.39126240352273534 0.03521246374222813 -0.06357046375921974 -0.004469767092244239 0.0024528954119755067 0.3222666831100988 0.17346014644930738
47953000.0 0.9148055906556125 -0.4000476411107004 0.035925034546985174 -0.07114813173912526 0.0008377075395533569 0.00033498181960437963 0.3299829602880993 0.17643801451927155
48952000.0 0.9112060464265518 -0.40867800243797414 0.04158443672908191 -0.07846246833317815 -0.001690278131194341 0.000962475341817216 0.3352211843671457 0.1629791818469099
49951000.0 0.9062603160411073 -0.4161797072156118 0.03770753037914561 -0.08760364805877556 -0.0022936543862981827 7.744195645196202e-05 0.3528610509264727 0.15670643159763817
50950000.0 0.9042418951416374 -0.4253741978854148 0.038397709238149516 -0.09527956337107413 -0.0023539651299154486 0.0022233885504882285 0.35105919369221716 0.14324623336817754
51949000.0 0.9002865786372775 -0.4341364611577621 0.037870365411360525 -0.10209771694043912 -0.0014386853038880958 -0.0015461670367642748 0.3606577240519168 0.14430418238807713
52948000.0 0.8986216342720177 -0.43990206476247434 0.04173911568471076 -0.11134894727323799 -0.0025430481911834003 0.0011554867747485638 0.36763510771249774 0.15079561951933562
53947000.0 0.8911076249709495 -0.4474470601709589 0.04103823347420109 -0.12111992132414454 0.003660524936803878 0.0018327084191264483 0.37113435773131276 0.1331970635275643
54946000.0 0.8871776085230421 -0.4554444725664544 0.045770206957922985 -0.13035376028822068 0.0006043186607244903 0.004970731050885892 0.3889911564009485 0.11255644294136524
55945000.0 0.8835681329749304 -0.46520929761903473 0.04439227132124668 -0.14101996942766942 -0.0038975848825945317 0.0016500751987017345 0.38645378757172444 0.09323539416057848
56944000.0 0.8811040693416691 -0.4711433327327803 0.0465061886204928 -0.1537819255596546 0.00145792799727197 -0.003191483721338798 0.39472008911965994 0.10738065782429203
57943000.0 0.8761436000868773 -0.4828927708713455 0.04592253233303955 -0.16348504734366667 0.0024157871061282095 0.0016371475678034313 0.4033895583394801 0.09137403057416929
58942000.0 0.8693940303027633 -0.48954443869266634 0.04787106795857058 -0.17260506826103317 0.00029924279788867285 0.002090884479544664 0.41805078689425873 0.08531672909184385
59941000.0 0.866878373400997 -0.4949046128150772 0.05093329344126337 -0.18032990758103923 0.0002315155795883027 0.004352349136756941 0.41668704649901095 0.08981037100992921
60940000.0 0.8597745610296009 -0.5030288910861452 0.04890778893236557 -0.1850496890782505 0.0015128970337896263 0.0033689308656680017 0.41241405475396065 0.07852730992595605
61939000.0 0.8572347273009867 -0.5105055995169916 0.052797396892182887 -0.1961895822193659 0.0002877706683707361 0.0036949260169347724 0.4183404814727743 0.06221456790629813
62938000.0 0.8505516257804965 -0.5216671901463177 0.05555352969031652 -0.20860872974664102 -0.0002028791371298012 -0.0005850485116146074 0.43989405103087614 0.05583483435217627
63937000.0 0.8457682642821518 -0.5287159797643307 0.05735829093481534 -0.23319909645201692 -0.002121986255007677 0.002818984049841094 0.43533899967587564 0.040879530832654026
64936000.0 0.8418853582790025 -0.532853696802824 0.05226275506643159 -0.24471143892461625 -0.0005955104694660775 -0.0007128197276459819 0.4367410861017043 0.03343344361468168
65935000.0 0.8356446621294221 -0.5443018235819203 0.057131128270477984 -0.2594801706172211 2.627360079580099e-07 0.0007543493600685229 0.44206114946546876 0.016418688577048708
66934000.0 0.83380035534574 -0.5489072383156535 0.05715945868156189 -0.27474697154604055 0.000478379503587049 -0.0012129229180157365 0.43638596701072396 0.011791083348247449
67933000.0 0.8298373325012036 -0.5580498991490696 0.05717255415439803 -0.28554596094596124 0.0014491582485201867 0.0026296449744491945 0.4445272011420478 0.00935049617172255
68932000.0 0.8170607850898878 -0.550896105734372 0.05475831756416339 -0.2963365676010003 3.4865987025238464e-05 0.0017828024698627594 0.4575495536974964 -0.007854201081707797
69931000.0 0.8156201551231096 -0.5745871801206104 0.052486878775060704 -0.3154764852650861 0.0016839176258609063 0.0029912576387390918 0.450214879993217 -0.031116307916159283
70930000.0 0.8087724454459465 -0.5807382419751463 0.053164629272655924 -0.33207125720643305 -0.00018458938328552387 -0.001799177449726199 0.44899996752844923 -0.030022255608322897
71929000.0 0.8055774458958639 -0.5905861530207902 0.04570759173148202 -0.34886917779849536 -0.002827781586488155 0.004249221300934859 0.45872335787613 -0.03951935476621463
72928000.0 0.8017547652732152 -0.5979161187212565 0.041325829547094475 -0.364861824428652 0.0005276109217387671 -0.00011895829858386775 0.4577011363499994 -0.03982410632367341
73927000.0 0.7934416570953235 -0.6033228043616675 0.03503457375628787 -0.38380184088944286 -6.817701807422583e-05 0.0003072824662782871 0.4641570730915199 -0.05557220451019992
74926000.0 0.7884175873005611 -0.6142520040953566 0.03006559910783177 -0.40125054865378157 -0.0023490777719121785 0.0002358796780842178 0.45731429739063173 -0.061934716635121866
75925000.0 0.7839266285824656 -0.6184929288911305 0.021577292782753086 -0.42239341942400976 0.001640133283089465 -0.0034935351109588366 0.4719121460744084 -0.0768287083546654
76924000.0 0.7793311862444808 -0.6264192051875247 0.008458657073156042 -0.4481555639600258 0.0010594612350222996 -0.0009591354698550271 0.45814909548432403 -0.08517941107389568
77923000.0 0.7702988344971307 -0.633387059653386 -0.006897689440000854 -0.4710529560217188 -0.0015577120666241035 -0.0007694754537954178 0.4575703299462158 -0.10370693528839424
78922000.0 0.7667649270530212 -0.6425959772075881 -0.017684720266528384 -0.4965079287414196 -0.002905825938825604 -0.001185767557436657 0.4560559463593358 -0.10911756907249492
79921000.0 0.7573358274488171 -0.6482605549741675 -0.036605479909860544 -0.5204060592389934 -0.00048283349981424105 0.000846371408941802 0.4616691545987891 -0.11714739312950752
80920000.0 0.7521093863623308 -0.6555444991300576 -0.04844064448497426 -0.5478099293584594 -0.0013291247976372873 0.005664660818351761 0.4699569511736795 -0.1307175059911248
81919000.0 0.748350482037597 -0.6630819110472674 -0.06761005791287204 -0.5743922639442649 0.00397068190727463 -0.0008114480976882675 0.4592051770529989 -0.13757291364118135
82918000.0 0.7383716981900327 -0.670630426647917 -0.08068647855374442 -0.6058651173607836 -0.00011889661793820831 -0.0011928915853332421 0.4769642403040156 -0.139311568493838
83917000.0 0.7312502360902265 -0.6792127463873067 -0.10205131799661425 -0.6339019706667223 0.0012776316624287384 0.0015512913258506856 0.47189499951472724 -0.1532003322548472
84916000.0 0.7241873465469515 -0.6855857163814643 -0.11813183908091514 -0.6710851054615657 -0.0019711145824082513 0.0028333936524806338 0.4775352993411839 -0.17901216693042382
85915000.0 0.7201240192304431 -0.6909347723189161 -0.13627843887787494 -0.6977395933706281 -0.0011063833228927207 -0.00017875540512348777 0.46129375097590575 -0.18112632949292332
86914000.0 0.7118678002764613 -0.7026136663669105 -0.14905415871238842 -0.7371254227202736 -0.000978030497901837 0.0012130557461645713 0.4588733026838554 -0.17954363999042366
87913000.0 0.7056574809241764 -0.7081070621203729 -0.17258181822549262 -0.7646626622053564 -0.0016745407316998057 0.003454297059949865 0.466639437666483 -0.19082399689847324
88912000.0 0.6978757103371995 -0.7156481260922501 -0.18490470745730492 -0.7993934951012102 -0.0004774220946517764 0.000770821108817286 0.4669613455444782 -0.2015333438498216
89911000.0 0.6907657286567307 -0.7239015871085902 -0.20656432743937506 -0.8398714325178103 0.0041270057816160475 0.0012408398078868686 0.4709857404660742 -0.21263668905817681
90910000.0 0.684030381119721 -0.7287445206533009 -0.22158038598945268 -0.8746771408295549 -0.00047597811119545367 0.003366143983292873 0.4601151175391278 -0.22590973196601027
91909000.0 0.6746691620701902 -0.7331964164202573 -0.24224865854159194 -0.9080886447020463 -0.00101415649204683 0.0019009290588552397 0.4760742830399093 -0.230220523926596
92908000.0 0.6665276170722536 -0.7423134962810412 -0.25933147952741675 -0.9374268488533497 0.0019498256716538275 -0.0019977888174328388 0.45349998279212517 -0.2362743698490003
93907000.0 0.6616446105194186 -0.7494332359480776 -0.28177547604561876 -0.9711560486102452 -0.0021130077360806934 -0.0014893695763184976 0.452072965466737 -0.25123771061508754
94906000.0 0.6499049229537189 -0.7563783623329798 -0.295158575144606 -1.0051735184969837 -0.0004543914701151133 0.002915389908390064 0.45392891051494394 -0.2433829049886536
95905000.0 0.6415018947610763 -0.7617672793701166 -0.31819915045679376 -1.0390540285531715 -0.0015786449190291637 0.0018687761620171117 0.4596589428519831 -0.28142856731006766
96904000.0 0.6339193352496285 -0.7708195922144618 -0.3354270940929011 -1.08140092060826 -0.0001479439097808773 0.0012188078506602251 0.452592659399596 -0.26856591878084846
97903000.0 0.6251553455481614 -0.7752530512500798 -0.3576667682149297 -1.108854373061985 0.001583384108904966 0.0009023141282675491 0.4464025382236846 -0.2844798094706404
98902000.0 0.6202536256602609 -0.7816443283855522 -0.3804835710403155 -1.1498741768965026 -0.0015858686309270155 -0.001226716362751257 0.4454150830879384 -0.2933747625798186
99901000.0 0.6086730327379313 -0.7881389072635668 -0.4105737214378659 -1.1808226152363706 -2.2528599758451072e-05 0.004679948364830741 0.4611858684515658 -0.314246801303649
100900000.0 0.6031266981394401 -0.7931227220105452 -0.43395757320581907 -1.2136156254174202 -0.001696108011952479 -0.0024282685874488044 0.45812474863910946 -0.3144896166701737
101899000.0 0.5948622459529203 -0.80195761679583 -0.4591313033874966 -1.2496680896804953 0.001595018113785459 -0.000628180756467656 0.4495948650762933 -0.3114573857641356
102898000.0 0.5838072696742047 -0.8065124599164915 -0.5020872600747701 -1.2865763399093777 -0.0008065530028581891 0.0010642393172258947 0.4517450861408675 -0.3440592830088736
103897000.0 0.5762872936611598 -0.8155974396629113 -0.5390854686767598 -1.3196288429924372 -0.0005748561151704044 -0.0012617654685797165 0.4576654392803658 -0.33666445200720235
104896000.0 0.5695862770276376 -0.8254219941137958 -0.5839051502026682 -1.3573249224440695 0.001541916267118196 -0.0011549923304058295 0.43086445492452863 -0.3400131493407113
105895000.0 0.5575637010194104 -0.8269058090311965 -0.6248332946565117 -1.3957898478398132 -0.0014793183697759352 0.0020892190867028452 0.43749124430341296 -0.3658394325422718
106894000.0 0.5507748077154887 -0.833180512509724 -0.6740389801192034 -1.439231838366864 0.001138279726922627 0.001999329260996535 0.43453146505232904 -0.3677989095313859
107893000.0 0.5426723757201692 -0.8382910612193282 -0.724741251163522 -1.4783512186168526 -0.0029177907582678343 -0.001165282164174333 0.4311138274185848 -0.37536892901317587
108892000.0 0.5314478872291224 -0.8425886813414373 -0.7872282589172462 -1.5127987536758223 0.0021795088702288683 -0.0021631916286574526 0.43641885251357937 -0.3781692839942592
109891000.0 0.520575117810837 -0.8498939464405152 -0.844678097564141 -1.5480864077422887 0.0027360235952487663 0.0011192018530680763 0.4427487261567043 -0.3768696940317908
110890000.0 0.5153289901836562 -0.8552767951244166 -0.8999417491391016 -1.5672232908416257 0.0011751768817465646 0.0021467945699596923 0.4361695441810158 -0.3823201869885044
111889000.0 0.4986342564568211 -0.8581168090235461 -0.9699516002125771 -1.6190339887862333 -0.00016116660968563303 -0.003262618085216754 0.4188717789726134 -0.39540154562332974
