! Created with skrf 1.9.0 (http://scikit-rf.org).
# Hz S RI R 50.0 
!freq ReS11 ImS11 ReS21 ImS21 ReS12 ImS12 ReS22 ImS22
1000000.0 0.985053617077086 0.005561420023115846 -0.0010196922538636274 -0.0358566688551434 -0.013408343059828753 0.012193145589221107 0.36210620220765183 0.31311953619624433
1999000.0 0.9951338763246457 -0.011403163652909576 0.006043483665856662 -0.024834490885553173 -0.005077529392188636 -0.004097518499233469 0.289366958784446 -0.07656628333731974
2998000.0 0.9992698415501318 -0.02213859859306005 0.014635357832453025 -0.011723194733350458 -0.005929619615153076 -0.002696945511461418 0.18970432285971506 -0.14995116989652665
3997000.0 1.0008715572252582 -0.028101260917913123 0.011062225820790764 -0.007318864259728427 -0.002735357974570829 -0.00439707515262723 0.06207094749726964 -0.24362217672032893
4996000.0 0.9973695176883222 -0.035566802301775426 0.008925102881677645 -0.0034694294859485783 -0.0009494930002455884 0.0006890649150004891 -0.07573439588979942 -0.19276352115018322
5995000.0 0.9955275269828923 -0.05000129877879807 0.007801182427600076 0.0020374858534487517 0.0001552241894433175 -0.001986393791079872 -0.14399300872569015 -0.0955681914308486
6994000.0 0.997961942362167 -0.058739700926893554 -0.0016578916189569082 0.004506121430697628 0.00432486592508692 -0.0015633983865355817 -0.14318285407518222 -0.005799467143555509
7993000.0 0.9959581813177643 -0.06414585500538054 -0.0007029972094473336 0.006462687384173728 0.0030400883104405255 -0.00241523082069248 -0.1691290577067509 0.05074005957295003
8992000.0 0.9952251423414019 -0.07200186767318176 0.0021957641665802164 0.007011408589667435 0.0031638440242976497 0.004517176812469936 -0.14633573761830015 0.0786351937106917
9991000.0 0.9950759832000403 -0.08076984945735091 -0.001443516354245704 0.0022499993164499382 0.0011814937358827198 -0.0009789037315440646 -0.13105073539060638 0.10255481612572503
10990000.0 0.9923797383482208 -0.09395423279936282 0.004952641991071178 0.002217057114279763 0.005045241921725362 0.0027864158638769222 -0.12926742996199408 0.11874317078898035
11989000.0 0.9917174800472075 -0.0987969707724713 0.0015047716978179968 -0.002305158648259582 0.007369209367903514 0.0021351521586301728 -0.12471409854301833 0.14474673996191523
12988000.0 0.990113622909902 -0.11027883164156457 0.0001018083656106234 2.90573809517225e-06 0.003603918879266202 0.0005305042324700528 -0.10521433465836112 0.17405206774812643
13987000.0 0.989601718873384 -0.1150202300634285 -0.001747805327058772 -0.005509486769854791 -0.0025876570068796047 0.003092432985926597 -0.08754571420650005 0.1899541750541004
14986000.0 0.9903485657237807 -0.1241349655369123 -0.0018057083946875396 -0.002170733275498155 -0.0005963790672837985 -0.001386474067911011 -0.09079147680812555 0.21175419303581594
15985000.0 0.9887781334954284 -0.13535449719272952 -0.0026252165424358064 -0.005315944170805539 -0.0028119038370899513 0.002129400793265281 -0.0652913781634569 0.21753099685027988
16984000.0 0.9860302310355775 -0.14476892928361962 0.00014751556128915312 -0.007088897190478087 -0.0006854076183531391 -0.003330573025750896 -0.055120150093503475 0.20970958630169878
17983000.0 0.988963812188312 -0.14903869266724382 -0.0013448659214060586 -0.008951187099482429 0.0036113768900176107 -0.0033210090418797013 -0.041871099439674944 0.22377412704938177
18982000.0 0.9831114742475462 -0.1623420337522491 -0.003371324315574394 -0.003964326123531822 0.0018880794841647786 0.00026981471127435544 -0.019517572127192753 0.2350296092701935
19981000.0 0.9828452368788748 -0.16684341804970398 -0.0028779215366636617 -0.011008831850514725 0.003534826170614396 0.0029750119504364284 -0.02323720301588898 0.24524855587221786
20980000.0 0.9821940072325774 -0.17664025127193286 -0.003931376080842157 -0.005586760284188159 0.003337644267769446 -0.004447565623925718 0.004792709329419138 0.25825800581936
21979000.0 0.9795467197477747 -0.18472472807768403 -0.0037863167609956433 -0.005810473194801217 0.0036783392686800566 0.0027872757153511504 0.023988547807791902 0.2488500581745628
22978000.0 0.978843198897638 -0.1946473995326908 -0.004629885393207139 -0.00470359964906317 0.002358617569083807 0.0032338966235501703 0.03497288034800256 0.25844412178026854
23977000.0 0.979563684868941 -0.20139598856725519 -0.006401457933886647 -0.004625029130933091 -0.0007833281558236462 0.003639217854378867 0.04900177295455339 0.255592720977477
24976000.0 0.9763295030049157 -0.20917817200457187 -0.0048791384099873035 -0.00490858638635265 0.0002110018146513262 -0.0014875523432252215 0.06448667710815163 0.25359382452959883
25975000.0 0.9702932712816273 -0.2152349275340744 -0.006256103668139762 0.0003015136899863913 -0.027484062574669146 0.008346376711230492 0.08673249180210288 0.25918556736749093
26974000.0 0.9711672466546702 -0.2287114438089769 -0.000943268269386589 -0.001674822315565872 -0.0013736245304985105 0.003514822245720649 0.08819349908583934 0.2606278292476765
27973000.0 0.970754831810389 -0.2342315915366312 -0.0017053291057649918 -0.00025169211742081475 0.0021208313854401474 -0.0011170978805064601 0.10735210742076114 0.25680265419641085
28972000.0 0.966818603769574 -0.24688604725672847 -0.0034351461745053178 0.0012612539696197124 -0.0016258235622267417 0.0012983663516158866 0.11541225500322679 0.26156875360231796
29971000.0 0.965969692511777 -0.2508202192461823 0.0016893116990759536 -0.004048613197005255 0.00035740244206432817 -0.0020132540401418433 0.16148384974718222 0.2604736843825677
30970000.0 0.9618862039576761 -0.2588530198315093 -0.000416130993869333 -0.0002830059007199694 -0.0025738989902905902 0.0016155998726730203 0.17501184603603792 0.2585482366910634
31969000.0 0.9625103681266769 -0.26727920943771316 0.007477044827551411 -0.004968652516466281 0.00019587429981135759 0.0007766351611138981 0.15033937826262675 0.2514016697788756
32968000.0 0.9603265114347469 -0.2758128875987648 0.010489853408153529 -0.0075954412597195285 0.0017849518436434044 0.00018830285950832367 0.16451385248718756 0.2385439858932182
33967000.0 0.9584103776569706 -0.28432915358334776 0.011991398169870153 -0.010604748016885397 0.0005430139205367892 0.0019920355892664838 0.18025912269507605 0.23586342084605133
34966000.0 0.9534491682274349 -0.29624058633383166 0.013896385985536854 -0.011377460953612403 0.0004018405628996694 -0.004153403599183262 0.202564319207207 0.2487520453968585
35965000.0 0.9504662811694803 -0.3020738062938569 0.01126765094240526 -0.015622502304052122 0.0008770970502515242 -0.002469892674052878 0.21817127346808143 0.24779198878760308
36964000.0 0.948841440238457 -0.31142761169043887 0.013950285800685407 -0.014067857373430935 -0.0007036334227277503 -0.00019052256898968956 0.2145631759038123 0.2512356466508479
37963000.0 0.9461200683983124 -0.3197468700065298 0.022007831248703896 -0.018206029658565655 0.0012720359588758211 0.0008393199001756542 0.2335263131419462 0.2346762709784048
38962000.0 0.9444774294189476 -0.3287120080483475 0.024413006417661382 -0.02621978690667077 0.001903219343523116 -0.003110720728229945 0.23248951917713515 0.22814546333597016
39961000.0 0.9394299790334301 -0.3389784267800081 0.02228314387452743 -0.025628868482769792 0.005340030844382461 -0.0029251985066220624 0.25783904970237015 0.22987701187064943
40960000.0 0.936468400736999 -0.34531308910333447 0.022411468125113878 -0.020467752674072567 -0.0010081228096191137 0.0003037418236490729 0.2686875351581296 0.21983885446082738
41959000.0 0.9336214857390887 -0.3553757271499233 0.028843097183466088 -0.03250257767493419 -0.0031755591682198 0.002729565422486732 0.26769695708190644 0.21710289784820458
42958000.0 0.9296813527087776 -0.3618026923318527 0.03461165071888242 -0.039068609144863174 -0.00019633641699211537 0.001061630070077001 0.2857037763483388 0.2005202463949673
43957000.0 0.9265849806931333 -0.36873179469623396 0.033495463914426635 -0.045224572077990334 0.0008930102496891218 -0.0005645591767876708 0.3010069423586653 0.21435832510048947
44956000.0 0.9227318852475518 -0.37792055327608076 0.030926312883958782 -0.05420506668498329 -0.004475418510570873 0.004759719998922163 0.3157099682658497 0.18799856276997484
45955000.0 0.9192922488631238 -0.386754303532851 0.034581814986761286 -0.05729115413212944 0.0005852726003228708 0.001548531318084108 0.3139538753812828 0.19143177920364732
46954000.0 0.9162944054629404 -0.39593740465169047 0.033679838227272635 -0.06193320153193071 -0.0013804785530703797 0.0010428673527408511 0.32704153326905655 0.17407195275811826
47953000.0 0.9123741138096045 -0.40331573617469824 0.034580265955591716 -0.07259944075019135 0.00041596378359860916 0.0006833652079586211 0.3392505550349663 0.17019950046479962
48952000.0 0.9088056394403108 -0.41360843226714783 0.035861842513543754 -0.07811543043281388 -0.001036482373852565 -0.00039114494605190945 0.3331586609339807 0.1578104820019155
49951000.0 0.9048743851680089 -0.4198990745831883 0.037409383108292414 -0.08643301999876556 0.002182859749394659 -0.0008628553834204704 0.3645756045729852 0.1518009793388775
50950000.0 0.9027507319909944 -0.4304006822888687 0.03971865461214171 -0.09401781386387047 0.004972342438185628 0.0013165548691635343 0.3580001981382652 0.1431074555603684
51949000.0 0.8979862640356474 -0.4353775114119934 0.038244584698535616 -0.10017056532857613 0.0014116350794500512 -0.0011881735028463007 0.366897281257779 0.14284178440025946
52948000.0 0.8943043366497084 -0.4436276561571933 0.03863723856442299 -0.1114679268539873 -6.134943742618707e-05 -0.0008566551648885627 0.3747532166145235 0.13548149768166887
53947000.0 0.8905554466572574 -0.4514366621698916 0.04295029315333731 -0.11932449637627804 0.002553293064351817 0.0005137960474097737 0.37590142446289043 0.12922069272283723
54946000.0 0.8838004271152551 -0.46261045656998795 0.04359520397470309 -0.1282378212453878 0.001207862349383087 0.00040422155360491296 0.39396493558476153 0.11771617567481844
55945000.0 0.8816691132206305 -0.47026757914271244 0.0417988987234967 -0.138491961751803 0.0006957530034689099 -0.000350957581130528 0.38922388767880506 0.10486614075900252
56944000.0 0.8772835132683654 -0.47711875541998344 0.047234845799585104 -0.14939508455896205 0.0017213101151939355 -0.0005865037345721166 0.40579288632684485 0.09016116977822752
57943000.0 0.8707781491241613 -0.4872289697789938 0.04742352754963761 -0.16067672417854664 0.003347515604600377 -0.0014661306829396113 0.40096517260027964 0.08925698427388161
58942000.0 0.8678794097721947 -0.4919395315193392 0.047346296584085915 -0.1742700686377663 0.003768372618328051 0.002263731563775924 0.42037824637681115 0.09566771616782249
59941000.0 0.8637209776983098 -0.5011450196428932 0.051057291588319655 -0.18114169724562398 0.0017379899419053874 0.002938799785802991 0.42753666921122097 0.07248694562426439
60940000.0 0.8566090371977227 -0.5080119827840583 0.049467515306962584 -0.18523530328993829 0.00020984809619071766 0.0014605449665293195 0.4161344240944498 0.07996373041117212
61939000.0 0.852561772375045 -0.5141352744693968 0.05221293551054476 -0.1929796253452983 0.0003371873454105679 0.001779354810126124 0.41815950887998105 0.059005995337279675
62938000.0 0.8470082940167034 -0.5251872688402812 0.05259650631705299 -0.21126864258919306 0.0002860049467258184 -0.0027456455605253133 0.4483038084525504 0.05517412004281537
63937000.0 0.8415510420356296 -0.5333976693656862 0.05624951388794466 -0.23054577146243632 -0.0007726505172042167 -0.0013751323070701439 0.44459332910536464 0.03761722213320587
64936000.0 0.8375075578671095 -0.5382201242507292 0.05645105526073588 -0.24708170576452915 0.001390349066328722 -0.002148370968026438 0.4340307423894352 0.03312484355398308
65935000.0 0.8337632004093964 -0.5500606118048087 0.053892330843701826 -0.25669111925908733 8.609976863134774e-05 0.0019494213377365675 0.4515646617923538 0.015347213061162573
66934000.0 0.8284571458176244 -0.5556318882648072 0.05356983518947453 -0.27491688162536065 -0.002771448784096218 0.000761439256732008 0.43477295015530915 0.013500168224474342
67933000.0 0.8253406337208832 -0.5619346668485677 0.057116256284021345 -0.2860159349343808 -0.0009719566432997471 0.002568815815053794 0.4492641518850647 0.007596485197346585
68932000.0 0.8071704593429483 -0.5601719464843754 0.04764589983684545 -0.2945490166277038 0.0020892568724189763 -0.0013355261860218525 0.46014479472663244 -0.013892958506931037
69931000.0 0.8117691820600701 -0.5783783450428662 0.05193798617920071 -0.3167809457544111 -0.0007648198015540247 0.002988446464374904 0.4573347092467007 -0.019331924069676786
70930000.0 0.8081369828921344 -0.5841919526379991 0.05353559224246166 -0.33026196826460186 0.0032513197575443453 -0.0020157649608775765 0.45147758235314467 -0.030215953157221857
71929000.0 0.8038720842458384 -0.5933578618154912 0.04476770272278409 -0.3470836543986686 -0.00491783764135979 0.0018797138075315534 0.4459267956588131 -0.05001779503409904
72928000.0 0.796171474061077 -0.6051028771171163 0.037697770599806946 -0.3627398766830638 -0.002223065183598194 0.001296913987615805 0.4717909347305508 -0.05129258489911709
73927000.0 0.7905873921984531 -0.6104587233563376 0.03473083827802388 -0.3852985659006737 -0.003040071586712118 0.0007429066354897262 0.4614789424077485 -0.05868012460097484
74926000.0 0.7843901310444934 -0.6189797052391963 0.0271665041318925 -0.4004362104033698 1.6277357231875378e-05 -0.001515615130920629 0.46729378087316786 -0.06316757833936498
75925000.0 0.7768902443057857 -0.6231367442740771 0.017977606711722636 -0.42029148346836565 0.00042087325359239306 0.002498980330062554 0.47510526133570335 -0.07349479774877253
76924000.0 0.7708354577270716 -0.6326232368572118 0.006568263981996781 -0.4442614620133765 -0.0006964741012818234 0.0003352731114266045 0.4635358752353403 -0.08678223480532761
77923000.0 0.7664908804933369 -0.6376271694756656 -0.008897202614120584 -0.46896321990763123 -0.0009941001976869574 9.188870596407504e-05 0.4693880459682726 -0.09928380505947
78922000.0 0.7605388704905786 -0.6495282140530272 -0.02126627120286182 -0.4971785735806968 0.0018992080940069646 -0.0011487245785907225 0.459928460950607 -0.11789270301679408
79921000.0 0.7509087291236953 -0.6513572693812796 -0.042098202589601924 -0.5206258831991403 -0.0042114492489666675 0.0021803578102178767 0.46330202194073494 -0.12083160216858313
80920000.0 0.7486264634614078 -0.6625863080642894 -0.05446375122420431 -0.5492060873752475 -0.003717861506766474 -0.0013489654325831051 0.4698348398592121 -0.1311536468248919
81919000.0 0.7434909307998148 -0.6699366932296104 -0.07350400433130562 -0.5760653200152422 -0.00353898194448449 -0.003710193322916311 0.4764925645898095 -0.13838162258271933
82918000.0 0.7335627517537824 -0.6759693877990471 -0.08395008840545044 -0.6045900719749845 -0.001129892149389686 0.00255986738922323 0.47175582289385987 -0.14249087802290047
83917000.0 0.7258383496498266 -0.68471061644363 -0.10726157837400543 -0.6325905451828356 -0.0016265304378242891 -0.004511972556214314 0.4743894729631069 -0.15901937953213657
84916000.0 0.7201008926092383 -0.6918526741932696 -0.122270151055118 -0.6707651132676464 -0.000527637219931618 -4.0783173671471294e-05 0.46800682428246937 -0.18126423621342916
85915000.0 0.7133334177576863 -0.6962318590312698 -0.14022064693770084 -0.6999184090152029 -0.000586614810122569 -0.002076874347671005 0.4788704592148339 -0.17197457488063195
86914000.0 0.7062787593975743 -0.7078728062256829 -0.15792069206766823 -0.7322028239899575 -0.00031590395640643037 -0.00330909249259412 0.46502990811938894 -0.1784116229803224
87913000.0 0.6987339939901617 -0.7132217880831717 -0.17367746488942115 -0.7623622030364463 0.005583373746482984 -0.000725382073175625 0.46691320922625923 -0.18223342287032715
88912000.0 0.6895208143712906 -0.7210903865048764 -0.19585244579239092 -0.7936520745151104 -0.00021596186667889613 0.000842053392490979 0.47458904214817443 -0.21429050785762366
89911000.0 0.6861939406494847 -0.7280107101800986 -0.2080598747804628 -0.8327479424918072 -0.0001593593510977672 4.0628796044044414e-05 0.4632447282866333 -0.2181479150957974
90910000.0 0.6794177483649373 -0.7325189525402866 -0.22067858076716373 -0.8695654823569011 0.0011540773802225675 -0.0035790513666521485 0.46792333104283196 -0.20932145746621458
91909000.0 0.6691218883200071 -0.7378438448425709 -0.24419010909240432 -0.9013352245493569 -0.0029148091117036858 -0.0011866355019002968 0.47263620983053956 -0.22822982113436047
92908000.0 0.6621841335642048 -0.7474973873886271 -0.2642880869013739 -0.9375996618749454 0.0008242939654327867 -0.004171858177792612 0.45794110016445344 -0.24762298480789305
93907000.0 0.6533567218838312 -0.7524676983327684 -0.28362017751200963 -0.9654436062691886 -0.0017019090679590717 0.00029136579019967986 0.4638647013926214 -0.2428226128821906
94906000.0 0.6422589521811062 -0.7617367926949751 -0.2995490419334483 -1.0006948136198934 -0.0030466668484302093 0.002390362218341885 0.4734022224895551 -0.25504613086057537
95905000.0 0.6354383994387491 -0.7664420569558542 -0.32148290663509105 -1.0341422641694196 0.001964862981351876 0.004908535705473987 0.4638270241560803 -0.2634408298413799
96904000.0 0.6293944739744354 -0.774934979856016 -0.336861042131887 -1.0736718977708317 0.002451338103572563 0.0031309903031107055 0.45338977463322716 -0.28560077435124626
97903000.0 0.6187161835352216 -0.779778574155901 -0.36541757445643447 -1.1047670238468272 -0.001974102566826225 -0.001692076921315964 0.4439235980628169 -0.2876476531660959
98902000.0 0.6137594055708452 -0.7872832294691171 -0.3824234660506871 -1.14414534880092 -0.0014239744133740283 0.006271674828627526 0.44606995092493856 -0.2944970161679451
99901000.0 0.602091936322743 -0.7920157291544972 -0.41117830670490435 -1.1720925741336679 0.0010065503794891763 0.00010179354306774669 0.44922400823719155 -0.3131310315192535
100900000.0 0.594997348252238 -0.7969140985958304 -0.4467787639279776 -1.2091345112182468 0.0004942392441554411 -0.00035178012124714806 0.46407959604443716 -0.3147311893906164
101899000.0 0.5872265357543011 -0.8043560920954117 -0.46844571122680306 -1.2448665163338657 -3.893027567632832e-05 0.002150138810708919 0.4633762913484357 -0.3188898883645726
102898000.0 0.5763280958711909 -0.8104116475529503 -0.5044681181141566 -1.2808403967440132 0.002285581265373859 -0.004461561173442771 0.4468521942816445 -0.3463162693300438
103897000.0 0.5687956012485249 -0.8166903723207034 -0.5445419600318238 -1.3186906968992766 -0.0003886176421029143 0.002070694792210424 0.46362318256990254 -0.33565952469839855
104896000.0 0.5618603041199541 -0.8270333564658882 -0.5875065808544546 -1.3555347835499125 0.0008687851262583005 0.002237847742763647 0.4366284850885249 -0.3389206996766349
105895000.0 0.5482362043706893 -0.8279649725068204 -0.6372489715891768 -1.3917062364107364 -0.001745925870781932 0.0011869094903295505 0.44157560081940656 -0.36466975872010576
106894000.0 0.5401417960774832 -0.8368191660389898 -0.6947788341204905 -1.4264092643270976 0.0013169323029935335 -0.0014026815482254507 0.42464245517322297 -0.370649004900131
107893000.0 0.5322362751512167 -0.8421237502120209 -0.7432002760684363 -1.4651169639888142 -0.00043735317348288813 -3.073226025908923e-05 0.42212824379426145 -0.3848432215424517
108892000.0 0.5243967907308424 -0.8449002105261859 -0.8057734457038135 -1.501083120912231 -0.0007948854190939624 0.001509818203584728 0.4226959096277035 -0.3828472330695474
109891000.0 0.5105259843517151 -0.8546718863439422 -0.8536154622119301 -1.5343213587357485 0.0025921641529501474 -0.00227340335535959 0.43911304789383937 -0.3810167233985704
110890000.0 0.4913947744593975 -0.8568197713603474 -0.9201037564768754 -1.530820214596457 -0.002098778188063305 -0.0002784896594951261 0.4111364189147032 -0.3916907769593174
111889000.0 0.4928256658118156 -0.8601833838997012 -0.9782399586168767 -1.6025990621066928 0.00028314046523001015 -0.0009518405661576593 0.424309454820996 -0.4102777852815201
