! Created with skrf 1.9.0 (http://scikit-rf.org).
# Hz S RI R 50.0 
!freq ReS11 ImS11 ReS21 ImS21 ReS12 ImS12 ReS22 ImS22
1000000.0 0.9810182794756187 0.014065214536115667 0.012414788048525268 -0.03483721099169958 -0.007134896695991606 0.012240240343715805 0.37943031508104713 0.32556991295495546
1999000.0 0.9954104727146321 -0.008787151528940518 0.006217191398201366 -0.02674634289036598 -0.0032119191650545062 0.003675459613049171 0.2523327626217195 -0.068197259498685
2998000.0 0.998266094446308 -0.020813182827355677 0.012131761774483569 -0.016664062465592818 0.0018867843345930827 -0.0033721944987254427 0.19374623197525287 -0.1384603968663657
3997000.0 0.99691438599832 -0.0328625517626471 0.011856955330870472 -0.004487154847043088 -0.0030082165182852027 0.0009037222068451412 0.11338743927034234 -0.21266488192627014
4996000.0 0.9951447242860958 -0.043401948024372895 0.011424270995904158 -0.0014135260725374077 -0.0025532667661923654 0.0023648661770928146 -0.03169568964409525 -0.20600300801819665
5995000.0 0.9958432468118268 -0.048782310215067876 0.011305187460182218 0.0036106294384412665 0.0009306850293877975 -0.004204321969625237 -0.11438459549783264 -0.11561511286072078
6994000.0 0.9936085597414587 -0.05926450693850501 0.007314837603872453 0.0029897506164684546 0.009614053764795568 0.0002828240737351703 -0.1612637131998276 -0.03491845266751886
7993000.0 0.9948559187297642 -0.06542315868037005 -0.004015462410803109 0.009427933723076721 0.001971173448993498 -0.007191465070351317 -0.16793179179657722 0.01806451731962539
8992000.0 0.9932915426684004 -0.07327387620891636 0.00026937171760220267 0.0067434900161412745 0.004311387882184014 -0.0033807501950686688 -0.16235273887749968 0.05278446545845102
9991000.0 0.9922125470227172 -0.08116052879683727 0.00614212782211991 0.005374148732156612 -0.001958025836504053 -2.9048503664820907e-05 -0.15077920311620746 0.08772379908896699
10990000.0 0.9903854672277888 -0.09405868762105139 -0.0004074257319943234 0.000699932780102411 0.000743100114571897 -0.001633030678594935 -0.13645116488297515 0.10524105600039908
11989000.0 0.9887252694745085 -0.10117140837489931 0.0013808046935023287 -0.0034854781126843907 0.004826154329762176 -0.00039855846276650874 -0.1127239597770148 0.13506560327925815
12988000.0 0.9873298175559506 -0.11147404922193035 -0.0008409867756654808 -0.005183676285861202 0.0004081899462976813 0.0020143413928355083 -0.12257376895407697 0.16654091261126366
13987000.0 0.9887956504520706 -0.1179486378898316 -0.00012836688930977955 -0.005749852310646764 -0.0004814345816788152 0.0011143546194657896 -0.10371687648154058 0.18623001015387625
14986000.0 0.9854992740913543 -0.12693815770844374 -0.0020897497223577423 -0.005591441154157463 -3.9768581252502695e-05 0.00014481010256236644 -0.08411584182252448 0.2015597696636113
15985000.0 0.9878995315626812 -0.1377767620037393 -0.002270122583687155 -0.003273476335141825 -0.001045938571408127 -0.0003905677834086247 -0.070577465799977 0.21753470813939801
16984000.0 0.9850787486314212 -0.1441994672658438 0.001312128758763492 -0.0011820640223464114 0.0008875342658551698 -0.0033282642863741944 -0.07141569203243216 0.21538286655799435
17983000.0 0.9851850595231362 -0.14964785564916921 -0.0004290246341791656 -0.010430141293348976 -0.006276032691223726 -5.3783308417784404e-05 -0.0646653188946804 0.2270689028494419
18982000.0 0.9826693757650687 -0.1626939848104107 -0.002152346447923729 -0.004631439461486041 0.0021060462334340515 -0.00011915706676167092 -0.019601730322811668 0.23554240527300338
19981000.0 0.9824744362085376 -0.1673213154583599 -0.003697540264468783 -0.0018034391880604472 0.0003785313432878714 0.00043367393368598907 -0.01973062319758849 0.23678051122726462
20980000.0 0.9805851394671361 -0.17850849274255057 -0.010847478549946707 -0.000847392821687239 0.0008843452322976126 0.0024816528497572906 -0.0036517627339759627 0.2573076773168784
21979000.0 0.9774127773774375 -0.18597296589376633 -0.005209207803006432 -0.005179341624878292 0.0024550235691517884 0.0012935724714948193 0.008313290086270513 0.24531661066242846
22978000.0 0.9765456568898015 -0.1959125408815525 -0.008929661074733504 -0.0070775878212276004 -0.0010010326048249586 -0.0005890899929903397 0.027609851855709522 0.255270152259828
23977000.0 0.9764286955019703 -0.2032032222513232 -0.007526417688250512 -0.002547246284714105 0.0024630973259461343 0.0006325711059177495 0.0310617738702218 0.2604052927540552
24976000.0 0.9727786158787062 -0.21372179612549735 -0.004930931910415466 -0.004873244228627013 0.00424637004794562 0.0009810426302211933 0.057865858062652285 0.2517067366400093
25975000.0 0.9717410354018475 -0.21884258225067946 -0.009712838177751018 -0.0011444596245906962 -0.020415318768586068 0.014819592979127919 0.07720956862263016 0.2608119608040769
26974000.0 0.9692622444117761 -0.2292564372549799 -0.00678119668762439 -0.00045333005400920894 -0.0019129928021443085 0.0009717322544014205 0.08544175822084618 0.267209582105022
27973000.0 0.9693571006884636 -0.2357851485099431 -0.0009068157580430026 -0.00583662542136849 -0.0020183584879175593 0.002351394418627199 0.10543458017549416 0.2525736440807261
28972000.0 0.9652905204910173 -0.24850358501876965 -0.002874826312095919 0.0007893739012692148 -2.8369901160784106e-05 0.000134796393191277 0.12023515144632396 0.25448040385396975
29971000.0 0.9624919859082693 -0.25680934133974953 -0.003993609861911228 -0.0015549963019072998 0.0011745243803874294 0.0002995935452567778 0.14766461465021152 0.2692812724869751
30970000.0 0.9608795111804066 -0.26061886532579115 -0.0014052701557821553 -0.005236571113827061 0.002561628109766727 8.976004297312904e-05 0.16823877134870743 0.26263669248807814
31969000.0 0.9600611465363781 -0.27006407121876663 0.002962777143736671 -0.005074654700228535 -0.00026541188785750053 -0.0011214719011963328 0.15467068657206956 0.2421243964253182
32968000.0 0.9580784339582197 -0.27835481981306776 0.008571038574586862 -0.006708121251844215 0.0006353917049339882 -0.0030426625216571556 0.15998680039082075 0.24750543848107193
33967000.0 0.9559552154046487 -0.28735928570110963 0.011735675010283504 -0.011318743536851044 -0.0006683581566862238 -0.0027227497876778895 0.18899609933950492 0.25571404146908316
34966000.0 0.9511260281449125 -0.29886986644237507 0.013446848130617693 -0.013823674556792176 0.001097594697614239 -0.0008142991627344995 0.18676934262949876 0.25206795297844764
35965000.0 0.9474766319922296 -0.3060663712165401 0.01764855936773657 -0.01646294789530349 0.0003928910187546873 -0.0019489404093668192 0.20608015685329392 0.25082659182854156
36964000.0 0.9469386047000392 -0.31434235644237163 0.011272045257783766 -0.014586927785057229 0.0012883462625627629 0.00026185493938736483 0.21521495022697507 0.2539312363156621
37963000.0 0.94197931306426 -0.32352477552265574 0.020834840369101923 -0.0205703625698246 -0.0024239358691895588 -0.002182617402445114 0.22137572812690992 0.23636420137846695
38962000.0 0.9397348512372653 -0.33549834495579095 0.026587387978473213 -0.022718441719716126 0.0017787617545187342 -0.0012999932006212322 0.23835152333972148 0.22765762222169106
39961000.0 0.9367567119339653 -0.3391978300972252 0.026205203724154195 -0.030269116610426125 0.00204894916169703 -0.0018695985784336262 0.25325044464543417 0.22272637588505295
40960000.0 0.9331312907011975 -0.34976031715207095 0.022606367853453907 -0.024919487306409933 0.0017892921208551703 0.0010147776901226228 0.26951854431603756 0.22590477625708602
41959000.0 0.9309042257200175 -0.3590491544017544 0.03121539336544716 -0.03050750572253323 -0.00012400941364661478 0.0001840580782471196 0.2679543236190214 0.21779665125725134
42958000.0 0.9260822900049446 -0.3675469919550393 0.035282652387188536 -0.04129064890050554 0.0009777215994893642 -0.002598169684089351 0.28236333245571876 0.19933051218893016
43957000.0 0.924795679194172 -0.37192844339978887 0.03483372180859242 -0.044435258447899154 -0.0006295032894924889 -0.0011575182753642101 0.28650672769817237 0.20491167247300798
44956000.0 0.9203511043032667 -0.38215615905773054 0.03350363197697027 -0.053515501519856234 -0.0019895590327439453 0.0010867845378578853 0.3010262483768112 0.19984036690614437
45955000.0 0.9163217726471174 -0.3937981717299413 0.03760976725960271 -0.05555503120841997 -0.0024191043572687754 0.0004812926552974034 0.3080711994134581 0.18397691720689666
46954000.0 0.9123698732582829 -0.4010348120234263 0.03472188013804509 -0.06674827476017063 0.00028245307924474206 0.0004444105456693883 0.33080820590490706 0.17954269473854018
47953000.0 0.9106228960201168 -0.40816362490297387 0.03734305603406653 -0.07376802852209463 0.00010842515796624556 0.0004025242532941272 0.33284351676223856 0.1645095440858841
48952000.0 0.9051489547338373 -0.4169214672456215 0.03794823732934139 -0.08294577634573072 0.0032027993861425295 -0.0014983779839296346 0.3309376824998557 0.16390398884293425
49951000.0 0.9009302206059165 -0.42671104537259685 0.03972517341729513 -0.09198984434167626 -0.0028247936170542744 0.002508241736027337 0.35848160241077165 0.15505512016378384
50950000.0 0.8950870232232395 -0.43427531619856047 0.041583756377729396 -0.09621470597459439 -0.0026800717211528592 -0.0014330535035638938 0.35855355424417606 0.1433149933812533
51949000.0 0.8934387464113788 -0.4424623421228791 0.04476271582374937 -0.10472671976421423 0.003319101400836844 0.004243657859154399 0.34984069196341994 0.15073050218039982
52948000.0 0.8902644447916063 -0.45023042301125443 0.04310498204036951 -0.11607606656649518 -0.0010600746294636297 -0.0017751840636022927 0.37634210151529857 0.13979312133666916
53947000.0 0.8851131004006472 -0.4575598157008041 0.047416282013608105 -0.12470535155419749 0.00027265619927960435 0.0007687809369562962 0.37961956077213677 0.1365239280828455
54946000.0 0.8782220668651667 -0.4684883909853848 0.0475600949603614 -0.13351750074024532 -0.0015776662771397607 0.0013719240498205314 0.3826485069731572 0.12805199778298532
55945000.0 0.877111368038729 -0.4760411955768419 0.047478148109192195 -0.14306271805097093 0.0007836431175326136 0.0018838546282417244 0.3880228886796593 0.11140662810682639
56944000.0 0.8729422006973679 -0.48298832649106166 0.049694450920836554 -0.15563743548400097 -0.00041160766819410327 0.0025168732451541563 0.4066052112078706 0.1028798085117432
57943000.0 0.8686838723384306 -0.49309730634542037 0.051386220987690676 -0.16463407392640264 -0.001297171727861906 0.002302434462701546 0.4009079813543625 0.1058619426206139
58942000.0 0.8607491007136231 -0.5009999111473865 0.05381831915800321 -0.17717257921915372 -0.0012823586588024038 0.0005450782284209304 0.4182072086206828 0.09440505225535707
59941000.0 0.858470234247565 -0.5059092134088199 0.055321525330048305 -0.18466251159398006 -0.0014792303768970205 0.0010199186673775017 0.4096022396645169 0.08264110063220136
60940000.0 0.8506964847404132 -0.5138049772689087 0.055111341611104814 -0.1902672801110693 0.0013852846530925502 0.0023310504890083896 0.4014085304260842 0.0847407941913543
61939000.0 0.8480477855466592 -0.5221986598167481 0.055311226296551275 -0.2039689686069224 0.001265794525279741 -0.0010063329829493991 0.42002453159514447 0.0742995805054072
62938000.0 0.8413636287894772 -0.5313186559252393 0.05799026108201684 -0.21736744172345482 -0.002165820624430098 0.0023506195753020564 0.4373617991855008 0.05941967024001137
63937000.0 0.8364418531238776 -0.541591839460948 0.06197383697142193 -0.23838129049245793 0.005384595613036597 0.0013345451709073158 0.4315964734097616 0.03845206323290035
64936000.0 0.8300034350389537 -0.5450068192174639 0.05678670879189886 -0.25197547520055213 -0.0006331661644876362 -0.0007223171709111001 0.4285147180405603 0.038339091116237116
65935000.0 0.8264163980197685 -0.5551065324539349 0.059011083892335205 -0.26505679141552246 0.0008681441175379174 0.0028961003413010937 0.43624772767462106 0.028289653059343837
66934000.0 0.8221252739122719 -0.5618733014022573 0.059422087027306225 -0.28184532908304377 0.0003026055777818124 0.0038804293043723055 0.42929891913555734 0.011855174831783917
67933000.0 0.818846210907765 -0.5709714944723563 0.05982965667502585 -0.2967026724182115 0.0013283384998094285 0.002519901796920673 0.4492933498075864 -0.0005124339642887352
68932000.0 0.800311689255684 -0.5672199316364981 0.0534541166822972 -0.30783924066414176 0.0022589113272163727 0.0003125522586217658 0.4502740035499704 -0.011666077617232986
69931000.0 0.8051528255295025 -0.586138936610475 0.0585952726349059 -0.3283086815870105 0.0014108061229548248 -0.0010195055785198897 0.44516101836573774 -0.01437969434095594
70930000.0 0.799151670193532 -0.5924291113009964 0.05334532784960869 -0.3411251664465373 -0.0004198118918579851 -0.0015581236109755926 0.4450452447843326 -0.0243140743499207
71929000.0 0.7949454029612106 -0.6018595760273641 0.05057036289558658 -0.3634059517216231 -0.0037326390800412708 0.002390126747088667 0.45295526473655967 -0.03734849677461156
72928000.0 0.7882266913895098 -0.6104472704101038 0.041399483700705425 -0.37947343217257706 -0.002955757322438189 0.0024900994785857513 0.46560162868783517 -0.044725712313224246
73927000.0 0.7820740648302483 -0.6177631884669825 0.03732056756194679 -0.40339206825683194 -0.002531102990478595 -0.003968499070705487 0.4595196405183241 -0.062021138390070146
74926000.0 0.7747250840660689 -0.6262090879768694 0.028481426486323604 -0.4201315544866819 -0.0035268503142824254 -0.0020450807788314766 0.4634370419441765 -0.058024220074737475
75925000.0 0.7689272726787303 -0.6299653415163804 0.02153954327234518 -0.4413913840584439 -0.0037423965711445477 0.000889686575140667 0.46851565682718627 -0.06684678982629039
76924000.0 0.762658839104537 -0.6408892491723666 0.008895008175635693 -0.46681247325927927 -0.0004795357079458984 -0.0016742198407896814 0.4658757325443334 -0.08987303524016908
77923000.0 0.7574705076290413 -0.6441109924556501 -0.005128026227309015 -0.4908915605130139 -0.0031153953149387304 0.0009398845101701637 0.4725551401684769 -0.0850265608757124
78922000.0 0.7524043604602284 -0.6565582785476356 -0.021838326783621534 -0.5195532825459693 -0.0006616536920202826 0.002265041316411674 0.4563688467549579 -0.10731789540216372
79921000.0 0.740976081253467 -0.660441415869156 -0.03785161077171314 -0.5467849959295488 -0.000445758232848189 0.0028469914673769324 0.4542439310387766 -0.11755273270936398
80920000.0 0.7385734853733947 -0.6707976296271447 -0.05169441253067647 -0.5727433492002402 -0.0031120239552321206 0.0018260542826163265 0.46490985440831 -0.13250335107854427
81919000.0 0.7336484669686126 -0.6762737316712845 -0.07144372087900795 -0.6017569660252904 -0.0016546392382309097 -0.0019403249559047148 0.46971532274227895 -0.14693071131358726
82918000.0 0.72281828738482 -0.6833792995453373 -0.08680836669422548 -0.6360487344825716 0.002410004922448243 0.0005784452780092841 0.46875840787184125 -0.14871711042935337
83917000.0 0.7148684415280164 -0.6924568734623876 -0.10688317045711002 -0.661092882068803 -0.00025099052597572444 -0.000850946475214763 0.4713370394941113 -0.14488001900512892
84916000.0 0.710862166030368 -0.7000238777239055 -0.12338363910904364 -0.7019638866246677 -0.00016187250739133638 -0.002931891775832601 0.47629406750553765 -0.17437957037460075
85915000.0 0.7035178840806391 -0.7066002050407999 -0.14095112370087087 -0.7308382221616915 -0.001474642005942526 0.0033591642615552167 0.46606402196054725 -0.17023153875224925
86914000.0 0.6957421830145827 -0.7165378219257537 -0.1570456893128813 -0.7670127591619593 -0.002404418657320921 -0.001882623385498826 0.4636253655665204 -0.17685321865408707
87913000.0 0.6891082196726838 -0.7215284649218935 -0.1753275528883369 -0.7989212919575917 0.00010572998953885886 -0.0010196265319357245 0.4600763361036506 -0.18718747893873852
88912000.0 0.6814982329884288 -0.7275972391121678 -0.19233573099856174 -0.8330247212317584 0.005084891684898182 0.003049258602554615 0.4591043341092035 -0.2077629440471637
89911000.0 0.6727567789434952 -0.7377873523350568 -0.21275510452718152 -0.8719417888698924 0.0014138781542290587 0.0010041879072812173 0.4723039139512543 -0.2077712535634469
90910000.0 0.6663784573843464 -0.7418505798003118 -0.22740501512932446 -0.9066223021005119 -0.00025942936361983594 0.00041176485943048485 0.4708191626041313 -0.19906496157220774
91909000.0 0.6574999434619039 -0.7468287461423758 -0.24795926811813843 -0.9390300294342653 0.0013359983942237256 0.0008098483441093318 0.4696680818327889 -0.22245032800045197
92908000.0 0.6498963754174462 -0.7552355791567728 -0.26154493248079785 -0.9706925110902087 -0.002445480731206389 0.0005494972449642169 0.4636432982592186 -0.22068701462549456
93907000.0 0.6431780560302597 -0.762467045028922 -0.28415988480094273 -1.0060700304859076 0.003398434693872091 -0.002359954157433256 0.46013201492102296 -0.24932260859520838
94906000.0 0.6306726344236224 -0.76807640048967 -0.30478394357593186 -1.0371477021081923 -0.0017269106108587144 -0.0017067318719129793 0.4577702827138312 -0.23690846950900482
95905000.0 0.6258862704087756 -0.7737882972207534 -0.32450407889297905 -1.0773109399917087 -0.002886833350517799 0.0017000840982840167 0.46951912035699583 -0.2620574191741056
96904000.0 0.6154070491405019 -0.7855392390766868 -0.349226723348613 -1.1174691943150787 -0.0014782082927310522 0.0027375132944154165 0.44451895085855414 -0.2700170022380264
97903000.0 0.6057300552479402 -0.7873617615209207 -0.36561531190695457 -1.1542418955934584 -0.0009948276582715237 -0.0007617456043607976 0.4523660830293103 -0.2827672809762811
98902000.0 0.6028263174597179 -0.7964637015620708 -0.39410070289564747 -1.1943507112645584 0.003417343384175748 -0.0034065909197070095 0.450629066979959 -0.2798218451904204
99901000.0 0.5916153089246166 -0.8029942897779726 -0.42491355023581684 -1.2256843912451498 -0.00023604429645468134 0.0016580752119838304 0.4618351306813122 -0.30688228003352575
100900000.0 0.5814481587700087 -0.8050679382312818 -0.4579250769515376 -1.2564675199538302 -0.0017879203193579285 -0.0008185185234972043 0.45735547617479727 -0.31069375970225804
101899000.0 0.5726707984298718 -0.8127294761522392 -0.48792122805633864 -1.295399763861332 -0.0021903605461741004 -0.0016847131613019163 0.44447346382411274 -0.31942646653211926
102898000.0 0.5616489726462279 -0.8206639484895366 -0.5262632549829486 -1.3351687294236456 0.0020287218450968213 8.165594346371213e-05 0.45085225215377106 -0.3359243420487305
103897000.0 0.5557594243362693 -0.8272713436965036 -0.5666884984341236 -1.3737861775369113 3.719013468553627e-05 0.0001235597276232093 0.4610149670237373 -0.32573534010006105
104896000.0 0.5473185866312045 -0.8368353819796465 -0.6156822694829786 -1.4101780195848639 -0.00037686180104436846 0.0013684291397794753 0.4337657492271561 -0.3284487190162324
105895000.0 0.5369514521260748 -0.837783422116778 -0.6634783085192996 -1.4527533594937476 -0.00046015122082175667 0.0041250574152032465 0.44966594825706224 -0.3486610392058124
106894000.0 0.525921148995604 -0.8438725167234348 -0.7228043341359502 -1.4886179653501717 -0.0002502096794851927 0.00011942091817147081 0.43220467061465434 -0.3630816233781023
107893000.0 0.5181302065004262 -0.8499915735540121 -0.7712338137245438 -1.5340596131402116 0.00010114674763382755 -0.0003111049608571178 0.43709345021334883 -0.36963116264269535
108892000.0 0.5084934210843544 -0.8539769724962901 -0.8339731907841245 -1.5684492740453375 -0.0001978398684334015 -0.0016341878713153682 0.42623484210487705 -0.3749388190102894
109891000.0 0.4937270330226314 -0.860680214788669 -0.8944099941167755 -1.6079041293634486 0.0008947271860052263 -0.0018544661193397871 0.4396793309424626 -0.37062316129323114
110890000.0 0.48277662836134705 -0.8777446799457401 -0.9804090884760033 -1.6245520813238499 -0.0037185733102590456 -2.5886489624552473e-05 0.42781787882329037 -0.378181203959346
111889000.0 0.4740434791996238 -0.8673793951059224 -1.0279732071647532 -1.6797078636034937 -0.0020360927652845985 0.002052402144453109 0.4162029180799161 -0.3964153047799272
