! Created with skrf 1.9.0 (http://scikit-rf.org).
# Hz S RI R 50.0 
!freq ReS11 ImS11 ReS21 ImS21 ReS12 ImS12 ReS22 ImS22
1000000.0 0.9923990339802136 0.006387331667372233 -0.007308239177386783 -0.055597802539493486 -0.019479040194529156 0.005352634866569691 0.29043430163682216 0.37272370385277537
1999000.0 0.9966163080015406 -0.008726578425615056 0.0028576176521106092 -0.023742022920609476 -0.004442933571780045 0.0017837876624895166 0.25586048878858614 -0.03938193596949997
2998000.0 0.9982766877187402 -0.02476867319298409 0.007462982119981896 -0.012062558412643254 -8.32649763338369e-05 -0.0023488395944660603 0.1779264776973848 -0.13033058982143078
3997000.0 0.9977057093257068 -0.034884957664421935 0.012856413747979594 -0.005044017601561406 -0.002430407752753078 -0.003872250993086287 0.08008540053156536 -0.2130223822073839
4996000.0 0.9939129720095453 -0.03757671643934448 0.012108805338103195 0.0008904645580412258 -0.0020804058810471797 0.002196457782112897 -0.022759031024612283 -0.18814408448628073
5995000.0 0.9917534975589422 -0.0499022563782964 0.009857048696141844 0.0017126465626008088 0.0002196677142981115 0.0011300841316110243 -0.11433369156258079 -0.11147478222303303
6994000.0 0.9904463672353668 -0.06293892899434139 0.005995438656577761 0.006046925096585293 -0.002996741347835527 0.0015069754865202386 -0.14510984648743208 -0.024567773257540004
7993000.0 0.9916381295075971 -0.06850003908293784 0.0033407572940280135 0.010267097267777227 -0.004760649820350255 5.25182957095919e-05 -0.15069224626773453 0.0385674065562418
8992000.0 0.9903569474222331 -0.0748346223225341 0.003517858106320657 0.004684378951610772 -0.003278980247332303 -0.0008397083969144224 -0.1595551591212342 0.062217362179359886
9991000.0 0.9888063264947853 -0.08360068473552142 0.0003880797825587616 0.00584680085589933 -0.0005453497917077593 -0.002624638803303857 -0.138557778721953 0.08390774878328174
10990000.0 0.9869853475269242 -0.09108562068272104 0.005103160727929154 -0.002407450314631973 -0.0072308497023872795 -0.0028760851561081767 -0.1449560751480665 0.11040309458827728
11989000.0 0.9873663506288132 -0.10065113097695276 0.007303794218966388 -0.0007801203033181262 -0.00226836944276381 0.0013753884620845863 -0.12403464377722151 0.12794848030382294
12988000.0 0.9842396612410294 -0.11055805416225342 -0.0011804320939636237 -0.003847215265505773 -0.002606543776852227 0.00642043690801124 -0.12294168426212264 0.18088861777014204
13987000.0 0.9846727856160309 -0.11825138125267748 0.004017562284259424 -0.0070625003291607865 0.0012639266631273446 0.002447410376772922 -0.09163883786901805 0.18427824810013746
14986000.0 0.9831364417545643 -0.12415708968550371 5.355633421577253e-05 -0.0070504187245604925 0.0014926348966884816 -0.0010064628528106568 -0.08163127301218065 0.19345319422964002
15985000.0 0.983395880757087 -0.1357859896859517 0.0008662731932600386 -0.004226796736254069 0.0004840499148372673 -0.0018434915778801468 -0.06764096106936146 0.20708443650574787
16984000.0 0.9799343434013777 -0.14613726003833039 -0.003342040111670758 -0.00704747530377253 -0.0024035095549966713 0.0055703956342022685 -0.07524476125489081 0.22025953128910106
17983000.0 0.980990401036455 -0.14923726439242782 -0.002171958011053651 -0.0030572466690177076 0.0056777809662439584 -0.00039485482290814536 -0.05508852292677175 0.22766428927777965
18982000.0 0.9800458431901895 -0.1609390407006033 -0.003010129994092322 -0.008461021424784701 0.00044694817958402296 -0.0006007315535807387 -0.01938658094063511 0.237630338917387
19981000.0 0.9804130059619288 -0.16597541674806757 -0.0004509416122054391 -0.005073410718753465 -0.001332923239844113 -0.003711006378556021 -0.01771702427089838 0.230715367492576
20980000.0 0.9779539951988321 -0.17762234104031757 -0.0024919513450412526 -0.0017184286985636303 -0.0025020799255806698 -0.006150920223389849 -0.004132676593980918 0.26274964485695806
21979000.0 0.9755695365455361 -0.18703414647953462 -0.00414686335379825 -0.004745608072410228 0.000974773954828535 -0.005831682585291911 0.008194010413205537 0.24540129312574593
22978000.0 0.9733462077886154 -0.19199937011490828 -0.0019429107683979136 -0.004432193831021319 0.0015249747778554909 0.006599081272654898 0.03248441613944642 0.2590666533442104
23977000.0 0.9723298927872223 -0.2003861263520726 -0.009107680458812403 0.0003330360562502199 0.0016002775167106864 0.0058801132312575645 0.03676852691203416 0.2471810832517914
24976000.0 0.9716482314006007 -0.20820692523565248 -0.008723827942775859 -0.003287725254251501 0.0003709021339487582 0.0018578624416453057 0.07438815375167608 0.24636275259021403
25975000.0 0.9707080110771152 -0.21773238688746102 -0.006708753815593349 -0.004716089475854087 -0.007995152584197548 0.022268643811399903 0.07723599911003384 0.2579738131565195
26974000.0 0.9656716697017736 -0.2285934544106383 -0.005711086772692265 -0.002994329211573012 -0.0037357653514592045 0.0005763662326341531 0.09154044523094594 0.25833745992581136
27973000.0 0.9661932947273102 -0.23546871077488205 -0.0002448110423071763 0.0005822764852451745 -0.0014765929546950865 0.0021587511692978496 0.10729109431515553 0.25847970268602605
28972000.0 0.9613119947661006 -0.24674538336475585 0.0015260391753508379 -0.0035096871822563524 -0.0022951230747054793 0.001595642043615819 0.11747753016008124 0.2614486046864416
29971000.0 0.9607344229524853 -0.25199079047289585 0.0007634239684814358 -0.00019274601037908855 -0.0023868985797057887 -6.402218910485354e-05 0.14488364642576895 0.27610250908561623
30970000.0 0.9600368139907566 -0.2584973805988709 0.002382954873097664 -0.0009766386734509835 -0.0016355935847265342 0.002024397671333724 0.1647342400350309 0.2607213543269535
31969000.0 0.9570198004714984 -0.26708309233362837 0.005416026265244212 -0.004091185809809281 -0.0029352097321158244 0.0003994269148524558 0.15168325130841492 0.25207741584383997
32968000.0 0.956279242229529 -0.2752695063568025 0.009446935946390926 -0.0068539864741103025 -0.001639553725019471 -0.0006616214266623901 0.16443801818595616 0.2506984355277774
33967000.0 0.9543963724009138 -0.2845581844016728 0.010409306318554334 -0.010999863693492063 -0.002764622554883588 -0.002008469957835801 0.1840337337059709 0.2379558902049701
34966000.0 0.9496218777034935 -0.2978812469758569 0.012470788164391209 -0.007514349531781185 -0.0004606820194094138 0.0007977930636812183 0.19023141574956517 0.25693906319187065
35965000.0 0.9472575763705697 -0.3047587349388929 0.017285614977175057 -0.01545863538449825 -0.0018361580438330757 -0.0011073534106449904 0.21852879842241038 0.2523178621204958
36964000.0 0.9436949485850716 -0.3133497235757822 0.01817595704532927 -0.013070021100455239 9.910728272473648e-05 -0.0005450664737968748 0.21497373323224941 0.2519582319159064
37963000.0 0.940532893449222 -0.32234991625566545 0.021160288586617552 -0.019857750818787687 -0.003237144139547231 0.003788691032849607 0.22704858287420804 0.23516219929192253
38962000.0 0.938809750450019 -0.3319614998173326 0.02665361522910993 -0.022298170888854524 0.0019741323993208095 -0.004004511840018939 0.24725853155490574 0.22769652793644368
39961000.0 0.9371658194147325 -0.3359138338930283 0.024950837185355887 -0.026285810992432056 -0.0023328178520928083 -0.0009427757057636219 0.25174910406988654 0.22636427891787483
40960000.0 0.9324210920619094 -0.34504625861480676 0.021631592937418023 -0.022463777732159095 -0.0013892096666854245 0.000749977518804245 0.2649267796082291 0.22060285378800704
41959000.0 0.9290904099167361 -0.35794668570298477 0.030683313449778232 -0.030672743652022046 0.0023335290017947774 0.0010099601921321796 0.26638865906460774 0.21923118236637823
42958000.0 0.9252355741188215 -0.36403150789047767 0.032097932748946595 -0.041293301408026235 -0.002640213125317407 -0.0009622075479971515 0.28411276603321195 0.19854182266957593
43957000.0 0.9243627680191093 -0.3691287596829191 0.03178379736547226 -0.04544594460158791 -0.00021127923586578836 0.001954206540163032 0.28323607547020685 0.20445536774620343
44956000.0 0.9193141606555045 -0.3777356018675829 0.035408099606886 -0.05419873894316029 -0.0015130468889873493 0.0020925782760331103 0.2997001431558672 0.1990416686258249
45955000.0 0.9155497123060131 -0.39032059616215076 0.0357285529927911 -0.06094630909982423 -0.0015848926471403186 -0.0025466511408594136 0.3101372032091426 0.18250318272734578
46954000.0 0.9131869627989978 -0.3989987742825054 0.03938882768241979 -0.06673352287707161 0.0009914548389168998 -0.00022107061313811973 0.3238007055351151 0.171343702387808
47953000.0 0.9077033386729145 -0.40708996066477027 0.033633023301826916 -0.07197378296038612 0.0003491759579513742 0.001309009895543093 0.342106125477516 0.17348001440731464
48952000.0 0.9044576317741366 -0.41558164167287304 0.039796140602508114 -0.08164423498910015 0.00015333200870661478 0.0020037431912123854 0.33387465569470887 0.16417519624090485
49951000.0 0.8992866852717024 -0.4235390812168741 0.0407193415403923 -0.08891450096523561 -0.00028878335450612636 -0.0008309080990580059 0.3491999627003695 0.15259108094204107
50950000.0 0.8959020815544871 -0.4300775948027716 0.03938013393517455 -0.09710547418836754 -0.0025876502625148696 -0.001435700574251723 0.3491811831680808 0.1529689587018857
51949000.0 0.8916535085675357 -0.4397839241493527 0.04110425743516355 -0.10580706492155334 -0.0003838612987860989 0.0017709463089645744 0.35949019991817593 0.14393433809827968
52948000.0 0.8897632999174085 -0.44726137302597874 0.044542254775410545 -0.1165388533911863 0.0019660284839072297 2.1491546654425717e-05 0.37513419827595235 0.14653269192865623
53947000.0 0.8823716449091454 -0.4559600048406976 0.043316757140037285 -0.12193608135232585 -0.0007559016488169804 -0.002892856311920758 0.36750384914358325 0.12677003897471364
54946000.0 0.8785974478163198 -0.46531518469812405 0.0476351009159536 -0.13365205209336264 -0.0019253990637680956 0.0028435764818518492 0.3812789922626157 0.11369235887012924
55945000.0 0.8752728795246254 -0.4725904007432553 0.04820944791206012 -0.14591275811355348 0.0020372848329095997 -0.0025906261088193532 0.3911959323342295 0.09961347118358517
56944000.0 0.8728659137438632 -0.4812037365379562 0.05199727716652008 -0.15438376549465327 0.0017385387503320187 -0.0001661986552863241 0.3992563464998224 0.10533528048120323
57943000.0 0.8642566699383365 -0.49122470790779377 0.04973780208746756 -0.16524066780156724 -0.0017852966810712923 -0.001687182627979505 0.39915694030976834 0.10048400514327684
58942000.0 0.8604028995392742 -0.4963626691063797 0.05100814664477302 -0.17760302815443582 -0.0008483864785532769 0.00414031076057498 0.4168008726154882 0.09380256287744795
59941000.0 0.857877873523165 -0.5037572736391729 0.05552588364428683 -0.18504139164017094 0.0017180053627212906 0.0025905489815212695 0.4187242499753216 0.08764656196254574
60940000.0 0.8505230092234382 -0.5120925298259167 0.05055081163039553 -0.1954557898687022 -9.678149970397349e-05 -0.000414734877650831 0.40646766047534194 0.07364459841150717
61939000.0 0.847255375292337 -0.5192130449740657 0.05563799281496861 -0.20220237984537054 0.0010416542878167573 -0.0005610524190438572 0.41465355012301147 0.07279027767760751
62938000.0 0.8403401475847804 -0.5295618658912191 0.05924750683661273 -0.2180868039079979 -0.001009850214518524 0.0032765855532369196 0.43449278184812695 0.05476820415200769
63937000.0 0.8339807676605867 -0.5393618073216331 0.059457398364475424 -0.2373515521288582 -0.0020172249552793038 0.006662885973922892 0.4316691400209788 0.03712404645453714
64936000.0 0.8272339162855411 -0.5444106591093587 0.05982910197303272 -0.25295021736717377 -0.0041597954558219765 -0.0009455371207535068 0.43009115151158045 0.04372536932585898
65935000.0 0.8261815660050286 -0.5538166817165033 0.056907611044464214 -0.2670210015209515 -0.0022845689834794787 -0.0027854744128646275 0.43607728281920444 0.014535987047997552
66934000.0 0.8205294018287558 -0.5596719013266114 0.057516764956434915 -0.28017928897360744 0.003507512011280733 -0.0024009924217334353 0.43085277316779086 0.01116508526766076
67933000.0 0.8183768832683702 -0.5684828047434226 0.05657331736391757 -0.2958119588947199 0.0009592190783045815 -0.0046563830855441335 0.4460807259344488 0.014506652908412488
68932000.0 0.8034946266752938 -0.5607211941142675 0.05583800568871547 -0.3065994653437396 -0.0009978986578397385 -0.0008629738263456479 0.4527404448606191 -0.0029065287988790864
69931000.0 0.8036137942670133 -0.5831841586538291 0.05587205256520992 -0.32786101860886174 0.0007590035073449872 0.002503764552982969 0.4513089589652604 -0.01251568822649699
70930000.0 0.798284729397989 -0.589495577142848 0.052029838402381394 -0.3427211212937162 0.0034877684730833802 -0.0014735590601891828 0.45363454871174413 -0.03647179548887406
71929000.0 0.7938711909341882 -0.5981296342689716 0.04801003170171959 -0.360673274684776 0.003439160014542249 -0.0018386864156711869 0.44822771870440437 -0.048789962972780966
72928000.0 0.787076159275448 -0.6092050108339633 0.04163892537230517 -0.3747831303737264 0.00024470800570429153 -0.0016288273016401183 0.45859383610753107 -0.04212037367852906
73927000.0 0.7778570722762961 -0.6138366408994737 0.03214186169103603 -0.39883148730644913 -0.0036244781549865626 5.603926257724801e-05 0.4533300799312459 -0.06201869116943855
74926000.0 0.7733763163547511 -0.6235395775983716 0.029314159924496194 -0.42201714884405284 1.6061689537966782e-05 -0.00012052913242308504 0.4591392822716928 -0.05956650686958883
75925000.0 0.7685529467732277 -0.627256763639252 0.016900051698496572 -0.4387270617381929 -0.00022204499627086655 -0.0028689343020606222 0.4720716732747627 -0.07577329954255499
76924000.0 0.7619756558128227 -0.6358605405319777 0.00369964431680141 -0.46529750976984513 -0.0012640913188018254 0.003847748196366137 0.4655409428051273 -0.08684785329018288
77923000.0 0.7566223086054407 -0.6443668115643243 -0.007448750438775332 -0.488407423605693 -0.0013311003236920285 -0.0032542485131389362 0.4592769297999621 -0.09227937794285727
78922000.0 0.7498876952851935 -0.6523178049423921 -0.022718089636755593 -0.5170143024884963 0.001693861379138806 0.0018488258266970371 0.4523819407487639 -0.10683258570951962
79921000.0 0.7413222447130994 -0.6558893504193613 -0.042051059671277966 -0.5431173270268337 0.0034381512613747608 0.004604734708363463 0.46167915200909837 -0.1111299216330138
80920000.0 0.737060049072432 -0.666772854905135 -0.05821241161137422 -0.571802234444207 -5.7381402389222425e-06 0.002044052870137071 0.45830407842652005 -0.13567603664103017
81919000.0 0.731757722721158 -0.6728434753848362 -0.07004581545892954 -0.6015622112140137 0.0009321653887803572 0.000706661400107552 0.4607132151687866 -0.12866106990398998
82918000.0 0.7210418120424682 -0.6804895225023776 -0.0854696205503792 -0.633197013640284 -0.0013211270629723273 0.0023411551201238485 0.4730660686104505 -0.14342801750513234
83917000.0 0.7133984362036885 -0.6888301138416728 -0.10399522142324184 -0.661276728139688 -0.00010848076962088802 0.0012646758375681531 0.46696272156733765 -0.16080893320778272
84916000.0 0.7082148558640236 -0.6954967711553379 -0.12105420954378524 -0.7029986899395541 -0.0013247881574531281 -0.0016349151740600938 0.4545529264033426 -0.17357123160004762
85915000.0 0.7015038271787896 -0.6993665387645529 -0.14241182861549234 -0.7279597423280986 0.0010578402846978317 -0.004060982779812222 0.45543998996293006 -0.1655335906774398
86914000.0 0.6952780126616146 -0.7110254182863759 -0.1607377943783917 -0.7671250542430288 0.001452835723094534 -0.0003778352728165836 0.4608419984837113 -0.17880620807605924
87913000.0 0.6857076385620444 -0.7181391154105621 -0.1768559023410691 -0.7944361493789959 -0.0009632457150934728 0.004365140620483842 0.462750959085842 -0.18280595478576006
88912000.0 0.6804769630289585 -0.723750235125962 -0.1920570835962865 -0.8288045681983714 0.0014211494661274205 0.0016632357114749995 0.46661910107597454 -0.2084488962576907
89911000.0 0.6739825578775278 -0.7325441046768891 -0.2077499084028706 -0.8723185285110014 0.0013852781913745158 -0.0006889650281444988 0.46819727087630997 -0.20362533416541087
90910000.0 0.6642328326882394 -0.7381750849134353 -0.22629381830988912 -0.9020611921886069 -0.0028510789117293803 0.003871752970166358 0.4645773642921091 -0.21913626673236203
91909000.0 0.6569479036019499 -0.7417022095929088 -0.24791574110814085 -0.936004729052584 3.208041578476376e-05 0.0018645596406154665 0.4530694972127408 -0.22498239782790608
92908000.0 0.6487757494306844 -0.7503899639844965 -0.26684710591343996 -0.9750520025617205 0.00030703286111579824 -0.0012290010874360718 0.4522780856629578 -0.23268999740652843
93907000.0 0.6435761503858934 -0.7561373194516151 -0.2826408684045992 -1.0064824310043838 -0.0020502680493689 -0.0018365312844155547 0.4577128269275948 -0.26021164576350075
94906000.0 0.6288069739183069 -0.7660505927794207 -0.3023140202877305 -1.0384606289722638 0.00011790073680650792 0.0004420764396079965 0.45709590032781977 -0.24592654792945773
95905000.0 0.6229584630743319 -0.7702643363508831 -0.3310222493765928 -1.0734418214168202 -0.001400707763655868 -0.0030941397167119286 0.46953475607205536 -0.26603959100922453
96904000.0 0.6185513629459112 -0.7774570089578945 -0.3429435990412391 -1.1179163787715258 0.001098945517111856 -0.001473690910884557 0.4477591230440932 -0.2840851423143854
97903000.0 0.6064303020210132 -0.7848697865096494 -0.3757716486664187 -1.150856541900215 -0.00020206354833746524 -0.0011811792563088265 0.4386299354107764 -0.28601830952150264
98902000.0 0.5995566588445949 -0.7903280858194944 -0.394575833538299 -1.1895436131927053 -0.0025467179071666833 -0.0014068159552395433 0.4484249170259597 -0.2871159164801929
99901000.0 0.5911841562365434 -0.7958678494071024 -0.43014510024848984 -1.220396837891764 -0.0018890137015475654 0.000930346883890931 0.4578042310227362 -0.3166328351429793
100900000.0 0.581612586138971 -0.800560955466689 -0.46657870481426744 -1.2483809557382077 0.001414358217242825 0.0009983291199267392 0.45671082136326313 -0.3181175175225244
101899000.0 0.5745233548670516 -0.8074850067179625 -0.48822701307896876 -1.293391706212773 -0.003202963677566708 -0.003348148906707757 0.4450667500698152 -0.3079334643381466
102898000.0 0.5640936526562552 -0.8150632224072708 -0.5273781514292252 -1.3315849183357005 -0.00016929812467061676 0.00014416199899076144 0.4595352153948625 -0.33644424045597415
103897000.0 0.5553764501920775 -0.8223155457985986 -0.5697196531324255 -1.3691531114684246 0.0004745473151591533 0.001984275926139366 0.4580337577126545 -0.3311438070772657
104896000.0 0.5474847871371122 -0.8316826710046512 -0.6156871044452914 -1.4033594991718168 0.00031255616503052925 -0.0031936053447980087 0.4351794528878061 -0.34037987939399383
105895000.0 0.5366665384198545 -0.8341203455164313 -0.6682395224299101 -1.4482359662080782 0.001188419843884471 -0.000318280029372893 0.42664265607128843 -0.35994236900014465
106894000.0 0.5253484645353452 -0.8418573560576371 -0.7250195641166266 -1.490472225615807 -0.00011334838624150785 0.001735773739864518 0.4267534867977772 -0.37103255590168827
107893000.0 0.5212045963636229 -0.8466299559420472 -0.7782724917978429 -1.5307717094037165 0.000752316650327834 0.0001582127329539489 0.4317134102433927 -0.3786898792693305
108892000.0 0.5087025077716176 -0.8504301452158591 -0.840073780625375 -1.5665732133883143 0.0034610120454410895 -0.002578483940285781 0.4303060037320091 -0.3691948103050585
109891000.0 0.4974878117336762 -0.8585217427627784 -0.9006254124410317 -1.6053034034927545 0.0005686995979565889 0.0010972935572694364 0.4400286464007318 -0.38119559430132416
110890000.0 0.49009168701629785 -0.8700133110582384 -0.9781420717932185 -1.6282548688359786 0.000765132152483611 -0.0005109741133098585 0.42697889583223125 -0.37636605533162604
111889000.0 0.4773205785134893 -0.864429337803587 -1.0320065793143338 -1.6717982739110389 0.0005123265963787044 -0.00043117194282909024 0.4187078198175334 -0.3932123323659215
