! Created with skrf 1.9.0 (http://scikit-rf.org).
# Hz S RI R 50.0 
!freq ReS11 ImS11 ReS21 ImS21 ReS12 ImS12 ReS22 ImS22
1000000.0 0.9826450601178741 0.006213757088083893 0.0034155644848349815 -0.047271948685735754 -0.012866842901963774 -0.004479845602002867 0.3428151307487773 0.2853835747388044
1999000.0 0.9953489758203079 -0.005592978677965509 0.002579634047922795 -0.026344907148951907 -0.011334501968027719 -0.006144703827335843 0.25990481697109874 -0.05956586079609398
2998000.0 1.0028084765275833 -0.01768704057969467 0.012590910802599668 -0.011468740528976099 0.004385104982722632 0.00461949350930393 0.1892836851869109 -0.14082018462941454
3997000.0 1.0002721560065657 -0.02534308720709831 0.012365350133908538 -0.009647983841235854 0.0002258627835620814 -0.0006917098567301093 0.09201750974026024 -0.23917417446800376
4996000.0 0.9973655964534386 -0.031123978710418575 0.010636780887009539 -0.0014749114014572342 0.0027421404479617746 -0.004344744878569051 -0.01792707118487388 -0.21579090231585868
5995000.0 0.9991644294061549 -0.04664636890566107 0.010670102283282815 0.0021520090374305754 0.002304118230045165 -0.0014837601969231878 -0.1215580570151878 -0.13302323478134317
6994000.0 0.9974169711811068 -0.057404326308363646 0.0062126406525771635 0.004797887615237106 -0.0038687757947048437 -0.0008311224319857482 -0.13991779864916723 -0.04781659679160679
7993000.0 0.997727533997209 -0.06609954474168508 0.005633605797850092 0.0048858000288314945 -0.000871851056557324 -0.008283918008987104 -0.17458455694248853 0.033095616365841844
8992000.0 0.997109032902449 -0.07211083057511584 0.0016845585665078418 0.008535982277278054 0.0005594487781051493 -0.0026060902635581633 -0.1463232310188086 0.05355199330992607
9991000.0 0.9973982282792325 -0.0811409850150214 0.0011232671159454987 0.0023390255533310192 -0.000982972016220767 0.0009063416044841372 -0.1448463414109216 0.08635148989398354
10990000.0 0.9972589363117738 -0.09149741529851754 0.005953391753262289 0.0040520101089568565 0.0025184775311628913 0.0059243626259309675 -0.15410825699561556 0.10353579898167255
11989000.0 0.995873356270585 -0.0975894353419493 9.6970576096e-06 0.001297433360053597 0.0008004751185237863 -0.001047364890286728 -0.12816664564774205 0.1397412666087084
12988000.0 0.9956093598607476 -0.10832786665799607 0.0011686492237307717 -0.005941908596593645 -0.0038737290012126353 0.0004051739843439601 -0.12298262898108565 0.16718684569337577
13987000.0 0.990582835224173 -0.1160306041061545 0.002446148225953047 -0.0008556916500046979 -0.001542758158176368 0.004023368823446375 -0.10971404472996815 0.18811665922769988
14986000.0 0.990809251173466 -0.12230693136971289 0.00043931763590544093 -0.002395581679363794 -0.00020785326675235266 -0.0008247717369105074 -0.09769489429223067 0.2020209002584383
15985000.0 0.9952412220288909 -0.13252816890170854 0.001474123210729224 -0.006217494560479275 0.003994570397786017 0.004445685074364992 -0.07393485984220913 0.219658935202083
16984000.0 0.9914849137283822 -0.14304977899326746 -0.0050605244130319145 -0.0037445870606527486 0.0016335807409441263 0.0034883006136106507 -0.06113706002916029 0.21483759189024823
17983000.0 0.9897213175766169 -0.14913109172940886 -0.0022071049412254744 -0.0018773399421570128 -0.0046754523083710545 -0.00038085686043023265 -0.057528899456829256 0.22605855171060446
18982000.0 0.9868262537901743 -0.16032066220063593 -0.003551179522744157 -0.0049586489764090564 0.0019519948029486864 0.001805930518669342 -0.021394751443706183 0.24211101784855235
19981000.0 0.9875491530239097 -0.16503703910261652 0.0007075239554043881 -0.006229976792288551 0.0033312368886470214 -0.00037182467402972666 -0.01920042696155585 0.2255275586295031
20980000.0 0.9858446002891171 -0.17406855487936562 -0.006436820250072834 -0.007624991361585422 0.001481988851251297 0.0009004027819902944 -0.005248196919120802 0.25681460200293976
21979000.0 0.9847099392373392 -0.18191250217947047 -0.006819840690821284 -0.003039442766300801 -0.0035924478508110474 0.003287373827267457 0.008292753591743016 0.25110618090337133
22978000.0 0.9811941276279033 -0.19308905454353922 -0.003370393820501782 -0.0018822151967092925 -0.0012065752970991021 -0.0023111685762034354 0.03009009699617486 0.2540125509584138
23977000.0 0.9829817105529126 -0.20087302258011083 -0.008520964314265992 -0.00047698860972404054 -0.0037953431521488227 -0.0023354297651689373 0.04484809800696276 0.2532149048723591
24976000.0 0.9768751835710284 -0.2089224969769159 -0.0041141805451422545 -0.0025366434000412795 0.0023311683153302656 4.020477178231078e-06 0.061010627848277495 0.26256695277692316
25975000.0 0.974945365806391 -0.2149618606326304 -0.004071234284264611 0.00421643352457126 -0.02426165648302539 0.0182579213844203 0.06838010351879578 0.26466367064770857
26974000.0 0.9724027363119374 -0.22750071745393802 -0.0023517628170231586 0.0008040424967446048 0.0009958012729348706 -0.0009481747097773127 0.08611643999947097 0.26749421214638924
27973000.0 0.9739750830150422 -0.23298745642382007 -0.00330567436125457 -0.004949182887077845 0.0023048182816881087 0.0027155304587679133 0.09830390468477247 0.2573985369436415
28972000.0 0.9690282793602423 -0.24263418345552265 -0.002102121621214415 -0.0030902780637707796 -0.003474813069828518 0.0013255981194347365 0.11710317366719714 0.2520745349892969
29971000.0 0.968041867616969 -0.2530710180673619 0.00023234001982831137 -0.004104713289289543 0.0032091975127896025 0.0028668120183934333 0.14765783995560502 0.26990696198068864
30970000.0 0.9651431259533131 -0.2573675282918712 0.001979109118856448 0.0024386652132999424 -0.0005947355000354789 -0.00262667237646543 0.1657251801207001 0.24966852508668672
31969000.0 0.9640134787520571 -0.266859095824664 0.005289678323835356 -0.0031729155527600132 -0.003372335836748895 -0.00031441742047814655 0.14817401109803094 0.24563641956379473
32968000.0 0.9628789978671443 -0.2752249309571428 0.00968763259117315 -0.008405316237295285 0.0018021353605277817 0.00030185698921078905 0.16301001329901801 0.24922996458944088
33967000.0 0.9597794985203146 -0.28496978457038796 0.014078979851416581 -0.012513491651549778 3.693753749178969e-05 0.0010797425064166238 0.18391244123219605 0.24110208677034306
34966000.0 0.9557433127891279 -0.29490262118852545 0.013230610215159248 -0.01463100769272314 -0.0014787199807958003 -0.001030702538464065 0.19695934707659765 0.24704429353692897
35965000.0 0.9543680811391154 -0.30070255795859624 0.02104421547114349 -0.015486942186696667 -0.003956938707169029 0.00040254082442963654 0.20971630675023778 0.24763150576620935
36964000.0 0.9515637520747082 -0.3091727267119519 0.01440823758139491 -0.014545775971672304 -0.00029262837420247203 0.003152697341121031 0.21258295182826004 0.24960936911899695
37963000.0 0.9488192577225593 -0.3176074151713271 0.02171255059128027 -0.02202668162300202 -0.003749250863195044 -0.0006138375436181949 0.2269382800893343 0.23651740065816482
38962000.0 0.9452434370737932 -0.3293319130997206 0.026092749282616748 -0.024328731009127937 -0.0016690704599049185 -0.00023793120676738342 0.23584295954599654 0.2345498095705589
39961000.0 0.9417385229586587 -0.33645934064704447 0.030089412715135235 -0.028158806811693176 -0.001297321120102115 0.0019250208837924311 0.2542032842108356 0.23017305458811882
40960000.0 0.9403405316529163 -0.34103831049269306 0.023635449579989375 -0.025349251116981348 -0.00010480951629625472 -0.00029335551912780696 0.27361373360975355 0.22505466550180828
41959000.0 0.9363798737056376 -0.35231713011435334 0.029627241737348292 -0.030321102527558718 -0.00035841390597927524 -0.004620052209036677 0.27674448036400057 0.2075299890185978
42958000.0 0.9318298759423292 -0.36005686160841777 0.03252911010761753 -0.04057469176292649 0.0004911568007159824 0.0010758824981286017 0.2845804601812516 0.19811583507641956
43957000.0 0.9299167587019745 -0.36698175003971734 0.03529094788881434 -0.04807435714316928 -0.00034305822615160914 -0.00021631766418790538 0.28787117548671265 0.20764653177189912
44956000.0 0.9268448306984128 -0.37643087890956917 0.0335375658013164 -0.053963746956010875 0.0032230149514014387 -0.0030251696064919707 0.31121191173862084 0.19106450625899318
45955000.0 0.9230715495777638 -0.384466534727154 0.03707717175087362 -0.05587063107712512 -0.0022001517320969534 -2.400519262131512e-05 0.30932292159714536 0.1865783384603
46954000.0 0.9183540298394194 -0.39406248667273414 0.03645106197161619 -0.06475616447869188 0.0026165539369821956 0.0029122474986619826 0.33318810157032763 0.17427970048448277
47953000.0 0.9165432685333262 -0.3995882452103002 0.036568243664096084 -0.07050441807477953 -0.0006076120064246923 -0.001987229690862272 0.34031638171148254 0.16651685759647444
48952000.0 0.9103237873131831 -0.410799654590632 0.03983038285092401 -0.0802104230558524 -0.000372523163407821 0.0034104227367850793 0.34303726012362556 0.16664448398574747
49951000.0 0.9077334731058112 -0.4181958255808655 0.03751982295384987 -0.08761933252525815 0.0037435053711934803 -1.4382472477421791e-05 0.35674248828144733 0.14231843673874947
50950000.0 0.9054821143194608 -0.4253983720650079 0.03914142655678995 -0.09768405570833666 -0.0005454768831336221 0.0037715916977386125 0.35248204521427884 0.14622380411396455
51949000.0 0.9013989881087048 -0.432810915923574 0.04010978201265254 -0.10582160567345165 0.0030923538687874417 0.002970362757289982 0.3634596009350355 0.13973328926617576
52948000.0 0.9004244160251486 -0.43987869917713696 0.042747129407081086 -0.11079359763065855 -0.0009925230314240816 0.00045409832672754004 0.37778457805682875 0.12957651912064894
53947000.0 0.8920234693646403 -0.45005471487328147 0.040996727284775054 -0.12325398993743683 -0.0026982003125016105 0.00020454903069242532 0.3758969884550785 0.12393823975836754
54946000.0 0.8879902718035841 -0.45881411800662447 0.04508106236724908 -0.12882491721480047 -0.0006589579057770398 0.0018878673496522309 0.3951981823143369 0.11943406231659419
55945000.0 0.883773440062057 -0.4653576788846163 0.045104902102288055 -0.14000939045504412 0.001329949651221552 -0.0008013975074029569 0.3883119630085983 0.09271236585752156
56944000.0 0.8814518446479518 -0.4727583600812607 0.049914038267209304 -0.1517557265503334 0.0005145135366566007 0.0019591710889266707 0.41078743461096157 0.10564843023440976
57943000.0 0.8781145600224531 -0.48320784218447194 0.05029899845472948 -0.16189331716059535 3.5921200473471635e-05 -0.0028649232036446538 0.4030954204860638 0.08850945525430289
58942000.0 0.8702064820850599 -0.48786050903218664 0.05301497013760263 -0.17383209066610544 0.0001264856289964939 -0.0007571456029965249 0.4309530002356786 0.08702255614418108
59941000.0 0.8702994794339034 -0.4953674859203787 0.05344224146919718 -0.18162131783077673 1.0751487513409473e-05 -0.0003639660008130038 0.4318094709809596 0.0741509874285823
60940000.0 0.8605209843013347 -0.5038842870759735 0.04949378894156536 -0.18610609923970195 -0.00399959469934841 -0.00213930036559715 0.4263602075723378 0.07657280440883094
61939000.0 0.859364630293344 -0.510788587578838 0.05027337406090677 -0.19445044312567702 0.0016768166976241154 0.0017803173650135968 0.4285623431977476 0.06122898958088404
62938000.0 0.8509145419554554 -0.5213202292696281 0.055829384923274314 -0.21166742850599113 0.002610420773886652 0.002074917478976216 0.44876034952600585 0.04260364932417288
63937000.0 0.8481737158957553 -0.5295031090641363 0.05434592183261813 -0.22936521882197605 -0.0012908437274119229 -0.0007801988023255952 0.4346525588813713 0.02981864013880662
64936000.0 0.8410106982693408 -0.5356133154118891 0.05732562578417552 -0.24755274308739275 0.0019725536056524277 -0.00135163768493173 0.4401524525593311 0.04268528771562603
65935000.0 0.8379318422405582 -0.5448281686581048 0.0544790172031246 -0.2613858476980566 0.0030034548885351535 -0.001722079445244699 0.44317216078097477 0.0132191390193113
66934000.0 0.8353281770757207 -0.5501581470898647 0.053166101438029544 -0.27313674998192966 0.0024309412015283676 -0.0013261193849770155 0.4379269109505182 0.005236791775208343
67933000.0 0.8321148701318043 -0.5577686104340494 0.05681615281941034 -0.2858367527072252 -0.001013025474343988 -0.0009442413752500672 0.45184417199518634 0.001773154687117251
68932000.0 0.8146042253536364 -0.5542281234807576 0.0537313710167422 -0.29638104938086235 0.0008767323053530219 0.0008212989929443331 0.45405107983063825 -0.02397168430964729
69931000.0 0.818695606923137 -0.5736302531507177 0.05427742600405949 -0.3147942295427028 0.0004731298787914975 -0.0014738541435958795 0.4505145851624685 -0.025738697991525106
70930000.0 0.8127354972723966 -0.5804372150313851 0.052827528107239306 -0.33025510237705463 -0.003327366427583074 0.0011003553194732375 0.4481706760576925 -0.037155333800557286
71929000.0 0.8073398878605034 -0.5907514658190784 0.04831040396273722 -0.34940705124906557 0.001871539448316072 0.0045498732996751435 0.4555699693817634 -0.046150630315729683
72928000.0 0.8018330752760321 -0.6010412906434808 0.040939870905168624 -0.3657681430352815 -0.00036966183190245656 0.0022549139701690444 0.46206755158122037 -0.05315578391460552
73927000.0 0.7964385622079876 -0.6038461061347282 0.036958093123819084 -0.3860588622191454 0.002649407411999436 0.0050235318152513425 0.46841007082460884 -0.0582902536492591
74926000.0 0.7909462278509597 -0.6152466361714931 0.03191424393175244 -0.4036180038729128 -0.0012861738708790911 0.0012655690824162444 0.4714440932345643 -0.07349341415555143
75925000.0 0.7833205084993371 -0.6199331463902701 0.020849443744136803 -0.4229799819224576 0.002938323778721996 0.0026552633034591672 0.4756382357831941 -0.07456145947505786
76924000.0 0.7789671797578774 -0.6271025259597178 0.010982051968352625 -0.44302799484660604 -0.0007496278924267941 0.00439847623705753 0.4727929413677899 -0.09050031651764313
77923000.0 0.7714444644390818 -0.6363715986523112 -0.0037409527146015707 -0.4722731680059721 -0.0035151388812229532 0.0012153980356717073 0.4625755147445996 -0.10868898678692651
78922000.0 0.7660206784735668 -0.6439560871487251 -0.015474361951995232 -0.4959583509658736 0.0004261783174094518 0.00038104621831222595 0.4730825648796741 -0.10916928718219687
79921000.0 0.7583688610801388 -0.6478292296716885 -0.035234562297125176 -0.5205795191452887 -0.0036187136426972595 -0.00011634336516420516 0.45788786779883234 -0.12132622922780963
80920000.0 0.7540895172705963 -0.6583797604206854 -0.051985621858946014 -0.5487437689903172 0.00047933774423179 -0.0014611571792876286 0.47272934979870646 -0.1300025333595165
81919000.0 0.7513892763171779 -0.66344576586225 -0.06800829130141078 -0.5793493576662206 -0.0014409560338428406 0.0017576875550085434 0.4682042309302669 -0.12958647067112095
82918000.0 0.7379626760186953 -0.6739295516627285 -0.08176057409773921 -0.6084741615847037 0.00036866951722927977 0.0029364622021723573 0.48255037261206385 -0.14716430303901265
83917000.0 0.731550900553441 -0.6811000836334183 -0.10660631337056059 -0.6353693067370645 -0.0030490972190682624 -0.0009057465840946846 0.4718995801571023 -0.15192494524781153
84916000.0 0.7271886729615552 -0.6898508196337902 -0.11821199429664499 -0.671520923246186 0.0019364958807017213 0.0007598712709967816 0.46815416405765736 -0.1779286791399184
85915000.0 0.7194896749250808 -0.6936865657890469 -0.13839273545810352 -0.7028202035673302 0.0012461693325914044 0.0013398169369763517 0.46967300813643864 -0.17991648262754809
86914000.0 0.7137036500500437 -0.7032866192693026 -0.15730651745701846 -0.7396298108990367 -0.0006514346986601983 0.0011897073737648668 0.4601211123812645 -0.18091658134352356
87913000.0 0.7073457869039437 -0.7089961520588394 -0.17026894544989837 -0.7684534074518634 0.0017534030406742098 0.0005231351759253394 0.4565116418576329 -0.1861422346176395
88912000.0 0.7009199683860181 -0.715628557438664 -0.19349870664294316 -0.8032672972382905 0.0018388277561044194 0.0005902330833119956 0.4619247679078326 -0.21164863750398913
89911000.0 0.6918901693490678 -0.7245564116113515 -0.20700484827710433 -0.8426786550582451 0.0007810098874745543 0.0008708791561341814 0.4814399129129972 -0.2261705431821873
90910000.0 0.6849525085898759 -0.7286458346422053 -0.2215276003354255 -0.872351342326948 -0.0036433058977552316 -1.591704325385958e-05 0.4577531604454782 -0.21333661363014156
91909000.0 0.676153873589186 -0.7364692513848349 -0.24485482535441466 -0.9007938611861535 -0.00017632625675904567 -0.0015266583286991044 0.46023999767807716 -0.23984054825505113
92908000.0 0.6681924301227626 -0.7436860845320672 -0.26621093391990996 -0.9392164340738983 -0.0023977948508131335 0.001563275303461941 0.45614352387247525 -0.23425150861883604
93907000.0 0.6625278143979794 -0.7491878242350423 -0.2760348081586837 -0.9700494171395593 -0.00026721117021230963 0.0007758514696278974 0.46450735167162066 -0.268175158170956
94906000.0 0.6483488939254931 -0.7565647212965918 -0.29944549942235776 -1.0053202503504517 -0.0005483528028227387 0.00041679541114370076 0.45817562109533183 -0.25274077297481484
95905000.0 0.6446172127760852 -0.7635417997744404 -0.3194020596374521 -1.0411174806372012 -0.00028597938795328 0.00034429087631662183 0.46041373128589624 -0.2676875841057977
96904000.0 0.6352815229552907 -0.7712988297907669 -0.3404774091633589 -1.078391445788776 0.0044337569352281316 0.003209979759985481 0.4499679493379689 -0.2837537481877253
97903000.0 0.6272997956554978 -0.7756727496383838 -0.3593613373171187 -1.1144825287597164 0.001620098141569683 -0.0005854855693750786 0.4472106273019989 -0.29947256512267145
98902000.0 0.6218628698214906 -0.7854031664014219 -0.381457486451972 -1.149433444811288 0.0013193984007430035 0.0014913545408844957 0.4495213242740904 -0.2964536065708563
99901000.0 0.6113209879876347 -0.7886956962680994 -0.4027994930663897 -1.179938129946422 0.0020545231821881738 0.0018641561322891864 0.4576735954081989 -0.3231991464192508
100900000.0 0.6025481382466279 -0.793187663910958 -0.4399360623942382 -1.2073992415792105 0.0006334665819003577 -0.0005440691004463288 0.4604212708699369 -0.3178198128570845
101899000.0 0.5939033004969976 -0.8030027500947758 -0.4632909155249817 -1.2470539994246537 -0.0011057315957066864 -0.0006339177855849647 0.45172678309183983 -0.3217394396238948
102898000.0 0.5847428022437602 -0.8083495673742361 -0.5005579937816936 -1.2892945131203521 0.0027506017110789436 0.0034443785681614017 0.45111774702842283 -0.34319948673184225
103897000.0 0.5764016016845435 -0.8153132149704756 -0.5358330284957513 -1.3198362480766588 -0.0015533079986565302 -0.0009317073351297849 0.44884668278561846 -0.34090380607195697
104896000.0 0.5697478973589774 -0.8252649340345343 -0.5841862005542803 -1.3545288060838552 -0.00069958573708513 0.0018785027373490982 0.4405350204719761 -0.3524360846618229
105895000.0 0.5576497749764237 -0.8276681536212108 -0.6305268684743607 -1.3961267724318291 -0.0006011768743370002 -0.00039449142190343603 0.4365747631597636 -0.36135740974967745
106894000.0 0.5479670018619217 -0.8345085201485103 -0.6871797567012582 -1.432070902197583 -0.0021778513852168183 -0.003100926948254213 0.43470518929078694 -0.3745509336641162
107893000.0 0.5405198050288558 -0.8413999009416199 -0.7370921005555451 -1.4679258664263717 -0.003818875023086842 -0.0022697280537640357 0.4290590548011347 -0.38351038892467676
108892000.0 0.5344754058794973 -0.8433814687162308 -0.7908141102271328 -1.4998219602975107 -6.017413039921808e-05 -0.004038935809513033 0.42052078948955035 -0.38210983739245097
109891000.0 0.5199900146255679 -0.852635697753561 -0.8461163756099305 -1.5406071159801633 0.00034433838129889813 -0.0022415377041115 0.43281338020965815 -0.39390255115890005
110890000.0 0.5108236275824861 -0.8709118464141303 -0.93597468653776 -1.5629550567308526 0.001992078006846532 -0.002572434688702193 0.42255288685904047 -0.3887148964718113
111889000.0 0.5020519341130679 -0.8599978758586139 -0.9690889180004123 -1.6096416366100843 -0.000301460878067024 -0.0028116606902675967 0.4121268412864178 -0.4097852322720766
