! Created with skrf 1.9.0 (http://scikit-rf.org).
# Hz S RI R 50.0 
!freq ReS11 ImS11 ReS21 ImS21 ReS12 ImS12 ReS22 ImS22
1000000.0 0.9841859593511804 -0.0018790123142403733 -0.004365830565775727 -0.052878484539213476 -0.0010451804939896228 -0.018340184081992842 0.32991720326028395 0.3167329200350234
1999000.0 0.9916730304696486 -0.014430765485705665 0.007534108408083174 -0.024776488762642507 -0.007130777627320145 -0.003593894204913449 0.28570273658086726 -0.08369445000574159
2998000.0 1.0009010762281734 -0.018706718537586854 0.009202377999678688 -0.02261850600236739 -0.004779814666362767 -0.0034840035364108604 0.1906503701266615 -0.16368386677546135
3997000.0 1.0009449530933994 -0.03203273366187814 0.010969163204561724 -0.004499570717445075 -0.005778419822216668 -0.00017660548444060713 0.10691380872763345 -0.22940688657786845
4996000.0 0.9979440867457604 -0.03358593734973188 0.007566967323216983 -0.0034542667670384723 -0.0004169013229496367 -0.0023497695880549314 -0.02213441224735848 -0.21762929949653836
5995000.0 1.000014509996037 -0.05116058359270304 0.01202158292759784 -0.0011582797431053224 0.0012193152795898809 0.0012316934645270517 -0.11796712016658614 -0.12735336374671155
6994000.0 0.9982193611033489 -0.05495139886902008 0.008775155128254834 0.006063018270759448 -0.00492996449828817 -0.0006624765502923638 -0.14335803002371772 -0.0386223391766844
7993000.0 0.9984154571343699 -0.06828740831315358 -0.0027233860113287872 0.0020032270912951127 0.003077155206709226 -0.001391028978426511 -0.16941801270278353 0.029247880296518616
8992000.0 0.9964933777428739 -0.0716363357232062 0.0018675810466827801 0.002157812352585658 0.0004005352832482973 -0.0019004299980526003 -0.1792013135109954 0.06245167419448359
9991000.0 0.9957075657764992 -0.08388838355033651 0.0018755605311648379 -0.0009934906218161657 -0.002487983299340485 -7.917992478427464e-05 -0.14803755480302191 0.09011645397430085
10990000.0 0.9974697630263522 -0.09371953772908255 0.003862003502613711 0.006548687194514595 -0.0017014017726659906 0.0005363413919604044 -0.13733614467973312 0.11471367903396443
11989000.0 0.9951726094008257 -0.09898766988040222 0.0011332135800013168 -0.001374441869596746 0.00017356953025235203 -0.0007251334626294513 -0.13557526816655394 0.1371446924476736
12988000.0 0.9951317752562228 -0.10954222860796028 -0.0024711340075463765 -0.003268333411656128 0.0011114449840200747 -0.001507388731381728 -0.12138407062120292 0.16677098974469995
13987000.0 0.9915173660395121 -0.11925669107881684 -0.00032111748353532473 -0.007124602671077802 -0.0035965961286016546 -0.0003424562189194258 -0.08946942303159112 0.19360116988769513
14986000.0 0.9909267910115802 -0.12547968874878496 -0.0017305778461002065 -0.0027925671307754037 -0.0035140483114566596 -0.001179351007312327 -0.09462172877203041 0.20533523664532669
15985000.0 0.9936445730640322 -0.1337390372194936 0.0007231425057975894 -0.005534202579343548 -0.0035945507839439503 0.0031453877224036997 -0.07062362519773904 0.2222429280695772
16984000.0 0.9901155761589961 -0.14538484829011247 -0.003910052134991755 -0.00221697525801404 0.001664147184210421 -0.0002859592864876522 -0.07176834324561306 0.21348715536394658
17983000.0 0.9886396038581299 -0.1510498987627598 -0.0013213136827677414 -0.005672877740841129 -0.005061931314460093 0.003789840013798513 -0.0452720102518018 0.21779789554382925
18982000.0 0.9852892351883442 -0.16286586510367293 -0.0014229412288595726 -0.006299959229908683 -0.0010739604100204925 -0.0010644921227555494 -0.02325090706251467 0.2419088591763028
19981000.0 0.9866531033987324 -0.1643371990714525 -0.0058527920337393255 -0.004145694876205616 3.023550811537445e-05 -0.00115444522149641 -0.025353421145588625 0.22939242802720067
20980000.0 0.9854718651586919 -0.17744176010919474 -0.010888908548268544 -0.007645570602796382 -0.0008791298061494364 -0.0023925776146114168 0.0034149995102027474 0.24891569987066972
21979000.0 0.9838831926393611 -0.18545661321931275 -0.00459891949728565 -0.00760819532543598 -0.000832564515926024 -0.0029637190735251656 0.005204851830598241 0.243303773853645
22978000.0 0.9822444809626271 -0.19273941491158292 -0.005606603751780198 -0.005400923225766518 0.0025020903975232233 0.0007290384184815494 0.020738656644331478 0.25041522807105504
23977000.0 0.9804001907972574 -0.20219505917232808 -0.005559796218756876 0.0025854561860330855 0.00026909053217492895 -0.000877176537920853 0.045189718222357546 0.24787062727960313
24976000.0 0.9769204352966374 -0.21175217492349027 -0.006840815213062273 -0.0034915617275419553 0.0005636628999142003 -0.0011188658608771267 0.05939121356290128 0.24648908072921982
25975000.0 0.9726531244627467 -0.22671949430707727 -0.009860140020018376 -0.0004848995850245872 0.018763263344351813 -0.022449532486680066 0.07103002322023111 0.26015154306352567
26974000.0 0.9740914429955893 -0.22785998578901598 -0.006300595584451782 -0.001109630837574238 0.0012198991173080105 -0.0014732801203067721 0.08300291968468526 0.25773534313356733
27973000.0 0.9719944639624527 -0.23382391871736324 -0.002665382109849062 -0.0013439003822815752 -0.004000831905423385 0.00086298872957373 0.09931597144958702 0.24767934511182965
28972000.0 0.9682767078388733 -0.245090492322149 -0.001044565973504789 -0.0015964412261953121 0.002399005258257807 -0.0012409318713577277 0.10800093722353138 0.2579031640496852
29971000.0 0.9680790328643498 -0.25339017280160075 -0.0016044327741584913 -0.00381329041796007 0.00042969885567049047 0.0018003627556110657 0.14587749626024965 0.25868039610654847
30970000.0 0.9657966663500269 -0.2597280991867742 0.005963577492904237 -0.00255100791514374 0.0026731612233008195 -0.0014067182372958938 0.16260606560134822 0.25513944910509245
31969000.0 0.9638834058483079 -0.26902344377259435 0.0031852719816788393 -0.005260500945502411 0.00043233070309439003 0.0010682388230498414 0.1471754554201009 0.2515460901602048
32968000.0 0.962336198423279 -0.2764496671588366 0.005431487406160849 -0.007285533124323579 0.0021297166785206475 -0.0011651679538293956 0.1602754167838766 0.2462063009343072
33967000.0 0.9602618511593147 -0.28476773524064486 0.010541144403276968 -0.007709548167672517 0.005017630983336774 -0.0019798447941338313 0.18764564842197773 0.23783564159582038
34966000.0 0.954165950106189 -0.2967594550439018 0.012977030820586708 -0.012738035938932763 -0.0005951528025724121 -0.00010995010082834577 0.19214311455425206 0.24622171388078581
35965000.0 0.9527975112331637 -0.3036440837821305 0.01670885426662323 -0.01145360714651706 -0.0007100504004207801 0.0006445762948187668 0.20588736948074948 0.25376036082945924
36964000.0 0.9487515725460982 -0.31406775350440835 0.016750645624414216 -0.0166267864810159 0.0021920074858529127 -0.0026266206654111273 0.21933891965958463 0.25737046438075656
37963000.0 0.9471368523559576 -0.31966192659315723 0.020735614265114735 -0.0200299035019735 0.0010743648328520163 -0.0013378481925954303 0.22917207275956064 0.24200721707644718
38962000.0 0.9449945281686336 -0.32822456791553817 0.02541238082422041 -0.023331952312114705 -0.0019257382569065095 0.0005052859530233133 0.242695078682332 0.23027931717020675
39961000.0 0.9405799560922502 -0.33743136318590883 0.02993539674503074 -0.03017891087112991 0.00020435235314038717 -0.00026464432706556644 0.24381332573071215 0.22657982821321423
40960000.0 0.9384147385661842 -0.3450309720094128 0.022378995290085926 -0.022181983080110577 9.844986384340213e-05 -0.003444141486355243 0.2781158472701175 0.22648594485580037
41959000.0 0.9353191885438303 -0.3543303481819063 0.029125401296162576 -0.033820651541587594 0.00015786686049474544 -0.0015395646010159928 0.2626863351612694 0.20760736769089205
42958000.0 0.9306280177458397 -0.3636062428045605 0.03310281927235472 -0.04070878924350147 -0.0012163505200565915 -0.0002545730027360707 0.27909397870631497 0.1992426939962392
43957000.0 0.9299512145894145 -0.3676339170365983 0.033788393679272666 -0.05021436104676119 -0.00023581807712240094 0.0009482147988890984 0.29032062863677566 0.20839403980907759
44956000.0 0.9256469159591768 -0.3766909659671503 0.036083031573754726 -0.050772208290829936 0.0010557739531274893 -0.0031613375641638707 0.3054187474964816 0.19601962099667578
45955000.0 0.9210835648133879 -0.3855272064843952 0.03638365066911642 -0.06256086589880053 -0.0017055095065508694 -0.0012354246222107646 0.3094722983604787 0.20081128880738466
46954000.0 0.9194390776374498 -0.39396699177240174 0.03743187244488325 -0.06341276077707064 -0.0010446362062963184 -0.0029438632060771503 0.3327281409523012 0.18086480915707617
47953000.0 0.9167981565655468 -0.40151343717242516 0.03861758817254904 -0.0755245922157505 3.3131510193296524e-05 -0.0009243135005542111 0.33993989231720734 0.17096142638725698
48952000.0 0.9085151993304834 -0.41379571158422124 0.039860817946939166 -0.08101615296402916 -0.000570397402732044 -6.871912030013799e-06 0.3463105489836014 0.16539392249619259
49951000.0 0.9057613874308136 -0.4202326191615873 0.03662520317071756 -0.08770201712859096 -0.0008026118821085503 -0.0031071866264455648 0.35650221029070256 0.16036190468388586
50950000.0 0.9035332535369331 -0.4280695079002521 0.039542171942878374 -0.09709667893357549 -0.00593980224458796 0.0008355974204052037 0.3554350260702158 0.1516760177070357
51949000.0 0.8995034043784165 -0.43559556227840374 0.04015668751257226 -0.10606379065250131 0.0013189944861114542 -0.0003377883449196863 0.3571809773773377 0.1425702776730471
52948000.0 0.8946164492641936 -0.44464260724758103 0.04267300452574919 -0.11209517825127623 0.000619247095974797 -0.00033491469341129335 0.38148168093340923 0.14896091517314383
53947000.0 0.8922702810891627 -0.45121960026362606 0.04719033241654344 -0.12499531300675289 0.0023599473804687874 0.0026896237699385594 0.36749927583779296 0.12486567050914266
54946000.0 0.8856012488681486 -0.4615179411173258 0.04695983372703059 -0.13185549194208654 -0.00039978052107778587 0.001237408613632447 0.3898613243077739 0.12358094314654147
55945000.0 0.8824217945422823 -0.46814528419901674 0.04714224489470752 -0.14286286755433486 0.0001939188858196794 -0.0020571732397713744 0.3880878852208102 0.10395332976792622
56944000.0 0.8791062731787604 -0.4761421596443134 0.04771341800111017 -0.15432484473648866 0.001469520184617514 -0.0010354455077413336 0.3972197339699968 0.10657602462700005
57943000.0 0.8762251558852784 -0.48703379461575314 0.050567461353719534 -0.16824778019706554 0.0009146959186724451 0.0029727234198397893 0.4087288506336154 0.09439802806718857
58942000.0 0.869751981749308 -0.49041055402096645 0.05184697988822557 -0.17565210229721118 0.0022854661006434076 0.002186934900382226 0.42925683172451035 0.08702572185437715
59941000.0 0.8662532571280228 -0.49938238443110033 0.05452035334669904 -0.18472500839840578 0.0011879595810512312 -0.0014385855279018286 0.41391439449761774 0.08993645340033435
60940000.0 0.8597452821782753 -0.5059323281439898 0.05137089283902238 -0.1915442075696409 -0.00039681869098749385 0.0008230919676463694 0.41511382865829516 0.08459540190164944
61939000.0 0.8557399078218404 -0.5144139357006847 0.0541086851740359 -0.1994157766155353 -0.0012607685454693156 -0.0006610735138388062 0.42118277761734474 0.06489900114006653
62938000.0 0.8503836040151914 -0.5255127337602146 0.05698328600161241 -0.2187493630256976 -0.0042197451690712305 -0.0013037103691387938 0.4480990451107663 0.06179623438899374
63937000.0 0.8444407902113185 -0.5324698695590991 0.05707365419517809 -0.2408634128714015 -0.001879591762817559 0.00262004450461216 0.43881062476025384 0.04148934270816692
64936000.0 0.8413519479179425 -0.5379399990339849 0.05855402058979496 -0.2551120317021717 0.0014215653200806198 -0.002755542074718527 0.441519213342446 0.043602163825980755
65935000.0 0.836300973488306 -0.5514983185899225 0.0584164019824576 -0.2683225971781429 0.0019000219922455125 -0.0023539972243788636 0.4523246355125149 0.02436002083369742
66934000.0 0.8327597954334691 -0.5538896864156314 0.0573326213770849 -0.2812445038538386 0.0018004057303445352 -0.0057814236145643716 0.4343441712224635 0.016991163988385804
67933000.0 0.828160092175292 -0.5630703886559938 0.060604362149268655 -0.29897014385205806 -0.004684614915003136 0.003690087081374932 0.4501845693655262 0.010767463776848655
68932000.0 0.8249558561082342 -0.5646111213966039 0.0575468182553488 -0.31194339267515486 -0.0005664440836072325 -0.0013890340364970768 0.46749785488212064 0.0003055026279868001
69931000.0 0.8163209106950343 -0.579345883896684 0.05299880343935476 -0.3290017533374049 -0.00041397019024612923 -0.001322673838944652 0.4541588586424593 -0.017003979332459108
70930000.0 0.8107192395636105 -0.5856075004056908 0.05397024395411914 -0.34345649133819384 -0.0012624826118065274 0.0003846248893222706 0.45221641267931423 -0.0279224998245525
71929000.0 0.8070402973069292 -0.5937374352596805 0.04933761181214577 -0.3591838750724815 0.00010229839285972129 -0.001387364878031878 0.45769521940191965 -0.037158796881339023
72928000.0 0.7976617921213641 -0.603709596068949 0.04207251848313977 -0.3786529780541754 -0.0007820927129753347 -0.0003958012859009945 0.4671717448548553 -0.05003498974078047
73927000.0 0.7931956059010337 -0.6106498444741405 0.035796597073336385 -0.40049972936536327 0.001717620153834042 0.0014049788206386318 0.46467906837762774 -0.07338148052949058
74926000.0 0.7876955759467631 -0.6189907505123943 0.027302118818187372 -0.4200575031890392 0.0012133274932999319 0.0002588257924618477 0.4687753063153014 -0.062403379828301984
75925000.0 0.7809816516539518 -0.6224075975732184 0.015259620677948216 -0.4375426910162769 0.002076487514560242 -0.0008099123923341514 0.46984748023861944 -0.07509783921272371
76924000.0 0.7744900600119369 -0.6318410814126496 0.004699384182333972 -0.4626143632677944 -0.0018182999225758762 0.0029685252048046624 0.46198997496118294 -0.08554299578788177
77923000.0 0.7705345784281148 -0.6366445958080594 -0.010151241849499632 -0.48611190838098484 -0.0003103554338594167 0.00121792393861642 0.47162258587909156 -0.0945300562875052
78922000.0 0.7643104088325222 -0.647148283689498 -0.021702343489313377 -0.5150005698507836 0.0017607727810895462 -0.0011040036982610997 0.4694463600768904 -0.10220058776033825
79921000.0 0.7551785908094 -0.6535747389267189 -0.0387363806171564 -0.5409882809574 0.001647139161663541 -0.0024738651127768317 0.46226095182607424 -0.10861468447153859
80920000.0 0.7517877983948635 -0.6638313724957595 -0.05531954424943735 -0.5712370274926815 -0.006188776691723814 0.002083613462467559 0.47757787097514415 -0.13409550323500244
81919000.0 0.7461068956750165 -0.6692715430422767 -0.07466748103288601 -0.5969476701455528 0.004083536612796073 -7.259919475433976e-05 0.4633253598682327 -0.1273455714855159
82918000.0 0.7348674900470683 -0.6786098345389064 -0.08822117009929901 -0.6308127364117743 0.0007334600050873745 -0.0014125968837068231 0.47608310605550347 -0.1519215665682272
83917000.0 0.7268151999993697 -0.6846315949617547 -0.10863985720444372 -0.6564828722454212 -0.0012665904064136568 0.0004475151072554842 0.47628585705949755 -0.14897872734420792
84916000.0 0.7221522434036022 -0.6916588058914196 -0.12488903121943956 -0.6943435982631869 0.002243920112494147 -0.005577882033464337 0.46910537049082257 -0.17159834270956137
85915000.0 0.7147460065775303 -0.6968441374206094 -0.14973660295926053 -0.7278018307384372 -0.0017906830272416798 -0.0030918317271075046 0.4650456788378876 -0.17685021509799836
86914000.0 0.7081754732823706 -0.7080147972085684 -0.16088667635061665 -0.7636628310025648 -0.0009221864690096532 0.0023475474695041857 0.4676256012745963 -0.18034722780672932
87913000.0 0.702151358456668 -0.7149016407859586 -0.18481063781782278 -0.792519422827838 0.00019424404898324708 -0.0019010113178472752 0.4682201429029738 -0.18339656962145928
88912000.0 0.69517771241669 -0.7199236943844103 -0.20052354454664292 -0.8303456967188126 -0.0014402191367405375 8.027118042822834e-05 0.4713302704143281 -0.20692598860741568
89911000.0 0.6863239650926602 -0.7278232037957355 -0.21807504307420372 -0.8669457462962629 -0.004654036594295356 0.0015211134663658996 0.47066794391117095 -0.2098375621675747
90910000.0 0.6788922832355238 -0.7351425074563824 -0.23386925426519978 -0.9026457520303517 0.0022460195017986037 0.0014419030229319693 0.46751766427908953 -0.21278971977993807
91909000.0 0.6707019470421327 -0.7389836739677624 -0.2562510536336301 -0.9365238303298291 -0.00032572033592899165 -0.0022247039345859717 0.4680342378317347 -0.22239940616437628
92908000.0 0.6626313307747029 -0.7483416531376201 -0.27136463862171534 -0.9670858459235693 -0.0025825036832023574 0.0018782482155312325 0.4481551879883155 -0.22841741239046912
93907000.0 0.6575767370463957 -0.7547124312851985 -0.2934666338562163 -1.0023629279647674 -0.00116069864174943 0.003738196950549426 0.4568244700065003 -0.2565511262405217
94906000.0 0.6441840934495564 -0.7620442192658987 -0.3107448926755296 -1.0363161222870525 -0.002830102986249455 -0.005158745915212525 0.4624510331936822 -0.25195316432245063
95905000.0 0.6396715504997407 -0.7679483959266129 -0.33475832278540374 -1.0748621338896929 0.003704978998595865 -0.0021477727958197955 0.45283524028508904 -0.27274084722488057
96904000.0 0.6297335526658834 -0.7775639664746592 -0.358182596798196 -1.1087609774910465 -0.0015218938368927472 0.0009016960143129565 0.45114074275602395 -0.266726234552477
97903000.0 0.6211764431183717 -0.7827859530451529 -0.38099499753468924 -1.1452127468128104 -0.0015238077506165267 -0.000826385622203703 0.4470663532577157 -0.2904727559580199
98902000.0 0.6143216727397167 -0.7889608401601923 -0.4040088373730211 -1.1827589427915988 -0.0017152358292113153 -0.0014162105043706503 0.44969288475179364 -0.2929769712718221
99901000.0 0.6058130886087151 -0.794998024522935 -0.4340431207601828 -1.217799052604641 -0.001433511363817752 0.0032742843983236047 0.4598601944262013 -0.3169353580500232
100900000.0 0.6006804313334577 -0.7982187099141759 -0.46596413032494305 -1.2482784271850247 0.0017792675442138497 0.0015008391420492791 0.460990815816668 -0.31901450384376395
101899000.0 0.5899380896940832 -0.8064577764750588 -0.4938414739961713 -1.2916981120611304 0.0008634829958463309 0.0015521497824978895 0.44690994430306114 -0.32438020165083253
102898000.0 0.5785325515854204 -0.813151062637234 -0.5317220925626182 -1.3267033292359791 0.002441089858511781 0.00011085463125612686 0.4561494155118396 -0.3395807801572509
103897000.0 0.5704530652048567 -0.8191885593099939 -0.5706933568018621 -1.3635900091765938 0.0015190002159385537 -0.0002448473378140509 0.44925542076847036 -0.33394908211903307
104896000.0 0.563188835651878 -0.8291411403657897 -0.61964984996061 -1.4000448128373582 -0.0014716332959045138 -5.8561997843889585e-05 0.43399090239688976 -0.32713890174317906
105895000.0 0.5526011905414198 -0.8319497038314309 -0.6705691394112635 -1.4403372128075556 0.0014910007088068194 0.002606167856995701 0.4333744454474644 -0.3634493044746443
106894000.0 0.5456970316739775 -0.839480705718845 -0.7238715347195114 -1.4860772134108036 0.004278853697130283 0.002365120939625393 0.42690416618487786 -0.3852041720685203
107893000.0 0.5359821628414464 -0.8432022725401095 -0.7770650516125519 -1.518118122639797 -0.00129522276493356 0.004302453275309199 0.4312742748732926 -0.39607398275892297
108892000.0 0.5228152629542395 -0.8488518171477807 -0.8410329899724837 -1.553069724176588 0.0022323279470367816 -0.0024256954094400533 0.4153275809616831 -0.3819411388859762
109891000.0 0.5136362360290158 -0.8541225462818232 -0.8978611492835309 -1.5860081430772217 -0.0015470936337119228 -0.004996378176792469 0.43590230627959264 -0.38756811189922763
110890000.0 0.5067091984092467 -0.8713561802732903 -0.977912997967911 -1.6141863024153726 0.0015566132854716562 0.002950922920916969 0.43444955815641073 -0.39063360776909545
111889000.0 0.49322542038921635 -0.8629338144619672 -1.0292750065227314 -1.654937620409794 -0.0011393081013272625 -0.0004151504919834109 0.41445332376460864 -0.40121864787228984
