! Created with skrf 1.9.0 (http://scikit-rf.org).
# Hz S RI R 50.0 
!freq ReS11 ImS11 ReS21 ImS21 ReS12 ImS12 ReS22 ImS22
1000000.0 0.9867679839623587 0.006304851703622446 0.007399101011428577 -0.035571199667365404 -0.003119061300487744 0.006466993268343465 0.3252081465436224 0.3034970215449599
1999000.0 0.9981373206557697 -0.014595550283604299 0.00761704002502303 -0.029829456678571887 -0.005595135017119849 6.978486068589871e-05 0.2676450633947756 -0.06091846807862577
2998000.0 0.9977421086734136 -0.021071199442135532 0.009894377573840745 -0.010855126719973256 -0.004408774452768051 -0.0028043373423894224 0.1999473016253745 -0.14226575318653298
3997000.0 1.00145557541521 -0.029279577871794967 0.00762982721330803 -0.008218909119582977 0.0025598027179240626 -0.005064757333950817 0.09508021032178009 -0.23251301539184008
4996000.0 0.9961740993148862 -0.03969763083881879 0.017783029771536684 -0.0015907637181995205 -0.0010791889480933259 -0.005814158385838248 -0.030962207853563583 -0.20213263690664285
5995000.0 0.9982030358905299 -0.05107243981766806 0.010068995539921353 0.004952868638621857 0.004825340224553245 -0.0010904337419157752 -0.12042518571660978 -0.11342737800954424
6994000.0 0.9933515235418459 -0.05734136336348881 0.004842097704449996 0.0037267103770832633 -0.007152488833777701 0.003905453036420397 -0.1487726737304471 -0.03212904549942201
7993000.0 0.9952408697208802 -0.06615728915120181 0.002287388693169257 0.004008462107138028 0.0035383434690555416 -0.0016246389713077773 -0.1558445197962339 0.01832465492093255
8992000.0 0.9944758857692894 -0.071840806103755 0.005590008639352843 0.0062594248078925415 0.0031428980542240552 0.006017161419303512 -0.15580072734403425 0.04954881267881101
9991000.0 0.9944602203889714 -0.08350089278371992 0.0023691141341126293 0.005138695656365317 0.003046800001662348 0.0036818095904962707 -0.15002351787589327 0.08526208115042427
10990000.0 0.9935185224823564 -0.09200447879030398 0.000467135434120931 0.00032417350360362465 -0.005318515064769101 -0.0011466677959741127 -0.13734433188278827 0.1127535236907056
11989000.0 0.9910978800313195 -0.09756723876088845 -0.0003919699803165637 -0.0005855795346250009 -0.005537637917335065 0.0041987067511548085 -0.13284292810236537 0.14025093258224625
12988000.0 0.9884488112266339 -0.10723407679769716 0.0016022009443019101 -0.0025359279364915058 0.0021807714763964 -0.001453553946138865 -0.11895050787806544 0.1688732467164361
13987000.0 0.9883426837023472 -0.11661835503917112 -0.0028072909354443457 -0.004685042855798868 0.0040701957822543945 -0.0018259942234077687 -0.10338783374126774 0.18848085083447597
14986000.0 0.986885684763396 -0.12354015342018523 0.002277252947920066 -0.0033054367805918435 -0.001283430105852554 0.0002637263439937354 -0.09814043814549026 0.2079288328041621
15985000.0 0.9899994021154147 -0.13132948253960877 -0.0019803388423830647 -0.0013216889117522712 -0.0008588125484935106 -0.0038442331519269327 -0.07062991940763362 0.21995764523523884
16984000.0 0.986576542580435 -0.1411256382307451 -0.002097170188811666 -0.002105311059121583 -0.0010737118567208381 -0.0007115621679945404 -0.06494553891086378 0.22263487542796948
17983000.0 0.9849619336490872 -0.1475768656743024 -0.0004113108612647757 -0.0027007084265715593 0.0024860703881572984 -0.0049933811290274474 -0.06401262310152467 0.22039651422051154
18982000.0 0.9843233427848249 -0.15620562179994715 -0.002489743007857022 -0.0070311449209803 0.0021225515150852525 -0.001492140048457014 -0.03212146707061475 0.2397023572042449
19981000.0 0.9846172280452506 -0.1633637328187835 -0.00429351945593734 -0.006341764273700775 0.0004469275514727269 -0.004232597665117675 -0.020631846380142503 0.2367324384886579
20980000.0 0.982248545977377 -0.172140556335016 -0.004191250486107883 -0.0017302797234841662 0.004186265865218303 0.0002499892256819316 -0.00025033311528487246 0.25314975193853995
21979000.0 0.9794760428135404 -0.18276770871882037 -0.0036646445847399937 -0.0029358782961893767 -0.0037770607200252504 0.0003569638992648064 0.010032546814281213 0.2368214401093348
22978000.0 0.9763454913923576 -0.19085759344028103 -0.008196308242393226 -0.0036898078021323595 0.003723108415468853 0.0009891978904754128 0.021071978492929862 0.26795972798143286
23977000.0 0.9788471554790317 -0.19883309749789693 -0.009859238534612546 -0.003774137464124888 -0.0030245310006709013 0.001961988866630154 0.03967655624470824 0.2553497959799469
24976000.0 0.9742882524524269 -0.2073562155885278 -0.0008194859478995177 -0.005033941832287718 0.0022978864269514103 0.0005430957892061771 0.053585593132182766 0.26094726976016086
25975000.0 0.9764990872126338 -0.22116498095967413 -0.0041874346697608755 -0.002181732444408485 0.017195626554993085 0.020755855121657035 0.07610432554263429 0.25876720621837057
26974000.0 0.970608354720447 -0.22454719299930415 -0.0016685056775033423 -0.0010668812558757947 -0.0025521917011324022 -0.0015331842056226952 0.08744881107338646 0.2694204074431838
27973000.0 0.9697445926868475 -0.23477883454779352 -0.0011066643033318176 -0.002149814335037122 -0.0006722292742945304 0.0010544427486698597 0.09727603888971333 0.2579429089739181
28972000.0 0.9652936815669103 -0.2419271924216054 -0.0006387676444429007 0.0002588156896922365 0.0030622540411431387 -0.0005179055435921845 0.12273245136324534 0.2588513286722103
29971000.0 0.9658350340965061 -0.250052408650269 -0.002359485226912767 -0.002719503742556794 0.00023125775740936 -0.0009249366530238671 0.15432325191926213 0.26278995050432186
30970000.0 0.962742995818395 -0.25576532688897013 0.0016662691701616265 -0.003545342472014359 -0.0019920671288713716 0.0026937831734328895 0.17037792731355586 0.2464966260404728
31969000.0 0.9630464489764142 -0.2641554421092226 0.006615466388062464 -0.007300277720204609 0.0004590925725924558 0.0009047832364491733 0.15164376573995955 0.24368645219873072
32968000.0 0.9601255597091276 -0.27247221515089287 0.007907712617346966 -0.010465431981124887 -0.0009410938507993513 0.0002837991807469647 0.16745935215453145 0.2477006772558053
33967000.0 0.9586603496730677 -0.2808704668396301 0.01196081811823589 -0.00767785969729716 -0.0016525098490927914 -0.0026672102670489478 0.19001037605002635 0.24378940084902703
34966000.0 0.9545028195031184 -0.2911129074252756 0.011074429924228638 -0.010350759849081093 -0.001571669079500447 -0.000449593706902374 0.19853758700066626 0.25439199111794547
35965000.0 0.9511554286079511 -0.29952348301865256 0.016768521126438923 -0.016664481472946333 -0.0002985443975879811 -0.006906153304906056 0.21061716858611135 0.2493310448074398
36964000.0 0.9500813183695282 -0.3087061987816558 0.01612471626474281 -0.0133809475853371 -0.0018000130138343473 -0.0017005787386730994 0.2193114349248125 0.24773312280803253
37963000.0 0.9470541443265037 -0.3164889413454979 0.021785232122644157 -0.019596430546467213 -0.0005976326273867684 -0.0008602703961475068 0.22845040544279036 0.23022876313359436
38962000.0 0.9438010269645691 -0.32572982466704603 0.023574197340286495 -0.023261641222003863 0.003071181282641616 0.002805038587907803 0.24525520763704922 0.23506626951331802
39961000.0 0.9392888561557531 -0.334631711430069 0.02565595986138002 -0.029635572156468608 0.0008106242157591916 0.0009084582997330124 0.256182424450719 0.22417816902533497
40960000.0 0.9375893295435612 -0.34171076268688916 0.02370105924193437 -0.026389510230019755 -0.0004957095892524021 0.0009483791486764219 0.2659924843776759 0.22283630909614313
41959000.0 0.9354240652119472 -0.34987875050416356 0.02924644427963044 -0.029833913707699698 -0.002066338169947447 -0.002347042939598301 0.27142526819431895 0.21266155748193433
42958000.0 0.9279619327676927 -0.36089403339352694 0.02966614181507965 -0.03833678363122789 0.00024236859292895224 0.0007738669597880762 0.2767126783725029 0.2006730246294099
43957000.0 0.928398923486618 -0.3649591919419057 0.032698330797895664 -0.044872547654789874 0.0004190425722310207 0.0011059965442794157 0.2833440071553605 0.2039915981337051
44956000.0 0.9248389417043796 -0.37472347756729 0.03633870307588567 -0.05110049320214647 0.003409524052809359 -0.0030361986722733485 0.3032990572592321 0.18999868076294904
45955000.0 0.9207028146723262 -0.38385583598983647 0.033013552719056864 -0.05509832203648359 3.037162681726345e-05 -0.0011730815732592821 0.3056081823107047 0.18913305430238006
46954000.0 0.9180827453024086 -0.39276130002202686 0.03503349310410525 -0.06555616120110001 -0.0015218320245704278 -0.0009290776800315852 0.3326665175101318 0.18000376818744976
47953000.0 0.9133880662162784 -0.4001616650726144 0.03744461724181876 -0.07282872421904484 -0.00011548850111521079 0.0002049942489148463 0.33652926279551615 0.16692404713014372
48952000.0 0.9094609009820542 -0.4087588750387081 0.0397352105062646 -0.07861178362658387 -0.005560954260571937 -0.002142312553300012 0.3361324823342912 0.16244662385469083
49951000.0 0.9065132922370781 -0.41363663347616336 0.03717264310502957 -0.08873607210213948 0.0014263672482949141 -0.00014316056629042265 0.35928388865470956 0.1518785334507489
50950000.0 0.9035575355492645 -0.42570322212210165 0.03570762826073114 -0.09528612042314155 0.001386124068826599 0.0016171723205396493 0.3575911040785271 0.14359966186903075
51949000.0 0.8995728204088062 -0.43174071008736903 0.04054486289077487 -0.10431419936144008 0.0022608148273202187 -0.001998874753497339 0.35247078317476627 0.13185511852471613
52948000.0 0.8960029955868766 -0.44030162506666226 0.03963076001152269 -0.11026057703966136 0.002525537459437969 0.0016316490856417654 0.3705139063312636 0.1351216014157161
53947000.0 0.8903734244988837 -0.4471985492721669 0.041207106260239455 -0.12219537749811708 0.00018630980891006248 -0.0003202038500844361 0.36520795800653816 0.12441804500029188
54946000.0 0.8856799070256134 -0.45655381391365113 0.04202967976603921 -0.1297846702981681 0.002552923284232728 0.005263223235026459 0.38491813217478255 0.10863349865638423
55945000.0 0.8831173387172602 -0.46591659213849007 0.04354362288172955 -0.14319822373470179 -0.0025647988364416504 -0.001205329020262748 0.3799238928474443 0.10097479953178227
56944000.0 0.8788704181310921 -0.4732862399331714 0.046815505242499354 -0.15571434988866475 -0.0013518973078023118 -0.00024244003375239347 0.3916666058340028 0.09969210779751765
57943000.0 0.8758060986952114 -0.48266816051845945 0.045912448410695125 -0.16401816863803612 -0.002621136088913617 -0.0014935046032385126 0.4047574001856045 0.08854970246929356
58942000.0 0.8676183674017885 -0.488042724251735 0.048454867197546915 -0.17275837415971504 -0.0003893568100469458 -0.0009149576963554471 0.4259410486670533 0.0715464932170748
59941000.0 0.8675617276099403 -0.49548146377080104 0.051149495926201355 -0.18521221314045547 -0.0004859877035068855 0.0018169808998831285 0.4196014235506547 0.07764382316755206
60940000.0 0.8591195606653035 -0.5032962625931727 0.05074196861109294 -0.18790961830047676 -0.0007997641593540568 -0.0009799387735127635 0.4153619105632693 0.06635524382617147
61939000.0 0.8550108696329058 -0.5112870533365599 0.05106285328304629 -0.1959183865741143 -0.002501063994375804 0.001969053500171326 0.4190774778799984 0.06385474972114025
62938000.0 0.8494388510133367 -0.5197991756074094 0.0519882032176215 -0.2098477914009182 0.004119686021231981 0.0012789002918780702 0.44025604801993634 0.042637997306129535
63937000.0 0.8452355731184903 -0.5293970099576093 0.05213401774942119 -0.23186951951013968 0.0002931411511395469 -0.0025348820150321756 0.4382024595853696 0.026602843005629116
64936000.0 0.8401055370568792 -0.5329242759589514 0.0554615024166209 -0.246648991749614 0.0028364653130949335 -0.0005965296692414081 0.4395228093379835 0.04310890505924051
65935000.0 0.8360022472310517 -0.5447294108772094 0.05230859340452293 -0.2602582224835179 0.000763623342300513 0.0029394196584657307 0.4371911604805192 0.006101325795016178
66934000.0 0.8315624111132929 -0.5486915102172137 0.05389189955386475 -0.26972859794526083 0.003599864671583846 0.0009306775982925159 0.43647291240625957 -0.004492542438050735
67933000.0 0.828578536115044 -0.5590574435194033 0.05621111966010859 -0.2863550893122854 0.0009714041085524414 -0.0015333732192497809 0.44661698911136427 0.0012199022049019157
68932000.0 0.8088996319499514 -0.5573314945669527 0.04767722088915291 -0.2973488934967254 -0.0008078080642527088 -0.00020705319942780767 0.4502734418384468 -0.017152219729494995
69931000.0 0.8137362139836496 -0.5744261342170602 0.051214434488711116 -0.31814576028803454 -0.001853962464523663 0.002136410675206746 0.45299631444743477 -0.031008776818842648
70930000.0 0.8107778167816722 -0.5799886929068059 0.04935117340713801 -0.33027205640559204 -0.003478315817314139 0.0019361923264547532 0.4514945178928585 -0.040978767904187204
71929000.0 0.8057728687894327 -0.5879923035855553 0.04646320285026686 -0.346507262034297 -0.0013340072255652467 0.00023152268360511217 0.4474303686610728 -0.04939391380591863
72928000.0 0.797191758474818 -0.6005366686554846 0.03839938148131404 -0.36137538204732833 -0.002609021774621806 0.0010595393395477508 0.46052027125713973 -0.052268623253443836
73927000.0 0.7936394687530011 -0.6041710304801565 0.03089425653716044 -0.37995026773641866 -6.9157519913422605e-06 -0.00040688669688266325 0.465909646278699 -0.06530000544944516
74926000.0 0.7881130145512559 -0.6149107873984093 0.027302039367955954 -0.401776340329864 -0.001120233915716499 -0.0006400650344828093 0.4660871517668827 -0.06346936874654449
75925000.0 0.7818051588701082 -0.6206416380988992 0.0199489177876516 -0.42058949766990616 -0.0008618482550131164 -0.00018732847075350327 0.4667081158057657 -0.08505642942207228
76924000.0 0.7747396356529647 -0.6262256588996586 0.001998671737410445 -0.4440730207009835 -0.0029079571854169 -0.0009276521896935408 0.46165488651529507 -0.08193399734878092
77923000.0 0.7704516299896323 -0.6329118696519433 -0.00913024943407666 -0.46767470018729 -0.0012366993238925469 -0.0025632848590009883 0.45968495511082486 -0.10624203398730173
78922000.0 0.7618294468380217 -0.6452688176531344 -0.020301734754860662 -0.495473959685858 -0.0022871587374055707 -0.002479309311160944 0.4605765654413218 -0.10358197261722622
79921000.0 0.7544747807259778 -0.6468149697467489 -0.041195563064000816 -0.5165161036032467 -0.002592163739906046 -0.0012210529145030124 0.46952938803911126 -0.13206387070511635
80920000.0 0.7516233179624656 -0.6570836620553689 -0.056320679495753465 -0.5467104039749899 -0.0017175042859318213 0.0011900968939568845 0.47364778559404247 -0.1302176047194078
81919000.0 0.745104767298151 -0.6641309376580558 -0.07468771495971581 -0.5751645480417724 0.0011863868641082001 -0.00014885890491506118 0.4678595300746516 -0.13537908781021604
82918000.0 0.7354093454270344 -0.6729815121647702 -0.09091176834821425 -0.6029684553820379 -0.002350046146076863 0.004240615476061143 0.47612221286589546 -0.15904462438473976
83917000.0 0.7283997786331621 -0.6804416228194454 -0.11381132904349296 -0.6312483502761443 -0.0021103074385114325 -0.0002529550935725891 0.46609590099661574 -0.14855423772532705
84916000.0 0.7221086075199812 -0.6861485316777656 -0.12578959410476231 -0.6671927677328039 -0.005052961913569697 -0.0011840979165014436 0.46485083945576955 -0.18409764295684605
85915000.0 0.7167874142367286 -0.6921010472075767 -0.14694778572714784 -0.6954005399702307 -0.0047209272484681234 0.0035502670030958514 0.47387140391233884 -0.18037862860979126
86914000.0 0.7104564140842654 -0.7033902705237873 -0.1624219568595547 -0.7318972208595363 0.002574621332199814 -0.0020500280022189097 0.45747980348771106 -0.19072757641684998
87913000.0 0.7024602123726635 -0.7078226472657911 -0.18341711349118434 -0.7620486649778753 0.0038252024608733106 -0.0012691912181498775 0.45868276470586317 -0.1929214466351156
88912000.0 0.6966111355594561 -0.7146319629008804 -0.19878573623904314 -0.7914517342787881 -0.003225389538539797 -0.0012113845659550216 0.4667162553321285 -0.2201917536370412
89911000.0 0.6880235901468366 -0.7227642123275458 -0.20931421031664152 -0.829171362510501 -0.0013385309057717893 0.0008081978280159838 0.4712973049439509 -0.21212112182092696
90910000.0 0.6825659675347026 -0.7286796989592995 -0.22903705742275224 -0.8657347538363739 -0.002086373900609364 0.0007985471973634798 0.46364812546702844 -0.2229941560398181
91909000.0 0.6727862983617234 -0.7344857388218847 -0.24821757220373153 -0.8975805564033155 0.0014168007698396072 -0.001823064424638333 0.46605240879693544 -0.23521286903265767
92908000.0 0.665590690431155 -0.7431983965405055 -0.2690807575915952 -0.9293350364959524 -0.0008544206210927714 -0.002322843124460075 0.45584162802512307 -0.23952824424774066
93907000.0 0.661620177555512 -0.7471278069141938 -0.2836176611370378 -0.9596102828024283 -8.708722867487076e-05 -0.0015002313750890996 0.45709439642637645 -0.258241279999164
94906000.0 0.645853299616501 -0.7567449906642779 -0.3044432077440874 -0.9941295845288433 -0.0009644845273671474 0.00020065776578385975 0.4606940250834208 -0.2653641879784015
95905000.0 0.6396780015065587 -0.7631779357407912 -0.32966253121879335 -1.0310702977520099 -0.00045097595457888366 -0.0030607166131263555 0.45637433070086386 -0.27016537988302375
96904000.0 0.6330278899574658 -0.7707298409410385 -0.34430613009008454 -1.0677975880841788 0.0008242438662327829 -0.000913682646164758 0.4486422508370851 -0.28092478645508306
97903000.0 0.6242358858335967 -0.7740023447164387 -0.36480518261529654 -1.0987062697491174 -0.0011598064037582553 -0.00030409196468394664 0.44592640039190384 -0.31000792435923236
98902000.0 0.6187838406408555 -0.783597033431567 -0.390136241593672 -1.1372714380200375 0.0021994809120960378 -0.0025743137841034804 0.4545952598677935 -0.29558420126206564
99901000.0 0.6087200682105427 -0.7874554296382444 -0.41494175187793114 -1.1669698871990972 0.0015068664645403256 -0.003276756926984933 0.4608639483438963 -0.32118101160073964
100900000.0 0.6027648391942275 -0.7915218900069392 -0.44493068958964155 -1.1996741895936938 1.4926013233150479e-05 0.0018836696141197277 0.449553348711569 -0.31383466531155296
101899000.0 0.59135685893916 -0.8005263286055059 -0.4723846861093632 -1.2326082902846136 0.001544190523417458 0.0012422280128010785 0.4438056245178631 -0.33899130467802485
102898000.0 0.5838757564016537 -0.8043461317861836 -0.499909905230366 -1.270749408719739 -0.002904866619010881 0.0017133390156522713 0.44978898155077207 -0.33831674699831105
103897000.0 0.5749007846833291 -0.8115943880951202 -0.5433398954022074 -1.3012395947957927 -0.0010727335222422644 0.002614335549098796 0.44787390082279893 -0.34974689423463035
104896000.0 0.5674144644653755 -0.8227552816819051 -0.5843104799065634 -1.3382064656069934 -0.0005492030007477304 0.00014953693254072205 0.4313482412026098 -0.3426792618359261
105895000.0 0.5555993256617091 -0.8241727648577415 -0.6298962827314865 -1.3757000784844258 -0.0038602636083931267 0.0014089218240256193 0.4333774540825443 -0.3697040057423401
106894000.0 0.547406378116609 -0.8309226577674098 -0.6855744129155823 -1.4102592037921449 -0.0011961628896182148 0.0006555141940684444 0.42206841344493295 -0.3774005908753683
107893000.0 0.5414434457131684 -0.8372595710168091 -0.7291410364713529 -1.4477035895039017 0.0014010261200613603 -0.0023647245029613517 0.42568134513404654 -0.3813748474465362
108892000.0 0.5313713819783685 -0.8399112460113859 -0.7879388178194751 -1.4861021151974207 -0.0019607345928037982 -0.00027912210261427496 0.4271994440933314 -0.38032605133930625
109891000.0 0.5189196084665871 -0.8485549312012063 -0.8447557574722967 -1.5190299528838813 0.0007147032155002379 -0.00027271675751706323 0.4324701549903902 -0.3861246066072297
110890000.0 0.5146192995211815 -0.8590747366936874 -0.9124947690620289 -1.5457273239916653 0.002729908148083518 0.0014731214925888553 0.42013885263776435 -0.39134800580841467
111889000.0 0.4993523469309209 -0.8568024475546164 -0.9761128645242007 -1.5878645322288547 0.0009493883713368265 0.0024753413312855275 0.4201033533213089 -0.4066398277261974
