! Created with skrf 1.9.0 (http://scikit-rf.org).
# Hz S RI R 50.0 
!freq ReS11 ImS11 ReS21 ImS21 ReS12 ImS12 ReS22 ImS22
1000000.0 0.9760993416134484 0.0047076566494616825 0.007487862581090881 -0.03978892662298393 -0.008920594333934762 0.0013114400231695753 0.3224666785344076 0.2810847469358433
1999000.0 0.9971928749254593 -0.015508460987067884 0.007726562297803508 -0.031200974775486764 0.003475120145850885 -0.0009444342769919566 0.2923241017801061 -0.07423049201247534
2998000.0 0.998068878184369 -0.022154467874570448 0.012397133849889554 -0.02283926436266988 -0.003995568998643702 -0.005813106690408956 0.17592534940282634 -0.14715532038799506
3997000.0 0.9998178160764364 -0.03082046704310476 0.0049460748626853086 -0.005481510892227846 0.0022441195034792498 0.00399057417228449 0.08768035444478886 -0.21843939617396443
4996000.0 0.9980516996276223 -0.03701691016041654 0.009857637301470532 -0.0016020310479066208 0.0031148942998642523 -0.0022114023946973533 -0.03022161466603915 -0.21803271303037866
5995000.0 0.9998187047364866 -0.05041647452117361 0.009027694593867387 0.0027215286073744636 0.002392903603747419 -0.0007972585660929682 -0.10814210662677712 -0.11442149926619022
6994000.0 0.9953515365999988 -0.057002133268688894 0.01178884706862809 0.0031938072551265305 0.0002904010045803192 -0.002462587032247742 -0.14180541394884524 -0.02247088970104762
7993000.0 0.9975348222656016 -0.06790369967641238 0.0037902863967298477 0.004787146354527368 -0.0011403200035420879 -0.002769225636170114 -0.16855319190611392 0.040927851400491766
8992000.0 0.9946436683682107 -0.07024627318170565 0.0017184108131653305 0.0070352150947356595 0.0027298272050688107 0.0002848362047830405 -0.1535313462621324 0.05448212304763093
9991000.0 0.9925561902618002 -0.08197905367434462 0.0025452181847776595 0.006521691684645719 0.005621504639321434 0.0030722076948161542 -0.15291824727187883 0.08993802574098743
10990000.0 0.9931802051186611 -0.0877024594549892 0.0002734778173368609 0.005866183411412028 -0.0010516644585014884 -0.006750182115389538 -0.14494591094219011 0.11509354010168725
11989000.0 0.9877915940520151 -0.09951313007929638 0.003835552522595765 -0.005144479137892316 -0.004250161824383711 4.534379262434043e-05 -0.1267638601441444 0.15157175471490658
12988000.0 0.9895078573767002 -0.10551624640675934 0.0018132419850695454 -0.0035517868300449923 -0.004018040767393053 0.0033856024241436626 -0.11094740523833557 0.17719367748280565
13987000.0 0.9885942920317079 -0.11448720364881981 -0.0017284766906114327 -0.00798790069676714 0.002524922283999253 -0.00197441265652953 -0.08946900690503817 0.19659137470122193
14986000.0 0.9880116040944356 -0.12470086512426672 0.0034489780370738866 -0.0006004066828791639 -0.0016927927933415026 -0.0036740714665492113 -0.08180223002307753 0.19380220720005104
15985000.0 0.9889960860338404 -0.13285429526268472 -0.003257369116766784 0.0005979568661391713 -0.0008618846443678436 0.0019439169963141214 -0.056120877035767174 0.21761421768325778
16984000.0 0.9876391245530619 -0.14233238118243288 -0.0023042983830855015 -0.005837464353459432 -0.0006715603759330045 -0.0030912312171207323 -0.07223095313147915 0.23118640405120727
17983000.0 0.9863148596550847 -0.14769214022611546 -0.0013844456346273665 -0.0018995608279971528 -0.001836652024283066 0.0002730338153451248 -0.05450998178583797 0.2225760572977193
18982000.0 0.9826489156315394 -0.15922110960598124 0.0016586711517578403 -0.009290333955812694 -0.0017129720952764227 0.001391915244296255 -0.028888171038348832 0.22856573435987537
19981000.0 0.982674888409758 -0.16565014632915182 -0.004360505121746569 -0.0009261918877629702 0.0017332013873916975 -0.0009273168543920115 -0.013438061167068948 0.23227568397476955
20980000.0 0.9799886686601408 -0.1744043327177537 -0.010652437020787487 -0.0008524209568964201 -0.00011022238811403883 -0.00038731172722038536 -0.0007867598697360167 0.2599054627863788
21979000.0 0.9793271287676258 -0.1840547244945315 -0.006966128546853495 -0.0039301340813912185 0.003934898747543795 0.0017649762406837866 0.011274877048521509 0.2525076084250546
22978000.0 0.9790158297972186 -0.19258462262461032 -0.0031859775911147925 0.00028946294458943227 0.0008958476747972514 -0.0020679013394708555 0.023008976094294586 0.25432006806843255
23977000.0 0.9775648488592432 -0.20117979512069514 -0.00754366016591531 -0.004782455433528115 -0.0019718211986720934 -0.0006218280052420826 0.04029624862844475 0.2702210045626257
24976000.0 0.9740544315450798 -0.20849445140912357 -0.0052733684152468435 5.9073885956443884e-05 0.0018198591048464712 0.0008064303215451412 0.07147665352021051 0.2647075477022742
25975000.0 0.9745774694279177 -0.21537710785382058 -0.005285611793197308 -0.0012213040978042821 -0.016818980605459676 0.019394808696998566 0.07704801255920188 0.2685417287322718
26974000.0 0.9711945878641869 -0.22546395670996297 -0.006175465819206734 -0.0035512902109387373 0.0010729290640449076 0.0007407472382612834 0.08951280627307887 0.2756579927592854
27973000.0 0.96915623360071 -0.23355451490580467 -0.0016100768871188658 -0.0011064897915776823 -0.000887907691968611 -0.0007501524938090748 0.10851376016367068 0.2590361196438468
28972000.0 0.9667661556493019 -0.24164474406051095 -0.001792728379915638 -0.0029916829632909057 0.0019291494503907547 0.0015371709999401659 0.11501567615013362 0.25766413310689473
29971000.0 0.9641407503264544 -0.25205934574607936 -0.00072053921054241 -0.0020880323712241435 -0.001007729904346326 -0.0024825439803327037 0.14716935879520815 0.2610021224450239
30970000.0 0.9641722381446572 -0.25605870100647277 0.0027254067620504584 2.6333373950093513e-05 0.002375706297336511 0.0027139105729731858 0.16344537575112836 0.2618941558694513
31969000.0 0.9623059008070565 -0.26388852187982653 0.004561066413422822 -0.002108128241366326 -0.00033737489789052586 0.001264930410092728 0.14904988974501976 0.24879267392549453
32968000.0 0.9612515077241941 -0.27295276594671763 0.006361414895726986 -0.006682592635842979 -0.0005515339504830166 -0.0004538948220519786 0.16167367403967858 0.24515202314994622
33967000.0 0.9581668733149175 -0.28293361833284303 0.008773035530338669 -0.010543602889786553 -0.00032109893376480655 -0.0009107963748610907 0.1861379523696249 0.2517617924500126
34966000.0 0.953405270643643 -0.2934596593297308 0.017023794777847562 -0.010844723095207646 0.00029591276052486553 0.0037681808324806485 0.19710074519256648 0.254227383650021
35965000.0 0.9504381425218169 -0.3000797317675396 0.015568544998212893 -0.017716693895267827 0.00328202009688859 0.002683482452284608 0.21318884755306514 0.2579893434446391
36964000.0 0.949394783540866 -0.3093031241781952 0.01925134522403152 -0.013881160051132572 -0.00307069704166665 0.0006399034774430317 0.2228459511030663 0.25323471143184495
37963000.0 0.9458079938718323 -0.3174007390447286 0.01893900224353547 -0.021087301139533207 -0.001561363797678203 0.00041732122949102326 0.2299281728840504 0.2333816989701682
38962000.0 0.9434280651283832 -0.3276042433686036 0.025914991729153257 -0.023403550344507952 -0.00012118874126179154 -0.0017917928555445193 0.24664373482656388 0.22917393956295212
39961000.0 0.93967490438958 -0.33377506636870513 0.028188993623291872 -0.03069398937619563 0.0020017033171055142 0.0009348786549546318 0.24812115994951361 0.22499128380296843
40960000.0 0.9363970002243773 -0.3427820389325955 0.025234592280530384 -0.024348770535807272 -0.00015693739760957092 -0.001467274258185066 0.2749295746002007 0.22977693322906168
41959000.0 0.9324863878681 -0.35226132659391307 0.028868149998286772 -0.03272223150820273 0.0011129219375056534 0.00012686300764960099 0.27004939242759424 0.21874549090321202
42958000.0 0.9300711962905488 -0.36097186263705844 0.03320476639006812 -0.03984865320473206 0.0012999139272342804 0.001332986053558832 0.27968898955130533 0.20144921775417698
43957000.0 0.9280037570484799 -0.365549410110187 0.035468440644459115 -0.04626607580950086 0.0015080223254587339 -0.002197618622240454 0.2921256390426228 0.20440900248995705
44956000.0 0.9240033550680253 -0.3738628597815417 0.03827070130901097 -0.0502929049114929 -0.0005094958352431441 0.0037241948948274566 0.2999984966357453 0.19988083966526835
45955000.0 0.919573486359179 -0.38478878109064574 0.038084989192541385 -0.05768169976833212 0.001386476682621022 2.010001476358671e-05 0.30522104131720673 0.1894715906389134
46954000.0 0.917576529228187 -0.3931658804048923 0.03878761216359902 -0.06494731533624948 0.002825990386157086 0.0026414522266260516 0.33122227255330405 0.17601470056397214
47953000.0 0.9144486233700346 -0.40030044015545174 0.03932078286563863 -0.07233299873856537 -0.001537001577789885 -0.0003513716757614428 0.33368151016931274 0.17738037473499388
48952000.0 0.9076879835628205 -0.411194956487383 0.040292523603923665 -0.08089060709301947 -0.0025913063714058334 -0.0022822307271420945 0.3299374465291571 0.16681950624198483
49951000.0 0.9056565630743328 -0.41575201999916617 0.04186089196288953 -0.08594873994813007 0.000717856884386331 0.0008440734605614312 0.3523844307634839 0.16375876555316188
50950000.0 0.9032004044622682 -0.4251782331825031 0.04063018104056981 -0.09612665872072389 -2.8042555910827307e-05 -0.0007291795378337205 0.3514363682684811 0.15210598140855772
51949000.0 0.8993810965791127 -0.4337842009665089 0.04803599685440977 -0.10038379720658676 0.0003871000965406332 0.0020906688426097597 0.3658618668537803 0.1461824014109316
52948000.0 0.8958874259232348 -0.44221979311270143 0.046187981738981476 -0.11617899156611541 -0.0012071153898550366 0.0010289769014779307 0.3662547634235437 0.14163442343782134
53947000.0 0.8905105105413087 -0.44776284389111365 0.04706513866594714 -0.1210409257565191 -0.0009316765337655028 -0.0007957380864553978 0.37033634368705565 0.1341213960354685
54946000.0 0.8853334509809838 -0.46063150765020605 0.04891554317697043 -0.13324377062715517 -0.0027939945310337467 0.003266244810459485 0.3941822499117448 0.11414746309276765
55945000.0 0.8820048965546685 -0.4651367380272049 0.051424908717756006 -0.14060426808148627 0.0059540561738069655 -0.002150998800081291 0.3898700212406042 0.10057503025234846
56944000.0 0.8774340262312719 -0.4750029598608622 0.05308213059940293 -0.1538557029275091 -0.005411354936250223 0.0018913578647152792 0.4005725476418484 0.11362725777034777
57943000.0 0.8735248381606503 -0.48454207950642386 0.0513295816590887 -0.1654373892900663 -0.002248240455859071 -0.0008892890658068365 0.40128354777777964 0.09798414858173968
58942000.0 0.8674619386993082 -0.490745992285253 0.05336957308224563 -0.17619844528062342 0.00034073200530807804 0.0006567169056075349 0.418927066826256 0.08071415605920453
59941000.0 0.8663754803171454 -0.49629010606522833 0.05598275073849997 -0.18371816019313653 0.0010964474927237081 -0.0015513623140323777 0.4183090128167003 0.09188978595511961
60940000.0 0.858277303934279 -0.5054509033054596 0.056528454328929376 -0.18940160549790003 0.0002186001410401466 -0.003048058707761141 0.4072240258588521 0.07770223791216677
61939000.0 0.8551415534946484 -0.5113913017335742 0.056125264465868345 -0.19554070409366522 -0.0012443328606082233 -0.0011262701166285805 0.4244046065539014 0.05988677172955803
62938000.0 0.8492724682238687 -0.5228174409647578 0.05997589332112007 -0.2167905493435856 0.0006344729138462414 0.0018566269274131136 0.4450719506493105 0.0563559972359439
63937000.0 0.8433635758116196 -0.5311185453429759 0.06115277269017334 -0.23689480622122974 -0.0016527967215303834 -0.0016163491976359616 0.4359238062708358 0.03408634311211435
64936000.0 0.8374854178292357 -0.5359588856921682 0.061380858907102404 -0.2533603702800349 0.0001533568261396265 -0.0015052092522513738 0.4370280240798186 0.0485716823707958
65935000.0 0.8334485199828805 -0.5482594451747692 0.06019569591498878 -0.26787745614244995 0.0007239823089853722 0.0030175658190477314 0.44566532074077286 0.016367022163657586
66934000.0 0.8307676630899248 -0.5493849607052465 0.05944500311017846 -0.27889012641942146 0.00142605044967363 0.0021040385089597666 0.4341948090531162 0.012655191446121743
67933000.0 0.8265144847733749 -0.5606195232417459 0.059521730400403566 -0.29744638747509056 0.002995305065803523 -0.004496558040242753 0.44879528921616335 0.0004030141688575817
68932000.0 0.818585394154454 -0.5526666254886369 0.057186573325115335 -0.30507472985913003 -3.5065591701085613e-05 0.0006046059974434727 0.4476472098216528 -0.012483653166408846
69931000.0 0.8126850261077546 -0.5760656734967274 0.05419376628038182 -0.32643219724761735 0.0013959065423787037 -0.001213761906612797 0.4512568329581012 -0.023178020061781057
70930000.0 0.8079403452756915 -0.5828303467303299 0.05478451745955444 -0.34076224600817173 -0.0029497315335321045 -0.0006573662032043774 0.44685617229933394 -0.04102364066910603
71929000.0 0.8048655038324846 -0.5883405590017408 0.05373834277864194 -0.3593214952763822 -0.0010014955440749646 0.002748771143038647 0.4529701956970676 -0.029123160174855466
72928000.0 0.7957665213827254 -0.6018487495338313 0.043099982028458474 -0.37626462285591844 0.0018505918754589347 0.0031221142270399693 0.462118383392482 -0.046746770135796506
73927000.0 0.7918053185251909 -0.6082596564035962 0.04003931884083214 -0.39861289748000145 0.0010738313327384498 0.0005825232223913179 0.4645219932545132 -0.04104086717034572
74926000.0 0.7867460002144491 -0.6151735759121697 0.031336057428609114 -0.41443575788749376 0.003234379043886867 0.0016741851894176685 0.4666413968814164 -0.055671589536858225
75925000.0 0.7803566163853911 -0.6199689170051541 0.01805232466193199 -0.44049877459896547 0.000958193067475752 0.0016737462262366445 0.47161011464470337 -0.07495697065523464
76924000.0 0.774401346144251 -0.6295439575915027 0.011926754771106558 -0.4644486861898953 0.0005433046797284073 -0.0016895347268728197 0.47478214636754107 -0.08354981348052669
77923000.0 0.769326222481734 -0.633184170847618 -0.0033470941322959126 -0.48262155959003694 -0.000463552935499016 0.001345841041176574 0.4695777324285344 -0.08597898036890031
78922000.0 0.7617016102527046 -0.6444425423918234 -0.015953184935964607 -0.5123750936866457 0.0019090980920161461 -0.0022768959911160435 0.45925323623858055 -0.10032333673373572
79921000.0 0.7543494097033983 -0.6480623983445842 -0.0356996893264693 -0.5397528667373649 0.0022081759895900056 -0.0022535173124469663 0.4533013167746691 -0.11703274955477673
80920000.0 0.750327296625685 -0.6587820300056698 -0.04636811967467385 -0.5699242449165021 -0.00173834071943206 0.0023673386984469354 0.4750680834486653 -0.12978567184944556
81919000.0 0.7428712015260339 -0.66507508592058 -0.06369369636880388 -0.5956503578676661 -0.004658739097104809 3.7567838213975695e-05 0.46969057600761926 -0.13019125022685216
82918000.0 0.7346356893505838 -0.6730703731537978 -0.07867827032312946 -0.6276040790816776 -0.0009538492482021653 -0.003181215154104507 0.4753783142860991 -0.15280994067961268
83917000.0 0.7285125598830632 -0.6807423309664431 -0.1017067290216441 -0.6546211247864813 0.002549366840852614 0.00010282576096485355 0.47318244323708425 -0.15773397677793932
84916000.0 0.7200825744115582 -0.688544335268124 -0.11462062582465204 -0.6951902095366168 0.0013551178893978868 -0.0016861533253040236 0.4675818336213138 -0.16668412441900415
85915000.0 0.7151593012011697 -0.6930747909846776 -0.13447321612094199 -0.7262436156621899 0.0033144080095327726 -0.0006180359619156508 0.4652033111114908 -0.17158474322300762
86914000.0 0.7066919405904813 -0.704063772056523 -0.14796310421597433 -0.7624583006871738 -0.004938001982037474 0.002071829811155825 0.45651096149535214 -0.16750820546943104
87913000.0 0.7009648711367964 -0.7091563487272567 -0.17016405141041807 -0.7924339792182014 -0.00021289901357790918 -0.0016070783311194117 0.4592529010833856 -0.17985051348131878
88912000.0 0.6936093642536104 -0.7156732476973708 -0.18348641531445445 -0.8303278774677214 -0.000249190713332548 0.002774321404125314 0.4659191746018391 -0.2021275026891219
89911000.0 0.6879717867613098 -0.7248322501437494 -0.2051392371031038 -0.8645321916815802 -0.001011883437618907 -0.00046362667071421114 0.476133407888228 -0.21297926767819989
90910000.0 0.681808263603535 -0.7284416448631506 -0.2204536550799165 -0.8993089458478133 -0.0016279888897977972 0.0012952596516509478 0.46482957058429414 -0.2096407116364108
91909000.0 0.6721051462543687 -0.7366697506823485 -0.24327328476850443 -0.9369796332295288 0.0010378399783051316 0.001259172742887807 0.4763250028684933 -0.23509355415095895
92908000.0 0.6631092393049086 -0.7432278126593928 -0.2636486653178379 -0.968439628023411 0.00018643981533552953 0.00173484644698995 0.45601341354075353 -0.23504984958708158
93907000.0 0.6577942108776599 -0.7491572511681622 -0.2808780045263744 -1.0005667393344044 -0.0009751583252103972 -0.0005078282334036314 0.46268640162034474 -0.2583979545364418
94906000.0 0.6464955696812692 -0.7571183071036462 -0.30231722304387604 -1.0349207984609448 -0.001762974387899401 0.003286666753963768 0.4563324711802141 -0.24875500486936747
95905000.0 0.6397280441965341 -0.7627233307153239 -0.3248618898964888 -1.0717961043602844 -0.00020372640150180283 0.005752002523135062 0.45352827603425167 -0.269229908967038
96904000.0 0.6306010189936911 -0.7712558802220689 -0.3431525031830076 -1.1140067092720924 9.491676929587716e-05 -0.0005330549551037614 0.4526965749316488 -0.2754817922298206
97903000.0 0.6224536640580759 -0.7756335891931679 -0.36927993604900844 -1.145571982649995 -0.0015678761059574134 -2.9212539882360786e-05 0.4521981598215688 -0.2873936695040219
98902000.0 0.6181187871461196 -0.782935687947618 -0.38978769175521666 -1.1868835054735325 0.0006392956908642237 0.00612868142926702 0.45445530858143224 -0.29144078532380335
99901000.0 0.6078836132698213 -0.789954633537918 -0.42079445264328647 -1.2208196144941468 -0.0004938696471684571 -0.0017189639369360554 0.4578420143046591 -0.31008452591100444
100900000.0 0.6001438365851689 -0.7925076944111231 -0.4525238309675519 -1.250820194716431 0.002302805344839355 -0.0006146770167822264 0.4662338679689635 -0.31723637051684217
101899000.0 0.5917759302594527 -0.7991487785234731 -0.48129517864595156 -1.291936802205573 0.0006570207047693001 -0.00042254801508639494 0.4618003842975216 -0.316485990495095
102898000.0 0.5805620327625388 -0.8066864207947403 -0.5219451053349464 -1.3273119052377598 -0.0004241454292556141 0.0002544821337669324 0.45210467564323753 -0.34278009561455436
103897000.0 0.572876889823191 -0.8131776093668023 -0.5564677107126115 -1.366913172931721 -0.0009798773844758263 0.005263149533512972 0.4592258809732998 -0.32576435119468905
104896000.0 0.5648940276770368 -0.8221800570336253 -0.6025711842514995 -1.4052225562257907 0.001555412259927361 -0.001460268540874472 0.43664511555531726 -0.3368956457446188
105895000.0 0.5548718903066129 -0.8278392698426223 -0.6485433016737744 -1.4501099101302906 -0.0017978314728086752 0.001306171389435012 0.43583200736768957 -0.3529883009659813
106894000.0 0.5473859369789231 -0.8325342036587483 -0.7010685079121163 -1.490932781804022 -0.005251039331006925 0.00022358867190075705 0.43018624647390064 -0.3659382267250806
107893000.0 0.5388610435440099 -0.8392903314745503 -0.756423025385092 -1.525671580736911 -0.0005594387697125211 0.002423947179098286 0.4454252419970516 -0.376148891681031
108892000.0 0.5283506608315763 -0.8420072652749717 -0.816085462251541 -1.5655037792115638 -0.0030417235497749314 -3.2772639039150736e-05 0.42972289587063345 -0.3720325381435832
109891000.0 0.5163662149235896 -0.8496646399082907 -0.8701355343878538 -1.5999828909696392 -0.002493502155974999 -0.0025676101132080065 0.4440316786487158 -0.3784528042311268
110890000.0 0.4998123589919643 -0.8546797034555622 -0.9415413520752961 -1.5974520658011067 -0.0031780593751169544 -0.0003115518217363383 0.43248649627610974 -0.3823575919369387
111889000.0 0.4938537761246213 -0.8564183589084556 -1.0068106454277945 -1.6740745736834033 -0.0018705921407916226 -0.0003571735685596204 0.43118644329492145 -0.39572618023157813
