! Created with skrf 1.9.0 (http://scikit-rf.org).
# Hz S RI R 50.0 
!freq ReS11 ImS11 ReS21 ImS21 ReS12 ImS12 ReS22 ImS22
1000000.0 0.9980639473229268 0.017173168919507494 -0.005451408741834562 -0.04943857289626643 -0.02207544227678207 0.001421980058567247 0.31387401440014445 0.36070056605214507
1999000.0 0.9947661032169264 -0.008655953394706694 -0.00023078906838231702 -0.019449579051833775 -0.0021475604559578975 0.0005439860442207195 0.26465710537362364 -0.06275961862937544
2998000.0 0.9989830297702282 -0.02174978354341098 0.015890136821162044 -0.011492933434278225 0.0027528866819496113 -0.005865596757708841 0.19844014254019984 -0.12643082627518165
3997000.0 0.9980793881653524 -0.02821086336370959 0.009606267718116191 -0.0010222067161189848 -0.003419061573776864 0.0023878608994500655 0.0925740520298972 -0.21908498245424282
4996000.0 0.9943576078709343 -0.037952217319192745 0.016273458127527344 -0.001012736320921807 0.001937552007226898 -0.00041095658304986135 -0.0385158661351312 -0.19239820703504662
5995000.0 0.9946292688652983 -0.04986293165911885 0.012191043830783595 0.005077173363990364 6.045110818546017e-05 -0.009930108982579162 -0.11250529795477109 -0.09992655968859421
6994000.0 0.9933001794865789 -0.0589206083656667 0.0048895231989035965 0.004724218410476335 0.002126287678690048 0.0015800643418705735 -0.13814328837746234 -0.023993286259936897
7993000.0 0.9969568181911671 -0.07076719631993403 0.001889321577579629 0.0043648197524516425 0.00010700086778907167 -0.006414399468985591 -0.15099434792509475 0.037877939458680066
8992000.0 0.9933725739572185 -0.0768524399459808 0.005138981215317825 0.006204066358374202 -0.0009916275924182396 -0.004252712538939683 -0.15291456283159707 0.042556589895238965
9991000.0 0.9929020996396057 -0.08326969525507194 0.0009727383475450301 0.0034935236557114314 -0.0006738795491226868 0.0032774872309248135 -0.14252935531558675 0.09013867097513265
10990000.0 0.9902364919739678 -0.0955571556299688 0.0061014861591248285 0.0008923902377929425 -0.0027889261413584503 0.004854778168500335 -0.1387943880363727 0.10709221948679934
11989000.0 0.9905795733001707 -0.10308157127950575 0.000720657136507057 -0.00037206875260689264 0.0023047634417198383 0.002119910190010824 -0.12141014973769419 0.13175770818312937
12988000.0 0.9900410867977439 -0.11014355867385982 -0.0019761359743806755 -0.00020127439788144387 -0.000309011789858484 -0.000906903462299299 -0.0990336992981356 0.16300385064496625
13987000.0 0.9881047551432874 -0.120515650486665 -0.002373167475554685 -0.0025161991872404313 -0.0019063644489730185 -0.002403350764680803 -0.09601372807152449 0.18623392592534624
14986000.0 0.9872331636212666 -0.12825009028981382 0.00010690692336208349 -0.0026960727967946536 -8.287901969769213e-05 0.003382616003962312 -0.0806228219870971 0.2019114004206718
15985000.0 0.9888290695700619 -0.13546539442309904 -8.172627177078899e-05 -0.002810575956668392 -0.0001864952030407268 0.004495070105119474 -0.07211027486777492 0.21132626764587015
16984000.0 0.9835447712211329 -0.14855314827215618 0.002066031028324188 -0.001547256262065757 3.575576085019473e-05 -0.0009896499065887006 -0.06283870988155901 0.21925198641057111
17983000.0 0.9835690291340471 -0.15300557835682993 -0.009178933566802227 -0.0067876628671974665 -0.004988021329593248 -0.004318061349601554 -0.05602858405164034 0.21718489743609767
18982000.0 0.9819725585264539 -0.1636138150860428 -0.002675734302390802 -0.0034083928692433926 0.000510831844821346 0.003215018328626669 -0.033111980650583316 0.2392246384664535
19981000.0 0.9818934311201508 -0.16757965842278613 -0.0025971957200861206 -0.003233036867600853 -0.0010740543260406973 0.0029274007681069675 -0.015334926531971924 0.24214954662236932
20980000.0 0.9799226178713116 -0.1788070679174498 -0.0030199932619129803 -0.007458294720329855 0.00149026551981015 0.0018203230381075176 0.005831941284086412 0.25923313218726296
21979000.0 0.977679222758106 -0.18851997725202924 -0.005733136841272349 -0.0018005431211847458 -0.0013806765050891016 -0.0013522828218590019 0.02241474612419787 0.2502714588034316
22978000.0 0.9744307524374239 -0.19834478514504938 -0.003883592567557764 -0.005875845204071504 -0.0007001190447894278 0.003192300454888158 0.03257965293405297 0.24943958723646223
23977000.0 0.9773171254525109 -0.2038868056207686 -0.003961934066303654 -0.003972718657954851 0.0014363153265777786 -0.0014277792078391425 0.045690234399056874 0.25331990357869477
24976000.0 0.9723376512209486 -0.2149039256321965 -0.005723804831143607 -0.0033575809467348812 0.004124706329191378 0.00028437184936204983 0.061183837765074446 0.2580010604404119
25975000.0 0.9711851833710783 -0.22961689645251565 -0.0038271241161158672 -0.003749940044353288 0.02025860290154471 -0.012900804023297319 0.0785798728410451 0.257808841992076
26974000.0 0.9682380612879705 -0.23120547263919225 -0.00504878334191949 -0.0005964134266440224 0.0014448094173226394 0.0025594465635398246 0.1023627357961344 0.2517084029851423
27973000.0 0.9680289030200776 -0.23728827423778293 -0.0034193525634688676 -0.0016213573909841356 0.003052281412788451 -0.0012667356152118482 0.1001150728657641 0.2567044685724866
28972000.0 0.9657997257905941 -0.24667244330855642 -0.003242909039427811 -0.002869281600644558 8.94330361478007e-05 -0.0031690772098969043 0.1166726109753908 0.2547656237567877
29971000.0 0.9632149530037628 -0.25910705119498234 -0.00026716667592673293 -0.0006482470078536884 0.0009211582014212867 0.0008066418297554994 0.14792602448552855 0.2643965078152637
30970000.0 0.9596627173770005 -0.2623812332896377 0.0029959110941961842 0.0010117363421629278 -0.0017746119966467722 0.000548922921144086 0.1703121580703354 0.2516236645437489
31969000.0 0.9582570042171783 -0.2707944796607172 0.001391237361937234 -0.0036882164463124894 0.0018309494019901466 -0.0007322938783554892 0.15847108135159851 0.2540073534865773
32968000.0 0.9566475694912233 -0.28435418576932403 0.008502734966586349 -0.007338767495021888 -0.0016857901300024727 -0.0036291010479299474 0.1691103760185787 0.2462566339468948
33967000.0 0.9527021141083427 -0.29132832537790465 0.01061970157346716 -0.011104463863712609 0.0003399183533982541 3.8009599835168475e-05 0.18945422380569238 0.24086610464360195
34966000.0 0.9509231182922081 -0.2998990217230181 0.013055389821001613 -0.01129111086127877 0.00045196305988000557 0.0005172833925363374 0.19701802374475996 0.25651107613650764
35965000.0 0.9481048528014782 -0.30840072500609883 0.01239947869411815 -0.01666867086885184 0.0007768803741885746 0.0026646439062114136 0.21079238499882072 0.2581421890635255
36964000.0 0.9456246034709165 -0.3166974387699908 0.01419216323761592 -0.01350433206926071 0.0018688380228165315 -0.0020926977585105783 0.20894253529066117 0.25578587236262834
37963000.0 0.9424823766612805 -0.3261117142574063 0.02365974546769239 -0.01937200455822808 0.0017545283623906197 0.0013356856949023937 0.23038936975521088 0.22217366669521554
38962000.0 0.9398163360382308 -0.33640425070542035 0.023400014266543763 -0.02389582802866535 0.002518860345744754 0.0006785532224038284 0.24475164937029573 0.23148487146792082
39961000.0 0.9375191668449342 -0.34442739217341667 0.028319821240633723 -0.028974662177470696 0.001990278407374426 0.0017335378179143132 0.2577876230171669 0.21324275092288372
40960000.0 0.9332200708366704 -0.34992850778066065 0.02578214032496185 -0.023242189604982918 0.0017860785693198016 -0.0015786783694649556 0.2656936310291953 0.22407711973899033
41959000.0 0.9308297995287308 -0.3596235112090185 0.026432279608398338 -0.03154475907014428 0.0004726447867859833 0.0012007785374664357 0.27575241993332494 0.21713640973110712
42958000.0 0.9259981846845092 -0.368446669283349 0.03291258852576753 -0.03947605900116569 -0.0013714768697133024 -0.005617197505833439 0.2885027532525305 0.21183438683960046
43957000.0 0.9234718060966471 -0.37605462250662003 0.033182628032704324 -0.04562010586137635 -0.0047916478518896955 0.002725777160642605 0.2909689096351686 0.20744818511069485
44956000.0 0.9197858198225379 -0.383028420174511 0.032755390288135865 -0.050983439274355495 0.0008451578351344676 -0.0036632644653935135 0.30580370519499694 0.1878028783246183
45955000.0 0.9149974827811691 -0.3949255990450913 0.03412110946462533 -0.056341762845983585 -0.0015421737561835073 0.0011557070903299212 0.31301575068594867 0.1852382025488048
46954000.0 0.9126579345323081 -0.40314344919051004 0.03549740698921992 -0.062651593278397 0.00394203858414935 2.6330053680000044e-05 0.32840807835169394 0.17559494946708368
47953000.0 0.9079625585911631 -0.41272225460542916 0.0346210224604977 -0.07156025183402943 0.0014586827771072574 -0.000904657633502674 0.33347234259061664 0.17322031638675184
48952000.0 0.9023572889966207 -0.4234799169413691 0.038191268001031724 -0.07965429789636821 0.001451258638118895 -0.0011203758245273282 0.3377001365606793 0.16580840478364947
49951000.0 0.9003182957371066 -0.4264471363827313 0.037818925188941165 -0.08690968389422016 -5.6392457208422406e-05 0.0011027795524637964 0.357145479255892 0.15334103005092675
50950000.0 0.8972880294480493 -0.43619039885953065 0.03592360662106501 -0.09537882599987785 0.0032173541375080687 -0.002824286518266111 0.35062083866470145 0.14612820018757972
51949000.0 0.890986539907136 -0.4441458825175681 0.03985038447619007 -0.10156609017949755 -0.0031170785214285853 0.00034994237816758547 0.36125703707662077 0.14153445404784332
52948000.0 0.8891688040171416 -0.45286976313585575 0.040299993884609704 -0.11115594403895104 0.0025496006834615026 0.0033051719452083937 0.3660487102407491 0.14371846731747498
53947000.0 0.8844712185966749 -0.45869946816964247 0.04248075199609898 -0.1215389196606829 -0.0008101106885575473 -0.001340021761393753 0.3745356303587173 0.12400642938895665
54946000.0 0.8789164787562163 -0.4719302220570048 0.04278302802699248 -0.1291311034572677 0.001931576113875362 0.0010131345175060195 0.3898766432305731 0.12102701933147175
55945000.0 0.8747496558982539 -0.4793470095107368 0.04366222321614985 -0.14104078954069674 -0.00033160565450745 7.284209750395518e-05 0.38765511717474493 0.10241406836389595
56944000.0 0.8705112369401824 -0.48650297074208476 0.04617841517989532 -0.1519566543021832 0.0036901789370987186 -4.883851981758157e-05 0.39974778912519726 0.09772140169664377
57943000.0 0.8650544298831135 -0.49712849220860544 0.047799938953268534 -0.16327478953394428 -0.0024275132549267152 0.004984561670925048 0.4062117276071837 0.08530946815534124
58942000.0 0.8588336025971757 -0.503075769515842 0.04863251681881887 -0.16933839338149898 0.0019024147679122714 0.002490914035475592 0.4244612486720859 0.08757106083046884
59941000.0 0.8576465148531763 -0.5090984313943623 0.050007060083181086 -0.18150546148512203 0.0006129279293136352 0.0014384797013292539 0.42227536889792144 0.08959524014212121
60940000.0 0.8499339776685684 -0.5194674922547949 0.048606907978905316 -0.18164068603146222 0.0007009500508714708 0.0010463003375361603 0.4105148900253219 0.07015402238744335
61939000.0 0.8462731568536844 -0.5249947672900172 0.05176142460541989 -0.18964646748478453 0.0013542558256302004 -0.0017469468443105716 0.41969687259858285 0.067425675011296
62938000.0 0.8400950113542605 -0.5359722690164903 0.05487343006867763 -0.21098224444817137 -0.0009880832094526476 -0.00213639072402446 0.44270487688880583 0.05222880144017605
63937000.0 0.8369306416983566 -0.5416795191590474 0.05597984529316968 -0.22689786574192977 9.94551296248216e-05 -0.005135366273494064 0.4368354242623593 0.03661572559399338
64936000.0 0.8285884052859254 -0.5501403922225009 0.053457842732645894 -0.24320748660512428 -0.0012429809650186462 -0.002234794220303363 0.4311364210518004 0.03952774933492503
65935000.0 0.8260050913024114 -0.5598003887346765 0.05470216335879734 -0.2566086628064365 -0.0006006986838201874 0.003847898548875827 0.44314568386206227 0.021947183382613644
66934000.0 0.8200312684594837 -0.5666761852405041 0.05304508361269554 -0.2716896770478447 -0.0001928721710822836 -0.0018468427352933997 0.4373746923318589 0.0019740667698357017
67933000.0 0.8171092689146682 -0.5733199547152851 0.057858712337327096 -0.28334040662876947 -0.00133716774806034 -0.0042351918086607635 0.44185770155063897 0.005047721731279014
68932000.0 0.8075816581390347 -0.5803156714947539 0.05001156838505459 -0.29720552042232834 -0.0008143953271929351 -0.0022595484358551186 0.4517966558693979 -0.02152765963403648
69931000.0 0.8024415372074284 -0.5904142695372286 0.050643224233942026 -0.3121949863488372 -0.005131083756464925 -0.00269243567533967 0.45018247284269797 -0.029821698621029697
70930000.0 0.7959950466609583 -0.5975752159320353 0.04734836224320264 -0.3283223871406372 -0.0006950653559340118 0.002962314531906483 0.44928454615418356 -0.035008576506897426
71929000.0 0.7925606107341281 -0.6031959573478138 0.0451263967030873 -0.34319723687740494 0.0035761605523836667 -0.0012064062079063366 0.456270869893434 -0.0564577942952874
72928000.0 0.7873465067544215 -0.6180786325433114 0.038524909411646026 -0.36304190789023855 -0.0020224456581213503 -0.0019338417430457178 0.458352063008065 -0.04518361297351966
73927000.0 0.7796863215067078 -0.6215499862990417 0.03471758763416479 -0.3824862724592747 0.0006478582333650748 0.0016857846228735996 0.4485586423599635 -0.060161966431262606
74926000.0 0.7721552330391368 -0.630492540170997 0.023160714836331038 -0.39812747120568076 0.0005485780756434869 0.0002718049343928267 0.46578543155655366 -0.07020929034447652
75925000.0 0.7693992525676125 -0.6333916106220535 0.017772784201100685 -0.4179328104117109 0.0003011324530387387 -0.004579616856283659 0.4744548699151762 -0.08586738760305464
76924000.0 0.761273116838823 -0.642139350689166 0.002819034228380922 -0.4391687145553281 0.003479090386482776 0.0005422698707130315 0.4763560511980914 -0.09214923051204124
77923000.0 0.7546568526991959 -0.6518491229104664 -0.011973093510936663 -0.46507269441237714 -0.0015083833665368045 0.0013758471624621305 0.45775577972483356 -0.10740619794737033
78922000.0 0.7475724441381315 -0.659439345304282 -0.02688827005780661 -0.49184590188345423 0.00013284351444532028 -0.0010796376607146382 0.47112084806524973 -0.10370837419552886
79921000.0 0.7394314997508531 -0.6635693257114921 -0.041337599298283165 -0.5118152304135688 -0.00015981672855619418 -0.0022917358112246695 0.45782291316451634 -0.1178189806082013
80920000.0 0.7367634474328348 -0.6751127712996433 -0.05807705874363427 -0.5422108443517969 -0.0020861403929939544 -0.002970284437493997 0.46516748987703954 -0.1345591394833303
81919000.0 0.7281775206217526 -0.6816678709974214 -0.07635875314770865 -0.5726513217995111 -0.00022138694699178256 0.0011958337337484078 0.45734168121188534 -0.13865830276000876
82918000.0 0.718358021905384 -0.6887326286827012 -0.09061729724287877 -0.6034168426422947 -0.0027571131799771116 0.0005333714202621859 0.4756101882064581 -0.16084080801903938
83917000.0 0.7117491867912559 -0.6963682347199547 -0.11332072345206039 -0.6295458981172871 -0.0025995853920003846 7.47498635597883e-05 0.4679520470212877 -0.14877151819681933
84916000.0 0.7068804731043863 -0.7031821369664611 -0.12454804418821692 -0.6626673809045455 -0.0023284578822939128 0.0018226369401730417 0.46600701488685037 -0.17351000242420256
85915000.0 0.7002917586071792 -0.7086277420760949 -0.14520846805733253 -0.6940354098095014 0.0031438946868170463 0.0013174946601423264 0.4646900501574335 -0.16900192967443295
86914000.0 0.691448644464851 -0.7195479290205206 -0.16085903425605066 -0.7313089674817415 -0.0007941404780166535 -0.0016964424138058685 0.46110491420007077 -0.18351697959738045
87913000.0 0.6855658030021721 -0.7250275723984481 -0.18447603628016235 -0.7584888487884052 0.003303379824023723 -0.004038427344590094 0.4530368546730206 -0.19004058569941434
88912000.0 0.6792858908856676 -0.7309718523374651 -0.19207679419023943 -0.79094664384306 0.0033952609506649866 -0.0006121597779775238 0.45734390701686645 -0.21107751950302012
89911000.0 0.6688920047529527 -0.7408777188919747 -0.21216521405102776 -0.8248419204494166 -0.0019214570469930047 0.0017383815343476594 0.47095469597978085 -0.21261263341483772
90910000.0 0.6626032381662306 -0.7454314525787233 -0.22382861479142505 -0.8620335405386219 0.0013066858006988598 0.0014334962082795963 0.46346690332006485 -0.2231461652883815
91909000.0 0.6530589803466049 -0.7502182935470533 -0.24613532140610936 -0.8911135131336027 0.00047924373466456255 -0.00010145437513859327 0.46816586536126487 -0.22088185655580217
92908000.0 0.6442760469595903 -0.7593246857860765 -0.2629313472899318 -0.9230967465099751 0.0020936362076064024 0.0027802823085254277 0.46144680391921067 -0.24291045255967375
93907000.0 0.6385294584675936 -0.7637300041337132 -0.2816676844924717 -0.9592433237618334 0.001086990655628161 -0.0004947744420461316 0.4611045480013836 -0.2572641349225339
94906000.0 0.6236913951888253 -0.7741502535292594 -0.3010430174145535 -0.986939046584915 -0.0009688673757269655 -0.0016436854432195789 0.4655525381148913 -0.2604246197439534
95905000.0 0.6184127903123294 -0.7798103453148842 -0.3234212783136099 -1.0218131723167354 -0.0004223464286604612 0.00017275891831900885 0.4608634240729956 -0.2748962975845877
96904000.0 0.6122844624472676 -0.7877960619193654 -0.34065802800684025 -1.0637403635429517 -0.004266659175560001 0.0005187189970828639 0.44903714877265527 -0.2741882222764578
97903000.0 0.6022055071369419 -0.7936187069109061 -0.3571399724451012 -1.095445135265985 0.004513999394059617 0.002494727311637369 0.44677154432415356 -0.29052973250118636
98902000.0 0.5981543417305768 -0.8000787554740223 -0.3787844090348388 -1.1278344724099048 0.00018625906892906125 -0.004368686893210096 0.43748452747149735 -0.2995229953626944
99901000.0 0.5860352458007345 -0.8041954927306376 -0.4074751316079121 -1.1617870586579602 0.0033864809113704143 -0.0037753913144763953 0.4610490237819385 -0.3247276291459067
100900000.0 0.5778850017031912 -0.8089075392153932 -0.43896589837228667 -1.1912680540311704 -0.0019445583936478984 0.000743966497217788 0.4556778264676533 -0.32004796450331513
101899000.0 0.5691618675896485 -0.8158447105508888 -0.4606920644766827 -1.2268951666451426 -0.0029538694121683047 -0.0023664165361272464 0.4542172901379791 -0.3145888805881588
102898000.0 0.5597923409766588 -0.8211837242522968 -0.49366501323653283 -1.26595817624682 0.0004950324865425214 0.0017653695663029112 0.45423871411739347 -0.3341671953932296
103897000.0 0.5487232763582144 -0.8291080281089472 -0.5400302357510581 -1.2945734115725753 0.0007442737133815642 -0.0025000492688083604 0.45685400020477224 -0.3335721510031945
104896000.0 0.5401530805761645 -0.8411194043856554 -0.5814862518944809 -1.325270216515375 0.0012280417078886854 0.003620137150010458 0.43693191204563897 -0.33324638740898904
105895000.0 0.5308869034654654 -0.8411627811600139 -0.6279815926027449 -1.3717060885456185 0.0008428850677353657 0.0007397993706125655 0.44114882438640707 -0.36427410315789804
106894000.0 0.5228898194353467 -0.8467817137083621 -0.6736601111534491 -1.4062232245990403 0.0019206195403255696 0.0010796322932112572 0.4303902101884047 -0.3739190624372885
107893000.0 0.5120317921909792 -0.8545657900891503 -0.7307775387231416 -1.4449265364850723 0.0007620826230797619 -5.855894098999283e-05 0.4309402563912117 -0.37055051012173323
108892000.0 0.5024886947155122 -0.8588053061876718 -0.7899219168724017 -1.4791997961602859 0.0002790232893393344 -0.0006096298706028586 0.4222290428034169 -0.3759100934083978
109891000.0 0.48998037731249383 -0.8651366366705934 -0.8464118624408431 -1.5127299051448089 -0.0005097384015512129 0.002286059728715113 0.43831633381092366 -0.3827914723025461
110890000.0 0.48125276907519465 -0.8810347063705591 -0.9254816647883898 -1.5304409867226212 -0.0034304251476996402 1.060893745389706e-05 0.42909406931970323 -0.39613986055767947
111889000.0 0.4687367638471628 -0.8709079925848019 -0.9715508689040437 -1.575900394483039 -0.002055975881452072 -0.0020729310239820755 0.42535878035499436 -0.4123789428364543
