! Created with skrf 1.9.0 (http://scikit-rf.org).
# Hz S RI R 50.0 
!freq ReS11 ImS11 ReS21 ImS21 ReS12 ImS12 ReS22 ImS22
1000000.0 0.9768917657862385 0.007729673248684424 0.0026022056758850647 -0.044486930664554634 -0.007694653062371682 -0.00069032328490216 0.3130327413562676 0.3076099549900492
1999000.0 0.9915283176574388 -0.017533616587834536 0.005916109131771582 -0.02722090804784199 -0.005137438475654181 -0.0040623690082226705 0.2748569820332224 -0.08264197651332443
2998000.0 0.9989799699028016 -0.01631982039844959 0.011159735496866476 -0.015095254798113822 0.0021357455457571483 -0.00830981989727085 0.18901975783343575 -0.16989292826244803
3997000.0 1.0002345320470523 -0.02897543648513732 0.007838167658645883 -0.006711031396511101 0.005177718078388594 -0.004269396626319453 0.0819330804076447 -0.2568816017640704
4996000.0 0.9970135589376021 -0.039334152432541854 0.005240625215534519 -0.004564715604591789 0.0025745069016300057 -0.0019485570212748376 -0.06291319747654296 -0.2068486740303585
5995000.0 0.997834911341436 -0.04928789778219948 0.008479632859822669 0.004065386769449576 -0.001029792381846754 -0.0018217969098915472 -0.13873098476575876 -0.10786505707560166
6994000.0 0.999563169345748 -0.05592160433574343 0.007940570483797205 0.005009028843044193 0.004963298624700489 0.0004217771603942431 -0.14387920576221133 -0.01455905090056541
7993000.0 0.9991982887145267 -0.06532470566065716 0.0053054482187536636 0.002208337293762793 -0.002690371657983705 0.0002698446274117936 -0.15756479922809125 0.036819688813205596
8992000.0 0.9982556661893186 -0.07101490926615137 0.004566055266883764 0.006462619417833844 -0.0016667591963837776 -0.0006646485207950922 -0.15513252796769875 0.08449184703479481
9991000.0 0.9974902081710432 -0.07984665470574846 0.002419864463647919 0.003577326464229113 0.001243204199198104 9.053949924652324e-05 -0.14663252996258644 0.10403913681769561
10990000.0 0.9970963385209013 -0.09079390768775321 0.0019995069450866325 0.002649364148895037 0.004619737253687709 -0.0003284102947822039 -0.13767124870121486 0.10548025246010861
11989000.0 0.9949055581898838 -0.09937541934943399 -0.0008638523414637836 -0.0014477795436241452 0.0024553633668762966 0.001006387517143817 -0.12882339618569064 0.14354594277507315
12988000.0 0.9938945835854366 -0.10673175377801829 -0.0008478525045741704 -0.0018704175186538717 -0.0013867233941225422 0.003691786571389692 -0.09974185569723804 0.1630682070580018
13987000.0 0.9911892261645666 -0.11631139411204579 -0.0013321068118946687 -0.0035681107797409855 -0.001034017300330666 0.003043596070426869 -0.10122797373475673 0.18285945520329377
14986000.0 0.9918009601689489 -0.12525250317638784 -0.0033425484979592943 -0.0004264554001698967 0.0005009345092922924 -0.0009424423021793378 -0.08217271892129356 0.20913179320966976
15985000.0 0.9938956547567651 -0.13418365726354736 0.0016090446152248888 -0.0026613033299899857 0.0024276508513117953 0.0027654727292499405 -0.056848430820900346 0.21349024078107484
16984000.0 0.9894126068482645 -0.14325080186414854 -0.006058305473597151 -0.006314627392355212 -0.0003385917293639329 -0.0007390766875936091 -0.05989503086386262 0.21495104585690422
17983000.0 0.9908509831663208 -0.1471435415651516 -0.0029715448676302324 -0.005952157050864873 -0.004439730142254561 0.0011658757295510956 -0.04422071650567035 0.22928579815742
18982000.0 0.9858383959208926 -0.15786532478388482 -0.002134079079001663 -0.0030180465627898147 0.0012680439247644395 -0.0020669223026925795 -0.011916264358704397 0.23092841234627987
19981000.0 0.9851670401971059 -0.16645981753947062 -0.005584606315459698 -0.003425534208707841 -0.0009132603885619015 -0.00016619002108660038 -0.012859619034444825 0.2290918062640518
20980000.0 0.9826312365376154 -0.17709650507719485 -0.009057478714716915 -0.005152642114697085 0.0007876688325195601 0.00036532391690836973 -0.0033147951823651878 0.2506192097734247
21979000.0 0.9816921119084163 -0.1857397125490225 -0.005497858884761731 -0.002973695363709351 -0.0007397595343831855 0.0011172785458936248 0.005883329057872573 0.24846095599316365
22978000.0 0.9796686107904291 -0.1934350001730575 -0.0033670480103933616 -0.007213963025363112 0.0023708646943016724 -0.0019381897551875146 0.027331582151758127 0.2562345413933915
23977000.0 0.980860380198989 -0.19916602125336208 -0.004207441677009005 -0.003938130788631536 0.001177481565532053 0.0017096010999447168 0.03622200913591346 0.2564175176492586
24976000.0 0.9780342049261923 -0.21177646920843354 -0.005731010506321177 -0.0015126036180825087 -0.000875752663614205 -0.0011782338885368323 0.06911690543265069 0.2511029141532492
25975000.0 0.9747888708055776 -0.21525739796482454 -0.005048079016675688 0.0004708327049968182 -0.021059871578960075 0.01564782814315487 0.07585735375954604 0.26780998777209386
26974000.0 0.9714946494909851 -0.22698545992064745 -0.006425594752573098 -0.003940524859952678 -0.0024907207729304224 0.0015742049740401914 0.10401670925981987 0.26364648861071166
27973000.0 0.9724943780204122 -0.23343688908716098 -0.002976158965216975 -0.0027642611384163084 0.006077511256135188 -0.0050397625504134715 0.10519592105350321 0.25427810822739955
28972000.0 0.9701966759164045 -0.24259531846422616 -0.0017944604542980817 8.58995351344957e-05 0.0016741156337160776 0.0029167655651847336 0.11488182921868481 0.2600356073317055
29971000.0 0.96786178472587 -0.25263947762622857 0.0031528685669470966 -0.0023140859286675075 -0.0007488511483143929 0.0027926706692428336 0.14746142386232552 0.26552274828627315
30970000.0 0.9634861880855025 -0.25811152621002365 0.001562246723617172 0.0004619456371386262 -0.0018926573135622567 -0.000731584121202272 0.16003432502415207 0.2513473521385576
31969000.0 0.9637695241128625 -0.2662034998103263 0.005245186639922907 -0.006512062728696203 -0.0009248041616038873 0.0027017011476320124 0.14787460345225908 0.25241987561964513
32968000.0 0.9616898896450428 -0.275024265473986 0.009609018125239194 -0.007321667021937327 0.0018325667886911893 0.0005218876032078766 0.15674621712001133 0.24968739483315186
33967000.0 0.9585695974474057 -0.284472604126511 0.014058763325151621 -0.01080197208927017 0.0005216773292182598 -0.0012652976589339377 0.18166352541193506 0.24865190621410327
34966000.0 0.9552481115430456 -0.29416505171662577 0.01443034165491273 -0.012781791382372447 -0.0002742476506521918 8.166827936820609e-05 0.19489064547606255 0.24901030973420293
35965000.0 0.9523889307198136 -0.3000429159209901 0.01741577782772852 -0.01692815811703092 0.0009449811115347177 -0.0019736466829429248 0.2073024721536931 0.25041496019201265
36964000.0 0.9508214062585439 -0.3102526501764731 0.01532121114266719 -0.016863760155487587 0.000688421249692366 0.0003419374177448282 0.2133322815975543 0.2503626213323023
37963000.0 0.9469973640638427 -0.31983453023264047 0.022581647201899053 -0.022191566101989392 -0.0011418347972039207 0.0016003311802543503 0.23031890600650637 0.23839843452499027
38962000.0 0.9466617807692073 -0.32811414252950666 0.02434450999251426 -0.02801558835442107 -0.00021887979008297718 -0.0006426013652500528 0.23774740208752193 0.2395027267519812
39961000.0 0.9412825210547483 -0.3368781141701212 0.026251372109325804 -0.03108951560619289 0.001647659264774589 -0.001148850788267328 0.25065203937321673 0.23336046813255973
40960000.0 0.938328219086051 -0.3439863556302776 0.024370973216816097 -0.025229688331511995 -0.00559546875870875 0.002691162989325316 0.26658903637867715 0.22371601513232875
41959000.0 0.93609198446326 -0.35229741250488333 0.032939401738261306 -0.03210974228400826 -0.0021408797333502985 -0.0005904605414030278 0.2710162087424816 0.21262734688616997
42958000.0 0.9303816678655381 -0.36259058108111336 0.0336060903200106 -0.041857987251936644 -0.0028344169368468616 0.0004459731539192177 0.2842441575849557 0.2091278382803659
43957000.0 0.9290078113851766 -0.3668667205857244 0.034805636419439526 -0.047803881603252524 0.0009695671148238418 0.004183667844792674 0.2888386290342782 0.20523009335279904
44956000.0 0.9253807726818121 -0.3766401254723301 0.03329391893695301 -0.05600739799410076 0.0010759178491897919 0.0004411440495119621 0.3015134066245415 0.20332852479094987
45955000.0 0.9212656308107082 -0.3869041323983861 0.036451533485921964 -0.05830537932107731 -0.0017177721728349894 0.003546161742283304 0.3071538888710405 0.19461873832803586
46954000.0 0.9190727423460312 -0.3942158500739737 0.03642495358849592 -0.06645881672807542 0.0015121976531695916 -0.004882079013898524 0.3235107580280238 0.18007742486256686
47953000.0 0.9150032276754175 -0.4013316370641218 0.040042514141466375 -0.07310176908495761 0.00028249871275474564 0.002408123640127498 0.33084794581240534 0.17373117687309825
48952000.0 0.9092108400529089 -0.4122863776300204 0.03692061925154646 -0.08111555679499671 0.00300511867490812 -0.002684690035258905 0.32806623215849945 0.1731129375619441
49951000.0 0.9072601781897455 -0.41819897556917973 0.040469574205099446 -0.08729396172793367 7.46429655626159e-05 -0.001352900017718334 0.3512254234989459 0.15780182555340125
50950000.0 0.9029079138601581 -0.4266703398300579 0.04099093832930711 -0.09688252124038134 0.001287941306029351 -0.0033174519825648436 0.3560102686131962 0.14888076565815972
51949000.0 0.9005085084930209 -0.4343558515384303 0.04200392872165036 -0.10413940808256265 -0.0032242813812985893 -0.0008078036005343519 0.3587923022681628 0.1523775216333149
52948000.0 0.8980922654713701 -0.4415015789615051 0.040686127672780195 -0.1129903689913624 2.3530444302423618e-05 -0.0021402390823548056 0.3729304585950317 0.14542024157626532
53947000.0 0.8903551282018974 -0.4497811207127114 0.04402629447813997 -0.12358213956929254 -0.0012378277709093539 5.384004582631857e-05 0.36905227595194284 0.1254384956530132
54946000.0 0.8870324965117939 -0.4582433365331723 0.0447198823891214 -0.13250449059678374 0.0014369407089062944 -0.0031712819795766947 0.3800781347056208 0.12133727757245909
55945000.0 0.8846923115085611 -0.46631896722054866 0.043069831453850564 -0.1458373837379734 -0.002548150726410673 -0.0028427235618844054 0.38472654515857313 0.10105017869607344
56944000.0 0.8802437470307798 -0.47420768756233017 0.04948040670220012 -0.1553535646061424 -0.0013908464959449297 -0.0008084926128287818 0.39543336177281796 0.104884765195941
57943000.0 0.8759695686838771 -0.48465851690936185 0.0480832435506616 -0.1650858568651408 0.0009865417732497098 -0.002819536676749802 0.398187212194341 0.1087948554279515
58942000.0 0.8685664209383107 -0.490787573335362 0.05418997695284789 -0.17881606337711892 0.0006894028202978814 0.002743225338711592 0.4232903765488047 0.09232883130886657
59941000.0 0.8680806584933639 -0.49805131371549227 0.053628480004743996 -0.18462475156866365 0.0008823685123088982 0.0027103742219637826 0.4217010519569623 0.09516206505552205
60940000.0 0.8597777946030184 -0.5050554570347398 0.05275215327717718 -0.1899244391010046 -0.0011338341823317688 0.0019195394333735504 0.4141418029983437 0.08155377938128372
61939000.0 0.8568103617662498 -0.5121773252399879 0.05158885873736598 -0.20094083307975535 0.0030035574281879374 -0.000758599420248964 0.4212505449204368 0.06996431294020594
62938000.0 0.851676175171966 -0.5223558763347559 0.056253945023118715 -0.21442885718180735 0.0014113501031122685 -0.0004499862738406459 0.4471911610250826 0.05575352400565066
63937000.0 0.8455819731448824 -0.5314692165162603 0.057378622225179185 -0.2396302713585664 0.002024456462180334 0.0012508261191853506 0.43649554949772484 0.04332186196286153
64936000.0 0.8397483473024161 -0.5357503666297027 0.05536479764502291 -0.2519030703174649 -0.0010306393427577001 -0.003037562460602247 0.4344201701298024 0.05017582981270526
65935000.0 0.8364565117661047 -0.5480501357577426 0.058217956284036164 -0.2663104954051756 0.0011390661737898844 0.0016600248572318649 0.452203731708703 0.02064821650692805
66934000.0 0.8335527564653268 -0.5502715783738567 0.056792777302764635 -0.28145115509487356 -1.791198202373293e-07 -0.0030316269367110607 0.4405432540415005 0.009225636448828676
67933000.0 0.8300199481672327 -0.5609061177188784 0.05685956950398517 -0.29350274583802705 0.0018387948559434137 -0.0009267357240637919 0.44164700338389107 0.01997754046606935
68932000.0 0.8133283637719577 -0.5639398129951725 0.05158275995288452 -0.30638108956809507 0.00017217200288285843 -0.0006036750419251279 0.4599287372703849 -0.0017864050826240244
69931000.0 0.8150853529104194 -0.5783326953846697 0.052514883026459534 -0.32651586820852563 0.001250724674028803 -0.0035468330860889898 0.44890663892543353 -0.015767862103355797
70930000.0 0.8104766547210585 -0.5838178888293525 0.0480224379207301 -0.34086993797915005 0.0014364093338974373 0.00031512951771187693 0.4492461112011965 -0.021607256647992207
71929000.0 0.8082988371372828 -0.5898399910335992 0.045960713399013434 -0.36150093149548557 -0.0009477103241162448 -0.000272076450587849 0.45182061764829357 -0.027717710069096846
72928000.0 0.801022310047021 -0.6019233653248014 0.042502204362692884 -0.37787322065285583 0.0029286368172350054 0.0008500696936931802 0.46428183355575925 -0.044316264451578574
73927000.0 0.7935753727780257 -0.6053624320522522 0.03403641198227889 -0.3980091256856665 -0.0014797304141337805 0.002022570273312517 0.45767321351030565 -0.05251541243825643
74926000.0 0.7888422151093253 -0.6159403438787013 0.030590387873193535 -0.4190136969646906 -0.0018312770210285002 0.0035044666617836417 0.46590026422994063 -0.05478798315791087
75925000.0 0.7838392400148367 -0.6219067285686521 0.018822900129039425 -0.43732122640074844 -0.0008733190223575443 0.0012843905487340923 0.4670021952252873 -0.0666078306477747
76924000.0 0.7781335413927162 -0.6298670932090594 0.00819054926639593 -0.4603893806598114 -0.0025113559711716763 -0.004471203318219869 0.4697199993101356 -0.0791306583385113
77923000.0 0.7702588487845234 -0.6367030266530389 -0.007304438007215116 -0.4820009773266427 -0.0012033252606019082 0.0025206659047357603 0.45827805347170797 -0.08102128640167591
78922000.0 0.7643498994684174 -0.6466484982458557 -0.02061021204843126 -0.5113662708708101 -0.002656473998713675 -0.0010762038075765104 0.47005708033061855 -0.10025962774743587
79921000.0 0.7574142710620093 -0.6524068336188741 -0.043227104901529124 -0.5364441901559585 -0.0024457724584198417 -0.0005509098328936988 0.4598349968259562 -0.11208747403288583
80920000.0 0.7521768787511973 -0.659974382286242 -0.05267047445804651 -0.566953285240825 -0.003154865088591088 -0.00042661369299419654 0.46685136003469413 -0.11833945652129901
81919000.0 0.7475140150078095 -0.6681205559948776 -0.07461290002612846 -0.5951937710852584 0.00044419292354583393 -0.0046536248759903075 0.47563219174250604 -0.12621696029543727
82918000.0 0.7365116097823908 -0.6759480728486111 -0.08640263669003305 -0.6246192184099126 0.001184583626558667 -3.6706457444387874e-05 0.48560180048885754 -0.14945963698263098
83917000.0 0.7308117676960064 -0.6816563350325722 -0.10623880615772135 -0.6547655645062453 -0.0011978385811315315 0.0027061414055353427 0.47881839749896465 -0.1461583431642665
84916000.0 0.7249850742354917 -0.689853197551304 -0.12220051442052263 -0.6925565226011229 0.002404381309465515 -0.002992370891181923 0.46670928506167153 -0.15104279826004094
85915000.0 0.717689697287771 -0.6974563808382482 -0.14915687928747628 -0.7221443297473306 0.0010890603729307316 -0.002567279749313654 0.46822110434856 -0.18328002962301934
86914000.0 0.7106552115534587 -0.7068791264345756 -0.1611159213826403 -0.7625295297560762 0.0015732527694574106 0.0005818407149543487 0.47009640493224053 -0.1696301372833936
87913000.0 0.7049626664658879 -0.7118886979923935 -0.18126512318252347 -0.7884769258308226 -0.0007958621563883867 0.0006462728360923328 0.46808960349781115 -0.1755874254645302
88912000.0 0.6966899795039222 -0.7197246133534856 -0.20027795810543264 -0.8241771959852556 0.0037224284506103653 0.002233470933902322 0.4727804973162708 -0.20113080483700066
89911000.0 0.6892251871554564 -0.7270357467858963 -0.21523677659144683 -0.8621088930451442 0.0032397634293017856 -0.002777934687255756 0.4741581458213777 -0.19789030559436976
90910000.0 0.6831380167314235 -0.731603186040942 -0.22996109602088097 -0.8980533377265936 -0.002889388092579195 -0.00324577013070266 0.4753366424516851 -0.20300184292453818
91909000.0 0.6716375655941673 -0.7384949461037228 -0.2526782233083688 -0.9281344033251467 0.005638195170021182 0.0016465717824467325 0.4735023671741567 -0.21080074458234263
92908000.0 0.6658342269051608 -0.7456728853737452 -0.2732943511119409 -0.9657662222252874 -0.00021874453811082927 0.00019106250968905426 0.46160388085616166 -0.22912128819367814
93907000.0 0.6583855113377947 -0.7512757517619417 -0.2930459146411292 -0.9942686373632349 -0.009553464433203377 -0.002320296907643086 0.46936682332446333 -0.23802131948903657
94906000.0 0.6469824527235712 -0.7607227494881378 -0.30721749264314285 -1.0372482773232552 -0.0019726294699267065 0.0022530766689299944 0.4663952624790484 -0.24851034740247646
95905000.0 0.6401499378718634 -0.766060022149472 -0.33646890035167876 -1.0676764499702764 -0.0019405877347508595 -0.0023399488097466 0.47056885103936 -0.2657840957835825
96904000.0 0.6322072251984104 -0.774003719123446 -0.3505758902337797 -1.1069467128348107 -0.0015090718066367637 -0.000605338966674915 0.46245854525819136 -0.26262213032354553
97903000.0 0.6224882662184478 -0.7813255157291045 -0.3811200163799058 -1.14445043828712 -0.0005809998017899956 -0.002752413742703118 0.4499388499081563 -0.2798516748928361
98902000.0 0.6188160149134143 -0.786899052483024 -0.3974727767230077 -1.1804989843452225 0.0014356007091737124 0.0004591512677157004 0.4508743547844818 -0.28846637867640185
99901000.0 0.6097523461766559 -0.794539298228265 -0.431208476226226 -1.2137372653913434 -0.00019813769494429967 0.0018495823696400113 0.4754284618761302 -0.31338663763169144
100900000.0 0.5994894584783683 -0.7966522308500196 -0.46339344408667693 -1.2461331949681331 -0.0006618242711583164 0.0007384737169911759 0.46996072787217874 -0.304335903034545
101899000.0 0.5922138816308117 -0.8049847876561189 -0.49087168172800677 -1.2886431433405134 -0.0038797458598035387 -0.0009566926670599593 0.4626799683200435 -0.31430522619161694
102898000.0 0.5813063305562813 -0.8121592586138455 -0.529204896684752 -1.3260637247390794 0.0015180135963317322 -0.0008483914510625394 0.45902238723620065 -0.3209371735729276
103897000.0 0.5731846556626813 -0.8171409212631892 -0.5698217383184357 -1.358314000721393 0.0009145486434354828 0.0009577736444694636 0.4719797307536975 -0.32621663957509467
104896000.0 0.565219541114187 -0.8300996289287617 -0.6187564886722247 -1.3952576710378692 -0.0009909496433528806 -0.0037177406969204833 0.4453118857253632 -0.3342428632771702
105895000.0 0.5538602318370003 -0.829031321913994 -0.6643265232376359 -1.4390979681550506 0.002195070979970188 -0.0020385997524508623 0.4490996218615202 -0.3544837278759628
106894000.0 0.5466962452459827 -0.8358878760210273 -0.7193508971604927 -1.4798569613210575 0.0017606166084525327 -0.004775628919633633 0.4418368186832138 -0.35857601121644606
107893000.0 0.5380932838424064 -0.8412772431586959 -0.7771902126186435 -1.5103074146870854 0.0016892637728433994 -0.0009030026867395711 0.4449857433871901 -0.3908655829862099
108892000.0 0.5309946563844757 -0.8445923179855075 -0.8312861638740019 -1.5505191160126488 0.00046949292887266635 -0.00048516262226553004 0.43413133744045407 -0.3701484885355641
109891000.0 0.5176436446461418 -0.8526241253878869 -0.8922320950180579 -1.5862806280793091 0.004076784597901251 0.0006962996083326015 0.4436960940517621 -0.3717064223876283
110890000.0 0.513509706789812 -0.8673423787378554 -0.9639566443171985 -1.6157554718696534 0.0013224581994603116 0.0007924536999876966 0.4383873375227847 -0.3783283387081704
111889000.0 0.49724676774502286 -0.8613174944305538 -1.0229290767469958 -1.6536365534317206 0.0018954743495287803 -0.0005183202134727596 0.4295420848384279 -0.39025670920902417
