! Created with skrf 1.9.0 (http://scikit-rf.org).
# Hz S RI R 50.0 
!freq ReS11 ImS11 ReS21 ImS21 ReS12 ImS12 ReS22 ImS22
1000000.0 0.9732986501560628 0.007362936197404798 -0.0060051938307333925 -0.036514598373875364 -0.013266443750743706 0.020733826817506535 0.4056493139385583 0.3424322608315066
1999000.0 0.9970832965109793 -0.01086688057532479 -0.0009398265131631298 -0.018376498771380024 -0.0018781052874644374 0.0021632878930225915 0.24362966819113166 -0.030502787737665835
2998000.0 0.9956064138354592 -0.020418136642365588 0.012371584888837875 -0.012387114215517605 -0.0057596191562698865 -0.00014416360825450443 0.1960452367922684 -0.12309720625206491
3997000.0 0.9943224641265713 -0.03467177620995882 0.012040909745045819 -0.005263561281267717 -0.004737667856541048 -0.0005445761495390202 0.09228534784951073 -0.22498604710278103
4996000.0 0.9934114597274046 -0.03664689961821141 0.011325856899871086 -0.0018659563161131367 0.0012748523394562833 -0.0031528304993264132 -0.05455728515989586 -0.19870261558477736
5995000.0 0.9925514596286997 -0.05287466727439207 0.012418335933203156 0.004161101635206152 -1.0498871861647126e-05 0.0005369985947764251 -0.11956629528148946 -0.09844692289462212
6994000.0 0.988626308481704 -0.059978498832487355 0.008920319752739148 0.003233222393416786 0.0029033439450854757 -0.0044728383129435285 -0.13965308119543043 -0.0062036518521444775
7993000.0 0.9918048251680827 -0.06820365621100477 0.005342029003707121 0.00495467625090196 0.002809945825690108 -0.0018817981490284064 -0.1528159706299432 0.032759147881444226
8992000.0 0.9905977554008851 -0.07378460940479568 0.002816085234648979 0.0019744617432839785 0.003486044007547386 -3.102193958991139e-05 -0.14529891390425564 0.05150043935592888
9991000.0 0.9899959132258169 -0.08313360918557963 0.003521256941677515 0.0035755463133188346 0.003265383527352019 0.0004739060405176171 -0.1472828206627168 0.08421095790569062
10990000.0 0.9873231755349848 -0.09549394703599501 0.0027315524000050525 -0.003211819938263451 0.0008096884319674059 0.0006909629490147527 -0.14368045572478158 0.10963053773798193
11989000.0 0.9866300837928537 -0.09897224558888536 0.004349894138709971 -0.004937667136453879 0.00039136892883762244 0.0013313865293206524 -0.12611352642486554 0.1288633447404061
12988000.0 0.9851136108477874 -0.11005208866456857 -0.0018908609984519445 -0.006898144759392435 0.0014591878431965293 0.0029119562881793847 -0.100982783414576 0.15681590135969897
13987000.0 0.984069223622195 -0.11858625722911768 -0.0004935752706065349 -0.005253906069637112 -0.00453087007076783 0.0016794317668248164 -0.08801949517922424 0.1821851519499724
14986000.0 0.9822664549376485 -0.12678991021459277 -0.0025628262963521583 -0.0012160626699417591 -0.000602316364677242 -0.0015808349874221505 -0.08785215282434666 0.2073524400139474
15985000.0 0.9850644218223196 -0.13337706965539195 -0.0039717800710258565 -0.004414453977685331 0.006120281835464203 -0.0025892256752332197 -0.06308340563579104 0.21509610173090132
16984000.0 0.98233083883626 -0.14415175188408152 -0.002218120632419571 0.0015905076288199945 0.0018009300108725592 0.0005123321092490333 -0.06592328537614346 0.21282461525447555
17983000.0 0.9828426923960167 -0.15009993334358634 0.0033693083403124563 -0.0008731981587600376 -0.00308337958021522 0.0016559107327425034 -0.055887887995002695 0.2238139992500425
18982000.0 0.9780126892569571 -0.16077197758743492 -0.003655953277638798 -0.0059098915696755485 0.0038212922735162474 -0.0012380434357747824 -0.020960386010030984 0.24187235084730233
19981000.0 0.9780239356598238 -0.16675750887282004 -0.0005119688332605028 -0.0012996693470917436 -0.0005803608524740475 -0.0009152950141285577 -0.012401743166192188 0.2400013791515205
20980000.0 0.9770509307206579 -0.17603216289046766 -0.004601556296206337 -0.007790721131971277 6.85154895489294e-05 -0.0007169954057025962 -0.010718571850433362 0.26072629281214177
21979000.0 0.975636254722499 -0.18484505975561008 -0.007506008965733377 -0.0039151540135261825 -0.00429621914401737 0.0010676343994920072 0.022547229807759216 0.23892187836036718
22978000.0 0.972896682715764 -0.19251908947078983 -0.006124519713745499 -0.002151965728245401 -0.0024890180680189455 -0.0021528785368374213 0.02477501310235595 0.2584648354135202
23977000.0 0.9739622539274801 -0.20242651898776215 -0.005266302826928061 0.00048313228942962637 -0.001772268273269593 -0.0017810394130568855 0.039008598485645696 0.2528051757568181
24976000.0 0.9704097185083327 -0.21207756340211617 -0.0095909623434813 0.0032941956808489213 0.0018069140880210054 -0.0009485156873769766 0.06232074031687389 0.2569700821294315
25975000.0 0.9643293403973277 -0.22542525451655857 -0.0035071338637061114 -0.003372509725270758 0.006048326922740095 -0.024061916663558978 0.08458783933917466 0.26358430176315506
26974000.0 0.9672293079524446 -0.22828946085799776 -0.002468627563912298 -0.003947036983661597 0.0004838923946319334 0.006327615894659013 0.08158313693064916 0.2607670752498577
27973000.0 0.9670409593958937 -0.23506022747089622 4.551444974089599e-05 -0.0014513868540822984 0.00038954310778412235 0.0009420288056476234 0.09827860738074556 0.2568207764498451
28972000.0 0.9612781006483724 -0.24788369228099227 0.0003367633413161991 -0.005874103406952465 0.001428834493414196 -8.590960943804856e-05 0.12261143401753136 0.25702053104404826
29971000.0 0.9601839809722678 -0.2548063432829874 0.001272826788831682 -0.004405431367894911 -0.0016473810878513673 -0.0004392789625177205 0.1481917235641161 0.2564647730743866
30970000.0 0.9594228006515106 -0.26024161814554514 0.0013216948934216956 -0.0016542113474411343 -0.0008759811395093325 -0.003275487874294138 0.1573184865993314 0.256402281048933
31969000.0 0.9557604021259523 -0.27072505345467773 0.0032824908350259367 -0.00585166716898447 0.0022303488795796383 0.0002619552243854896 0.14739187179461163 0.24805867190219488
32968000.0 0.9548136042627792 -0.28019032847819864 0.007252219740007968 -0.006744437707617942 -0.0007155861204069851 0.0020486388724033034 0.15798846705695052 0.2443864537285053
33967000.0 0.9537312145596073 -0.28730689065119247 0.008482767022524818 -0.008549043366223232 -0.003965895734955741 -0.0019864715638185874 0.17841930599497727 0.24337562031614968
34966000.0 0.9488218406122679 -0.2996585012212206 0.016649723709562483 -0.00822376069197255 0.0007316103023179145 -0.0017278373709253684 0.1865890504716519 0.2570547575402707
35965000.0 0.9466614911469686 -0.3059051713332055 0.01863015400354139 -0.013478517098491611 0.0013053519302633917 -0.0012202766569338437 0.20248222953080733 0.25029814411863593
36964000.0 0.9433215948273336 -0.31472586599994584 0.018337636789113338 -0.01770893415314872 -0.0014346980217646973 0.0018357026792061029 0.20720108821007346 0.2585670829022158
37963000.0 0.941825215493775 -0.32284900415690354 0.020754944324755477 -0.021495206811898798 0.0007021164683511148 -0.0017786962751721155 0.2255462795708111 0.2275991180557726
38962000.0 0.9390327800744543 -0.33118519331431695 0.024911096008679672 -0.02434840352356482 -6.675456323067451e-05 0.0004653594121896772 0.23494215487440293 0.23744227549442845
39961000.0 0.9352529659118927 -0.3422326126102072 0.026430554510895737 -0.02913232220380945 0.0016792710019975824 0.0005719674638290498 0.2458403178875149 0.2210517575907634
40960000.0 0.931958793798357 -0.34776019640250866 0.024261594356221446 -0.026767234679439034 -0.0012066510276560341 0.001533006990446109 0.26990739072918907 0.22564177727043552
41959000.0 0.9289907491810565 -0.35948919137161744 0.03329324323027582 -0.032231027384489214 0.0014756860138093273 -0.00029562217605000237 0.2598043230551208 0.21611811951539472
42958000.0 0.9233258280044884 -0.3677719880439861 0.03288274703078197 -0.04186221053348233 0.0002812662229466018 -0.001547554817525167 0.27414556258535594 0.2018351485612917
43957000.0 0.9222666693962532 -0.3737142749825622 0.03405149601853268 -0.046720896392405106 -0.0020696548019726803 0.003482307128194098 0.2883272035403534 0.20294138525840316
44956000.0 0.9182191462684036 -0.3807604212823649 0.03756311924543366 -0.05143762765285091 0.0010550943521438268 5.686921430675973e-06 0.2992077884939466 0.19411702560456082
45955000.0 0.9131262634560856 -0.393208292072697 0.036987291589596835 -0.058829592823392375 -0.0015703294277973358 0.00010530042318382282 0.3046946822349827 0.19025307062626592
46954000.0 0.9103625364401955 -0.402329394156298 0.037861814970369966 -0.0656631153484928 0.0002524654285886113 0.005106588664193403 0.31854747054565313 0.18322856091222858
47953000.0 0.9060957524189427 -0.40943201711926497 0.03664863352077486 -0.07461049819100485 -0.00021345435752596307 -0.0016145535472313014 0.3294972410314011 0.18054234299104124
48952000.0 0.903610360008689 -0.41809051483735843 0.03861499635205768 -0.0819550770545094 -0.00013561067695443544 0.001521172445312036 0.32783517823287567 0.17068826863325617
49951000.0 0.8991013365783642 -0.4267909654186682 0.0398820701898931 -0.0870719397571252 0.002256954539003712 0.0022663798024758655 0.35151627840047267 0.16131867749421142
50950000.0 0.8945992787331394 -0.4334259015104506 0.04283784691159107 -0.09727931282826317 -0.0011571331322327624 -0.0017960356106684512 0.34234563615235436 0.1479078148592555
51949000.0 0.8902572350062591 -0.44160714496485476 0.044249885299674975 -0.10614470576329095 0.0025414122329607746 0.0017596158455064367 0.3530241258124149 0.13822730571193334
52948000.0 0.8872325810696542 -0.451074157194224 0.04300078194674241 -0.11203796308831535 -0.0013236849826772383 0.003020945122082617 0.3708010635140907 0.1464334088205941
53947000.0 0.8830521796788159 -0.45714806604588426 0.04555181595242083 -0.12405217495734115 0.0020395726818457477 0.0005571486201091614 0.37245500456981206 0.13213491641463015
54946000.0 0.8768805278363927 -0.4694964098514166 0.04842113070659653 -0.13427687943609168 0.003999950215657273 -0.0035522958385758555 0.3723531564553114 0.130200169730175
55945000.0 0.8733707046355205 -0.476588397828204 0.048505595828941206 -0.14206491655609207 0.003435191135741352 -0.0029709507577750324 0.38369548423694944 0.11468155398067678
56944000.0 0.868052922891709 -0.4844360832175497 0.051004107497618446 -0.154292266758193 -0.00015647173885027684 0.002850792144838424 0.40010407072146154 0.1048491118951692
57943000.0 0.8658502822894067 -0.4937358926231256 0.05149751137957474 -0.16727350164063814 0.001885372891566574 -0.002922631353548698 0.3985706185857038 0.10588625985088644
58942000.0 0.8580097023186224 -0.4999670769721831 0.051246465776594474 -0.1758199025303118 -0.0021587003406248586 -0.00022368993528178207 0.42442934303128715 0.09121009607625655
59941000.0 0.8564049133013109 -0.5074125198941926 0.05661299220389579 -0.186073283795207 0.004447121977195143 0.0011311128041216613 0.406673726278216 0.09282820423363077
60940000.0 0.8470980660506353 -0.5159261533420004 0.05362890388970616 -0.1916670173586177 -0.00011897702312915477 3.785453567030735e-05 0.40600483379337554 0.08862203716826594
61939000.0 0.8457423514373879 -0.5234950851203458 0.05640081154462486 -0.1999256169183872 0.0023572568176892456 -0.0005348803767447161 0.41946729414556355 0.07708279977718306
62938000.0 0.8378148513409732 -0.5326941117118746 0.06013434778610731 -0.21556742760813724 0.00035567980738649015 0.001379573074253955 0.43850865304674214 0.06391865484889322
63937000.0 0.8320355533618953 -0.5411477455434557 0.05938007488437413 -0.237779351894432 -0.0015050650929590167 -0.0011173016763865822 0.4327368884915296 0.04230928641172683
64936000.0 0.8277425169790507 -0.544713760304608 0.05783223288706935 -0.24967346991680103 7.884113357919497e-05 -0.0007356071611131498 0.4326254399491996 0.04940147310882049
65935000.0 0.8249813108915666 -0.5570279178745284 0.056614107644469586 -0.267419267819038 3.0037346254129742e-05 0.0019263096260804 0.4310940126845108 0.025866356687999872
66934000.0 0.8189716758701459 -0.5638217696182409 0.058500276254219344 -0.28094123898320805 -0.001775615703309848 0.0009225072556134582 0.43818423597722395 0.017807157310050805
67933000.0 0.8139197229496392 -0.570800309197168 0.059395625200558605 -0.2945759639452017 -0.0025709512899070334 0.0008381109627760267 0.44174097435689375 0.01506618207218172
68932000.0 0.8040152518045905 -0.5626962357530046 0.05642442844532284 -0.3033100026884518 0.0009854427666299843 0.0027649243953852777 0.4484418804490076 -0.006632863122209077
69931000.0 0.799401877943736 -0.5896556019152437 0.055632593997690924 -0.32463483555695016 0.0010474761908178213 0.00043540408047558206 0.4406918488106768 -0.01588235543984564
70930000.0 0.7941647873472725 -0.5946964031828859 0.05026110209125442 -0.34379612169915835 0.0015802400615087158 0.00225694598776819 0.44669253299566214 -0.029163390436629712
71929000.0 0.7900774986319086 -0.6017772751114373 0.049262621066766384 -0.3596598183351627 -0.003909907675790536 0.0025565506605178486 0.44757936907872203 -0.029974288716382982
72928000.0 0.7833659948991207 -0.6130740864730058 0.03879447484334852 -0.3773392241756863 -0.000804228827826742 -0.003163811496896177 0.45734400223290267 -0.047280832140316253
73927000.0 0.7781603522177655 -0.6183946895254868 0.03743966107890828 -0.3995532632791445 -7.935643325984323e-06 -2.798462788715906e-05 0.4562191576748135 -0.04839178963051113
74926000.0 0.7699325065147861 -0.6277641656003144 0.0269607760599318 -0.41871862913794106 -0.00018342308954006993 -6.086625987413302e-05 0.46073244683551545 -0.06071607457641596
75925000.0 0.7659961368610505 -0.6321474597116933 0.01939225064089969 -0.43808530190656986 0.0007175726466176384 -0.0007518043974140866 0.4711416776295984 -0.065899565441417
76924000.0 0.7599764415536452 -0.6408904234675838 0.00605580571678301 -0.462635984517807 -0.0002527743040875232 0.0016126080800892288 0.46084058660022315 -0.08136262917926286
77923000.0 0.7528274951656272 -0.6463032577827901 -0.008927092623472183 -0.485929267582569 -9.51121903776132e-05 0.004401175634307562 0.45626123650205697 -0.08298204789961529
78922000.0 0.7466153784096872 -0.6577676386340084 -0.02044773275440102 -0.5130884524255488 0.00037725392869963496 -0.0029339287699822725 0.45746210778632673 -0.09422083373485486
79921000.0 0.738039353199752 -0.6616476821492628 -0.039027485912889306 -0.5388894048932575 0.0002514301629352823 -0.002003066164294554 0.4583357241774846 -0.10989247129672133
80920000.0 0.7338462496547989 -0.6702049480424526 -0.051396288329318966 -0.5701687340910316 0.00031554631902169626 -0.0001726087521820892 0.46690954196975465 -0.12079806254486843
81919000.0 0.7261276058205772 -0.6760856981849834 -0.0695654974245321 -0.5967480820522824 0.0006777663626353053 -0.0007366379907859138 0.46934919483567283 -0.12591653202064307
82918000.0 0.7195642776141027 -0.6847602808674687 -0.08613187576492456 -0.6275704525208429 0.0032530486030577202 0.004162625661279695 0.47602227599751257 -0.1327589431833048
83917000.0 0.7126061301999072 -0.6925445116658662 -0.10614504436591879 -0.6599327347188931 0.001043217488816686 -0.0023194022151511386 0.46643742076175276 -0.1432862654866949
84916000.0 0.7066866972941243 -0.6990197592883358 -0.1194469343505561 -0.6917234667287601 0.002251276897785579 -0.0016171174663260986 0.45758590481866274 -0.16221473606083298
85915000.0 0.6989356562999005 -0.7052147439026125 -0.14116461683184298 -0.7265765909384356 0.005621431465025761 0.004735629313461763 0.47077977241421864 -0.1539636463669801
86914000.0 0.6884566892687659 -0.7157820859403301 -0.15613592808325968 -0.760149449136536 -0.00015194633716105263 0.000267519074139284 0.4630769440719305 -0.16914554949510835
87913000.0 0.6842977404199172 -0.7209080381665858 -0.17398404286894276 -0.790826352684948 0.0027601333564508906 0.0006696844027063357 0.4508232970060848 -0.17732974164973966
88912000.0 0.6756392822059059 -0.7289860129339165 -0.1894868010409468 -0.8265899495888325 -6.585073853534012e-05 -0.0002466965936857667 0.4620306419963699 -0.2032624689445209
89911000.0 0.667847539564784 -0.7362935445420287 -0.20756413904335946 -0.8650459540875207 -0.0016818657766624412 0.000513071559098381 0.46512104027021145 -0.19828018662225524
90910000.0 0.6616618807527866 -0.7408458256619154 -0.22515009766241284 -0.9009111586758186 0.0009425866882715267 -0.002200920334291388 0.45295400538987646 -0.20780183874371227
91909000.0 0.6517991197379748 -0.7452790823502302 -0.2461488953514566 -0.9284544254115318 -0.0005639696602380346 -0.0013468049925330673 0.46830761566090046 -0.21944145249702093
92908000.0 0.6450281710025006 -0.7549260653859878 -0.26473973487897556 -0.9629609716163007 0.0031713931224525214 -0.0004667003694415142 0.45616530931402666 -0.22548722694742235
93907000.0 0.6379705499131314 -0.7605619229750701 -0.27909875514607224 -0.9984359374411124 -0.00037224894447146473 0.0005199315719062273 0.4574098601442721 -0.2398899723056331
94906000.0 0.624607448533681 -0.7670282530189126 -0.3021400670423329 -1.0300029010700187 -0.0026266777455273634 0.002495441981864393 0.4589024506488648 -0.2531799691868736
95905000.0 0.616890266917755 -0.775192531599177 -0.32605568942850316 -1.0678439484027165 -0.0007020772229441868 0.000545587323657706 0.4640930091013753 -0.2697461358837801
96904000.0 0.6106340362042724 -0.7834442201004991 -0.34483379439200285 -1.1088599646060877 -0.0008784769308100379 -0.0001313115261345547 0.4598964583637881 -0.2624418932667658
97903000.0 0.5998758014994229 -0.7886109440728204 -0.37100894277314156 -1.139955489814561 -0.0020472219638494956 0.0010561345365208991 0.454581748620899 -0.2742460696195403
98902000.0 0.5959151847711206 -0.7965357706997226 -0.3927040288390892 -1.1826379309550104 -0.0022178555799828655 -0.0015243346625130809 0.4468403743013664 -0.28205062889171995
99901000.0 0.5848131224404386 -0.8009571869247848 -0.4229838417258644 -1.2089649728920309 0.0010954270489302717 -0.002718485582955318 0.4554896944210524 -0.3032866626085234
100900000.0 0.5777483279594986 -0.8048190909415629 -0.4527370405888559 -1.2446710014971205 0.001601437366618332 0.0024764147173279645 0.45974266455804463 -0.30143629613911677
101899000.0 0.5657850093496017 -0.8129623145984511 -0.4834847945026058 -1.281740606737874 -0.00010424667272425898 0.0012103022388656529 0.45977217130404235 -0.30906997052992113
102898000.0 0.5564691452965667 -0.8188433335858017 -0.5214090673825452 -1.3216948963112722 -0.001955316167207213 0.001191255389602958 0.46035626033388494 -0.33095210779114304
103897000.0 0.5488496776745413 -0.8247942104601318 -0.5583288387366732 -1.3571970590930995 0.0012090953211303425 0.0009597193689041154 0.4576077300928448 -0.3227181404883744
104896000.0 0.5411236033532555 -0.8361217278715993 -0.6076203083940963 -1.3930892108375772 -0.0010144471145477816 -0.001294231701159294 0.4439636894401972 -0.32414303249591553
105895000.0 0.5277222072077694 -0.8388122385425477 -0.6573149360237887 -1.4340407193678437 -0.0017251849298733786 -0.002722107266041841 0.44057804737299616 -0.3498769037218632
106894000.0 0.5200348779315022 -0.8441305437761197 -0.7135867600276667 -1.4734998052915438 -0.002049362995267025 -0.0016895627111564006 0.4392532529614689 -0.3486073955264974
107893000.0 0.5122183259033872 -0.8520086498555818 -0.7658742047944548 -1.5163544530981077 0.0006333743874390675 -0.0005802545268485081 0.4253908587613804 -0.3552974077505425
108892000.0 0.5017072044612103 -0.8541773020841266 -0.8272552235616867 -1.556833891296661 -0.0027699804385879928 -0.0016145740878757695 0.4354773401280464 -0.3604030082213547
109891000.0 0.487229485754676 -0.860759319154451 -0.8843816618185285 -1.5882102889224392 0.002516105446945672 -0.00018676648114508666 0.44091942203070544 -0.36831098178184785
110890000.0 0.48018599373461307 -0.8625869401000122 -0.9414536208829597 -1.6004765720954381 0.0033712596845165183 -0.004016513830320217 0.4284623913453938 -0.3587751991255619
111889000.0 0.4680537198488369 -0.8691013988572717 -1.0163811820687183 -1.6619920329943207 0.00013487323063338173 0.0017212781979257493 0.42991671855627905 -0.39643364856656804
