! Created with skrf 1.9.0 (http://scikit-rf.org).
# Hz S RI R 50.0 
!freq ReS11 ImS11 ReS21 ImS21 ReS12 ImS12 ReS22 ImS22
1000000.0 0.978684262970135 0.00010865149219193073 -0.00930371413836456 -0.05188783042901289 -0.023790905722377974 -0.01191248093257332 0.30665867005844677 0.36090370242903397
1999000.0 1.0008403012582299 -0.00519244063079128 0.0041981629065217674 -0.01710257739853279 -0.00212309572991116 0.002926830467610483 0.24463047121580778 -0.044850189062944176
2998000.0 1.0032491042891967 -0.017932115294211643 0.010978010452392979 -0.013893808457984099 -0.0047824024365637095 -0.0006605011043514534 0.18860895065460906 -0.14496187007267547
3997000.0 1.0038278233792286 -0.029935298877413644 0.011052970379630286 -0.007868478418215018 -0.002502588392377146 0.0006746626311002947 0.10756641071206936 -0.23382375375381007
4996000.0 1.0009865840012118 -0.03698351070443237 0.010789793142441887 -0.005768307289293284 -0.003190435553573687 -0.005380781307709221 -0.024709027232692735 -0.22680501412414597
5995000.0 0.9978313699474411 -0.04879060938646861 0.007273702777449185 0.004914597049019179 -0.001177741471593261 -0.006917846231124926 -0.12781672609801148 -0.1347192817475877
6994000.0 0.9979184073261692 -0.05781144398474839 0.007525493495156611 0.0029622359311937884 -0.0022815881382605985 -9.215653657417094e-05 -0.16601838248208206 -0.03516873473744981
7993000.0 1.0000368052388025 -0.06759914516271402 0.0037092777096904765 0.0003808134228114544 0.0004939553416989965 -0.005796345362646279 -0.18275913734765867 0.03406420810615793
8992000.0 0.9975863357910268 -0.07227897691779134 0.008450807037703616 0.0027156237559719256 0.00428828698564863 -0.00020724294183780724 -0.16300641931159396 0.052035903475031654
9991000.0 0.9971222886390283 -0.08103183115588662 0.0026630185409863712 0.004842590841611835 0.0029990240264379056 0.0033247162252661765 -0.15775462726800285 0.08500130121017845
10990000.0 0.9968798671916568 -0.09053112411974498 0.0017569293154748931 0.005728846774956101 -0.006967366993472282 0.0007065855951496695 -0.15773770573511786 0.10708996271556628
11989000.0 0.9978048216616452 -0.09850574393796736 0.0030407947395674497 -7.655496693830278e-05 -0.0023293871601315582 -0.0016828546237611355 -0.14889343295143928 0.13306045999069468
12988000.0 0.9952177529113747 -0.10457197209115811 0.00404831798806102 -0.0018300097279636428 -0.0020652125659293146 0.005541197259187553 -0.12255663783904625 0.17193869475946613
13987000.0 0.9934194324755282 -0.11606378593256196 0.0008944413853678683 -0.003292372452960055 0.0036487643459711906 0.0026946881258634427 -0.10440163544168883 0.1849128868335052
14986000.0 0.9916750591117389 -0.1207207417171103 -0.0012165999124044335 -0.005426038185595225 -0.0010651900291323427 -0.0007147919879664566 -0.09719829224112769 0.20111998485572816
15985000.0 0.9932977920587615 -0.1317025733886379 0.0002248028465588599 -0.004846089247754321 -0.0013033885356479162 0.0037186410494616956 -0.09578851304769122 0.22336940280934248
16984000.0 0.9897615778584501 -0.14269369125210626 -0.006053725560870139 -0.0014557579912085415 0.0006742547189175611 -2.2548302398976958e-06 -0.06739040524723722 0.22856812540477545
17983000.0 0.9899588878717751 -0.14773128554466097 -0.004203579119507089 -0.005138627262902419 -0.002456702113464903 -0.0004171002347890473 -0.06674458885219851 0.21998384488903042
18982000.0 0.9859266516963068 -0.16165039227576736 -0.004447417778599939 -0.004061779409949928 0.0005183607715665977 -0.001000615401345533 -0.029748156485973776 0.235528093901717
19981000.0 0.9868235455727419 -0.16424428262877996 -0.007910737444215535 -0.004099454206877578 -0.003105366331272499 -0.0014359503582990535 -0.012001913149917286 0.23377661649668097
20980000.0 0.9859767858255986 -0.17564344280678937 -0.003305936943771694 -0.0034291280294421024 -0.0011564824853198907 0.0010242668398168172 -0.01030033682746294 0.26120161917547985
21979000.0 0.9834021401067919 -0.18172197020278374 -0.005358142369426162 -0.0026568430395226953 0.0032748320884626583 -0.0012238037789512259 0.00799145335129803 0.23789752370988235
22978000.0 0.980800229135039 -0.19274070274245414 -0.006780259681585386 -0.005949958710442254 -0.00047900483420693535 0.002728906501457202 0.017141368672632305 0.26307016539562006
23977000.0 0.9828725664453078 -0.1989588534225453 -0.008414187198021322 -0.004348282575587066 0.002558544569541136 0.005440390244878722 0.03445335634097361 0.2500472011382089
24976000.0 0.9774357117134151 -0.20865950419832205 -0.004876250323725858 -0.002225145731399061 -0.0001835214334113592 0.0001386759959172461 0.05033192422095753 0.26085405695993263
25975000.0 0.9788306137431756 -0.21574303056914307 -0.009458336884822538 -0.0006727843695490273 -0.005203722354346006 0.02631327073955801 0.06900391983297299 0.2551758800610564
26974000.0 0.9745757204636176 -0.2245609792212808 -0.005029984464127733 0.001982301474229801 0.0006206684621195301 0.0009616362867338032 0.07145416996605862 0.2618547935746482
27973000.0 0.9718732854806805 -0.23268548436459824 -0.001429578688794784 0.0011208438090312969 -6.622545921724452e-05 -0.003407355264488936 0.0872104903034487 0.2579020911157412
28972000.0 0.9708252210205867 -0.23993698608244837 -0.003153275568198352 -0.0005964062518387607 -0.0001415480897029894 0.0032046851111770473 0.11162725431181919 0.25688974144524424
29971000.0 0.9686771735383477 -0.2512742021652002 0.0011899836976312513 -0.0021847978027203924 0.0010712514045564197 0.00035201176723498616 0.13636364732663456 0.26779743528976757
30970000.0 0.9654420193836801 -0.2558821206988909 0.0010924780617721974 -0.001879809025897701 -0.0001729986977779375 -0.0032010606053686544 0.15600113971073062 0.25142009983681324
31969000.0 0.9637104228108206 -0.26462252320199303 0.005386219657842652 -0.004361662606984793 0.000729788574684645 -0.0004404037819703122 0.1445960101281875 0.25402577562131184
32968000.0 0.9610129872545704 -0.2757845865599576 0.005813816039299104 -0.009489084906443216 -0.002307430561016868 -0.0026389484911770026 0.15604724880349558 0.24534772972020738
33967000.0 0.9593562338822632 -0.28531218206771397 0.01151811799924653 -0.007088044527394923 3.8868397133716254e-05 -0.0008024009118185657 0.18315828904616072 0.24223635458717388
34966000.0 0.9561700683484224 -0.2922037040551901 0.012286408125254798 -0.010638805141070726 -0.0005202826151800617 0.00294809714876179 0.18852970232764 0.248916377511106
35965000.0 0.9548659469486861 -0.29954875440700673 0.01681667973145601 -0.01462889921011272 -0.002179361162569225 0.0007984063564964372 0.21057105365729034 0.24274276024973132
36964000.0 0.9515971144099112 -0.3079140508384285 0.014498744926600656 -0.013842128360673866 -0.0017427822957347744 -0.001895956803219269 0.20996104001971055 0.24635972260465286
37963000.0 0.949385857375692 -0.31696774741923245 0.021516258603735038 -0.01974587901961313 -0.0009875607851238019 -0.001229659591832496 0.22604088216714405 0.2362611079168539
38962000.0 0.9470567627810583 -0.3247041457244768 0.024434236515782914 -0.023569774434448472 0.00022861939147024747 -0.0018765060474010666 0.22961325230974888 0.2363650772507216
39961000.0 0.9425953445848925 -0.33461909128871875 0.02890276645252988 -0.02693732901515132 -0.0018047705072357723 0.00048421787903373946 0.23521625086414805 0.23494536374530606
40960000.0 0.9399349075989598 -0.3405691845747864 0.020409677665846806 -0.0253880970682372 0.0008174047266785605 0.0008085058230665676 0.2620576590705121 0.220549749715304
41959000.0 0.9371935243568701 -0.35114628485653787 0.028518924346413347 -0.0331847199340834 -0.0009707476385007486 -0.003414773576512097 0.26292137316840203 0.21622971041982617
42958000.0 0.932850248405732 -0.35849145494051027 0.031662219609133235 -0.039326142383191105 0.0002090578963710793 0.0008869472289769549 0.28047437328185926 0.20584488361906947
43957000.0 0.9294796782563466 -0.365893360089355 0.03171527889809338 -0.04383241523423222 0.00063727993240587 -0.0016453541038793959 0.2768243526257002 0.2039736589620385
44956000.0 0.9259641639958269 -0.37395079924170427 0.03094949823831185 -0.05137697696056797 -0.0011271943939570794 0.0015631136138591246 0.29918922022986116 0.20573880933904434
45955000.0 0.9223925194627097 -0.38184912033450435 0.03460159770691386 -0.05769729328806416 -0.0016351797762211447 0.0012754076245018167 0.29967466067845205 0.19716743125641883
46954000.0 0.9203804604903977 -0.3917585533367247 0.0322729717215273 -0.06370473140325998 -0.002111034862673495 -0.0005780799901926191 0.3185500343409062 0.17809336929377095
47953000.0 0.9168981760728564 -0.399089324737294 0.03398416312344407 -0.06859689224286436 0.004543710970944847 0.004139979356629141 0.33130984354505705 0.1709933354816785
48952000.0 0.9123093382060566 -0.40722371042834304 0.0374652736247718 -0.07591007882330894 -6.233737254581272e-05 0.0006296762628177471 0.32294790330869366 0.16748219739876433
49951000.0 0.9097914885731915 -0.4131016028397573 0.03625349271680589 -0.0825176436371792 -0.0005819655401991329 -0.0020002913247449063 0.33778766467127436 0.1543459895200608
50950000.0 0.9059198907990944 -0.4245315469650716 0.03305053965866855 -0.09492002546170529 0.0010068874037428201 0.0020155874398011223 0.3472586383889039 0.14712059736584965
51949000.0 0.9015791192695093 -0.43046063747945146 0.03607846664406642 -0.10222397579268275 0.0026288593555924963 -0.002275768942690317 0.3602331565921076 0.141024924625706
52948000.0 0.899272966489935 -0.4390968565025174 0.036264215525432755 -0.10621019971610524 -0.0003584372762377655 -0.0007605161457952433 0.3713522127786903 0.14632803293070795
53947000.0 0.8924526909101237 -0.4488967589739084 0.04286004841828972 -0.11708628697414511 0.0010520877079518423 -0.0008965563050699263 0.3663539393151004 0.1374501141698607
54946000.0 0.8879191071111622 -0.4553096065447296 0.04018655486559638 -0.12480938211642752 0.0019049728627890904 0.003284954208895025 0.3707531258032691 0.1127812079922686
55945000.0 0.8862553399351564 -0.46533833929026364 0.04280394402962502 -0.1355965721506216 0.0003537559281467209 -0.0012235178591349012 0.38088716657898225 0.10352117038618058
56944000.0 0.8819050260600256 -0.4702574245347601 0.04818036946157462 -0.1450609383264708 -0.002027154070310676 0.001125966021033876 0.39515524483439285 0.11361234796372734
57943000.0 0.8786987107056865 -0.48244707285065386 0.04517357246660043 -0.15624790845260872 0.0011925571700249357 0.00019994185044186277 0.3967562551160008 0.10347731668808809
58942000.0 0.8741557560549 -0.4857955550106299 0.04743921853940595 -0.1697949918618641 0.0025537006679234985 0.0003906505034837109 0.4163704918765117 0.08745750667565182
59941000.0 0.8691959638332911 -0.49475905324603814 0.04880543520327817 -0.1758663076125118 0.0033297098740038204 0.0006721668363326631 0.4196299337974553 0.0963443023960592
60940000.0 0.8605533470453429 -0.5025808482961298 0.048122207246382574 -0.18231929598848337 -0.0008718134655252321 -0.000985413098060344 0.42111089231001625 0.07670486108892909
61939000.0 0.8586234250082873 -0.5085115316450929 0.050585460159253914 -0.18576847979546085 5.769947964261422e-06 0.0018362027904413201 0.40577042172502575 0.06738251343890893
62938000.0 0.8539036978575513 -0.5182965829621105 0.050483715667788504 -0.2017209171049544 -0.00083643112804975 -0.001039518217137835 0.43663996886908873 0.054905897409032456
63937000.0 0.8495417656983179 -0.5257219683979207 0.05528966730530682 -0.22253874124032536 0.0005026235469657421 -0.0019166202434597148 0.4311202638175078 0.043904215992686554
64936000.0 0.842295134858538 -0.5334889984279313 0.05336270778504765 -0.23526745814229733 0.0021724545735932604 0.0010470764324531075 0.4272154767410145 0.04175982095971824
65935000.0 0.8395782231710163 -0.5441656342576212 0.05275827113145671 -0.2521258786675015 -0.00018820004029367166 -0.0010753819455404951 0.4380397269118264 0.018261908960496304
66934000.0 0.8368340371741906 -0.5475700608540841 0.05309831589725927 -0.2625858981622678 -0.0003090857911341978 -0.0026428153872404612 0.4344301574001137 0.014969214481263258
67933000.0 0.8320506083893813 -0.5555025311264212 0.056260174441792724 -0.2744429180896076 -0.0033461898363597933 0.0024317654589911465 0.43854951935997055 0.009889329608159142
68932000.0 0.8220965499208189 -0.5620165624501529 0.049238351813423634 -0.2860887279008167 -0.006329330160268283 0.002208025530472478 0.46186542777114803 -0.009414060440874946
69931000.0 0.8193834328739047 -0.5724822350927367 0.053053528882552284 -0.30379008937474933 -0.006191384746727934 0.0022178054830134858 0.4467395060695259 -0.01802568420105205
70930000.0 0.8115667894472537 -0.5796003076174796 0.048993666104312016 -0.3159890114074684 -0.0011459434996057137 -0.0020171668945606386 0.4385557000133619 -0.024421558244307338
71929000.0 0.8111135353444967 -0.5866154540122104 0.04990704513565227 -0.3309650505827888 -0.0015367989161173545 -0.0013129961612741007 0.44128225820222594 -0.04023839034596189
72928000.0 0.8038534344061161 -0.5991010228821948 0.04323026888884275 -0.3500585302670946 0.0031535912421167414 0.0008235527258776979 0.4620486880429381 -0.049325758613524145
73927000.0 0.7971133331473335 -0.6034718680027663 0.0378213126146998 -0.3662000635807442 -0.0013813516043408112 -0.003158515728896259 0.44850745588479396 -0.05960892519572536
74926000.0 0.7934772610351486 -0.6125185247330555 0.03240448325713637 -0.38769668229201854 0.00037079276255120685 1.623642720965197e-05 0.45851712687482266 -0.06426881904117886
75925000.0 0.7880585658531063 -0.6159152905550773 0.024370769858921785 -0.4061173834541393 -0.001235624768807224 0.0005139671101793322 0.4649100399983305 -0.06451938173379156
76924000.0 0.7807724500035773 -0.624483603788291 0.0105200741501991 -0.42647229023292277 0.003973303502270517 -0.003187122892585858 0.46600756978035734 -0.08978218531760826
77923000.0 0.7752514138917959 -0.6331107150505125 0.001090064360480543 -0.4475984994971498 -0.00014125173391242251 0.002963325371308337 0.467648450252107 -0.09325831456123683
78922000.0 0.7682500867163119 -0.6394840956586639 -0.014307737282541788 -0.47221598180080027 -0.001182709886710166 0.0018383052130639314 0.4582756441758836 -0.10864179853619367
79921000.0 0.7603682963024994 -0.6458284748662253 -0.030696669138130333 -0.5011093933478639 0.003316099462627227 -0.002658834879785395 0.45928916223457905 -0.11121461516751517
80920000.0 0.7556908732233016 -0.6560518499600501 -0.04565786187731194 -0.5251507073065335 -0.0003396231314132912 -0.0037109515957983114 0.45866304282352344 -0.11344901285540872
81919000.0 0.7520395354921732 -0.6621512389195661 -0.059102739127201966 -0.5523965277874779 0.002007961713781676 -0.0010276700710281264 0.4723638979384223 -0.13710816246095545
82918000.0 0.7406380172564276 -0.6688840080585479 -0.07610589458389959 -0.5827725048949928 0.0011082678079998777 0.003558622176945896 0.46967997819117796 -0.13367538445927357
83917000.0 0.7344580707065488 -0.6770529459163547 -0.09824868064325203 -0.608196456974932 -0.000760960175145934 -0.0009465673914285603 0.46628449433191016 -0.15692129793509504
84916000.0 0.7303946558715977 -0.6830561585252054 -0.1104905901342852 -0.643360282224336 0.00041839081261623107 0.005041186208290597 0.4635348638808297 -0.16406159798069964
85915000.0 0.7227466655296282 -0.6900685440641412 -0.134336454252314 -0.6746666042986831 -0.000667107600767733 0.0029430608952549587 0.4663900250586849 -0.1742011052024621
86914000.0 0.7152264060337548 -0.7008492150734269 -0.14866974256449123 -0.7053678590507282 -0.002114328366888331 -0.0004244613960024205 0.4586754472560379 -0.1740937785949675
87913000.0 0.709690214615096 -0.7070040303991053 -0.16721064782638848 -0.7355181579971222 -0.00031803682599865825 0.00487028781549578 0.45579433365681254 -0.19230461029143903
88912000.0 0.7005686082686435 -0.7137618032856169 -0.17816290152254682 -0.7710917988845862 -0.002097127908750699 -0.0025748535642903885 0.46506261516791014 -0.19951035176948675
89911000.0 0.6951772349568841 -0.7226942556861105 -0.19566756119434536 -0.8105670734154312 -0.0010999514063928953 0.0018687796900464999 0.45978298516710714 -0.21578953756571173
90910000.0 0.6873005027498512 -0.7282318135983908 -0.21280191375633345 -0.8402022894991669 0.005867789551320841 0.0031123077870785784 0.46018729473348907 -0.21784052162963816
91909000.0 0.6783103649787607 -0.7313186679337402 -0.2293778827499654 -0.8717381446295345 -0.0007792573711330297 -2.7433363232561962e-05 0.46804513272980547 -0.22189712904843725
92908000.0 0.6709372907457665 -0.7425012064116332 -0.24757986497401716 -0.9061679275125817 -0.0016934350061112696 0.0014216480120539418 0.4540192230671336 -0.23776892614998366
93907000.0 0.6667056641077824 -0.74683019050558 -0.26511707408008145 -0.9359223869788651 -0.003210108034170535 0.0005159777265335994 0.4558515894985811 -0.25630686098038247
94906000.0 0.6517025123378071 -0.7550878704088619 -0.2800282681469346 -0.9693634031221875 -0.00010515063528304234 0.002947002003967519 0.45966586566553996 -0.256307919750736
95905000.0 0.6471639609005411 -0.7599568506826707 -0.30562972117827125 -0.9977039076632366 -0.0025793584523249448 -0.0019520861272546016 0.4645198138004022 -0.268977347023573
96904000.0 0.6398931812671975 -0.7696376490016231 -0.3172105647673722 -1.0393511829713595 0.001253991271618777 -0.0020778220446428805 0.44368795942260647 -0.2686018119529418
97903000.0 0.628628631527949 -0.7741757669317079 -0.3462005427529154 -1.069951449551608 -0.0024690081849101774 -0.0034986468630810045 0.4492148875304914 -0.2902934197410751
98902000.0 0.6247048026313705 -0.7818030626662321 -0.3565766914165136 -1.1089400150429476 0.002335877559371108 0.002180005375251739 0.4498457640749242 -0.2940219750577287
99901000.0 0.6152025265559504 -0.786385168548578 -0.3827891174985237 -1.1331168950349744 -0.00019212905865271677 0.0016243036716262946 0.4530693552563155 -0.3098375003895213
100900000.0 0.6058290958240052 -0.7925454354660484 -0.41385426226379335 -1.164789300978976 0.0024291684700427692 -0.0014119827319942937 0.44784182969182196 -0.30552439169120543
101899000.0 0.598337948042127 -0.7994747227209482 -0.4329880351126694 -1.207128314023936 0.0026773515232965525 0.003307149817531953 0.4429798439100218 -0.31966122285233894
102898000.0 0.5868392181509193 -0.8055340911544451 -0.46628499501927045 -1.2393506588354561 -0.0029820374638332633 0.0028691912900841725 0.44841797370005176 -0.33908102670709794
103897000.0 0.5808625627982745 -0.8126391568294138 -0.5027475980660141 -1.2742100120026736 0.0007839909155575739 -0.001040879694463869 0.45472686040879046 -0.33426676161527696
104896000.0 0.571436841034705 -0.8227139206554593 -0.547303019752288 -1.3080240973445507 0.0010045193064447918 0.0009206445521745481 0.43217274285740986 -0.34626230509846595
105895000.0 0.5632137574113693 -0.8264626659756431 -0.5879104580620372 -1.351747077924449 0.0012323459606295223 -0.000431499449482963 0.4394967467426227 -0.35827907693116967
106894000.0 0.5529369660960101 -0.8313802969288722 -0.6421440058224785 -1.3795526588264981 -0.0008118281002913496 -0.0019391250200679012 0.4286403632272349 -0.37163794382224236
107893000.0 0.5447152966158032 -0.8377933281440939 -0.6896584198424144 -1.4156902458307978 0.00153671486948386 0.0018297127437953763 0.4268226676767481 -0.3843690650160393
108892000.0 0.537399482214696 -0.8407219818134748 -0.738745362578447 -1.4518874852060124 -0.002370678834664371 -0.002188812774970573 0.4122620947462459 -0.38111745735591457
109891000.0 0.5235830215765557 -0.8509813561775393 -0.7995101414718883 -1.4847149349217181 0.002353226083326877 0.0002232947810225749 0.4438692583516498 -0.37802578122577346
110890000.0 0.5056251556224105 -0.8529935209823186 -0.8657323749180853 -1.4776445494159587 -0.0012309071455190162 -0.00236503159294125 0.42331407774038143 -0.3891188933061595
111889000.0 0.5066413690199475 -0.8570323214019372 -0.9123456686209303 -1.5542440856727193 0.0007553419512209062 -0.0018781220800274923 0.41925417336709925 -0.3970874268549311
