! Created with skrf 1.9.0 (http://scikit-rf.org).
# Hz S RI R 50.0 
!freq ReS11 ImS11 ReS21 ImS21 ReS12 ImS12 ReS22 ImS22
1000000.0 0.9879364131974102 0.0061131970271112905 0.008532919180738101 -0.023265847181080507 -0.020971223953862042 0.016257003833331736 0.3656463298993848 0.33902664723603987
1999000.0 0.9958710218933715 -0.017563097648531412 2.8777982279847643e-05 -0.01756568013776187 -0.0008785788340237543 -0.002589837280953083 0.24823192932611257 -0.02783579338344531
2998000.0 0.9969840070403635 -0.026039407135928574 0.011234230460438501 -0.015316134815342799 -0.005351472336189329 0.002351667832050335 0.18374603047751403 -0.13390207052826508
3997000.0 0.9923204461738567 -0.03395896198660984 0.012458974582912315 -0.004555550992190178 -0.0017005073263741586 -0.001241483756618592 0.09085108938025853 -0.23340320388422323
4996000.0 0.9943126489939773 -0.04396627856425691 0.011401162105196185 -0.0006426916290372183 -0.002352963443638077 -0.004471830069770411 -0.04309667079118584 -0.191395570813345
5995000.0 0.9907196284542567 -0.05218720935688844 0.008926512991658593 0.0005795388670101125 0.0008710478027156965 -0.007600811226817118 -0.11626159955500386 -0.10587599165963889
6994000.0 0.9891297486684064 -0.0621668768204988 0.009002676339563545 0.004840213270617598 -0.00019723196312622867 0.0012984325175076962 -0.1464316709422765 -0.030542619143466707
7993000.0 0.9905423936944698 -0.06861920131617597 0.004179274558911127 0.003495176108830312 0.002383498489570611 -0.0003616134482615606 -0.16237766891925545 0.03914737212877331
8992000.0 0.9890737289045645 -0.07411001020152572 -0.00014258124761055567 0.0007626907580945357 0.0012563272528424263 -0.0013669605196440027 -0.16292268133759827 0.05215038278073717
9991000.0 0.9867963227274811 -0.08504512486769114 0.0025724602105132535 0.006592492288279608 0.004166565468035097 -0.0037442620675344645 -0.14786682508991822 0.09567691714680993
10990000.0 0.987124221614073 -0.09419785315924309 0.004480039561273818 0.005170310206740162 -0.0017234066452850936 -0.0009951720357964146 -0.12844691175447256 0.10280124948043551
11989000.0 0.9854991128665946 -0.10112952113084957 0.0021940611179800213 -0.001053227927928357 -0.00410930435462365 -0.0021220258828702123 -0.11272166423293267 0.13784878630063446
12988000.0 0.9844581313437627 -0.11102216063086989 0.0015639284488777915 -0.0013462671322180843 -0.0009961258806386953 1.3437508868612026e-05 -0.12196191896764279 0.16110862381241467
13987000.0 0.9817637849880947 -0.11741115012574453 0.0009297523137718052 -0.004632027536439736 -0.001525670295491816 -0.0044778914134281905 -0.09887468741831444 0.18239000480544598
14986000.0 0.9811566150982233 -0.12680918534947244 0.0006690689861926613 8.729341732762239e-05 0.0018323577321293332 -0.002141032062722519 -0.0799106155370264 0.20232793884924435
15985000.0 0.9840894936669893 -0.13298877712141235 -0.0025116108368216715 -0.001184275271362171 -0.0013284209924649853 -0.0005821136641235485 -0.06363360901174268 0.2171584811540656
16984000.0 0.9801940231933882 -0.1445636449629001 -0.0037676414446426915 -0.006484193054120977 -0.001980405924013579 -0.0003162542818380861 -0.0670360037277781 0.22322798090987453
17983000.0 0.9796215420415626 -0.1518435303136458 -0.0018430464587059746 -0.00815046533493342 -0.0005662202639183368 0.007202680725377479 -0.055303628414950214 0.22738180956354248
18982000.0 0.9767388825645902 -0.1632436787244014 -0.002865465977039919 -0.008866944002587739 -0.0008025477008317792 -0.0006092505467101566 -0.027463837838319252 0.23825194037235145
19981000.0 0.9780182695058517 -0.16512402887762595 -0.0065987320006366925 -0.0053155818395612415 0.006094235234929713 0.0003930217061908832 -0.020350317597702474 0.23576832862987054
20980000.0 0.9773262040687632 -0.17644626140993241 -0.0055180969366873224 -0.008568735826142732 0.004458172319746962 0.000833801514475708 -0.002316067619547942 0.2513555848233689
21979000.0 0.9742062470736653 -0.18629771873977571 -0.004994344790499112 -0.0015373334144597219 0.003226996366120576 -0.002670541048466508 0.009346940070405794 0.2396917576625451
22978000.0 0.9715675236638639 -0.1957084659325378 -0.002229011144405624 -0.0024626372375596713 0.001800686278336386 0.001576615340535242 0.039328735635214926 0.26201526740506054
23977000.0 0.9746703730952665 -0.20378953301711528 -0.004818772675696927 -0.0028254518098096595 -0.00040125669541949034 0.0062744511749510835 0.049169764464961595 0.26215918309008407
24976000.0 0.9709405158311532 -0.21108941351364446 -0.005384575880081938 -0.002188195341700511 -0.0015279155929512108 0.0028198133340376543 0.056143219188543605 0.25984845001923174
25975000.0 0.9636033392740694 -0.2199069913505771 -0.0026659896621247198 -0.0041277059060383795 -0.02017090981285585 -0.010571854894564888 0.0745478395883935 0.266659979971992
26974000.0 0.9670547326576434 -0.2289665306228264 -0.0053030395064367734 -0.0011102841934531105 0.0011344484199705507 0.0031516369014571335 0.0897967925283002 0.25849363806946857
27973000.0 0.9657742640907702 -0.23437727212537365 -0.0026992472338272034 -0.0016434133453200966 -0.00012438566327149027 0.0022046378275233217 0.09929218035481983 0.2583364844778723
28972000.0 0.9612786025669505 -0.24671170902681258 0.0014667517657459056 -0.0020550631870045427 0.001053610013374528 -6.485593939406654e-05 0.11581210230551461 0.25458037033828235
29971000.0 0.960801700026536 -0.25397571510504374 -0.0026955169665011684 -0.004894363590509428 -0.0007034915157413082 0.00023655663180303517 0.14348680953394294 0.2748407948954631
30970000.0 0.9582861608823767 -0.2585202431035443 0.00043112274751584456 -0.0011936587194162282 0.0013994831751319465 0.00357383114337018 0.16617798211692333 0.25360444953617733
31969000.0 0.9560734385504028 -0.26908641585076193 0.0037557423601788428 -0.006449251798004033 -0.0007633579283327685 0.00028191474351566616 0.15375301117815657 0.24522753948863424
32968000.0 0.9534795360891347 -0.2774439266306773 0.010459647425789781 -0.007134665535662423 0.0006725813828450212 0.0018696085925870363 0.16671234145894318 0.2438372211564033
33967000.0 0.9521558461591898 -0.2892519341990253 0.011069300946527649 -0.009428779547576774 -0.0005275265811171578 0.00032345144755719155 0.19134303621868032 0.23944556190628546
34966000.0 0.9472750926771168 -0.2968798229697661 0.011919356279802713 -0.010510846154098516 -0.00048726341230952575 0.001007408264123576 0.19839446895155896 0.246654140274249
35965000.0 0.9451058157092406 -0.30599053486435007 0.013785764165896082 -0.012968676897135477 0.0012238316770335307 0.002198174834445453 0.21795401089239783 0.2436490191010761
36964000.0 0.9436974815145733 -0.3145592100718904 0.01638008670485948 -0.015933653215483443 0.000422469700634417 -0.002706791636341236 0.2133630283762539 0.25019028116238623
37963000.0 0.9409944072835773 -0.32253567411067735 0.023316421783172017 -0.025312929252048675 -0.000677409705435571 0.0003794755629110959 0.23313932956883748 0.2274596055922743
38962000.0 0.9389011543028977 -0.33174619924678306 0.025880638033978953 -0.023522553257972704 0.0013303396520181992 0.0007843849092691017 0.2364680691683171 0.22648460117148805
39961000.0 0.9341629927850108 -0.34133312187502685 0.025855377751018305 -0.02564277416217184 0.0002086859237138792 -0.0025869031682194225 0.24700343114360643 0.21614902441900052
40960000.0 0.9312790592789145 -0.34781923014775923 0.02313182947345459 -0.022678995472926428 -0.002558074616824031 0.0034629144571243146 0.28110170257856565 0.21363089452939993
41959000.0 0.9272154290477109 -0.3603027652306727 0.027399820416711507 -0.03328851459035022 0.0022147934415678453 -0.0006670749897103472 0.26497539583521384 0.21326724398268887
42958000.0 0.9221515076897443 -0.3694665938383759 0.03416544267655263 -0.0423249172227802 -0.00020170866741244382 0.0030999823178101365 0.2768692807573124 0.19972374231905557
43957000.0 0.9212218381558711 -0.37487168790763326 0.0318116832967604 -0.046981786007735116 -0.003167185081088317 0.001594203005370266 0.2813890367226174 0.19907799061000558
44956000.0 0.9172714721306179 -0.381097662632991 0.03252488944468813 -0.051634758713010515 -0.0016736689106998822 -0.0016243352380456043 0.30253272909596046 0.19505981454864096
45955000.0 0.912328198049409 -0.3925482105575292 0.036540617380908316 -0.05717018450977801 -0.0012842569142099537 -0.0008704329539975654 0.3091883537175161 0.1851696062950184
46954000.0 0.9108356906937173 -0.4011738366923983 0.035838890734989026 -0.06462629905429769 0.0020973776754593812 0.0004897443831434949 0.32602065536703534 0.17371253917909546
47953000.0 0.9066514509462101 -0.4099308809752345 0.03612673943684173 -0.07235944199109431 0.003053538917403093 -0.00014452019099331522 0.3276669360759802 0.16902874195703968
48952000.0 0.9014778903981003 -0.4208158585514459 0.035800000597145665 -0.07838103057050455 -6.309461583165386e-05 -0.00016065101095734198 0.3421776223707291 0.15887088088669588
49951000.0 0.8967541999639741 -0.4256110028288421 0.03561404865788206 -0.08825048464481094 -0.0008717533439872024 -0.00018992837582923317 0.3501535042284825 0.14852845327584224
50950000.0 0.8949170073424659 -0.4356288650895448 0.037297784027431814 -0.09891002700602732 1.3932243195633138e-05 0.000964466139109185 0.3609593532142302 0.13931596458469706
51949000.0 0.8894783368198158 -0.44349570066039445 0.03943554984367284 -0.10347912704993793 -0.00045685940810322054 0.0029710091662604435 0.3610152374957281 0.13734980125905902
52948000.0 0.8880675501247587 -0.4503132651670492 0.041478980005884084 -0.11154423982291271 -0.0011951499278694373 -0.0004846012951269103 0.37473774454353137 0.12715648999334264
53947000.0 0.8808865721766507 -0.4611467709795553 0.04159957667299932 -0.12147417941075894 0.0005559806145848025 0.0025564465674490257 0.3717559068379351 0.12457964326528045
54946000.0 0.8758189115073792 -0.4675893168358634 0.03998086638150035 -0.13010917590986662 -0.0022137974622166044 -0.0005331121351013537 0.3843606338966632 0.11142312338668879
55945000.0 0.8734748016925693 -0.47705869752277524 0.045283638868032286 -0.14331568372149517 -0.002494497404728084 -0.000563700730535143 0.3829566533065952 0.0948340614925474
56944000.0 0.868491867722866 -0.4839907323051217 0.04820978791779096 -0.15120072408732577 -0.0013192334759716108 0.0024817353905635994 0.3870135460914051 0.09122638689170952
57943000.0 0.8650449371810582 -0.4950484280536795 0.04627111678081671 -0.16264173028314727 -0.000514566843708104 0.001507087811179322 0.40254103903224925 0.08580997209722904
58942000.0 0.8576271665660797 -0.5015058213947649 0.0481082608513495 -0.17298904720247033 -0.001976306988118007 -0.000254366786188632 0.42530589538458513 0.07230875470422879
59941000.0 0.855275807703216 -0.5080674126704168 0.05104194055443524 -0.18157466914522383 0.0026863502607221527 -0.00035337354556053184 0.41425741876794553 0.072862572986129
60940000.0 0.8459666406326035 -0.5165447618801177 0.04660179785854086 -0.18592687669511823 0.0033524963419420744 0.00039836717128926495 0.407145350089697 0.07903527682768034
61939000.0 0.8429059307713572 -0.5234052697245912 0.04947951889577075 -0.19478905152223794 0.001112034913005459 -2.5558753606956378e-05 0.40804291853537733 0.061950373304294364
62938000.0 0.8370860662586597 -0.5332061950095881 0.050546867970783234 -0.2117346483709839 0.001577867523728855 0.0003601537460401751 0.4386242493340903 0.052411370330452255
63937000.0 0.8340723914235102 -0.5398907365097744 0.05279318093013186 -0.22703827157280854 0.00384313868928188 0.0013275699982467038 0.43312218220953846 0.032295498236866976
64936000.0 0.8246922724060815 -0.5482661861018728 0.054281116429409255 -0.24413791394254378 0.002088822400096246 0.0019864265084206254 0.43356064685469686 0.03594192247538884
65935000.0 0.822094905804569 -0.5563861113041705 0.05282384833016589 -0.2587985368355115 0.0036170257726777133 0.003435502394815814 0.4321907888368226 0.016629263846180208
66934000.0 0.8185544557930713 -0.5637213484686462 0.054501968569493714 -0.270529752402596 0.004559541018204729 -0.004406566452625966 0.4364100480208012 0.008068436495504146
67933000.0 0.8146041533280632 -0.5712885520231167 0.05061090407626514 -0.2827456768574598 0.0024461909854340057 0.0006848173742286393 0.43905379416104173 -0.0035429509781519457
68932000.0 0.8013636629842675 -0.5647390907963049 0.049863243759877045 -0.29206822646387454 0.0020462242748296184 0.001671651756945209 0.4487084530688258 -0.010514821911063395
69931000.0 0.8002858451282439 -0.5866026377790783 0.04726341823667119 -0.3158329137025391 0.0015112595825578844 0.0009565108343620417 0.4354328116502657 -0.028888042389615558
70930000.0 0.7929285326118046 -0.594745139504385 0.045963389999619866 -0.3269401654599705 -0.0021526034990892668 0.003912085753649662 0.44276850592614725 -0.042566819936862656
71929000.0 0.7884375112145569 -0.602218289023835 0.03987115787548123 -0.3452965812690714 -0.002544744790044199 -0.002081722619861471 0.44100365958843507 -0.05105196869757039
72928000.0 0.7818760611131709 -0.6113740196174129 0.031837159899692075 -0.360204700777203 -0.001967776239873215 0.0010678211836681417 0.4551272116173988 -0.06509708767780266
73927000.0 0.7742606889205518 -0.6181349758978799 0.025103114558076216 -0.3800141076833813 -0.0007126329557044868 -0.00028036510487199865 0.45358060238729836 -0.0734682022917098
74926000.0 0.7709388841465049 -0.6280303104149845 0.020468347892591283 -0.39910370552706964 -0.0008879569778592205 0.0006415081310194906 0.4559191310440846 -0.0689586243428391
75925000.0 0.7637015635599602 -0.6322734849707617 0.011647847685606508 -0.4195154646130973 0.00010196191674415349 0.0026916511938061102 0.4552397153750176 -0.083464692866343
76924000.0 0.7573083391950678 -0.6388643297372364 -0.0020678733968288697 -0.44212996773982044 0.003637462658467431 -0.0031704877905229423 0.4622285314790639 -0.0984857907452033
77923000.0 0.7530756175440345 -0.6448848342616464 -0.016257404623294183 -0.4639739903336872 -0.0011210737682880473 0.0009919439527798115 0.45766617360441963 -0.09985524782548606
78922000.0 0.7453222237335532 -0.657774194821347 -0.027142947488171656 -0.49366429587169297 0.0028279776850109063 0.0002153107135109759 0.45181468909434913 -0.12197677124590829
79921000.0 0.7375631969549599 -0.6608216602182309 -0.051363999746330685 -0.5150477822067181 -0.0010394154628820323 0.003570107989114297 0.45318068919915055 -0.12757467298011338
80920000.0 0.7310099766711615 -0.6704429324164943 -0.06257023873164244 -0.5436928209357424 -0.005595641954903186 -0.003764169858418619 0.45847435528265157 -0.13674354954131102
81919000.0 0.7254811173460552 -0.6750518560053882 -0.07761402049827422 -0.5772460527903968 0.00436133107964308 -0.00011392794275036488 0.4665006372668747 -0.14186447648935882
82918000.0 0.7175865714336855 -0.6839447446855982 -0.0961810893935286 -0.605424203821646 -0.0004450268258195215 -0.0002655943280964434 0.4664472181682109 -0.15388463277123376
83917000.0 0.7103496405671863 -0.6907011710740537 -0.11603053598978215 -0.6342967176266356 -0.003996433545852559 0.003531488920113489 0.47225844106602954 -0.1657253907730602
84916000.0 0.7035453671055526 -0.6998449517788302 -0.13223907477094946 -0.6644733569773308 0.0031392961880055328 -0.0004964806143989232 0.46313258742893615 -0.1819812834837111
85915000.0 0.6951686595963151 -0.7056415938003249 -0.14757615231107357 -0.6968233723764286 0.0046848528410372995 -0.0005576059669020222 0.4657315633399629 -0.1771090487860914
86914000.0 0.6903635711801529 -0.7143461450028173 -0.1676755439508483 -0.726770612209098 0.0017665291603124334 -0.0007969606532105892 0.45112704776095786 -0.1856255486200174
87913000.0 0.6819144924421877 -0.7198303266668564 -0.1829099689201015 -0.759286544233893 -0.0003500519787581526 0.002944137423156627 0.45193417532249286 -0.20401657837435233
88912000.0 0.6744231430617672 -0.7271588015115317 -0.19835441691908295 -0.7951281312428147 0.0006054279868958969 -0.0032944243409711482 0.45076801152287077 -0.22554176509178306
89911000.0 0.6684438707506805 -0.7356768443582058 -0.2124408899212571 -0.8299593267079203 -0.0015144972133782756 -0.0008980351382314823 0.4628205542566634 -0.21857711062815993
90910000.0 0.6605046605436752 -0.7405079049794704 -0.23174164121986218 -0.8627534528547103 0.0005233079742935794 -0.00014928262983599416 0.4578956178020567 -0.22017684774442758
91909000.0 0.6504068490351802 -0.746278898478396 -0.250635768006992 -0.8906606407535619 0.000666650737108605 -0.000726615096672615 0.4594186849962543 -0.23226183321052224
92908000.0 0.6428677190326412 -0.7554566163127895 -0.2677283969567308 -0.9235777002439909 -0.00024125161909385138 0.002849712032475458 0.44406111066174403 -0.2543699662909486
93907000.0 0.6366257358042925 -0.758995621595173 -0.28534346784494924 -0.9554819976997048 -0.0007068659956573557 -0.0010107766812745213 0.45309494332768263 -0.2637114730531912
94906000.0 0.6251996198830242 -0.7692181258675084 -0.3018117041711762 -0.9906543002330785 0.0002968722576419449 -0.0016625725118152217 0.45555999355420446 -0.2586957096240547
95905000.0 0.6196403673773753 -0.7742087402280029 -0.3240927343170747 -1.0238811923445426 0.0020928209912979417 -0.0010456716326279019 0.45652668634741916 -0.2778990494723671
96904000.0 0.6095284978450504 -0.7814513736597797 -0.33938862927401553 -1.064504533587577 -0.00036385951624828936 0.004545075895837666 0.44440173578898834 -0.2763797631660722
97903000.0 0.6006173118861836 -0.7879706821371052 -0.36861976193087864 -1.0882136669253066 0.00027786697202057437 0.0017457994176411325 0.433074179635061 -0.30467875149806384
98902000.0 0.5944466268101417 -0.7938426077794288 -0.3865411537122362 -1.1287365771763638 -0.0007471198480984665 -0.002263609294405358 0.43611961993711745 -0.3106380707300768
99901000.0 0.5842018299194521 -0.7996485955241612 -0.41852591287401414 -1.160791589718832 0.0011709880964768226 0.0015374373415556117 0.4630592139026049 -0.3309115266773002
100900000.0 0.5762624299617479 -0.8038020623577558 -0.44611294257289164 -1.1853120546864253 -0.0014971033820546412 -0.003347303381087612 0.45367378056170826 -0.33571088252668696
101899000.0 0.567115269272638 -0.8103568439044759 -0.47280732910095535 -1.2218005750929328 0.0018301256195368853 -0.000588638830594561 0.4420430615489918 -0.3265971210197576
102898000.0 0.5566020037569285 -0.8183309688431524 -0.5144238048222536 -1.2573984418525401 -0.0010794486428457803 -0.00034684566104162685 0.4393153535621416 -0.3507749537831493
103897000.0 0.5504292641336661 -0.8250905052764036 -0.5479933000268846 -1.294558168900357 -0.002854125484398106 0.001751806775135111 0.449758109715656 -0.3367059327707191
104896000.0 0.5417199864206524 -0.8363540040798563 -0.5953761179495066 -1.3266238505033652 -0.001541019345526981 0.0001397645591435663 0.4229333477391104 -0.35151430374764087
105895000.0 0.5315061892541578 -0.8369259273612709 -0.6400809971886466 -1.3664002926895134 0.001043295280242618 0.0023924493878917227 0.42708703120226066 -0.3664906151579317
106894000.0 0.5184757291346748 -0.8443604481678825 -0.6976254244252613 -1.39799696276368 0.0018787790352149465 0.0006005115380846524 0.4243191086185827 -0.37617513218995674
107893000.0 0.5142104778094081 -0.8486741062911134 -0.7416762106651518 -1.4413822183700549 0.004474864974805239 0.00017097350901617003 0.42045752451598273 -0.3727359090400223
108892000.0 0.5026518580218189 -0.8533715883319606 -0.8040762297446883 -1.4768312465801798 -0.0024821617287275177 -0.0024720827704873523 0.4210238820989928 -0.38165973336899645
109891000.0 0.4904332379444591 -0.8589047475310132 -0.8646248432631979 -1.5069191023117632 -0.0032065103327110693 -0.000468156723693793 0.43080595746604816 -0.39811329703585824
110890000.0 0.47687441416367615 -0.8772832782066752 -0.9460221678830929 -1.5226588126936953 0.0032343293978335337 6.699446028211757e-07 0.42789628365966087 -0.39326893465954194
111889000.0 0.4725186070762525 -0.868032141616725 -0.9863022061444536 -1.5816114407636863 0.0016899352489480016 -0.000701701095518638 0.41280078219836785 -0.4014103843031663
