! Created with skrf 1.9.0 (http://scikit-rf.org).
# Hz S RI R 50.0 
!freq ReS11 ImS11 ReS21 ImS21 ReS12 ImS12 ReS22 ImS22
1000000.0 0.9767604451600924 0.003938546800304108 -0.002573856543090332 -0.03919207210321994 -0.019986002535603477 0.004096473698115405 0.346161614601519 0.28927328145279757
1999000.0 0.992276617809008 -0.01706614968514851 0.006001020282636371 -0.02492383279470248 0.0010388945869281732 0.0019700325174350146 0.24862851702601457 -0.04502351483674697
2998000.0 0.9984397426113635 -0.022874372514107684 0.01471963204339171 -0.01944819740508503 -0.00366331460435351 -6.030658951970962e-05 0.18325009972838202 -0.14479443293006136
3997000.0 0.994512283044508 -0.030705252550834464 0.0132776767211323 -0.004423013590019981 -0.0038787092454673415 -0.000717149745625813 0.07702727794516265 -0.2309233771933207
4996000.0 0.9938395903572378 -0.04152772596769349 0.006746149199431758 -0.003155869417308999 0.0005715434382963003 -0.0025848435347311533 -0.04986547817441837 -0.17870555040758138
5995000.0 0.9934558587958574 -0.05160713614797176 0.01461546853625717 0.0040327469333168746 0.00018164184873879395 -0.00016852941028720503 -0.11945556043002147 -0.10345600324461356
6994000.0 0.9894900251239698 -0.061273708283453965 0.007622315129347675 0.0033672444731438116 0.0035954663062797948 0.001952078951709364 -0.12809015002184798 -0.023502382916216653
7993000.0 0.9934263607842408 -0.06877895683288032 0.0038308161108570925 0.0021305506366659627 0.004500060567348826 0.0023309425216191336 -0.15495105695197361 0.036136540906764
8992000.0 0.9931746159219988 -0.07383679191839335 -0.003765697139767846 0.00929406049632475 0.0004133722080736661 0.0010843524599208054 -0.16247279616004295 0.07327846103615397
9991000.0 0.989870803455231 -0.0831981644743167 -0.001575366041941046 -0.0009055726190179351 -0.0010248150825092563 -0.0017139128611342953 -0.1539143732671978 0.09683597447217485
10990000.0 0.9891587961588634 -0.09142323887583519 0.005330021934650901 -0.0006541985443588745 0.0035994857405606488 0.002888531844294011 -0.12435911397422814 0.12175114972576209
11989000.0 0.9892510263626229 -0.09948335129807986 0.0013399732870735084 -0.0008916572006093019 -0.003203603363391951 -0.0009223520721854423 -0.12270611418050784 0.14008635087944926
12988000.0 0.9863334828367373 -0.11284038085344968 -0.0006742720677744791 0.00012150970718888387 -0.001687537516328102 0.0013701720196694941 -0.1099557386240352 0.17136812719010164
13987000.0 0.9844732751661074 -0.1211398388999992 0.0035752027658225065 -0.00033567565562623165 -0.0021812232865922277 -0.0008248301741139211 -0.09180084606343081 0.2011835414011998
14986000.0 0.9852306639884549 -0.1276749518537926 0.0001389869601323622 -0.005129310527904784 0.0009787089048613465 0.00405115527424525 -0.07749746705057406 0.19732568687415022
15985000.0 0.9869127406497035 -0.13216342781681756 0.00018205285287373646 -0.0028609078004431625 0.0010477012506029703 0.0030710848063648408 -0.067314986119822 0.22434782307653037
16984000.0 0.9840214851902903 -0.14399053183072585 -0.0032754965010828503 -0.006298089982065516 -0.001720781839202088 0.004238757017389919 -0.06158250966058222 0.2262657809195953
17983000.0 0.9839426466269948 -0.15127663070899228 -0.004220254545857438 -0.006730258287745696 -0.0035261915537252242 0.0010320534399133059 -0.05264023137356073 0.24122722076328365
18982000.0 0.9798834467971486 -0.1584034592265569 -0.002222989938392593 -0.00142741799505446 -0.004160442417225116 0.0013365376514539481 -0.024262067656551495 0.24547107374091745
19981000.0 0.9807922262857447 -0.16629994247278754 -0.00455454965561858 -0.006530976718485886 -0.0019802418557468 -0.0007667322090726778 -0.011181570460500157 0.25929813504655075
20980000.0 0.9800966160947534 -0.17723728429597863 -0.0023757773603773373 -0.004042038939930996 -0.002275715560090991 0.00475500098894414 0.00248601310210202 0.2673260546656389
21979000.0 0.9766200479315129 -0.18537605968206797 -0.0036988737548824175 -0.008130949117750157 0.0005144149309706395 -0.00408728209869584 0.022306813633989547 0.24996028750405225
22978000.0 0.9743163899063401 -0.1929226591587333 -0.005297731510490454 -0.002064980240040213 0.0030055654374664337 0.000974268555138267 0.027413459278946447 0.26589135726518365
23977000.0 0.9746978033679138 -0.20427888828697804 -0.00888274770301802 -0.0022714458497239305 0.0006552059306808718 -0.0002783512148071433 0.045366551164367504 0.25179764822114764
24976000.0 0.973000350552028 -0.21265139492284163 -0.008088014717287399 0.0016167654732342747 0.0003349444597976631 0.00014360988474283948 0.07314383202218085 0.2613007802057831
25975000.0 0.9699647938382587 -0.21738216247959313 -0.00594168376825103 0.002117596742583971 -0.0236979620946386 0.011825774874445744 0.07154953677308769 0.249542077030401
26974000.0 0.969733363143027 -0.229303693376958 -0.00497643358345948 0.0013241508099218306 0.0007670677015479628 0.0019907611431404636 0.09273538093116845 0.2639227618301254
27973000.0 0.9676975610212125 -0.2330950284210214 -0.0036394340762869316 0.00044096661781872765 0.0005675410039228027 -0.0005262590381811008 0.09975147912773588 0.2549968856041753
28972000.0 0.9637502846530359 -0.24717191405212754 0.0011298755598751226 -0.0021213803500779575 5.975122195932077e-05 0.0032766532654547645 0.11178372276376962 0.25776153981940886
29971000.0 0.9623912793388822 -0.251857209355757 0.0013852674064156651 0.00021916224320675312 -0.003412819982072294 0.0014057687285496385 0.1623386127474994 0.27048917846046533
30970000.0 0.9604898626340197 -0.2600121759404393 0.002142852038476911 -0.0012702737565168177 0.00316336625650315 0.002782625682663273 0.16678122423657565 0.2547285064498064
31969000.0 0.9587776025437538 -0.26737477859448827 0.00222978777906342 -0.00147382254482669 -0.0022468090762691843 0.000680944869508843 0.16142804361323765 0.2451599146377781
32968000.0 0.9559944423113313 -0.2773188199020157 0.008137086300650716 -0.006631440182174793 0.001341598305998184 0.0012757885488366805 0.16957193084556246 0.2537073871398068
33967000.0 0.9531876485003146 -0.28627655238674476 0.011561582700508489 -0.010818132792182893 0.006418557262102013 -0.0024071548376698817 0.199760997237391 0.2522419219077651
34966000.0 0.9493483377040258 -0.2968954453382587 0.013543100784229344 -0.008420314822416468 -4.9125261692153266e-05 -9.448280876226879e-05 0.20114173879918046 0.24373222833437988
35965000.0 0.9475398932733438 -0.30453925563142165 0.017470616762230107 -0.013455323219725509 0.004171435136253826 0.0005481079438641816 0.22338835987505432 0.25144097701515006
36964000.0 0.9453567104759659 -0.31297330835561804 0.016809329477888754 -0.014419740268249642 0.0027903942043650495 -0.0017646104645631974 0.22867537938057503 0.2517689257457124
37963000.0 0.9417064668791766 -0.3224237092397802 0.020333599406134013 -0.019176222441629805 0.004029446222927888 -0.003691648246045685 0.23380714609736258 0.2445229147110891
38962000.0 0.9388992262926075 -0.3329771331535288 0.024084399585098514 -0.022805929448178747 0.004167628963965232 -0.0013549754780504677 0.24678551201926988 0.2405498553468424
39961000.0 0.9363035719055355 -0.3386533035922371 0.02629828801277531 -0.025809995064066137 0.0001251400355282182 -0.003568400455375382 0.2608269552121833 0.2277670417767718
40960000.0 0.9332052192518734 -0.34764460838917494 0.02245619304888756 -0.023031150824722027 0.0038271035830923865 0.0008562233373264333 0.2717814176865474 0.22180754827843538
41959000.0 0.9303815025260104 -0.35726274866328206 0.02934085089886253 -0.029449890451760902 0.0008598171035691344 0.0007285055859428838 0.2750918590836472 0.21684453756067457
42958000.0 0.9245804306678571 -0.366995217062893 0.03403711993577689 -0.04031769856647995 -0.0007105068257144688 -0.0010141940112134114 0.2839239075242825 0.21106275687847606
43957000.0 0.9249249945839474 -0.370074989723549 0.031409889912761585 -0.04710535204908459 0.002191214615039566 -0.001982184025396483 0.2989659112788361 0.21721552367916774
44956000.0 0.9209488493174646 -0.37992216400446793 0.03385812751845024 -0.05232629156737903 0.0033984090488641755 0.0005647332191035793 0.31615763327158763 0.19413521939130035
45955000.0 0.9164464984177385 -0.39053741790879154 0.03632217700023745 -0.05473139681502219 -0.00032754746489998887 0.001826403352353086 0.31634726837163507 0.1872741637247506
46954000.0 0.9141252736930737 -0.3985461942718348 0.03455736390929458 -0.06299248918316044 0.0010089161584084462 1.5094265203483221e-05 0.3447216918871284 0.1799654828917915
47953000.0 0.9112023548585653 -0.40530233438040464 0.036176039346758546 -0.07200450242034714 -0.0022847672568609826 0.0026758631164870788 0.3397404074628321 0.16526857219080968
48952000.0 0.9038385485761325 -0.41558702627583316 0.03878895643735012 -0.08005334864889384 -0.00025714009746991045 -0.0015178145615265932 0.34181451637799665 0.15762588006820547
49951000.0 0.9002164804657993 -0.4224154029279344 0.03568616999031833 -0.08719193277862411 -0.004429959122821139 -0.0037426104104800657 0.3628878571041616 0.15037837133826643
50950000.0 0.8971747372337271 -0.4320910556347965 0.03785287660428929 -0.0952860071880465 -0.0001271936631000448 0.0017524154772720285 0.35753627947877703 0.14667232089754995
51949000.0 0.8945532719880608 -0.4394273836818257 0.03910899407065083 -0.10218224288506197 0.0027967872131512764 0.0039016101903385377 0.3642058725872513 0.14173599593243377
52948000.0 0.8914777174665255 -0.4472845347892924 0.03969897678470794 -0.11188869634063674 -0.0009268086258433848 0.000638292559153165 0.383983455927611 0.13875602213917942
53947000.0 0.8841148591951566 -0.4569313075499732 0.044896541001005985 -0.12324808348365905 0.002721612028246769 -0.0022751383695728284 0.3869778541489229 0.1218843002330282
54946000.0 0.8796399998781007 -0.4634074726657469 0.04175805393065931 -0.12988602415631234 0.001079135822992747 -0.0028502941865494805 0.3905437828574704 0.12506947473855087
55945000.0 0.8758071986822072 -0.472522407818322 0.04410917952936316 -0.1426554948835004 -0.002276884300421882 0.0031899806193286433 0.3986098200336848 0.10512339551880664
56944000.0 0.872473509324447 -0.48211887356137 0.04812018472986433 -0.15060028561527938 0.001970833699443915 0.004497693800564486 0.4055716185326943 0.10647675503231062
57943000.0 0.8662876784591078 -0.4926117758183714 0.04853345096400838 -0.1649237973841683 0.0036473828642461276 0.0015201474791952637 0.4112802540838235 0.0965238192719062
58942000.0 0.8609332203073943 -0.49936719317566275 0.048963281484716896 -0.17176060407130145 0.0020398538349023997 0.0020949595555604344 0.42995298109098323 0.0878728089526369
59941000.0 0.8582857091753889 -0.5036427045300068 0.04972382393846739 -0.18398972731154395 0.0024328111362559007 -0.0031362980560223027 0.43096976372802087 0.07935799737376113
60940000.0 0.8509096830986339 -0.5129175954682998 0.0503217018584498 -0.1855546771901999 0.0008685369512615596 -0.00023730723845528852 0.4137278952138343 0.08163814219083239
61939000.0 0.848123788116412 -0.5199195265145055 0.04878130700658825 -0.19190025793359158 -0.0002341596699302145 0.001537042990589129 0.42721570812983445 0.06919644911998081
62938000.0 0.8416561685679257 -0.5308230053648386 0.05365449768735141 -0.20896976943969192 0.0023645800609837586 -0.0020670058822601454 0.4528482751118198 0.05098809086580501
63937000.0 0.8380649979031068 -0.5363498549106408 0.05354530800655366 -0.23279969633591302 -0.0016925236372475265 0.00012023240993760176 0.44167525301183247 0.03890105737860857
64936000.0 0.8296963754470555 -0.5438519168808903 0.0544474265671542 -0.24422881360196702 -0.0009025945393392428 -0.0020728976143685874 0.44140246161534125 0.04330279046155318
65935000.0 0.8277653303665967 -0.554055787230924 0.05226474828925031 -0.2583634584124104 0.00037441139979622754 -0.00392022824220367 0.45252680262474304 0.023942225731381786
66934000.0 0.8217856079997948 -0.5591340620793975 0.05203843596368981 -0.26689667060608485 -0.003972415769875594 0.0002322778694143964 0.43954339434407164 0.017173323060165314
67933000.0 0.8193346802834899 -0.5656430776653696 0.054790195566547635 -0.28314420054465084 -0.002529800960108226 0.002760467748015814 0.4580300520573625 0.011173073556086955
68932000.0 0.8137218896389132 -0.5618605594081828 0.05157319752712283 -0.2952794266077276 -0.003769439342709093 0.0005514492813286117 0.4631372214931697 -0.0070352920050766035
69931000.0 0.8056409422545094 -0.5833730184875421 0.052067919919631896 -0.31133630617369823 -0.0005563237921519165 -0.0034286787517810286 0.4556085729966658 -0.02173023785308982
70930000.0 0.7970481231545403 -0.590620645140199 0.047695035718358994 -0.3226796782396197 -0.006182917542603758 -0.0017764367222793793 0.45737486135158373 -0.024996200983740315
71929000.0 0.7946202341528372 -0.6011576962327688 0.04145474806446651 -0.34264635532524146 0.0014660884545997473 0.0007547777463156454 0.45775360338699955 -0.03338703064630821
72928000.0 0.7886472151099116 -0.6068969632683794 0.04031751442325759 -0.35772290212953994 -0.003373651946965883 -0.0015545242892066077 0.48091989640065724 -0.05431289474177503
73927000.0 0.7839037859789925 -0.6144505459390545 0.031855277820675196 -0.3769544174758874 -0.003892032260594963 0.0007078614634856623 0.4667870863108639 -0.04653747265832252
74926000.0 0.7759244172211939 -0.6229577262647528 0.02357441079226953 -0.39577036631492174 -0.0010386051227822702 -0.0010851728643540743 0.4744782239795246 -0.051747337627032465
75925000.0 0.7713486365325517 -0.627161775378868 0.014785524607459452 -0.41500808178665893 -0.00025869715565676147 -0.000584469642359722 0.46855530104985105 -0.08346736422748391
76924000.0 0.7650115738616281 -0.634607140914562 -0.0011448697042501991 -0.4379435732357769 0.002085949313356389 -0.0017276351174678084 0.4693443593838496 -0.08061498658787807
77923000.0 0.7575276021166456 -0.6445866038721291 -0.009569163120483514 -0.4631438734984882 0.001119888504226251 -0.0019359327438542098 0.4677746914388243 -0.09391429174152756
78922000.0 0.7526722698912314 -0.6521237398414362 -0.027595765412245937 -0.4874156659604534 0.0036569755215545845 0.0011419371960605257 0.4709459202057921 -0.11018262760762088
79921000.0 0.7444734735681889 -0.6567903091880353 -0.0470762965922791 -0.5103463864402743 -0.003434095433366357 0.0004716746896287017 0.4642625611374781 -0.11208468562238744
80920000.0 0.7378791437054238 -0.6676831372691321 -0.06288448150136473 -0.5417696432316087 -0.0007650150828466539 0.003236762753700235 0.4843005684495551 -0.12388132428835974
81919000.0 0.7323364500148538 -0.6716625335067019 -0.07866671217612156 -0.5678262372279035 0.0030990874726811407 -0.0011302994976867056 0.46794911571484504 -0.13317183073643843
82918000.0 0.7256058642286091 -0.6795770354382594 -0.09216848371926792 -0.6008613572646281 0.002779637912856377 -0.0035388519337083662 0.4863111607233758 -0.15211986333442104
83917000.0 0.7165097788385365 -0.6880099656790966 -0.11266791279610636 -0.6215785486052177 0.005755084254179565 -0.0006946660741640071 0.48017970295209494 -0.15657665544338936
84916000.0 0.7108808953361436 -0.6973125405606031 -0.12882513798503298 -0.658629429734306 -0.0004314849218007682 0.006732918122666247 0.4699999894716976 -0.1627527158255865
85915000.0 0.7052002857088676 -0.7022580987821584 -0.14820103451533972 -0.6852658786935062 0.002487114364301322 -0.003967757870508989 0.4664188738155756 -0.17833010091852192
86914000.0 0.6956945070794802 -0.712751640867588 -0.16676406272123093 -0.7289046278997751 0.0005947257545941136 0.0018435117273362983 0.46747421836233266 -0.17251072108285367
87913000.0 0.6878243737255461 -0.7159528644534221 -0.18101860767954217 -0.7560993954049693 0.0030479012651283863 -0.002186846348267016 0.47046124030592157 -0.18556458007877985
88912000.0 0.6852090047143481 -0.72361700416959 -0.19478549275445695 -0.7856253254830852 0.000305838243640683 0.0015650246442822497 0.46951394575187894 -0.20271705359565018
89911000.0 0.6730767759560748 -0.7330013738654082 -0.2119451990582654 -0.8231956026177206 -4.863258230437552e-05 0.000742982282700367 0.482194866819412 -0.20511088585204235
90910000.0 0.6672411505432208 -0.7368588020094209 -0.2245809139206414 -0.8578631272473304 0.0032679430891703835 0.000486106950729498 0.46882325930170077 -0.20416902368070006
91909000.0 0.6596486443721252 -0.7420486995528106 -0.24828680758433946 -0.8862706800552399 0.0031302491405720426 -0.00029080077567294793 0.4602745018728677 -0.22821133663927276
92908000.0 0.648865633208535 -0.7510851782726692 -0.26147060538984235 -0.9164601797694591 0.0022975860908601015 -2.471386281416993e-05 0.46639350076734765 -0.2388408634781286
93907000.0 0.6450920194463181 -0.7565250487278469 -0.282202485060663 -0.9449300799522611 0.0007722699848594975 0.005270493614888943 0.4681148481414555 -0.25150163286647287
94906000.0 0.6334458009772717 -0.7644946739136006 -0.2926642125771316 -0.982488290525952 0.0030172977964936986 0.0026099942645481564 0.4690206199338622 -0.25199588712884907
95905000.0 0.6252032818265145 -0.7725636664206748 -0.3217899547189043 -1.0188606574007093 0.00027719642706822264 0.004672090231713917 0.4689244955827407 -0.2704015192680548
96904000.0 0.6179525212541054 -0.7791928930635176 -0.33465085794755856 -1.0557663358982248 -0.0056297842915174565 0.0017603831290327941 0.4586992778637038 -0.26401188175405416
97903000.0 0.6064430067043874 -0.7853646881069598 -0.3572236767211418 -1.0822014085399396 -0.003323082775854316 -0.0011048412928363846 0.446100713334767 -0.27973916760477435
98902000.0 0.6023520910097407 -0.7921599741922039 -0.38056030537632274 -1.1189784073590876 0.002897122506905551 9.699610419669836e-06 0.4535419867670729 -0.2903484799002334
99901000.0 0.5917247636877688 -0.7974994402209035 -0.40826287719382204 -1.1510467930238206 0.002066218172761536 0.0035967864335056062 0.47205167574955803 -0.312907673702698
100900000.0 0.5859635479155503 -0.8009707793541664 -0.43188334918081017 -1.178385961928165 -0.002970519768057999 0.0025186943954510744 0.46850598793308856 -0.30088998448409804
101899000.0 0.5739729660846556 -0.8099916543174891 -0.4636593728847912 -1.2156037818845755 -0.0016194589168907025 -0.0009225152788215453 0.44906916018009463 -0.3196339948521504
102898000.0 0.5649456092749198 -0.8143324181106814 -0.49538506501792917 -1.2536953417103305 -0.001158046253028344 -0.0016399581361568386 0.45913377666882643 -0.3345229068177846
103897000.0 0.559072843553468 -0.8203371888748185 -0.5349115997899645 -1.2894196457748504 0.00016731420113016719 0.00018669776646005695 0.46693426180976605 -0.3355445546066407
104896000.0 0.5496855216296942 -0.8303019665854652 -0.5828187880536554 -1.3193270466217497 -0.004363580948061199 -0.0013374151116397367 0.4520307621386999 -0.3385877380684453
105895000.0 0.5364303039693208 -0.8340888767321993 -0.6282182498855086 -1.3543573922738372 -0.0013685378705582054 -7.529542614278056e-05 0.44581645444336737 -0.356411817062152
106894000.0 0.5279566361579352 -0.8407705636270799 -0.677564325773729 -1.389796952709205 -0.0009976788735241717 0.000490937474414553 0.43754873982374753 -0.3563554097858632
107893000.0 0.5201991003699238 -0.8477266545363087 -0.7274775209452643 -1.4302985526299508 -0.0032174413250931878 -0.0016792505953795555 0.44610721582014873 -0.3668910853471303
108892000.0 0.5124158758602035 -0.84779702568977 -0.7852019399122195 -1.4633096577563778 -0.001173245139354574 -0.0015279170040224262 0.4373089371928688 -0.3652072872715487
109891000.0 0.49965703130043415 -0.8592440248899244 -0.8406156172594877 -1.4999012987591718 -0.0032344754382622573 -0.0022474068390654547 0.4453826264696335 -0.37607014579199305
110890000.0 0.4930295889005142 -0.8638441660997601 -0.9009384359049455 -1.5147676840720992 -0.0001450271619859779 -4.4831977837063204e-05 0.4393840527742551 -0.3679625078519151
111889000.0 0.4812054055644645 -0.8629434293999458 -0.9649772992343599 -1.5678346470410587 -0.004603171412708074 0.0001932415060284833 0.42639507825449674 -0.40964533996414704
