! Created with skrf 1.9.0 (http://scikit-rf.org).
# Hz S RI R 50.0 
!freq ReS11 ImS11 ReS21 ImS21 ReS12 ImS12 ReS22 ImS22
1000000.0 0.9651660032834478 0.0028169020501678512 0.0028531727939448835 -0.03814885882523739 -0.012189997531674823 -0.0023677260569292483 0.345254535134633 0.3444034957807026
1999000.0 0.9940503979076944 -0.014482478101625682 0.0015109750428941016 -0.014862681267905572 -0.0062774306528196825 -0.0023710411960866156 0.24084350480001002 -0.028165742261434448
2998000.0 0.998592628067827 -0.02523055189547956 0.0036135891052681587 -0.012403371367023052 -0.007907038133198688 -0.0021411792163763 0.17784750294732427 -0.12022376460334905
3997000.0 0.9949878061442268 -0.03580387277807573 0.011952136358840192 -0.007935925442605312 -0.001999208095788803 -0.003259241599411205 0.09680775239310843 -0.22135393212194043
4996000.0 0.9935565633663301 -0.03751950657095163 0.012748856590977832 -0.0013023087585826347 -0.0064997754393656465 0.005196431836435375 -0.046436270731351544 -0.1880753912580129
5995000.0 0.9908182011772635 -0.05249349325832469 0.009863224997191916 0.0019492645209330936 -0.00024026944242419934 -0.0015575755825468515 -0.12267959551701776 -0.10608124718714856
6994000.0 0.9886723917172294 -0.06305229504326705 0.006370303807429259 0.008409672108111726 -0.002600904200156732 0.0004922171539392658 -0.1564472748605337 -0.01634320403570292
7993000.0 0.9916745811649443 -0.06871904510266476 0.0033555837771552743 0.007356031068272641 0.00018323624126421025 -0.0031866668098545167 -0.15375360208154384 0.042119913026504176
8992000.0 0.9921227505232088 -0.07409254655242373 0.0015318253946723934 0.004044892010021624 0.00047834393455339187 -0.002369241725666037 -0.15854285893544479 0.07255249673212943
9991000.0 0.9877396315175839 -0.08649127913557363 0.0014410632253876114 -0.0001459281687524851 -0.0037410831168372596 0.0007867858590215104 -0.1516730898625886 0.08916870577268196
10990000.0 0.989146171369057 -0.09339866658007606 0.00879665312699386 0.0060906281030899566 0.0037311164572801877 -0.0032948815172495873 -0.13719357341550434 0.10262166722230068
11989000.0 0.9846431273749192 -0.10274710786362189 0.006742583351821065 0.0008475419372953845 -0.0024579150021134515 -0.00010758392230994173 -0.13517305826676698 0.13617306975613502
12988000.0 0.9842590064551717 -0.11008162393368916 -0.00013126488683533994 0.0016451602572591843 0.0009730954989557176 -0.0014273402869327005 -0.11602522530638461 0.1697318413309733
13987000.0 0.9829784204870177 -0.11722734423694808 -0.001485471609811789 -0.007930750393660311 0.0005991562011181488 0.004758032957342947 -0.09827556063232049 0.1899810532873294
14986000.0 0.9824873577414086 -0.12673526635591748 0.002682730322122157 -0.004688919352181945 -2.383562962661011e-05 0.004098444189753711 -0.08595108880119716 0.1996321145680943
15985000.0 0.9842242020137774 -0.13453915212808193 -0.004103956967799084 -0.002095884353788002 -0.0015251999882331907 -0.0001609677827469682 -0.07077395283488352 0.22266943202731193
16984000.0 0.9812752023637491 -0.14611539126999348 -0.0025902012177879533 -0.008606883362923527 -0.002773258672085231 0.0003242867534837962 -0.06552870513534939 0.2269631970901327
17983000.0 0.9801907542533047 -0.15148709594661083 -0.0024728557998128678 -0.005091581574808741 -0.0023852478859513315 0.0022751226952111184 -0.053506800574216584 0.23517157229425292
18982000.0 0.9790695612525474 -0.16203335444822506 -0.006224144665581176 -0.006038063358297707 -0.0005926995808775362 -0.0033214522734658692 -0.032605896472562346 0.2382060447080018
19981000.0 0.9791149196154836 -0.1647742353141567 -0.004009941276351949 -0.005376948960703356 0.003370979802866412 -0.001985810862888691 -0.017857578334996974 0.2469144301603684
20980000.0 0.9780446840326263 -0.1765202042360029 -0.009064093974993003 -0.0032967509963440595 -0.0007321045506004661 -0.00814758086013303 -0.010019939971963467 0.26206757450216284
21979000.0 0.9745035917951784 -0.18464579437207956 -0.008098887494338269 -0.0026268517877967926 0.0023942435767112745 -0.0024157806609824504 0.013402914196979419 0.24072431179892986
22978000.0 0.973273364715735 -0.19346747054973326 -0.005019393823627209 -0.001860478923243431 0.0006006308079851484 0.0023919946888787415 0.01662439429661 0.2608366147547366
23977000.0 0.973542577315884 -0.20122091808295195 -0.005967557362400616 -0.0026318964293752536 -0.003652081108114231 0.003999217764245294 0.03062352757433622 0.26080102912355213
24976000.0 0.9697271629442772 -0.21230254985054559 -0.003363862950531781 -0.0062122430560981445 -0.0007279998505172694 0.0017026842703143272 0.04717512716524356 0.2616104997777863
25975000.0 0.9623174003453769 -0.22381229877402964 -0.001555028390541072 -0.000687475698924146 -0.0031792481988149645 -0.026041832478854703 0.0739356595125141 0.26524644728942093
26974000.0 0.967105033930392 -0.22886756203205197 -0.010734324021474237 0.0006577443289342605 -0.004711922698139602 0.0016880606900395527 0.08886480403268546 0.2658993951984893
27973000.0 0.9650179186675034 -0.2373731637456936 -0.005135624163072603 -0.0033588373840757503 -0.0037324446846635335 0.002007118640471195 0.10500028402029482 0.2647085925705047
28972000.0 0.9603843254277219 -0.24551396848802587 -0.004535897743435428 0.0010860585297751645 -0.0013003298873822372 0.0010894206385416508 0.1200069478984441 0.2505302048538262
29971000.0 0.9602656774664198 -0.2545827215424448 0.002864322227190015 -0.0005602070049421306 0.0004155439499834535 0.0019413867551232931 0.14762560085499066 0.26425844390899417
30970000.0 0.9583405141424715 -0.26028154197742037 0.005209238480299844 -0.0021739019747595294 0.0003252831598073559 -0.0007543341900820499 0.1621552674488988 0.2613014796582218
31969000.0 0.9551241798295929 -0.2714051844638336 0.002801617378380682 -0.0024661246573633206 0.0012432047069628421 0.0019833548426303935 0.15721998061180023 0.25086547953320554
32968000.0 0.9541860904311331 -0.28047556941336177 0.0052611113957343626 -0.009462069739215307 0.0002609215311816002 0.0011863996833554236 0.1632993218096735 0.24774074646997554
33967000.0 0.9523041009068224 -0.289359011413242 0.008860602024409978 -0.006650070035512544 0.004334258004326222 -0.0009755076335601227 0.1830482143147052 0.243977846824661
34966000.0 0.949982339340321 -0.29583717177949653 0.013481703119220308 -0.011008024475590768 0.0005231020026612769 -0.0005132112775619427 0.19051429398917769 0.24701906158392956
35965000.0 0.9458286842542408 -0.306049246589322 0.019833521919189443 -0.010760984432710228 0.004335951829192596 -0.0014657071748208704 0.2035377561065025 0.25470319129749813
36964000.0 0.9445340445575624 -0.3147612305537847 0.016733621875788883 -0.014577183778704303 -0.003335791945892372 -0.0004501924491376801 0.21226203021019918 0.25217813353073354
37963000.0 0.9404459061993915 -0.3230304948465474 0.023119311690563433 -0.019850234955147938 -0.00277786605115446 0.00154641707667871 0.2232164771202096 0.23495259373338054
38962000.0 0.9378169444633289 -0.3323041078627609 0.025986508288971318 -0.026731223826776528 0.002372646222225825 0.00022525317013867427 0.23877547504172175 0.22974257832539471
39961000.0 0.9355893736880683 -0.3425883678745795 0.02602524825826711 -0.027674131159542568 -0.0004682006568460255 0.0010022179083058484 0.25440053221117925 0.21984846056470067
40960000.0 0.9310227837381724 -0.34852006097414845 0.022501186314798607 -0.024043354408998754 -0.0010829218806461855 0.0011578740957538208 0.26694658402240456 0.22766718405551842
41959000.0 0.929293657419967 -0.35903563586365805 0.02995196002436082 -0.0319929816370574 -0.0003082568287886973 -0.004841985154430993 0.26744934446160906 0.2151089180021497
42958000.0 0.9238521605008941 -0.3669959680035056 0.030955443727528162 -0.04098799294771382 0.0042058643615489315 0.0021433662106025183 0.2756201541151577 0.2079419926578965
43957000.0 0.923134310362452 -0.3718434045557891 0.030108956733092405 -0.04774579779388726 -0.0001095211880909936 0.0002528492904801142 0.27664470439839095 0.21054716193130427
44956000.0 0.9191902646483078 -0.37976139721247854 0.03102781388400492 -0.054999924636944295 -0.0007605062988556439 0.000946962754109099 0.3004775808512941 0.19952115859415515
45955000.0 0.9138289650149785 -0.39241850506398546 0.035316048401370106 -0.059114265224242485 -0.0005208888115032521 0.00020739114073587987 0.3073645963426321 0.18925843669472395
46954000.0 0.9097234921284061 -0.4015576847760456 0.037052390135289076 -0.06775422150465854 -0.0014164937615381136 -0.0027656149180288287 0.3166070880921436 0.17625738655390755
47953000.0 0.9065707416663493 -0.4102660466240477 0.03643479998345622 -0.07184175994618686 0.0010007229121876782 -0.0024845962420197397 0.32878681016618744 0.17601489934304826
48952000.0 0.901915200652155 -0.417649502642566 0.036660116768791835 -0.08066043474293047 -0.0026955157777526044 0.0026118279770855454 0.32714018640819004 0.16828571012957308
49951000.0 0.8977455615668095 -0.42765776592515387 0.037683446370925716 -0.09002852402155423 -0.0014708774084737316 -0.004298606767226051 0.35051583639757544 0.15059860674823033
50950000.0 0.894800024490866 -0.43531038901127267 0.03920273669194884 -0.09817773832937754 0.0011847526377248398 -0.0007139584465779745 0.34365625529078814 0.1488722330641703
51949000.0 0.8902314601035252 -0.4437316271733915 0.037710457228893296 -0.10438024847928755 0.0019912381180464678 -3.1768689298768066e-05 0.3533411792329483 0.13219851726577536
52948000.0 0.886699360851192 -0.45271211970863723 0.04247663239718376 -0.114121539727102 0.0016094902031688835 -0.0004794803802330039 0.3694086419129387 0.1330178985401521
53947000.0 0.8831658294407946 -0.45793473543743457 0.047226624366120296 -0.12438945439253031 -0.0040726682785533035 -0.0009572040315678132 0.36818365307807926 0.1296650124824756
54946000.0 0.8764490654894973 -0.46841335018398766 0.04645640838496012 -0.13229245372348267 0.002548452231506444 -0.0013954088215751778 0.38406723930847175 0.11829579812478166
55945000.0 0.8743045225992948 -0.4783908916591316 0.04665647394308658 -0.14582697150801044 -0.001143004864602315 -0.00018872642220802986 0.3783691210435856 0.10603937075984773
56944000.0 0.8689175476514204 -0.48478637456042606 0.05151453370846058 -0.15234788765850965 0.0029113430441121972 0.0023050220619333615 0.39239536184882223 0.10044443687005178
57943000.0 0.8643062096195505 -0.4940198778167591 0.04917413698373023 -0.1672664833264433 -0.0018779124669356074 -0.0031862077836085673 0.39577274224781683 0.10680081698846297
58942000.0 0.8598192399798386 -0.4983816147516807 0.05240616705402035 -0.17425014033267264 0.0005403678201165278 -0.002101639216583691 0.4116796787917617 0.09325240702696047
59941000.0 0.8538851809047775 -0.5117709311471447 0.05386127782490515 -0.1857080920422112 -0.0014934259146195498 0.0009467331448421786 0.4134449784291388 0.08533589483341088
60940000.0 0.8472585124540738 -0.5166290423457726 0.05328015207357599 -0.1882740742216427 -0.002829406556804409 0.0022108249504680867 0.4060677054824671 0.07925766916232391
61939000.0 0.8443855084724112 -0.5229665501939753 0.054922291264651646 -0.2002120829577495 0.000976834400830996 0.0026912163267662353 0.40848570827815567 0.06855291151726142
62938000.0 0.8383480204977432 -0.5342643029901172 0.0576140680418251 -0.21908698346371913 0.0015434660763510787 -0.0039701019090387845 0.4383548337191571 0.05157196564471944
63937000.0 0.8328581787072559 -0.541588008579799 0.05782637751703724 -0.23676826146784768 0.0027348347331483465 -0.0022815593406408288 0.43830077089600133 0.044350613391710536
64936000.0 0.8275630069394448 -0.5466118786217002 0.05607134180869812 -0.2513117705302761 0.0023155818936864284 -0.0006437191698253007 0.42264957221511423 0.032962302300424004
65935000.0 0.8222777160836819 -0.5601311968041092 0.057408798315326616 -0.26689184049925574 0.00459128163525569 -0.0032411812560644974 0.43174820850809803 0.02081951678038669
66934000.0 0.8179387806729068 -0.5633794286733572 0.05379406132385404 -0.2814218996423083 -0.0005774318493448742 0.0014902012467509743 0.4264856083374967 0.005798587158554442
67933000.0 0.8128567339064388 -0.5718097577070166 0.056637071854387815 -0.2946825926764608 0.0006931970630377165 0.003515497903568125 0.444450432748987 0.005660045324743093
68932000.0 0.8110935729276071 -0.5722951787718715 0.053758507856537255 -0.3082254478793058 0.004120130230632016 -0.0020175461526399287 0.4467111545746454 -0.003429274097722172
69931000.0 0.7983154313119925 -0.5897451715327116 0.05316081329766554 -0.3250016739559517 0.0036453934663120994 -0.002277518788389913 0.4505798572705402 -0.016137165070100438
70930000.0 0.7925536460298993 -0.5965411242066326 0.047753397592216903 -0.34016956820644567 0.0034009496389979816 -0.0018321823088054041 0.44370545294491537 -0.03160184317974996
71929000.0 0.7900183096522064 -0.6053513093396844 0.04451209384029328 -0.35676573315491344 0.0023035967364655246 0.002202467827448425 0.4530759869799265 -0.04382564651041019
72928000.0 0.7829509431361517 -0.6102185120939961 0.037870803673098107 -0.37571458847201367 -0.0020510805226774767 0.00015286504597876156 0.45969556854715243 -0.056415111620914914
73927000.0 0.7768303096474569 -0.6194315707921548 0.030625743737517027 -0.3966990084801493 -0.0006762241153494816 -0.002394157438713004 0.45462934132722316 -0.05893877726399846
74926000.0 0.7722358753016904 -0.6280577320008344 0.02544825037819931 -0.41772354380466575 0.00031663994352416577 0.0007228507168074286 0.45483586884285804 -0.06001894694354813
75925000.0 0.7639864558530647 -0.6332286605469414 0.016698028794166524 -0.4357242636920156 -0.0013189868598462685 0.0015247598617660683 0.46503595453686747 -0.0791542121177676
76924000.0 0.7580206993934642 -0.6389130836882614 0.003307686705549667 -0.4600938179005103 -0.002133509783030847 -0.0011311253486827476 0.4707198348315909 -0.08972321524622107
77923000.0 0.7514662372825468 -0.6491412412175113 -0.009989071495586118 -0.4865583743423353 -0.00430326733961812 -0.0027102687068584156 0.4595072854203101 -0.09510420506821808
78922000.0 0.7465382808019593 -0.658823567589423 -0.023725881759964255 -0.5159549080169237 -0.004064364972972664 0.0016308313718385833 0.46245258131348405 -0.09717177442804784
79921000.0 0.7358631079177245 -0.6610145909453644 -0.046883051519755956 -0.5400429297548075 -0.0002761298987266026 -0.0015892042524965869 0.4481707202121482 -0.112420485613274
80920000.0 0.7323203940794761 -0.6732045569775065 -0.061241468284848846 -0.5679961062712628 0.0024540351460263657 -0.00269731420948086 0.45869593536451175 -0.13031091724439528
81919000.0 0.7258691885009333 -0.6795067046873022 -0.07499449941740283 -0.5966610684820429 -0.003250906158425311 -0.007600618856436124 0.4683031782214252 -0.13653597471989604
82918000.0 0.7158074236083591 -0.6856189618207501 -0.09283583093617061 -0.630738099133381 -0.0047920603262482896 -0.002552190589355963 0.4755674969441633 -0.13931433493457604
83917000.0 0.7082282946777572 -0.6930166357396018 -0.10943108866814567 -0.6583074264884944 -0.0008540178241700085 -0.002036041664725927 0.4790000943283433 -0.1612617654201957
84916000.0 0.7047737094940424 -0.7008967597349893 -0.13046759195328694 -0.6939837432612602 0.002541924949073104 -0.00014522399841520236 0.45404642624159797 -0.17167707464082996
85915000.0 0.6964128520885631 -0.706243725880714 -0.14392901314650486 -0.725354127026705 -0.0023211363591351445 -0.00011793877564586863 0.45715648796471403 -0.17585260049475618
86914000.0 0.6904056362296224 -0.7173280664524221 -0.1647451967514502 -0.7607666670874362 -0.000636311832968632 -0.0014798841736409982 0.45704921411013844 -0.1691494874786938
87913000.0 0.6821013813228722 -0.7221650372584023 -0.1836131328688953 -0.7930721377977349 -0.0016905409120065156 0.00013255026521353597 0.45784898041708766 -0.18455857486183966
88912000.0 0.6739615821687667 -0.7288753441244756 -0.19768011506097763 -0.827220707362599 -0.002282881007147184 0.0019095873440109152 0.45701670649476606 -0.20814119785539073
89911000.0 0.6675688190673071 -0.7363691149349496 -0.21167367987756602 -0.8640941478404363 2.6132356544316047e-05 -0.0030689665597750395 0.46673253072804655 -0.20954038837463546
90910000.0 0.66009977294737 -0.7417563580359999 -0.2322170839261675 -0.8995851137490145 -0.0012648362543104376 0.001211602022234175 0.45847839996034495 -0.2169592017172859
91909000.0 0.651937693372772 -0.7478243293613746 -0.25173407984375823 -0.9320699684118229 -0.0009093252079782616 3.797265723242755e-05 0.46144068135821437 -0.2266608378782424
92908000.0 0.6428260577684193 -0.7562718968406222 -0.27090425060263823 -0.9644900124570618 -0.0009770687436902118 -0.0020082896967578237 0.45046700380852306 -0.2323645092861044
93907000.0 0.6370749609483972 -0.7600286684333678 -0.288891855898276 -1.0009843814089459 0.00037897761422638694 -0.0034637530593829165 0.4627929250847274 -0.25613219816438904
94906000.0 0.6255677592054324 -0.770010356540543 -0.30664611072722503 -1.0318061235493161 -0.0038334782019738213 -0.0016969797304303787 0.44827533136983616 -0.2545757560005736
95905000.0 0.6187274626701293 -0.7747416726772761 -0.32994911111215003 -1.070436145076063 0.0028123759967436904 -0.0013585660241371906 0.46102392392851177 -0.2759976226030901
96904000.0 0.6088140917456196 -0.7845816787447668 -0.3529163197234983 -1.1111286735485775 -0.0021564518292242056 0.001089821743789129 0.4516257926363976 -0.27708997346267433
97903000.0 0.598554403433459 -0.7887719072713073 -0.3760372964456055 -1.141074884000993 0.00019279647908899793 -0.003114285973538057 0.44693098717622004 -0.2756393328095419
98902000.0 0.5939626040809142 -0.7955577759920515 -0.403493537508691 -1.1807045125655795 -0.00021667206749749937 -0.0026053592022612466 0.4414954770538771 -0.30110844275936444
99901000.0 0.5832846033486362 -0.8023810487109129 -0.4325090577345353 -1.214065236119371 -0.00025268167638606417 0.00028537696470410555 0.4575124675112747 -0.3211295209284639
100900000.0 0.575157297660044 -0.8044904224348453 -0.4638641391546067 -1.2432136743176356 8.828392301515496e-05 0.0030737560557567113 0.45937525300183785 -0.3206557391525957
101899000.0 0.5670694159194972 -0.8113393297669727 -0.4870938137704064 -1.283703983656513 0.0006554383387859531 0.0005626163412535316 0.4488265324479536 -0.31978158138133284
102898000.0 0.557665162684709 -0.8168824336884941 -0.5267116301582115 -1.3227856135111538 -0.0021018359215431636 -0.002749471028963717 0.4551800943109749 -0.3309907640101941
103897000.0 0.5475868157295645 -0.8259018424874448 -0.5684475808537758 -1.3566639418756181 -0.0028038019090013003 0.003003087731698936 0.45986456007426285 -0.3345432422822268
104896000.0 0.5390677041946283 -0.8350428031061239 -0.6160101426064608 -1.3951893639008175 0.0005661069698785272 0.0007801938610736131 0.44237138068019777 -0.33250393877531065
105895000.0 0.531564920340577 -0.8374954979534612 -0.6652196061603748 -1.442800892084849 -0.0005609779248831264 0.0018703988265324112 0.4388773554139667 -0.3569293087627335
106894000.0 0.522325522155945 -0.8428559712842517 -0.719397886505507 -1.4789095735914382 -0.0034754571486012758 -0.000464195793230722 0.4322940656231989 -0.36280789078514464
107893000.0 0.5114368901707939 -0.8500235971621185 -0.7761413968905471 -1.5164601435042036 -0.0038027727259969508 -0.001741082575099102 0.4384149070651693 -0.38279410311163226
108892000.0 0.5026796740382542 -0.8528675265607165 -0.84072712469418 -1.55934838525695 -0.005262798838527389 0.0011809812549717993 0.427801699456135 -0.3815150410291091
109891000.0 0.48944830433283193 -0.8618473196678837 -0.896061811417904 -1.5909373029187746 0.001457347572234248 5.886481711827254e-06 0.44326304695667335 -0.37458105221258325
110890000.0 0.47583692842571157 -0.8759242869103381 -0.9821472577705836 -1.6023232764188762 -0.0011503372537166074 -0.0014897907932698916 0.42541985397125986 -0.382144847461106
111889000.0 0.47113287443731405 -0.8681617952066506 -1.026291979264871 -1.662229938304744 -0.0022658095543198306 -0.00013020092731609045 0.41518720541250376 -0.3977057069564824
