! Created with skrf 1.9.0 (http://scikit-rf.org).
# Hz S RI R 50.0 
!freq ReS11 ImS11 ReS21 ImS21 ReS12 ImS12 ReS22 ImS22
1000000.0 0.99708870464219 0.01250237184375108 -0.001740675208998396 -0.04932287899692068 -0.010875703664457182 -0.0005956673141424009 0.33405074624919234 0.31365933705113536
1999000.0 0.9954889978027587 -0.008539954352878788 2.245718854369413e-05 -0.025238897859561318 -0.0017823998582231963 -0.005494519531333556 0.23784193940817017 -0.06510283812070183
2998000.0 1.0011798767187592 -0.018237004490054654 0.010430615734970984 -0.013221284314671391 -0.0034204906887587566 0.001795475094818819 0.18823395059633405 -0.13044075510321482
3997000.0 0.9961689952388454 -0.029705292951242083 0.009981201230048803 -0.007968856047223607 -0.002573177591612965 -0.0023857095159555575 0.09150441970780149 -0.2288608139769421
4996000.0 0.993961952758707 -0.04084196235721044 0.017255081728510875 -0.0013897167051274083 -0.0055714159042996175 0.005670257656766337 -0.03640321371657544 -0.19127402228926782
5995000.0 0.9981848100639413 -0.049071506830473045 0.010357673487012775 0.0037263162618506544 -0.00411411938356981 -0.007996401203556207 -0.12461879886685667 -0.11109513836789583
6994000.0 0.995312472997857 -0.06202345540882168 0.004507196674693087 0.007083821500216926 -0.002515688238888399 -0.0018381955419428551 -0.14443086304379138 -0.026204836103963233
7993000.0 0.9973176601943201 -0.06465180384093476 0.0017567739484808016 0.006363043913068586 -0.0023702282742891333 0.0001497265668522329 -0.15668650073524104 0.037987819391290534
8992000.0 0.9955658893752333 -0.0737940084458152 0.0005187851059463631 0.006079430285563955 -0.002388155799659603 0.00241813757165555 -0.15829605339078892 0.045952159245355444
9991000.0 0.9936134828043653 -0.08447463952328592 0.0050831505038406825 0.00487396476981566 0.0004373625445462542 0.0014056085579025996 -0.13775432232964538 0.08008426716690463
10990000.0 0.9926133174636924 -0.09316100975581486 0.004703396644521229 -0.00032795827114960504 -0.00336160117395547 -0.001362378683832511 -0.13342468889900178 0.10510782817756532
11989000.0 0.9903102239169085 -0.10112747440553767 0.0007775243152958447 -0.00025290367409100205 -0.0019871262400216728 -0.0008030845907607303 -0.12251809535062272 0.13406498547217957
12988000.0 0.9916597255129199 -0.11118276954924473 -0.00031599756574027856 -0.005146762187822089 0.0020783003701838718 0.0013152232023856565 -0.1141301444897772 0.152105048906151
13987000.0 0.9881885579603097 -0.11694421583098469 -0.0003964909587192634 -0.003645707952929565 -0.0023844269650246863 -0.00034122702320180424 -0.08643282491394319 0.18138447324408905
14986000.0 0.988419490941806 -0.12390658978174245 0.0017300118649077865 -0.0013839906507553737 0.00026121873338866866 0.00023022516967486338 -0.07507219685758627 0.19749688779265817
15985000.0 0.9896393056570664 -0.1341136476821039 -0.0014073525734095435 -0.005260383149868223 0.0008682790498482817 0.0006956675955077721 -0.06389559301198586 0.21609632068440376
16984000.0 0.9854411840880477 -0.1463586238120136 -0.00014563326669817195 -0.007254414509432986 0.003860458845647818 -0.002241575354758237 -0.0683621837117322 0.21886152071436263
17983000.0 0.9866343498426183 -0.1467431312587871 -0.008889546050986295 -0.0044847779288939155 0.0034947652123154577 -0.005633793468631033 -0.06066112996215332 0.22350869424370218
18982000.0 0.9848114006413751 -0.16238553381620272 -0.007509107608847993 -0.005930824399123715 -0.0019200172871627994 0.00014640412823757682 -0.02093450218838355 0.23369520509915168
19981000.0 0.9831581419557746 -0.16566091713517989 -0.004101822324448484 -0.0032899486836660595 0.0024663291905405115 -0.0014413956322910744 -0.011398397245701155 0.23879827304739787
20980000.0 0.9808784664933327 -0.17723687306451788 -0.0007186075130985967 -0.004919171965597284 -0.0035678640115888575 -0.0031886347061570205 -0.005281095113938334 0.26084863834741184
21979000.0 0.9805678379081662 -0.18386744708377417 -0.003455243828087658 -0.007921993066480313 -0.00024767578924552916 -0.003126073028361718 0.0161103455753469 0.23921529125549834
22978000.0 0.9773413230910866 -0.1950768981493305 -0.006419064137333398 -0.006763121531046166 -0.0009279306143687111 0.000271181947683297 0.01985286439179815 0.2554223022002598
23977000.0 0.9774072569094474 -0.20080993869265915 -0.0051175783401177545 -0.003995144882198593 -0.00206410074153776 0.003442463933810094 0.04230059694846853 0.26030679321870037
24976000.0 0.9746426886741815 -0.21380813220025707 -0.003967791671143382 -0.0033786287351091427 0.0007430145866959836 0.0001835836071167485 0.06381581696410459 0.2565435993866226
25975000.0 0.973796716089428 -0.21729386402622158 -0.005892275018735794 -0.006155108255366603 -0.020256657531601715 0.016843529784086334 0.07943045953123817 0.25987689866668856
26974000.0 0.9713466752204111 -0.2292064492531856 -0.001018518393081191 -5.355301039716035e-05 -0.0017991574575715284 -0.0031815325876477763 0.09376978918020727 0.25947091067082934
27973000.0 0.9701905101763489 -0.23409900913450216 -0.0044833411683599346 -0.0011579360260778578 0.0020013223621683754 0.0036979034710880156 0.10761902803311774 0.25654976017374687
28972000.0 0.9667274976932925 -0.24364330818568614 0.0006044020899733889 0.0015188513719902944 0.0015047753728609644 0.002194052553434203 0.11720662521911651 0.2493852414433251
29971000.0 0.9639865395089996 -0.25389288358964296 0.00045645837252247334 -0.0030954841442810094 0.0013601436266987793 0.0009401385003687977 0.14678203883779908 0.2608084648849014
30970000.0 0.9616004275512451 -0.2584864358090433 0.002731132198225489 -0.004103492679451982 -0.004560599141953426 0.00039947662859005854 0.16723194555649878 0.2478615157005787
31969000.0 0.9614363449889033 -0.267586589169522 0.00465006449820293 -0.0018740051414691294 0.0014105312684634652 0.0020643030580771923 0.15276764039574567 0.24828376519199988
32968000.0 0.9595078378374261 -0.27651216832998066 0.008138251611192283 -0.006233369426764805 -0.0016608399752045084 0.0018845916385155398 0.16633624416779405 0.24189290535514266
33967000.0 0.9569576375265536 -0.2857408037218297 0.0075119242519623465 -0.01217002814289597 -0.0007161306395849636 -0.0007802786193723567 0.1894501322641205 0.24567741168065746
34966000.0 0.952797119470582 -0.2952755902619814 0.01501543633611982 -0.007830251316198774 -0.0010663676546446715 0.002958850902940468 0.19973204304430853 0.24280567972217307
35965000.0 0.9503794018089896 -0.3029598858482541 0.01554246415108044 -0.018184694781391834 0.0014307469421339812 -0.0004936194057158435 0.2198442523069548 0.2388047614173469
36964000.0 0.9493304736079745 -0.3120875324156007 0.014526251806105226 -0.011173789570044026 0.0031166523543357523 -0.0003706146499241667 0.22144794388172162 0.24938518862907208
37963000.0 0.9441109199382606 -0.322278203146492 0.021551740237301744 -0.021391984427440783 0.001989640542253379 -0.0006441447007634859 0.22987930968106202 0.22853377679800066
38962000.0 0.9427948847862985 -0.3319156471602238 0.02323038649777025 -0.025278566462206945 -0.0007204052142778286 -0.0015097721690564162 0.24030603798533615 0.23163906587790883
39961000.0 0.9408707823992033 -0.33692216277429865 0.026827102040098708 -0.028833230884174808 -0.0014198166970277343 0.0008148734867758642 0.24769638567607458 0.22615788691312386
40960000.0 0.935371479563554 -0.34441783610040844 0.024392449958792792 -0.02255026523697204 -0.002840715147172388 -0.00207799113066571 0.2695527333467515 0.23219123791886517
41959000.0 0.9337626979233971 -0.35613416245962537 0.03039775446637485 -0.03169611466728987 -0.0005516357503816851 -0.0012608037095542808 0.2762998027648061 0.2109146004930176
42958000.0 0.92852664316565 -0.36360717754127114 0.030847709674249105 -0.04187777596307185 -0.0021694858346471093 -0.004379137017240445 0.2841860809003207 0.1989923816996932
43957000.0 0.9255929064150441 -0.37173807040327644 0.0320825468304506 -0.04304972945062424 -0.000291155564293779 0.0013905230187975211 0.2899708646194873 0.20276761277834038
44956000.0 0.9222181699394262 -0.3790340529762143 0.030844844240995106 -0.05087937207630173 0.0019835870674640645 -0.0008617980263526449 0.2997896119319059 0.19742537979377747
45955000.0 0.9191140819221056 -0.3881323385618428 0.03318378394311675 -0.05891409535133801 0.0018408440443349091 0.002225012196851221 0.2969973852013718 0.18806914916473663
46954000.0 0.9163491756550003 -0.3970801282517188 0.03568536798240904 -0.06351558106960886 -0.00034259908887305466 0.0006765218172330829 0.3168684996464614 0.17261296683853297
47953000.0 0.913695361747986 -0.4050321757702921 0.036368277300300275 -0.07351020385945385 -0.0018311722180553705 -0.0023799215042354183 0.33392089691207416 0.1635770142025949
48952000.0 0.9062314956209226 -0.41502505098688375 0.03576312312187989 -0.07890545434492637 -0.004939412136630976 0.00035286466615915067 0.3344281371654511 0.16034493107375172
49951000.0 0.9048988692877699 -0.41901723302832733 0.03686252507914264 -0.08650511345168897 0.0019656750652345986 -0.0023700225636932148 0.35533558715143104 0.14676713567330987
50950000.0 0.9007905043832625 -0.4300004152206688 0.0394699728945578 -0.09494479782454052 1.0705536339747696e-05 0.0013829732761165845 0.3613459139353926 0.13425751913094408
51949000.0 0.8951108162687277 -0.4378932721597031 0.03980186578937151 -0.1018102171495811 -0.0019120666753717746 -0.0007747007887292545 0.3588814425092263 0.1494886846670907
52948000.0 0.8944210911660997 -0.44548127596257464 0.040456527437292916 -0.11263322058822418 -0.00042319998775728295 0.0008772878974106709 0.37869364067445493 0.13896230279369587
53947000.0 0.8885557306764524 -0.4522284279156229 0.0416679509011626 -0.12043470313102575 -0.0018343480490753037 -0.0009655697003213323 0.37860408043902505 0.1245795992445001
54946000.0 0.8828068745347117 -0.4640315347767365 0.042948449075701584 -0.1298603766098107 0.0016599849676091707 0.00011581494792119969 0.3944482991127782 0.12117580029459779
55945000.0 0.879714972333071 -0.47228302881749196 0.04407884660487135 -0.14152724702146305 0.001309657968293063 -0.0004911391106351505 0.39591453666563553 0.09741687988123587
56944000.0 0.8762460641866577 -0.47870095907402543 0.04435217908094311 -0.14919063224365647 -0.002324887530945077 0.003158608524406927 0.40856273855214664 0.09609312220976228
57943000.0 0.8716552883505312 -0.48937728255360646 0.042996403968277454 -0.16324106899844995 -0.0014443504706394923 -0.0019403711930874145 0.4034116036395312 0.09657245235051118
58942000.0 0.8648667353528188 -0.4940725317169102 0.046159536123696894 -0.17061130011548215 -0.0016691944198137113 -0.0042466186727869466 0.41871928501180755 0.07861103529054085
59941000.0 0.8632051813560736 -0.5014167182504269 0.047004489624629414 -0.18418344554768787 -0.0005678494463851798 0.00039720450494555663 0.42016686973739215 0.08663047529000033
60940000.0 0.8554609230205177 -0.5082899734963143 0.04884493556266146 -0.1895157495227493 -0.001052549077270593 0.0005810890820974209 0.4098499752146692 0.07272679261142394
61939000.0 0.8516031179219914 -0.517615718067509 0.04600427663622902 -0.19500011738249626 -0.0011925924566001482 0.00044935412582552763 0.42424455107788356 0.06339968426684055
62938000.0 0.8462123000587248 -0.5280991444589952 0.05202404325472718 -0.212469558511426 0.0005492804883041303 -0.0034510934046942826 0.4491888570865316 0.04531551235179287
63937000.0 0.8429975833859732 -0.5334599599889472 0.0531131522604131 -0.23109285937250892 -0.0007131801245221383 0.001728330324726031 0.43550803578321573 0.036644546087177925
64936000.0 0.8349242393308954 -0.5410874416974818 0.052882567912775666 -0.2449149625731361 0.0010740712395365813 -0.0009397524279731082 0.43535349592694705 0.044400197404355135
65935000.0 0.8331907657295784 -0.5499265575719712 0.05204157997849487 -0.2575528527416303 -0.00048418053611991063 0.0021170611734344464 0.4494782421268747 0.013664853074387426
66934000.0 0.8279802939154589 -0.5569281911859646 0.050304087368541625 -0.27205981894140147 0.003180211216565988 -0.002978088673785232 0.43339889968159906 0.0075339192767939645
67933000.0 0.8250877768968969 -0.5645707202293936 0.05318277352521888 -0.2889419458017913 0.00022088622376310283 -0.0030135484396826818 0.4472655202020681 0.005236149044227211
68932000.0 0.8176461076295728 -0.5586150537536642 0.05102047942076776 -0.29732745519491643 0.0028668244927927697 -0.0010037194346646265 0.45302155046724096 -0.0028928022429934057
69931000.0 0.8114547160581225 -0.5781616952479919 0.05109423213376834 -0.3120983918187029 -4.440612399374508e-05 -3.559646337239331e-05 0.45463509717753126 -0.02656273280494246
70930000.0 0.8046293705745197 -0.5866874687828711 0.047287609928494935 -0.3268548274083473 0.0026215750118796332 -0.0016702167365908837 0.454083618505096 -0.0313001540540684
71929000.0 0.8013258591791969 -0.5969245905562292 0.0448790887166962 -0.3472672658644332 0.002704917006100927 -0.0031693685162987903 0.45615065500561697 -0.044698143700903296
72928000.0 0.794453958857792 -0.6038281192865912 0.03454128401039406 -0.3617321581604313 0.0006452546454812976 0.0011828152232474037 0.45951385932297234 -0.04794491844520759
73927000.0 0.7883200403711268 -0.6088573362416396 0.030138667140013644 -0.3812817052136662 0.003386934954783595 0.0015012203409443415 0.457842045186109 -0.06182118041060806
74926000.0 0.7819925657937351 -0.6208335150644902 0.028289486763801695 -0.401431575120863 0.00010670604670594478 0.007090767387762793 0.45798324032668386 -0.06372192658034541
75925000.0 0.7762663534640448 -0.6257716124335096 0.017526756298860288 -0.41840236915694307 0.0019886754955796017 0.00024556035546729874 0.47512894810202455 -0.0777286531947108
76924000.0 0.7707699660993383 -0.6333961895379736 0.002532457165240124 -0.4413458797425736 -0.0025865501929426002 0.004616764344547878 0.46588934478447486 -0.09023862353943964
77923000.0 0.7643098338358352 -0.6387083241721826 -0.008515672470068405 -0.4647743106332282 0.001606224515200244 0.0035961959962674092 0.4730221505303748 -0.09340660589390588
78922000.0 0.7588378070682359 -0.6502241445331531 -0.0246532998849561 -0.4888806510264263 -0.0013750819434833247 0.0009625940175931503 0.4615753396241064 -0.10791606377129799
79921000.0 0.7496566828599313 -0.6513845668792319 -0.04274026873393066 -0.5147276623592337 -0.0007925139751189306 -0.0023231332740583765 0.4571829729566686 -0.11494585178901413
80920000.0 0.7443050468489292 -0.6646009550461188 -0.05996700415969561 -0.5408614732962138 -0.004525928703516376 0.001841753758890309 0.4618331701680374 -0.12913815702007125
81919000.0 0.7387974284613383 -0.6695201673616067 -0.0771091163579878 -0.5714882808767738 0.001041737145957204 -0.0009841872809450134 0.4675648425947935 -0.1388359627413084
82918000.0 0.7299344146428318 -0.6772398097011327 -0.0897969504302925 -0.6008858536414546 0.0018707270614470933 0.0001567575048056187 0.48535193921291986 -0.14072723689200373
83917000.0 0.7217320686469185 -0.6855251919927083 -0.11145183630848558 -0.6298938688132046 -0.0020115750171530457 -0.0015886172974526381 0.47159230469439967 -0.15024420559217747
84916000.0 0.7161258111136476 -0.6933781603791831 -0.12790482453175125 -0.6627591952183703 -0.0011710533110090777 0.004451693455937378 0.47569726612048835 -0.1745010070042386
85915000.0 0.7094845912995192 -0.7000788006600073 -0.1496488768762527 -0.6882546438329902 0.0013960632747167098 0.00429098717446082 0.4658782251099778 -0.17540547300861745
86914000.0 0.7005915280008638 -0.7103365454651864 -0.16175572927763254 -0.7281456566778801 0.0020068902399449687 0.0009848682499754087 0.4526624444382059 -0.17415672391047143
87913000.0 0.6942574207227905 -0.7154121023943739 -0.1824127095157214 -0.7573798736295632 0.001000346898592836 -0.0010953858342025854 0.45788959091859177 -0.19052472630450015
88912000.0 0.6901591336006736 -0.72056855457657 -0.198114541052621 -0.7903165087409659 -0.001999218876490818 -0.00218653901871949 0.4682847700863493 -0.21302116520471626
89911000.0 0.680595711472867 -0.7292018609203776 -0.2133209901330322 -0.829590767449628 -0.0016049047764792202 0.0016090639204935846 0.4751167854914586 -0.21108354515040556
90910000.0 0.6752276958593313 -0.7369045030188771 -0.2270018331042307 -0.8609786950716718 0.0010082542915347463 -0.0001046290626344661 0.462812847399089 -0.21150443843888375
91909000.0 0.664045385782509 -0.7422526952581301 -0.253174003675809 -0.8920592511171899 -0.0007154266935627398 0.00671488886318708 0.48335810608652097 -0.22580573890061242
92908000.0 0.6557857457302401 -0.7496924867317484 -0.2684412105781711 -0.9225164556599118 0.0018942822756924046 -0.001739050583564953 0.4628307860099736 -0.22615437047598702
93907000.0 0.649419790774783 -0.7557650762975471 -0.2910440737051425 -0.9573843456136703 0.0015660898262586068 -0.0022873361464133967 0.4702522731229481 -0.2630009058077562
94906000.0 0.6381416486064229 -0.7645848452355544 -0.30597135885329213 -0.9909350969036619 -0.002320572803714539 -0.0019138159358622878 0.4641359227721441 -0.24971719001392406
95905000.0 0.63196673413914 -0.7701148309820488 -0.3302294558973803 -1.028197592857871 -0.0004249780874951002 -0.004021970459699202 0.45951702554723983 -0.2705165139066695
96904000.0 0.6260641144164675 -0.7778557333914331 -0.33987690660150943 -1.0646672302311126 -0.0005536493382088295 0.0018707095696718732 0.44941111858093863 -0.2862392953122082
97903000.0 0.6150406311019453 -0.7838481342439495 -0.36915330684810493 -1.0937565985826594 -0.0012125669191269688 -0.001781024126349481 0.43897231799604347 -0.2919501476402786
98902000.0 0.610500082241894 -0.7886043867032699 -0.3845504278755156 -1.1319497513413561 0.003840785516266917 -0.007208618023105003 0.44250996590263747 -0.2868452631242961
99901000.0 0.5986557409504544 -0.7938998316897808 -0.4155620148950165 -1.1615026325141904 -0.00196403841905762 0.0019564294734709057 0.45758591196172455 -0.31349930329612685
100900000.0 0.5916007574620183 -0.7989042435663777 -0.4443514110303477 -1.1918772026531672 0.0007301953587154513 0.00433507031400996 0.46013149698086747 -0.32252633472500497
101899000.0 0.581828545567678 -0.8073687507128329 -0.4677676562959136 -1.2269229291086006 -0.000564150359425483 -0.0018743380139548199 0.4460596400448534 -0.31844771687053397
102898000.0 0.5721450458850944 -0.8124439078251146 -0.5020875093965561 -1.264694737044463 -0.0022179356214064912 -0.0005754508578464383 0.4487224925432355 -0.3378386526594995
103897000.0 0.5632137429867358 -0.8191778437969811 -0.5412781962217122 -1.2958896138155325 0.0006378666044594397 0.0027743880658803637 0.4582970254841722 -0.33286825550713006
104896000.0 0.5565974531988899 -0.8321417346999906 -0.5846171161067353 -1.331607859751152 0.0012211888256926466 0.0006013180720121547 0.42967541913808327 -0.33918705073972455
105895000.0 0.5444003206308657 -0.8330093064504206 -0.6322461313365297 -1.369353674736367 -0.0011613732860111868 0.0003917217297579726 0.43112455093048385 -0.3561280152669664
106894000.0 0.5350200653997537 -0.8392975031558495 -0.6797763328010097 -1.4001487869864442 -0.003111990787927227 -0.002788451836119117 0.42203424371780773 -0.3545855372170982
107893000.0 0.5277513233554899 -0.8467512229985434 -0.7321457087352814 -1.4430463279065273 -0.0013269943824184823 -0.0015785891325895383 0.43580646280977225 -0.37695111044568436
108892000.0 0.5178967332621919 -0.8499052589679336 -0.7900871266848157 -1.4796914923712752 -0.0014349154790514159 0.0010386005846708569 0.42275912641482843 -0.376196605382041
109891000.0 0.5057418167346014 -0.8576846042549586 -0.8447241990751602 -1.513955457335793 0.001221543379516809 0.0010608940628468295 0.44363746999506193 -0.37966959695685476
110890000.0 0.493553483122152 -0.857043013178447 -0.9010928449482297 -1.5157473335563236 -0.0003630895824764562 -0.003153268505471279 0.4220076473682649 -0.3851880057876961
111889000.0 0.48593567281033667 -0.8637778910202353 -0.9695111639414605 -1.5787249015242886 -0.0008374462718097411 0.00016300574484650934 0.4137232867015299 -0.4048887937667375
