! Created with skrf 1.9.0 (http://scikit-rf.org).
# Hz S RI R 50.0 
!freq ReS11 ImS11 ReS21 ImS21 ReS12 ImS12 ReS22 ImS22
1000000.0 0.9858089694549823 0.00499950908746886 -3.2731445757269904e-05 -0.054404673116751505 -0.008398566362462771 0.006604810064771646 0.32938748284233776 0.32985236453417854
1999000.0 0.9958342286190643 -0.015491992461688947 0.010629515538972846 -0.018523224397138174 -0.006372532720397061 -0.009536967585803616 0.26626111225803817 -0.04815194102632194
2998000.0 0.9977920237987704 -0.02151247769444911 0.013738497560483875 -0.005424502027373447 -0.003625875425744226 0.00019932432910492597 0.1855215422569924 -0.1400863538271554
3997000.0 0.9971967941026492 -0.029358717505349925 0.009242979135617653 -0.003969439813504769 -0.005070406525937789 -0.0017236279550493156 0.09234638623145365 -0.2361819007886743
4996000.0 0.9950982439763839 -0.036180996508761595 0.009598977729471525 -0.0030792624287822043 -0.00015637361355615092 -0.006741034568941135 -0.03228836313920683 -0.205515639186415
5995000.0 0.9978329716081416 -0.05148301447968659 0.0107610254000359 0.005949240074352537 -0.004885580115765461 0.004697122210134323 -0.11325887932985457 -0.11818214151446674
6994000.0 0.9940250328433952 -0.059208628540501844 0.01039604373138206 0.002159483069531172 0.004949521587016731 -0.0002539187783512121 -0.14186383709155748 -0.029538058979899823
7993000.0 0.9972917772202052 -0.06942046588704634 0.0022665766573837925 -0.00014773731418606936 0.004399849772135795 0.0013753656050798256 -0.17009921337924844 0.03750998704506456
8992000.0 0.9964962996333768 -0.07307543879955403 0.0033976779384660948 0.008618330302359083 0.001144062516321749 -0.0014195388928971086 -0.16071352411395126 0.05001589858749324
9991000.0 0.9927282906608591 -0.08342764046363188 0.005540017139362333 0.001463256630831238 -0.0002706320381579893 -0.001474051615531645 -0.13863780644225235 0.09751477521832563
10990000.0 0.9897145998256985 -0.09556818221488492 0.006687541088275904 -0.0017600168151530658 -0.0021134206828832608 0.003282341912059323 -0.13733814386256005 0.11106065669888128
11989000.0 0.9922623572011888 -0.09977587750323509 0.003739408037717144 -0.0010270971480129895 0.002968306617198338 0.0014174404896137825 -0.1222521091449642 0.13165571623977348
12988000.0 0.9883848898223817 -0.10981760226757056 -0.0011677844844294554 -0.005666368293036187 -0.0015709814901063673 -0.003131812677467025 -0.11867148287416898 0.17267944186105602
13987000.0 0.9870281478998748 -0.12023966707515012 0.0016165291109489623 -0.00555381974982575 -0.0032371465945544063 -0.00014792093488634925 -0.10878460251281347 0.19260140347653018
14986000.0 0.987341393268986 -0.12587529885826568 0.0009773742300400567 -0.0005767276023423938 -0.0029447802633386284 -0.0007778213723164693 -0.09246194269483964 0.19799610937689205
15985000.0 0.9889260996087639 -0.1340348664885275 -0.002574606916655407 -0.004712808706165586 -0.004499281081577193 0.0016383272554229104 -0.07288337321656943 0.2222763751696843
16984000.0 0.9862621185590635 -0.14323307417069467 0.0021201155595395307 -0.0005495982369352935 0.0006560444563301743 0.0007771391836752577 -0.0664696913585763 0.21821797047570485
17983000.0 0.9843902723140993 -0.14899064465386322 -0.002513132623109378 -0.002245847687881655 0.0018314470965167856 2.2879250758622182e-05 -0.05759317621421827 0.23276984778490534
18982000.0 0.9810312518215931 -0.16161911042434876 0.0006129981684475905 -0.008724590506480856 -0.00033283253237333186 0.0028178434676677756 -0.029908230090082498 0.2311766255044802
19981000.0 0.9813949043427354 -0.16552879322677738 -0.0038380549809136754 -0.008849486055025101 0.0003231697983169918 -0.00030615978211671565 -0.015158394616838669 0.23604372064278728
20980000.0 0.9809560878152533 -0.17618460326087784 -0.003927534091601157 -0.006124974397620832 0.0017597023999445958 -0.002316299518764624 -0.002174112464045229 0.25424373973450615
21979000.0 0.9786077069621023 -0.1854319665520916 -0.003774761530076445 -0.004877338494799693 -0.0030200651408705515 -7.793735829472163e-05 0.007315355692755384 0.2462592661860635
22978000.0 0.9756795964325996 -0.19483582537387595 -0.006081219383085594 -0.0033087770626749795 -0.0034297851803665653 0.004632085440224293 0.025608622115248184 0.26292181894205435
23977000.0 0.976133073201534 -0.2002084532359424 -0.0036942157853368657 -0.0054304904230251545 0.0008228588599959735 -0.0032595150047610034 0.02064674912129011 0.260656055129902
24976000.0 0.9736660971329307 -0.2128042264968587 -0.003607467365428907 -0.0021882724630094444 0.0004564654787314282 -0.002197398923215238 0.06016518750965342 0.24566336337219324
25975000.0 0.9746644219436479 -0.2235884871303857 -0.003512848988971598 0.00024002728153529014 0.017661049170066227 0.016631324021631685 0.0783449610361956 0.26271972329118537
26974000.0 0.9689776169910083 -0.23072922652413794 -0.005017691131823606 -0.004062720898045882 0.0014261332063991495 0.00015503977328956768 0.07943626196070158 0.2557050671795942
27973000.0 0.969183008070196 -0.23453400273096103 -0.0056302650903972415 -0.005681775011029048 -0.0023860696509529792 0.00013450502333046065 0.10343354295096324 0.2537951967918448
28972000.0 0.9660323161063288 -0.24399281521028854 -0.0012896166260882155 -0.003564953703067804 -0.0014895566424698848 0.0011290077179868364 0.11255188282420493 0.25512847428252
29971000.0 0.9634360128705717 -0.2543095651308768 0.0026202899094942547 -0.0015636674899743195 -0.001912907192995505 -0.0016735925989278448 0.1560026681712277 0.2665417417825167
30970000.0 0.9609582657120401 -0.2602190782277662 0.0032141868164924973 0.0010571988032162275 -0.001424386287056675 0.001213164249986332 0.16474263198210454 0.25283558869670403
31969000.0 0.9596976107545412 -0.26927754103160007 0.00534021479185612 -0.004162227195653919 -0.0006554247299160181 7.389976070296016e-05 0.14715406330831876 0.24759171566886343
32968000.0 0.9587840928476181 -0.27781069985220164 0.011546424351367431 -0.004171680289169962 -0.0011088402476181975 0.005021938139677849 0.15817373563644707 0.24812850203838205
33967000.0 0.9564082354857064 -0.2854335876961882 0.009356773198076112 -0.01001263358865511 0.003678262682703424 -0.00469832275607279 0.18041432364353135 0.25097941414436187
34966000.0 0.9511995646181926 -0.2971001522318039 0.01494605625396239 -0.0112574257120974 0.0022773817811712854 -0.00013788321589338728 0.1961763501557115 0.25407770181891937
35965000.0 0.9490666026800869 -0.30308361440249126 0.01696864917037018 -0.016304198018084033 0.00039462731755056287 -0.000362054210338517 0.20873758760868508 0.24748194733617748
36964000.0 0.9467015555762243 -0.31386397196007876 0.01677286498206299 -0.013359934125342282 -0.0004245652607907016 -0.0008770940451711685 0.20941708713909382 0.2459291492995029
37963000.0 0.9438653359729926 -0.32313608851780984 0.020699270160814895 -0.02140263814835915 0.0016211310386114763 0.0022730052932297532 0.2248321743770299 0.23987199688562405
38962000.0 0.9409045550145652 -0.3336809063534249 0.027559820601659804 -0.022928492769136135 0.0034470469325866113 0.00017204875406371235 0.2378427140920411 0.23629417217809578
39961000.0 0.9378567253888697 -0.3410282145920867 0.022827344450311385 -0.02889744923962733 0.0006501891036094101 0.0026718478982585424 0.2442694867919263 0.23417719197097087
40960000.0 0.9341070641218945 -0.3470399557364754 0.02242273336687253 -0.024172073113784453 -0.00030673455890879633 -0.002289213249258362 0.2644320560864256 0.22415217747527116
41959000.0 0.9300477402150459 -0.35828208948939455 0.029986250396430866 -0.03314786719432413 -0.00038674413617161403 0.0018732212847087427 0.2598170084191385 0.21403814233245744
42958000.0 0.9272203086279872 -0.36636449180129377 0.030616988718021817 -0.04121490448673301 -9.765173742442232e-05 -0.0027812524784308944 0.28000626713176885 0.19740398446822827
43957000.0 0.9261737745946758 -0.36949613440068724 0.033902296260722116 -0.04382994163103832 0.0009172354887707717 -0.0004514337753950666 0.28446018077962765 0.20611252621522436
44956000.0 0.9207854918781091 -0.3789194500138369 0.033718287966803165 -0.05098971545290028 -0.001336899155639575 0.0019093668761791674 0.30363146852379463 0.20208640274418244
45955000.0 0.9182859947961969 -0.39081278325453883 0.035749258660771256 -0.05645390541189574 -0.00013632049868934258 0.0026322734586967924 0.2986632841565273 0.19070176452995238
46954000.0 0.9122303433671927 -0.3984724442884022 0.037399012342227214 -0.06464060257234563 -0.0037261348496499596 0.0007174254643857261 0.32279376692250994 0.17701657957936123
47953000.0 0.9116158764233301 -0.4058779035903824 0.034805117994588866 -0.07146580886537802 -0.0021820678402200955 -0.0016771390797358477 0.32717574779568864 0.18027002120245053
48952000.0 0.904026264704038 -0.41848397167665174 0.03619016221460491 -0.08043159699036556 0.004356475143061116 0.003936959577629751 0.3275633148569747 0.17196463664634792
49951000.0 0.9016438657997173 -0.42219918981890664 0.03698169521992577 -0.0884536553152583 0.0012845878044383534 0.0007146375757076107 0.349150791693326 0.15797021267607272
50950000.0 0.8984036642978716 -0.4329727564179498 0.039662604141370086 -0.0959885091250769 -0.0019585235600773484 0.0004721616451459701 0.35217335878926237 0.14800452458992422
51949000.0 0.894530112311872 -0.4401970983233643 0.04070334404939534 -0.104752027620264 -0.0014170731081036222 -0.0015067553210755687 0.3564268089948302 0.14873885275126622
52948000.0 0.8921586217990175 -0.44648794876757625 0.03966628133712775 -0.11429008669160169 -0.0007139671308509051 -0.00163284716627752 0.3674275451783587 0.14364835872436973
53947000.0 0.8857562650768569 -0.45500503661069164 0.03990161529054674 -0.12198093787758482 -0.00017284739283454577 -0.004399594449549447 0.36404116576112666 0.13082548084864784
54946000.0 0.8811470277217689 -0.4635712043926934 0.043345168667687915 -0.1318822087824195 -0.002374211327521081 -0.0010212497326484767 0.386550666227204 0.12597631352085475
55945000.0 0.8779753531353943 -0.47151878076252657 0.04623774325163603 -0.14080547562948603 -0.000716854840739823 0.0036834029718058113 0.3877115448647187 0.10246714336558439
56944000.0 0.8738043752220416 -0.48080778318972506 0.04613135998905123 -0.1531071630674756 0.00018376805078567428 0.0024574601470165156 0.3899787491103539 0.09925064839956287
57943000.0 0.8684367799846279 -0.4930321038248231 0.04673906385559195 -0.16284115251162065 0.000976068241362469 -0.001091234249257499 0.3906634911619062 0.08646453286424005
58942000.0 0.861634658083923 -0.4963210531516885 0.048253836095029236 -0.17379506622112162 -0.0038999053124059704 -0.0005839118796091481 0.4191939128264961 0.0947035141461075
59941000.0 0.8613479415567123 -0.5043406198850283 0.05295734379788352 -0.1821025843893567 0.0025571470385430477 -0.0026057446014086877 0.4201518456379305 0.0899983525387026
60940000.0 0.8530338382167423 -0.5110910495383505 0.04874027322542783 -0.18402418730501335 0.0002558867548921482 -0.0006573654543165209 0.40604030101362726 0.08367197765687746
61939000.0 0.8497846330294615 -0.518933060511646 0.0500165735363288 -0.1943077944671675 -0.0004050296806656673 -0.00010239253703521359 0.4078296933552561 0.07165597301696346
62938000.0 0.8432335077835089 -0.5317578968018426 0.053437902854693256 -0.21154203461234924 0.0006482395972753086 0.0006726191932686323 0.4381056376961843 0.06269336293787171
63937000.0 0.8389489307244455 -0.5363990765254069 0.05569021395176576 -0.23161768201865884 -0.0005652003943813238 0.0015144033821037235 0.431493076124345 0.03587210295968519
64936000.0 0.8327681081575354 -0.544028925794134 0.05377420578222259 -0.2461049930349467 -0.0031118892744102125 -0.0011371734011990794 0.4341373161621627 0.05512438375958871
65935000.0 0.8283237458512303 -0.555011404908932 0.0555469644293878 -0.25962554814750094 0.002613795320341948 0.002878184508949788 0.43147655128437395 0.020072714042578016
66934000.0 0.8246821588192257 -0.5586299635270751 0.05534680479527087 -0.2746351275817501 -0.00010419613080619554 -0.001413804207703817 0.4302583210469803 0.016545203046758526
67933000.0 0.8225167129933036 -0.5670303241588509 0.055224356484655755 -0.28524682617637603 -0.0001885892087611825 -0.0013101607884713352 0.4378808394611248 0.005785509750282454
68932000.0 0.8101483884402472 -0.5603456619914803 0.052821941792914974 -0.2973885536116444 -0.0016013329063217078 0.004430145603491072 0.4420731607599398 -0.013665077573011884
69931000.0 0.80577124378611 -0.5857546816691994 0.049723662228578075 -0.317545657892512 0.0018095673521724212 0.001172191669886667 0.4481496343215683 -0.009587072675462743
70930000.0 0.8022417297207434 -0.588935735695899 0.05144520073654626 -0.3300748747438625 0.0013334608125705966 0.0014982806631397751 0.44084931407504246 -0.03240297003986728
71929000.0 0.7966502385032396 -0.6015929287422946 0.04319593055289147 -0.3484347585750161 0.0017559167100133972 -0.0015260903071560763 0.4516996886615993 -0.04073959145922112
72928000.0 0.7915723499452725 -0.608996908790282 0.04133830132821269 -0.3673794129949961 -0.002308710336617416 0.0021374869917957155 0.45601351091013725 -0.041551781631720096
73927000.0 0.7843728014967716 -0.6148331612080681 0.034482686234356345 -0.3871277389047494 -0.0012852520251359014 0.0019531313816238947 0.4523680947823479 -0.05768657787760284
74926000.0 0.7798190663330616 -0.6241738320559682 0.028583480102412257 -0.40193993719003834 0.0005206267530223227 -0.004234887738306936 0.4604180440571186 -0.06930232412630305
75925000.0 0.7745051582972408 -0.628130522171918 0.01413812395147405 -0.42627280141169316 -6.469674871903983e-05 0.003174125472426253 0.47152676170626234 -0.06581376093162955
76924000.0 0.7653034332941856 -0.6372802567129567 -0.0005584077797917166 -0.44579040069795295 0.0013037217916502277 0.00038410013071114743 0.4506972360293524 -0.0831809732601281
77923000.0 0.7617992547353776 -0.6436059444486382 -0.007820510605084525 -0.47074230685151486 -0.0007359469827891756 -0.00179269880568586 0.4455396160889736 -0.09165507192343499
78922000.0 0.7538524228025151 -0.6547094279715069 -0.022276312219306437 -0.49887345783882714 0.0022895660966932496 0.00029063191027986984 0.4648165236557108 -0.11046361503056136
79921000.0 0.7441222585997456 -0.6571306296927677 -0.045447176119898486 -0.5193502029408739 -0.0009134568583402144 -0.0006258447284752227 0.4621734095849182 -0.10743042566075693
80920000.0 0.7416347686931686 -0.6685644459275638 -0.05642459570904721 -0.5511121535768111 0.003213232024484694 -0.0025962546041029943 0.4638382173534369 -0.12205739018341247
81919000.0 0.7364461103640068 -0.673172398339924 -0.08055965840071028 -0.5773774580708542 -0.002199417140571694 0.0004015752437942762 0.46118198496372764 -0.128242802191453
82918000.0 0.7247338050118489 -0.6828751624404327 -0.08620601427554213 -0.6077894337027628 0.0005608467706504763 0.00047393838115617105 0.4719841406266793 -0.13952317578773418
83917000.0 0.7177580135655272 -0.6890055881307994 -0.10661066788016271 -0.6423603764610217 -0.001070831167449066 0.0037812837673558263 0.4707345226526355 -0.15029509273091862
84916000.0 0.7139761426464453 -0.6968352638190053 -0.12544615721277083 -0.6741055458795372 0.0013850227944126278 0.002479900352989498 0.4632791126501626 -0.16356461960667995
85915000.0 0.7077254386573025 -0.7044087841582677 -0.14532774047395064 -0.7046604680253717 0.0010970030578979287 0.00024409438476047225 0.4707704392295935 -0.17847201091648984
86914000.0 0.6989606951912665 -0.7115404545819877 -0.15844469185561713 -0.7434240645417517 0.00048338307276396514 -0.0035042455358371034 0.46363470548602154 -0.16040127415606786
87913000.0 0.6933669833559819 -0.7191045843782568 -0.1817070205053235 -0.7663122340300186 -0.004767088309691704 9.234619312506816e-05 0.450097399091725 -0.1812093707838101
88912000.0 0.6867987200480834 -0.7251515966750086 -0.19216498929343118 -0.801617831903617 0.006384307958191137 -0.0024415490638275764 0.46743327832924114 -0.19764368823561804
89911000.0 0.6761789491551197 -0.7346642639529148 -0.20873034325680961 -0.8376377255287004 -0.0027391488983898628 -0.003991736217894364 0.466734348974703 -0.20627378437445745
90910000.0 0.6719352038137489 -0.738838289289866 -0.22232568831311825 -0.8740645056287883 0.00019425926001711687 0.0014504573934637315 0.4588012623640398 -0.2082857105016173
91909000.0 0.6610036851105545 -0.7435835902971951 -0.24387572127062582 -0.9038265124346221 0.0020607678772205287 -0.001789033395416641 0.4659420077952097 -0.21853977659860616
92908000.0 0.6541343501750654 -0.7519434011613141 -0.2612975451520044 -0.9402090016382189 -0.0005408239150376582 -0.0012996052080783379 0.4613959991572675 -0.23766170672126966
93907000.0 0.647121468474816 -0.7573795109217027 -0.2784962097972048 -0.9662816755758081 -0.0016437980821995787 0.00048408610541616245 0.45624530540362773 -0.2632367523032268
94906000.0 0.6334074820065141 -0.7677423425630291 -0.30115461305462815 -1.0036416240630504 0.00013833110338521285 -0.0011876731756181034 0.4477450597760611 -0.25153766777986053
95905000.0 0.6297123736722079 -0.7719549047866161 -0.3188313239943329 -1.0380892566537911 -0.0005289783789590327 -0.002645848053776874 0.45736089942021224 -0.26005290710071766
96904000.0 0.6203634451928369 -0.7806856890179774 -0.33544734917809205 -1.0769346217693028 0.0018535680262468507 -8.179519299050288e-05 0.4552531170628406 -0.27835313754755403
97903000.0 0.6114367048358436 -0.7865942489927609 -0.3635683101695981 -1.1060405542336242 0.002455003030153793 0.0002745806639353964 0.4427506908356821 -0.284055159061627
98902000.0 0.6076580871063852 -0.7939814344367307 -0.38453262454822346 -1.1462417345477591 5.917703448655186e-05 0.0015484190990421092 0.45837828578293344 -0.2903662795964769
99901000.0 0.595272305375225 -0.7993865589176897 -0.409642046716571 -1.1764501127365572 -0.00035425101300653127 -0.0017073572777857146 0.4491069054415858 -0.3114317643171333
100900000.0 0.5888292191875201 -0.8010998148570598 -0.4393795262536103 -1.2059938469122273 0.0018679316297136664 0.0012427474992593012 0.4532844910317318 -0.3136749641509566
101899000.0 0.5756347381956881 -0.8117432905385678 -0.46944132716187276 -1.2426807211639277 -0.0012837942668351828 -0.002530490527791226 0.4553891606615454 -0.3191153322311123
102898000.0 0.5673601323500505 -0.8160436791426874 -0.5073214169709053 -1.277583640583517 -0.001619026159613385 0.0010292436452985926 0.44913792342118936 -0.3290794631603465
103897000.0 0.5599884407254949 -0.8235949141269808 -0.5406629949834345 -1.3165336317844458 -0.002082350016495118 0.0024600459383724484 0.45460506977316517 -0.32516693774511524
104896000.0 0.5506625814884254 -0.83339634310303 -0.5866088394061659 -1.343061975455545 0.00012446548052061894 -0.0010473922901201613 0.43898552920681844 -0.33360746711668426
105895000.0 0.5389175820888392 -0.8356740418832687 -0.6375662736358775 -1.382867037676096 0.002281975258509102 0.0010054120102606283 0.44011330857273934 -0.3509001944173823
106894000.0 0.5323507621199215 -0.8412541699030911 -0.6873044526115896 -1.423941163846415 0.0002685990822470977 -0.002419193830505604 0.42550584365140837 -0.363781296384934
107893000.0 0.5236425169942318 -0.8474091613057684 -0.7415384930864715 -1.4677763154159578 -0.00036574745799971284 -0.0026092454769167943 0.4262697582696645 -0.3755454482891808
108892000.0 0.514258330677174 -0.851935323558148 -0.7998261256567855 -1.4998111315938605 -0.0002343002062891571 0.0011070892904950615 0.4219164065100386 -0.36420238519764786
109891000.0 0.5020031179469852 -0.8600562794355409 -0.8552962994329879 -1.536925801064006 -0.0016700770842663904 -0.0007107890813485194 0.43618698499557884 -0.3710874906884718
110890000.0 0.4988788654141851 -0.8680760468006565 -0.9210523960086643 -1.5606432528309275 -0.0011031657618029269 -0.0016695048704887827 0.425660486475961 -0.38043480535703916
111889000.0 0.481063632363504 -0.865630398949362 -0.9849817717053853 -1.605407706287758 -0.002219122204198145 -0.0018102789716877247 0.424724585876227 -0.3886966212153991
