! Created with skrf 1.9.0 (http://scikit-rf.org).
# Hz S RI R 50.0 
!freq ReS11 ImS11 ReS21 ImS21 ReS12 ImS12 ReS22 ImS22
1000000.0 0.9784296711832366 -0.0038895999870340657 -0.016681978300887218 -0.041715422219231205 -0.023531823595617736 -0.0011727096005526335 0.3373878800421987 0.3292201018796254
1999000.0 0.9894412736642205 -0.012814866153623039 0.009101201821850287 -0.023645256773779152 -0.008335497162820386 -0.0028564353100697538 0.2611624577947621 -0.05692767832161359
2998000.0 0.9977311872929272 -0.02305843384286643 0.01603807791351377 -0.017926383242027985 -0.004442002038990663 -0.0008509067985313053 0.19623429662487432 -0.13541093693325085
3997000.0 1.0000124750741581 -0.03248101343348535 0.015349661937851799 -0.005177142736158989 0.002828751223532833 -0.0025878407408999305 0.08954573408320587 -0.2282632844680453
4996000.0 0.9970224118479152 -0.03507307608659604 0.011405081634773042 0.0026027775207002717 -0.0021915540913208125 -0.0025828663543077494 -0.04311480352327717 -0.19298476400752265
5995000.0 0.9976385076213027 -0.04588285702198562 0.007679040282626731 0.00397647557421091 -0.0009522075346038456 -0.003272744742268127 -0.1286844080552531 -0.11965639802563467
6994000.0 0.9945596689065953 -0.056188039910317775 0.007613788763786354 0.0038078890442002984 0.001437853448288438 0.001515720197346808 -0.15076010244094093 -0.03136902683471379
7993000.0 0.9964058948049921 -0.06791819204272945 0.005119109765319374 0.006643146564438558 0.002690809862972085 0.0009134669646468611 -0.157516668413807 0.03513577014987404
8992000.0 0.9949486408583691 -0.07350303119854489 0.0002998519911023178 0.0037208400396014038 -0.0026712702583218356 -0.0031913699289184876 -0.15285360446816013 0.06621998687844373
9991000.0 0.9940759351766304 -0.08370387299353362 0.0015556173182139515 0.0004633875967414679 0.0009516776419083813 -0.0020190572932008897 -0.15360803837151896 0.09317803756177719
10990000.0 0.9954094478437084 -0.09561692259994248 0.0062379699885340735 -0.0018156136523633589 0.0021925829275170187 -0.002279984040045215 -0.14020912196448043 0.10985636995163026
11989000.0 0.9908917579054259 -0.10068750824752211 0.0021684375583807185 -0.001789821579125659 -0.0007120637295952636 -0.00016890772433457018 -0.11479618600842971 0.14379601605022999
12988000.0 0.9901695855480769 -0.10801707343540537 0.0027059942489470142 5.196340074898103e-06 0.0005002284969260592 -0.001338654343646296 -0.10828751067418019 0.16893076740780325
13987000.0 0.9880797007998806 -0.11653748481591042 0.0001207014665295041 -0.006321898444796351 -0.0017155518866730265 0.0033840653865776027 -0.09365522492582339 0.1842651335899807
14986000.0 0.990429736094832 -0.1261830957502687 -0.0022010073424522263 -0.006591927391208992 0.0006730147486740073 0.00420274134770298 -0.08039885405574902 0.2077656696139484
15985000.0 0.9908237728491316 -0.13311241520614192 0.00032821174006159205 -0.004492679472431762 0.0017659931512782714 -0.0013503386983043332 -0.0656031592260862 0.21908601164409555
16984000.0 0.9868592312697518 -0.14579903540035652 -0.0004795565445579225 -0.005376845540500179 -0.0019915981447976234 0.003019895637044212 -0.053996393193939854 0.21345173713653737
17983000.0 0.9859387577416415 -0.14984115799028228 -0.00015954281624519054 -0.0007356838675372415 -0.0011412606350706745 0.00037687163352935 -0.05958883203143022 0.22781411508117752
18982000.0 0.9846579990600601 -0.15933361639352397 -0.007264841713325792 -0.006027753571640234 5.440677642163362e-05 -0.0017157207889250676 -0.02957554243157317 0.24394484003536174
19981000.0 0.9840404297551667 -0.16555287437029548 -0.001645247615188773 -0.0014343539429358622 0.003955050380193325 -8.009499111451557e-05 -0.017037831310078223 0.23928516627793567
20980000.0 0.9822074556398178 -0.17800722937722305 -0.0019923378273438964 0.002018026974109762 0.001163328161159352 -0.0010557511346683938 -0.0063300335568314235 0.25666581223739127
21979000.0 0.9816471638317182 -0.1830740867931443 -0.006031033154024812 -0.0039911579727008465 0.0051429384209073815 -0.00101237323910438 0.01835340136576069 0.2408283221668857
22978000.0 0.9786955090805488 -0.1931330017256638 -0.005835470469403012 -0.004313266300047493 0.003041112887700183 -0.0005010561963381521 0.028578213609960157 0.26105009612960023
23977000.0 0.9787665060361702 -0.19904679042563705 -0.005424986174515225 -0.002097358895568105 -0.0014096290999950198 0.0008903112938339208 0.04224834969817498 0.24179211842504447
24976000.0 0.9750741191769762 -0.2123676209294722 -0.0028938233870722005 -0.0032304247105038645 0.0017912249482018576 -0.0016356971711900868 0.06164614140169313 0.25332410587927173
25975000.0 0.9776560172216875 -0.22300081590708934 -0.0022331506149412136 0.003017545043240892 0.015293711143521124 0.023619957560049462 0.07280342463197781 0.26730828179864896
26974000.0 0.9716739885705791 -0.22773753537865044 -0.007560339462145686 -0.0011775954173325756 0.0038951089304844746 -7.373312892515073e-05 0.09510657813833351 0.265929331881267
27973000.0 0.9702956319085234 -0.23255106261687802 -0.0009541161086296513 -0.0013760881348363599 -0.0037744530901266727 0.0006608967616634326 0.10382511743641665 0.25611289362176654
28972000.0 0.9670053117049444 -0.24683141991128954 -0.0018480024004513401 -0.005114715680008625 -0.0001522879551577586 -0.001367539016510267 0.11681213235905992 0.2433480589561574
29971000.0 0.9660435244921666 -0.2521827778095739 0.0007525521788010632 0.0017277138315134172 0.00031654750794539313 -0.0006606137775505151 0.1480015421037496 0.2645158236191401
30970000.0 0.9615606802300786 -0.2587995941563057 0.006086053511742457 -0.0018623904738822368 -0.002185140067480586 -0.002370159255828802 0.16677202434333152 0.24507982655948501
31969000.0 0.959847088064336 -0.2684061984835948 0.008941756737362054 -0.007212807435218294 0.000583815950878823 -0.00013776272591835493 0.14530126151593725 0.2544795756654691
32968000.0 0.9615991095391732 -0.27549600265969254 0.010302300442220554 -0.007321547602674055 -0.001516856894783929 0.0025277533680615394 0.159822749737352 0.2402447468965591
33967000.0 0.9581598605329853 -0.2855929360688215 0.012210126744718199 -0.011602016015241376 0.0023543296418352226 -0.0034369081584581266 0.19630033392196988 0.23600997927868034
34966000.0 0.9535840756910715 -0.2967387870727463 0.011854950994335476 -0.010765825746402563 0.002634079235723155 -0.001132101845079372 0.19720895099976332 0.2561243047088131
35965000.0 0.9509323030794777 -0.3018063954126229 0.018497465417488448 -0.015848304752837727 -0.0007433770620127385 0.0010832480291112045 0.19994594972159216 0.24638843033294103
36964000.0 0.9489585946519409 -0.31174807985329006 0.016265789170040592 -0.013622786158337445 -0.00017819811038839367 -0.0006337692562833937 0.21781432808413753 0.24185662460692633
37963000.0 0.9459258862367478 -0.31952803836318255 0.024743113891159386 -0.022068214566863253 -0.0007803317010071419 -0.000565922728305111 0.22918289051859014 0.23516318464109962
38962000.0 0.9436565501344428 -0.3287292765245621 0.026966751893379708 -0.02407910902215657 2.0757107855617102e-05 0.0007659488247092428 0.23420287946276347 0.22344321466840358
39961000.0 0.9399073502573148 -0.33804162492550155 0.02914910701501507 -0.025998436248497705 -0.0014409477659004675 0.0008696954379295381 0.24388190357076456 0.21893592102645076
40960000.0 0.9366732553049143 -0.34387306007376445 0.02351587377255985 -0.023831065069002517 -0.001034684516750171 0.003860283764020265 0.2710220777600414 0.22334692285238694
41959000.0 0.9323419361279399 -0.3557747394211745 0.03360840842163587 -0.033307519966886086 -0.00037589712650765714 0.002946667752921474 0.27492129517087405 0.21629601980519464
42958000.0 0.9288135058217338 -0.36299726622268086 0.0301417124357446 -0.04250894700108295 -0.000469620367859758 0.0017810125439163156 0.28162293431953567 0.1996267519428558
43957000.0 0.9290595532239265 -0.3676863575676394 0.036476481301938625 -0.046581892786353385 -0.0014391746756320378 -0.0023209283350029185 0.28309607586100327 0.2089658738672444
44956000.0 0.9238738255781684 -0.37554805980268385 0.03803044735130838 -0.05199978799061937 3.602397857774801e-05 -1.479650802351529e-05 0.3068554661758142 0.19530052125640557
45955000.0 0.919064562517833 -0.3885285819574982 0.037171361317155434 -0.05805632448096831 7.691769087686808e-05 -0.000673845290555021 0.3059535066087169 0.18905211525616375
46954000.0 0.9165681916241959 -0.3943521793876018 0.03510898394447051 -0.06933462195027036 -0.0011970856723948862 0.0025064733764089504 0.3218066467292049 0.17644053543872706
47953000.0 0.9144493170974141 -0.4024952452763548 0.03745134497273924 -0.07459058144017165 -0.004627358267836765 -0.000557514816706007 0.3389309372478617 0.15550227700354113
48952000.0 0.9087431764963816 -0.4124480278632284 0.03990556532658768 -0.08150552753632997 -0.0014819179720120148 0.0033873955733022677 0.3279726497692726 0.16531676418416275
49951000.0 0.9053523374185773 -0.4211328475145563 0.03936512602570537 -0.08889477970291806 -0.003262867010876661 -0.0008648253430223948 0.3556999272421192 0.15512130596714024
50950000.0 0.9008998756274856 -0.4278646523754688 0.03904336980269423 -0.09764741593519034 -0.0016616959264313465 0.0004902070951245705 0.3419676180790598 0.14572751083558075
51949000.0 0.8973530889901233 -0.43622337095218056 0.04079217427768957 -0.10826717509725005 0.0005389701542774267 -0.003238207561630071 0.3551724298755805 0.1490600096346296
52948000.0 0.8951943848587922 -0.4437416131030407 0.0439917737695758 -0.1154648957426302 -0.004233774170555271 0.00022253605991844627 0.3751962909715289 0.13530672321510054
53947000.0 0.8875653109770211 -0.4528946627233134 0.04652102806246998 -0.12590255154849278 -7.486041536163174e-05 0.00031130044644891525 0.3719677986426752 0.11811422555696778
54946000.0 0.8853797280204694 -0.4607644867298255 0.044794643381701756 -0.13505175317335266 0.0023541112385340427 0.002413751700902087 0.38303274435044593 0.12310830293837173
55945000.0 0.8818456284610757 -0.467169642027487 0.04413611073948174 -0.1469235109381824 0.001611113481505277 -0.0021168896519922677 0.3904392088274854 0.10110311730098762
56944000.0 0.8776289415213928 -0.4779229415439686 0.049054030741747565 -0.15577642717288032 -0.001494001487850671 -0.00011582470559630698 0.4066637521249757 0.09462470901538517
57943000.0 0.8704331513147896 -0.487986927898898 0.049863956280427606 -0.16670416807873642 0.002947845509666925 -0.0014822274284456303 0.40120365395531604 0.08501423727066541
58942000.0 0.865469813785245 -0.4929638435712432 0.05099683197761491 -0.17931664820224283 0.0044749958078332775 -0.0006340165303512141 0.41904609665713694 0.07872549361691814
59941000.0 0.8641484157155577 -0.500418239936647 0.04958957241347414 -0.19185009874088885 0.0009063934199374764 -0.0030502220100207533 0.4174782827789725 0.0874435664638645
60940000.0 0.8565124590569694 -0.5081381678177533 0.054829147772524366 -0.1960962838678711 3.1407365391939795e-05 -3.4604778508714406e-05 0.40683817279143103 0.07761018542517306
61939000.0 0.8522407720210636 -0.5149964154408664 0.05565420525595379 -0.20357906145762675 -0.0007936827494735433 0.001869668121508231 0.41398623786697075 0.06615111209013741
62938000.0 0.8475215259625407 -0.5261661549264893 0.05461164979145783 -0.22058520337188342 0.001224686680415397 0.002219540548337226 0.43755813078784694 0.05017855995747029
63937000.0 0.8421683063654285 -0.5334040527157492 0.054742316119712024 -0.2409346169294473 0.00035571430471831203 -0.0008908886588591011 0.4283031722659491 0.041674229403010125
64936000.0 0.8351525047588781 -0.5402725644709085 0.05542702016714289 -0.25394771792713783 0.0007193675247738779 0.0018157328270452413 0.43617190123694 0.03513576877930894
65935000.0 0.8317437320989364 -0.5501802476817327 0.0554726099754479 -0.2682253458055779 0.00027155503121501493 0.0038544726256028606 0.4352213676757102 0.0147418108859253
66934000.0 0.827762694543059 -0.5549423685571453 0.05415794738504396 -0.28489459989836385 0.0019498538204554537 -0.0012399977734477074 0.43457287945497297 0.0045118361787126245
67933000.0 0.8240406590270304 -0.5626120410400913 0.05534483347492211 -0.29955995423152465 0.0034640176099700773 -0.0005429398959859113 0.44519788532350985 0.0026601986081805076
68932000.0 0.8229502590217925 -0.5636211959818088 0.054816827890431415 -0.311140974699622 0.002186478225913423 -0.0017590212746884247 0.45622709122694005 -0.0061811241247299985
69931000.0 0.8116887612159394 -0.5782058298614203 0.05391352202992591 -0.33127899709907466 0.0017626603737124708 -0.000208438956466426 0.4447209580942164 -0.022798222255523068
70930000.0 0.8039371780605146 -0.5876981430743989 0.04849215030400093 -0.34541403622159617 0.0012493089598318158 0.0018701288333919529 0.4453843796359174 -0.03596962504626579
71929000.0 0.8026178689431132 -0.594861542624177 0.04801728917806166 -0.3642117381475787 0.003578490637381267 -0.004495246651472488 0.4488993664561921 -0.05020813090714801
72928000.0 0.7940381348141619 -0.6041175123838466 0.0364575984209362 -0.3795893543594416 0.0002559286183636656 0.00023038511081982968 0.4651452749165566 -0.05589567519550093
73927000.0 0.7883505485375625 -0.610944558139709 0.03124987849815365 -0.4018784410749633 -0.0019912334791735865 0.0027632456811362708 0.45665989656654876 -0.06779666298955278
74926000.0 0.7842920544034152 -0.6194829914127346 0.027739601412478485 -0.4181041330488476 -0.00039389651482209134 0.0005701748550366019 0.46020798788657 -0.060451100150407486
75925000.0 0.7787558937026928 -0.6235038482482046 0.014219279443328472 -0.4424379153344823 0.000680090116804996 0.00195412802905776 0.47438709195436934 -0.08169100533153387
76924000.0 0.7709913267928528 -0.6337454350724717 0.003916972965671686 -0.4643204229086162 -0.00327243209980063 0.00104572629171999 0.46317356816342226 -0.09059597818757532
77923000.0 0.7658332740436622 -0.6371577839652947 -0.011372960333064794 -0.4856117185101205 0.0018311462852676525 0.0016911257346366878 0.4572104491856615 -0.09800527598270235
78922000.0 0.7571357034330735 -0.6496402496666175 -0.025353829170985623 -0.5161939933156705 -0.000585415823922667 0.0002696111563454765 0.4578784441653415 -0.10402086506430452
79921000.0 0.7496820162471657 -0.6541061559774412 -0.04761823370545154 -0.5412334290920906 0.0015980969372918928 -0.00022368484243299102 0.4554055987946124 -0.11934483133977987
80920000.0 0.7455269606706336 -0.6633968704924733 -0.058493774630336254 -0.5727760919646834 0.00014365061651472252 0.001010004686159891 0.46960624427050535 -0.12642635245529485
81919000.0 0.7389042790198375 -0.6704028632085145 -0.0763253334037636 -0.600309567008393 -0.00010584621836955557 0.0005294330387543871 0.46256038566925456 -0.14727205134210117
82918000.0 0.7323545900812203 -0.6778363755796585 -0.09416678904623169 -0.6316433755258757 -0.0028694026088721997 0.0004450387676342527 0.46787166672190394 -0.15409425386064085
83917000.0 0.7241734860306875 -0.6845622313713791 -0.11404269459272237 -0.6607378182093341 -0.00408219002403854 -0.003083157857544798 0.4770483497510721 -0.156228306221308
84916000.0 0.7193527763923099 -0.6926248025025348 -0.13071905342589546 -0.6978919557807196 -0.003990309703346006 -0.0012721373391920841 0.453998649983949 -0.17040830047198915
85915000.0 0.7110801559336242 -0.6992217513624792 -0.1512875635458415 -0.7286768977409419 0.001846640446219445 0.002210683153164752 0.4514484156040334 -0.17568145783095004
86914000.0 0.7049355876546196 -0.7086092508393015 -0.16264737854237393 -0.7659803818201181 -0.0018162603249240938 -0.00037762104178081033 0.4600247977333876 -0.18562264641836096
87913000.0 0.6989626654412927 -0.7149184292849106 -0.18824258646587724 -0.7957383011226975 -0.0005149395304528599 -0.00040428669599306414 0.4569997814543596 -0.19431837482767186
88912000.0 0.6901441928760085 -0.7202397419023214 -0.20373686295565444 -0.8310513381307973 0.003298515304570846 -0.0035556139817915972 0.4698509646772702 -0.21451816303483157
89911000.0 0.6848546974196825 -0.7295738443942429 -0.21629616629866083 -0.8736386397226843 0.003175803737431997 -0.0021755128298203523 0.4615654168998098 -0.22341620801344017
90910000.0 0.675951407014934 -0.7343668580154821 -0.24132724080364082 -0.9051467899733731 0.0011738878997259884 -0.0021545623083533477 0.45960479233003537 -0.22398061087572985
91909000.0 0.6677635275513404 -0.7398473063525949 -0.2584203876346391 -0.9384969534866712 0.00020453761330430634 -0.0024113178082817324 0.46109311116601587 -0.23355362552793762
92908000.0 0.6595697040371052 -0.7485435113047239 -0.2824797236723252 -0.9704312620886688 0.00414618157934815 -0.0009351664502504765 0.43968821439081435 -0.2356746677324851
93907000.0 0.6538402787616142 -0.7534682345619719 -0.298129699238562 -1.0051358540798971 0.002003487143970585 -0.0021962894185294864 0.45700144224903544 -0.24857736916964396
94906000.0 0.6397440135116826 -0.7634727136289573 -0.3180514771224799 -1.0415243012125106 0.0024556392556854007 0.0012927871686928408 0.45899657936555793 -0.25673871651100283
95905000.0 0.6325918440487303 -0.7692579204844283 -0.34671782753682984 -1.0747036722204597 -0.001048061214185646 -0.0010987393461234151 0.4470077021230501 -0.27493440893360455
96904000.0 0.6248805367626873 -0.7775704196387461 -0.37122311069364455 -1.1111186921350635 -0.001882203740320813 0.00035576830802973633 0.4521944384874803 -0.2747506397208063
97903000.0 0.6163613669168798 -0.7829980784180479 -0.39045858195037636 -1.1488220340010467 0.0014077085320417114 0.002817227464603626 0.44098646076906417 -0.29645803116693376
98902000.0 0.6122590968676082 -0.7898366385227141 -0.4147385392137435 -1.1868731564964514 0.0014226862197462193 0.0004190066517899355 0.44316456202173604 -0.29562714019704434
99901000.0 0.6006534144346508 -0.7939872310635704 -0.4442117729246295 -1.2199486065487175 0.0010305963118703724 -0.0007478827232047725 0.44872494626875453 -0.32319754045491034
100900000.0 0.5946495796600353 -0.7975021479188276 -0.4755006048905694 -1.2512059266058895 0.0022581870211334227 0.0008415375767371053 0.4505658777691794 -0.314530704037124
101899000.0 0.5851733961958896 -0.8066337988266846 -0.5068516725710963 -1.2933760778060193 0.002810445250873993 -0.0009182738458868456 0.4376968386596527 -0.3250168502221783
102898000.0 0.5737152953396986 -0.8127545437057134 -0.545302315571981 -1.32795990673696 -0.0002439470415113119 -0.00031174804219894994 0.44408185984288634 -0.33815819160931626
103897000.0 0.5649986640136143 -0.82038670356048 -0.5841085261815055 -1.3649540544527752 0.0013989980927353156 -0.0034425479621819285 0.4407115744947025 -0.33331587532009377
104896000.0 0.5588702219877184 -0.8301337556083347 -0.6325256348830036 -1.396965496739219 0.0020338622474282315 0.0015367662522603053 0.43427778330610617 -0.33294286912281923
105895000.0 0.5474221146323658 -0.8316614110492496 -0.6762668382780926 -1.4430940638414227 -0.002664759068242285 -0.00012126362737650572 0.4270224493923204 -0.36914764310230014
106894000.0 0.5409946265266168 -0.8373718551243088 -0.7342467048466214 -1.4893302996121707 0.0009562729799528633 0.004572553192343646 0.41860078221278724 -0.37133903739149576
107893000.0 0.5317855672765371 -0.8430731576122986 -0.7878709872203407 -1.522985715437097 -0.00042750841224728373 0.001260993901531172 0.42781194781229936 -0.37803171534812585
108892000.0 0.5201900883901523 -0.848561900766612 -0.8517127931039025 -1.5604055083932988 -0.0016071433564442009 0.001112071873952969 0.4318568575234243 -0.38167772220944834
109891000.0 0.5088253598828483 -0.8539538136346074 -0.9101395128528775 -1.598422311920078 0.0007880580756264995 6.093230940840804e-06 0.4283149495605311 -0.3858043491550603
110890000.0 0.49023500672880216 -0.8658083679588754 -0.9901788708226601 -1.595335093883527 -0.001300674734820055 0.0005064713528145297 0.42265711440502857 -0.38392924744386775
111889000.0 0.49008937546828496 -0.8618334748535279 -1.040544240937261 -1.6636833882840507 0.0010304093539215853 0.0002720834559007599 0.41767313217774 -0.39207305244155216
