! Created with skrf 1.9.0 (http://scikit-rf.org).
# Hz S RI R 50.0 
!freq ReS11 ImS11 ReS21 ImS21 ReS12 ImS12 ReS22 ImS22
1000000.0 0.9853599685044181 0.007143862917132311 0.005404892020701124 -0.0312893332488799 -0.014055583518152106 0.006878624371075283 0.3312303483825995 0.3176480002901667
1999000.0 0.9948354809386165 -0.011293469654700761 -0.0007441884208456695 -0.01699584746708796 -0.0069791057405254354 -0.001185363773136713 0.27039262047398743 -0.030452160614646093
2998000.0 0.9996066787714302 -0.024286989676798636 0.014111945726672296 -0.012314440945794314 -0.003961543891238772 -0.0021152483012140144 0.17664616925330232 -0.13808503450096854
3997000.0 0.9991949798554507 -0.029386342445183896 0.009151612329915015 -0.006547084849659999 -0.002000441844988893 -0.009170279120622089 0.08215272080442816 -0.21237802202129974
4996000.0 0.9953835567103038 -0.037083024027113005 0.014277359508774803 -0.0031693575656270975 0.0012102418439507404 -0.0015932545100362063 -0.04104263330995913 -0.19897651020867824
5995000.0 0.9998493341891188 -0.04674933372344255 0.006440767260091233 0.0037761101486366707 -0.003294987969170563 0.00015014093352996036 -0.12543140687505366 -0.11980212890990181
6994000.0 0.9942019981501291 -0.05930640139058083 0.007361506497776466 0.0073104227432956885 0.0020902654340545627 0.0007171302790851128 -0.14712985372281764 -0.03934893693497048
7993000.0 0.9934776352875575 -0.06844556252382623 0.0009086904449203849 0.005995235360707234 0.002855846246102978 -0.0040106272810645875 -0.18225855107210326 0.027395609672674313
8992000.0 0.9923107349083613 -0.07242104905887525 0.003058277209715063 0.006881564697758603 0.005248061491466949 0.0007826889500374397 -0.16733453746950855 0.05086552492037843
9991000.0 0.991743604632036 -0.0835285158057168 0.005696790203625544 0.0015521954543085217 -0.0035182546805173766 -0.00016747707485375847 -0.16658629657489865 0.08968778423101949
10990000.0 0.993248942319305 -0.09153135634077451 0.005988715739486805 0.0005340171712398547 0.002895531870270747 0.0018757056152675956 -0.14554865796445304 0.10381598174532981
11989000.0 0.9895000692788097 -0.09882808141024951 0.008561882868028696 -0.0037989346196212297 -0.0037802748283713395 0.002448910196736916 -0.12344146546541394 0.14611184575437755
12988000.0 0.9906104285557946 -0.10729574197285188 -0.0006699313508351626 -0.005713861723469704 0.0008622818448495203 -0.004657854865250624 -0.14187873345833982 0.16149636798472392
13987000.0 0.9860675783300826 -0.11587663004785027 -0.0022212061687401485 -0.004248878243883992 0.002129415070435301 0.004030860635485059 -0.10766623167271323 0.1846277106893698
14986000.0 0.9868170738180863 -0.12500710181069627 -0.0010381978636092109 -0.003731108677189297 0.0018788443569975387 -0.0009885450273905106 -0.09022619975249359 0.1939225733287209
15985000.0 0.9877710645107277 -0.13337553430949733 -0.004487188938551382 -0.005756549528410411 0.004015656787250876 0.0012348745035451877 -0.0802772807072932 0.21086800472213052
16984000.0 0.9819312499717592 -0.14682500210420066 0.0003020950650765303 -0.004551667160762131 0.001690489321318692 -0.0013641026358406714 -0.07444529722655568 0.22159077075568778
17983000.0 0.9866690933518898 -0.14680861814675505 -0.0001588479545719196 -0.00705545476845627 0.0007876834374912695 -0.002117434506000584 -0.05919036433561297 0.2309260429267721
18982000.0 0.9819895197928892 -0.15845354451993474 -0.0030621741845275672 -0.007197583966284306 0.0007652657231810453 0.0018483540130451717 -0.027382958240738282 0.23015215059170313
19981000.0 0.9800208855121212 -0.16615544883643685 -0.003923377576588267 -0.004062245236519377 0.0023296001084440834 0.0011621249034580207 -0.016046182469782688 0.25119232612210995
20980000.0 0.9799837404499188 -0.17499463115989114 -0.00446211949596111 -0.0062598411260801 -0.002039134552250886 -0.0008537951491526409 -0.007867960658737499 0.2633079815274362
21979000.0 0.9781017295298786 -0.18274125273637648 -0.006853004397373287 -0.0033832274819441846 8.700102501420249e-05 -0.0013525093238583492 0.003796315647185849 0.2514504086805128
22978000.0 0.9753557036943699 -0.19207581097280446 -0.0033784036470596674 -0.001183795073200568 -0.004814251020251204 0.005213693733401517 0.025402939616300375 0.2528575062005093
23977000.0 0.9791676677317553 -0.19793938447604306 -0.007994052789045735 -0.007641248903736228 -0.00025813076759099063 -0.0005881547400547632 0.023829396372162748 0.25823743350457223
24976000.0 0.9726291833146964 -0.21105038621520403 -0.007584767830519913 -0.005099172832755352 -0.000908455280237717 0.0022735888494739348 0.0574752214625075 0.24546550899341382
25975000.0 0.9748099713587187 -0.21845480771229073 -0.0017693500579586316 1.7756754448582042e-05 0.0021195560032610562 0.027583808910283586 0.06820793300696658 0.25708082820219635
26974000.0 0.96942495097829 -0.22675451567882823 -0.004122907169419999 -0.003434916420023225 -0.0012292187881301822 0.00011216105907027764 0.08210290116431128 0.2595462033354434
27973000.0 0.9679565466446434 -0.2343928879846323 -0.006237935385307828 0.0005680614943546951 0.0013250543388528004 2.8265578229679715e-05 0.08335892506688754 0.2598712205918598
28972000.0 0.9660663801291431 -0.24258727985237344 0.005051095286385057 0.0057281225707782 -0.000323498013953794 0.00021788874686167462 0.10805660564415032 0.24701584659018253
29971000.0 0.963739686727377 -0.2516955352556281 0.0007071991820355695 -0.0024458206168386965 -0.002140630754999016 -0.00022940019016631384 0.15483298269876364 0.2656522200596193
30970000.0 0.9629598417202752 -0.25806534484518195 0.0014577939438101578 0.000795929394192366 0.00185062608829824 -0.0034860041938313776 0.16439934187630018 0.2593345950748557
31969000.0 0.959816348460959 -0.26770365686906633 0.006653922560074013 -0.006284982123883733 -0.0009094110562220351 -0.0030837086510598116 0.1390465901025921 0.26183077375633623
32968000.0 0.9580810326951487 -0.2753535070591938 0.009547789460783293 -0.010091936813944857 -0.0018075118165520232 -0.0014784923573440635 0.15398763628966405 0.2508988531458885
33967000.0 0.9558140916095035 -0.2838239982906657 0.010253322357851346 -0.010217435986605726 -0.0040738569742850275 0.0010502569516405217 0.17423451575646356 0.24201547486082503
34966000.0 0.9516811489479677 -0.2966300367850093 0.012791438866668222 -0.014698702737326501 -0.000896858245000712 -0.002298620443571153 0.19036395221469543 0.2528111884256731
35965000.0 0.9497754909642556 -0.30342138266708746 0.01803092139280724 -0.016670385914441404 -0.0012707108363963207 -0.0003497619963074365 0.19782228447361555 0.24897229040726587
36964000.0 0.9469043923393023 -0.31201801685565617 0.016109698746296693 -0.014010669834935327 0.0004846504206203738 0.001192318930491542 0.20936366852580363 0.2555455979398147
37963000.0 0.9450087135691658 -0.32041954886734103 0.019980259661960462 -0.016837464952023973 0.0020165389484158476 -0.0015694743170953475 0.2233456379300117 0.23663691985536855
38962000.0 0.9416666400222464 -0.3295692707371442 0.0218105193442193 -0.02385065389995494 0.0023025449933101014 -0.001088549001691052 0.24560164470776313 0.23761303407397852
39961000.0 0.9379863780116702 -0.338549094143742 0.027612801187710614 -0.026141029432253948 -0.00028846338866228533 -0.00034230436405554535 0.24497389194024657 0.23530295810433072
40960000.0 0.9343054767323691 -0.34431812098102005 0.024303097493839066 -0.024865399068885928 0.0008908287750787816 0.00044596791502263646 0.25694528923032345 0.23059252001603484
41959000.0 0.931112907087715 -0.35544169364843003 0.031023526435343216 -0.03025662869861017 -0.0006067578402384042 0.00039151059726810365 0.26135978702133966 0.22063335780919435
42958000.0 0.9273186868590862 -0.3632549659976308 0.03488302968932465 -0.040622585281265576 0.0026749259226045027 0.003599691372976085 0.2709708675587605 0.20990066580993183
43957000.0 0.9261450990492688 -0.36769649396073945 0.034636086067380764 -0.04779945756117941 -0.0008685526642687459 0.002118534625685326 0.2766197088248586 0.21062324229213275
44956000.0 0.9232018164070831 -0.3759216215046193 0.035891033400681636 -0.05178419976335596 0.0015036775571726662 0.005648508565006805 0.301075370784926 0.20166279166152418
45955000.0 0.9178239731263922 -0.3896290256878762 0.03805605297333508 -0.05503905045129971 -5.193713538355016e-05 0.0013230493485530464 0.29774414141459615 0.20000195380866898
46954000.0 0.9138192009719613 -0.3968035292181338 0.03606915114349986 -0.06469382589542347 0.0010221686591463082 0.0018676230061923735 0.31444389163836645 0.18490354304696074
47953000.0 0.9118830154634502 -0.4036189089615168 0.037635180635744524 -0.07159703042281068 0.00022546822407607114 0.0016249283356877565 0.3309347907202138 0.17385860355176067
48952000.0 0.9050202629191763 -0.41710570735211105 0.03840766058297979 -0.07805727120264082 -0.00016291599276560762 -0.003903401886874729 0.33005248081532806 0.17233643071807986
49951000.0 0.9026461567131534 -0.4226122006236607 0.04235647645238023 -0.08415265541020651 -0.00029311858399752697 -0.0015907617736541464 0.34471484596199853 0.1561382073625658
50950000.0 0.8989026512879501 -0.43006282068262297 0.04245689231480542 -0.09546934171103841 -0.0020621051073661167 -0.00016985773394422114 0.335407450620481 0.14674002141634573
51949000.0 0.8950260835569097 -0.4378929931773053 0.04349117407437296 -0.10222486946102005 -0.004965089254095831 -0.0009457229694927084 0.3515830643101862 0.15002730120967803
52948000.0 0.8912629102468553 -0.4473626491821886 0.04348387225902513 -0.11095671425470738 -0.0010938415505886826 -0.0008527776290509422 0.36632092463022486 0.14488759234336496
53947000.0 0.8855302726419385 -0.4536081016016953 0.04816706482747084 -0.11898811708232138 0.006475724924544821 -0.0009555015988102634 0.3618047557530064 0.13198845775107526
54946000.0 0.8804314361138617 -0.4641378415346923 0.050861915921742266 -0.1278347170395414 -0.003166208726393654 -0.0016349948033277275 0.3729810680930439 0.12598382866531793
55945000.0 0.8788473935813098 -0.47085856378252083 0.05014246433043229 -0.1375088178391165 0.0011502393053964776 0.002840948628613518 0.3776579819602128 0.10955973269636786
56944000.0 0.8757742188969512 -0.4796342697060282 0.05112509988473913 -0.1492406561356035 4.718039117621032e-05 -0.0040636173602056165 0.395250148016021 0.10675720464176422
57943000.0 0.8704865562815088 -0.48846408947143666 0.0496568992190028 -0.16320956368412914 0.0008653510459734962 0.0019220836596364832 0.3895766690962551 0.10586660301377857
58942000.0 0.8645372335711069 -0.4944967325819425 0.05409623261216912 -0.1721383862349711 0.00037387847498272314 -0.0010703176073206463 0.41530464743595 0.09531196569052203
59941000.0 0.8599435514578003 -0.5026282529704689 0.056093130874288605 -0.18432982458777508 -0.0025059467541893804 -0.0008122433243755891 0.4064603535530576 0.09031714941739148
60940000.0 0.852890954730822 -0.5107580085356928 0.055435145791662206 -0.18885727991863896 0.001021036876982351 -0.000797758497842002 0.4002332396349534 0.08403192158906016
61939000.0 0.8509272133332094 -0.5173652737756748 0.05876626683718054 -0.19406230281551667 -0.0001170993768229203 -0.0008806066309173942 0.4087298885890842 0.05772401056722245
62938000.0 0.8452972146580819 -0.5271384858073717 0.06010518626197167 -0.2103068790848832 -0.0023290056539626673 0.0017169084637248216 0.4313184850111591 0.05823808677694128
63937000.0 0.8408021598930172 -0.5338563300479232 0.058491541972549944 -0.22997844164276232 -0.0015374747044377736 0.0017379227071748565 0.42883612778610586 0.0417897364535684
64936000.0 0.8351831262714434 -0.5385522008138656 0.06085796049461117 -0.2476762423546642 -0.002412038787428763 -0.0027250606719005695 0.424735669249302 0.04937708965054076
65935000.0 0.8290368494127826 -0.5530584009891968 0.057158428708801425 -0.2615414867258938 -0.0001758506310081213 7.267115427826628e-05 0.43245723506566525 0.018248864043616454
66934000.0 0.8249614163285849 -0.555443883295275 0.06126429623364201 -0.2726563507785699 0.0005977922741162009 -0.00017917303085280726 0.42701071298557347 0.009456350014258477
67933000.0 0.821712855432813 -0.5659427107061746 0.05890348212788383 -0.29192618919326174 -0.00015004019653266917 -0.00023493034662307465 0.4381728735158228 0.016531736011430907
68932000.0 0.8147347803668882 -0.5565252144921364 0.05989924205512298 -0.3008464236624923 0.0025348156882008055 -0.001171129612361961 0.44595529578139886 -0.0075312501940289186
69931000.0 0.8065173770275357 -0.5817275230944673 0.05681228937280935 -0.31671814377174573 -0.00501967426020987 -0.0013488084032254152 0.4454965235102528 -0.017640237287767698
70930000.0 0.8033640507770288 -0.5862794564472847 0.05571301336766961 -0.33267328201479285 8.749203871302161e-07 -0.003443484213510833 0.44199328936703886 -0.021954859323508
71929000.0 0.7989432545377594 -0.596969132308039 0.049599527867830194 -0.349171573421575 0.0010644318852862011 -0.004346288462158842 0.4533830704050975 -0.03589404047758273
72928000.0 0.7913996721313219 -0.6043754578955336 0.04590971940832994 -0.3645624030736829 0.0021454327180971183 0.002558171733898726 0.4610985816935977 -0.046952050566430384
73927000.0 0.7837708641867903 -0.6117659206770937 0.0382825665858802 -0.38805988235626476 -0.0007399916804538334 -0.0015233309965319787 0.45858025931875795 -0.048908630057493116
74926000.0 0.7784319416367331 -0.6212258064324643 0.033539516316941395 -0.40850349958647175 0.0002018857792369663 0.0008733333266324394 0.4524694432605151 -0.0549154264945607
75925000.0 0.7708560247202396 -0.6263806072776436 0.016892723400723543 -0.4283706048543908 0.0008029555016551648 0.004832803823409523 0.4566427243691921 -0.06452488584509104
76924000.0 0.7668917283260294 -0.6335671389001449 0.009058347063329971 -0.45091852457879816 -0.003648933680477391 -0.0008221582219784222 0.464534146156192 -0.07956367231304533
77923000.0 0.7606626396708515 -0.6395545708303338 -0.006412783064796797 -0.47951076311087515 0.007803352391317237 -0.002553507391711164 0.45951760333789266 -0.0852548006425395
78922000.0 0.7551476175638798 -0.6505382784261018 -0.01635548241858131 -0.5031426735420734 0.0015288464754970473 -0.003625689746801325 0.4649310840987011 -0.10659302322763228
79921000.0 0.7472212989239736 -0.6541169598255114 -0.03257978141593989 -0.5285671591511711 -0.00039302648223995076 -0.0010440140375560518 0.4592552926714634 -0.11314533000636144
80920000.0 0.7418106546119665 -0.6652875899430004 -0.04563361559672271 -0.5556193031256298 -0.002673732375116151 -0.0018282106533864598 0.46733499140614637 -0.1323483977251597
81919000.0 0.7377566332541421 -0.670172822577515 -0.0630119846290085 -0.590316153955754 0.0015793079490997002 0.001891737490671076 0.46450052579622714 -0.12933691175773665
82918000.0 0.7279208136998726 -0.6771789249434121 -0.0753920850836394 -0.6197885261447982 0.0006449890888357823 0.0014612084783010217 0.467933093850203 -0.14403823558964168
83917000.0 0.7204316787261149 -0.6833655247792881 -0.0954729800552836 -0.6446888254975135 -0.0005032949202683119 0.0017592871563880963 0.4739523264897641 -0.15538412058167367
84916000.0 0.713956057678323 -0.6941446739962981 -0.11524599980538283 -0.6804937316051176 -0.0046017155836078774 -0.0007674941198402828 0.4666257789014818 -0.16192418216432464
85915000.0 0.7067045846307639 -0.6995017975008065 -0.1317000824360954 -0.7106161116012819 0.0014793810442834613 -0.002638094288310176 0.4604973895920598 -0.1787858964764801
86914000.0 0.7010415897382464 -0.7080250440960913 -0.14247684589326587 -0.7475101737329778 -0.001256579440533883 0.0014045492118567983 0.466813261507858 -0.1659130716501752
87913000.0 0.6923823485331315 -0.7152563225283263 -0.16534664535854868 -0.7766397838874045 0.003864782017671693 0.0013572680134382154 0.46579281306123377 -0.1750363480780564
88912000.0 0.6873329912005144 -0.7216875246007469 -0.18015499295998183 -0.8124325085086077 -0.001648110688158421 -0.0019576400696190237 0.4596981432120392 -0.19140979019998827
89911000.0 0.6777196694411693 -0.7294325897466828 -0.19727369213185705 -0.8471177929335834 0.0008356983988648729 0.003481216240559424 0.4669207662392712 -0.2063340720470854
90910000.0 0.6706909393943284 -0.7357703531669056 -0.21380110040727923 -0.8832044081466286 -0.002277394397723231 -0.000699325811755753 0.4610637362880157 -0.21438476778478235
91909000.0 0.6620658344375889 -0.7416060380710631 -0.2338836075082133 -0.9162991224485287 -0.0025471035152422757 0.0020926579418386665 0.4706906644764561 -0.2134225503261364
92908000.0 0.653211168711077 -0.7499270646356945 -0.24956289253800043 -0.9478142704058988 -0.003454693609448303 -0.0050936988708832264 0.45065929062220444 -0.21782291202922488
93907000.0 0.6502490567738018 -0.7544535019620366 -0.2699104786940727 -0.9821370113157006 -0.00046653073489130183 0.0037693231328750237 0.4521325573399392 -0.2518193020903016
94906000.0 0.6347936978487563 -0.7643287401200494 -0.2872603583392281 -1.0152374365358177 0.00036378398714663544 -9.836883744711312e-05 0.4605142163700106 -0.2417331226665371
95905000.0 0.6310771638492395 -0.7680572614252144 -0.3075548679669811 -1.0504521621158256 -0.0036469007758880598 0.0013356618325111593 0.45437318098092483 -0.25389826563857365
96904000.0 0.6224317981256281 -0.7785726965557536 -0.33311393730598204 -1.086998160611832 0.0041821668803049186 0.004204010796962899 0.4490744232498567 -0.26677343687070604
97903000.0 0.6131535523557784 -0.7810932523927535 -0.3455731453855404 -1.1209213327211431 -0.0038396581483789247 -0.0006395831846103574 0.4474878935587214 -0.28207026627841947
98902000.0 0.6077342286726318 -0.7911427917220009 -0.37109039006537187 -1.159316789924622 -0.0021655543937639955 -0.0015521841637671267 0.4436870823355219 -0.30266776898869124
99901000.0 0.5961971571364204 -0.7948494398736472 -0.4005212892992805 -1.1975974574430432 0.002226839488000994 -0.0020467794355961927 0.46583562510661913 -0.3225398431055075
100900000.0 0.5907224065237798 -0.7997378597514028 -0.4367255557054359 -1.2229509712064415 -0.0004442499952466236 -0.0010928210544363494 0.457289689547392 -0.30382095284336447
101899000.0 0.5776786654917698 -0.8077755834918805 -0.46275212936508253 -1.2636950100368687 -0.0015481594637594873 0.0028272514623343885 0.4465741381913851 -0.32059697889971084
102898000.0 0.570026600152406 -0.8112757472577922 -0.49514516430297595 -1.3023442624449877 -0.0034761625707766582 -0.0024318816374427877 0.45694229024134 -0.3313822068578804
103897000.0 0.560837444774622 -0.8200747874070223 -0.5377760025745537 -1.3328463150655943 -0.0011880629911976079 0.002507533903169126 0.45290568575787754 -0.32851119012323876
104896000.0 0.5548919476721852 -0.8306947475219577 -0.5835614634189742 -1.3711894697554765 -0.0002557928893052121 -0.002503126596837821 0.43689124867808177 -0.33058156856138626
105895000.0 0.5447692068780078 -0.8323719643059262 -0.6281188464574887 -1.4172771119089287 -0.0015373662716987445 0.0007941523074524823 0.4382443511277538 -0.34425361092894
106894000.0 0.5367585731401776 -0.8388960081169302 -0.6830772357701178 -1.4552089872240535 0.0005412314340022483 -0.0030963190310935125 0.4288234500071509 -0.36377704569827457
107893000.0 0.5280582492474752 -0.8449723277727451 -0.7398262340418509 -1.4955872269070272 0.00023705079460081883 0.0015911045241828457 0.4311105238892992 -0.3681260056405877
108892000.0 0.5169779866063552 -0.8488265180597501 -0.7963752992239244 -1.532747648378886 -0.0012977045603103283 -0.000651601670232495 0.4304715610850819 -0.3632207380119871
109891000.0 0.5046101639741889 -0.856878487590243 -0.8514288473333443 -1.5679053703679355 0.0027189339048553775 0.0008325856865884063 0.43573920830832313 -0.37049740506896367
110890000.0 0.48498738947993875 -0.8660728000938686 -0.9354645306365257 -1.5657287592431153 0.0002180463424528848 -0.0004716471572615691 0.4232166168006149 -0.38667505142670056
111889000.0 0.48552002516066656 -0.862467863694634 -0.9801814303021116 -1.634381881382349 0.0020023928379526265 -0.00017035165757933168 0.42499103786340153 -0.3890096760644763
