! Created with skrf 1.9.0 (http://scikit-rf.org).
# Hz S RI R 50.0 
!freq ReS11 ImS11 ReS21 ImS21 ReS12 ImS12 ReS22 ImS22
1000000.0 0.997178382085939 0.01328852597954006 0.0015623498032762235 -0.04686504220655523 -0.01048765662549791 -0.005110499098498086 0.27790036430772413 0.29514051490033383
1999000.0 0.9985484468064767 -0.015566200757181308 0.011126184116680309 -0.02121829489972582 -0.003527209966310803 0.0037409982874572053 0.2567160217398833 -0.03462330593773193
2998000.0 0.9996230476878595 -0.020799190320675218 0.007385066571300546 -0.010231215030266893 -0.010792163707960522 -0.002797194703659322 0.19938690088287467 -0.12484029377297508
3997000.0 0.9975503528972376 -0.029457641662001093 0.009725515743754597 -0.006118154434343863 0.0014111352957204852 0.000308044948500797 0.08193059561674695 -0.2138608217923402
4996000.0 0.9913149593321547 -0.04173237979049774 0.010058583096302134 0.0009759164404092029 0.002888142690740992 0.0003697307491518384 -0.05637308566935016 -0.19160162134806194
5995000.0 0.9930771576718753 -0.04926013029610546 0.004530130529103687 -0.004108257696479462 0.00044604052370250777 0.0031630255396509514 -0.11074903580240712 -0.09566142584049823
6994000.0 0.9914493150847669 -0.06282650848293864 0.007024055140026753 0.005077249430820172 0.0023538237430284757 0.0030340726664428155 -0.14690011035937994 -0.015215638694842663
7993000.0 0.9928050214991258 -0.06642735885431925 0.004117247015782506 0.008353711947824754 -0.0010971554107697744 -0.0064023368313154685 -0.1526049923217353 0.04892455837432889
8992000.0 0.9899333588679544 -0.07407519172881008 -0.002980436203276924 0.0015250819246834693 0.0028124743401794034 -0.0007903439007396897 -0.15739195801498335 0.06407473800937252
9991000.0 0.9883842060759964 -0.08459648310469134 0.007046073139527545 0.0012370165288016351 0.0013663976817169902 -0.003185140892236705 -0.1456858163688345 0.08129434672568711
10990000.0 0.9887417581334406 -0.09610620548743423 0.0035712890583125814 0.0032783779679251192 0.0038391881699121923 0.0034359307352893873 -0.12338512099680193 0.1138863024494366
11989000.0 0.9852420218258112 -0.10088779981042285 0.0024973808233299368 -0.0008747913677859913 0.0014536357090475444 -0.0019446834714116955 -0.12007947276968578 0.1418204834865341
12988000.0 0.9852427332194391 -0.11033278852765913 0.007196419702056195 -0.007201243343968972 0.0018933936188064568 0.0020726890698710677 -0.11203420029430558 0.1685419067306865
13987000.0 0.9834094121754205 -0.1202374861213993 -0.004686641620135738 -0.0046392722356433744 -0.0033626409949536577 0.0009930682371101568 -0.08882161072210361 0.18500838330178737
14986000.0 0.9835848855325799 -0.12355355412071979 -0.000418828309249906 -0.0036406604592258895 -0.0021242248725281796 0.005195304687449297 -0.07264523972161506 0.2029179168325929
15985000.0 0.9846733745435554 -0.1327086483617671 0.0003590949767211145 -0.002164621744075085 -0.002461431062345724 -0.0012138620443112962 -0.06211471717389911 0.21907428896930492
16984000.0 0.9821970151267372 -0.14247745913346424 -0.004809751578916945 -0.002717291009609746 0.0004222896430859312 0.0005226095988817626 -0.062144145608686606 0.21245371064675797
17983000.0 0.9835371596981867 -0.1485199601899484 -0.004472123753120778 -0.006495333137043313 0.004460629420088808 0.003419824875843524 -0.04286424862827107 0.22738894628256176
18982000.0 0.9795443397922492 -0.1590817043439209 -0.0050251334885569555 -0.004797178357553887 -0.0018766902229113893 -0.0003904107963322732 -0.0207417409813568 0.23869359159856451
19981000.0 0.9782449053976568 -0.16557286868484647 -0.004367510449326505 -0.0034616360109381507 -0.0016559067604380933 -0.0009936656151967916 -0.016013287927001543 0.23915600706730522
20980000.0 0.9773159505716353 -0.17630150000003098 -0.007136126746263658 -0.004481083259666178 -0.0029291290111334235 -0.004334691835706031 0.0036066513540761063 0.25804936588114735
21979000.0 0.9745031008085498 -0.18443470965228173 -0.006473600030277047 -0.004259069705651343 -0.0014446471827865765 0.0018586641059015498 0.016880534174137412 0.24447307017797643
22978000.0 0.973071878217181 -0.19358000583708987 -0.004754870523342318 -0.0024422729443594865 0.0010895442641370421 -0.002961378279616785 0.02592166531089293 0.2512237746761243
23977000.0 0.9740739404380098 -0.1972578639283327 -0.008536711804552061 -0.0038442915913886543 0.004948555274955781 0.0003887397728086488 0.04965617533043286 0.2389672817199947
24976000.0 0.9698369291955274 -0.20943196169302689 -0.0037885703507698344 -0.00017028656900147 -0.003814069703542187 -0.0016171152527020493 0.0668039158907103 0.2587571974066749
25975000.0 0.9731580594925734 -0.22049618278475736 -0.004194828381896391 -0.0025743224016110547 0.010513262732614843 0.023379499651725054 0.08295295259089004 0.25454308289785355
26974000.0 0.9662565726467865 -0.22706929774385007 -0.0028219265156525903 -0.0034339600085406983 0.003921534000132998 0.0008912277209343782 0.08516988518196096 0.2633819506258005
27973000.0 0.9657476018258084 -0.2321376000235634 -0.0015395014617523093 0.001674198637636079 0.0009888273480452583 0.003026850686482203 0.11402189279687577 0.2530696228531148
28972000.0 0.9619063624881757 -0.24503989340261736 -0.0032519604813921353 -0.005560611791832247 -0.002595564822354806 -0.00032185398853403104 0.12287793381674007 0.2475432517479094
29971000.0 0.9613590199281786 -0.253733136195752 -0.0008081953035203166 -0.002429913216177011 0.0012625577118846266 -0.0014764098738360753 0.15113534767779968 0.2676882984598143
30970000.0 0.958861849431427 -0.2595162384320938 -1.7867377263282002e-05 0.0008696321493535595 -0.0021219257703177846 -0.0036968758050225704 0.17806679103870082 0.2504379877218703
31969000.0 0.9557313261688253 -0.2673920194631444 0.0032066708922200145 -0.005649986255725663 0.0027381197683094354 0.00041361828266782744 0.151361840353463 0.25373894255082874
32968000.0 0.9552973702256115 -0.27902477989782754 0.004056550242128982 -0.00620764186185731 -0.00018496071725282765 -0.00019357962994933002 0.1565808773042463 0.24234126691843583
33967000.0 0.9528696235832425 -0.2872307395550306 0.008004208337928007 -0.008865786251694983 -0.00088104539871912 -0.004778021314874586 0.1825161020340378 0.24575957338077534
34966000.0 0.9489999920875376 -0.2954247219341227 0.013587433955657747 -0.010092059803659452 -0.00438252524472123 -0.005020785637366041 0.19132141041672615 0.2552211549796659
35965000.0 0.9467886034175881 -0.30391625920074267 0.016563568562183092 -0.012938318603893627 -0.003050309576058583 -0.001423134668471437 0.2034586510645878 0.2609528620402128
36964000.0 0.9453414258101894 -0.3119236949129678 0.01801764724518536 -0.014486786097615459 0.002146387327732884 0.0009868096677412973 0.21610687669312978 0.2533402615454961
37963000.0 0.9411382261588453 -0.3214925666708051 0.02013852979630701 -0.020730264402878583 0.00031316051516064997 0.0010418387602567475 0.23069258786186791 0.24709114114147104
38962000.0 0.9395325319046212 -0.3320111885372117 0.023309597824112845 -0.024150913106508284 -0.0007277178545982304 -0.00084143054783443 0.2441614607975762 0.2264914010866498
39961000.0 0.9357034046210366 -0.33630517513948643 0.026364515540174504 -0.02543076979511035 -0.002686529635297699 -0.0006617367388533082 0.24518758298397375 0.22845522584190756
40960000.0 0.9331113414278549 -0.34640995865983565 0.02144541480512601 -0.024538084082015896 -0.0046443883485262905 0.00014494341584990402 0.2671029345912817 0.22642605896125442
41959000.0 0.9301842845429108 -0.35660017937094945 0.02813849756984916 -0.032822510187546484 0.0006920536764318448 0.0004867837829644365 0.27381820562547726 0.21675791268842726
42958000.0 0.9258542085085392 -0.36428981099123064 0.03135303574982331 -0.041877223757912856 0.0017613266514535902 -0.0013069995904281238 0.2701625379868199 0.20641521199398094
43957000.0 0.924030688902315 -0.3701300655603557 0.03432738908372513 -0.04929838187957641 0.0012257369415571776 0.0028834726472436074 0.2899717978404215 0.20689475212579397
44956000.0 0.9192632708341543 -0.37942514270049665 0.029976111209828626 -0.05213623357729236 0.00128147096216558 -0.00171468038623133 0.30214450136593574 0.1992066017664326
45955000.0 0.9160310654552377 -0.38954806839842226 0.03400453552644488 -0.057503499807148674 -0.001559990033995883 0.0023574628064157287 0.29931638415273937 0.1926931422929466
46954000.0 0.9129835863608634 -0.3968063965722529 0.031768585681016794 -0.069578827692035 -0.003220034837189083 -0.0031889510961895726 0.32644686990551525 0.17766480222287032
47953000.0 0.908278880719883 -0.40675060782159456 0.03406145818890188 -0.0711734706478874 -0.002180137104405383 -0.0016067471145749445 0.34024715230800984 0.16362169798131895
48952000.0 0.9039109434255838 -0.41573642167660885 0.035995016577388766 -0.07872044079051838 -0.0030910510404620626 0.0017357895096348516 0.3365966179357797 0.1762862775946975
49951000.0 0.9004864237588504 -0.4240375113147374 0.03415749025977698 -0.0900618879579661 0.002520484200169981 0.0015622898243583016 0.34543907981334976 0.1583535922791338
50950000.0 0.8973218599037159 -0.43225599477501303 0.038439333850922554 -0.09551691406943232 -0.002126366447900756 0.0014446363686900316 0.3530036285944079 0.14786302529429496
51949000.0 0.8930031165821247 -0.4386829998981179 0.03946208296033124 -0.10373800772461333 -0.0007279155158472939 0.001521727370706648 0.35911954551173125 0.14761714019871666
52948000.0 0.8892027110667716 -0.4476659779450561 0.037059424122558894 -0.11288241247401784 0.0004811418178255845 0.00035421670994673874 0.3702456832045167 0.14502767850800305
53947000.0 0.8841158981598238 -0.45707764592686867 0.03705417626729802 -0.12264994751793416 0.004617838546461281 -0.00034473076372346556 0.3727103637813777 0.1369036739753653
54946000.0 0.8794543378907264 -0.4635882670971993 0.04111714232870503 -0.13219688034579719 0.0006727807840552892 0.0008840027919186401 0.3850868829355193 0.12070043042179118
55945000.0 0.8759260189752145 -0.47334664002951604 0.044419613982856404 -0.14073669364051447 -0.0001645451022849163 0.004176010286940162 0.3874161984187349 0.10785001455918032
56944000.0 0.8721998771654751 -0.48043832143734155 0.04724141136655864 -0.1511466898849776 0.0012156464758808717 -8.83407723501296e-05 0.39359275915136227 0.10086164748816918
57943000.0 0.867874141978585 -0.48993549883319826 0.04539898433532236 -0.1604116325818086 0.001189924487220654 0.0011792433862492777 0.400400237917519 0.08961044683430726
58942000.0 0.8616530627159406 -0.494747187125141 0.04600192640889282 -0.1745947156789999 0.002607817151538312 0.00028531834359466613 0.4228621555914536 0.09203052875382854
59941000.0 0.8572231426872858 -0.5054591060435385 0.05145278796829785 -0.18418363951732897 0.00035255525193008265 0.001887754855002502 0.42069336342678965 0.08936563461233328
60940000.0 0.850301962656292 -0.5102697329597922 0.04787977220913383 -0.18559498882365189 0.00037138525104454947 -0.00200698438927725 0.4088717529428767 0.07852143436297637
61939000.0 0.8469892356307818 -0.5181601301244472 0.04975583065063354 -0.19623611213745923 -0.000784022175927742 -0.0013031888054624045 0.41558858600113696 0.0714727074454688
62938000.0 0.8423196416464236 -0.5292073898554712 0.05180821417393725 -0.21143005888365884 -0.003015251255777314 0.000843061312736702 0.4398531274769372 0.05705507545352294
63937000.0 0.8372771398346778 -0.536968721345351 0.05218205565967521 -0.2334150338032676 0.0018302022728618349 0.0017902896649456964 0.4332048241003248 0.03924754820834929
64936000.0 0.831101766153921 -0.5411914203180177 0.055307325550980196 -0.24586647399033057 -0.003187517439383536 -0.0014845774809776101 0.4301183450629426 0.03754381447689385
65935000.0 0.8266717881833155 -0.551082891085179 0.05327842543537111 -0.25816044153273676 -0.0019373470700448728 0.004751929201944043 0.4378006831031614 0.022898280858033006
66934000.0 0.8219292635215603 -0.5586424727273299 0.05273301064444073 -0.27201552160048387 -0.0015077331411959354 0.0031343728794512365 0.4435546144193709 0.013997933795143387
67933000.0 0.8179327096256029 -0.5667320589665975 0.05575849846797468 -0.2862383263486685 0.0010770139857885896 -8.610016513791095e-05 0.4477208814632007 0.013875329432289097
68932000.0 0.7998329810495585 -0.569291662906086 0.04792726732269799 -0.2978548424390959 -0.0015604170607119102 0.004011658684127951 0.4618973411242103 -0.007727533784131585
69931000.0 0.8044527468235491 -0.5815765061391723 0.052749277597822115 -0.3183563013698769 -0.003982782540145212 0.0004115063841186996 0.4529560819759594 -0.01564888195616421
70930000.0 0.7975179460053106 -0.5909386569149716 0.0459311956710972 -0.32867750063926404 -0.003144224582046886 0.0009425135855530595 0.45329473240476514 -0.03193730174783623
71929000.0 0.7949180898009429 -0.5965233152586912 0.041399214726804065 -0.3474301306636544 -0.004738082788368591 0.0018276455173707276 0.4453301623996027 -0.039560162208381766
72928000.0 0.7868889434748285 -0.6080540950055908 0.03380951919133924 -0.3634063815927674 -0.0006659372276689386 0.0008244395560049313 0.47156419732425997 -0.04606679928502098
73927000.0 0.7811853253268318 -0.6132116283943189 0.032169664442911396 -0.385631898383395 -0.008265948154727473 0.0005566964518096735 0.45594719758170693 -0.056277847512479634
74926000.0 0.775547200728643 -0.622535885396951 0.019569251146455552 -0.40286957177550275 -0.0030359081315496023 0.001613907413512622 0.46140798734327615 -0.05287000020878634
75925000.0 0.7681241652947172 -0.6283001137452501 0.010036630904479581 -0.4271009609346451 -0.001980618011076583 0.002592818084767815 0.4692773398584765 -0.072131713520143
76924000.0 0.7632349740291055 -0.6352185377047734 -0.002488794536135466 -0.4459347278642547 0.0014949661563578849 -8.134231216612666e-05 0.46407863937194616 -0.08305001302638734
77923000.0 0.7572159006912382 -0.6414267584294849 -0.013710699080966416 -0.4703564953968013 -0.0003191204949387041 0.0012213473709436953 0.4603616953160387 -0.09535458424083652
78922000.0 0.7494431482585203 -0.6516024400417463 -0.0314718720030611 -0.4937311377327471 8.57559968522113e-06 0.003192443864176634 0.4608164857900826 -0.10000562277231499
79921000.0 0.7426611490702063 -0.6565752163847801 -0.044950839463797077 -0.5207376593091285 0.001856334146520586 -0.0015672863139074773 0.4689864063916498 -0.10969181892851591
80920000.0 0.738876683154171 -0.6668702233449106 -0.06342861095907569 -0.5541068701539462 0.0007084614941580458 -0.0020411178095485695 0.46831663775840254 -0.13059920607210898
81919000.0 0.7325693648881558 -0.6722779322894394 -0.0815538553284318 -0.581234501299664 -0.00040963253751894835 0.00028724734999610943 0.46172207558941086 -0.12804592630148912
82918000.0 0.7229375893082665 -0.6790644791491837 -0.09442813183516947 -0.6104577207629696 0.0007668582782605328 0.000978094222877986 0.48733515551366186 -0.13379042854582304
83917000.0 0.7143633073820032 -0.6865785729006154 -0.11027196827155537 -0.6376227115885358 -0.0026477042204261524 0.0010005248617288528 0.47081253426025854 -0.14538858489039946
84916000.0 0.709429359668553 -0.69423087798892 -0.13046088839418427 -0.6693859679134305 0.003984259575595798 -0.0023676366259147946 0.4679285245039034 -0.16572464817461485
85915000.0 0.7021207891562918 -0.6997543466013957 -0.15288905110324214 -0.7019538541690259 -0.001847912274473388 0.00044129596256434233 0.47058024012242466 -0.1800471491007874
86914000.0 0.6954676922337725 -0.7104259796657431 -0.16434815808421896 -0.7389010920138936 -0.0033397758592299915 -0.0024456777612360484 0.4593006165894859 -0.16694586753052032
87913000.0 0.6872237226703161 -0.7168402720879684 -0.17854365941033135 -0.7655294546340902 -0.002935751584867689 -0.0021100374006511953 0.46274783426021554 -0.1745930591188552
88912000.0 0.6822067752155682 -0.7219647820184689 -0.20060093892762737 -0.8022743764712633 -0.002987783762553908 -0.0019426820570590578 0.46149895520628864 -0.20518452751731547
89911000.0 0.6729325238473345 -0.7318927119110128 -0.21586323940203986 -0.8404685694985016 -0.00348252819794634 -0.003013818709977198 0.4733205943060869 -0.21137851222565804
90910000.0 0.6678506999367098 -0.7376992629168384 -0.2310841712739592 -0.8728025225763429 0.001908471792028077 -0.002751079241158484 0.46441333705077775 -0.21433079807008767
91909000.0 0.6574134721828897 -0.7412790052729382 -0.24730004922079282 -0.9049654295034666 0.0006910920028398399 -0.005451708997356225 0.46405215522206755 -0.2249446612386124
92908000.0 0.6500177877378251 -0.7499391460128106 -0.26403881989157696 -0.9332778399893911 0.002712836427212376 -0.0019581303203029137 0.4538638475086862 -0.23286358130161114
93907000.0 0.644054380745771 -0.7564281677331836 -0.2855595720649538 -0.9675810267502565 0.0018585585297844146 0.0013505065472872004 0.46145097207394997 -0.249566323651663
94906000.0 0.6300446053671198 -0.7649157278548991 -0.3021703406769332 -0.9968839165821597 0.0022718181670613644 0.0004794452681328124 0.45896349780617435 -0.24462229156706428
95905000.0 0.6265319132832414 -0.7691007695911121 -0.32156795274382743 -1.0355779812631898 -0.0010043172226131478 -0.00152664118772638 0.4690399954532281 -0.26898350488874917
96904000.0 0.6164834962342111 -0.778752431384226 -0.34338216794487275 -1.0701412789148352 0.001011808457391815 -0.0015016893862778 0.4479825866448031 -0.2732174742563724
97903000.0 0.60796352403209 -0.7842243569900659 -0.36351411367855047 -1.1014255393105328 -0.0021573905854284777 0.0014261043808587682 0.45128684477568437 -0.29019843228626735
98902000.0 0.6027403805611499 -0.7904823713714305 -0.38900772795390154 -1.1382360607155018 -0.0016745875797399496 0.0019377170046941065 0.44897523346261264 -0.2859580404852999
99901000.0 0.593460170596768 -0.7966846937203295 -0.41637877923829136 -1.1774252285916207 0.003912103673275051 0.0020198544672198164 0.46779922862252393 -0.31530986425129737
100900000.0 0.5835792629244746 -0.799666308932374 -0.44731801294372564 -1.2005222882612705 -0.0007530757862075924 0.0009352106229635208 0.4619371534170807 -0.3079537161537826
101899000.0 0.5746029241630768 -0.8061744000923382 -0.4728743187621032 -1.240183296555907 -0.002741653654399725 -0.0011765991561299175 0.4421189592879991 -0.32215498048469865
102898000.0 0.5657669259759777 -0.8119964003717584 -0.5110962201410332 -1.2742340456786376 0.0019123193849652702 0.0029946479384872693 0.45106888479434176 -0.34367200907171486
103897000.0 0.5573920713857284 -0.8211583404565329 -0.5474156419569819 -1.3118820118676164 0.0009402306575269837 -0.002364308862214786 0.46402043179113445 -0.32239647928655973
104896000.0 0.5502824517613654 -0.8309071726808601 -0.5945143441498496 -1.3457785488021696 -0.001094610784309676 0.0007360593375224281 0.44243562978969364 -0.32986545188848915
105895000.0 0.5363369483927279 -0.8329825360358859 -0.6445376976855522 -1.384179702035183 -0.0019424099704496273 0.0028741831422506602 0.43161868125256786 -0.35524611108609505
106894000.0 0.5306331377854882 -0.8380098999319323 -0.690200368104026 -1.4255365742828443 0.0008618872850102863 -0.002301264165986512 0.4427546302092694 -0.3620947249274049
107893000.0 0.5207204277945083 -0.8447837745325748 -0.7490845678716326 -1.4610749182230764 -0.0019371945044095338 0.0013901939607786748 0.43268960368148146 -0.38040717492571363
108892000.0 0.5116834315266419 -0.8485549770722697 -0.8057552267103778 -1.4973492035493619 -0.0004936922839306412 -0.0004795273482673822 0.43055022110230706 -0.36706718372220976
109891000.0 0.49970654327281977 -0.8564686961590188 -0.8605278787944639 -1.5284754118786148 -0.0015283433218261405 0.0005136534099268084 0.44060446058156005 -0.3681117927119864
110890000.0 0.48374965680318754 -0.8703120112021886 -0.9411068123864265 -1.5451373931724839 -0.00010988764382600455 -0.00392486227043324 0.4301233551134922 -0.3864834010224924
111889000.0 0.4775529807711999 -0.8639775754870853 -0.9899193332912827 -1.6018290912504187 7.704998968874024e-05 -0.00010917534259554683 0.42180113481820336 -0.4007139062212288
