! Created with skrf 1.9.0 (http://scikit-rf.org).
# Hz S RI R 50.0 
!freq ReS11 ImS11 ReS21 ImS21 ReS12 ImS12 ReS22 ImS22
1000000.0 0.9989453446749462 0.013316498449029972 0.00851751532909597 -0.04137997668351464 -0.011060006230485604 -0.012929469419184209 0.3223432818778169 0.32670509225942324
1999000.0 0.9950687589239521 -0.014967631521243627 0.0015110593144231528 -0.024163805428075585 -0.006133990063393476 0.0019070482481285307 0.2621428281067901 -0.06766340077334188
2998000.0 0.9978843365685238 -0.023255505781583818 0.0050716097472780506 -0.010795558035702197 -0.01057931418535267 -0.0008590197992158123 0.173118953457211 -0.135011437466905
3997000.0 0.9956592600013764 -0.02962512082256571 0.013878606045429842 -0.004974429778392519 -0.00441627486294584 0.0014771185639320592 0.08375038087137113 -0.24648155299685265
4996000.0 0.9965110740561347 -0.0370100401600561 0.011693326350299462 -0.007594688395779794 -0.004317002313635651 -0.004329020354279295 -0.04373157444443315 -0.19865846646116295
5995000.0 0.9985737873463221 -0.050742674117377345 0.013963170778676731 0.0023253201842129696 -0.001944850660644488 -0.0027518417812059433 -0.13078761639099915 -0.10890955967113654
6994000.0 0.9939770861370336 -0.05829465399307227 0.007056848084704121 0.006700734015218614 0.00021903187412861312 -0.0001675997366009487 -0.14144693724842122 -0.007999055734603328
7993000.0 0.9943521268687503 -0.06919992933408682 0.007604415406429745 0.0048233412830686094 0.0014405819830183779 0.0025255368517609947 -0.1618961229291959 0.037948068268420336
8992000.0 0.9946661052706842 -0.07378682230004327 0.0002124383686774182 0.005717429618189863 -0.0013436638390147112 0.0020743990068750637 -0.15592116845577086 0.06610567667967047
9991000.0 0.9904621920485364 -0.08479555321276087 -0.0010558648934673944 0.0030056807043901197 -0.005007903767684177 -0.005725629650755856 -0.15492367823175054 0.0957414541486864
10990000.0 0.9901005174223606 -0.09107271632038783 -0.0001466193432417177 2.8409233050140658e-06 0.004085551351492651 -0.007512276310088479 -0.14526297972672864 0.11396926264090693
11989000.0 0.9891538711034801 -0.10323050833450373 0.0033104840631425843 -0.0016862657738858859 -0.0019776243124886273 0.00020898179385507584 -0.1251425483999397 0.1333679644441226
12988000.0 0.9883191058213849 -0.11192114510412345 0.00017964707324956663 -0.003749743549625343 -0.0012158002803397744 0.004531765002515656 -0.12871565120533493 0.16303566477242507
13987000.0 0.9877663248666443 -0.12008819177772197 -0.0035509402911499378 -0.008053546238098345 -0.004105316320133044 0.0006358205106083715 -0.10269970309872191 0.19417329123346075
14986000.0 0.986788896992424 -0.12518973276780815 0.002007400727952897 -0.002260956953021038 0.00027800607392832485 0.0003161775501580698 -0.08316623339307361 0.20316958140127378
15985000.0 0.9884189282066996 -0.13577664522560295 0.0030530760422047697 -0.0015523652621130311 0.002049531359859524 -0.001097301754966414 -0.06430220644460045 0.21621187116427254
16984000.0 0.9830602947296531 -0.1436572783260482 -0.0035214093965985583 -0.0053976106399820445 -0.002775721722660685 0.004274274410148417 -0.06765348101352466 0.22820221367901466
17983000.0 0.9845502733193685 -0.15196956202067835 0.0003019485338847606 -0.0037593910703710835 0.00326056460206543 -0.00495534255130338 -0.05777957132182229 0.22963846260996099
18982000.0 0.9796140196245791 -0.16177980547637802 -0.0062845881759364145 -0.0029779842490987416 -0.0012744132377630114 0.0010793644310493086 -0.022324763058722205 0.23180485856972868
19981000.0 0.9821861185105476 -0.1668131767912367 -0.004896362859866857 -0.00661213565022803 0.0025522962489086293 0.002374655422794419 -0.008774854788365127 0.2358902400306827
20980000.0 0.979219982119802 -0.17688786495770303 -0.002777457434580526 -0.003946087439222978 0.0029500777507932147 0.0042317252158398525 0.006964603809108801 0.25736095942429216
21979000.0 0.9792156918395427 -0.18626766649154589 -0.002835668573114085 0.0016369088503802314 0.0016977008558012154 0.0009991516951078155 0.007349469383705288 0.2534093022877968
22978000.0 0.9743038770799124 -0.19704419157146216 -0.006903731182494046 -0.0052183105554249425 0.0007017968778842273 -0.0006632474446750255 0.03808025319222019 0.24656249735954655
23977000.0 0.9756302905486647 -0.20284680321348017 -0.004690500787371917 -0.0036457904772303393 0.002047011919848159 0.00022952414400352817 0.04373096338459812 0.2560947176719094
24976000.0 0.9711464562700497 -0.2123720009514541 -0.010873916940080088 -0.001130822173132579 -0.002475126727130286 0.000947799933501432 0.06005222521224594 0.25749877737252985
25975000.0 0.9665739270564211 -0.22683161994908999 -0.008454970917706006 0.00021067245701716485 0.014362169232162679 -0.022331276791010397 0.05983362305128686 0.25770236424797605
26974000.0 0.970033221776318 -0.22990380569981175 -0.005623748781629065 -0.0032303352782684347 -0.0005621747882026423 -0.0016543650002941658 0.0959932372910134 0.2680201675982447
27973000.0 0.9665039339982922 -0.23808555930762598 -0.0059591611996286115 -0.0010617556415681944 0.001910348451627272 0.0018381352841032365 0.09593884562209826 0.2612398863050955
28972000.0 0.9635111926559388 -0.2488770049637578 -0.007060996822034836 -0.0017577467419437737 0.00234483210970479 0.0003066194044844252 0.11808858079063866 0.26098921038206313
29971000.0 0.9622991947539438 -0.2542661880665838 0.001594826071773841 0.0019486134432694494 -0.0006166251637488619 0.0012512545299069606 0.16173096225226208 0.2730168671034033
30970000.0 0.9593431424339299 -0.2624441368329509 0.0029408776356427448 0.0005732851354538495 -0.00214936299264033 -0.0009515351885097078 0.17470687547195615 0.25604749602334803
31969000.0 0.9571533475124244 -0.27089393255434874 0.0029879464620900125 -0.0032408058902352946 -0.001150052169720188 0.0005013101348774908 0.152126642430674 0.2545650404764367
32968000.0 0.9562151666841896 -0.2810375974903136 0.006971967090461961 -0.0050261484216062875 0.0017033750318893477 0.0004128653472222668 0.16097944386897145 0.25431349980022033
33967000.0 0.9533819901381189 -0.29082545602694376 0.011071221389159013 -0.009087136652143403 0.0007301696920310024 0.002939326351632352 0.18643930688517996 0.2403547173516128
34966000.0 0.9506340846287418 -0.30023255664080517 0.014624379859450264 -0.010484779248820904 0.0015499679132093456 -0.00020182611139906071 0.19447139068887645 0.24923028990982296
35965000.0 0.9479239912423866 -0.30679779359881937 0.016411817110381813 -0.01277012206149098 -0.0005769022802504425 0.0014262236767642162 0.2088533255137699 0.24955371415156155
36964000.0 0.9436634148785088 -0.3178663939894111 0.015016148020494174 -0.014569229133574946 -0.0005673056890660884 0.0025731651803677998 0.21409922967348832 0.2446645112929517
37963000.0 0.941315813573788 -0.3255859114779346 0.02138929933554647 -0.02059419688393775 0.00200537337042407 0.00025066509874732625 0.21687768378353098 0.23806518494246645
38962000.0 0.9392365778732087 -0.3356537272413699 0.0230937553988659 -0.02347296265296207 -0.003823455072641273 0.0005717512443140976 0.24104440626500478 0.23370564533265198
39961000.0 0.9371025463787772 -0.3407419157609051 0.022169387988622228 -0.028504526162522546 -0.002411365522481076 0.0018586039826680582 0.25674902470498445 0.22493721001879455
40960000.0 0.9323236278432144 -0.34849750849362954 0.020667324183568217 -0.020859211195567686 -0.0032135277697695687 -0.0009313525017117955 0.2550406945548177 0.22684359375348512
41959000.0 0.9306183190536581 -0.35880350754520773 0.02887981453806001 -0.03162623678541692 -0.0009924586758675224 -0.002761186634636508 0.2669631603047495 0.22043347572703342
42958000.0 0.9251369723774345 -0.36767000245507386 0.031850378846839396 -0.03896695793262294 -0.0014487508689588816 -0.00020568100271995402 0.27585070939342055 0.2023347077299064
43957000.0 0.9237611680718367 -0.3747663998366928 0.031616300951114194 -0.045430349692893356 0.0025798235167878132 -0.00037531962360707824 0.2754938868404901 0.2034907371319865
44956000.0 0.9195967506935199 -0.3837968255782221 0.03319759565034855 -0.05041423832773793 -0.001387894670169333 -0.0013425717704895926 0.29266409004342586 0.20927434342760104
45955000.0 0.9155006218603758 -0.393433183530908 0.03437693718591256 -0.053389726783022805 -0.0019281839139080074 -0.002674328975901506 0.2996943413572294 0.19524473558960928
46954000.0 0.9111873577742856 -0.40219294721851634 0.036157904668658376 -0.061684511531357795 0.0024448711356536788 -0.0013029416463324406 0.33040789860370295 0.18078605271780548
47953000.0 0.9091812192632136 -0.4090222191777072 0.03788419092549033 -0.0701286562315363 -0.002957679958893486 0.0003385439123715358 0.33830711055390383 0.1693220968263407
48952000.0 0.9039136432643762 -0.41865407873508415 0.03809835325821364 -0.07433244815867672 0.0004078881437515147 -0.0008918086712428533 0.3307052513350805 0.16728307107834092
49951000.0 0.9000291927364145 -0.42522434103804324 0.036987934526354106 -0.08557228939419666 -0.0007296222157889867 0.0020108684707586346 0.34554727932457646 0.1546847753218885
50950000.0 0.8971634694494325 -0.43280366845887214 0.03438699941324946 -0.09334433839635473 -0.002956317112249711 -0.002924242048449398 0.3547560273096631 0.15380459366828275
51949000.0 0.8926438541961472 -0.4435529522118496 0.03766192280737675 -0.10112537929452327 0.0013332563718276872 0.002107064980934587 0.35787733162023755 0.14430517074719995
52948000.0 0.8906099383669914 -0.45069712976004583 0.04272548167524201 -0.11087750843150544 -0.001303375794827464 0.003008532560345305 0.3684074184948195 0.1432921336779621
53947000.0 0.8825960440513929 -0.4594309662384891 0.0427902065464775 -0.11828962708517513 -0.001461507358747025 0.0030231937808926994 0.3634617383957857 0.12875828058541883
54946000.0 0.8812362269171927 -0.46700750436556177 0.04500655764516916 -0.12511940360220739 -0.0006484792987918388 0.0014875896219181033 0.38902324288949786 0.11849876774038105
55945000.0 0.8748497945772605 -0.47704312295863244 0.046613295482937425 -0.13707078421498278 0.001636054352900157 0.0043530102690961395 0.39279424931095763 0.11316534574365629
56944000.0 0.8695008511568892 -0.4852694791252024 0.05138745136144144 -0.1473385264889516 -0.0031369877455147584 0.0010929462668815128 0.3948957247402195 0.10606585712309495
57943000.0 0.8662188520180251 -0.4954195735178162 0.04766983838981851 -0.1600142427188548 -0.003448075077775516 0.0008772048637139269 0.39947977921197153 0.09298968248921234
58942000.0 0.8604576208082145 -0.4994887872395804 0.051817518178160764 -0.16857090553730195 -0.0008246459949187195 -0.0024961097660280316 0.41439984969542426 0.09661900943070043
59941000.0 0.8579942839469257 -0.5082693827483633 0.05204106469082646 -0.1761734550807675 -0.0009785410130390922 0.002010047796442768 0.41729282437831955 0.09406595206755161
60940000.0 0.8493661343072731 -0.5153840173966585 0.05362257100290071 -0.1811107826537362 0.0011874407631563635 -0.000847470306521493 0.40680792840422575 0.0747369564235953
61939000.0 0.8466726301667565 -0.5234002036907389 0.05227871570288992 -0.1905440752390281 0.0009070400245624592 -2.9598532453879863e-05 0.4165314537884383 0.07395063746378437
62938000.0 0.840182262346641 -0.5340270566208049 0.05529624067360003 -0.20448394909920753 0.000491974214352776 -0.0019752291932565616 0.4346535291905776 0.06693780342815048
63937000.0 0.8345420699051447 -0.5408174792593493 0.05624071458772274 -0.2259552656033984 -0.003311092002887616 0.0016196173685823691 0.4305885313452651 0.059270137007498676
64936000.0 0.8294591180907317 -0.5458215701363822 0.05683003602005129 -0.24018569860422512 0.0029653818300762478 0.002156505721474822 0.4355036405015188 0.04733501331714067
65935000.0 0.8251345188888216 -0.5576635060348784 0.05865537287899521 -0.25272249650924633 0.0024286612800701146 -0.0004843868915414533 0.43724685513095723 0.02650992002460062
66934000.0 0.8215507225054811 -0.562685594256439 0.059460653668714274 -0.26587953185978647 -0.0008248862431652084 -0.0020115151799043893 0.44128933561867395 0.023624106299062746
67933000.0 0.8179695436949416 -0.5703740042230965 0.05865440515570335 -0.27941171725586345 0.0016020733038943312 0.0017584263126583103 0.4506081028526942 0.01427336019498387
68932000.0 0.81350789415531 -0.5729296179017043 0.053121612679276994 -0.2950827560034691 0.0021772284616871527 0.002257020101687044 0.4601966764917277 -0.0009856410189043921
69931000.0 0.8027380236760887 -0.587804821363016 0.05621338879221013 -0.3073821374384917 -1.6311426135426858e-06 -0.0028384708569303254 0.4446021900614581 -0.01277645607533977
70930000.0 0.7983832270954102 -0.5928463069444887 0.05449228483679739 -0.32192086707609585 -0.0027711613595665565 -0.0022421805574585722 0.4451163212722715 -0.02608792444867828
71929000.0 0.7923180492945908 -0.6026153912895142 0.052494500299284465 -0.3400134398682182 -0.0003387715796118905 0.0034800374645611956 0.4532858144243588 -0.03251764406065972
72928000.0 0.7861782049976069 -0.6120392278536897 0.04520185849845134 -0.3524683085006168 0.0022442182896231164 0.0002624839943561016 0.4556186667211226 -0.04081173914888455
73927000.0 0.7796196346465262 -0.61782797637661 0.03990310876498586 -0.3767393888642548 0.000736052651372087 -0.0018078536394421207 0.45150853974639854 -0.04712333861352413
74926000.0 0.7746599211479057 -0.6261153927576931 0.030537419053685375 -0.3931231384615712 0.002896000823697279 -6.892723221400243e-05 0.46275230913275245 -0.04561346077415641
75925000.0 0.7668453828848731 -0.6302185309439515 0.023115281439868646 -0.4142652063240596 0.0023104678762823445 -0.002934555171464212 0.46189199558939614 -0.0750561975818472
76924000.0 0.76153348309928 -0.6392617262504292 0.010214546651335 -0.4348064134135071 -0.00031740415690790033 -0.001719627112872609 0.46456929701190713 -0.07262299882862451
77923000.0 0.7551824220599909 -0.6466611227324601 -0.000377009965143082 -0.4581531556734889 -0.0030204663193316326 0.0006359969541744837 0.4555484918247875 -0.08065886387224595
78922000.0 0.7502841121494871 -0.6559019492851472 -0.014029586786634783 -0.4863965259612329 0.0006826958375245973 0.002848331686520302 0.4619980545801113 -0.08918898798165896
79921000.0 0.739559870515409 -0.661352150268094 -0.033540338062487594 -0.5107825377096343 0.0031820236613349963 0.0006154019522622782 0.4717570605642686 -0.10880060152756951
80920000.0 0.7367115745873309 -0.6692400262678971 -0.04891289785072517 -0.536547872709728 -0.001261238607504925 0.0013726494962076215 0.47420626072368843 -0.11907239878098205
81919000.0 0.7310470535307928 -0.6752827659173202 -0.06438753305749703 -0.5652679018905724 -0.002325122947891732 0.0022559590611727115 0.4679999943544643 -0.11453057443853751
82918000.0 0.7209025425842843 -0.6839851467696605 -0.0772061978900637 -0.5951525637173718 0.00019813469047465384 -0.0019721690411056737 0.46828851354430445 -0.14022062719680659
83917000.0 0.7114642435672585 -0.6940466298097476 -0.09971180087457328 -0.6226146223847858 0.0021823930411263284 -0.0022694864967748485 0.47444081872379595 -0.14539078753722395
84916000.0 0.7075428775801336 -0.7007756477579855 -0.11744257337439834 -0.6597610413658866 0.004272002862912302 0.0026247590171612125 0.47272298201800117 -0.16233186360357135
85915000.0 0.7014311916884164 -0.7062197121233365 -0.13270274527577008 -0.690270242653755 -0.0020784190998032865 -0.0029695161918354466 0.473771624159402 -0.16439553589548084
86914000.0 0.6905784381005222 -0.7176373875047505 -0.14725914737356244 -0.7254862836689688 -0.0017530510354029252 0.0012455479490058711 0.46287231267233436 -0.16862781791378526
87913000.0 0.6876275160763111 -0.7219725075546315 -0.16632522037892342 -0.7572942157404231 0.0007120702137811451 -0.003145082668225221 0.4633770352992869 -0.18033945573346785
88912000.0 0.6766473252800337 -0.7292136841018388 -0.17761246475419432 -0.7879987184767118 -1.0621127374365567e-05 0.004800494948708757 0.46703909408214744 -0.18963879349681337
89911000.0 0.6712813678123402 -0.7370083260235217 -0.1986528801768281 -0.8231174824910785 -0.0008232277513428448 -0.0038422556388948152 0.4725734991328103 -0.19672432965541325
90910000.0 0.6640617856279746 -0.7417405935592212 -0.20858114038131187 -0.8590203068747744 -0.0012096400631933409 -0.0024046089813559318 0.4595608260426396 -0.19568205071494615
91909000.0 0.6559043100934334 -0.7473164142194771 -0.2329895264273374 -0.892990334749019 -0.002558372939001714 0.0016987964750916262 0.47313938010328377 -0.21012538673011485
92908000.0 0.6449974499554993 -0.7567121194773498 -0.24775225378870838 -0.9254265577643725 0.001460507322572855 0.00048640923096922236 0.46107538632364703 -0.22622911154734188
93907000.0 0.6402790642744831 -0.7609558511962388 -0.25955495437836884 -0.9524123463866074 0.001571644838837902 -0.0018682679484094847 0.46761691434166197 -0.24644555356220715
94906000.0 0.6289412690794919 -0.7685286294639114 -0.28032388319282764 -0.9857675615862463 0.0008054401713296831 0.0010671357192547774 0.46430639396833545 -0.24498771543104128
95905000.0 0.6209686223862751 -0.7767448294676261 -0.30435951578001236 -1.019713995784679 -0.0012153114404178272 0.006638570110612566 0.45962998884795553 -0.2619974942468502
96904000.0 0.6142564221726686 -0.7827794480373333 -0.3181274656378112 -1.0600736124830499 0.002457018051517735 0.0007238618616559324 0.44988446521364234 -0.27190372126992857
97903000.0 0.6030116261661007 -0.7891194680740773 -0.33952092429188796 -1.0887526326567398 -0.0034381354559332787 -0.002957747515450645 0.44933233246668686 -0.27660697623351216
98902000.0 0.5998001252095151 -0.7962733401562871 -0.3592011929180352 -1.1288686520473763 0.0019296308918884087 -0.0007032154396953641 0.44898096970270945 -0.2738205203063033
99901000.0 0.5870171857811934 -0.800954058036744 -0.3878380804229924 -1.1568338680942083 -0.00046100418508690115 -0.0014070676161725 0.46065324198582613 -0.30548372645518757
100900000.0 0.5777490315440666 -0.8048240411909259 -0.41601605093328176 -1.1884040303709331 -0.0005978236184839643 0.0009401159166463141 0.46445510499025294 -0.30050481389404254
101899000.0 0.5715829382806836 -0.8118370052587036 -0.4368767795927369 -1.2310919548095012 -0.0059063304226652695 0.0025575748394130525 0.458198716068955 -0.3167199649497346
102898000.0 0.5610920406022448 -0.818146813670266 -0.47796555369412413 -1.2653086694521893 -0.0025037043292716506 0.0003549584784328948 0.45927467908385705 -0.32841541072614133
103897000.0 0.5522067127702485 -0.8242531777751763 -0.509762131812866 -1.2997081957926566 -0.0012184937102581886 -0.0014019053988630023 0.4619555705369986 -0.3271816467863625
104896000.0 0.5435147134976004 -0.8354407041733252 -0.555202019941657 -1.3322820832889346 0.0002020865068515974 -0.0006755684858757988 0.44013084583729944 -0.3194550077609417
105895000.0 0.535583520008612 -0.8381089412744531 -0.5989799609523716 -1.3750535827750479 0.0009767018236364437 -0.0019347690931649302 0.438810267783248 -0.3459257647313859
106894000.0 0.5243825305648289 -0.8447688020153362 -0.6525180006664297 -1.4100411282325367 0.001375905590100712 -0.002071796303339113 0.4333295492653868 -0.35184992301613016
107893000.0 0.5171082455134351 -0.8506608871883183 -0.7030838116647395 -1.4490562165713174 -0.0009687467866767466 -0.0016603748173540447 0.4405870071602421 -0.36111687489451505
108892000.0 0.5058234995372348 -0.8551497998204203 -0.7640542766792117 -1.488143023532754 0.00241605692851775 -0.0016801041236070393 0.43101695227052433 -0.3566169457336942
109891000.0 0.49426350313638623 -0.8625288601892389 -0.8193554177934952 -1.525264281995893 -0.0008224309737770313 0.0010339833065268337 0.4462843628410349 -0.3539804488154275
110890000.0 0.47594832628209605 -0.8764746836014554 -0.8996145194477652 -1.5288534124953794 -0.0013971145962715153 -0.0054804326824152375 0.43209505632619766 -0.37597290040036146
111889000.0 0.4716007175596461 -0.8679765823213359 -0.9357093645664526 -1.5855915640109357 -0.002254969200929733 0.0018361222505210058 0.41842968893359217 -0.3918673237371767
