! Created with skrf 1.9.0 (http://scikit-rf.org).
# Hz S RI R 50.0 
!freq ReS11 ImS11 ReS21 ImS21 ReS12 ImS12 ReS22 ImS22
1000000.0 0.9768762280746138 -0.0030528580335118342 0.0017835699938993867 -0.06671220196903158 -0.016235450016985266 -0.0059057594088205954 0.3302942683293628 0.3087511634290158
1999000.0 0.9932282534609429 -0.014074476142469365 -0.0012247870373056134 -0.02225886102727739 -0.004289936146610089 0.0032621316455974277 0.2526913545400134 -0.06571991742982687
2998000.0 0.9988386823443375 -0.021428886253552205 0.01063622381500146 -0.01374177787614091 -0.0041324790482242775 -0.003964295832513938 0.2010255184211031 -0.1374339652616002
3997000.0 0.998271763484133 -0.032032247209481175 0.012277856411544847 -0.01287885683542942 -0.0026016868582820984 0.005223330521941172 0.09478717851383124 -0.21925710861759326
4996000.0 0.9977957707208192 -0.03696215812011818 0.013416825148716475 -0.004494680760006116 0.002191704216552354 0.0013274063798425233 -0.026952987216186945 -0.21370499044094424
5995000.0 0.9950573270609113 -0.04760306139267243 0.008363845319496932 0.0048598232280227275 -0.0020381525668752495 -0.007299639181804799 -0.13278952549635945 -0.1293555349702969
6994000.0 0.9959019243163648 -0.05867743531888275 0.004803253179950655 0.006441272739939983 -0.0007452358726429923 0.002208134190015416 -0.14175131197618704 -0.04070407480240387
7993000.0 0.9972785321479614 -0.06921980147051651 0.007645643919949226 0.0017263788767948468 -0.0043627881245890746 -0.0042388063621902495 -0.17189574393610862 0.03167565589931462
8992000.0 0.9939604697429525 -0.07389970942066763 0.008999934166324558 0.001577963671769375 -0.00050201245932962 -0.004152667426057476 -0.16788285664709587 0.05714933698627362
9991000.0 0.9939547610486004 -0.08395344631943184 0.0021274048641232403 0.0017499654890610777 -0.001217742399966283 0.004803966933912468 -0.15636905996321224 0.08700825309464232
10990000.0 0.9902555995201844 -0.09517381648289722 -0.0012897794222011157 0.003897892426397445 0.0028605017853079433 0.004745812052657592 -0.1402332055461742 0.10440901428154785
11989000.0 0.9897048033509317 -0.10346029880149016 -0.0003522270844419156 -0.0034514090073775013 -0.0014607520797587587 -0.0013025000078619813 -0.13652340847702016 0.14013388322178438
12988000.0 0.9895728730591852 -0.1131075568005503 -0.002284555418969849 -0.004614575605161921 -0.0029162562218452027 0.0006385682134072648 -0.12586063443689272 0.16071551989507069
13987000.0 0.98676335808392 -0.12132605713096185 0.001623760782333127 0.00038519631924242446 -0.0041971290457895665 -3.678461463134157e-05 -0.10945606139939437 0.18789567803153964
14986000.0 0.9874391267844059 -0.1259092570673416 -0.0035926342519891396 4.9293793629980836e-05 1.4894592495663755e-05 0.0008726219117609173 -0.10230792766988495 0.19801175805677199
15985000.0 0.9887657949699178 -0.13455958300510046 0.0009624252294133873 -0.0056458149344406055 -0.0018943543776608386 -0.0011729689313605951 -0.07975870958760192 0.21973528181737356
16984000.0 0.9835292043824155 -0.1467620124108848 -0.001007362750223199 -0.00405415059039039 -0.00023710951692342209 -0.002450632864353276 -0.07310869419591291 0.2117258516162079
17983000.0 0.9865381516285862 -0.15062812181413102 -0.0010667013715990826 -0.0029456317554013155 -0.002306825721807379 0.0010336339307549195 -0.05760824237446597 0.21988695572990405
18982000.0 0.9808711248287341 -0.16319791989548763 -0.003229863840360807 -0.003843835766474647 -0.0006724876363127571 0.0009160954949477051 -0.037927816160948154 0.241955651710125
19981000.0 0.9805377656593487 -0.17100889626207177 -0.00448672964508939 -0.007651258633974939 -0.003948278020791227 0.00010079123288219334 -0.01408794836054944 0.23995237896149413
20980000.0 0.9813586257961151 -0.17919508497880335 -0.00652292258305904 -0.004843251876788816 0.0027374540179912824 0.0020010958563205774 -0.00145452744444062 0.2508115801914253
21979000.0 0.9770947865303159 -0.18653100784662194 -0.0025027009973555016 -0.0012056340985289763 -0.000705860715714637 -0.0004389368451278846 0.007260729723511917 0.24668427876644694
22978000.0 0.9746685723170738 -0.19519351132247487 -0.0056860479812832375 -0.002225728978794324 -0.0038619815917782176 -0.0027415025419769696 0.018253028716720684 0.24902045554433191
23977000.0 0.9769707104944967 -0.20283683482266804 -0.0036622804978072594 -0.007288193713491746 0.0014197518645976612 0.0024202856485694957 0.04423651768644698 0.2515294680787455
24976000.0 0.9712222141131398 -0.21239236634392103 -0.01171358768383623 -0.0026025346693522074 -0.0038070027410912915 0.006211366298917123 0.05861803909903042 0.2593083386875064
25975000.0 0.9727206615326909 -0.2284463274390822 -0.005364575320158757 -0.0008555548043045367 0.03202224211464934 -0.002088315272098214 0.06844351108052711 0.25553186110723997
26974000.0 0.9691228333392676 -0.23142123968311554 -0.0052384796558324655 -0.0004501433072182482 0.003480984597334836 -0.0025201208255989697 0.08966982492142966 0.2727717059022254
27973000.0 0.9685841088121956 -0.2400936969382683 -0.0052108613671303745 -0.0017962551468397158 -0.0039129500849000055 0.0022914352229729392 0.09959043377390994 0.2585709837273403
28972000.0 0.9647772077746427 -0.24635962721713084 -0.0036727618919180065 -0.0028880857067398237 -0.0005229553533991549 -0.0028672277907391954 0.11615942020727844 0.2606603495549503
29971000.0 0.9644407058951101 -0.25707187212439575 -0.0015111128274749063 0.00033273072542341724 0.0008339796794921144 -0.0005590503392175253 0.14894800919533036 0.2636985241099157
30970000.0 0.9607529950147023 -0.26160226944405357 0.0015000632596327134 -0.0017559529241696883 -0.002888768832286493 0.002538081036553036 0.1759111393798799 0.25580060041773256
31969000.0 0.9593207823822445 -0.271302417664344 0.0008347574370420096 -0.0035941341429095346 -0.0004113693184910607 -0.00014958649176379624 0.1539211747008681 0.2507765719294863
32968000.0 0.9571998416854856 -0.2810512041733346 0.007599442250189415 -0.009141533502412822 -0.0003406796620778824 4.6859720697629484e-05 0.15715651716347218 0.2457356210178884
33967000.0 0.9541780425935572 -0.2907865910273853 0.00877344758274907 -0.012941723793651081 -0.00430646340880356 -0.0014719818834265652 0.1881989775238305 0.23913536209432668
34966000.0 0.9507492033038607 -0.3005593175482572 0.01143809817692794 -0.011928439974068599 -0.00029043511831495914 -0.0012652857233741222 0.1930393541839779 0.25187600218606127
35965000.0 0.9495329764396668 -0.308148566575649 0.012959040610578143 -0.015288370002501458 -0.0020908993880471385 -0.0005391839244201384 0.2092521318491683 0.25284616817657785
36964000.0 0.9468503813339875 -0.31675814816304676 0.01767365693760903 -0.014045142227179626 -0.0007724842696234282 -0.0032822656297145356 0.21454932058401543 0.24910672461203723
37963000.0 0.943618950075446 -0.3236438866957213 0.022119525399546074 -0.02278173796594185 -0.0021854300207322457 0.00267068664807054 0.2264379811404913 0.23987525854497482
38962000.0 0.9399347203794288 -0.33627961464418976 0.025403462376279825 -0.024926525327388403 -3.6388690052721416e-05 0.0009250014465588299 0.23934593797826922 0.22826847451696544
39961000.0 0.9381729622142051 -0.339305849279413 0.026037184527736106 -0.027740254494842322 -0.00021110731102989694 0.0010437580974372014 0.24904735014766363 0.22167021460815844
40960000.0 0.9340027508519916 -0.34974337001137334 0.022348649309148278 -0.025825462787270746 0.003075476981715451 0.001893744564253168 0.2667838365673213 0.22206152457015324
41959000.0 0.931569007458289 -0.35928154682947255 0.029256174220356587 -0.031997494390782276 0.002455412110009754 0.001388545942710376 0.2681878674762102 0.21446604961989374
42958000.0 0.926394308399961 -0.3676544420419235 0.03153126770389811 -0.04224170314079573 -0.000181970216515015 0.0002447338623698783 0.2767672653200416 0.19676667978157714
43957000.0 0.9237150096748886 -0.3751068809703716 0.035253869261549345 -0.0477577311306723 0.0017770633701064686 -0.0027971768398558283 0.2891232610095352 0.20267432439313116
44956000.0 0.919976255391111 -0.3825044122602367 0.03333529363724871 -0.054395826467463534 -0.00022554533734068177 -5.3123934154541855e-06 0.30073717608583317 0.2003862379628865
45955000.0 0.9162444166323724 -0.3925034667260957 0.034785362952375144 -0.05828221905110964 -0.0016174892040882322 0.0037972812297034334 0.31119770294731014 0.18984770213336186
46954000.0 0.9130289107312479 -0.401303122681485 0.036152164572543756 -0.06646011692767109 -0.0008108219986595389 0.0033317605785828535 0.32818766133828026 0.18155894823805924
47953000.0 0.9122068021428674 -0.40807923654883954 0.03453647577129086 -0.0766996321290985 -0.00042740255218131544 0.00048003192363727 0.3383922761888905 0.16953092166829514
48952000.0 0.9055095828513151 -0.41835013493297374 0.03923055767829662 -0.08012312474791433 -0.0023123230671248927 0.0002926946673021713 0.3336904625868692 0.16805485523352576
49951000.0 0.9004355963812269 -0.42617528061419047 0.037015758060869756 -0.08903295542993706 -0.0013825780311123698 0.001487977237690632 0.3580733248851625 0.15698688036165587
50950000.0 0.8969336725558978 -0.43447127344438935 0.04088804324858624 -0.09764148660662507 0.0009679102021464853 -0.002681197763120943 0.3464752582376503 0.14340042510102108
51949000.0 0.8932888576465972 -0.4427309372795597 0.03843601902001495 -0.10601701910685403 -0.003227479190193986 -0.0015556206710714451 0.36170100556453494 0.14950550165664225
52948000.0 0.8899343689566664 -0.45036321963466325 0.04139627036923928 -0.1141730774664362 -0.001799544639189742 -0.0021952890384784097 0.3712010501888668 0.1419863163254911
53947000.0 0.8844779963602022 -0.4607648386114572 0.04260372971699487 -0.124203409174673 -0.0019124213229918658 -0.0018545134183300053 0.3649130834105811 0.12416165577497057
54946000.0 0.8794072656297046 -0.46787253882086965 0.0436542151752424 -0.13278957707378106 0.0009603791984136558 0.0020312443477962824 0.38410651136586205 0.118904746723194
55945000.0 0.8757920011503562 -0.47723904073121937 0.04537540370766747 -0.14356532260910432 -0.0028489276760141173 -0.0014161525982890407 0.3814940948575079 0.10621816578858245
56944000.0 0.87181458192219 -0.4849854158475667 0.04574745244486666 -0.15237962579178577 -0.002104021754491556 -0.00221071242178314 0.4056531067549899 0.10244330261166314
57943000.0 0.867145226538922 -0.49469516807399855 0.045757056726857856 -0.1662818077412412 0.00037165071304159344 0.0001759395267746142 0.400027436176044 0.09652091679745399
58942000.0 0.8606218544174962 -0.5017790423174225 0.05027215356904671 -0.1753705708463372 0.0012159002911260955 0.0008794735356953478 0.4188613930681635 0.09426617205995705
59941000.0 0.858060744410346 -0.5077349362994069 0.050615807559855015 -0.18723320237221208 -0.0016471797476931046 -0.0004357481164453621 0.41872916463438126 0.0822673673122169
60940000.0 0.849463517958842 -0.5147855489978209 0.050636260489292095 -0.18956149689137972 0.0043416581666121485 0.0020974549655928348 0.41933778829983404 0.07430494758522888
61939000.0 0.8472473875206183 -0.5232107413351595 0.05063822255722396 -0.19932135103958395 -0.002425960982162231 0.0014519703678541323 0.4198052128491088 0.06099927873110008
62938000.0 0.8425312492066803 -0.533457248116689 0.05586706285495097 -0.21624236342458653 0.0004872646016571982 0.0013095536824704254 0.4352606270469139 0.053346072245080686
63937000.0 0.8375776547196425 -0.5404307172731238 0.05398505374310189 -0.23729557619720684 0.0006969155937693089 0.0028087630607771404 0.43406831207507857 0.02984161820914902
64936000.0 0.8295672528105632 -0.5500170653255545 0.05315881951776802 -0.25003153958828345 0.0001889338814148964 -0.00021503627715690639 0.4342601506034645 0.02875325897718836
65935000.0 0.8262055091018928 -0.5598390889368856 0.05505385027452042 -0.26264633342293336 -9.640090824022265e-05 0.0006149645753551258 0.4381432840947549 0.021329848089483742
66934000.0 0.8209902856023689 -0.5624077895091254 0.05547114775670069 -0.2792972885869003 -0.0011971487462801487 0.0006238744089709628 0.43238226524588474 0.010832980249559492
67933000.0 0.8185306899883272 -0.5728248081396552 0.05316230365829672 -0.2927998502661896 0.003281452050288439 -0.002289730785869334 0.441400453180736 0.012433788612117629
68932000.0 0.807210670784973 -0.5630863159240099 0.05252245178176523 -0.30396161573087177 0.0009600721215499585 0.0009743405810631936 0.44528968338831504 -0.011226826736623216
69931000.0 0.8050918426528371 -0.587227099782409 0.05031378865683952 -0.32348348294539686 -6.191615132156267e-05 -0.0006917527064620169 0.4485015548118914 -0.020038524851045365
70930000.0 0.7995966500124221 -0.5931435355172576 0.0496031546493496 -0.33556536879291154 -0.0010730609811289659 -0.0001692116031796615 0.44881685684351774 -0.03834032905903707
71929000.0 0.7937619802980325 -0.6037661320323837 0.04090765267400337 -0.3527616241043562 -0.0013130508264638538 0.002270968747566243 0.45493424002725724 -0.03995700762159078
72928000.0 0.7877388368305062 -0.6142628162333458 0.03807544830940545 -0.3701792452005506 0.0007355413004192747 0.00026097984527070743 0.45300254153932934 -0.05054367071066545
73927000.0 0.7819025774278923 -0.6172250192827726 0.02737157645491155 -0.3905480604185233 0.0015260326400598522 0.005217252535048687 0.45922397869167386 -0.053186356440623854
74926000.0 0.774300156985963 -0.6279903366895967 0.021595405597574252 -0.4106124621466892 0.0007380015474615668 0.00011858130384210157 0.46031343482430287 -0.050122645586024805
75925000.0 0.7673809638848562 -0.6335716433775656 0.01144033615783429 -0.43495074211386947 0.004899358985983377 0.0009782163493956449 0.4627335822096025 -0.0812845789093423
76924000.0 0.7625672189757948 -0.6412421340714615 -0.0018862544896060573 -0.45445374585298604 -0.0026036591462926823 -0.0015923487438455376 0.46320981763515545 -0.08585904823258891
77923000.0 0.7554827342567189 -0.648604986561152 -0.014196005715215504 -0.4793314118800202 0.00013897951217884457 -0.0019934749794082046 0.46155453048371164 -0.09122797833976447
78922000.0 0.7502788275598161 -0.6577960696807694 -0.03350139785195973 -0.5064069453140673 -0.00029157432372666685 0.002653706187634889 0.4564440989758786 -0.10757524750191519
79921000.0 0.7426666992692347 -0.6623416168387278 -0.04797403014019889 -0.5285806656551744 -0.00040305959835929044 2.288586615571877e-05 0.45439602226505393 -0.10960080223564317
80920000.0 0.7366431299399354 -0.6724704454868597 -0.06373158133023449 -0.5591806484260232 0.0027737945449141876 -0.0006046672125337162 0.4659913025409089 -0.13658309419993053
81919000.0 0.7315953405737472 -0.6781740290182032 -0.08382911762966032 -0.5868703184064028 0.0018222459351740848 -0.002619294620511699 0.4659647580224265 -0.1405269670743005
82918000.0 0.7225037551274732 -0.686606407609702 -0.10019883962004143 -0.6183632439374104 0.001427993362344017 -0.000520112007908325 0.46738123190851244 -0.15253507420157925
83917000.0 0.7145825900892102 -0.6926456615841868 -0.12103408330685536 -0.6469590205469503 0.0006787375075118351 -0.0025381604169448435 0.47421470447049263 -0.14376312407555472
84916000.0 0.7089527190838252 -0.7012387902138976 -0.136852596396843 -0.6828368134931235 0.0013784861428779067 -0.0006546661744657281 0.47713048049432094 -0.17141393160492654
85915000.0 0.7024508866816446 -0.7072397842388192 -0.15747334291137186 -0.7128697505416521 0.001952679958294701 0.0010466812477207203 0.4590449093831992 -0.17959424432417212
86914000.0 0.6935087103306327 -0.7176590590862368 -0.17337319737481655 -0.7483603373222241 0.002032862004325175 0.0036815530334046577 0.4588980285914237 -0.17202518322299468
87913000.0 0.6870622481333709 -0.7242218652746673 -0.19156264990058064 -0.7790548911007924 -0.002305687747504479 -0.0001895966156188745 0.4526835982829848 -0.18325944730509597
88912000.0 0.6782851365522168 -0.7302222425962801 -0.20695931587702973 -0.8111372969588514 8.704282086040622e-05 0.0004979572009486992 0.4727454623522254 -0.2062505997552022
89911000.0 0.6721553887148229 -0.7385075049528106 -0.22320355482099632 -0.8484158013782338 -0.0037555017205879553 0.00407436679281099 0.4655088401361941 -0.21385805468126587
90910000.0 0.6660324901780479 -0.7437961909362188 -0.2396384310708777 -0.8800513708522294 0.0013754019915246335 0.002171698464384518 0.45564978023199626 -0.21462925055204737
91909000.0 0.6545816131628511 -0.7480511181257063 -0.2610833724880831 -0.9140009029116158 0.004112983732867233 -0.00038412011550884885 0.4625720852508507 -0.21823819071528178
92908000.0 0.6470401055900941 -0.7580112791898019 -0.2808071540827582 -0.9478452142707385 0.0003748022936132182 -0.0030817056990434747 0.45818799893971146 -0.24275715837977463
93907000.0 0.6433578448366906 -0.762369649007021 -0.2969506085947261 -0.9800582328388563 -0.0012217466910015664 -0.003288055628107092 0.4586469384728111 -0.24992271187212536
94906000.0 0.6265456542119043 -0.7706091472855592 -0.3150979516667393 -1.0071542117627394 0.0002090850515246494 0.0004608562895110956 0.4499519377838927 -0.25013944481532685
95905000.0 0.6239782426528493 -0.7762930996246596 -0.34146358087649964 -1.048083172073666 0.0009566364822893599 0.0009647349571120761 0.4599263985737084 -0.27425586943585784
96904000.0 0.6128277190883562 -0.785253285440413 -0.35765999737482235 -1.0849730492329483 0.00159354842591008 -0.00012071551103527083 0.4535129030307021 -0.27485105243688807
97903000.0 0.6051266757106085 -0.7899706028602761 -0.3851555270700995 -1.1165306825212433 0.0030591295455859174 -0.0029653708633867867 0.4482119300535298 -0.2890698099174137
98902000.0 0.6007643806554165 -0.7975929387448925 -0.3991724321526588 -1.1592791573876118 -0.0021680204085715742 -0.002129559311457923 0.44423245817522944 -0.2927995872821425
99901000.0 0.5866830555990128 -0.8041487758680017 -0.4330612743024967 -1.1840018716891867 0.0015525552083186494 0.0015912907459112037 0.4588488925091555 -0.31917208530371427
100900000.0 0.5826901675545705 -0.8063943647008123 -0.46147176915567256 -1.2141845260389106 -0.0030519157750570555 -0.0005923724511436127 0.46165132565095574 -0.31935030233070905
101899000.0 0.5709771391666119 -0.8133524683672582 -0.4929418142998332 -1.2530361892981339 -0.0006971477220409007 0.0003249490264921303 0.45549313039686357 -0.32140633360477794
102898000.0 0.5608634631639516 -0.8215882205562216 -0.5321412980965038 -1.2869957028926586 0.004408596593834408 0.004081955844363295 0.4545984664067065 -0.3354707521776982
103897000.0 0.5535132856672216 -0.8284693741967031 -0.5734891812550792 -1.3251696641986561 -0.0014671392419234172 -0.0005614169812753977 0.45164363864280227 -0.33109178522501864
104896000.0 0.5431668200880255 -0.8363695713196785 -0.6170526321049584 -1.3497772362183853 -0.0019791201497095044 0.0021016421658345713 0.4357325831911279 -0.3437550070756597
105895000.0 0.5329890313935773 -0.8378511490587908 -0.6663730556084225 -1.39382093252616 -0.00033680445232834135 0.0016199796682822307 0.43595516221380776 -0.3548873146635881
106894000.0 0.5247544615050714 -0.8452639064242141 -0.7246380073739388 -1.4323107495474323 -0.002951921984267624 -0.0015890390493935292 0.4353673243922915 -0.36540060722513484
107893000.0 0.5164964382867161 -0.8521579295782774 -0.776985837480274 -1.4727008287347696 -0.0034633218014793856 0.002017821051604324 0.4229144806858785 -0.37953059839121495
108892000.0 0.506309884397874 -0.8547726065445777 -0.834632243784098 -1.5089797747272566 -0.0006792203622956895 -0.002286923445748002 0.4364528393130524 -0.364173292871093
109891000.0 0.4924106928518407 -0.8625357194517629 -0.894351736515215 -1.5391031467683443 -0.0020006707423395114 -0.002093620728772685 0.4319718305125538 -0.38070116660792286
110890000.0 0.4858139635133669 -0.8788566422536914 -0.9765591941916264 -1.5616687066211583 0.0011595184623168322 -0.0014641751988663815 0.42812375112673023 -0.3801737588855622
111889000.0 0.4743542086992287 -0.8686808631916146 -1.0212732440247914 -1.6084281428273628 -0.002824962388022668 0.0005814472329612247 0.41459078881434575 -0.4024877200515545
