! Created with skrf 1.9.0 (http://scikit-rf.org).
# Hz S RI R 50.0 
!freq ReS11 ImS11 ReS21 ImS21 ReS12 ImS12 ReS22 ImS22
1000000.0 0.9668017681451727 0.0029860910780211557 0.00617131179565413 -0.03125375586616303 -0.016006537505860285 0.007798221618105501 0.35669848305489255 0.3006586663033988
1999000.0 0.9958982649870505 -0.011929799409147417 0.0038435497726132467 -0.018952354217467146 -0.00906067013777922 -0.0038820841916238583 0.2718513880403543 -0.06628362134662458
2998000.0 0.9988986354904882 -0.02094083045728846 0.011119700077935474 -0.013646618046489093 -0.0032152388027533326 0.006011110842553922 0.20128366910480397 -0.1431102964908807
3997000.0 1.000703365700105 -0.02998751571774915 0.012335146627119873 -0.005773620324151322 0.004195057640783611 0.004147318121027496 0.08622645683011448 -0.2169055551855102
4996000.0 0.9955043420868487 -0.03762409287930551 0.0115915178616452 0.0017610523547186895 -0.0004297535807068262 -0.002054931429627437 -0.04633532691633611 -0.18129487523368182
5995000.0 0.9947057701812922 -0.0519489633244229 0.012119361129524516 0.0016355403789176965 0.005184079793802695 -0.004911708741658712 -0.10874768675123955 -0.10902493503439602
6994000.0 0.9954090727136307 -0.06186271103499941 0.005850436236571439 0.0041956048269959625 0.0031396560482726326 -0.0013596065450876135 -0.13838852183478895 -0.02283229065210384
7993000.0 0.9938429825179766 -0.0674016111642194 0.0006022309027139808 0.008079278537197261 -0.0008675525582510803 0.0007486713513364898 -0.1464962675617418 0.030012647000365586
8992000.0 0.9946255146544216 -0.074058054473414 0.0029001559109469942 0.0030036416423234002 -0.00038602538164007834 -0.00394777266768372 -0.15595765425843522 0.06729052257522142
9991000.0 0.9924838125829027 -0.08368128294705843 0.0051396735186602085 0.0032773265664079 -0.0015545800143256664 0.0006311416172771453 -0.14411442094287097 0.09902112431850586
10990000.0 0.9924629665721642 -0.09283959719203486 0.005187126224522393 0.001927929101956828 0.0015196533718598324 0.005126743683732886 -0.13682592610123592 0.12473732259247479
11989000.0 0.9908046176116799 -0.09849215039470369 0.004597219139553346 -0.004371629543216625 -0.0004046090873815505 -0.0012099267981924644 -0.12558741451539268 0.13269717823427496
12988000.0 0.9894195074025779 -0.1116581044986882 0.0017472434479693553 -0.0031020957675945726 -0.000672816187640391 0.00560934690668834 -0.11255497981293391 0.1656656931271832
13987000.0 0.9868730152814413 -0.11808829103393882 0.00023983262857059972 -0.01072123433724121 0.002367444385156501 3.6900932394852548e-06 -0.0889130190281056 0.19177876999174784
14986000.0 0.98551329476092 -0.12546053887368797 -0.004694642683679379 -0.003446820936366679 -0.0008947470038346881 -0.0010150552044898094 -0.08879525151477699 0.21074916066041044
15985000.0 0.9886664460174183 -0.13503692437732503 -0.00288815484089811 0.00011483929112378742 -0.00037331242409786375 0.0017283985636970935 -0.07117874206433922 0.22526593477518583
16984000.0 0.985472800356957 -0.14428112654334743 -0.000408547173395188 -0.0021279548361774043 0.0014510335403658354 -0.0001357577935051581 -0.06634056651402975 0.22438162726891786
17983000.0 0.9862819392230248 -0.15082162944508237 -0.00046858009717721 -0.0029401685115888164 -0.0014178458432847986 -0.001361434255180917 -0.05045260602610138 0.2323791075277315
18982000.0 0.9826303235395525 -0.16295611440370805 -0.0030763406995912234 -0.0034377641583213034 0.0016522231941114927 0.00019315502022990795 -0.01939505672539112 0.23688908986270107
19981000.0 0.9812104209135093 -0.16834004914973089 -0.004362278189682254 -1.6304406797047872e-05 0.006452846444422078 -0.00410289845051146 -0.011179685156658117 0.24334064410191508
20980000.0 0.9793418627232279 -0.17831290149004478 -0.008432142210998955 -0.009071560355836786 -0.00032435995310023624 -0.000993754952202409 0.0015099605398661722 0.2661166148214744
21979000.0 0.9809567494455007 -0.18536470280859074 -0.01003646986854933 -0.002611782370202656 0.0014737908196105756 -0.0014573739038872585 0.030145105404225866 0.24136900175542036
22978000.0 0.9762377290248534 -0.19445768782024753 -0.002452255745142624 -0.0009255360716233568 0.0005631249098136901 -0.0025264432027400346 0.03163423056473288 0.2590132520469509
23977000.0 0.9759681749883358 -0.20417921910404446 -0.005005947271372002 -0.0051317973923999775 0.0005530905988371374 -0.0008632510034653749 0.05157065013056094 0.256193067685508
24976000.0 0.9730698987582186 -0.21395376009705955 -0.007015050601878246 -0.0007848378164389499 -0.0020486131123153965 0.005713560630093062 0.07306006080582582 0.24904188759375206
25975000.0 0.9705687401933726 -0.2173421899872408 -0.00325740568000918 -0.0046845551659729584 -0.024975320626236884 0.013799971035356066 0.07494472238469539 0.2712453825591155
26974000.0 0.9711696124752034 -0.22885918032223057 -0.006905382806186968 -0.0025289896000215994 0.0009240419498905313 0.0033588096562982704 0.09583694699030032 0.26619788953441825
27973000.0 0.967039079216297 -0.238308789224184 -0.002675956878483381 -0.000967152972037765 0.002127503437659889 0.0018992391828427917 0.11158566820103247 0.25919285914764145
28972000.0 0.9644489519538554 -0.24643399196764604 -0.0015327171538594424 -0.00044438772949532534 0.001786130242925417 -0.0014037545367361032 0.12551969842773145 0.2600335348808137
29971000.0 0.9637590436234584 -0.2562116944988982 0.0011052684738360886 -0.005663799611335931 -0.00013916468977523338 -0.0013993172179347908 0.15340808957643515 0.26690365187555687
30970000.0 0.9598828093248882 -0.25979326892850846 0.0012244312007876276 -0.002352957992939476 0.0009800282085537027 0.00023587281347586467 0.17566743443652647 0.2438883549157046
31969000.0 0.9592645833004638 -0.269174802411718 0.004306384867575985 -0.007399931242005736 -0.002651622905102559 -0.00014902453735511054 0.15678265457403434 0.2537171897107467
32968000.0 0.9583274295326298 -0.27826223901633235 0.00804858160228193 -0.005392897634473403 0.0004792936529369071 -0.002519119484217332 0.16797228058903677 0.2539105325478207
33967000.0 0.9548625265405952 -0.2895176376294044 0.009315813016870254 -0.01393018706397049 3.085678087037969e-05 0.0034666799109642813 0.19762412356912754 0.240562976196534
34966000.0 0.9516484350600297 -0.29677981596091835 0.01394910881139698 -0.014199977172439647 -0.0019350078649112835 0.0020131099119599693 0.20258942948863287 0.25260058115030193
35965000.0 0.9487090997894174 -0.3071777811899052 0.01807068210572354 -0.012876034040180347 0.0018992246820623347 0.0020803236903773467 0.21392938113045895 0.25272583463733744
36964000.0 0.9445981227402358 -0.3145676588964966 0.016001826196703477 -0.013441523594462585 -0.0003524351327185896 -0.0033641800603693363 0.22506926461631196 0.2588861344898033
37963000.0 0.9438696713396848 -0.32308578737870103 0.02331927691865381 -0.024299047948245625 0.0013866975705078926 0.0012805233903554864 0.23188907676432563 0.23842562186641914
38962000.0 0.9417579287064723 -0.33116867261788974 0.025715914189178887 -0.02098907827192009 0.0013246101544773532 -0.0024059222944965374 0.24346731721873782 0.23749895002780638
39961000.0 0.9374238002935783 -0.3414711015549418 0.0282132269417272 -0.02609942878425883 -0.005031897029921907 0.0016086570894889584 0.24778773230456375 0.23178681427846984
40960000.0 0.9337085465946846 -0.34889282615302014 0.01942305537128663 -0.02433675445091094 0.0027331716899425765 -0.00021713894970142448 0.27364161533192116 0.2271849385116383
41959000.0 0.9324319498681968 -0.35744875322483993 0.027369200740316443 -0.03174970999735686 -0.0012637988810968142 -0.002100813160740012 0.2748844565106547 0.2186990858001971
42958000.0 0.9249900478704355 -0.3678421395784467 0.03105859748820487 -0.0389034022081061 0.0013110316861798907 -0.002557486183018847 0.28567307421071714 0.20431770203043612
43957000.0 0.9258859201098152 -0.37084137222187197 0.03028765944132273 -0.04458420744217008 0.0012193967643158194 -0.0027979576637390553 0.294477987547957 0.21410956801531608
44956000.0 0.9215411164806787 -0.3798918719695699 0.03257627249127168 -0.0510090871757613 0.0011162526475518772 -0.0021616110455244778 0.3081677541534178 0.1985210488085297
45955000.0 0.9178119968223261 -0.390158890357524 0.034226513258959534 -0.055121932874167855 0.0007353972453732082 -0.0024873718897797524 0.31015528584028157 0.19105908133698646
46954000.0 0.9123783341808123 -0.399792576372356 0.0346838227385505 -0.06342201554382206 0.0002186143497206229 0.002019281281335572 0.32898002625332934 0.17383731480714584
47953000.0 0.9105811457373569 -0.40707998570384457 0.03470931277674228 -0.07165424922791581 0.0012724150267042977 0.002667040560774639 0.3409796816264614 0.16545262801755978
48952000.0 0.903889333443718 -0.41967313223349306 0.03755985792670209 -0.07681510553091724 0.001876997776099887 -0.0029069051389778917 0.3381857293692514 0.1633722468199158
49951000.0 0.9013499229190186 -0.4254606814382254 0.03642266825848842 -0.08565903630430417 0.0003116454576581228 0.00012220235670828608 0.36265188159409417 0.16431966308468107
50950000.0 0.8990621217434546 -0.4334891649697344 0.03766475896796759 -0.09355853550523814 -0.00035763576120051194 -0.003218870742831177 0.3625621989431416 0.15525703624156226
51949000.0 0.8946151369995888 -0.4409378795343022 0.04000654285552184 -0.10308850034780453 8.618789854343702e-05 0.0027230460939214134 0.36070986140096334 0.14937754366737266
52948000.0 0.8926592889805262 -0.44823468096610014 0.041508806417590416 -0.11157348679138339 0.0008333230167450276 0.000976840502647165 0.381199993483745 0.13311860670091447
53947000.0 0.8864533495252391 -0.4556693582736108 0.041465495711226236 -0.11943055870581146 0.004284979435293589 0.002056965620716844 0.3830976436200355 0.13002340628047046
54946000.0 0.8814865533142935 -0.46485391533909587 0.04466321840332953 -0.12792954232743306 0.0025776115469660597 -0.0008257383905864116 0.3926622321376566 0.12511210861332756
55945000.0 0.8766046408667154 -0.4733535918908155 0.0464432235004212 -0.1413314032170484 8.814800567766644e-05 0.0038752559077248113 0.39097343074978236 0.09977869907142056
56944000.0 0.8735403000968169 -0.48186014117455617 0.046041134118055396 -0.1482387003016528 0.0009602762488231615 0.0022468850614898216 0.3998780435630792 0.10470577448318746
57943000.0 0.8675801599980605 -0.4931950154530556 0.04707273340377378 -0.16377709451976866 0.0028852905962370966 -0.0013010492090100893 0.40691046493259014 0.09631002728477116
58942000.0 0.8631545443855495 -0.4973372965428739 0.05092964278223401 -0.169805578000471 -0.000912348603538894 -0.001741215151013978 0.4231584415680472 0.09584612014443548
59941000.0 0.8584921785115704 -0.5069580620391175 0.05297011910923482 -0.18366237906540217 -0.0011939300616299778 0.0007921168277503248 0.42916596486200065 0.0876118375430971
60940000.0 0.8511065534981964 -0.5158665430849549 0.051287127369281635 -0.18357456638697828 0.0009062251542391776 0.0015039059873290547 0.41222032288709404 0.08896607579380991
61939000.0 0.8487665435048513 -0.5198195139621323 0.05305126775219383 -0.19357195164686186 0.0031842504155980196 -0.0012381819281768887 0.42565567824140454 0.07004305849696957
62938000.0 0.8438981783877405 -0.532054586855384 0.054883095842250866 -0.21025766883940358 0.0002962169163089833 -0.0018138723616113114 0.44850214291596247 0.06361852533719721
63937000.0 0.836759118083202 -0.5395995254933252 0.05652310100685031 -0.23063113450663897 0.0003346310407742784 0.0012327509143676687 0.4346603145424156 0.03618659181973771
64936000.0 0.832397132096355 -0.5433297028239514 0.05428090949074964 -0.2434389991786588 0.00047645745543522703 -0.0005666798410885892 0.43662696848312443 0.050650353308113225
65935000.0 0.8299832944981476 -0.5539530102337212 0.05710426694980601 -0.25391084497936534 0.0016813185566313144 0.001319079695366127 0.4457113051333309 0.021841451570874467
66934000.0 0.8237278054166078 -0.5601358156389743 0.05719193112862356 -0.26892513361905906 -0.0009960996801075366 0.0022375960700997096 0.43887974293673115 0.008818843733095614
67933000.0 0.821798346834424 -0.5697789147179876 0.05685208115202742 -0.2873617634466584 0.0009324303233195061 0.0007451697501940623 0.46020233561192536 0.009364459523581408
68932000.0 0.8186029220585433 -0.5684993520332405 0.05431228720399259 -0.2961682752967999 -0.0010966378960856203 -0.0004066392411621195 0.4523323219665935 -0.009015456811498988
69931000.0 0.8061937149167923 -0.5854931570169388 0.0533517542050865 -0.31497429132587956 0.0001638527462549001 0.0015308857679280736 0.4547005396626689 -0.011342507770230027
70930000.0 0.7989814361668955 -0.5931012871531178 0.048004272469655294 -0.3276991341704599 -0.001891927980302163 5.208715970159255e-05 0.4638472583718555 -0.03425883498125835
71929000.0 0.7969420564344275 -0.6006508399486891 0.04542375100627911 -0.34510424124771283 0.002723031474328424 0.0017751776998139563 0.45938544117306573 -0.026409308135347604
72928000.0 0.7884804584532203 -0.6085766886082636 0.039938528840983936 -0.361936178755686 -0.0021650711500424526 0.0015022723718599942 0.4720912727741089 -0.04113391125059666
73927000.0 0.7838087818375284 -0.6150364880975518 0.034361941040097106 -0.3837247665382787 0.0022503121378818817 -0.0026714384239022756 0.4683736462760361 -0.050736121689488704
74926000.0 0.7785293485430796 -0.6256680040749152 0.02530970244814165 -0.40307757224153695 0.0012519797811517397 0.0044475123091552255 0.47233113943447647 -0.05822404918432878
75925000.0 0.7713249102181159 -0.6310321124523026 0.016379878261997695 -0.4229215539944992 -0.0015698613675129245 0.002021357026279734 0.48263523995880464 -0.06679262942269211
76924000.0 0.7653852195000049 -0.6389400762864458 0.0012294523661753889 -0.45103950582058694 0.00027161968447539587 0.002763234230572118 0.47471317974064864 -0.08642021956997455
77923000.0 0.7607545428199348 -0.6435553281100483 -0.011806107277636367 -0.4670777906414615 -0.0005909436586191386 0.0017482471322861728 0.4709978475998319 -0.08423961115962933
78922000.0 0.7527413598931615 -0.6552511762631136 -0.020983392909049763 -0.4965774424431546 -0.001734487217768988 -0.002162380025896465 0.47171792219816644 -0.09824698431017898
79921000.0 0.7455702675096177 -0.6597916577266167 -0.04371965343063603 -0.5184887702052041 0.002013887731889479 0.0030890822339887697 0.4630312188103005 -0.11914307814996061
80920000.0 0.739901614426304 -0.6704402807516485 -0.056695337038041034 -0.5511383095087321 0.0015362058148431375 -0.0006795562464514115 0.48133046288250275 -0.12081915823790393
81919000.0 0.7322839841533825 -0.6758057235015464 -0.07330829817329952 -0.5743712358814068 0.001821239120719935 0.002108012064993765 0.47606657291986376 -0.12854507090641815
82918000.0 0.725978700112528 -0.6836744222156657 -0.08611272769230557 -0.6079673932863429 0.00023304581593781582 -0.0014610594431761247 0.487385147587125 -0.13727322609845094
83917000.0 0.715806118023642 -0.691605157670852 -0.10409748305024125 -0.6365073348576626 0.001840108666327039 -0.001784832622687104 0.4918946486335858 -0.1468531686367073
84916000.0 0.7102143921645123 -0.7001233665107831 -0.122556154597358 -0.6673501659581037 0.0010288554660405828 -0.0015846156921204633 0.47445010666600795 -0.15555507044970815
85915000.0 0.7041570309565156 -0.7036945821693561 -0.14188353110357071 -0.701122172416892 -0.000380759890536317 -0.003044360008059949 0.47594362182939876 -0.16963890190612024
86914000.0 0.697569129309596 -0.714307712682883 -0.1532523377886294 -0.7351152121996387 0.0027721883346100073 0.0015674053178588482 0.4771289463443354 -0.17126671642308186
87913000.0 0.6914875088325496 -0.719640249866942 -0.16944539970885097 -0.7651534620750975 0.003509129512297816 5.0422729205118325e-05 0.4759040141395383 -0.18314864816829543
88912000.0 0.682082322317596 -0.7277711030116785 -0.18506865686839175 -0.79832676655736 0.0024978057568776214 -0.0012232375235452077 0.47281584634085355 -0.18868604046400037
89911000.0 0.6744384276531641 -0.7364114691215284 -0.2045763251955449 -0.8342510017509639 -0.0010761093312422099 -0.00034917472629393445 0.484816915651167 -0.20391841701643618
90910000.0 0.6689168907396348 -0.739650769558323 -0.21614072302702675 -0.8657329253819299 -0.00041457325058859664 0.0006955064071569756 0.4768827022755188 -0.20318023454656925
91909000.0 0.6588844418092995 -0.7457220441381948 -0.2371676095816054 -0.8984181268559464 -0.0022483608155489526 0.0003543923546199169 0.48018401464729105 -0.21229187816591144
92908000.0 0.6516086522965016 -0.7546557120259124 -0.2548040248800278 -0.9343857705353492 7.661751801297617e-05 -0.0016864559413701061 0.47623533292982 -0.22431812256307662
93907000.0 0.645417434302493 -0.7597734149589515 -0.27125348702931285 -0.964556622849814 0.004640928666343809 -0.00021966505497526077 0.48200909023250615 -0.24494754050251608
94906000.0 0.6306575536221802 -0.7672158201218785 -0.29160247318161153 -0.9957916013340178 -0.0025306254602782624 0.0006738449415224774 0.4653031803189572 -0.24276266105615188
95905000.0 0.6251611110914115 -0.7754502614094291 -0.318575934373211 -1.026962283608914 0.0017712226015458858 0.0007372772082561782 0.4720750613477014 -0.25353943492593806
96904000.0 0.6171730023906392 -0.7811431687726164 -0.3297931441248291 -1.0741113277329588 -0.004041927573493154 0.007306664883435927 0.4777316397408936 -0.26031629446977966
97903000.0 0.6078562272359622 -0.7879347717104902 -0.3588424930455081 -1.1006683143367417 1.2693974394127406e-05 -0.0029069579172416793 0.46684999314014525 -0.2794579407246219
98902000.0 0.6029918000279385 -0.7942810056328092 -0.3772756482931529 -1.1401830778787156 -0.0018372104612867219 0.001002315707069699 0.4641846468317763 -0.2868280042580555
99901000.0 0.5924534497346216 -0.800008383553289 -0.4078082542027075 -1.176974277802255 -0.004893033800624199 -2.9652942705969354e-06 0.4800812015293091 -0.30803022541980335
100900000.0 0.5834268011957413 -0.8046483346670799 -0.4357107105561799 -1.2030816155721227 0.0002506259773942092 0.00022124353277824262 0.4763068906742264 -0.3044957456275056
101899000.0 0.5738054846321736 -0.8144688876108384 -0.46895357336426735 -1.2382337333932092 -0.00011681558490293639 0.0003820276406295033 0.4624157316807953 -0.304231595747573
102898000.0 0.565853322089739 -0.8175545159437418 -0.4977761233007072 -1.2763936280837191 0.0006465453326733896 0.001036917582585162 0.4650117825177769 -0.33564190290343626
103897000.0 0.5551024397661181 -0.8247307185225389 -0.5442142147260441 -1.310683677738498 -0.0010461322509670147 -0.0023497195866925666 0.47114625085095657 -0.3190439984548957
104896000.0 0.5485237911571386 -0.8360233893376428 -0.5835733208017168 -1.3444281843715031 -0.0002825249313783512 -0.0030974384561470556 0.45232939908185504 -0.32131463238428465
105895000.0 0.5403661658779858 -0.8368642246447897 -0.6305867270362763 -1.3891793474169116 0.0030973961510417838 0.0007320490760683632 0.448275730648362 -0.35582069478415274
106894000.0 0.5312045364708035 -0.8442979597712166 -0.6819185075456436 -1.4258883052759503 0.001737965944627568 0.0001286208708058104 0.4476963346589567 -0.36330866773163484
107893000.0 0.5214368203552476 -0.8493732331824504 -0.7340584733745362 -1.4645703788743119 -0.0025864198722479357 -2.867611727501769e-05 0.4409276813548271 -0.36269246560696033
108892000.0 0.5102618802804563 -0.8552088284423011 -0.8019529086137572 -1.5028491306481617 0.005137537541413882 -0.0006840090489628095 0.4387201275182169 -0.35765022019062087
109891000.0 0.4979386945221254 -0.8607975366267038 -0.8528444299018465 -1.533279359538044 0.002196097866316245 -0.0003530355160394426 0.4559079231663432 -0.3746774453768891
110890000.0 0.48030071537574776 -0.8682381028073722 -0.9228384055929584 -1.5362228705701026 0.0017948377922993334 0.002026322113666545 0.43505312331083396 -0.3726009407750983
111889000.0 0.4760166265425762 -0.8683607383501545 -0.9781814177010032 -1.606931545326202 0.0015447270998598796 -0.000972036772534088 0.4353858424246528 -0.38655883291702886
