! Created with skrf 1.9.0 (http://scikit-rf.org).
# Hz S RI R 50.0 
!freq ReS11 ImS11 ReS21 ImS21 ReS12 ImS12 ReS22 ImS22
1000000.0 0.9879543395661128 0.01058056456482364 0.0027968776368171326 -0.06290097369403967 -0.002622879374560319 -0.0062185045699513705 0.2898725146979826 0.2752227925003085
1999000.0 0.9960296765918851 -0.008937833589568442 0.005104691767937432 -0.013091650122824539 -0.003448364665455342 0.002543795439601829 0.2502032739734494 -0.05743049445170253
2998000.0 1.0030336379411615 -0.023619284520888875 0.008694531619862318 -0.01648716500527651 -0.001835556919822896 -0.004814136004828933 0.20772594056086205 -0.14533747881088763
3997000.0 0.9999814780656073 -0.033362424163769985 0.01296470445999009 -0.008620316504833976 -0.0024699852750386534 -0.0019452507019899075 0.08725375799751435 -0.23662490547013684
4996000.0 0.9963023384481406 -0.038579474550680955 0.010182180799456948 -0.0011421155324967344 0.006274996043795731 -0.0020121039308266205 -0.053793712776393596 -0.20539798696426131
5995000.0 1.000197977280771 -0.04714229352783311 0.006613478585548048 -0.0013398856692260711 0.0006980755158221395 1.258056188276342e-05 -0.11594981515296332 -0.10401007652142957
6994000.0 0.997368640282777 -0.060200364150429925 0.008304410696090829 0.005560065064102418 0.0018962360956558328 -0.001553530793235822 -0.1314745913622148 -0.019816698290548728
7993000.0 0.9979175059950586 -0.06624155364997278 0.0001398918579447967 0.009058812911687147 -0.002651593371215397 -0.006720747556881345 -0.15503128900894325 0.0411385282371102
8992000.0 0.994687189763789 -0.07057504924246269 0.004150010765290022 0.004674967190695238 -0.006079292660016258 0.0023680268560707777 -0.15198974158702952 0.06166898432816925
9991000.0 0.9935050027869567 -0.08265749751292377 0.0032437673590919283 0.00459484410627714 0.0017003705673560518 -0.0066002876149202205 -0.1415969289175538 0.09878235934901142
10990000.0 0.9935499872203486 -0.09440228924366828 0.004140315841542621 -0.0007335926219607325 0.00470168015876822 2.709500681394185e-05 -0.1331577871937192 0.12503707661998575
11989000.0 0.9930585269125262 -0.09781621427617933 0.0019009289937476925 0.0036364604348087417 -0.0001852465468384073 9.915419406886313e-05 -0.12387183657121646 0.13524262281349705
12988000.0 0.9916938246261238 -0.10631409362549722 -0.006191060991880386 -0.0024792143009867164 0.0007330739303419531 -0.0028812267706714795 -0.10424693856178721 0.16452290772258726
13987000.0 0.9908385286384468 -0.11776467875215363 0.0019951388004058536 -0.00459721549376523 0.0005570037484835695 0.0018277476883684612 -0.09266676042210596 0.18318449362454786
14986000.0 0.990944032339087 -0.1254984700327082 0.000989654474955212 -0.0014065784335507649 0.003083975266058319 -0.0041834752238946666 -0.09474311801413354 0.2150174758291055
15985000.0 0.9913809692207395 -0.1323157488999214 0.001125996913438666 -0.0033956128798387185 -0.005995842042123841 -0.0007694937474737518 -0.06047812497907418 0.21410131770595314
16984000.0 0.9898177347832097 -0.14139174179079775 -0.001225617589971454 -0.0051966165160854975 -0.0035558911669423734 -0.002055338261907564 -0.05375064522024313 0.21725956388856063
17983000.0 0.9878982731377546 -0.146532731867124 -0.004161251299049121 -0.007454152113819653 -0.00021054249616611184 0.005304355646417775 -0.04517092828087883 0.22812954088835954
18982000.0 0.9840064797418365 -0.15739090396550445 -0.0054700364368289595 -0.005664931662214784 -0.005733684551776436 0.0005958205224404792 -0.015737426873922537 0.23945248635125496
19981000.0 0.9863583122077669 -0.16628950313427907 -0.006800101132718211 -0.007396855309880308 0.0036788808227434934 0.00200496220753663 -0.005255310823276144 0.22893442113625195
20980000.0 0.9826530817920484 -0.17680806828193674 -0.004655611124247938 -0.005287441649113383 -0.0027827223927239025 0.0013539508618236335 -0.00540660934262808 0.2623656892542968
21979000.0 0.9819259479553808 -0.18450111426743962 -0.006415407633353936 -0.003627609411927372 -0.00017917572052159232 0.0012548971453647379 0.029008835203064305 0.2398448078666108
22978000.0 0.9768184690395963 -0.19141343617452575 -0.00799941183133356 -0.003419748822811505 0.00040599223424056167 -0.0029677495855001575 0.030818377233518393 0.2527941680564102
23977000.0 0.9784546983278904 -0.20160369714138895 -0.002250097670285733 -0.004143147802912022 -0.0005110789580893942 0.0011980339408577954 0.0393264180949381 0.261517066455293
24976000.0 0.9753683383349112 -0.21167019918683436 -0.0063013280152789605 -0.0027356622975726577 0.0024738012809172732 0.002758793009765694 0.06053632786702943 0.24773499468711624
25975000.0 0.9743357249817488 -0.2244696890947415 -0.0017954276894665857 0.00021966486145416446 0.027107996038332787 0.0009927769296624533 0.08172704851153421 0.25492007990708254
26974000.0 0.9721314531452041 -0.2264476764084668 -0.004439141461922553 -0.0020128920872068876 -0.0015941042290662309 -0.005571661671186896 0.08991921563042998 0.2623187388868135
27973000.0 0.9703698118317944 -0.23339653428345442 -0.003322421197032333 -0.0037815941403474594 0.004473500814176286 0.001910192415036795 0.10795959265472273 0.25678870104197793
28972000.0 0.9689706005537787 -0.2410281180286844 -0.002631816461153516 -0.0012671133227937362 -0.0012099361332062037 0.0025656176968835436 0.11737462625195656 0.25109875760985656
29971000.0 0.9659042246165138 -0.2529165758367198 -0.0009441629314767113 0.0006037728551916713 0.00022563064711582492 -0.0007356803225016244 0.1541528967389206 0.25565953928809243
30970000.0 0.9638586149819779 -0.25611499942413224 0.001190577141182838 0.0011470451433543932 -0.002179149248024959 -0.0012655800161713428 0.17504022207593492 0.249708064588646
31969000.0 0.9614998998242621 -0.2658812241696166 0.006299287898502945 -0.0022443125888731165 -0.0033187867228808856 -0.002404164010800751 0.15448696997470257 0.24867234697093954
32968000.0 0.9604179985327781 -0.2750460140036438 0.0060260069468647745 -0.006604936645474919 -0.0010549445578310046 0.004025842621835054 0.17112866235248525 0.25430615041608623
33967000.0 0.9579075018828337 -0.2830281670516011 0.01103393555220095 -0.005521094923108635 -0.00048339325389904554 -0.00042711789179908274 0.18737108974587427 0.2408071029422586
34966000.0 0.9544845870164261 -0.2932864162420116 0.012205957887255642 -0.017733924698851683 -0.0004068436073231888 0.0019949664850558908 0.19482006532752674 0.25058592784866873
35965000.0 0.9523668026960249 -0.30232266554552417 0.015433816983389484 -0.017641627710991932 -0.0023011163782401603 0.0009444496102465644 0.21770966802899253 0.2540270198555773
36964000.0 0.9498373474009864 -0.31010758065912847 0.013954872568114346 -0.012575396207582875 -0.0010289335451328502 -0.002036611730129321 0.21520643192342112 0.24364576004476232
37963000.0 0.947093590051491 -0.3174601735704473 0.020348082217084215 -0.02417986293813059 -7.883944800074808e-05 0.003722568421655423 0.22134688946839118 0.23956440589676048
38962000.0 0.9447820423979377 -0.3264066213274196 0.0242821248451427 -0.028686588014173165 -0.0014256371894593683 0.0015467654403077387 0.24563152276098815 0.22705323313953965
39961000.0 0.9419354581884506 -0.3370119539976494 0.02753554802746552 -0.027803284087983923 -0.0005881900328794517 -0.0007992115529090339 0.26010797730673685 0.2259818465948052
40960000.0 0.9369056563589067 -0.3435367421436697 0.02384585139123271 -0.023222758549906276 -0.0049761119988255 0.00011630074674690493 0.2630206271717295 0.21914955635864297
41959000.0 0.9349476924172627 -0.3535401275621138 0.02679543026506771 -0.032343707786985296 0.001887211489621521 -0.004506489976948858 0.27239150910445764 0.2152946604999673
42958000.0 0.9302093158093077 -0.3615461909391104 0.030321630851509268 -0.042242785445503014 0.0008961091098251552 -0.0020497168135470245 0.28701622543593885 0.2067818080526097
43957000.0 0.9287021476422938 -0.3660806196530912 0.030969697099923636 -0.046922432831631625 -0.0004578903635930639 0.0010241207168579355 0.2920963509262907 0.20251768887073845
44956000.0 0.9239549268837022 -0.3770890840004954 0.032243386664970945 -0.049407342885579006 2.7747935086304463e-05 -0.0010184183182671087 0.30682880330232193 0.1975510852059918
45955000.0 0.9211533109380183 -0.385723625623226 0.03434337498669412 -0.05680739253137142 -0.0016868768921388339 -0.0004831478172485403 0.3036007613403121 0.19186976511056353
46954000.0 0.9171248679145918 -0.3943829284967118 0.035292030205686595 -0.06402978450542299 0.00029619951982082113 -0.0014135934975653061 0.32732158538456607 0.1670945649365479
47953000.0 0.9132775179908765 -0.40323374907046683 0.038542810000594646 -0.07295051598630446 0.0008913806913548037 -0.0019068336691960926 0.3435313401480148 0.1634789182864536
48952000.0 0.9107368866701929 -0.41079341590181834 0.03552467883122967 -0.08148152847822616 0.0007899490930818513 0.001262207040441528 0.3305264688437882 0.16663319007825625
49951000.0 0.9051864905368563 -0.4191901463507581 0.03499353477145919 -0.08943265590224118 0.0005249975276015352 -0.0011026763461742866 0.3497038835672592 0.15303693214050285
50950000.0 0.9033315050159484 -0.42713538663709594 0.03756624642692785 -0.0956629747083548 0.00043473766578473017 -0.0005956208605019172 0.3585441701952718 0.13435860332700683
51949000.0 0.8993809074697533 -0.434547958103456 0.03524526287076716 -0.10419818695721399 -0.0026400421726984146 0.0012610660879088912 0.36551684298089676 0.1371172219572671
52948000.0 0.8977477357507789 -0.44078839786835317 0.040037489697499144 -0.11046370077669249 -0.001794991487941918 0.0005014716658317396 0.3744152291620859 0.1451609803890244
53947000.0 0.8896381624975325 -0.45142982328709064 0.04192720058440522 -0.12109464056119515 0.0004924245536322587 -0.0006777959617097691 0.3774277422182631 0.13115368111122297
54946000.0 0.8854187358650057 -0.4589056216491743 0.04128781957472103 -0.13244571706523878 -0.0021151519384709134 -0.0011090223459348048 0.3887467542733736 0.11705118086921341
55945000.0 0.8821466102089442 -0.4679591912580293 0.04292739417821832 -0.141957792569756 -0.003423155308460652 -0.0024451539620763464 0.39052472540392896 0.0943039978318833
56944000.0 0.8783534665416715 -0.4741653594098044 0.04494245600364024 -0.15177036747125858 0.0013094047689623065 0.0002988034575565828 0.40598179319238314 0.1081620140416545
57943000.0 0.8756064488294165 -0.48549546611409083 0.04898907484924814 -0.16358402515069972 -0.00042794452717011825 0.0008291693917470325 0.40383968841875284 0.08818763285860803
58942000.0 0.8696826612610796 -0.4889922456377466 0.04614396688870206 -0.17423050206604002 0.0029164319592059344 -0.0007594326616937369 0.42632427827165537 0.08864867393504633
59941000.0 0.8660902140759501 -0.5004821471160332 0.051214674122575035 -0.18523796663958617 0.0006462800845971359 0.0006761746113757294 0.4229844007723759 0.08202721788823546
60940000.0 0.8583291891956977 -0.5047732950708229 0.0501806970301446 -0.18739665465418223 -0.0019633264323622827 0.0020921086555405273 0.41012864926779263 0.06704251394284023
61939000.0 0.8559017099888472 -0.5130795369376637 0.0500256460870086 -0.19669735956625692 0.0007125904341283425 0.0024116953384059068 0.4160505145420213 0.06479221192866766
62938000.0 0.8485453029771913 -0.5230017008465139 0.05415361681083003 -0.2104041842210981 0.0030970706334838578 -0.0007518816849431138 0.43787563686350317 0.057712577755559255
63937000.0 0.8442053246595543 -0.531127703781733 0.053358178079353946 -0.2319849964629005 -0.00034371657407641486 -0.0025548751163861558 0.4409023992492063 0.04071630342238166
64936000.0 0.840682906745056 -0.5349754739608944 0.05402440288914141 -0.2496057054926264 -0.00040053173568576776 9.667232479642904e-05 0.4294273886483143 0.03822484024204167
65935000.0 0.8365478359483576 -0.5468250709048734 0.05306269747120329 -0.2604217439396518 0.001217251612829695 -0.0027457091821901872 0.44349160266022847 0.012265530060786444
66934000.0 0.8313883825861498 -0.5498533252075373 0.051434699166676645 -0.2745151854663663 -0.0035230426614453227 -0.0015895415676968813 0.43389331599091685 0.007540079883951696
67933000.0 0.8282959850159831 -0.5601446191613396 0.05257418872464009 -0.28873330249251805 -0.0015952231969944583 0.0009818917006833188 0.4382114495944787 0.008563056682377907
68932000.0 0.813724224081965 -0.5668545959399148 0.047492417420375285 -0.29948215651096616 0.0005649728276787984 -0.0005696210864334489 0.45984979543621896 -0.009846592856293971
69931000.0 0.8136420734099524 -0.5774310805647317 0.04879776141250876 -0.32002682691438206 0.0006123023938051669 -0.002976867126804531 0.4498584779535455 -0.02679398121909923
70930000.0 0.8072025478299506 -0.584610182376972 0.04516543962693741 -0.3329749974632712 -0.00039307214640481173 -9.98064007614956e-05 0.44739355290609095 -0.03199000587222158
71929000.0 0.8053038165789387 -0.59180821684765 0.043066324522932686 -0.35083318735372715 0.0007462341571158886 -0.000497601171789757 0.4523853796092811 -0.039523214682090795
72928000.0 0.7987911943377871 -0.6022966998825509 0.038783862986741816 -0.3669713413629403 0.0034594411133619923 0.0004969629474334487 0.46329098645314454 -0.05339157815575653
73927000.0 0.791101311197359 -0.6059634347935683 0.031471164040157124 -0.3842808199939819 0.0007626077533945422 -0.00403277879731675 0.45931067960154 -0.05645052535151035
74926000.0 0.7870352636099746 -0.6165158499855277 0.027378625440024562 -0.40741768614766893 -0.0019213352970627903 0.001059036395201147 0.4630844443442069 -0.05872197969846686
75925000.0 0.7794964439949041 -0.6223906208389545 0.016256827176800746 -0.4222981901009092 0.000567666521739971 -0.0038740744892425136 0.47956432547440353 -0.07832855115652497
76924000.0 0.7762941761750106 -0.6287772787313178 0.0028406513049843833 -0.44652278228484993 0.0007818834993211974 0.0047016723478342515 0.4830289928036154 -0.08805169629328503
77923000.0 0.7666212448436587 -0.6372516882695245 -0.009943693669606353 -0.4704949208676062 -0.0015453507193797658 0.0033469210475020827 0.4692035197950381 -0.09470017471972932
78922000.0 0.7626480885551742 -0.645726819551534 -0.02202606314794173 -0.49399189276671623 0.0033390119263532157 0.001382456163742991 0.46595913948764256 -0.09743486194343208
79921000.0 0.7536800964326927 -0.6514738765792586 -0.040664783176766375 -0.5227224806681139 -0.001825133429453344 0.0015596313854215282 0.457369410532831 -0.1169148378301517
80920000.0 0.7506785742603889 -0.6599636280859648 -0.05420546245220867 -0.55023993657134 0.0010217090588395122 0.0017846566163789823 0.47258312679090697 -0.12861320120628963
81919000.0 0.7448795378612263 -0.6680050953343438 -0.07064386201469702 -0.5750232739851914 0.0002595401425221275 0.003209077415083749 0.4676706034510278 -0.12548819155502833
82918000.0 0.7351860443648249 -0.6726594785708454 -0.09083188646422945 -0.6050770067531482 0.002259985431730777 0.0006508722959603164 0.47318164023262144 -0.1445119413362301
83917000.0 0.7290835280609523 -0.6825962630956856 -0.1091252042675481 -0.6360703892208518 -0.0007308253832824684 -0.00023038352618629898 0.4755037200889627 -0.15618630375790782
84916000.0 0.7214897339015872 -0.6898920942115636 -0.12629189235403784 -0.6684417258861359 -0.004914182596489329 -0.0021690066059745876 0.4645221250852206 -0.168320827407991
85915000.0 0.7160211713988538 -0.6969090040411396 -0.14971982914865767 -0.6991210218300524 -0.004398161249646913 -0.0011283327225731384 0.46213705610307826 -0.17670531586904875
86914000.0 0.7092457778787943 -0.7066418044660986 -0.16096504782398754 -0.7351205702141802 -0.0014560117126037133 -0.0034136118209252796 0.46412031003558263 -0.17045640284974548
87913000.0 0.700964972828413 -0.7113214180078246 -0.1811168708564665 -0.7670516430731128 0.0009219973333231724 -0.0011055118260579393 0.4648382081649961 -0.1866457885165261
88912000.0 0.6965042218175804 -0.7187047510677014 -0.19453427039611124 -0.8002952592652618 -0.000927886943553617 -0.000970484827232104 0.46459728036482123 -0.20371589484036762
89911000.0 0.6873655596010547 -0.7285876937434017 -0.2131114176865985 -0.8349732926367216 0.00035155002476185365 -0.0020467245341801474 0.47418217085625436 -0.2122812769583083
90910000.0 0.6812264738625544 -0.7320836169521829 -0.23133955396079067 -0.8727397442498092 0.002408308108168791 -0.0009251738773487172 0.4745305048769237 -0.2105266387497123
91909000.0 0.6717626086394409 -0.7379284214027356 -0.24782294319947631 -0.9062248607679824 0.002567801150914757 -0.0005745740911195429 0.47197119314276226 -0.2236320419090194
92908000.0 0.6640056282511556 -0.7478232985811475 -0.2703870251832269 -0.9344253208670905 -0.0009592894172980861 0.00012138207725977654 0.4528254434117681 -0.23358320325728818
93907000.0 0.657271693321295 -0.7506598463908655 -0.2883447558496002 -0.9679204578053067 0.004324108320453608 -0.003982634383355303 0.4667797580926757 -0.25437629495482306
94906000.0 0.6455584512659781 -0.7600255487646924 -0.30347458352961776 -1.0070123609427668 0.0008675302482092996 -0.0009093129377095165 0.4670992550567325 -0.2535847741139943
95905000.0 0.6376447950538855 -0.7677893759193914 -0.33145656300528503 -1.0368232579421255 0.0008374379090987913 0.0034560858505546773 0.46524427038708466 -0.26812126370168643
96904000.0 0.6317879754221304 -0.773605955845743 -0.34243369576287747 -1.0773971602460148 -0.0033356507414736224 0.00043731706343964075 0.4506252289851837 -0.27639753180528
97903000.0 0.6212315878282235 -0.7793784963600319 -0.3728892855127141 -1.1061251467762667 0.0008492898333342151 -0.0014627206835606521 0.44757940827136933 -0.2875838039762512
98902000.0 0.6160803688117256 -0.7857242459430713 -0.38671783945023075 -1.1468508936823243 -0.00231862310929543 -0.0025975430842704404 0.4567025499560219 -0.29808440935021635
99901000.0 0.6077136246155123 -0.7924661941797114 -0.4162105254307014 -1.1801425117542792 -0.0028112013488377856 0.0017866416570461504 0.46341523551897296 -0.30470630972937673
100900000.0 0.5985969261468692 -0.7948452247522909 -0.4455480032035846 -1.2091504184270452 0.0020867276568603556 0.002254691129200204 0.46411677266563195 -0.30418440206466557
101899000.0 0.5904570673248316 -0.8045676264231363 -0.47351402247997215 -1.2491754077273682 -0.003062706680028641 -0.0004216968780403058 0.44760852524187533 -0.32282488989046887
102898000.0 0.5809957205632905 -0.8104308239369619 -0.515497657841373 -1.2865836022431885 -5.775826108106769e-05 -0.0010135851349333668 0.4564000311497654 -0.33701218914231157
103897000.0 0.5717761153836738 -0.8166997792425046 -0.5522054191853578 -1.3217400072806766 0.003316275907955973 -0.0010266788128771276 0.45561574940812927 -0.336651282813936
104896000.0 0.5648607632310755 -0.8259300092302052 -0.5946511123015327 -1.352330833581247 0.00020052827747128477 -0.0017914650184030273 0.43562111396576736 -0.3400682834082354
105895000.0 0.553127371916973 -0.8275684311670078 -0.6420672310126294 -1.3911519114804733 0.0022620971567699224 0.0011098946281919886 0.43630516035780587 -0.3667365974512897
106894000.0 0.5446607201085644 -0.8360628257707792 -0.6975987372644339 -1.4268939810059706 -0.00019872791181791094 0.001865194989012597 0.42939172594261105 -0.3735119321012726
107893000.0 0.5361748300310448 -0.8422425208253144 -0.7467416800207961 -1.4666436214638916 0.0025800221490297755 -0.00023213408478028224 0.429495578076732 -0.38272236073364435
108892000.0 0.5280945024227977 -0.8445851069826046 -0.8029762975174731 -1.502895291440535 0.002072089402357693 0.002584753388591828 0.4202631678916882 -0.38321548250382936
109891000.0 0.5151538632595679 -0.8513213062726332 -0.8574255153019082 -1.536602128660916 -0.0011152513970715354 0.0007575990775957882 0.4409102179210072 -0.37127243600064075
110890000.0 0.5052017262837402 -0.8535811106309282 -0.9170870754992231 -1.5430125456237493 -0.0032033288141266668 5.315954265080886e-05 0.41281722429715173 -0.3922231060552082
111889000.0 0.4950496068038231 -0.8589740901123737 -0.9810987444540747 -1.6057310652256305 0.000682482976251784 0.0009675004137257548 0.41297065110237885 -0.4071680786666328
