! Created with skrf 1.9.0 (http://scikit-rf.org).
# Hz S RI R 50.0 
!freq ReS11 ImS11 ReS21 ImS21 ReS12 ImS12 ReS22 ImS22
1000000.0 0.9781363598914448 0.005429773524195374 0.005711787135028561 -0.05732549899015029 -0.020400990934244113 0.008715931666740477 0.3684470876683144 0.3168341317878132
1999000.0 0.9959472371038739 -0.01191976238898072 -0.0018780058425436888 -0.022605356730834213 -0.0033158097011431725 -0.007834878262717605 0.24469734575046187 -0.05841703191226785
2998000.0 0.9984787334351595 -0.025017527806115176 0.013190732407099507 -0.015371620513605418 8.521782364200202e-05 -0.005390489281734682 0.1839219429346329 -0.12150455687401043
3997000.0 0.9960709943567709 -0.034225290012996415 0.005948408667662428 -0.0025912498675694138 -0.005609637353428609 -0.0017224952222628877 0.10369382205257827 -0.22712246606870098
4996000.0 0.9943895511155458 -0.04309371964722136 0.011718236501167571 -0.003067741895401893 0.0027066201922064693 -0.002546872103451646 -0.03638637071030502 -0.2002618136176297
5995000.0 0.9957782322783368 -0.055695098806543455 0.0033629843704408423 0.0007700763771935944 -0.0046460400526635685 -0.004047859825580168 -0.12599242938907873 -0.10293588286228479
6994000.0 0.994372904728821 -0.05633268644940711 0.010416816838551758 0.005085623170828189 -0.003599967615619901 -0.0026576276040461287 -0.13879630948663566 -0.032664820248855704
7993000.0 0.9936679897280046 -0.06659851806659137 0.0014513028628741914 0.007937591499788408 -0.0031918266771265172 0.00016973632239298864 -0.14781029495338668 0.04125468147923137
8992000.0 0.9939945954164654 -0.07152509209604303 -0.001878563879553076 0.003500718622260078 0.0002258494400553227 0.003085518228909156 -0.14476409746910465 0.06764053766636964
9991000.0 0.9910246787225983 -0.08361037407798719 0.003479285673622716 0.004083419506801098 -0.0020636951798680553 -0.001294907081565837 -0.14535513809172768 0.09932110091181419
10990000.0 0.9903441773968171 -0.0944953741789603 0.00242812357132461 0.002092812576409513 0.001993227255240205 -0.000437146841703792 -0.13833576648260182 0.12369150089505365
11989000.0 0.9872372622086437 -0.09999120357202237 0.0025364484706744956 -0.002652989671693618 0.0006458955290184823 0.0013570620668101128 -0.12899058319596562 0.12482440820514498
12988000.0 0.9871816229006459 -0.11162976802021472 0.006462676539074997 -0.0009027921029038842 0.0018244200239071033 -0.001972653512927905 -0.11513891309915156 0.16650987366023084
13987000.0 0.9866307508034832 -0.1185881279300556 -0.0007841037552471996 -0.0012255213330384094 2.3640200733893795e-05 0.002625074992934806 -0.08435791903385204 0.18979933420032868
14986000.0 0.9867057780885151 -0.12690185199491033 -0.0007574334683057313 -0.004342152247903262 0.0005883657767838345 0.002185084587328041 -0.09189917482130974 0.2060003294244996
15985000.0 0.9857705990190639 -0.1375353158923046 -0.001129088248515182 -0.006439607966084963 -0.0021014440119071 -0.006258549643441345 -0.06566714921264985 0.22391422789971072
16984000.0 0.9821171703288686 -0.14690360630772917 0.00031890767953236224 -0.00446126321679861 0.005121600466626433 -0.0037385764157432835 -0.06728795010845255 0.22215104857157977
17983000.0 0.9843836858373334 -0.14980206724310005 -0.0009322011611120889 -0.0025096607467379474 -0.0020844662804520306 0.00029850534762123547 -0.056385212970856635 0.2288026770937594
18982000.0 0.9803936976116022 -0.16209621065419857 -0.008015539942430377 -0.006620614230825054 0.0007932782436202737 -0.004575073773498602 -0.024418689372303435 0.24180190331721743
19981000.0 0.9808303896960917 -0.16916699610920782 0.00019897567195388877 -0.00583901655361405 2.9957498901743558e-05 4.069461100873227e-05 -0.022905627568727827 0.23561685350987255
20980000.0 0.9801134333669359 -0.1778440521093606 -0.0037110297238863803 -0.006899168410876182 -0.0035651481982109604 0.0019109256233022626 -0.013361555602295265 0.2671790575163205
21979000.0 0.9763661414371017 -0.18756190082270374 -0.003821418960277576 0.0007802523791486015 -7.505174592203349e-05 -0.0014303308497260537 0.018714044961753176 0.25045508850222925
22978000.0 0.9752278445763944 -0.19503745191085725 -0.0050203975637758734 -0.006413780457307007 0.005551122038141382 0.0011432348151110818 0.010906484947531133 0.25942436228590654
23977000.0 0.9758073784508153 -0.2027868292615357 -0.0020599877363394617 -0.002868295185895451 -0.005316293859059236 0.0034725463285360295 0.029952724361123475 0.25482034931778225
24976000.0 0.972596911954918 -0.21504995601198693 -0.0033816915531857577 -0.003974148012846539 -0.0008925202733889463 0.00029787590965151987 0.05002352513708772 0.2677593475034983
25975000.0 0.9736782478523993 -0.2278671483300778 -0.007736158974261023 0.0007029547220814727 0.025967002142346512 0.006056959918331275 0.07557780749925806 0.261777489486329
26974000.0 0.9678486409269547 -0.23122818348299734 -0.003329018004535264 -0.002604780475506535 0.0002631511154273649 -0.0020694921113737865 0.08613306123272664 0.2586217050591063
27973000.0 0.9674231005209758 -0.2357207796342573 0.0007021048490991825 -0.0020745745216664098 -0.001781292033726118 0.0028997055893114168 0.10406067837489998 0.2579340958193694
28972000.0 0.9622306169462556 -0.24859267091414483 0.001980813838337112 -0.00040575006451286946 -0.003236761970220508 -0.0028039518391253185 0.11852463779105389 0.2649477725316812
29971000.0 0.9620331787592551 -0.25653733766327913 -0.0016614172401465976 0.002099534670979182 0.0004237504200613007 -0.0015137351055167713 0.15086412348820816 0.2721536520224094
30970000.0 0.9595196109782501 -0.26108921991562145 0.003446961290898063 -0.0025028634933512376 -0.0028027132840084752 0.0017771531598718292 0.17147867603264844 0.2617416675504495
31969000.0 0.9588940082469894 -0.27075795753037896 0.007223076115705875 -0.0060699537459621 -0.0001091893319178896 0.0020656980875892327 0.14700140229726122 0.24915900620214146
32968000.0 0.9571488619778278 -0.2791445266784742 0.008107946380297475 -0.006363779071174695 0.0029637495288211482 -0.00018761982133138814 0.1565310871191097 0.25293136658451376
33967000.0 0.9532405970196254 -0.2913677861718212 0.009999485872313202 -0.009151307751021636 -0.0023862680981415587 -0.0003867790254407147 0.17926901236992873 0.24402660808590187
34966000.0 0.9518618415615395 -0.29758033683204743 0.011905600879143016 -0.012104072754100127 0.004451356735326752 -6.800301236092758e-05 0.19202606471695285 0.2512911821658703
35965000.0 0.9478789129708551 -0.30697628715454545 0.01908409034580263 -0.014429739452715102 0.0019274209590092106 -0.0007186136011571269 0.2093634379347143 0.2563995524726146
36964000.0 0.9458204296825186 -0.3151802858130186 0.015273216359678689 -0.013187217567418962 -0.0006372334275224186 -0.000629876029428038 0.21213804547828793 0.2526923327005626
37963000.0 0.9437188661150424 -0.323451309996634 0.021414853951110088 -0.020065487491526958 0.003558680659773667 0.001723562395346586 0.226416491489449 0.24583793732174103
38962000.0 0.9387712186644633 -0.3357882850610459 0.02348378422995113 -0.024689482262718644 0.0009738013662187208 0.0001635695423070962 0.23849207922806798 0.23139274310892496
39961000.0 0.9365360231341736 -0.34178620902111695 0.02725937379496837 -0.03170511226216037 0.0016523417785567593 0.00037102579312614606 0.24343225509296987 0.2329036080191787
40960000.0 0.9318140725564743 -0.34831038978864476 0.024262969855462852 -0.024545728578164082 -0.0019185256611752425 -0.003305888230598865 0.26673386993394077 0.2298498802589716
41959000.0 0.930468988214545 -0.36014858758018325 0.02976260863563824 -0.031063401053359117 -0.0008118342375894883 0.0011773183389285561 0.2636397638242319 0.21368765822036437
42958000.0 0.9247374006924329 -0.3671731086348818 0.031130384372476512 -0.039546250567555334 0.002961822013757014 -0.0027726093637265867 0.2789968509535394 0.2071775369942614
43957000.0 0.921686770024734 -0.3751165722830344 0.0333639041969043 -0.04677414868653187 0.002125214262513096 -0.0019965619482778182 0.27966943483190776 0.21265811238182591
44956000.0 0.9199976817057488 -0.3834649651807158 0.033369429228213364 -0.050087766856521554 -0.003809946687041025 0.004056564360047196 0.29964610341580816 0.20004130691365424
45955000.0 0.9143600676160389 -0.39335230698470897 0.03542642033271657 -0.059485475106614775 0.0024190365582941733 0.0021292152350188276 0.3002281306276901 0.1996862837447846
46954000.0 0.9116828030675079 -0.40056891551888 0.03721263676828847 -0.06512070893081114 -0.0008873970022912137 -0.0032272760672004135 0.32555474195041567 0.1889203536403589
47953000.0 0.9098598360970535 -0.4085015473109532 0.03411765820049357 -0.07422478336353898 0.0006779454955096562 -0.0016506798262131775 0.3381293980273472 0.17798140183643849
48952000.0 0.9031539146768497 -0.42099256060871393 0.03757861938869646 -0.08249517077768544 0.0016780847761077924 -0.000716153117741772 0.3252665359273345 0.1803795662092356
49951000.0 0.8994678027919636 -0.42479449765927657 0.03908715584951445 -0.0872169062755368 -0.0022327779867672747 -0.00035295177326155516 0.347353624359332 0.1652224911851776
50950000.0 0.8973783931282694 -0.43470418675982986 0.03888804445036678 -0.09685753746470276 0.0014859796101384752 0.0012457490049174048 0.34447460037943733 0.15038289229638774
51949000.0 0.8927712125701946 -0.4423966491181238 0.04107298444348279 -0.10487126934559066 0.0008762197057541549 0.001095293092953709 0.3537044358847211 0.1474726420068184
52948000.0 0.8906741168021263 -0.44984604449494986 0.04272458166906476 -0.1111961480868983 -0.00043088139979443794 0.0018475420461889862 0.36775286284739206 0.14965535942473715
53947000.0 0.882587614554599 -0.45906756708661367 0.04458377031486991 -0.1232193318246813 0.00048805251850413367 0.001151826665328934 0.359196606591222 0.13211639503994527
54946000.0 0.8790297517626163 -0.467750173465658 0.040314233544631206 -0.1299899854129884 -1.211115581293113e-05 -0.0014759900827003801 0.3814375401220287 0.13166210488464697
55945000.0 0.8755445926439784 -0.47801075183712094 0.04807329819055975 -0.1426006816555991 -0.0015833032787950633 0.001702790501105994 0.37798045954652887 0.11682960141913883
56944000.0 0.8717420940018047 -0.4849821752614715 0.04925774408553954 -0.15451249353438543 -0.0021920899506167706 -0.0007004215242302048 0.39423773525531886 0.11621235016639617
57943000.0 0.8663504739054867 -0.4941748246761855 0.04852023014017565 -0.16401567668193912 0.004411411946439561 0.0029757695794886945 0.3947516887443003 0.10388569371440465
58942000.0 0.8588874685339289 -0.49987946720522464 0.05225986571673548 -0.17488244317048746 0.0024046431803587966 -0.0017360828946665914 0.41572220334513077 0.09195664769922698
59941000.0 0.8572745356973098 -0.50759832056259 0.0515470306720252 -0.18305652550233573 -0.0005048859567866553 0.00031398304868356146 0.4211234525555331 0.09904985866959964
60940000.0 0.8494356742148003 -0.5162562640368132 0.05282871932005659 -0.1889722392945659 -0.0010165459195695318 0.0017220306632015979 0.40642595006179133 0.07703141949497193
61939000.0 0.8468935428713992 -0.5226733532405584 0.05561705644734029 -0.1963391305825035 0.0006225175897235294 -0.002311746236379289 0.4165764697318248 0.07164721754443815
62938000.0 0.8394278809346858 -0.534215135554491 0.05663010940044425 -0.2122480721320778 0.0014838518583571204 -0.0003548219688437012 0.4399676290029124 0.06887062934492175
63937000.0 0.8354859525040065 -0.5412328088147217 0.056281144080539885 -0.23319368880573402 0.001294836646826735 0.0022357127452413243 0.42582272416213435 0.0429942590141854
64936000.0 0.8285697379639299 -0.5460341471578354 0.05645483395688602 -0.24737642177034663 -0.0021154766880151945 -0.004519571613213387 0.4317367731582252 0.04332948615357929
65935000.0 0.8263280693725019 -0.5583524750058099 0.05603115228326436 -0.26256039284052274 -0.0009333257720995796 0.004097847629223752 0.43379129912689746 0.038793458466068034
66934000.0 0.8206160734282377 -0.5632143211258226 0.056525141535348905 -0.2759046534054269 0.0007119514551237775 0.0011360415558522214 0.4295756297509045 0.012892594730067241
67933000.0 0.8178405937187282 -0.5716449809749039 0.05799260950461467 -0.29191692505926287 -0.0005922311383018686 0.001731313264157204 0.4468878371941695 0.02051865543563518
68932000.0 0.8069028865766541 -0.5645156003187717 0.05454349132993921 -0.29727047972980913 0.0006250889665532778 -0.000969702928277189 0.44748030957249235 0.0009780922586506459
69931000.0 0.8004662060267616 -0.5888698629435217 0.05351414346774547 -0.31875541470093266 -0.0014447919812743055 0.0038392181371921896 0.44267996862108155 -0.013941804943343166
70930000.0 0.7949044913216404 -0.5944750188331586 0.048251382201411716 -0.33271461600478763 -0.003159925630592125 -0.0037604847665596206 0.4458388802553237 -0.023063000415580837
71929000.0 0.7932568658862714 -0.6027155681690078 0.046302277587434125 -0.35339808466353667 0.003357687227872812 0.0003316674771846686 0.4528956699934848 -0.03705981862060983
72928000.0 0.7863064877007577 -0.6104157142109776 0.044449230371829025 -0.3700763936262918 -0.0021081080587917306 -0.0018704742149939842 0.46622336434730766 -0.034435997251098374
73927000.0 0.7783709575798734 -0.6179344826356521 0.03363766644641405 -0.3890289700462435 -0.0032984089817473753 0.0012740850702085181 0.45098990216523793 -0.044043980514925016
74926000.0 0.7750860402053708 -0.6275848683610513 0.029461351880277743 -0.40641618829269405 -4.5385350096888586e-05 0.0027619151527013973 0.456499269346999 -0.04238576488888701
75925000.0 0.769756422541258 -0.629960391216372 0.019031067441291332 -0.42881265278637126 -0.0004452770908534351 -0.001993377136682896 0.4655269744300608 -0.059993696873534515
76924000.0 0.762366498304048 -0.6396917247023163 0.0012960380241374494 -0.4529239515508094 -0.0024248302341785583 -0.0013221346365304698 0.46034353332425365 -0.07255198998333343
77923000.0 0.7562697652227128 -0.6454838080563935 -0.011973506817490567 -0.4782892790191951 -0.0006898870731693226 0.0028888879123243716 0.46867962421895404 -0.08945283629924791
78922000.0 0.7495771393169398 -0.6592985538270449 -0.024681245668447503 -0.5034762105222984 -0.0004201244456268949 -0.0006896677141288363 0.47221049286198924 -0.10269638248758918
79921000.0 0.739543859474681 -0.660223889373365 -0.0464891829570769 -0.5269622383034607 -0.00014442960839520738 -0.0011897110616527053 0.4570268575907234 -0.1080137639597313
80920000.0 0.7352106836600525 -0.670051804824163 -0.05898399491238352 -0.5573777631814674 -0.003710075581024844 0.000991656636534627 0.46066313173965584 -0.1177246824451545
81919000.0 0.7303384894616365 -0.6769447144604167 -0.07264178026595063 -0.5855800731930632 -0.00022776712128110701 0.0025669507473392566 0.46559322822770527 -0.12598538577749396
82918000.0 0.7204065015887974 -0.6840308778400213 -0.09026799395914778 -0.6162123361152316 -0.001100721593164933 0.0004739141988434742 0.47933641948565014 -0.1315402065669536
83917000.0 0.713301627027324 -0.691236022398408 -0.10910994487575097 -0.6459285494528095 0.001673503145005283 0.00025368678573797776 0.4686579146741875 -0.14162891223984608
84916000.0 0.7065249748915705 -0.7000018544285905 -0.12425405919809795 -0.6815288924512266 0.0017830041217362477 -0.0004433240957488692 0.47236834677531053 -0.1580203332668299
85915000.0 0.7010250061021706 -0.7045332533276565 -0.14638291818240837 -0.7146604044253483 0.001549590875138906 -0.003478792939998907 0.46969901806339254 -0.1609967889812864
86914000.0 0.6933472920215733 -0.7169070875910987 -0.1583486329123135 -0.7512220883093105 -0.0016142808270556293 0.002833435050746813 0.4736765579637322 -0.16787643273738886
87913000.0 0.6868849635349075 -0.7227716600577591 -0.1826748000577448 -0.7755401568048318 -0.00014478269682530797 0.0009610998259260487 0.45967275439567573 -0.17119507915618593
88912000.0 0.6771709938760726 -0.7291058685114885 -0.19253549700605901 -0.8096430107823014 -0.0016762505191779394 -0.006095132125250091 0.46262614202643876 -0.19760466816027727
89911000.0 0.6703279492087694 -0.7367781392159823 -0.20947467922085733 -0.8486223340776031 0.004379255135759332 0.0047687494673578235 0.47410115318824264 -0.20054842668437595
90910000.0 0.6648145959152102 -0.7415807978414056 -0.22611760596341737 -0.8814825498813761 -0.003090537872322773 0.0008707713255721208 0.46626706758325004 -0.20858713616212513
91909000.0 0.6544667716247109 -0.7485509745262031 -0.24741828693520462 -0.917129109080095 -0.0011054640829940155 0.00045688083753994365 0.4704283391809429 -0.2154236848641758
92908000.0 0.6473642346068567 -0.756016426718943 -0.2653855989489793 -0.9471049391490319 -0.0006766915009417149 0.0003776781471296019 0.46235425283852855 -0.2238021598714499
93907000.0 0.6398172367320526 -0.7604227655360934 -0.2864259553976802 -0.9838599550909297 -0.0023454235583787717 0.0018654907401544137 0.4726687305543957 -0.23828019784719018
94906000.0 0.6279424044971619 -0.7689132741651186 -0.30075202209886875 -1.0161678246251657 0.0024105815072782808 -0.0029150472823726153 0.46103502182049766 -0.25450673713867233
95905000.0 0.621046453593355 -0.775049170804096 -0.3258147855731894 -1.0536923525445634 -0.002239965045010307 0.0013166308451619886 0.46364475833224134 -0.26263244856650436
96904000.0 0.613063315404663 -0.7839545166481552 -0.3425021985628141 -1.0896940448032366 0.0019481884174373794 0.002333765934613589 0.4655648596118466 -0.27070924334348373
97903000.0 0.6042344663548724 -0.7881483744263148 -0.3627769811661673 -1.1184901580188187 0.0075647442705561035 0.0013794276445368927 0.4607014307349284 -0.2770198994310515
98902000.0 0.5991560838342359 -0.7965568956304515 -0.3799917248332768 -1.1568264870615779 -0.001582825519665995 -0.0009342503292496461 0.45651737367674133 -0.275517396300652
99901000.0 0.5863731604586327 -0.8024917915584897 -0.4175552914823607 -1.1940681983668606 -0.0037562072461929546 0.0006576049301423614 0.47276236080076295 -0.3037302808399078
100900000.0 0.57696560523768 -0.8053525411648724 -0.44642971812682136 -1.219536612159802 0.0009469179001026294 -0.0003353988306572145 0.46844200302042843 -0.30172910719917123
101899000.0 0.5699425261272295 -0.8152446895115063 -0.47278265203131614 -1.2645683433307333 0.0008314703655187386 0.00029383719384743547 0.4582168312033434 -0.3085848744866908
102898000.0 0.5602155432750583 -0.8170775127605896 -0.503020646228845 -1.3005070609222065 -0.0022615091460478024 -0.0008348514770251886 0.46010208300040834 -0.3312897746138347
103897000.0 0.5512786586075457 -0.8258252059145841 -0.5477017968281801 -1.3360768923258806 -0.004078260882131742 -0.002092522724792739 0.4657735748913108 -0.3295601773727652
104896000.0 0.5427445509896514 -0.8365765539483173 -0.5897782676238422 -1.365996797468654 0.0016851456690039287 0.00408626079383552 0.4471502717401237 -0.31662212495454817
105895000.0 0.5312548997865941 -0.8380331588652896 -0.6401100991277063 -1.40706221184094 0.00028508786990136335 0.0023167362436919965 0.4440827036899481 -0.3484968743381004
106894000.0 0.5228535462252906 -0.8448566250729398 -0.6975479555128424 -1.4461274022232116 -0.0007756313959381651 0.0005124911641843332 0.4550680570687829 -0.354408957303061
107893000.0 0.5152449050254744 -0.8508593871276792 -0.7466564399171433 -1.485431321398353 0.000494225324641557 0.003305991168528274 0.4401292475094599 -0.37218378634722465
108892000.0 0.5049087724061282 -0.856058160583343 -0.8101572916519857 -1.5269562487455624 0.000749009774221888 0.0010502316394939148 0.44062549196134726 -0.36634361885505895
109891000.0 0.4936387564643706 -0.8627157521254089 -0.86515680611866 -1.5594610380918656 -0.0005322639448218724 0.0014324481968639073 0.4521096093026795 -0.3621545616517601
110890000.0 0.48243841130480686 -0.8633075031364514 -0.9245930750750068 -1.5622847130799633 -0.0031742426581629554 0.0029731411005027284 0.4260580745511854 -0.38067478811150146
111889000.0 0.47444889012891256 -0.8683763760377428 -0.9990418156718035 -1.6261939412441515 -0.0014265228894077115 0.002212839854868823 0.4428118060411461 -0.398034250877457
