! Created with skrf 1.9.0 (http://scikit-rf.org).
# Hz S RI R 50.0 
!freq ReS11 ImS11 ReS21 ImS21 ReS12 ImS12 ReS22 ImS22
1000000.0 1.0041639756898808 0.007495061332377761 -0.017654908141007692 -0.06311704671309154 -0.012263930545340989 -0.00806710061354464 0.33222016024130263 0.35790283844815085
1999000.0 0.9984130715792295 -0.007407079954785302 0.0002163982941880688 -0.018805863263527588 -0.001376172445486775 0.007459260577053394 0.23678611974610456 -0.037989446340048576
2998000.0 0.9990203497660521 -0.01999002918769359 0.004776403982104431 -0.01635002789455226 -0.007641930546555402 -0.004752472521427499 0.18528895962033562 -0.14335609563884485
3997000.0 1.0014953833558293 -0.029223141909291792 0.015863007471712588 -0.007960845527580009 -0.0052611639449786606 0.002006533821408596 0.08489058932357567 -0.23893772873586963
4996000.0 0.9991511758048685 -0.0345435052550951 0.011167244024100636 0.0015862208408001094 -0.0019525617385971234 0.00028713947856499807 -0.049020853062140456 -0.2074842869877621
5995000.0 0.998338521175528 -0.043731251569329166 0.010234368260637184 0.00255498072019384 -0.0019116877060415313 -0.0044412294331040445 -0.1240988931817312 -0.10038352941832274
6994000.0 0.995626471862377 -0.05531316408853758 0.010584623286464088 0.00033361890661526067 -0.0007852036484004909 -0.0011434109707203085 -0.15202338757355435 -0.030113011881093464
7993000.0 1.0011990829163244 -0.06690210971861217 0.0055073493055176805 0.008679828108108703 0.0007151174535753973 0.0010147723714389544 -0.16114117833143318 0.03278016270867562
8992000.0 0.9979423568639251 -0.07201944033915081 0.002768793033730594 0.004040340456838375 0.0022194215352928444 -0.002638067839305569 -0.15112348483620933 0.050475015941057445
9991000.0 0.9957979491471161 -0.0809976089385212 0.0017838637250562968 0.0012360085757502953 0.0048932100073572835 -0.0009092491755770441 -0.14228669003649497 0.09548244822766329
10990000.0 0.9951106628946237 -0.09382664313734441 0.003379585528150774 0.0018994875117288488 -0.0018342217447391098 0.0034529509209408425 -0.13306393500289604 0.1193316939188624
11989000.0 0.9962983161841873 -0.0983661328840023 0.0037739394731478733 -0.00027101543768824686 0.0016170291932837357 -0.00012191195316354689 -0.12091419932777525 0.1442713875095233
12988000.0 0.9935349441357229 -0.11001793689315498 -0.0013323371456565804 -0.0035800227511433047 -0.0019616465723500762 7.24327903707044e-05 -0.11834346889180823 0.17920836218115943
13987000.0 0.9917584521717384 -0.11842375742188603 0.0035436844340995992 -0.006684932851160153 -0.001802818363856398 0.002179267409255262 -0.08506051557253684 0.18876683877496656
14986000.0 0.9897925210774687 -0.12585720923375307 0.00040303887905112197 -0.006898374666658025 -0.0032120577261983115 -0.003910527256479584 -0.0798223847397867 0.20102529554882756
15985000.0 0.9928088069711172 -0.13405545472522537 -0.003193934891429606 -0.00512617034221538 0.0009356716009319387 -0.0006696768568761077 -0.06836510080935478 0.222520804997503
16984000.0 0.9891765012846794 -0.1432452194951046 0.002996567168805034 -0.004948760285065319 -0.0009182282353684574 0.0023489043395626247 -0.06352195478954212 0.2261422138119183
17983000.0 0.9891648533856019 -0.14897460337802765 -0.003200120207187718 -0.005006470586995278 0.0030089227961201583 -0.000652329491309757 -0.054728955864107705 0.22437500009643357
18982000.0 0.9868711466474748 -0.1596338458996038 -0.003452718687081822 -0.0011262229012393506 0.0035376147634839186 -0.0027252532290010447 -0.013812959664269535 0.22570799919425377
19981000.0 0.9858092729834967 -0.16728999947620782 -0.0030796681335443286 -0.0032971211669927435 0.002651413033980323 0.0008148210340407623 -0.004632335245829326 0.22866867750057124
20980000.0 0.9855240434956024 -0.17465538138024259 -0.005080087962019518 -0.003462295847431929 -0.001826000770887144 0.0036017828404443755 0.010732799975217835 0.251527039824453
21979000.0 0.9813389035012712 -0.18535826291784938 -0.0019233426108427629 0.0005464901848135464 0.0011343193284660312 0.0018566892165271958 0.01628773266419658 0.24063174896072975
22978000.0 0.9803614790957902 -0.19224720157420916 -0.009930795941665429 -0.004942344330770717 -0.0024098663963748267 0.0021146501409271953 0.03339672799011622 0.2600424640448444
23977000.0 0.9802795507780487 -0.20123532432052507 -0.004109806371229529 -0.002128318450303236 -0.0005656999689895004 0.005097664637165363 0.043303948043636055 0.2532222927514955
24976000.0 0.9771497764491831 -0.2111081464802139 -0.00780921440693223 -0.0023439269808511725 0.0006889569177278786 0.00020980076689302435 0.06511641881764677 0.2571815947381438
25975000.0 0.9767358678553544 -0.21686168362771657 -0.008360650847758846 0.0014999497755822648 -0.014220639383336033 0.021182000850465288 0.08591130279972355 0.25357963733025607
26974000.0 0.9718684920732886 -0.2292794709763437 -0.003958108700206801 0.0003132117604373046 0.0033048178394427916 0.00010154776529318507 0.08764325401091988 0.2624620132617621
27973000.0 0.9716589494917682 -0.2340579850326699 -0.004916861730192266 -0.0031237300163699687 -0.0008494007141428889 -0.00015368958388111518 0.10421700412248958 0.25006934087315263
28972000.0 0.9677685905987881 -0.24618537399170426 0.0003317801206357619 -0.004298821501870822 0.004257046710260837 -0.003471235322872447 0.11214857176984602 0.2630610004827468
29971000.0 0.968101973502662 -0.25221320265452235 -0.0010928731576256442 -0.001385859209206099 6.771149511331489e-05 0.0002491297363212981 0.14679087652830358 0.2702175733386937
30970000.0 0.9636741455253889 -0.25806955001687365 -0.0006937117904148689 -0.00019701446632010763 -0.001470610107061768 0.0031741044693437198 0.169094838277732 0.25347405841392856
31969000.0 0.9635406007386915 -0.2674572031599103 0.0020486646459163867 -0.0033645649924726206 0.0015166874740771494 0.0007182784091830106 0.15405762011861415 0.2559815520372294
32968000.0 0.9595462255959647 -0.2783047975108194 0.009257022878648585 -0.005898914794992096 -0.00197487225256155 -0.0007639142081042006 0.17092368956512902 0.24318643143778274
33967000.0 0.959411108730954 -0.28534160571434664 0.009074760834667907 -0.010918550924622619 0.00039152205636070055 -0.0010818547577674594 0.18704595370172356 0.24522271349492217
34966000.0 0.9549814194969464 -0.2951524383443191 0.012213207989536264 -0.013903260922687437 0.000687209549691082 0.001484793651055385 0.1994668048536634 0.24983194855436439
35965000.0 0.9522344553192992 -0.30211762610572335 0.017558454560691123 -0.016322473900734078 0.00018618457290934962 -0.0011617579652197629 0.20994271311563165 0.25259843441052354
36964000.0 0.950548050037411 -0.3107535108121473 0.0158179671893271 -0.013777257785472813 0.003707625107282358 0.0021097145848549 0.22404096759156938 0.24837696343588983
37963000.0 0.9483588880948968 -0.31989050623519777 0.02222093008434531 -0.023232191304021193 -0.0014689328495141368 0.0008712087131722674 0.23244158086532193 0.23742257775079015
38962000.0 0.9460957244059133 -0.328151960429692 0.022893136873703278 -0.026236410364451294 0.0024727944031152516 -0.0004127573670607064 0.24106761815764505 0.23976681622109394
39961000.0 0.9408718694170207 -0.3389212855365102 0.025634276682552665 -0.02915652993520211 -3.6271599297665664e-05 -0.004490914767567226 0.25201268859571335 0.2308510515283827
40960000.0 0.937855121021831 -0.3456819045743164 0.02223795609034441 -0.02393977246286844 -0.0029842189446354023 -0.0002840037761019456 0.26924179760983685 0.22686865574782178
41959000.0 0.935434682631476 -0.3527201882160275 0.029860601609748346 -0.03199932394916953 -0.0026652041482819284 0.000853096075881727 0.27303467065369175 0.21881809195546445
42958000.0 0.9312815362953804 -0.36248856731256535 0.030303769901992978 -0.04251870905174645 -0.0003617329265092888 -0.0008023811593195752 0.28190233284727 0.2016759675153859
43957000.0 0.9284327328105104 -0.3697582941422779 0.036416148011152 -0.04571492869019781 0.0018930717391562684 -0.0001913853321230798 0.29203504558464966 0.20299277481568553
44956000.0 0.9252167482468839 -0.3784957722557311 0.03352486378163909 -0.05108367457693841 -0.0016795208171527531 0.0018676459461981943 0.31169576179026287 0.1970776434707593
45955000.0 0.9203750794133794 -0.3869330323761666 0.03256095190958639 -0.05742701591230039 0.0007205970558044791 0.0022665663589592775 0.3162228495329086 0.1928179816777664
46954000.0 0.9164007502461216 -0.39656865482958364 0.034241520566153226 -0.06227432730080435 0.0016283507797302187 -0.0003563356820695751 0.3349978556903385 0.17584112644337538
47953000.0 0.9152588759584304 -0.40356905878462795 0.031604360206084835 -0.07517572182376463 0.004376214635537953 -0.002024569648271806 0.3366265180359037 0.16941686208882337
48952000.0 0.9083299969274498 -0.4153768140698022 0.03811824507479782 -0.0804929175435184 -0.0009298216945600637 0.0027308279736419595 0.33840826931419704 0.16674824373818717
49951000.0 0.9063980881036648 -0.4186380708703177 0.0368082665568829 -0.08598733316743493 0.0035719909943559974 -0.0020443224361972974 0.3556015791744619 0.1595109889463072
50950000.0 0.9034050436068519 -0.42716922560350923 0.03766662308181106 -0.09505002088696655 -0.0001401874757028118 0.001578638823355448 0.36010983423679715 0.14206838841539124
51949000.0 0.8988621853616332 -0.43700533076028836 0.037378036114217014 -0.10320624023887455 0.0019720621648600593 -0.0011293291654904949 0.36183692478783636 0.14036618903810727
52948000.0 0.8970507118733714 -0.4436847974806864 0.03679165358706568 -0.11181529658691318 0.0020570401788470145 0.0011333744905851035 0.37665906340584904 0.13628068101982993
53947000.0 0.890319045180368 -0.4512593422845867 0.04051872793654699 -0.11993022556204957 0.002479801080714162 0.004437073581245738 0.3739956094839308 0.1317752451818745
54946000.0 0.88562548756334 -0.46167197515789943 0.04203966419453669 -0.13140593503632395 -0.001419907661907072 0.0018127819425837164 0.39082449678377135 0.11580506542492824
55945000.0 0.8836505354006277 -0.4698306236019362 0.04152723421689893 -0.14142295209567227 0.0009182516404619693 2.7669929834788246e-05 0.3982178576032039 0.10312870781094098
56944000.0 0.8793242291737503 -0.4766511834003877 0.043477145719384894 -0.1513218915958143 0.0004678233817599709 0.00045631584197314973 0.4032586335560837 0.10121793758504563
57943000.0 0.8756762864655251 -0.48713101272137005 0.045354773181196344 -0.16246545340709276 0.0006122544976663851 -0.0027644447040004764 0.4070696156212007 0.09878949832025614
58942000.0 0.8675305101295883 -0.4919901184681418 0.04660856412615006 -0.17063511488008135 0.00035803267531098773 0.0012117664647772097 0.4233781812411104 0.08402224474542133
59941000.0 0.8664966858332241 -0.4998936186880551 0.04811654596020129 -0.18229610798738913 0.0005339995332445282 -0.0011655004240941425 0.4223900551250255 0.08690385989493182
60940000.0 0.8587713389665835 -0.5065557410251523 0.044610985209211536 -0.18239698875316857 0.0008551984695398348 0.001691685720404864 0.4200333841505039 0.07515912423675007
61939000.0 0.8562875383105135 -0.5145061628543638 0.049400227594228616 -0.19326423010192137 -0.00037390886219394287 0.0018560818910459828 0.42179335085530945 0.07349793603231226
62938000.0 0.8504709674670939 -0.5248831429190552 0.05385939800587911 -0.2116364461676067 -0.0030296888850046594 -0.0011018069654164567 0.443678652479561 0.05692138260909456
63937000.0 0.846118318591166 -0.5328009760900012 0.051719014695145435 -0.2316234343522333 -0.0032347195830725517 -0.0019608527991124007 0.43099525537284294 0.03975691483425081
64936000.0 0.8399442121999431 -0.536519708518538 0.051635672599864874 -0.2437471808989174 -0.0010864411064393487 -0.003796872010634391 0.4317804743475924 0.03442956121384721
65935000.0 0.8365289779243935 -0.5476113719763035 0.049610108558653894 -0.25646773798986605 -0.0031855232494504837 -0.0011717083766583866 0.4395384437363429 0.019482385564127503
66934000.0 0.8307328869012014 -0.5545453416617939 0.05319687133320951 -0.27210639461917824 -0.00022960267595745576 -0.00026569211324985843 0.43666908791087805 0.016840107358172138
67933000.0 0.829183272868035 -0.5630611544804471 0.05395629997771998 -0.28483516679784165 -0.0008660897361589527 -0.0018665324803378365 0.4525891588565949 0.004305676644836197
68932000.0 0.8164401361268993 -0.5704172468860756 0.04465583225842156 -0.29764917908094035 -0.0016962625709961382 -0.0043660276589180666 0.4513288964723187 -0.01047745037349188
69931000.0 0.8148011035387742 -0.5780180713316804 0.05084904031662486 -0.3148014398265647 -0.0017279246052447465 0.00017732583233919246 0.4537651131631031 -0.016431478688366398
70930000.0 0.8107969784607276 -0.5851209136571299 0.049009124389705935 -0.3272590740160528 -0.002775370216870293 0.0018009641703013808 0.4542701600128912 -0.03278807776040198
71929000.0 0.803447225903264 -0.5950540836137077 0.042190927256329676 -0.3442129557667188 0.005357202340708484 -0.0005835631410366308 0.46276888976673325 -0.04834077253277076
72928000.0 0.7992449795066257 -0.6045969509602688 0.04065724236247109 -0.3611307472146885 -0.0019996308562594306 2.1708973207941127e-06 0.4717952672501685 -0.050302423882275016
73927000.0 0.7932757497004955 -0.6089664556386637 0.0335245396500005 -0.37790315498173016 0.0018845642716869174 -0.00240355013338211 0.46810767673749754 -0.06096111672625877
74926000.0 0.785567942913328 -0.6182811043505391 0.025256657578086927 -0.39775999221611735 -0.0009937734928981425 0.005411385148922042 0.4630616539807061 -0.05701411389597197
75925000.0 0.7813509476656991 -0.6239309020259486 0.015673424876071262 -0.4197802431206287 -0.00373117625789751 -0.002017810534961578 0.471797462744176 -0.07537103187006162
76924000.0 0.776745156758877 -0.6320738122914346 0.0030140948226557423 -0.4431265048173603 -0.0010829489088112895 -0.0008987207785627513 0.4706031532079153 -0.08012753555905383
77923000.0 0.7669356931650225 -0.6385586986953404 -0.010244350222872302 -0.46563417787121375 0.00526466544105322 -0.0011923482493717626 0.4682943348525498 -0.10486781804256241
78922000.0 0.7645478793550392 -0.6478017978446128 -0.02318087110619629 -0.488667678301694 0.003346558876613258 0.0012435209653886053 0.4706388616604974 -0.10834890704068591
79921000.0 0.75465628618004 -0.6528095200860276 -0.04028623842159264 -0.5151169771240788 0.0010118923348224965 0.0034949819871821193 0.46809153952338234 -0.11595666357148153
80920000.0 0.7506985230497653 -0.6632701165625519 -0.06409691932256262 -0.539453623592758 0.0021392755123978875 -0.0012164316756212643 0.4642192638046834 -0.13276873895099603
81919000.0 0.7440825475036935 -0.6689359741503021 -0.07797781298094787 -0.569078288516359 0.00401146070035732 0.0004122655315664366 0.46826857282340645 -0.14442214039381251
82918000.0 0.7362536747929089 -0.676666082278355 -0.09155043388990776 -0.6009399716315844 0.0016215934782591065 -0.0027307646125156104 0.47383447591544775 -0.15004822290161574
83917000.0 0.7283601909529385 -0.683372949279527 -0.11247991900501633 -0.6261649978085848 0.0011660083962408744 0.0011295358865904988 0.46818789763496665 -0.15151030099683
84916000.0 0.7225047979916226 -0.691086810032636 -0.12861985372923745 -0.6615771316639274 -0.001200847928934277 -1.857529220516978e-05 0.4717174875410424 -0.1784780294405071
85915000.0 0.7154216904237161 -0.696610068328238 -0.14653333070171326 -0.6892596940975603 -0.0008187731328704412 1.603075352324052e-05 0.4675967303017433 -0.1882839730729058
86914000.0 0.7085859955719088 -0.706169346735163 -0.16474585291769275 -0.7284725521002297 0.0015744307027325904 -0.0023893502645683747 0.47235935364238235 -0.17254215653732505
87913000.0 0.7019969134929467 -0.7136326424592533 -0.18164789315301846 -0.7565762786250105 -0.000982371336836114 -0.0008906100315243628 0.4573652280486954 -0.17812004865529563
88912000.0 0.6934311710485814 -0.720088416117905 -0.19888329121262183 -0.7903619751186385 0.0032334829923401113 -0.0030352751810416205 0.46811805498507314 -0.20395090776211813
89911000.0 0.6885459037651802 -0.7281028920785793 -0.2161973476777395 -0.8312193549587922 0.0017679311001762893 -0.0007056723928236498 0.4751201901057481 -0.20676736855431943
90910000.0 0.6785774525934984 -0.7352602345426538 -0.229752119912045 -0.8592834984828471 0.0024083027861178984 0.0003059288375762706 0.4630736544177836 -0.2189217994722297
91909000.0 0.6715931507922055 -0.7389769007959572 -0.2471114034428308 -0.891988629483871 0.001173638429443584 0.0009325181977297804 0.46773099332966156 -0.2212882231137665
92908000.0 0.6626609993861112 -0.748336289044304 -0.266941908049387 -0.9291598148197932 0.0005152399837420752 -0.0020535612102429443 0.45779527536462256 -0.2303281623419712
93907000.0 0.6562980737218265 -0.754042534948142 -0.28656948401039933 -0.9595004569206903 -0.0034433199644537437 0.00034989053595413296 0.46913874132823447 -0.24073619399865875
94906000.0 0.642760278027525 -0.7629703130214037 -0.30801393418327394 -0.9925167182304497 0.002613096191258988 -0.004784083931457283 0.46078708663413415 -0.2456542273607905
95905000.0 0.6395399913808371 -0.7679591754550492 -0.3271474296534332 -1.0284715549567485 0.0008427016902708687 -0.0031298239730238216 0.46110366913976314 -0.27333969050587553
96904000.0 0.6293628909001345 -0.7768440957533407 -0.3477646029865754 -1.0665545751219623 -0.0003097485793522372 0.00024736852384503336 0.44854122257492646 -0.2759188102975045
97903000.0 0.6211275893148738 -0.7816621139526295 -0.36679180300035297 -1.098890020791776 0.0018714343475507234 0.00208605687518519 0.45172739061690287 -0.29981843382194506
98902000.0 0.6162036410636339 -0.789094837278714 -0.3836687466881806 -1.1364420975305873 -0.00017173762046571493 -0.0013032371243241862 0.45762787716694625 -0.2949413122227444
99901000.0 0.6040887490696802 -0.7938565561028196 -0.4140659117573942 -1.1670267034226414 -0.0018823701602646017 0.0028190854996515123 0.4645672564549525 -0.3043680971289836
100900000.0 0.5959580775760778 -0.7988135880446863 -0.4447693381634282 -1.1964690390953148 0.0005136391153902259 -0.0014359653258575382 0.4566117125330309 -0.3101486096738994
101899000.0 0.5858166613766121 -0.8073005063392191 -0.46617073673960924 -1.2304694332931028 0.002938947841482729 -0.006925688807674223 0.45075448445874555 -0.3122475938935806
102898000.0 0.5791063980637856 -0.811788553841201 -0.502307482231359 -1.2727236694736188 0.0020525639031891934 0.0009450580268987425 0.45055713843974937 -0.3432161903334173
103897000.0 0.5701109824110172 -0.8192932271759268 -0.5401480414404191 -1.3065617301084858 -0.0014219484763017508 -0.0025344924480540736 0.4557806355689886 -0.34475401954629736
104896000.0 0.5623353241826814 -0.8304054093925199 -0.5871792944914195 -1.3395741230486498 -0.0006243613538350399 0.0004955489126587569 0.44219353333721795 -0.34311235364490555
105895000.0 0.5520779034792289 -0.8316928310019146 -0.6316782127800199 -1.381782343712294 0.003275487544561297 0.0034263518097276302 0.43965958161995516 -0.3620663470301624
106894000.0 0.5424107201388312 -0.8380116510929156 -0.6877295032555426 -1.410834694562366 -0.0022175417509347033 0.003589677911089162 0.4295356823510909 -0.37614450167346963
107893000.0 0.5327090797660919 -0.8435915297581902 -0.7374531318623311 -1.4478361421775048 -0.002806038300827598 0.0015673507110052195 0.4398101748905965 -0.3866569846759566
108892000.0 0.5264158854817824 -0.8462207423837063 -0.7932018892771296 -1.4801980079125197 0.00044880606196208254 -0.0032322626961859223 0.4216173133455118 -0.37160166469529243
109891000.0 0.5127333068260058 -0.8557692256235141 -0.8472468001939026 -1.5182762771186258 0.0003275413765403691 -0.00015107024955973353 0.4435344523018575 -0.36895172513662444
110890000.0 0.4963073190379123 -0.8560104761335575 -0.9080733644150459 -1.5145612273328337 -0.0022008138242128688 -0.0019859590954885067 0.41747008918747514 -0.38842610272199984
111889000.0 0.48993110718235056 -0.861869712260546 -0.9751922073836721 -1.5859095410704107 -0.0017845515340546886 -0.0006091772345812485 0.4284655369262365 -0.4059191618136694
