! Created with skrf 1.9.0 (http://scikit-rf.org).
# Hz S RI R 50.0 
!freq ReS11 ImS11 ReS21 ImS21 ReS12 ImS12 ReS22 ImS22
1000000.0 0.9674807013534258 0.000890311031185315 -0.0004633969338548827 -0.022909245484619912 -0.006432660557225189 0.018079348054814346 0.3882869404926532 0.3304877994236016
1999000.0 0.9946155417310487 -0.018108211510044547 0.010396205912298624 -0.02778358253859799 -0.0026206875991649763 -0.002984354876716727 0.2719247129854039 -0.0630945858086549
2998000.0 0.9971615493228795 -0.023307738314874496 0.01280674089134761 -0.015287337859218163 -0.0011892722146191414 -0.0007327568451921024 0.19086333373639106 -0.14000109662438717
3997000.0 0.9913364000307763 -0.033774662696626344 0.014031152730543776 -0.01219652739316212 -0.005040648131909771 -0.0032924182158824435 0.0758754663895337 -0.22746545377162383
4996000.0 0.9925265063083776 -0.04252162956997535 0.010698141612770936 0.0013871568929284385 0.0019952950086286132 0.0036732114517192913 -0.029404121255629505 -0.19632272023936567
5995000.0 0.9952881160060532 -0.05425275938752905 0.006456238273413073 0.0014139806966914994 -0.00010239852537141451 -0.0027000763166210246 -0.11647306313860425 -0.09941902827482627
6994000.0 0.9904127099085276 -0.0578649153961777 0.008003866596833942 0.0008118523863430253 -0.0004568540237239685 -2.5557229992892765e-05 -0.12837873485238432 -0.026782143304657297
7993000.0 0.9915114172680252 -0.0695100194086584 0.004459556122189661 0.007508368643083577 -0.0026954953139599566 0.00045273653395867596 -0.15461867840706384 0.05084077824682635
8992000.0 0.989003908583895 -0.07364785208700038 0.003219742039089631 0.0035837020063363176 0.0008135214502231126 0.003935102391638988 -0.1444316051844387 0.06508191727236086
9991000.0 0.989031056486843 -0.08479585989869616 0.0023419408460896543 -0.0005182912258382092 -0.0007602389081263968 -0.00018456088937471025 -0.13961557548625897 0.08815260835874754
10990000.0 0.9891874082980059 -0.09139779589067834 0.006969957917816116 0.0010654337224193858 -0.0003161206302819106 -0.001574851578427049 -0.13205227917932527 0.10864725587213665
11989000.0 0.9853678370632077 -0.10027960368577321 0.002716379205684884 0.0009112963736259241 -0.0010629719195921162 -0.0004989942058177145 -0.12655097070210064 0.146423676129771
12988000.0 0.9858060767321261 -0.11029154429517084 0.0019016253633145326 -0.004181959852521168 0.0009341888018073877 0.0038018192320991113 -0.11247571018408271 0.16166434218956952
13987000.0 0.983382012720052 -0.11771353896073103 -0.0017258315187131078 -0.0038036297544866812 -0.0020232016794613145 -0.0009079827577404295 -0.0989732368524167 0.19248856058580577
14986000.0 0.9836802850612911 -0.12552698765897785 0.003630359418772914 -0.0065414859506557664 0.0004835854249885547 -0.000495690325131164 -0.09177130044981152 0.20300476878329837
15985000.0 0.985076168797753 -0.13229253565013063 0.00122306683872721 -0.007056691969166985 -0.003129116728014387 -0.0008797302958802403 -0.06036132540290243 0.2132686519106006
16984000.0 0.9801068067736713 -0.14463973895827273 -0.00016071202214169885 -0.007408914711105745 -0.001255004551128931 -0.0014110555087400603 -0.06436137348026788 0.21710171908645373
17983000.0 0.9805987077136443 -0.1486979487697489 -0.005509994870505568 -0.0034556232273646862 0.0013776009828205614 -0.0012241720210541586 -0.05612586881357083 0.22943290956521872
18982000.0 0.9790687176289101 -0.16234048518309077 -0.006325061376778987 -0.004009667208158141 -0.0008043026448915097 0.001713818751544492 -0.02412751317677427 0.23916044639476777
19981000.0 0.9784848218571383 -0.16502994963704107 -0.004796602908655461 -0.007070083804317879 -0.00016715230041430425 0.0012129442986614043 -0.00907170054743479 0.23954453816237944
20980000.0 0.9768018192709571 -0.17443078489460662 -0.009092888293527146 0.00023135899648158302 0.004341764290887331 0.004924005605437064 0.00037446919018786263 0.26013536500268186
21979000.0 0.9752084317288725 -0.18381672883313208 -0.003409593720128775 -0.005849689425059968 0.0020152182776619976 -0.000552132252103617 0.014333040548044748 0.248040910570289
22978000.0 0.9732690131694567 -0.19345660482173246 -0.003360659370166109 0.0006040370890133587 -0.0020579393252861304 -0.0019505907357620835 0.026098880664098358 0.2570866261264501
23977000.0 0.9751799585729353 -0.1989987435580648 -0.009620383565456086 -0.003716994193068162 -0.0015772264498448466 -0.0005067596625608847 0.03616944188752763 0.253414716617928
24976000.0 0.9695746729761665 -0.210802962304043 -0.005587425071195519 -0.0045558019208780075 0.0027096544051888917 -0.0005669267330876474 0.05872567872793281 0.260720080770994
25975000.0 0.9666473214394687 -0.22320856015596804 -0.002083983981935636 -0.0025477941759953237 0.013217210789991597 -0.020042305160408315 0.08392162569561133 0.2564930017849331
26974000.0 0.9672008964047 -0.2254435060474017 -0.004537637709384279 -0.0026642632717645957 0.001116728627190445 -0.0013936269141033926 0.09242554997384447 0.26437845385099445
27973000.0 0.9654015333459466 -0.23288371369268235 -0.005475180253845613 -0.003352215434291043 0.0020455851926452326 -0.0015428381933406258 0.09808616719547637 0.2551894788757974
28972000.0 0.9638203798591052 -0.2415964923943436 -0.0017175170929048912 -0.0018021132853901086 0.00012030302486300867 0.001121065714724079 0.12454290053832733 0.2599743243812749
29971000.0 0.9620424696859833 -0.25246536790913304 0.0018860553053579256 -0.0017186848699314314 -0.0022240468240520097 -0.001305208698647143 0.1425043750657241 0.26899650515969054
30970000.0 0.9597619828015325 -0.2570299090259163 0.0004570979917396262 -0.0013716198426665463 0.002390917337802632 0.0003979373289787921 0.15826748375381566 0.253912496037977
31969000.0 0.9574116810802447 -0.2667362211925852 0.0036979158986052574 -0.0037785193088090037 -0.0015225659484864756 -0.00010996743452876604 0.1468487672313422 0.24766805900768687
32968000.0 0.9560934264223164 -0.27545126852500557 0.006325021955429265 -0.004646768280379145 -3.49559888757252e-05 0.0023723903881877704 0.16561766605091705 0.24817196448802778
33967000.0 0.9541913165510031 -0.28460397848881763 0.005771208379467703 -0.008964256212679432 -0.0009267220154449769 5.670961982776722e-05 0.1934172528679067 0.24416643230188756
34966000.0 0.9513985105010891 -0.29294344818464363 0.011662949541445583 -0.012814852177208062 -4.967950369763535e-05 0.0018772156182773453 0.1911477355651022 0.25205921790788327
35965000.0 0.9479485848513244 -0.3016800773938702 0.017307303466621425 -0.01296272765795355 -0.0013788857332193113 -0.002305497701348722 0.22128827650166347 0.24912956449792012
36964000.0 0.9450242926167339 -0.3106333649018432 0.017271857042451905 -0.015490933309684879 -0.0013517697445723758 -0.0019077201351767334 0.2134939678770973 0.2522306938282749
37963000.0 0.9429155429975067 -0.3195114051794039 0.021480640307312098 -0.017771163232548362 0.001065679559801922 0.002292962827854037 0.22634438778313998 0.2274910242011222
38962000.0 0.9402777069073016 -0.32828705008444437 0.02567756654705471 -0.025826598965244668 -0.0006321402095648699 -0.00022321421548880435 0.23454727245635698 0.22635891508903164
39961000.0 0.9360497076386536 -0.3376429121166196 0.026383162705645058 -0.028385708343239554 0.0007743090673769034 -0.002583654144864964 0.2495687342586893 0.2234118608434112
40960000.0 0.9337311096818379 -0.344851898548237 0.022988021871339418 -0.025494130074250828 0.0011328938923362113 0.0003369030734963827 0.26243538684890055 0.21829149074452694
41959000.0 0.9300776382051343 -0.35543342680136203 0.03315990388735622 -0.030802582068899645 1.3628356323339228e-05 -0.0032881079638559505 0.26609592177251135 0.21405063636447688
42958000.0 0.9250989975692071 -0.3639094921288096 0.032693047491331166 -0.04192791490724962 -0.0011756914191891853 0.0010320148700696705 0.2846538678151883 0.2054805843646871
43957000.0 0.9250878093587518 -0.36808221343176273 0.03371301449216453 -0.0457416820663725 -0.0004097043349437014 0.004887528964919629 0.28016693521937625 0.20554913331556968
44956000.0 0.921077368410824 -0.3752177801082875 0.03425961064339695 -0.05382221952700244 -0.0008044932756469709 -0.0009535801891586291 0.2944987805209547 0.1925733776815232
45955000.0 0.917225882688364 -0.38763934610866274 0.03509792121029874 -0.05943708154742847 0.002368997834272489 0.0002067124124871462 0.3006100072578018 0.19211756930708945
46954000.0 0.9128546844613256 -0.3952585198651812 0.03917972123024481 -0.06546772898719112 0.000506633498242821 -0.0018936861372081282 0.3222423522807517 0.16921372113563338
47953000.0 0.9076424605993899 -0.40518475520074176 0.03861268204878199 -0.07410727939203861 0.0010525487953032577 -0.00015643980318851483 0.3321687116820633 0.1710046631074086
48952000.0 0.90512885033258 -0.41418843434917657 0.038685198222198645 -0.08362967378131518 0.000882571109333746 -0.005359341108835899 0.3346159060548169 0.15472852016391142
49951000.0 0.9006652377903099 -0.4218807573783429 0.041767793281797555 -0.08958708092029244 0.0016533694762101258 6.40908921455647e-05 0.3515256235538788 0.15298785744645454
50950000.0 0.8953637318520296 -0.4305411199885638 0.04167909573052366 -0.09610966984838645 0.002614393533058663 0.0009878209074776871 0.34605472502175283 0.1432041553521372
51949000.0 0.8934887698300876 -0.43777934237297733 0.04037419249946468 -0.10406437469387 -0.00262311200510177 0.0002157874404129499 0.3575314209934603 0.1372436288590368
52948000.0 0.8912357421666806 -0.4457402093850253 0.04512457349844228 -0.1147963795334752 -0.0005212544598849808 -0.0009094611686322935 0.3587344227251979 0.13476588187304317
53947000.0 0.8837273117379053 -0.454843588946239 0.04793550085036704 -0.12554190182737576 -0.0008277750284377004 0.0017444579607774915 0.37274477033466663 0.126335140056742
54946000.0 0.8806506698229527 -0.4617108329684119 0.048468546164329634 -0.13361859722885228 -0.00014584284603993074 0.000868276643673929 0.3819884844053839 0.11400642558175299
55945000.0 0.8765138122034185 -0.47059725371237593 0.04765002703316725 -0.1444615856771219 0.0023084673370580584 0.004939977552371679 0.3889256780981966 0.09257181756289531
56944000.0 0.8730458234471066 -0.4803787992684144 0.052426683393860474 -0.15588197579428453 0.0017176936859692308 -0.000122127911967074 0.39546394483307706 0.0937417177480281
57943000.0 0.8656286415471509 -0.48990927265488055 0.053478256353858646 -0.16416237305010237 -0.0001819158402784813 0.0023423733053345988 0.40205538319476836 0.09564331102647991
58942000.0 0.8607883660279108 -0.494288864490188 0.052594516901472495 -0.176785209825796 -0.002516538924974611 0.002184168198305165 0.4202382895243009 0.09457120797436085
59941000.0 0.8599183662227278 -0.5020302607431495 0.05750030694924884 -0.18595115884820987 0.0046605023290806485 0.0035822911977579177 0.41624631182402955 0.08988538405426523
60940000.0 0.8507928684304453 -0.5106703793386639 0.05541404077939815 -0.1895494345750976 -0.000661419794620699 0.0005329353064884258 0.4096867923912336 0.06904528790686765
61939000.0 0.8488179998104655 -0.5167264503920432 0.054681954827617646 -0.20150034667183672 0.0006455150810379151 0.0010895694678214024 0.410472936151962 0.06704313823045069
62938000.0 0.8427288573178376 -0.5279184028368131 0.05927372059577654 -0.2151563141453762 -0.0002863411982344843 0.0004727769939280461 0.44063718351600456 0.043415478922188076
63937000.0 0.8357127365035012 -0.5369223077977199 0.061413044134758774 -0.23889968728483546 9.301046030508378e-05 -0.0032739037942153765 0.4334256647784135 0.03393043063020591
64936000.0 0.8311273712713928 -0.5402160735192024 0.05970966234033028 -0.25566057275607385 -0.003409462872415734 -0.0018996670399358546 0.429282264444203 0.02978431685579312
65935000.0 0.8256936761591528 -0.5534822082522473 0.05694599045579948 -0.2680470287285759 0.0011032759587833439 0.00043490753999751925 0.44740720977492526 0.019421172288101737
66934000.0 0.8230511476671571 -0.556877818663821 0.05963564316564924 -0.2817777836481424 2.6137072606986787e-06 -0.002513815679435419 0.4376724073177812 0.013104049790359914
67933000.0 0.8189253306170104 -0.5650793855059837 0.061818232686776796 -0.2968064977305812 -0.001352160128079971 0.005776832595680765 0.4479772493092929 -0.0021554825723315674
68932000.0 0.8037763068168701 -0.5593024727540837 0.05419563319524456 -0.3058616344669866 0.0007793608546293618 0.001043439477240722 0.4419735019076185 -0.014195487794589488
69931000.0 0.8042160698009575 -0.5818268259086216 0.05420802137415035 -0.32809483681854795 -0.0018527963049513301 0.0007011870304666918 0.4496033846313589 -0.020772997184719172
70930000.0 0.7988814402720851 -0.5871519173696012 0.04998392077897776 -0.3428434646149331 -0.0032308210416921545 -0.0016281194899512813 0.4410310171671122 -0.0296034246774321
71929000.0 0.7955333038010018 -0.5974200380330934 0.0439639075438601 -0.36359596165727 -0.0018274684538384374 -0.005616604733824995 0.44952418497684293 -0.04806812229477141
72928000.0 0.7890966187012393 -0.6053662201769032 0.041905885316875766 -0.378757711930066 -0.001233380728868945 0.0009631560169851559 0.47086445394289583 -0.0496231896531101
73927000.0 0.7830554904308455 -0.6113344830926095 0.033188211227481 -0.4022281987011164 0.0009381441575117759 -0.0007490471805804492 0.4519392457977259 -0.06375481824515493
74926000.0 0.7787021526932253 -0.6206785240693741 0.0246969867425426 -0.4192585447654928 -0.0018218008854937692 -0.0006468842715162575 0.4459098417477411 -0.05971621720064374
75925000.0 0.7720071796961511 -0.626179405335719 0.01739341328744548 -0.4412096060666088 0.0030123744727882647 0.0005965785422043136 0.45829610243618935 -0.07400967456216706
76924000.0 0.7654776022315894 -0.6338376225207656 0.006887151427098423 -0.46865820591526 0.002596764816399695 -0.0031824784667156283 0.46023415095263626 -0.09257139810387434
77923000.0 0.7595692563899524 -0.6390777196994233 -0.011317527057191612 -0.49027650158341235 1.79537980288991e-05 -0.00018739566697819458 0.45797640720040506 -0.09671719666020498
78922000.0 0.7531382207245573 -0.6514533042957475 -0.021494991387939415 -0.5193042902447393 0.0013390396324524407 0.0011190202290654234 0.4600726886461642 -0.09712874081284938
79921000.0 0.7429874681050042 -0.6543106544210597 -0.04494919951311746 -0.5414380839779742 0.002411742662655064 -0.0026502924672627093 0.44908928323087516 -0.1197667722249321
80920000.0 0.7408175676001915 -0.6643960866132007 -0.053925371746517604 -0.5739498876278311 0.0050129661999185745 0.001674432360704346 0.45846741106814765 -0.13309057489345413
81919000.0 0.7336207902114662 -0.6691612221987344 -0.07573537250278457 -0.6047600288518284 0.00038847457181634404 -0.002388829556789916 0.45752273019822004 -0.13782890643463283
82918000.0 0.7234833445933361 -0.6774585030694058 -0.08528982631702417 -0.6335555872500943 -0.0031989509169502374 -0.0034319090250534375 0.4751105012240073 -0.1513177263266685
83917000.0 0.7172681374551075 -0.6853991441209137 -0.11003313987447999 -0.6625999642396332 0.0004914754031817797 -0.00244150628322114 0.46331232963613245 -0.15736277465823917
84916000.0 0.7105284024558158 -0.6935669156769131 -0.12474626295867149 -0.700272148984126 0.0037527514426126856 0.00030967186215800777 0.46073476598076774 -0.16449042197540617
85915000.0 0.7049423970583452 -0.6981554160691118 -0.14619322758031514 -0.7286815365292647 -0.0015166085567518935 0.0020231570774378684 0.46160173072268784 -0.18069810375269343
86914000.0 0.6973480283860587 -0.708673924314333 -0.1551906591402252 -0.7682596641537434 -0.005296378126699827 0.001757407880805034 0.45717502083217093 -0.18497711764459962
87913000.0 0.6899114109823336 -0.7134367649941834 -0.17726094053148572 -0.7957102898988381 -0.0011241233968799314 0.002386998492013794 0.4586447678969906 -0.19030595011379856
88912000.0 0.6821637244737837 -0.7195655805609769 -0.19546215203488468 -0.8286427073678327 -0.0015294634509734203 0.0005276042005760343 0.4712358693068884 -0.21257576772431339
89911000.0 0.6760117417168223 -0.7289430267901521 -0.20658746049563653 -0.8686034329721268 0.0015284235061264729 -0.002710276831565377 0.45931013560125483 -0.21184624278933264
90910000.0 0.6698757027589243 -0.7339601511814093 -0.2272704334388798 -0.902722220848974 0.002650619638661254 0.0017394916569053401 0.4673540436642374 -0.2203929037779713
91909000.0 0.6591047737599075 -0.7385525795953198 -0.24845140029823817 -0.9357314723380018 0.0010938379288937573 0.001742931659765642 0.4606535389435278 -0.21832227440369822
92908000.0 0.652156401873538 -0.7489021524841283 -0.26764558122351373 -0.9712372100143855 -6.726941215830234e-05 0.0016777491016489552 0.4583794229965103 -0.2386994722373434
93907000.0 0.6478828712139714 -0.7524936305641002 -0.28399104319404417 -1.000896047734508 0.00037065904833785587 -0.0009297086253392915 0.4545080944228916 -0.259833929503196
94906000.0 0.6321999709018381 -0.7610593853633992 -0.30338667100705774 -1.0382547225995438 -0.0038232017533136107 0.0023592195946032096 0.46935175122021117 -0.2563916233665231
95905000.0 0.6274927726027688 -0.7671890244804666 -0.3340467511691806 -1.0728093991633907 0.0013773169890973773 0.0014816084940171392 0.465996973579143 -0.2762313985050931
96904000.0 0.6189437944823634 -0.7756877205446623 -0.35011455424612553 -1.1127685879395754 -0.0030173966135766317 0.0006808282082701005 0.44917690179130976 -0.28114304435137655
97903000.0 0.6102839713334842 -0.7800483439008322 -0.37725488231871357 -1.1461629804664315 0.0017241926371622427 -0.0024966496279725573 0.44563246602023426 -0.29873503119273564
98902000.0 0.6060091469459751 -0.7878401892578288 -0.39863770542124954 -1.1893412130778453 0.000489076482482658 -0.0021210555907468314 0.4439262410009846 -0.2974163974409207
99901000.0 0.597057161831582 -0.7940356752121509 -0.42860474343455046 -1.2210654311057223 0.0012971768092376978 0.00045636128309915286 0.4571936209004702 -0.3179141326410594
100900000.0 0.5874424961626377 -0.7950598518396018 -0.46375822200963507 -1.2500268660482712 -0.0008571931017353423 -0.0015595723217720118 0.45323644530915247 -0.3123388875780979
101899000.0 0.5787514182551188 -0.8049949270030766 -0.49117978346704655 -1.2921569722190356 -0.0023147530975939985 -0.0025864888052684453 0.45176910506302126 -0.31775568320890313
102898000.0 0.5683276820739225 -0.8099770774142208 -0.5303578001251487 -1.3285641552452079 0.0008922097596821483 0.0032936663514733736 0.45491158885236443 -0.34904602614672087
103897000.0 0.559603615409887 -0.8166453523079545 -0.5751285701363481 -1.3665767105204594 0.002600599009272968 0.0028621665457251888 0.45320657105949763 -0.3352953987016412
104896000.0 0.5516267357639792 -0.826311152171733 -0.6208666323933025 -1.400177045521601 -0.0009862809857713174 0.00272825797353457 0.42903482400839077 -0.3434592640621143
105895000.0 0.5408431305834696 -0.8284971236731435 -0.6727466985403499 -1.4464075864582777 -0.001456826985907815 -0.0007964661925874509 0.4322747115238722 -0.36326797697148183
106894000.0 0.5329478144297457 -0.8358680630958197 -0.7285949079200064 -1.4849372508473337 -0.0002527338931980148 0.0033951077629274114 0.43692791026908717 -0.34744106737242286
107893000.0 0.5234171189019416 -0.8424567296101271 -0.7812771517438855 -1.5234762993666693 -0.0018840303969953024 -0.0026709430836687107 0.4370684531005219 -0.3738449827793826
108892000.0 0.5164130818798476 -0.8453520046189975 -0.8410807350892326 -1.563121627852982 0.0009663254184680449 0.0005255506998440379 0.4217362249060892 -0.37641114482299876
109891000.0 0.5028637198185495 -0.8543005584191381 -0.9047034330519821 -1.6003156436853192 0.0016358089682492472 0.0003691620124434988 0.4444812937254856 -0.3761927683198051
110890000.0 0.49667766671432967 -0.8606945449694736 -0.9665008542438015 -1.6231802502328574 0.0010878879502739963 -0.0009094300595695321 0.4201680327501179 -0.3916899312145973
111889000.0 0.4816909570224794 -0.8606385298833465 -1.0383310084604331 -1.673500065900668 0.0005989561322034057 -0.00114334823033577 0.40921359467790797 -0.4141974893583794
