! Created with skrf 1.9.0 (http://scikit-rf.org).
# Hz S RI R 50.0 
!freq ReS11 ImS11 ReS21 ImS21 ReS12 ImS12 ReS22 ImS22
1000000.0 0.9672503018891271 -0.004634240100122109 -0.007385743798740888 -0.019232108436712303 -0.012129263572445688 0.0011424557101884 0.35833757209127975 0.3042054168316647
1999000.0 0.9946067406607291 -0.010737160948840531 0.011642778525661642 -0.022258988737415542 -0.0002550103272689266 -0.009565001513894873 0.25253981728786096 -0.04989272186625805
2998000.0 1.0000788043866524 -0.01781881706859281 0.012235122339945628 -0.01735295481975803 -0.008328216031680621 0.004711149839323507 0.19801567293571684 -0.13233351131446341
3997000.0 1.0014093154839452 -0.030377341862258926 0.01156050938315868 -0.008296387429568374 -0.0009273579543939512 -0.0036393228886719116 0.07358574154140902 -0.2316200530132073
4996000.0 1.0018832066843866 -0.036188584938076654 0.01528351431407784 -0.002974911430845935 -0.003206434328654677 0.001443641626209507 -0.035394609815241 -0.21681007342839687
5995000.0 1.0005146835014043 -0.04727967682307709 0.0050369865095273095 -0.0032286754361254538 0.00023050325523194895 -0.007064629187945499 -0.11527616668399941 -0.10736677828659469
6994000.0 0.9985523197718437 -0.057123952383913115 0.008094867935916338 0.0034722884832014693 -0.0035276429080145 -0.0008544514684492037 -0.1574893874628569 -0.02978301829002772
7993000.0 1.001006183381824 -0.06647721419075905 0.002634111301157645 0.003952617880849801 -0.0005262200941651618 -0.0016450487807046356 -0.16036734438920852 0.0284201820860282
8992000.0 0.9989643834209914 -0.07045346034992642 0.0017634316264569562 0.004634056573652438 0.0022122677375391976 -0.00025358888534042647 -0.15885107212193825 0.06034303021858266
9991000.0 0.9966383778167217 -0.08292302107655943 0.002969530957451678 0.0010684694077212136 -0.0012595100505238192 -0.0027624134130736994 -0.12701606634290502 0.08433412697203163
10990000.0 0.9982095904591828 -0.09412462459585458 0.0026253288966860376 0.0011034833792700597 -0.002238030503380137 0.0009130104486894178 -0.14820612445143894 0.11103074477406964
11989000.0 0.9943174359087431 -0.10063849582472198 0.00020292779033386266 0.0001454781943049056 0.0002714838776372075 -0.0024125092846327178 -0.12543698788694402 0.13827625551355754
12988000.0 0.9939365643423511 -0.11142657673698585 -0.001737270091942262 -0.0033747265555808996 0.004208415302239227 -0.00014534259774654128 -0.12167020947054051 0.16724794420678182
13987000.0 0.9933424007913777 -0.11849387710773152 0.0015611538618599372 -0.0028972451129305244 -0.003857517636828125 -8.330869378977305e-05 -0.09473767002505254 0.1899519946896696
14986000.0 0.9923208583499592 -0.12571089916391637 -0.00042147949940325995 -0.0028087558909602266 0.0015293238620367297 -0.0035208151021326106 -0.08630669187713906 0.20299509485547818
15985000.0 0.994300301753527 -0.13437516133141936 -0.0010302418458985217 -0.001700280932628372 -0.0034442911950682683 -0.00045590190721162915 -0.06517569935136959 0.22646830661622366
16984000.0 0.9890848906906035 -0.14513774413141797 -0.0010516384414639634 -0.0027522268982290046 -0.005314387701888931 -0.0036620189156408908 -0.06165772042290956 0.2119899990270775
17983000.0 0.9882433989506285 -0.1505829173163705 -0.005602720851271782 -0.004081482922079229 -0.0030141208075105787 -0.000359803380796759 -0.053945385140345525 0.2228494829510488
18982000.0 0.9871258200374808 -0.16288715105965612 -0.005103600548292887 -0.0029475061954921393 -0.003380545399672455 -0.0007343398176882423 -0.01552434510400326 0.2463106756639911
19981000.0 0.9850276705639451 -0.16626316275220968 -0.00443149314286356 -0.006411248816701256 -0.003505500742585976 0.004954886101428485 -0.0014948106627087753 0.24869524833561968
20980000.0 0.9846767514468866 -0.17531763977708095 -0.010075263633098885 -0.004785524006162237 0.0005383317247481423 -1.5338362842572304e-05 -0.006462556264078732 0.26169026936703865
21979000.0 0.9835891830520802 -0.18535210311173048 -0.0027554497798250805 -0.004521959872816422 0.0020310148960279973 0.003033497480567996 0.018702626034130067 0.2514994312348787
22978000.0 0.9807977645426955 -0.19353390317474387 -0.007073162726947169 -0.004720570855037055 0.001676690482574964 0.002662193823849521 0.0320882170698065 0.258746368916611
23977000.0 0.9799229053739882 -0.20047345421626678 -0.006723029482082758 -0.003128559614574418 0.0017062479028835127 0.0013390809404608872 0.05138514771339626 0.2564801470357549
24976000.0 0.9774036909309345 -0.21438948453594006 -0.005462235143420947 -0.0003813015444581164 0.002407187520124859 -0.0023007865065353484 0.06197087086799738 0.24625630470325424
25975000.0 0.9708538662980347 -0.22514694540268115 -0.005562981192787711 -0.002486224084669404 0.006118803892700137 -0.027784863784887946 0.07189215516983843 0.25680228680258255
26974000.0 0.9724060349125001 -0.22877497846300737 -0.004198272910828162 -0.002713486692948103 -0.0009982833862419286 -0.0008456826092585493 0.09359716364701366 0.259488064833287
27973000.0 0.9725503637886547 -0.2364134003997137 -0.005133713282384933 -0.001215726732931591 -0.00013333159883837032 0.00028007180278672095 0.10618503008414923 0.255279253234626
28972000.0 0.9671626021836456 -0.24501898295919713 -0.000839664752541705 -0.004200187472716435 0.0009115268763721588 0.0007205749160199897 0.11931890023509195 0.2524047073326648
29971000.0 0.9666212881775283 -0.2547888687757293 0.0019116907541712968 -0.0021529471301952536 0.001201495362782899 -0.0006372320968902856 0.14672569703691174 0.27163639384668686
30970000.0 0.964818123329277 -0.25812937295738353 0.000774744442625785 -0.0029796425794139238 -0.001770011213620449 0.001199631874600648 0.16693340137945853 0.25076882431411723
31969000.0 0.9639076949640807 -0.26785934968754155 0.006763378139022863 -0.004349454600865221 -0.0025411022725346202 0.0007047854844670038 0.14182723870301508 0.24497642852910967
32968000.0 0.9614160585367701 -0.2773828914562354 0.007021375444681042 -0.009307241177176516 0.00021761181283252195 0.002700007755185111 0.17448702015770454 0.2413518796974343
33967000.0 0.9596104823887702 -0.2856279536575363 0.009352601907743799 -0.008468411094630863 -0.0012616417467539434 -0.00148720375834909 0.18880117493338563 0.25001089565811546
34966000.0 0.9554215753194069 -0.2970301547371628 0.013713169970843991 -0.01591019296554076 0.0013835381989949589 9.132003514849277e-06 0.19547066183551381 0.24649302567737327
35965000.0 0.9527912720305528 -0.3040604707083791 0.014864888876185535 -0.015321048115538818 0.00045266260794767045 -0.0007024863905777917 0.21084416556294805 0.24502989270916345
36964000.0 0.9503500939083359 -0.3124085689292421 0.017815634337104123 -0.01418666150637974 -0.005089760033870322 0.003946730729973402 0.2133839025559912 0.24543489718451866
37963000.0 0.9465082069577924 -0.322433718245386 0.02090433612658833 -0.02145865194150402 0.003529534483954081 -0.0016485464526603418 0.2222727889685226 0.2298646880083033
38962000.0 0.9449321695974493 -0.3290881149082374 0.02517022210522779 -0.024822971119781413 -0.001025605364964627 0.0013039704624613912 0.24705149590462439 0.24166755821021438
39961000.0 0.9401896494479736 -0.3382511318870884 0.02621498696510465 -0.02844064521840869 0.002545258322242835 -0.002144548488692571 0.25061635495531215 0.22756912764677242
40960000.0 0.9381476381189132 -0.3453765068861874 0.02363098871797752 -0.023186825673015676 0.0023936980169622594 -0.0024492876086100925 0.2767922907285901 0.22683432407644932
41959000.0 0.9358192347227169 -0.3560005346442454 0.0296825305587545 -0.033876961707310846 -0.00012769499331902933 -0.004006074149616087 0.27191996955861736 0.20797990066408006
42958000.0 0.9300886258764545 -0.3643975211444896 0.02970897495101859 -0.04063013072498967 -0.0005604350326066851 0.0007168672710447478 0.2826949312411155 0.2046860154861122
43957000.0 0.9280876251270129 -0.3708830121899641 0.029917178589543424 -0.046648685803689735 -0.0004225944527026456 -0.00044964057684549716 0.29473000842698915 0.20463879829012613
44956000.0 0.9251619734808575 -0.3795206233302813 0.031071539444775656 -0.05339751058412509 -0.00048420718021767 -0.003669077649893724 0.3075512479822928 0.1988978660658134
45955000.0 0.9217295152449055 -0.386636759565605 0.03530050905839828 -0.05643208893588772 -0.0013760263123278927 -0.0005199352408495704 0.3042917390330275 0.19427875552735013
46954000.0 0.9164635540459575 -0.39771205750700145 0.0342535237857268 -0.06576766891346118 0.0009355161635565454 0.0015837651655310023 0.33198935622605225 0.18102525269312947
47953000.0 0.9157729517107248 -0.4044657996172563 0.03168887116442999 -0.07217088438092024 -0.0013547302143228459 -0.004951967403335848 0.3416877660330156 0.17400110572455338
48952000.0 0.9096352028389807 -0.41302932125224034 0.034148355710807966 -0.07990555377405334 -0.0006091481767483049 0.0026058496604703073 0.3383082518608278 0.16422613023776306
49951000.0 0.9058600597607285 -0.4209510701141993 0.037240746385099846 -0.08593485290271156 0.003231951386776306 0.0010956460346479195 0.3593166208582549 0.15190991183265543
50950000.0 0.9034605120488525 -0.4295510633922644 0.03741903484695382 -0.09446637586132145 -0.0008017512853479446 -0.0039626556107070325 0.3535454835378737 0.15366719977266158
51949000.0 0.8972346083659268 -0.43671209515015924 0.03774619956594317 -0.1045274426127799 0.0014532522737155417 -0.001326400199766499 0.3627972540192256 0.1535125570828312
52948000.0 0.8979835309766201 -0.44412515701630956 0.038331481386143375 -0.11113819031077365 -3.241731254134243e-06 0.0004660044063706759 0.38195185058421827 0.13678983019687907
53947000.0 0.8908732024033075 -0.45142404131999386 0.04064843635344247 -0.120826271167243 0.0011320459131801213 -0.0057321378610406945 0.38227214935082326 0.12434594253413293
54946000.0 0.8853902595963293 -0.46259099681353977 0.0422054511126088 -0.12959135789886295 -0.001258515640920289 0.00024753383153620516 0.3896380984705957 0.12747782590403062
55945000.0 0.8822159139508894 -0.4697469199822358 0.042138715938787215 -0.14082257546072008 -0.0018636017213933302 -0.0005305554046316146 0.3881734171551808 0.10314371901070839
56944000.0 0.8799088722707145 -0.47642354673995657 0.04249641209945228 -0.1486226822807122 -1.2740911734851245e-05 0.001301178152662165 0.39375807766760157 0.10327922971616815
57943000.0 0.873710786547803 -0.4884656838694192 0.043654633737817576 -0.1646176854375829 0.00026711808044313577 -0.0018783015733114783 0.4058013462951182 0.09788781937156199
58942000.0 0.8675422238190497 -0.4936566333314056 0.04269662078825972 -0.1698416757008525 0.0011216020711611247 0.001917265794110737 0.4295331698127549 0.08626608305798421
59941000.0 0.8661387280198334 -0.5000210675163448 0.046805144063389086 -0.18272462724604308 -0.0006947738528998585 -0.001953587982909315 0.41739684612356465 0.08228339426604435
60940000.0 0.8585495755741108 -0.5071630753628602 0.04910275313464902 -0.18447897008449965 0.0009308905215672144 0.0020176438451461943 0.4273672270542919 0.07894043401942562
61939000.0 0.8554739982404955 -0.5155595656996586 0.04638418956823016 -0.1910239910799125 0.0024267847484127475 0.001229510023290286 0.42184466502695783 0.07040690966299931
62938000.0 0.8490706895564246 -0.5266497758104315 0.050551318845417574 -0.21070388737154075 0.000682149450630776 0.0028169260424477124 0.43970878017700055 0.04589684055459799
63937000.0 0.8448698952659537 -0.533818496213176 0.052981716981534754 -0.22769101098413733 0.0005558528873522793 -0.0035176706737844485 0.4370650156420548 0.03844594256745906
64936000.0 0.8398897779322375 -0.5385738664750981 0.05260031510962145 -0.2406500065692468 0.00036554939790931043 -0.0020619524937488596 0.43542127322405555 0.050554805649239344
65935000.0 0.8342355043137184 -0.5504977696961504 0.05334780873136653 -0.25657206851705733 0.0002467975129226837 0.0003621446655484211 0.4430588085281576 0.01830552007727199
66934000.0 0.8318525749700545 -0.5570155091922395 0.05183450880590104 -0.26877366100483313 -0.0011322118488775997 -0.00013913832389409231 0.44444362110717683 0.011134628550171102
67933000.0 0.8269896955475713 -0.5632874917048444 0.055901178663549676 -0.28608431896927855 0.0012921477047366878 -0.0018241402186355382 0.4545857502003824 -0.0007783442654190722
68932000.0 0.8245760570247486 -0.5674863884548409 0.05012170918382351 -0.2971932228918624 0.0005096841433727725 0.0017708399423819656 0.45844207995483155 -0.003168844692918661
69931000.0 0.8150663490148988 -0.5804145255535247 0.048964654320687306 -0.3103193017175464 -0.0002181286252811658 0.00025204833381506174 0.45002336925170516 -0.018793478633649295
70930000.0 0.8071701851266279 -0.5885934169489542 0.04918166346726492 -0.3243716843511972 -0.001054509012275597 0.0017460280344626614 0.4446484293176414 -0.034934385610661915
71929000.0 0.8051819259212848 -0.5972970006535196 0.04452416704696864 -0.34237376652159496 -0.001586095658399313 0.0028189522995976444 0.4612552754690794 -0.03456408551999669
72928000.0 0.7982032008268829 -0.6031037894879445 0.043021612505463845 -0.3597113924081217 -0.0010692062555066482 -0.0017209387937940884 0.46574434458223357 -0.05051939732920107
73927000.0 0.793344569869177 -0.6087867648364989 0.03331856845113164 -0.3767727552437009 -0.001319372253050888 -0.0010698600114890842 0.46768613928239977 -0.049605458259487686
74926000.0 0.7885399535425035 -0.6199097300963957 0.02869499002562722 -0.3950995527740334 0.004322367155723085 -0.003426080942246743 0.46534927269441323 -0.06945373866445663
75925000.0 0.7813211832312308 -0.6252806531431702 0.017170911110401022 -0.41604224524929534 -0.003209781009621272 0.00028724604124451535 0.47566369280013493 -0.07440856101107453
76924000.0 0.7761087150852473 -0.6330646457769746 0.007472264526435777 -0.4371412640592706 -0.00419129606593967 -0.003645646201243155 0.481069604964715 -0.08609428874840086
77923000.0 0.7677549053837096 -0.640673987172299 -0.007495503474133424 -0.4571162214518637 0.004698630131735448 -0.0008691160616095683 0.46706096059684055 -0.09690370849124699
78922000.0 0.7615046845656948 -0.6508763357731651 -0.02026349932378595 -0.4849493261501091 -0.0024832468580157792 -0.0011934920343072085 0.4670507415110677 -0.10800417265995725
79921000.0 0.7540789343338162 -0.6530443686450226 -0.03930378003503969 -0.5120471859701577 0.0013120094594290077 -0.004197227241402209 0.4646927296080498 -0.11876725428509267
80920000.0 0.7502600291420503 -0.6642356361599172 -0.052989729370888666 -0.5415533505696368 0.0009520149685235585 -0.004705090327722847 0.472816643169761 -0.1314098459997532
81919000.0 0.742238165464125 -0.6708723854940298 -0.06938315164211972 -0.5621722333130715 -0.003968301720702546 -0.007061867154936378 0.4616678895316204 -0.12472074214187269
82918000.0 0.7350894765996847 -0.6772708132655663 -0.08560060361570765 -0.5950668225011595 -0.0010097526124397361 -0.0029555675552541726 0.47429572305300544 -0.13396583302703255
83917000.0 0.7270604959775157 -0.6871033843708884 -0.10812281615149107 -0.6257572236997915 0.000783860505034837 -0.002858676085891252 0.4836941714598386 -0.1436061336739496
84916000.0 0.7213256835256459 -0.6945431388763839 -0.12795209062257157 -0.6547562275865066 -0.0009247210077492574 0.0025574494827861603 0.4674352194878478 -0.1648418710987824
85915000.0 0.7178696996188517 -0.6989121119812844 -0.14248189886202708 -0.6880234574501592 0.0023873491858405834 -0.0015889563766719036 0.47497472701242727 -0.17365234262592086
86914000.0 0.70769542222693 -0.7102474566058278 -0.15738749102750763 -0.7283186063530618 0.003966765647674772 -0.00034213344710411583 0.4615177552577859 -0.17380092159368574
87913000.0 0.7025225304463876 -0.7153842051381932 -0.17860170050726884 -0.7511919531923328 0.0011313069630034041 0.002058311368394008 0.46532006657615715 -0.19081179337389165
88912000.0 0.6940591545407031 -0.7217416111256468 -0.19486439182154353 -0.7871001263047922 -0.0024635963515802564 -0.0022220149419570627 0.45715814930327153 -0.21034525303321608
89911000.0 0.6853704018290075 -0.7320054958828826 -0.21144419506459333 -0.8248767829066874 -0.0011338936330078813 -0.0025052297655752437 0.4671169021562455 -0.20119144746472836
90910000.0 0.6804750262423652 -0.7354007487665839 -0.226124183456344 -0.8565608993435326 -0.00017802007315948165 0.004501081681950272 0.4688175724771224 -0.21265972486970375
91909000.0 0.6703103055658027 -0.7420316769129739 -0.24789910652759106 -0.8903885970309942 0.0019788301514682004 0.00014189463502437187 0.46931908222399416 -0.22445578742466807
92908000.0 0.6617983631902007 -0.7500940477858566 -0.2658846080127038 -0.9212182614054776 0.0017449272838266979 0.001455335226728599 0.455741131171851 -0.23346707881669676
93907000.0 0.6555639896290921 -0.755534012586189 -0.28235245859413727 -0.9543071448138938 -0.0035379248098876648 0.0004102039084715427 0.45703330919847285 -0.25558702033767894
94906000.0 0.641556793783799 -0.7637802208402964 -0.2998970797560727 -0.9854581643270198 -0.0012204306759580356 0.00011691908520259609 0.45778478178626364 -0.24991371272881954
95905000.0 0.636765355050069 -0.769815962527382 -0.3201870433999771 -1.0226889043359086 -0.003642105493494534 0.001871926547238683 0.45763113718391724 -0.27073159315040174
96904000.0 0.6303459735257161 -0.7767075140881008 -0.33576523423609317 -1.06415133260612 -0.003021101498110132 -0.003192774258511978 0.4519634722752576 -0.2705626893141263
97903000.0 0.6179809485390547 -0.7846648706573847 -0.3615809214140954 -1.0868615099074648 -0.0016721246796937072 0.00011115858032656426 0.44782581013437567 -0.2859465153267129
98902000.0 0.6135216133354185 -0.7909532893940736 -0.3771766635099836 -1.128566433431137 0.0005072611081386859 -5.508292069459107e-06 0.44475433172855644 -0.28129837687708975
99901000.0 0.6042238692991546 -0.7955451826226831 -0.40667859904562753 -1.1593206499645754 -0.0005467591833208157 -0.0034080245561092064 0.45895698369148447 -0.3174185343829413
100900000.0 0.5950954221176672 -0.8011362818600813 -0.4382139516406661 -1.1871910276414963 -0.0013468492123134947 0.004022675418150278 0.45847886454911657 -0.3083086033291203
101899000.0 0.5858367756841558 -0.8098483674843038 -0.46390209468129817 -1.2297830484074432 -0.001546119862902938 3.093664883273752e-05 0.45291013504877936 -0.31850938697014325
102898000.0 0.5782827882269462 -0.8142491643013634 -0.49585893857182334 -1.2649883447441026 -0.0023174919368955708 0.0017579121253703262 0.44815092134028667 -0.3444692151816359
103897000.0 0.5681929274387443 -0.8234702531661906 -0.5378682005531108 -1.29855262987634 -0.0011323561391110195 -0.0015373683208059108 0.45498769968659447 -0.3306992214443532
104896000.0 0.5603861054383269 -0.8322147018748614 -0.5794127630813172 -1.332212401384807 0.0004456209007582037 -0.00216383889070061 0.4332362920032714 -0.344040817260476
105895000.0 0.5513018626928317 -0.8337019695481199 -0.6180623155353955 -1.3713219171806543 0.0019675561415354206 0.0006667384415662925 0.43339584847708124 -0.3586390024144485
106894000.0 0.5414593349355257 -0.8396992242601979 -0.674980127790206 -1.4065847808874932 0.0038710659781295846 0.0035609119576265353 0.430114971633486 -0.37289367271345
107893000.0 0.5352231523993072 -0.8451642753812706 -0.7251134217813318 -1.4442450210270998 0.0008878725233919211 0.00012161393731013104 0.4403113609459457 -0.3893078725532391
108892000.0 0.521673489529486 -0.8511405031128111 -0.7820524268667997 -1.474797424244004 0.0023423019690007748 -0.0005444014457466961 0.42675211845707917 -0.3763391239791513
109891000.0 0.5118285920759635 -0.8592250038601861 -0.8378508727268698 -1.5095935769030098 0.002272416537714241 0.0020775539945866203 0.42993709605860025 -0.3776987050265038
110890000.0 0.5068559241330031 -0.8731262335385872 -0.9076101133196035 -1.535117199662611 0.00022095945559972346 -5.725363754455987e-05 0.4318856849105964 -0.39256549155944037
111889000.0 0.4909409602269015 -0.8644030533012292 -0.9623404422396554 -1.5760504015195658 -0.0011137894200531188 0.0026493463462716116 0.41821456398184736 -0.4022485512795208
