! Created with skrf 1.9.0 (http://scikit-rf.org).
# Hz S RI R 50.0 
!freq ReS11 ImS11 ReS21 ImS21 ReS12 ImS12 ReS22 ImS22
1000000.0 0.9983802607019922 0.005985160461534863 -0.0225971444732868 -0.034969886684308886 -0.016919550560538076 0.012319697345283919 0.3452950156984677 0.36412965230230143
1999000.0 0.9950234736075992 -0.009993249737073306 0.002693654664245836 -0.02750691740017748 -0.0015870695455888436 0.006426685127767224 0.27057262787544706 -0.06791213839266765
2998000.0 0.9993457607035895 -0.01662878657792394 0.011468708134788697 -0.011588265891798979 -0.0003070781752773279 -0.0006569581068213914 0.1965557396984288 -0.13760614679803915
3997000.0 0.997669530862644 -0.02487055221344535 0.013417435198751002 -0.009611972638320277 -0.005075164701043756 -0.008367780357757933 0.08999896676761895 -0.24097985592318916
4996000.0 1.0010775727024952 -0.03486740400905079 0.014374402438431223 0.0038912852376204073 0.002274977833383804 -0.0009196164998064866 -0.05904861021221993 -0.20555469749021868
5995000.0 0.9977631906470987 -0.04660322924735131 0.009384986297987208 0.004043143907591268 0.002772292262642064 -0.0005814900439723336 -0.11642643430932753 -0.09662434851535011
6994000.0 0.9981300220922001 -0.058920302046358494 0.0038450366988265665 0.004757552728544046 -0.0006675635669834656 -0.004728151924198006 -0.14464975895156976 -0.016540540436840986
7993000.0 0.9999333659403266 -0.0678285552791667 0.002060825818037605 0.0034344886013800706 0.0007906338609809953 -0.00111346873275332 -0.15749753824453078 0.03980639860829625
8992000.0 0.9993142411265722 -0.07278184704157489 0.0054256995522778744 0.0059103542707448315 0.0009174714690625512 -0.0038933837686332957 -0.1601510794184985 0.06921550927682169
9991000.0 0.9974564710940044 -0.08257824110372913 0.004217413559048429 0.002795858854583769 0.001017357861386638 0.0036687838593019904 -0.13586368138798394 0.1014390155941213
10990000.0 0.995954992942601 -0.09556580953826255 0.002006625668611165 -0.0013350998120256012 0.0008073723410768649 0.0031781757104540433 -0.1400826853124932 0.10551733978660094
11989000.0 0.9931889822295038 -0.10050202130764534 0.00246190570029627 0.0041174220163408964 0.001019374957771517 -0.001879783460393329 -0.11766930769872756 0.15095588474684307
12988000.0 0.9941666845017162 -0.1102619576094365 0.0030113389877193756 -0.0020723329551839025 -0.00015728192068425052 0.0031186502129078014 -0.11003538914780236 0.1679789408261991
13987000.0 0.9918347319653943 -0.11651771246095782 -0.0002559111071212811 -0.0021520639250672737 -0.00015681973320492596 0.003790929706779926 -0.0991183803126316 0.1916654431821254
14986000.0 0.9914945635805096 -0.12522341485239408 -0.0033282891188269725 0.0013228545206476698 -0.001522581722098857 0.0017603905656786733 -0.08577601229201641 0.20167656966878886
15985000.0 0.9934346033712348 -0.13454997354751605 -0.0005665278716024912 -0.0035380425631122005 0.001677699478386586 -0.000578038197991601 -0.06912254831923317 0.21691330336845477
16984000.0 0.9874216176304944 -0.14713403337086087 3.638759284026722e-05 -0.003427799655973053 -0.005015862796937542 -0.0010165927534651696 -0.053154449916109764 0.22426362745261608
17983000.0 0.9899126554127531 -0.1521525137178876 0.00032966863804568413 -0.008720956415163942 -0.0006092258236427123 -0.001406589287863326 -0.05483252454527958 0.22402242107226972
18982000.0 0.9858623667769066 -0.16249854347050666 -0.0034252872585691786 -0.001548979394305697 -0.0035040907164577734 0.003704051866245186 -0.0143564516093155 0.23635578033379973
19981000.0 0.9852646407940998 -0.16790336460259894 -0.006867485244954106 -0.008121387774520906 0.0013255910114570349 0.00031207016088263736 -0.007269803140634462 0.23041534036625885
20980000.0 0.9840729899526965 -0.1795861197241035 -0.005498459715425578 -0.0032785471904247577 -5.0012875931756505e-05 -0.005566604753342655 0.0062256970967145804 0.2649538724700395
21979000.0 0.9829184367629741 -0.18707997272939564 -0.00668038226739442 -0.004507649190695985 0.004432117475655055 -0.0005832098349625665 0.018748374459437216 0.2535385994284277
22978000.0 0.9787733936984471 -0.1954749255045889 -0.008820720158155387 -0.005253295561455799 0.003808006565858133 -0.003530189350513843 0.03509945399159691 0.25762037793492143
23977000.0 0.9809489634513762 -0.20247190131885093 -0.010912867192113979 -0.004100234819053945 -0.00021208961140404395 0.0017954641615569723 0.039722766128728375 0.2544065267200752
24976000.0 0.9780922826165988 -0.21332958478104141 -0.005679515377163751 -0.0012509862200122351 -0.00014593088592679583 -0.0030257655825646212 0.062182889951690114 0.25570969926542875
25975000.0 0.9730246388161108 -0.2286807495391275 -0.0026116073750442757 0.0027230212499197185 0.023740750917065533 -0.013875239393749286 0.07554746763824557 0.2611617987441085
26974000.0 0.9712393518500556 -0.23210768376528135 -0.004165173343609176 -0.002419021540765513 -0.003362153587577095 -0.002454954304675032 0.08915565647092873 0.26723593220210445
27973000.0 0.9718401398508323 -0.23884502577343883 -0.0022022262422288917 -0.00032109148322466554 -0.0006949398855400209 -0.00039992880913435427 0.10230527732930642 0.26136314562036805
28972000.0 0.9694076967457751 -0.2451165709046441 -0.004447141003202841 -0.00022918460487789913 -0.0011730652567140518 1.3490620439241846e-05 0.11203456136817387 0.25270729826429805
29971000.0 0.9661924522289307 -0.25511392989181425 -0.0013900982837193598 -0.0020689546980058524 -0.0026317085170367077 0.00045205346702071854 0.15760486722422085 0.27846308455562957
30970000.0 0.9641922222942377 -0.2614750609126981 -0.0005841873857945033 -0.0012365280865562999 -0.00043917870858143184 0.0034570193451454313 0.17453198654575355 0.26478499417148416
31969000.0 0.9617126111176145 -0.270455126431983 0.005006106829877478 -0.003936711924062272 -2.680870396265969e-06 0.0021489922633722834 0.15657117760686756 0.25383724218246373
32968000.0 0.9600721437766502 -0.28000268975334375 0.00987802751519227 -0.008288331471587295 -0.002099307674939131 0.00011681598232117191 0.1608514128681145 0.24647109993532984
33967000.0 0.9584162236511572 -0.2878814733640477 0.012040101982468698 -0.008970104282997684 -0.00018548535192452868 -0.00022607452956809122 0.1942821305825322 0.24681356142909147
34966000.0 0.954726121947152 -0.30048141387072835 0.01396328563680102 -0.011465034789092719 0.0007277710343207521 0.0003914911823626462 0.20220479491352972 0.25817358960586456
35965000.0 0.9513894641515545 -0.30598034327456103 0.01447982320503755 -0.017656239722003555 0.0016184392115712778 6.420801075552114e-05 0.21634544727869132 0.2555611325451955
36964000.0 0.9495045539050051 -0.3157058441835646 0.0154746347341266 -0.01569563636000027 0.0007225313682936418 -0.00025970381824054446 0.21905755478973188 0.2577380372442989
37963000.0 0.9447270436523673 -0.32474455927830176 0.02162044131749762 -0.021240317781206615 -0.0013288512563470203 0.0009405365231749091 0.2399135327567186 0.2396441931388927
38962000.0 0.9430540587960069 -0.3348376522650605 0.025017672499716436 -0.026646036515717154 0.0009820003606632113 -0.002544130390095272 0.2519223851735049 0.2317223005096666
39961000.0 0.9406930073213705 -0.3389283813620157 0.026381447917786238 -0.028469476993108464 -0.00048254034042174613 -0.003142597287797892 0.25007073409275415 0.23157428780266398
40960000.0 0.9366765475956372 -0.3489230231588594 0.021321721439349715 -0.02607454103915877 0.0001066547037616373 0.00014803402693474698 0.26927088569764335 0.22819540172318697
41959000.0 0.9347235516079068 -0.35823814777254087 0.03031255219509345 -0.03477492657173751 -0.0014739370639516747 -0.0017421703396940029 0.2784395770820246 0.21450398816661495
42958000.0 0.9298309615510587 -0.3659409893480553 0.033797884721923355 -0.04264188045728729 0.00234355124222884 -0.000311864070993538 0.2925090445841541 0.20879915775085242
43957000.0 0.9269125192071002 -0.37148946010774936 0.0337270086043729 -0.048850097057432304 -0.0004826272630400959 0.001391398038911377 0.294212946039577 0.20947420194313418
44956000.0 0.9223659957676049 -0.37957478629729163 0.03304883560552868 -0.05572364521321932 0.003474304021036637 0.00011025682116448401 0.31084546992790213 0.20705193270602829
45955000.0 0.9196737839565211 -0.391126715564271 0.039567222955623725 -0.059743252938051196 -0.001835475223955554 -0.003915483472758544 0.3060374275645919 0.1980578050838874
46954000.0 0.9144402206676642 -0.3978941674745606 0.03691544820780879 -0.06850147072433253 -0.0045750391767638374 -0.0006651130579323123 0.33324437431025394 0.17646353069279597
47953000.0 0.9143998322926005 -0.4054697523370444 0.04286075363289152 -0.07604941206689618 -0.0003733469222862581 -0.0006475756887402266 0.34648809521165574 0.17978895202319473
48952000.0 0.9062611990993547 -0.419116373475196 0.041592720189722876 -0.0832876034964953 -0.002709924099929865 0.0003481217111073503 0.33831210686875457 0.16850479114263903
49951000.0 0.9047520798010228 -0.42367670497765597 0.04336160785233221 -0.09033447125649521 0.0012977830323571335 -0.002136191985455877 0.3572529842529785 0.15878456120272247
50950000.0 0.9009354290581786 -0.4290282059640782 0.04173896447470321 -0.09865114748009506 -0.00013141274686078935 0.00032583479565648313 0.35916522530759243 0.1604158840475168
51949000.0 0.8954009091804168 -0.43974124161361394 0.0439653868442246 -0.10822576244719961 0.001690602343278473 -0.0025297548110837418 0.36902542356183243 0.14886873514949395
52948000.0 0.893456678095478 -0.44895132443906804 0.0432531399357026 -0.1132845696065997 0.000721145339747017 -0.002319100537467524 0.380739242094807 0.14925169785993053
53947000.0 0.8894240720819332 -0.4542606580215724 0.043297392411720675 -0.1264871261213388 -0.0024911760458325885 0.00019964862151016565 0.3796592287056309 0.12074283613798979
54946000.0 0.8836030485712392 -0.4633545141688083 0.04817748721550487 -0.135941681168249 -0.00018121119414167135 0.0009699635811347502 0.39359828552493803 0.1197036736354794
55945000.0 0.8819414865247064 -0.47396079356692694 0.05129081771595885 -0.14835911967344065 -0.0034374181446601457 0.001861557280682279 0.4023913615238965 0.10420906722519309
56944000.0 0.876512817777356 -0.4816364732575799 0.053830772881695514 -0.15724479386361037 0.0006532748738623755 -0.0022207538648477227 0.41110705138379117 0.10874460649045949
57943000.0 0.870808324869076 -0.49189016473569963 0.050680803753392116 -0.171513131917851 0.0015901927860200922 -0.0030131175729283546 0.403730641838519 0.10100562045781171
58942000.0 0.8650912175718665 -0.4969038304883809 0.052942020396942416 -0.18174238579178423 0.0017367774999498637 -0.0025002093236703004 0.42970034344539076 0.09847913137265778
59941000.0 0.8659081650127959 -0.5034423086215267 0.05924508165312622 -0.1909672122176066 0.002648690633382088 0.0030599004754949125 0.4279884375391876 0.09036518557085436
60940000.0 0.8555087936066604 -0.5132742115932538 0.05530086965495409 -0.19429179445930234 -0.0013119630339757094 0.0015096620557201706 0.41542644771248827 0.0831218782041965
61939000.0 0.8521720566189283 -0.5202333400339374 0.05641595684395481 -0.2068919409857983 0.0017594791441788698 1.3271985400930323e-05 0.42358968105433664 0.07314683978331098
62938000.0 0.847335489442616 -0.5299746112296724 0.059185832797182765 -0.22470833698967185 0.003512508639541091 -0.0006055065835795617 0.4392393898512634 0.06344287969772383
63937000.0 0.8419931320929394 -0.5382517940428271 0.05734066398263732 -0.24903185382812026 -0.0010349962399931539 0.0013357057290062186 0.4502867804466577 0.050891844081281355
64936000.0 0.8352953660809105 -0.5443328795624583 0.062432460764661205 -0.26088424119421055 -0.001776238260609275 0.003091622425612115 0.44505152525820846 0.05082735811885358
65935000.0 0.8343607273865558 -0.5522605187372872 0.060449489631729705 -0.27550910550280083 -0.0028662272157736627 0.004030750441798444 0.45189704296712724 0.039975262872510936
66934000.0 0.827272781724289 -0.5598152366479111 0.05900413894980689 -0.28710987011385014 -0.003653736794285327 -0.0012871256090551469 0.43886257026293785 0.022857385524386674
67933000.0 0.8250475084879332 -0.5682301851431809 0.06128699248854001 -0.30775651700483886 0.000790567573552429 -0.0011983079269421632 0.45686523024337256 0.01518241300025005
68932000.0 0.8189151583511765 -0.5716560337883855 0.053690313680396104 -0.3205789468914961 0.004086755776003017 -0.001412863435653273 0.4669585305691479 0.0021740121209882345
69931000.0 0.8121386477529859 -0.5839141665809723 0.05578050291219046 -0.3403009810757429 0.004619091675900299 1.907336765152203e-05 0.46403903321859585 -0.0011834165120324694
70930000.0 0.8038820343776302 -0.5899646170262101 0.0541850427442859 -0.35219119314934594 -0.0037609581139936682 0.00011524284400425981 0.4571427117836244 -0.015022742517731844
71929000.0 0.8007753000511533 -0.6017954808902983 0.051276647040593246 -0.3754014041981788 -0.0008889877588103089 -0.0005156209918403478 0.4566807334892933 -0.029997538155173437
72928000.0 0.7944242447290836 -0.608630241949597 0.046195347593654124 -0.39034458377304465 -0.0023016916145386234 -0.003435618190495356 0.479567293561071 -0.037856392546036136
73927000.0 0.788418815116247 -0.6145193550114536 0.03989381943711116 -0.4155094669094305 -0.005423295168463831 0.0021679607592659193 0.46963605637533207 -0.03972337327803308
74926000.0 0.7825125542410862 -0.624702214072506 0.031145487679419468 -0.4324423641170639 -0.0006047606316470174 -0.0022048147636266184 0.47287829112615165 -0.046254648660438304
75925000.0 0.7774188440474521 -0.6295299417771353 0.024347429838925468 -0.4527215473957858 0.0015657300763188959 -0.0037496656335879366 0.4794815504064349 -0.055096672864442725
76924000.0 0.7723200872192117 -0.6373150373933671 0.007639844731767036 -0.4759834451628696 0.001374937097988654 0.003541783217741388 0.48337319872383033 -0.05765053356676273
77923000.0 0.7640484346955313 -0.6464848248948373 -0.0023629187507006964 -0.5043757602627406 -0.0015881253437481572 -0.001972708665552214 0.46780718764916546 -0.07837119907707485
78922000.0 0.7584757818606043 -0.6545943686405691 -0.014167079876147619 -0.5358373161296559 0.005408090999448649 -0.002845337995754198 0.4677991663714926 -0.07912789318651577
79921000.0 0.7497666322451274 -0.6574762137117965 -0.03907098450767957 -0.5571049958024435 0.0009773365099292294 0.00261496392289824 0.47281426485119654 -0.10846742893247983
80920000.0 0.7468801130354983 -0.6699682317424323 -0.051386377166937225 -0.5886742230453252 7.18833985938305e-05 0.0016472515272888959 0.4804739587652041 -0.10111204743497648
81919000.0 0.7385793207737201 -0.6756172459273299 -0.0649056201004119 -0.6186229809192194 -0.000217483493597658 -0.0032883743212670544 0.48271358614566345 -0.11364680702242859
82918000.0 0.7304018822599175 -0.682808700706259 -0.07997868815818171 -0.6530141106136194 0.005021822112063394 0.0001879420012135657 0.4790169561013639 -0.1248599758184504
83917000.0 0.7230421697548814 -0.6908942854997087 -0.10574538666755068 -0.6827492673028146 -0.0014589358498605918 -0.0012005456818012187 0.47953702211399163 -0.13212374022500678
84916000.0 0.7179831669824421 -0.6985423539441702 -0.12339666225224492 -0.7161366537365654 0.003450046599561716 0.0012311548781829362 0.4751984740875362 -0.15212987400861536
85915000.0 0.7110624935854669 -0.7026572533696765 -0.14045049306759527 -0.7505125733304335 -0.0009283826656059734 0.0002897522222802569 0.48037266408243007 -0.14805961511617136
86914000.0 0.7022883529919114 -0.7154319216975913 -0.1552136287249375 -0.7878134653552432 0.0032042145116718836 -0.0003390978875668675 0.470427867319436 -0.16282877758948866
87913000.0 0.6949354967666905 -0.7209839730747369 -0.18005022128385936 -0.8224909573968783 0.00442523244764954 -0.0038896845388758285 0.47317344448237086 -0.1700996811334128
88912000.0 0.6881667872634606 -0.725974937107671 -0.19778296074550827 -0.8616234080389996 -0.003940835494270832 0.00217927052538118 0.47398605238948477 -0.18986280865465094
89911000.0 0.680426994819696 -0.7351021011435331 -0.2140529902159799 -0.900192086317469 -0.0020068083230673577 0.002100530399248623 0.4862202489192039 -0.1961776033851657
90910000.0 0.6722097363021378 -0.7422662415532654 -0.22930106337367673 -0.9367376563182997 -0.0037854173378645594 0.00036432368238064277 0.4780712104079934 -0.20077618120443508
91909000.0 0.6632115779482503 -0.745878076685722 -0.2504284019023186 -0.9716263991363403 -0.00025486453788259317 -0.0012578232629391508 0.484823592656203 -0.1947267544559096
92908000.0 0.6550866916835401 -0.7561530449460045 -0.2739489419857308 -1.0056385072211083 0.0022937633868501976 -0.0007268599450145196 0.4710106944471251 -0.20925269946511305
93907000.0 0.6514198433364061 -0.7602876240032926 -0.29335893337963576 -1.0392470504107107 0.0023485626925713217 0.002557121973540203 0.47143208734567826 -0.23094478265788287
94906000.0 0.6368970760251599 -0.7698376053757062 -0.3147967132492717 -1.0761250109180884 0.0006529362796900696 -0.004681088141358213 0.4690837588676287 -0.22971171438918028
95905000.0 0.631360633428179 -0.7745100069658034 -0.3372597047190851 -1.1196484923532006 0.0005451701496016889 0.0024665783743729433 0.4736857855225864 -0.25520792632449785
96904000.0 0.6204083643494073 -0.7828554482011946 -0.3596861132420104 -1.1557285769006733 0.0006904664747329177 0.0019718240350677582 0.47071186987272473 -0.26014654820874145
97903000.0 0.6115841934163335 -0.7890975353074503 -0.3855108128388193 -1.1899847608521519 -0.0016824304248151084 -0.00022104867017574303 0.46375814853983105 -0.2732364619462564
98902000.0 0.6068628952553956 -0.7966763415981667 -0.4076253888393193 -1.2359823635431024 0.0014381347634685449 -0.000832887330269991 0.4620718187418664 -0.2760421100893553
99901000.0 0.5959717679108809 -0.8019502986776544 -0.44224161715613597 -1.272418030742698 0.0021985604829964944 4.5714380037591e-05 0.47289656156575566 -0.2951443481422023
100900000.0 0.587995131961158 -0.8047676644746484 -0.4722076764689231 -1.3020094987874784 0.0014523111206045931 0.0016646689670526782 0.4803284471025433 -0.2963882260179363
101899000.0 0.5771741667587251 -0.8133531017973507 -0.5028803375263801 -1.34383127201794 0.0011129241967546442 8.468643285243462e-05 0.4582617593957365 -0.29174703597384516
102898000.0 0.5701863306170978 -0.8179667295223012 -0.5371733464443759 -1.3850513933608206 -0.0004272641390213558 0.002107511315255825 0.46485186683410357 -0.31842366355352564
103897000.0 0.5603272173419722 -0.8243534460519968 -0.5829967362145113 -1.4269830817873166 0.0008316815980645426 -0.00599015658324904 0.47273841481818774 -0.31689214712294006
104896000.0 0.5512582449655066 -0.8366224238702604 -0.6347514327629095 -1.4668321239141286 -0.0018417787964765489 -0.0014103395103482689 0.45536093568947517 -0.3100975312268799
105895000.0 0.5405827720800539 -0.8374686055054509 -0.6884571790146495 -1.5142175547338603 0.0017807469343826435 0.0017292431659505893 0.45618511762688607 -0.34282440290583777
106894000.0 0.5299215876190948 -0.8440963514885359 -0.7444996545154497 -1.550324864649463 -0.002537819726955087 0.0013719219820301758 0.448590121375642 -0.3511327939856754
107893000.0 0.5230722056511827 -0.8518866757058751 -0.8020056510442407 -1.5925799056226673 -0.0009389101213717785 0.0018188643491205254 0.4504290836055561 -0.3687295433163159
108892000.0 0.5137364002113359 -0.8547447216350026 -0.860336113499173 -1.6295316325892963 0.0003085322818696852 0.0027427080371465505 0.44623735232915573 -0.3651104785599353
109891000.0 0.5012747176602111 -0.8612711797608669 -0.9184067252418705 -1.6638423791725296 -0.004056003744004871 0.002241737047385012 0.4567897042441198 -0.36121094087744565
110890000.0 0.48489754106163513 -0.8655791339042201 -0.9859520368991553 -1.6668418458373326 -0.001811301884679296 0.0014806333521696822 0.4337097744292985 -0.3646672598156943
111889000.0 0.480079773271786 -0.8686155665565236 -1.0564356877799892 -1.7413768475791853 0.0016724684170723373 0.0004923361240570817 0.4356062203269391 -0.3804093242882963
