! Created with skrf 1.9.0 (http://scikit-rf.org).
# Hz S RI R 50.0 
!freq ReS11 ImS11 ReS21 ImS21 ReS12 ImS12 ReS22 ImS22
1000000.0 0.9958934694594627 0.012777753066731979 0.010648159711041275 -0.04591747514713932 -0.012808448148975813 0.005172966833780989 0.3085390085669885 0.3121222406213626
1999000.0 0.9965613993095849 -0.012882533237384744 0.004941754754000115 -0.024192639253725858 -0.0021131493679459397 -0.002569890580540283 0.25387767216846757 -0.04677900614891371
2998000.0 1.0000983547796514 -0.02155577930845202 0.009013771799454144 -0.01705886317541017 -0.0032826755496367373 -0.002766732430922286 0.19728804050771756 -0.14176034413623997
3997000.0 1.0002534170844526 -0.028648170239761486 0.014355047363683617 -0.007349553089304142 0.007896187773430641 -0.003609239200444387 0.0931054890293228 -0.23496055551553893
4996000.0 0.9961543214180038 -0.03411446443660625 0.01199247727252852 -0.005952703620161756 -0.0017073812973759427 0.004599797964766588 -0.0656550647462036 -0.1869408314291231
5995000.0 0.9990126617520796 -0.04982308598295588 0.006966532884080962 -0.0028039369937319547 0.003853170683006216 0.002675510209683643 -0.11170253706747502 -0.09477640801348915
6994000.0 0.9929019645018166 -0.06177762247669759 0.003361920474805714 0.005225463608186562 -0.002450123600425864 -0.0007115400730508441 -0.13547299139691885 -0.002813968186610169
7993000.0 0.9966583130154172 -0.06812547698440591 0.004898345995630938 0.008593348829972303 0.0013076062319633157 -0.0007385496246100861 -0.1518704025105864 0.03874536766069552
8992000.0 0.9948349524506015 -0.07328319617872482 -0.00023249716269350344 0.007138438045475247 -0.004046201357135808 0.0008378477421276179 -0.15569828707929484 0.07773285348637017
9991000.0 0.995499214557414 -0.07915138621768941 -0.0011141096665899263 0.005411814017555563 -0.002301468970784967 0.002668686565806106 -0.14703977615069277 0.0908736230247488
10990000.0 0.9955754123313575 -0.09038193806999022 -0.0007763144781791403 -0.00022687344841221263 0.000825301452024452 -0.00012801461297965602 -0.12725335960061473 0.1184144603093585
11989000.0 0.9924349008992223 -0.0987366356989692 0.0016304671016473258 -0.0048431219054908955 -0.004982795371234419 -0.0032251839650018184 -0.11737557200938732 0.13232288108815166
12988000.0 0.9905326151426287 -0.10810805977217924 0.0015123356919969741 -0.0065779183314489415 0.0049423242043727085 -0.0031984014809700906 -0.11215214124414286 0.16682714112024408
13987000.0 0.9909971286701342 -0.11798180320943263 0.0022683355185213086 -0.0045382829177911185 0.00443180456493231 0.0007843006525237219 -0.10181320135320548 0.187977028909124
14986000.0 0.9891549572591318 -0.12331214609552882 -0.00023617214786604866 -0.0016145896065478489 -0.001451462092002466 0.0010313177504434922 -0.07601914875912824 0.18944953551652619
15985000.0 0.9885568678961206 -0.13284127883083519 0.0010224456489552473 -0.0028792962233498104 -0.001495136392470932 -0.0025308155008235997 -0.07496669844859767 0.22615386398540047
16984000.0 0.9900748811340967 -0.14354124423420772 -0.002731112562396079 -0.003407643910229225 0.0027920673038415895 -0.0021502120038077075 -0.059584944682282676 0.2127681853666316
17983000.0 0.9895958199238697 -0.1500781267547141 -0.0038248033397967475 -0.0035572777053077603 0.00033960348488623615 0.0020057264600271706 -0.053753991809844685 0.22455951798959037
18982000.0 0.9861969183385821 -0.16005781074188183 -0.003833968944669075 -0.006825023175155752 -0.0008262517876527682 0.0016813046581451575 -0.031459596892087195 0.24102190830851328
19981000.0 0.9848562204709089 -0.16347867898217294 -0.0025484794235627935 -0.002443799396856675 0.00465486627976016 0.00042969046213269267 -0.011683385044358034 0.2392606276631602
20980000.0 0.9836278120403018 -0.17656059718637285 -0.003889981598690608 -0.00412260390959991 -0.0006999870614236188 0.0013320860274428701 -0.0007710747208357599 0.26991124058341714
21979000.0 0.9815405368685968 -0.1816538351637717 -0.007145540542555841 -0.0017414022694055432 -0.0014700762619728055 0.0014704412271437655 0.01310575705625982 0.24561974463740147
22978000.0 0.978966048269411 -0.19075824730735233 -0.006223490900554362 -0.00375097770518795 0.0001469401887870071 0.0025788248983936923 0.040131986439143855 0.25340323276141996
23977000.0 0.9785517288389408 -0.20008739734256112 -0.0029395296793093845 -0.0036060683508440695 -0.002703283831382914 -0.0003186040919506739 0.044846312462589084 0.2568155771667829
24976000.0 0.9759839328391336 -0.2049275655466036 -0.002417434396275977 -0.0060627275174876365 -0.0033896568961009703 0.0029060869375356155 0.07476400087326067 0.24112340649381814
25975000.0 0.973780312723743 -0.21447553634307429 -0.0015847114963270022 0.001800847433129479 -0.02090966785920006 0.014168252020554124 0.06929954099110104 0.2555133070470356
26974000.0 0.9719124916833796 -0.22562549341287785 -0.002816468432361429 -8.715994374433345e-05 0.0009083670224993767 -0.006500785068834734 0.09314315101072103 0.26182852107429777
27973000.0 0.9705357901855298 -0.2334355879144164 -0.0033908581985841093 0.00023302492226353794 0.0024635722315678996 0.00038308960743350826 0.10882326611799072 0.2511921798771072
28972000.0 0.966453949043143 -0.24342199588146116 0.001651624662248581 -0.0025675842960752545 0.0006630026431915417 -0.0007067877294867457 0.12360676758073279 0.24795314551391098
29971000.0 0.9652353685430345 -0.25113007939032816 0.002879776999795894 -0.0027832163840324302 -0.0010040648762789006 -0.002279227376069144 0.15422409797217196 0.2606158257390942
30970000.0 0.9642323836268425 -0.255570943360738 -0.0009883315548068433 -0.0014203787814076523 0.0003603960338540456 0.006254525700130928 0.16232153438714192 0.26167830733785313
31969000.0 0.9607704293161999 -0.26561700309197983 0.0018129798428603637 -0.004985254775252917 0.002215803366992261 -0.004108907072108807 0.15520185426130909 0.2515992657359146
32968000.0 0.9609232869320232 -0.2763303226244933 0.007437086792477181 -0.006204966097801135 0.00030673959178880453 0.003024599087636118 0.17091395112123262 0.24189268526379398
33967000.0 0.95804335908601 -0.28557730235996454 0.010977228802103858 -0.008768792922013924 0.002660684143739254 0.0017143133537817741 0.18137597064526828 0.24094078902810698
34966000.0 0.9561869593178787 -0.2904214089911923 0.01475697372082026 -0.01039697495683337 0.0030737799644991507 -0.0016240359981058298 0.19486067355708056 0.25630749327883656
35965000.0 0.951939135776153 -0.2992083115184991 0.01716191656503505 -0.015350203846684762 -0.0046959959479015295 0.0027731812843361705 0.21363675758281006 0.2482463539339574
36964000.0 0.9507870321887482 -0.30776549850773116 0.014739463892643113 -0.015672539740497385 0.00023959816114416736 0.0005005405117753544 0.21706396583477366 0.25101897242256455
37963000.0 0.945618732298964 -0.31819928087646654 0.01942581668735387 -0.02161025137358018 3.1635268087589865e-05 0.00019561463510104843 0.23028623239760182 0.2357431007540151
38962000.0 0.9454965038753199 -0.3258665983674106 0.025387573009853025 -0.024759827836222572 0.0016808405167534702 -0.00016726161915970756 0.25004581531129866 0.2284501534236909
39961000.0 0.9399930679373091 -0.3349489113145547 0.02630392045512796 -0.02880976944458773 -0.0008480580008918818 -0.00030744982749103165 0.25915662592239724 0.22400933891585556
40960000.0 0.9390570748362537 -0.3409330508149346 0.02260218275965575 -0.021825897860778157 -0.0027180537761865896 0.0009642259010511074 0.26954303488808046 0.22485870398168495
41959000.0 0.935710217423692 -0.3511083040457849 0.027309409546579434 -0.0336740285370966 -0.0007765090709803115 -0.00037521324684143775 0.26751673556913697 0.2214302505269604
42958000.0 0.9294123139813916 -0.35940293335162854 0.034647858896159574 -0.04151389398878182 -0.0019429018174993123 0.00188524920850212 0.2879622896161793 0.20530447546755448
43957000.0 0.9289226454905942 -0.3647284100913387 0.03375303426090657 -0.044698709209350415 -0.001635733626487043 -0.00029241303816442035 0.29031166231723066 0.21846436575241795
44956000.0 0.9240992106704223 -0.3725522249340387 0.03434222799036347 -0.05251935029251501 0.0014075356883724765 -0.0009409984352068918 0.2943868225813381 0.2022969454798163
45955000.0 0.9207165232579562 -0.3841545282640586 0.03466897320142223 -0.05638631818809477 0.0007119703148325112 0.0005905889530479679 0.3130931337252317 0.20162143463459975
46954000.0 0.9185443940269992 -0.39229345233839036 0.03495370216158302 -0.06469283534402669 -0.003147354492997624 0.0021242243395431827 0.33175951469652987 0.17975437312711748
47953000.0 0.9143666672094343 -0.4000095463814729 0.037148744354250196 -0.07141438800215658 0.002443946976237877 -0.002102785070171875 0.3315092893837608 0.17984019624453804
48952000.0 0.910305065012547 -0.4094882940469756 0.038120701138831 -0.07748637714336584 -3.6844027589640407e-06 -3.0027663881156956e-05 0.3312977136937116 0.17689780903764615
49951000.0 0.9068204168971864 -0.41640506921555726 0.04236066017416719 -0.08649556531787468 -0.00035494381217018303 -0.001099159662970807 0.3532850599109887 0.16090452097032304
50950000.0 0.9016246206883732 -0.42346703784066475 0.04060207387771446 -0.09140634175388827 -0.0021884103866329245 -0.0020905981823815725 0.3466268175371249 0.1554603865365216
51949000.0 0.8983088227121777 -0.43276266841475725 0.04271065843764789 -0.10340689316221902 0.0006228991479276289 -0.00027173892214593393 0.35874180917981646 0.1455650686648145
52948000.0 0.8971010459549968 -0.4393471087550829 0.04089227529709316 -0.11289010774765319 0.00162891205055857 -0.0007387254605799601 0.37742851337390715 0.15234875781036883
53947000.0 0.8920292494761849 -0.44637355736642165 0.04518551379617863 -0.12345251402132464 0.0008819854826505131 0.0026590563101585012 0.37141024963868624 0.13017836369892186
54946000.0 0.8852599742879622 -0.4581241981009914 0.045454761221960925 -0.13103002848772688 -0.002375396655419469 0.0012126655589741145 0.3898584692625287 0.13436594369585608
55945000.0 0.8835338691087165 -0.4659387604264979 0.05084581267921997 -0.1412461697391815 -0.001330513412989179 0.0008932473593226491 0.389489308001737 0.11569680252512625
56944000.0 0.8795095335689801 -0.4723250961057173 0.050725208322318735 -0.15129843282449215 0.0015032330229658823 -0.001988743681992442 0.40788562325988204 0.10893278194711441
57943000.0 0.8756788000191834 -0.4832121090887136 0.050769865829425144 -0.16139182338650918 0.002484721600508821 0.0010839805620904285 0.39754721784158803 0.10934313192612037
58942000.0 0.8702389912666467 -0.4868145562832001 0.05053666918224849 -0.17318190147464593 -0.0011201279685040685 -0.0006630721090499501 0.4203635650604751 0.09738494016863038
59941000.0 0.866748636784589 -0.49788913428599396 0.0529067027905045 -0.18253842214524924 0.0020788742434131825 0.0015227264254202948 0.4221859868085698 0.08774788580224685
60940000.0 0.8583325232259448 -0.5050685202124391 0.05088622173239836 -0.18929705609980096 0.0017786248030548198 -0.0013323512783264793 0.4099359704652025 0.09115251389491472
61939000.0 0.856386301056444 -0.51040623701113 0.05119874276778624 -0.19414492429429633 0.0004648946525503828 0.0005252229488084645 0.42450392616966337 0.07156376912503282
62938000.0 0.8508519901792437 -0.5203792296547012 0.05762143317480234 -0.21342321815859627 0.0007849577172962876 0.0021289562125269275 0.44401680044761427 0.06673115555048834
63937000.0 0.8465440367987309 -0.5285805175831861 0.060308794139762555 -0.23726262473143078 -0.0017180206786446231 0.0005666220110139281 0.4505511842411503 0.04964227060466707
64936000.0 0.8410698534340423 -0.5335178329694694 0.058627625941700394 -0.24592636912061722 -0.0029778280300430298 -0.001784408789176418 0.4382735280339834 0.05144647250925109
65935000.0 0.8373317835047187 -0.5451644089197375 0.056782868774113364 -0.26251208743223964 -0.0020195519432110232 0.0045619058953438076 0.4438340687205164 0.0254784669079507
66934000.0 0.8320821953511824 -0.5497776360598498 0.05567612174940347 -0.2731858307978392 0.0006811519504038399 -0.0016929404129635058 0.43877549548721395 0.027718933174038236
67933000.0 0.8294260530701308 -0.5583852649636311 0.05713303684232712 -0.2935241900647599 0.0005859010400940279 -0.001969059764181051 0.44485458165023084 0.02776954058219514
68932000.0 0.8254169085017423 -0.5582811199202659 0.05758757429813324 -0.3025583185196153 -0.0015114020797988572 0.00010045291866685128 0.4563084184379749 -0.0049382724341629726
69931000.0 0.8150963332609525 -0.5733972743862237 0.055032471535342534 -0.3237784032662953 0.003497436457291043 -0.00010596446732502913 0.4580837037961203 -0.01169697460193702
70930000.0 0.80980617628942 -0.5804211969574413 0.055580355672364 -0.33674074467421294 0.00023902320409076945 0.0008670157298205047 0.4523516553786699 -0.02439140002105345
71929000.0 0.8070792408670173 -0.5897044700479376 0.04650597434280261 -0.3535465154350083 -0.0019143905142732641 1.308611541089667e-05 0.453673416668031 -0.027995664296371944
72928000.0 0.8003703644093352 -0.5965845556367244 0.04512200224036418 -0.37360489424896537 0.002106700401588688 -0.0002340230393488248 0.4704420131250655 -0.03377974752785556
73927000.0 0.7932568161780936 -0.6044426681191476 0.03907265468252144 -0.39273554463666827 -0.0023089806077787787 0.0027244795327184134 0.4686179476760493 -0.041782418609356525
74926000.0 0.7899196712453329 -0.6131869586395857 0.03274865871119942 -0.4108668836150481 0.0005622501232473399 -0.0007007654347856716 0.47371661404125676 -0.039805968636587696
75925000.0 0.7829694608086704 -0.6186140893335521 0.02360973668517046 -0.4305925901861068 0.004828363036498004 -0.000592284699967651 0.4810436064343476 -0.06394209388131136
76924000.0 0.7773179615407789 -0.6256424560050957 0.012104217417001361 -0.4567812426127106 0.0007999082538270945 -0.0033677714757541504 0.47352866865797144 -0.06314682978716428
77923000.0 0.7710055194537877 -0.6330123259185361 -0.00224668523707252 -0.47728619419736573 0.0014481218413455016 -0.001364456147011737 0.46462807873253076 -0.07735379281791703
78922000.0 0.7638747667642677 -0.6438511112662894 -0.01225720493133637 -0.5063100305331915 0.0025235551234651416 -0.0030591031663598457 0.45993597789694013 -0.09121943159209783
79921000.0 0.7563592825492166 -0.6496813301355016 -0.033418831925312635 -0.5325817763686979 -0.0006238867144782672 -0.0014665674809999413 0.4663388156622274 -0.08914087396784431
80920000.0 0.7515437113984492 -0.6570631000767312 -0.04653597770064705 -0.5580091474795058 -0.0010895249794667787 0.0016428981324497622 0.47858172210576533 -0.1181466906488708
81919000.0 0.7483818622960219 -0.6636881991630844 -0.06281818881159902 -0.5864033155017375 0.003802180796489272 0.0010949949365564227 0.4671818007729405 -0.10786786619078222
82918000.0 0.7371722671134429 -0.6707233679870016 -0.07457665416556448 -0.6150793916645799 0.0022440562687505413 -0.001338387466461562 0.473316047094341 -0.12155378790884133
83917000.0 0.7316315430369782 -0.6788676101644049 -0.09740075133144169 -0.647509313967043 0.0016558201326570398 -0.0031252171176236096 0.47741930409654293 -0.14088365657155788
84916000.0 0.7267978260864375 -0.68511067367399 -0.11058079184853432 -0.684698746366715 0.00607549185139482 0.0013280896842951318 0.4846368773983964 -0.15224595993172269
85915000.0 0.7190066932188389 -0.6939095045058185 -0.13157266061354242 -0.712758472587365 -0.00147202153083496 0.0026973748640591842 0.47655103733929693 -0.16403518962966446
86914000.0 0.7105910582932337 -0.703231869333794 -0.14667709235461937 -0.7498489667835746 0.0019334337443925311 0.0016184947791526162 0.4756323210299086 -0.1537075082931929
87913000.0 0.7028492256241657 -0.7091171547745201 -0.16439830386517768 -0.7777908668699144 0.004322701819020454 -0.0026220340723067015 0.46252372833895034 -0.1696510074607188
88912000.0 0.6989440704199075 -0.7150444964593822 -0.18080864431899002 -0.8152090324226842 0.002665297698867589 -0.0029875120783205435 0.46951367348867135 -0.20315925253892161
89911000.0 0.6892456883460779 -0.7238418003710072 -0.19789746031648062 -0.8488894242163033 0.0004937268116665657 0.0026460364475287502 0.4815608334474495 -0.19691072920081779
90910000.0 0.6839868245700176 -0.7275894259268918 -0.21307644638718432 -0.8891166702969916 0.0007929464834785203 -0.0047846424512981165 0.4637718553020123 -0.20310669607309692
91909000.0 0.673908588877608 -0.734381580298683 -0.2355091867950173 -0.9195210761397206 0.001241570629804621 -0.001918157272020873 0.477940893495721 -0.20132739300580008
92908000.0 0.6669329933000296 -0.74276985481767 -0.2536265223638933 -0.9521650654606045 0.0025172869997844537 -0.002014154155077556 0.463152788389118 -0.21548418254569146
93907000.0 0.6596400132972411 -0.7483430433151737 -0.2739893754885351 -0.9852465185142256 -0.004675323829819065 0.0006095803804011311 0.46758430711436627 -0.2408812156341337
94906000.0 0.648464138091165 -0.7560928645574447 -0.29249650607586575 -1.0233833921998203 -0.0007685471704294948 0.00017057815273304258 0.4694444925707067 -0.23516622180923788
95905000.0 0.6433514322042635 -0.7622247684369243 -0.3161544251518375 -1.0568070789509838 -0.0024862483617928664 0.000172061698231447 0.4661617928108283 -0.24547138799337562
96904000.0 0.6333871856221189 -0.7718941650477037 -0.3365047251505963 -1.0978128088391579 -0.003481281216055989 -0.0004201214682918849 0.46354924904804923 -0.25675299212081176
97903000.0 0.6251637048119766 -0.775688871307797 -0.3543621072445717 -1.1316700631867869 0.001366590337286354 -0.000688248296413852 0.4630983332307109 -0.27309234824860523
98902000.0 0.6196750264586094 -0.7818397457948283 -0.37864217337935147 -1.169609446305715 0.001900245801413417 0.0018042444800554834 0.4619025464603324 -0.2789346060521363
99901000.0 0.6099921747003284 -0.788778020307592 -0.41036706356704433 -1.204107174874131 0.0019749094396482 -0.0033696980613236597 0.46979986945023855 -0.3021838784490974
100900000.0 0.6015112842150434 -0.7926286695306759 -0.43470604345450853 -1.237926162254085 0.0015855976151100595 -0.0014032965125579454 0.4688635504327789 -0.30185972620998824
101899000.0 0.5922939626801063 -0.8007749680607511 -0.4690902317668065 -1.274259121003638 0.0012779786621977035 -0.00163417452237127 0.4673160684972633 -0.30585305723052875
102898000.0 0.5830114929870442 -0.8076686171134901 -0.5004178005070826 -1.3151789714273316 -0.0029423017444963613 0.0016314732115587038 0.46633178175727275 -0.31093480056771927
103897000.0 0.5744614408624029 -0.8144363877444892 -0.5416116318802761 -1.3512190845310708 0.00017399813784992784 -0.0015545415583530623 0.4671083634210182 -0.3230770612100742
104896000.0 0.5665038080665195 -0.8233037941459593 -0.5896988639912921 -1.382843488950351 0.0032781940462484056 -0.0030566219175490947 0.4559824281032874 -0.31976102087501285
105895000.0 0.5561541240339396 -0.8262753118289577 -0.6322828834060584 -1.4301571478714221 -0.0012054075628281941 -0.0034598194019307706 0.44382490914792955 -0.3350505647060338
106894000.0 0.5500856676012207 -0.8330235701543621 -0.6815940903984568 -1.470796109698044 0.002476844735024907 -0.003088085846018436 0.4322652472008943 -0.3528757033862628
107893000.0 0.542036762714746 -0.8379761070840375 -0.7298484103969135 -1.5112983871380592 -0.0007613726366442344 -0.003722267553880216 0.4457533419492429 -0.3554955141504339
108892000.0 0.5297223846828074 -0.8415953445593434 -0.7942250650138957 -1.549711804869755 -1.733050666160694e-06 -0.0056616581824285705 0.4410398337769011 -0.34915822511727174
109891000.0 0.5196567930952759 -0.8515691911142239 -0.849274154129377 -1.5870858085588289 0.0016722970074514202 0.0026773492021342723 0.45037252827937324 -0.3543047734426466
110890000.0 0.5150949663822275 -0.8611782307006441 -0.9175750963854821 -1.614256535093841 -0.000934635653596591 -0.0003872546616944373 0.4427322611362979 -0.3670762128293537
111889000.0 0.49966885465978245 -0.8575486967472933 -0.9757604928276202 -1.6544953264173339 0.0010979991942360776 -0.0014431180347195874 0.43252460650759567 -0.38500469002656257
