! Created with skrf 1.9.0 (http://scikit-rf.org).
# Hz S RI R 50.0 
!freq ReS11 ImS11 ReS21 ImS21 ReS12 ImS12 ReS22 ImS22
1000000.0 0.9771760569287702 0.006360280720501904 -0.011378655770526023 -0.04145155288183876 -0.010154607695861895 0.0007871080236958214 0.33951850950760537 0.335443385792199
1999000.0 0.9980222128895226 -0.014053266778236035 0.007563744592304709 -0.011079920479826616 -0.0030617909780080972 0.0037113832536519614 0.2502394473795439 -0.021943911497736193
2998000.0 0.9952249537201291 -0.026030386239489035 0.008457723982476984 -0.017297475331745197 -0.0077365611937651015 -0.00037715175835719176 0.2074738161495133 -0.13304073952123815
3997000.0 0.9913844189137492 -0.03467190816854473 0.0045140302718177545 -0.010014750649951948 -0.004770253534619889 -0.004359342179600778 0.0782151005419777 -0.21066502233690412
4996000.0 0.9934007009875865 -0.03997155606655574 0.011275851932928032 0.002960666634996782 0.0015182393759650356 0.00100110340129544 -0.04243446558938992 -0.20744878435178377
5995000.0 0.9935065543533381 -0.05121299702221573 0.008644658755310024 -0.00197956068528897 -0.0026587806420269263 -0.0017313772568920056 -0.1317685283510862 -0.11810992579029496
6994000.0 0.9884140262295935 -0.06005287984779999 0.005869680968757063 0.0021966648382061283 -0.0017021509385396752 -0.0074957981802759675 -0.14896242235385876 -0.009229413227995562
7993000.0 0.9926995586029009 -0.06853247001944089 0.004406869645363607 0.004157966318114281 -0.001055902446999976 -0.0012887353123583844 -0.16470424006840004 0.04034364740142932
8992000.0 0.9913084871582761 -0.07391777764063255 0.003616977330737424 0.003490025951928092 0.0013736436141657288 0.0038577238631169177 -0.15685400088621498 0.05671180842070964
9991000.0 0.9897709775144932 -0.08306824730241164 0.0038765279562703128 0.0020062668946714724 -0.0015140937716674543 0.002392659867155761 -0.1492695170198167 0.0899020128021651
10990000.0 0.9884440866561195 -0.09313843196312523 0.007706905945600488 0.0008985316731667601 0.004592431923031578 -0.0005984263660940068 -0.14357168263917633 0.12018210693009017
11989000.0 0.9852580702575429 -0.10059248904556833 0.005483344331996605 0.00033751712576507155 -0.0021941062018321785 -0.0016759297183001358 -0.12946768260176322 0.141415261141537
12988000.0 0.9871467174953428 -0.11196545777680648 0.0052371382253917015 -0.00624849760763666 0.000592616886371716 0.0010220036755819878 -0.13590239206905658 0.17136112690720853
13987000.0 0.983975083335709 -0.11863110816512062 -0.001276799571447004 -0.0069786073083497645 -0.0019229048145348808 -0.0017813858659870905 -0.08529143142572408 0.20140761050752526
14986000.0 0.9823864914592293 -0.12679039341931925 0.0006732691999759852 -0.005264315105971497 -0.003670707273391757 0.0005676177683774996 -0.08948505349196254 0.20104509461198153
15985000.0 0.9853004684642056 -0.13722175208478118 0.0019518185440124678 -0.0047394594532023425 0.0038066633355653247 -0.0006599708541736313 -0.07220393898211344 0.22576439668926376
16984000.0 0.9826168872210026 -0.14448704924700911 0.0012736370400236046 -0.005249481083724363 0.001595732538942385 0.0005086641264975244 -0.06327092273775388 0.2174042404710708
17983000.0 0.9812687052244029 -0.15230623372739527 -0.001111672959705923 -0.0046880966801740205 0.0013375189142517156 -0.0014217189516282434 -0.055451685783837294 0.22172471446309402
18982000.0 0.9780352371133298 -0.16308919609119607 7.178780439658695e-05 -0.0004074363857677998 -0.003986102488830662 0.005438224025455186 -0.02740561181466111 0.24645909605140182
19981000.0 0.9791418654271538 -0.16734748771593025 -0.007329083379957617 -0.0034726438242107453 -0.0022614312668929955 -0.0019872216256921977 -0.013208294776418775 0.24613700371990319
20980000.0 0.9780179677927662 -0.17635991935671685 -0.004635315784145091 -0.0009428029721587556 2.96576235039769e-05 0.0019083225581949337 -0.007755900714053918 0.2522521460781181
21979000.0 0.9751587123389502 -0.18766407700846868 -0.007458877138173357 -0.000514100818571441 -0.0018954613426208986 -0.0020978996808069207 0.007178608554206977 0.2489180996351721
22978000.0 0.9731163985979954 -0.19465312928557665 -0.006468143521327044 -0.005491188540317569 0.001994482749025981 -0.0003962881002525371 0.023303776676252264 0.2608422393902363
23977000.0 0.9733912415011365 -0.2027338458641678 -0.003119903739082267 0.00193004358501576 0.0012883663998820693 0.0008897633812171163 0.045225470518277876 0.2538661082428302
24976000.0 0.9694570211460016 -0.2144783173953041 -0.004983256844257902 -0.004201495516534176 -0.0007074862111072989 -0.0010982440464860433 0.058872928919578245 0.25464285239030426
25975000.0 0.9665322071773377 -0.22794086854687554 -0.006552975206646066 -0.002099241320401721 0.019699095772650218 -0.016857687599132757 0.06826415053360022 0.2540403151863223
26974000.0 0.9662929453321186 -0.2315571214957104 -0.004781126342958461 -0.0027636180050196256 0.0003118923485646277 0.004928428637102382 0.09822148264626736 0.2649547862782799
27973000.0 0.9640144269162623 -0.23824910284471298 -0.004586276905156771 -0.0009549507445945208 -0.0005996302911839753 -0.002038943439996221 0.10418688265135066 0.25949372189013303
28972000.0 0.9646511133194625 -0.24465733899583197 -0.004065934699571278 -0.0027518782700043662 0.0012805437123301802 0.0006842806741941798 0.11689085456190353 0.24587929652125637
29971000.0 0.960591146946738 -0.2565668207378938 0.0011736031155668506 -0.0012017295958874363 0.0019399909642106722 0.0015972767300881042 0.14632547540742075 0.27507861007317946
30970000.0 0.9587619300445304 -0.26113608784365094 0.0002672677695259916 5.7924940134724576e-05 -4.6012482380376826e-05 -0.0020388321159100363 0.16121235102384082 0.2597619009446264
31969000.0 0.9562924915520561 -0.2710505850854428 0.006478197894481913 -0.005946705099534541 -0.00093091591027821 0.0003145969537740184 0.15727633232868327 0.2495185376324524
32968000.0 0.9540289483337437 -0.28030263196447325 0.00787828510262622 -0.008019763647654322 -0.0017070518490722645 -0.0012897474834164095 0.16254910180775722 0.24964555143341005
33967000.0 0.9512219971772801 -0.2910453273737044 0.010990707539519374 -0.008388648571990127 -0.002378649820742876 -0.0008231256976160352 0.18799959719756987 0.2487367233251887
34966000.0 0.9489744033172954 -0.2994618044468833 0.014872212508029689 -0.011117868909373111 0.0019806659950978005 -0.0004503000344928249 0.1984844763096488 0.2529850085145056
35965000.0 0.9470604273785517 -0.3053173593878264 0.013449989910304572 -0.013036954999642561 0.0006753707682764655 0.0004823825813010423 0.2113244747448448 0.2499009985850706
36964000.0 0.9437199661845195 -0.31567053380493015 0.018255914795959373 -0.017490295442406673 0.0011123827992100305 0.0002591589303162388 0.20704294269291476 0.2503624379375996
37963000.0 0.9418135880912456 -0.3236096945035693 0.022283914011161223 -0.01806614392124597 -0.0019358157517074604 7.384218286508195e-05 0.23050332406390067 0.23398526203265962
38962000.0 0.9386392017618373 -0.3325616849095828 0.021447482239455126 -0.025838317352495248 0.0006547631606296443 0.0017780521824969813 0.24878874884585342 0.22711124164539911
39961000.0 0.9350446687834377 -0.3431456806833964 0.024828932838815643 -0.026699618508427836 -0.0013024189340063055 0.0034425625176083413 0.25224623730221274 0.22653807060155645
40960000.0 0.9308798294729728 -0.3504103535647442 0.022633488525829797 -0.026092705580700728 -0.00449569061300132 0.0008401522430915798 0.2664041040473222 0.22893224827390204
41959000.0 0.9286854095930732 -0.3591515262475519 0.028002474811498798 -0.03073633512557045 -0.0033937428605611223 -5.0845247677773566e-05 0.26192187765511604 0.21199232134824703
42958000.0 0.9222253189059992 -0.37080958523982077 0.02893174645159278 -0.04083438489007455 -0.0009119131993813909 0.00016286353142430513 0.2845185375993189 0.20255727276092797
43957000.0 0.9217293707630967 -0.37587338479422255 0.03185875822905024 -0.04479515041835359 0.0007691447597305556 0.0006473703100730104 0.29244229445585207 0.20787615493460693
44956000.0 0.9188933054023903 -0.38301650338682436 0.03350960107369855 -0.0505501685149672 0.002486209476076138 -0.0002686172793868947 0.2986640887309988 0.20097176065179426
45955000.0 0.9131112851099629 -0.39406502519867465 0.03325992940550956 -0.05597303596090283 0.001063172103582142 -0.0032310454040419675 0.307135335138681 0.19397900989089017
46954000.0 0.9095269972841433 -0.40393270957090105 0.03382582421836236 -0.06380806884241562 -4.092911038665855e-05 -0.000144946239960879 0.33340691865077765 0.17948423907628688
47953000.0 0.9090116830952162 -0.40943752086051227 0.03138384460279461 -0.07302376950307099 0.0017905073050169889 -0.0007489109249869436 0.33945174140540535 0.1614117390459498
48952000.0 0.9013719850304012 -0.4202948853725849 0.03597350759413608 -0.07933150466904453 -0.0011856769229845819 -0.0018315830541642969 0.33942227353434046 0.15985177475955456
49951000.0 0.8981732356117073 -0.42772406005250235 0.037808497139180365 -0.08810633568391431 -0.0020625504169789477 0.0012038322098282506 0.3565166207876762 0.1423011614363574
50950000.0 0.8944449962318027 -0.43558938710314155 0.03530296836536213 -0.09356411846543652 -0.0029393132568307384 -0.0029330758811900995 0.3555197635947468 0.13686780389315578
51949000.0 0.8898359048134737 -0.4435318272421794 0.036858352139284706 -0.10428772860972899 0.004496483003178138 0.003407425657329902 0.35939387550355867 0.1409757215960698
52948000.0 0.8884916411973532 -0.45175783664750485 0.03917003682819716 -0.11213518961114606 -0.00039814256074962375 0.0008158035623143185 0.37309138033253947 0.1371850538927634
53947000.0 0.8806788204785867 -0.4619667735600094 0.041860321601512845 -0.11996320676631614 -0.0020840316299515233 0.004396852274464267 0.369423411065968 0.12542964648513064
54946000.0 0.8753048089086 -0.4702767430242317 0.0407165510451097 -0.1327982499355732 -0.0018560405345624295 0.0010563519488604217 0.3849284331996328 0.11653359895277333
55945000.0 0.8735627026331498 -0.4783838818211447 0.04601285228771327 -0.13857529650117686 -0.003863362392658961 0.0004008211803191415 0.3792095012671312 0.10185451899068393
56944000.0 0.869924169820127 -0.48612349452866677 0.04498469660598268 -0.1453604039873228 -0.0004738691403649974 0.0017792408426499596 0.4049808215230906 0.10292525564565105
57943000.0 0.8626206541349073 -0.49787204288437875 0.04624280374416184 -0.16058307984852865 8.140795163208737e-05 0.0025335071566362443 0.40594289774022757 0.09057461046136035
58942000.0 0.8594008513965177 -0.5003848918152309 0.05098231072150264 -0.17089049571540296 -0.00043680178704666206 0.003252240111526491 0.41603826832865354 0.08660606044489771
59941000.0 0.8543418972840285 -0.5114977093527656 0.05008490443874166 -0.18112422704765954 0.0010009097104084477 -0.0016103034150513618 0.42546018572609823 0.07993425576262023
60940000.0 0.8469909305844121 -0.517443791965612 0.04958645640743501 -0.18119833111042594 0.0006654129071386722 0.0008197542046993482 0.41184524513981563 0.07047863795906664
61939000.0 0.8445429843011697 -0.5244555076693106 0.05007829771923498 -0.19116953613885151 0.0003581448591956431 5.201538494496577e-05 0.4149700928647579 0.06319063310384086
62938000.0 0.8364115452697899 -0.5357654391236918 0.05437071434304625 -0.21081399644906615 0.0007449157225298315 -0.0019946814107681104 0.44276992952474664 0.053872523863384154
63937000.0 0.8349601890947174 -0.541023948005921 0.05734746767769199 -0.225471036073275 4.428267762458684e-05 -0.0024306494178353644 0.43444067963647015 0.03580477877898305
64936000.0 0.825356405579973 -0.5480831693612813 0.052563527587150945 -0.24230741915179738 0.004242438069021747 -0.0010082809434949311 0.42955634121886904 0.04252967254539585
65935000.0 0.8230642422827592 -0.5611751745520352 0.051672693590294805 -0.2579328778236181 0.000880624748027 0.0001235363352888239 0.4297078702180408 0.015157200019640575
66934000.0 0.8190312179309537 -0.5641134796506271 0.05558405202742198 -0.2653657697312388 0.002737775534979332 -0.0022753453897306737 0.4322095627544565 0.010671709237116285
67933000.0 0.8147590868959547 -0.5718915690954623 0.05459210905775919 -0.28133712801012545 0.0022032796989251207 -0.0012816752052311965 0.4398073804064023 0.013164439346515854
68932000.0 0.8109906549564239 -0.5680332806159782 0.048392396137163764 -0.2950002945106222 -0.002356498200178203 -0.0036278272368673913 0.45083229446013523 -0.010055707824412933
69931000.0 0.8003522992578335 -0.5877606852084438 0.04891267141481127 -0.3121873508921633 0.0002933633860472831 0.002760490387676051 0.4501321023883605 -0.023066546079648427
70930000.0 0.7958011412928312 -0.5937104098944429 0.04722663941148831 -0.3247996535554453 -8.021984325886348e-05 0.0046073833819693715 0.450626904546406 -0.03297511737604926
71929000.0 0.7902752822058204 -0.603576507630566 0.04600792349391008 -0.33977513890729044 0.00023773804881679702 -0.0025863995234870004 0.451109666824107 -0.03996115174332642
72928000.0 0.7842229624807083 -0.6154350707093166 0.0415214183224755 -0.3563487256883768 0.0019959462281490823 0.0034210817792238546 0.4655750143785686 -0.04682876968014087
73927000.0 0.7764387044580837 -0.6194169292192881 0.03253844371561287 -0.3795529712412198 -0.0012657332729404862 0.0021287096046834018 0.4610404869342786 -0.063823822116928
74926000.0 0.7708400781587607 -0.6290311457544815 0.02592106817382168 -0.3967288600186083 0.002546496189908063 0.002613567135503452 0.46198904077387953 -0.059647843756758225
75925000.0 0.7622895019056418 -0.632989254405988 0.012772537128549389 -0.41172041066415427 0.005013892305768753 0.0021892990399333062 0.47005983445202687 -0.08126271386025165
76924000.0 0.7588615698468127 -0.6406910392222064 0.002593718129478038 -0.4373966638744571 0.0029980078628506672 0.001519226433644957 0.4596694919541839 -0.08900066677605552
77923000.0 0.750457965426056 -0.6475947765837713 -0.014153596197373884 -0.46063831201181227 -0.0005600990814853287 -0.0022629030269855337 0.4602046990233102 -0.09986130568375591
78922000.0 0.7451368230187538 -0.6562382714590168 -0.026729261696683257 -0.4893061976504592 0.004115754224188045 -0.0002445982216764173 0.45620086480503547 -0.11008752120080514
79921000.0 0.7376889414771904 -0.6605076660859147 -0.04554046935357428 -0.5114004786102728 -0.005256386020467581 0.002173686750392748 0.4483866946594011 -0.11585883129661267
80920000.0 0.7319394796067816 -0.6725896576650238 -0.05951775552189098 -0.5372106722754458 0.0022246605586824634 0.0013699062182290541 0.4689431420436259 -0.1419485488451772
81919000.0 0.7247729250751457 -0.6776700371884662 -0.07325948400175433 -0.5684506509291697 -0.002322447991307848 0.003550678313755013 0.46259168466848927 -0.1342259908682703
82918000.0 0.7178236502690779 -0.6863071827537407 -0.09066621527718195 -0.5942090294368739 -0.00043277871090536066 0.0018893370842854099 0.47537195263218474 -0.15267012721440928
83917000.0 0.7080228417962726 -0.6939894034988794 -0.1147233395994911 -0.6230595258690296 -0.0027331491708692617 -0.0036846923851492227 0.4717254751120678 -0.1648346852707096
84916000.0 0.7026047136927899 -0.7016078871596816 -0.12692008756700848 -0.6565487128134385 0.0005842610232843315 0.001616597105364149 0.4614807676445435 -0.17207574481083274
85915000.0 0.6956499312997049 -0.7071074555085075 -0.14445465515725847 -0.689902417780513 -0.0015893101920444828 -0.00216289114334576 0.46157107960506555 -0.18675013923746953
86914000.0 0.6874804896217184 -0.7181066840236779 -0.159381295586965 -0.7243869494648703 -0.003616101865571634 -0.0028991179455153853 0.4628952430083335 -0.18135612727519262
87913000.0 0.6820727370486731 -0.7216970153512702 -0.17942470790199258 -0.7487621334838486 0.0008406783766656463 0.002279867468583824 0.45703878100957157 -0.184728439278539
88912000.0 0.6733669428873671 -0.7285768259089231 -0.19075031165031098 -0.784447228094605 -0.0017930152588863074 0.005789651448852588 0.46515210216619685 -0.22100219634964702
89911000.0 0.6660547382665067 -0.7381693258472174 -0.21228719397895898 -0.8227071556152529 -0.0008691611721862904 0.001747346118485904 0.46274541532850383 -0.22205525440630872
90910000.0 0.6591813493261353 -0.7416459811726722 -0.22569757939607743 -0.8529284298689729 -0.0029146277254989677 -0.0016426532963022705 0.4557340570685814 -0.2199729281634696
91909000.0 0.6494776573588862 -0.7466491252044786 -0.24283538179992598 -0.8832072372343222 0.002116048639508225 0.000842540132261598 0.4644536710537862 -0.2296696527768989
92908000.0 0.6424756464558878 -0.7568855008758518 -0.26238458783348517 -0.9158024882819723 -0.0009831133227845214 -0.00017049214802056884 0.46457568913327685 -0.23929359172226264
93907000.0 0.6363856804397804 -0.7624226171338291 -0.28165422177170796 -0.9450801211665463 0.0036214663080504747 -0.0036920439743664034 0.4575043989599339 -0.263688191575409
94906000.0 0.6250512189934464 -0.7709015979272623 -0.2930559231435607 -0.9823831438087053 0.003659535964142606 -0.0039219697525155455 0.45466555310898027 -0.2544149202938088
95905000.0 0.6166116421757324 -0.776223075267894 -0.3147837511401834 -1.0134212610726672 -0.0019519419665615378 -0.0006184335620257653 0.4548831176124737 -0.277188616637041
96904000.0 0.6093512671289507 -0.7840582595938532 -0.33770102072386915 -1.0503607743142624 0.002598477205021667 0.002089584343902582 0.45503999604482376 -0.28583532468980594
97903000.0 0.5998544996155132 -0.7888884530451833 -0.35372810722543213 -1.0820998265500799 0.0008896260261491086 0.0021046599963172544 0.44544087647632086 -0.29188972517717554
98902000.0 0.5949143728596981 -0.7968892102531895 -0.37511502024554844 -1.1211772965888054 -0.005448125302179616 -0.00025691551485121703 0.4514973705035799 -0.29556045777193046
99901000.0 0.5838906784083427 -0.802274563866913 -0.4053426710138353 -1.1499262409873816 0.0009376619351959718 -0.0007133738228149006 0.45261987692305816 -0.3186271845529752
100900000.0 0.5752718512906737 -0.805282180899094 -0.43424947114012064 -1.1770900190769291 -0.004757392086111928 0.0011790331067020948 0.4550943481097203 -0.3157881312899342
101899000.0 0.5674104582828295 -0.8128916197226229 -0.458974534450961 -1.212235649783706 0.002140088367686635 0.0012983264558239398 0.44554323549343416 -0.32938751299198066
102898000.0 0.5562772087635953 -0.8203908866114881 -0.501165311523175 -1.2524258412815823 0.0002914365780911018 -0.0004216551407673683 0.4453948918222447 -0.34652299569963746
103897000.0 0.5486253837063706 -0.828287554447752 -0.5393038358399781 -1.2836701933243158 0.0003845232082092343 0.0021101029436350915 0.4518363167278059 -0.3428050570205316
104896000.0 0.5377383028141614 -0.8365736894407722 -0.5806585597766889 -1.3143323031056724 -0.000851614029025876 0.0005137816573169137 0.4414883476054329 -0.34273284612599436
105895000.0 0.5280942142290854 -0.8383714883002431 -0.6198991262401878 -1.3562351682918607 0.001784552367970911 -0.001432572997780363 0.4185324638145887 -0.35461815952273223
106894000.0 0.5210861174792453 -0.8449995957960017 -0.6714571434258382 -1.3943152846768243 -0.0006897738522009195 -0.0015719896158804306 0.4281246597670382 -0.36897998344538663
107893000.0 0.5128669238935292 -0.8510593039506642 -0.7266921551765544 -1.4259184314433468 -0.001027507630652706 0.0010308168369887359 0.4242920320383772 -0.3815347247024112
108892000.0 0.5003947084123693 -0.8539579710061262 -0.7818585041952787 -1.4639892360128615 -0.0021696357179304356 -0.002287664955796736 0.4175636447282689 -0.3725368115049089
109891000.0 0.48738312705641135 -0.8611564732182613 -0.8426150848611118 -1.4964448512606474 -0.001900879666724912 -0.002557032245383657 0.4359902790450786 -0.3864983904600308
110890000.0 0.4714800526018982 -0.874879051025061 -0.9222170511576457 -1.50215004828216 -0.0013530432870043545 -0.0010821707189632567 0.4249806051869126 -0.38763285880452075
111889000.0 0.4671396516245559 -0.8696921486193195 -0.9685217351931703 -1.5689666690081119 0.0007857569112966797 -0.001489764951888217 0.4213140218770432 -0.40141080074879687
