! Created with skrf 1.9.0 (http://scikit-rf.org).
# Hz S RI R 50.0 
!freq ReS11 ImS11 ReS21 ImS21 ReS12 ImS12 ReS22 ImS22
1000000.0 0.974445992539246 0.003943356975947006 -0.005566274105403392 -0.0351060862615874 -0.0006625434929750956 0.009389606986013705 0.420530215073101 0.34215185750711835
1999000.0 0.9907835867937097 -0.01299747905678355 -3.669111680865767e-05 -0.02741640020856216 -0.001917582414425687 0.0010483727793038848 0.2509123676716001 -0.06837593727907332
2998000.0 0.9974030461952214 -0.021829768440897124 0.005025669249813383 -0.01325729060554532 -0.0010009585041840063 -0.005404346893251923 0.1711232275233151 -0.13541418911991362
3997000.0 1.000164560788399 -0.026049057906934823 0.010284808845385674 -0.005378392492025531 0.0014292429861387154 -0.00019812230111042038 0.07042279969567733 -0.2458025844840174
4996000.0 0.9974476590134591 -0.03818269323476668 0.01048392668513233 -0.0006279901766709609 0.004551764128787756 -0.005381152578990959 -0.07674683289553905 -0.18099260331216357
5995000.0 0.9962443551683077 -0.04840041458792289 0.011177953536004205 0.0016861995863571638 -0.00239532497569255 -0.001931992202190134 -0.1380682449099057 -0.0880421280981911
6994000.0 0.9926268698784094 -0.06042073847348564 0.007211582813106914 0.004001840360096961 0.0013599531683016837 -0.005651540881257625 -0.1374548756587917 -0.01580791747562314
7993000.0 0.9964681429922984 -0.06457879039375441 0.0050945022772781335 0.00928740096610499 -0.008345950392912704 0.00015531858768762441 -0.158276934210666 0.055750095487563996
8992000.0 0.9944209149795927 -0.0718448275811113 0.0006919433257829327 0.0016638218235738027 0.00383677053490864 -0.0010835520167287171 -0.15002753623089013 0.07899785335013192
9991000.0 0.9929403578840323 -0.08281901229119937 0.0007578076984027424 0.006258087572997244 0.0016757023409847565 0.0030165938526454314 -0.14928853628789926 0.11117043742837655
10990000.0 0.9950403566790903 -0.09133919262807647 0.0033866488540066565 0.0016065702197711126 -0.0019254804562765673 0.002433745394283671 -0.14009441885939616 0.1218839089849356
11989000.0 0.9915890326059407 -0.09660116881081081 0.005108848059864175 -0.004845576047790607 0.00036303188784175323 -0.0004323633580069577 -0.11618688485529118 0.16070506007162097
12988000.0 0.9900400678438581 -0.11095168723696323 0.003136455653055626 -0.005694273876879773 -0.0008078873333355171 -0.003473437003890675 -0.10674306890758155 0.17969897527306966
13987000.0 0.9892082638165853 -0.11842316308044182 -0.0012898907240935181 0.0006668550926262012 0.0041814383018360475 -0.0026565950389245397 -0.09173963480663333 0.196667118298295
14986000.0 0.9888448528642103 -0.12221001758022298 -0.005908133503506048 -0.0020983887923950962 -0.003699434078033945 -0.0011808538547936984 -0.08498210872357198 0.20916198226155963
15985000.0 0.9901387074005153 -0.1328187226268825 0.0021848030439780026 -0.0019957156187754943 0.0015216116907092673 -0.005732033447032291 -0.06817767103655292 0.21680778331976824
16984000.0 0.9862433087944685 -0.13959230191933442 -3.132711235694479e-05 -0.002754896884393611 -0.0004979676701318811 0.002107833007158638 -0.057906311172730096 0.2222906988153282
17983000.0 0.9870131210527767 -0.14816049161182201 -0.002022403004376576 -0.0060835305718627405 -0.0025630018646700227 0.0007450421913871635 -0.044023396593547245 0.23385223713021702
18982000.0 0.9824910847665128 -0.15657531701810798 -0.0018561949409123526 0.00020072423625558516 -0.0004784401305173336 0.00027433340907654106 -0.015235237114137613 0.24610218775020268
19981000.0 0.9834765933278207 -0.16175092612193678 -0.005932628309708075 -0.004982262016810266 0.002891924994264901 0.0036885365170411357 -0.005665585749582378 0.23784685917001938
20980000.0 0.9803236197776154 -0.17272107345403276 -0.00770490963164288 -0.004648497620814362 -0.0012962513175515254 -0.0026436744071549234 0.005273757533099211 0.25614903353461177
21979000.0 0.9791943901743171 -0.1829490172702418 -0.004527000035321735 -0.004202328103979627 -0.0012496137956521463 0.00025419558057691654 0.02687501471205681 0.2415213054395755
22978000.0 0.9787190317967931 -0.18994292904909035 -0.004190229517308257 -0.005324242904796757 -0.0024740293316334043 0.0011495826235280219 0.03222935959397537 0.2597402299671967
23977000.0 0.9772080935077343 -0.19958075240107512 -0.004903503463819532 -0.006889171713922499 -0.0006225896973972711 -0.003808755638104757 0.0399466690489798 0.25750057383062525
24976000.0 0.9737256215447491 -0.20902357141789527 -0.011194585932832122 -0.0018490804116741825 -0.0006099216007619448 -0.0008219969952651815 0.06336143004731286 0.262213424813375
25975000.0 0.9773444316917016 -0.21828055749705463 -0.006637919244494615 -0.0033985843487058017 0.007625761369760663 0.023952206685686938 0.0816266467721296 0.26469217762153074
26974000.0 0.9701265277920217 -0.22573458502009772 -0.004916104555049771 -0.0010847240808532338 -0.00203038194879548 -0.004819889483308249 0.08832526724215409 0.26190408556714434
27973000.0 0.969230995997671 -0.23115304960645086 -0.0007001199661053825 0.0004801052779522405 0.0021280766012157118 -0.003614446583400865 0.11472368927972751 0.2507665374069047
28972000.0 0.9668729601525494 -0.24370073355418206 -0.001522500174815355 -0.0014162635643788953 -0.0013764719305522383 -0.00019426087702569973 0.11856780556394349 0.25473738429164827
29971000.0 0.96579747399019 -0.24748653078131003 -0.0003445750281866457 -0.00354837425680764 -0.0008024251719206275 -0.00036747508770139945 0.1555993853115815 0.26707789086829703
30970000.0 0.9639005476000662 -0.25698319505619927 -0.0011816446085102265 -0.0007970525449697236 0.004655879191114956 0.00033016753607637423 0.17001603856609457 0.2560554936791872
31969000.0 0.9615116981283908 -0.2637451095191309 0.006040694957068408 -0.006057217028318227 -0.0023472278560579965 -0.0005941688066209654 0.14748488168756782 0.2563009303662476
32968000.0 0.9581758666366529 -0.27347139577677804 0.008611426189900786 -0.008378434273818158 -0.002903789432460215 0.0009609041192712105 0.16487208146425858 0.24646469368987292
33967000.0 0.9563704133901538 -0.2821492990491849 0.007210203972769405 -0.0054391649673052106 -0.0011921029290230104 -0.0002676216702805648 0.19357287431902606 0.24944768169071152
34966000.0 0.9543714144575249 -0.2936849660781824 0.011048687370849956 -0.012826182407139728 -0.0009018092575535684 -0.0006724143234581501 0.19640322056144266 0.25254051335596295
35965000.0 0.9505138384623455 -0.3007537281507551 0.016646615381882147 -0.013957027870491795 -0.001367305748119537 -0.0009067115114126835 0.21451248048938948 0.25432208058933714
36964000.0 0.9483270499765867 -0.3075508930188697 0.014873642935241316 -0.014168151202078065 -0.0001283473827201707 -0.00027443217202413064 0.21729088369209962 0.2552788971033572
37963000.0 0.9434878653081092 -0.31925778116805137 0.020402967511733025 -0.02264423353803716 -0.0012585077720665282 -0.0009381959696295562 0.2300616117065767 0.23356097551811242
38962000.0 0.9418712370865974 -0.3290807552880642 0.025491815386468813 -0.02330113753772961 -7.128976310099852e-05 -0.001037316946598774 0.23956859705008873 0.2388430496276838
39961000.0 0.9404952062868521 -0.33421038096452277 0.027195937703497472 -0.02630933644236366 -0.00448647755137448 4.47752463069691e-05 0.2507546045315874 0.22429490773133307
40960000.0 0.9373039169292144 -0.3421049664915027 0.023396351586073484 -0.022741930914300938 0.0019080893082594234 -0.0006243987667909629 0.26974324140512934 0.22033789085233188
41959000.0 0.9353116608674753 -0.35230232023976926 0.02928087524165198 -0.03061488554384634 -0.0015645916152567131 -0.0013933171365731454 0.288967703699618 0.20978236027743077
42958000.0 0.9303947320229556 -0.3606528036615445 0.0331686839397946 -0.04040991954683914 0.0017601576019632156 -0.0014120417218875306 0.2833664313928852 0.215186488025297
43957000.0 0.927733654015331 -0.367126635950542 0.03276667949459212 -0.04528180423159701 -0.00012114946030152165 0.004203802577700949 0.2967785119345577 0.20125000346312946
44956000.0 0.9242169515861349 -0.3736655313055139 0.031194779635545553 -0.05350753792335948 -0.00041220332349169023 0.0008428710411631219 0.3072061308739623 0.2016659518992979
45955000.0 0.919554154449463 -0.38541902174092685 0.032696803966676014 -0.05890327395836975 -0.000761627574211128 -0.0007653186951298608 0.3147463629896098 0.19325019977949
46954000.0 0.9170812216609145 -0.3918186211819502 0.03534746255468271 -0.06229925475569755 0.0007887980670250631 -0.0032406069874433285 0.3332598634298171 0.18026399620206915
47953000.0 0.9139221388233415 -0.3995163004854354 0.036744645756650415 -0.07287333722108706 -0.00039761758194978134 -0.0026434884368904303 0.3412640802144286 0.17539740738505813
48952000.0 0.9075323134042834 -0.4110383142142221 0.036874778631555354 -0.0792781885636509 0.0005780198238634847 -0.0042311115772980775 0.3439944818200412 0.15931922012538646
49951000.0 0.9069810907818028 -0.41500796331305656 0.036515148210332506 -0.0861337525476944 0.0008478975286435187 -0.0003976058875333882 0.34952711664410147 0.14908025810099979
50950000.0 0.9014150401033212 -0.42325093374915035 0.038187278693398816 -0.09323979681682436 -0.0037163839950797935 0.00047800275398239566 0.35341077082669914 0.14454042693197752
51949000.0 0.8979389300358492 -0.43320247451748717 0.038961375824738 -0.10113622700918559 0.0007976720355473803 -0.0012535986252823106 0.3651760765784166 0.14599978241351738
52948000.0 0.896784465813585 -0.44075983166282656 0.04042623729121731 -0.11092187575241501 0.0006305206522908921 -0.002132123562819629 0.3733690542581404 0.1368942678580146
53947000.0 0.8897525265157664 -0.4514786174602406 0.04258943728934929 -0.11766413372449816 -0.0023564069694422276 0.0015427480637369463 0.37719295874754893 0.1244835754357573
54946000.0 0.8838437346129963 -0.4570843682192068 0.044384825785853795 -0.1292564873513102 -0.00043835524444099785 0.0011178022458360301 0.3858715612592719 0.12139347158859885
55945000.0 0.8827935858883035 -0.4670202810012329 0.046035287980993725 -0.13981048141375874 0.00026894449247223055 -0.001578982620509122 0.3879851918818559 0.10003038367115985
56944000.0 0.8782222939453102 -0.4753190832718978 0.04548815996356244 -0.15010037609459662 0.002412767483066094 0.00252194416329127 0.39996309938924046 0.10529443472906139
57943000.0 0.8720224379519026 -0.4848546392811149 0.046332740721155466 -0.1588385987462625 6.996421306986578e-05 -0.004114075728836979 0.40173459896643354 0.09555105950913795
58942000.0 0.8680737288133252 -0.4891933062717941 0.047128598985530346 -0.17420475864172333 -0.0005470553998326682 -0.002692370829492646 0.4255129762149645 0.09622944946679828
59941000.0 0.864476004507485 -0.4991879027538375 0.051155649551788564 -0.18323339768092112 -0.0008375208352105563 -0.003096657105104989 0.43035389093365856 0.08744770010412353
60940000.0 0.8567375869493453 -0.5057082000335895 0.04724656597402862 -0.18723651922544854 -0.0010229242173351437 -0.0009272098892188779 0.4147387940505158 0.079464598143663
61939000.0 0.8550688457047357 -0.5113040172716923 0.05076341551785121 -0.1939402782695023 -0.002113691267240592 0.0001535664250116514 0.4230537263552432 0.062076584255523024
62938000.0 0.8490446319310909 -0.5225282427218632 0.058036444797950275 -0.21211947575971063 0.00028998901201175454 0.0003135338634221932 0.45143030785152494 0.051458931979175546
63937000.0 0.8435625585148195 -0.53004811604413 0.05438773854764231 -0.22993279265183839 0.0007105718831968408 0.001892366337617031 0.44198655570972323 0.03553816080083101
64936000.0 0.8379524719181622 -0.5359830823451815 0.054529394035721046 -0.2446888771671836 0.0033018960836150545 0.0017534639955264454 0.4370503792757095 0.03856015261080324
65935000.0 0.8346763014999821 -0.5488974800846793 0.051314223309551536 -0.2583002469054713 0.00022806352463114373 0.0011477687425443417 0.4514883351739717 0.015626378451973025
66934000.0 0.8318027360980634 -0.5510576557963561 0.053434214801564565 -0.2700728512785953 0.0023090213189311047 -0.00030005992799049676 0.44198645935296405 0.009171491837246061
67933000.0 0.8263309961130799 -0.560737340522071 0.056056032885612145 -0.28517400999980197 -0.0013052359538175567 0.0008120018510434401 0.44481908851669383 0.011034941160590462
68932000.0 0.8144899960508747 -0.5513498641688832 0.05332447915314103 -0.2954560384072327 -0.002316374178270973 0.0023973860138157715 0.4535891055014986 -0.004659237663009893
69931000.0 0.813542342173044 -0.574870473863111 0.054867107284330044 -0.317535347896167 -0.0005761039859205437 0.002346885688275094 0.4527804649193472 -0.017521507828375225
70930000.0 0.8057745659013188 -0.5827671035366884 0.04628315263705356 -0.3262705800637489 -0.0016043272443992376 0.0034260999643586504 0.45854504608901925 -0.033650170258993195
71929000.0 0.8040553178238972 -0.5901085275058408 0.04568692282736468 -0.3477073068734772 0.0004204409152723786 0.002815391543095547 0.453075658145603 -0.045681271500787206
72928000.0 0.7980695279557566 -0.5986224372853693 0.04088991926418823 -0.3638896790767336 -0.0012603768646222346 0.0024834925328909335 0.4698481188514727 -0.050408468040324145
73927000.0 0.7903660680749861 -0.6063955962807501 0.034526741587771005 -0.3799499254050871 0.0009534064771753789 0.001692264048953364 0.46137056337633864 -0.04543510521270852
74926000.0 0.7860586286809642 -0.615973079117263 0.024780287160139917 -0.4003470610477865 -0.0004904268421668368 0.00164011055279919 0.4719124250373914 -0.05386134774667689
75925000.0 0.7802308439474352 -0.6196363552908051 0.019211468075279993 -0.41988204300978793 -0.0019882040461878967 0.004419671158403312 0.4780262349317384 -0.07961859552884872
76924000.0 0.773483913806939 -0.6270036143260258 0.0053632997890804245 -0.4436068733381083 0.0018531133649827458 -0.0016998425237422215 0.47389934680742185 -0.08798590127684601
77923000.0 0.7679610801053767 -0.6357885278301136 -0.007134629801223512 -0.4642709358753889 -0.0033448381605441484 0.003916893585517436 0.4615588292276271 -0.09431462170322356
78922000.0 0.7608083914429776 -0.6447222228486846 -0.01995362186054684 -0.4936308618119478 0.0021501900579544517 0.0015803158610460854 0.4733731510050631 -0.11097818731866968
79921000.0 0.7536205732784439 -0.649690792174608 -0.04071720947603457 -0.5153123167263953 -0.00022671289072130008 -0.00044966398512421673 0.46180896151537476 -0.1034813276011239
80920000.0 0.7493698080382485 -0.6590256046450081 -0.05299575750727386 -0.5455519867010662 -0.004754748705005102 -0.0005267411845188384 0.47843048947572786 -0.12613467873671946
81919000.0 0.7432111937114626 -0.6644468317412484 -0.06797836804556956 -0.5726254001560366 -0.002981328263432422 0.002874927555549708 0.4683728009922838 -0.1373749229650104
82918000.0 0.736686983025503 -0.6718975729750646 -0.08167717267529995 -0.6023104259314869 -0.0012819431234723077 0.0019481173067046203 0.4842269838496384 -0.1408686420921351
83917000.0 0.7277577651189363 -0.6801006379993266 -0.10351194496679147 -0.6312742855916055 -0.00022390783221556436 0.0013522914838926283 0.4820559825842178 -0.1557319017406657
84916000.0 0.7223274520177358 -0.6875764434697901 -0.11826111664775973 -0.6642499477961779 -0.00010971516758833255 -0.004047139794008241 0.471715514767855 -0.1728342601230947
85915000.0 0.716930540374679 -0.692206857928373 -0.13441416256035688 -0.696829852851611 4.76962464275286e-05 0.0006415936837477552 0.47442077180281006 -0.1693618416498415
86914000.0 0.7073977767716795 -0.7035220384639597 -0.15411017152465972 -0.7334011691786698 -0.005385098920685208 0.0017909119148732575 0.463716523607006 -0.17040426342035303
87913000.0 0.7027485045293828 -0.7084568425293922 -0.17276548048958856 -0.7611215639050057 4.14273824293448e-05 0.004497202871570956 0.45922593693453795 -0.19167871258070313
88912000.0 0.6945447605187779 -0.7166863275694001 -0.190869234423797 -0.7960831574951661 -0.0027233638083197357 -0.002960417422802775 0.4803297117300786 -0.19296019661396385
89911000.0 0.688088604521241 -0.7241593299323092 -0.2046808445795732 -0.8361076502025278 -0.001830553745601493 -0.0009120429675954659 0.46617242211210985 -0.21402305135692476
90910000.0 0.6804849632205112 -0.729212406237565 -0.22401200753313508 -0.8642191240640157 0.00021658354306629098 -0.002064194275037563 0.4783874144562622 -0.21557322388193853
91909000.0 0.6715819532058729 -0.734937385526267 -0.24323879176181956 -0.9003168492076832 0.0004880127209160678 0.003105558087108515 0.47374698590380304 -0.2254715206585121
92908000.0 0.6644507670662618 -0.7436489958327492 -0.25881048008036145 -0.9322354559211813 0.0030453935547844076 0.0004538325123287088 0.47150419328255916 -0.2253051730408404
93907000.0 0.6555484282240694 -0.7477242472348694 -0.28080730919825475 -0.9602529078721062 0.00046235852947311017 -0.006360864396919609 0.46577552201620487 -0.2471805140449624
94906000.0 0.6444611107073409 -0.7573063355148038 -0.29365239092074324 -0.9946141052043908 -0.005864755014919405 -0.0009046705288455475 0.4741820049517109 -0.252130021927131
95905000.0 0.6391926855201162 -0.761859163435462 -0.3173554538077712 -1.0316321069715035 0.0005275448383715515 -0.0013030458400733773 0.4729324399118393 -0.2613428896814192
96904000.0 0.6287780916248185 -0.7735741985366701 -0.3403935504836202 -1.0704383163593105 -0.0011799742283045947 0.0015336175010206997 0.4767833789955918 -0.27004130328256426
97903000.0 0.6217303199675227 -0.7758396045485704 -0.35592823762999243 -1.1000819890983615 1.4875839931637543e-05 -0.005744979873735619 0.4601950143729763 -0.2790426239237586
98902000.0 0.6168202348135832 -0.783957667810269 -0.38153152258252204 -1.1420340854706843 -0.0011112453957332876 -0.0008382623580875911 0.45026551859313046 -0.29527487215823034
99901000.0 0.606619965211644 -0.7898597726657713 -0.40814018257926177 -1.1714056048496466 -0.000181080382053001 0.0002462528039181264 0.46618123380998333 -0.3189044913895094
100900000.0 0.597977530759724 -0.7927486841840252 -0.4382442363373953 -1.201535040986343 -0.001014417629022249 0.0018128902708804187 0.4744671999906374 -0.3159487382630994
101899000.0 0.5873678860000974 -0.8030860408728173 -0.4718938206275421 -1.2392205309849178 -0.0022505229828786327 -0.0010496363234359135 0.4656565837510258 -0.3220291128800684
102898000.0 0.5815832972393604 -0.806496223874727 -0.49638244112405927 -1.2797686544187272 -0.0011982317836786744 2.2968610563607734e-05 0.45891483957982765 -0.3389856081449787
103897000.0 0.5729174798688164 -0.813985184408638 -0.5373299840245458 -1.3112138862108582 0.0005356817430631828 -1.4054234203265142e-05 0.4751416042951371 -0.3347497989377191
104896000.0 0.5634172910174869 -0.8259781025623599 -0.5781296297681173 -1.3453103036939766 0.0010556598395256105 -0.00010274096421954748 0.44070414581316797 -0.33654669680014093
105895000.0 0.5526032355717992 -0.826703157746829 -0.6248185079028722 -1.3821044694617075 -0.00011672450527970384 -0.0018408476541504483 0.4482403938207829 -0.36192839423343043
106894000.0 0.5436668659847137 -0.8338129279996559 -0.6764364606534652 -1.419487259083227 0.0004372173724231823 0.0013036984623398802 0.43642652962156614 -0.36074909710278735
107893000.0 0.5375693227091423 -0.8400823152400211 -0.7253589226300359 -1.4662575044247834 0.00015434668456847057 -0.0013971757745831165 0.44364536524193865 -0.3803150476714625
108892000.0 0.5263786976326287 -0.842174770922626 -0.781207677352771 -1.5016323879901794 0.002229861470295586 -0.001524054270520314 0.4318937445589566 -0.3669176089190089
109891000.0 0.515513671152729 -0.8509068327752669 -0.8386457343029848 -1.535266031870831 0.0001719251242656323 -0.0009753858593124093 0.44254341984819046 -0.37355866378129715
110890000.0 0.5079271529816316 -0.8537003973209654 -0.8950032799818427 -1.5438528881411413 0.0013778263324435971 0.0014095026249798283 0.43641864304859557 -0.37947040528560666
111889000.0 0.4975347390533191 -0.8583003559641261 -0.9614920863903311 -1.6079715918537767 0.00021541063794489277 0.002838285500199755 0.4296114914767057 -0.4030731139981436
