! Created with skrf 1.9.0 (http://scikit-rf.org).
# Hz S RI R 50.0 
!freq ReS11 ImS11 ReS21 ImS21 ReS12 ImS12 ReS22 ImS22
1000000.0 1.001542871015423 0.00878982744466846 0.014381016096208031 -0.05312864328674887 -0.0014288760179787406 0.009355373500322967 0.30554545160346663 0.29102675800763345
1999000.0 0.9967475516814492 -0.011798114450914646 0.002270529552259559 -0.022934721182591603 -0.00707524591287935 0.004567090502583021 0.22286103407070879 -0.04218387012561049
2998000.0 1.0006480281663934 -0.01751436134344179 0.01275918965301019 -0.014081925191127727 -0.0030146655876209607 0.001047144330125493 0.1998579796000752 -0.15181700397246653
3997000.0 0.9984174593454584 -0.03130514119756818 0.018516416116686474 -0.007750398991904445 -0.005860010479886764 -0.005262666963253261 0.08493358524330265 -0.22771152530991629
4996000.0 0.9952142120712678 -0.038082504181389525 0.01123507755075503 -0.0016635631911413407 -0.0006311243008980445 -0.007017179328394847 -0.04079999803896862 -0.21132935755902482
5995000.0 0.996204006168179 -0.04754950967655581 0.009123198970846846 -0.0006979499618132081 0.0049848111091659545 -0.006904834656357506 -0.11902767126356054 -0.11514147116731556
6994000.0 0.9961131408389213 -0.05827531521690176 0.004152187199227607 0.005119362765722937 0.0028551779619558236 -0.00555771827981248 -0.14237836370628038 -0.011069212604433498
7993000.0 0.9977053723468615 -0.06725002244735949 0.00455246543456227 0.005479707323171172 -0.0013221715221119288 0.001978950806391161 -0.1544050011918158 0.03731458412531702
8992000.0 0.9977015218643827 -0.0729551138628734 0.002883269268747559 0.0030148255583525756 0.005100221779611652 0.003152658201704548 -0.1585610274540385 0.04688911493043613
9991000.0 0.9964565153130199 -0.08423151740431406 0.0033288674664805596 0.0008677498685429454 0.0004069996335476164 0.004821554044449581 -0.14778939072626274 0.09857059271405465
10990000.0 0.9928735029220536 -0.09563468081868019 0.0022843074321936318 0.002398131575482241 0.002555954064958039 -0.000383101104364729 -0.1336169738540044 0.1199936954514624
11989000.0 0.9935137477568932 -0.10155375718333823 0.00011789623969626969 0.0006159620430533683 0.0013958577294767537 0.0006032733154557741 -0.12712799453168422 0.1458338628417696
12988000.0 0.9929163043567614 -0.10689259454008603 0.002684765397916714 0.0002828156372075422 0.003652066471190543 -0.0007885251309513561 -0.11986103920315626 0.17729795375621077
13987000.0 0.9887978252064856 -0.11385973233731234 0.00247161692842331 -0.004601069844680835 -0.0033357802587485187 0.00020351954222547338 -0.10567114214069968 0.19420082528835977
14986000.0 0.9918243856019219 -0.12544221940945724 -0.0005067051226333792 -0.00594177633636256 -0.0032414946503647466 -0.00048016608132679444 -0.0920543003861662 0.21073146591153272
15985000.0 0.9906902898692928 -0.13161009456989498 0.0018316524664657792 -0.0028578332184698648 -0.004474746596721991 -0.0029531254926814334 -0.05314436852680118 0.2227400082657975
16984000.0 0.988630524559018 -0.1425600520593372 -0.003241100658356649 -0.0017445875503969697 0.0005286731061145598 -0.0003957290277843962 -0.05511396223376542 0.21886757635139814
17983000.0 0.987282473697206 -0.14987756445621125 -0.006164393431551736 -0.004690213227683985 -0.0007922709852792429 0.0015718963970951323 -0.05500870265718471 0.22901635347898947
18982000.0 0.985038744629992 -0.15882038855817468 -0.00645365023004319 -0.005654337272250699 0.003342444152469312 0.0005841594795025632 -0.02791753365100294 0.22891501227541874
19981000.0 0.9856321264572772 -0.16487566641959603 -0.0017208765930649306 -0.001593005087606828 -0.0011654374476414613 0.0031366690910159707 -0.007205198393353201 0.24371322281861302
20980000.0 0.9839312088331058 -0.17467887048301867 -0.005653374711058223 -0.004258308131179255 0.003745642952844772 0.0011994077219629274 0.0028622733531097743 0.2587655935821858
21979000.0 0.9819647058181443 -0.18326017034119876 -0.006055674295831186 -0.00556115006794543 -0.0020548213905230545 -0.0012061456240226138 0.02265229516264563 0.24342087693257616
22978000.0 0.978361464690572 -0.19262344667905448 -0.002284517770482446 -0.0033689721603702683 0.0006527923265894948 0.0015388607176563688 0.031391388070957725 0.2490673823112704
23977000.0 0.978247454311785 -0.2009577978320624 -0.004148646800100825 -0.0028196404762687727 -0.0003111669771155056 0.0010303145055257635 0.04841739443239422 0.2543298871670177
24976000.0 0.9759115592481267 -0.20942012451264122 -0.005208862893114892 -0.005565135182502825 0.0036220332523610654 -0.004283046730867027 0.061361893609564816 0.2556187251140621
25975000.0 0.9755878530185081 -0.21669305998055832 -0.005605321251521029 -0.004891659593496539 -0.012039676093437698 0.025352557298724418 0.08759329418662476 0.2570575642507635
26974000.0 0.9730587549364824 -0.225928218625878 -0.0011414717977887958 -0.0012518326530941803 -0.0009086587787726736 0.00039645376568946014 0.09014785562705507 0.2623598485200311
27973000.0 0.9723551995443681 -0.23276001513153405 -0.0063059633579344776 -0.0025434546649169385 -0.0006361248269696013 -0.004872464165608393 0.1097679014771177 0.24719795992343824
28972000.0 0.9661880653716506 -0.24440186060336605 -0.00042346475913702816 -0.0020140166238313477 0.001675561133725899 -0.001969815171468425 0.11751245256179936 0.25073195397258574
29971000.0 0.9667204493029472 -0.2510751236214134 0.0007834635700248075 -0.003922227375587114 0.003636584287598294 7.93704755735333e-05 0.15994675723262045 0.2632024320077023
30970000.0 0.9641538703904402 -0.25831797315156835 8.602421527633767e-05 8.351953531108943e-05 -0.002364690425729986 -0.002009045818731105 0.18306389588098299 0.25279153465825677
31969000.0 0.9625697804894205 -0.2661191597960369 0.004019293462123762 -0.006391292791934131 -0.0011500877566509215 -0.0008392762852759815 0.1519319760727377 0.24875184012109952
32968000.0 0.9598893329363823 -0.2743535960033091 0.008922800909459707 -0.008184981608497666 -0.003913030270366598 0.0038596399384003043 0.1734471983972796 0.2518234269902916
33967000.0 0.9572567456937895 -0.28370228972769257 0.010957658947068445 -0.011778805200007804 -0.00168079166993442 0.0027740161922164518 0.19468724935641865 0.24944997865309923
34966000.0 0.9534411365614716 -0.29469613967164426 0.01592205471823674 -0.012729678171873598 -0.0002081417590014915 -0.0007313304018197008 0.19801420146035895 0.2476180288670766
35965000.0 0.9518809601567244 -0.30106296636436775 0.017826319114026892 -0.013959208320849702 0.0011649463663465723 -0.00033665754867063033 0.21451731524882486 0.24877877312672053
36964000.0 0.9500257075359276 -0.30900509915834723 0.017560977070111193 -0.012471238055342738 0.0015427895520572674 -0.0006736871939282626 0.22116648780343803 0.25364957891092915
37963000.0 0.9462336442483534 -0.31797026495016883 0.02092463832369759 -0.024542671628664352 0.0005032830806317479 0.0020597367019902853 0.2272478178461048 0.23507140363979528
38962000.0 0.9452005902366092 -0.3268979935964208 0.02692833499627894 -0.02691018055640242 -0.00371973228383719 0.003297543002521629 0.24277943668277263 0.23638520324249485
39961000.0 0.9406704213199532 -0.33606348854158774 0.028442504332634823 -0.028916484011858173 0.0014105127716613848 0.0012838627564814389 0.2651736346664593 0.22780119964297635
40960000.0 0.9371480898749476 -0.34228451573031626 0.023173004639673197 -0.0268826598189183 -0.001742276634266073 -0.0010173684422698024 0.27607022982402046 0.2245205453380882
41959000.0 0.9360458235177219 -0.35212595356779625 0.029270240888642128 -0.03622093917902824 -0.004727817495634545 0.0010016650859303732 0.27866907472902214 0.2200572915826028
42958000.0 0.9299904919100224 -0.3609267871119494 0.035520372120702325 -0.04216124952710526 -0.0014606988237203754 -0.0036331106595012923 0.29194599642960634 0.19417693665501132
43957000.0 0.9305506171062566 -0.36443021314534935 0.033246376319621976 -0.049879734341554786 0.003241859916388212 0.002328585178990757 0.2897148903759699 0.20039574385560124
44956000.0 0.9249787369266518 -0.37364532994482363 0.03670582977369029 -0.050771003236048745 -0.0012149819645419476 -0.0012499734888539796 0.3117812646643928 0.18937049644617782
45955000.0 0.9212584892852705 -0.3846026463570175 0.03717369860895418 -0.05827239515706076 0.0010763140935498691 -0.0001867100553663983 0.3191589575392893 0.17944687571098616
46954000.0 0.9170266413493191 -0.393004755234065 0.03848163871400955 -0.0687570362116085 0.0037149286108197795 0.0008480880493283846 0.3358325983041918 0.16870214824137636
47953000.0 0.9148901663573985 -0.4004515222202703 0.037978141173432574 -0.07413520654743484 0.00036683883330954314 0.00152159012672273 0.34896685784142983 0.16281687493094596
48952000.0 0.9085063866572662 -0.4134647911454587 0.04095045068628242 -0.08230136287425836 0.0016199090222807555 -0.00016306575719447202 0.34943911969314645 0.1624531200010602
49951000.0 0.9063674919639199 -0.41651044475743204 0.039039638926254824 -0.09104832152932667 0.00046520436316410587 -0.0045807723919481175 0.35633963294261195 0.15318006574069815
50950000.0 0.9027141676499271 -0.4252063714540262 0.04291364463098156 -0.10065273947909133 -0.0010329317584735834 0.0005839942861070397 0.3619777633595697 0.1386430233556789
51949000.0 0.8989174037732005 -0.4342531881536954 0.041220217262815974 -0.10406451189246144 8.539638816623548e-05 -0.002184984556062129 0.3714357557133186 0.13347404243026398
52948000.0 0.8958855633205602 -0.44222288029770984 0.047916474022777183 -0.11614713776165353 -0.0013162880814530306 -0.005182903541512682 0.37576752627166904 0.13846675410606882
53947000.0 0.8918180555316055 -0.4484624745782261 0.046127278122817285 -0.12388531234973038 0.0001603940784489903 -0.0013179989100555048 0.38466315729426226 0.12119243115561983
54946000.0 0.8860649309362011 -0.459706243863432 0.04955211495547123 -0.13296611605612074 0.000804702426182329 -0.0035620070078948855 0.3923448386121164 0.11222132052120193
55945000.0 0.8834509788882409 -0.46653038464113894 0.04978698452693529 -0.1457488580199677 0.001127752849536034 0.0029328230700407677 0.39810690868439724 0.09890836175553086
56944000.0 0.8797857900775257 -0.47391055892189626 0.05310374441378615 -0.1546986332526415 0.0021208391905212574 -0.0012711241029691538 0.4035270455941776 0.09620171172611482
57943000.0 0.8751714392291714 -0.48435154887595916 0.05232838300529905 -0.17121765330832778 -0.001393598204303116 0.0010107893677533068 0.4111552952372825 0.08897662155731174
58942000.0 0.8683036222773892 -0.49121631319100634 0.05500024635423229 -0.18014160069729523 0.002327192331342062 -0.0009874778747104654 0.424851510555253 0.08320986123248676
59941000.0 0.867731754355261 -0.49643702690627445 0.055159843596444026 -0.1928661451759376 -0.0004776858846297716 -0.000752117811060523 0.43165295131022374 0.07775025295819701
60940000.0 0.8588620109888713 -0.5060463457126747 0.05463565190477783 -0.1957357087866952 -0.0008084869137571748 0.001398217851928804 0.4133080896830979 0.07052858937167472
61939000.0 0.8562101291941154 -0.5118855961544497 0.05540195386025298 -0.20379046070872994 0.004310185178664739 -0.0008392177792556686 0.4216709248353467 0.06457656929679265
62938000.0 0.8501125988439506 -0.5221073666438584 0.05985625429680694 -0.22414012992984092 0.003998987563910206 -0.0007537321741524079 0.4511983070341992 0.05047252758910005
63937000.0 0.8453727349846786 -0.5295798093625969 0.06035562055126182 -0.24181266759355702 -0.0018306766303483814 0.0007077611526675479 0.4452752943838052 0.03281052453512447
64936000.0 0.8378334285679112 -0.5352445373697325 0.059331834137299935 -0.2571626896686102 0.0030975264093238745 0.00045096647518096816 0.442075232129279 0.03420746504908063
65935000.0 0.8351831454727909 -0.5465663260384551 0.06009960599380318 -0.272540918775199 -0.0002719864909603033 0.0033414792054405475 0.4460879585290386 0.017119201650768114
66934000.0 0.8317144936941657 -0.5529497671245169 0.05629879138716362 -0.2866741510239537 0.0014843968196967094 0.002156478832234227 0.43306912957530613 -0.002891488394707209
67933000.0 0.8282366572377642 -0.557946367989446 0.06016217584851301 -0.30137025700885384 -0.0009782571306747882 -0.0025739578501568225 0.4544295338165859 0.008767842850463036
68932000.0 0.8174434857210987 -0.5526676884241921 0.05570826937229295 -0.3136846659003019 0.003083506309186611 -0.0007630727294611981 0.4594053960937297 -0.02568523354873962
69931000.0 0.8160942530330919 -0.5753132243146856 0.05689575849555613 -0.3368646087176054 -0.0017939847864517856 0.0035203156814239745 0.44682636453634633 -0.02935399947591713
70930000.0 0.8115770105455572 -0.5805303896187836 0.054915831039528226 -0.34802630957023634 0.000959319578491639 -0.0021176028522852494 0.4555859354796911 -0.03799991034798265
71929000.0 0.806947287410231 -0.5897255955122434 0.046731731044381324 -0.3692545300374873 0.004829252232636808 -0.0018982045906783596 0.45522676285617686 -0.04573679999930181
72928000.0 0.7985121503484172 -0.6006628799867251 0.041582015409891 -0.38493777569412646 0.001992570727634093 0.00028030449464776957 0.4801021814191514 -0.06168176522873049
73927000.0 0.7917931883434631 -0.605717373795645 0.03443697648286806 -0.4063152745352398 -0.003171544896458249 0.0015821100056410845 0.4651728266863847 -0.0618226244380543
74926000.0 0.7868674058693612 -0.6157870778819753 0.02865392671048799 -0.4266916369940822 0.003790608431199765 0.0001612949914582236 0.47337310581753195 -0.06833026803184425
75925000.0 0.7811081322191197 -0.6199061798418838 0.014893271572547329 -0.44787702526348266 -0.00013503275681648745 -0.0023019893888929065 0.4748289040940294 -0.09946129646683183
76924000.0 0.7770275314363504 -0.6269883796115614 0.003499110954642856 -0.4740065931104937 0.0010431978607877343 -0.000900535015492399 0.47597742682024774 -0.10041193557827516
77923000.0 0.7673783701792348 -0.6358122584427429 -0.007422370330403248 -0.49517888628281437 0.0022424637685080056 0.004974555067282789 0.46097987381754085 -0.10219224898770028
78922000.0 0.763987756218865 -0.6441892804298005 -0.025812926760954785 -0.5244815863325171 -0.0006944007756739794 5.6244758621364226e-05 0.4644933003251006 -0.11465912319172827
79921000.0 0.7551289847247132 -0.6484702742891333 -0.039714997861664145 -0.5517892165547801 -0.001700240794317669 -0.003016303571217264 0.46002753557059217 -0.12862485970389845
80920000.0 0.7502370177012052 -0.6584183877146822 -0.054461473228329414 -0.5807236595147817 -0.000991866689310973 0.0024790480183391546 0.472749508015871 -0.14175949613254088
81919000.0 0.7468067991395918 -0.6645592221554656 -0.07612734885249448 -0.6109090248774286 -0.0014716732849241122 0.0013221463435416946 0.4734771039273225 -0.14324889543237482
82918000.0 0.7373909671946226 -0.6724813120346015 -0.08751410018224154 -0.6440135297641599 0.0018434885797780237 0.001296248940531102 0.48762998505123045 -0.14933438770737553
83917000.0 0.728276770491306 -0.6815372167209605 -0.11159858218943713 -0.6688629027972081 -0.0006397588317707321 -0.0021826084573086735 0.47646651369513604 -0.15620759863784708
84916000.0 0.7247554645619545 -0.6870324167378025 -0.12300155947450572 -0.7089091413156129 0.0012959276453519861 0.006269705107141201 0.46873569238266255 -0.17733140716902346
85915000.0 0.7169237377281723 -0.6938497598499741 -0.14838764492724585 -0.7407522844844596 0.0008153046301987833 0.0022839265185229636 0.47209767811784925 -0.18968701610741737
86914000.0 0.7090419317786222 -0.7037198775732 -0.16257076741100152 -0.7770261980296405 -0.004681242711339237 0.0009223316553893577 0.45477911413486416 -0.18946424668181652
87913000.0 0.7008181539419861 -0.7103276211399544 -0.18224706809398333 -0.8072524786639848 -0.0015080912614526144 -0.0018304091967454334 0.47233439174291475 -0.1960271028043081
88912000.0 0.6968142151185126 -0.7175439456777342 -0.2024856619876233 -0.8413306471123192 0.0002075180989105414 0.001062056858964507 0.46128720969685266 -0.21317559510903653
89911000.0 0.686071226247189 -0.7262038017221324 -0.21850609023518708 -0.8795832558746967 -0.004585283334726151 -0.002350659589366914 0.47465489745988676 -0.216756526064025
90910000.0 0.6816419955960903 -0.7312088222968726 -0.23831512067640445 -0.9159956755077999 -0.00676202846632006 0.0004064535874822227 0.472238249672525 -0.22307222737990048
91909000.0 0.6719832874927123 -0.735168683581181 -0.2580347204988027 -0.9517466564969402 -0.0022898788190299194 0.0002464816646773982 0.4697462647137566 -0.2352154118196198
92908000.0 0.6639818455708271 -0.746651507053564 -0.27485070622928715 -0.9838505177257681 -0.0005968559260891346 -0.00045637933315640115 0.459191432004011 -0.2340549990218234
93907000.0 0.6595698130533906 -0.7498565035643255 -0.2994193508046057 -1.0205142235915914 -0.0003943375902014928 0.003786934720990327 0.4551374469988004 -0.25419288995645445
94906000.0 0.6452877194938434 -0.7591365199082671 -0.3248463538380924 -1.0542957478971908 0.0036672776965332673 0.0003684487259994998 0.45427525978994565 -0.2657084670908652
95905000.0 0.6405809385187216 -0.7654056396600916 -0.34426399935847124 -1.089905545666555 -0.00010685996537853426 0.0022783574984774225 0.45887745238176925 -0.2808727313225994
96904000.0 0.63332098101094 -0.7739426127403378 -0.36406114403825784 -1.1311026964792166 0.0023360010453310014 0.0005658047685982054 0.44373781938166074 -0.27926704307957395
97903000.0 0.6235578022734869 -0.7771006538820174 -0.3865210094288912 -1.16708036217309 -0.0015146837678217595 0.003678013415812574 0.4557352579588501 -0.29407752062199577
98902000.0 0.6184289826273673 -0.7853712174102635 -0.4129566458200931 -1.2088109524644532 0.00044903791844411043 0.0028322488265914033 0.44980362549421293 -0.3070710322014466
99901000.0 0.6077380451999758 -0.7900011839089307 -0.44302622000437786 -1.2395983670885633 0.002716259393115581 0.00022141646331243464 0.461724046257586 -0.3282120175443346
100900000.0 0.5993259784503137 -0.7927889933113187 -0.4773725507643907 -1.2724505373965227 -0.0008873614770937806 7.634624458965708e-05 0.47218080095651427 -0.32219501206887835
101899000.0 0.5912343980225534 -0.8018288635662281 -0.5087955280083033 -1.3135760925347082 -0.0010065053592265185 -0.000413262888023225 0.4463744389225748 -0.32635728510568984
102898000.0 0.580085580743191 -0.8092249186720801 -0.5442791751962686 -1.3513488632073027 0.0014299977533316541 0.0014305363461186234 0.4434471966765068 -0.3453551651166485
103897000.0 0.5727871702628522 -0.8159885626571457 -0.5887835354626533 -1.388089369821734 -0.0005507100729534372 3.517424207541534e-05 0.45194960997747124 -0.34764541573449753
104896000.0 0.565221213269981 -0.8256165690134923 -0.6338634222503133 -1.4266181223558463 2.0174826811985773e-05 -0.002113809393603904 0.4412649944279776 -0.34364278789533315
105895000.0 0.5548049612807039 -0.8278985446727858 -0.6863449430713039 -1.4715815493004283 -0.00011985374370738558 0.000731209607970392 0.4363118611378111 -0.37007178996440604
106894000.0 0.5457748601859034 -0.8347058140213578 -0.7447122330832998 -1.5083248513238403 -0.0020483691316484677 -0.0003207010455450712 0.42938153477528734 -0.38259529321597613
107893000.0 0.5396409372441049 -0.8393730527931571 -0.7935311982041926 -1.5456005468673395 -0.0013971666107192337 0.0004916110978124166 0.43133143403175406 -0.3895860858091708
108892000.0 0.527192100889324 -0.8446550531932553 -0.8562720710858343 -1.5757358405581106 -0.0020247959933379018 -0.00017733582599148252 0.41614081138689646 -0.390403293356057
109891000.0 0.5163828753468994 -0.8502054526580435 -0.9146370680682269 -1.6171062113279875 -0.0027243607668412974 0.0008299216580472503 0.43792230542862765 -0.3934380254793323
110890000.0 0.49685563759544366 -0.8635312981471055 -0.9987715434891443 -1.6142057636238052 -0.0018940449091229496 -0.0015526293705277626 0.41535762106461005 -0.3967304239121923
111889000.0 0.4936425378482052 -0.8587360103901451 -1.049229846844102 -1.6894016298652914 0.001241359969543284 -0.0036987767380398206 0.4171152766733869 -0.4085199380809753
