! Created with skrf 1.9.0 (http://scikit-rf.org).
# Hz S RI R 50.0 
!freq ReS11 ImS11 ReS21 ImS21 ReS12 ImS12 ReS22 ImS22
1000000.0 0.9974093845515004 0.01991654790085714 0.003450332690586139 -0.06278762496134388 -0.011519187588599461 -0.00037689655720387884 0.3068856421907858 0.3548908880587792
1999000.0 0.9931211930024921 -0.012764395332207853 0.010246078883351054 -0.02386893539155334 0.0032416894518121674 -0.003345143476640386 0.25577070088608816 -0.07341321337504049
2998000.0 0.9962570673708503 -0.01870918695917084 0.010805678284087215 -0.01733725319019152 -0.0017765852990452998 0.00483033300671042 0.18313934989096634 -0.12980138302619976
3997000.0 1.001224135150162 -0.028857263991233877 0.016644265948541764 -0.009198580444629114 -0.00112141545556938 -0.0027325190758730523 0.09215256507596069 -0.229962677776027
4996000.0 1.0019908296894606 -0.03563022152704503 0.0167120343525938 -0.004073228415854525 0.0011032899882497589 -0.0020286595198869247 -0.03655678172923696 -0.2313669988500757
5995000.0 0.9979280053602266 -0.047936304384144646 0.012498718997088312 0.002391677069489894 -0.0014337308451691803 0.002022838432848869 -0.1288388027554222 -0.12462022440017274
6994000.0 0.9962746475449502 -0.05919846872196348 0.004342288611839115 0.003341958521150783 0.0020631743293301995 0.0034211353672856737 -0.15258909333958598 -0.03708190011640608
7993000.0 1.0010073115417304 -0.06811044441557587 0.002872416800259885 0.004785496028478632 -0.0001378234533247256 -0.00024117543502530928 -0.15711815272617052 0.030520103298084623
8992000.0 0.9976423081027735 -0.07318837459775196 0.0017701093387597951 0.00206628380045805 -0.0008751490302407678 -0.0013119850576011314 -0.157853842907007 0.061929788985026886
9991000.0 0.998784526310413 -0.08516222414975895 0.007638955350086641 0.005546869451851439 0.0005788690414249133 -0.005682903765220366 -0.15255846299432144 0.0829451594735959
10990000.0 0.9977644539033742 -0.09261772863173402 0.00102422869267626 -0.001524183369676588 -0.0006189795543337775 -0.00411638717943754 -0.15812058330617768 0.11246670529500777
11989000.0 0.9931981638117408 -0.09914985685812464 0.004111076896618699 -0.0005770070653440585 0.0017563405638628409 0.0028269738821449972 -0.12962770590718514 0.14750716378278145
12988000.0 0.9931049316470544 -0.10902563690847833 0.0003307675295895472 -0.0050285318337711885 0.002139456494526801 0.000464051526224289 -0.1265900630812941 0.1804298666936103
13987000.0 0.9908436794454586 -0.11945473746982799 -0.0006125593549113041 -0.007760929345227068 -0.0013552143937918142 0.0015361398620436506 -0.1030656031282411 0.17990300393493128
14986000.0 0.9917518338844123 -0.1258691810567822 -0.0027738623057613227 -0.0030085819902865335 0.0013210747341632367 -7.312536774180073e-05 -0.09511527916449335 0.19355421613519683
15985000.0 0.9940436121771115 -0.13285851817584204 -0.0008962540847916779 -0.005664309635250816 0.0008080115071164562 -0.0027440821515456477 -0.06089851997656792 0.21323568540174873
16984000.0 0.9900956390101342 -0.1451821156827321 -0.002577382692074595 -0.005814566380100437 0.001112678631926057 0.0035801015548941008 -0.060352586114621284 0.2114982795467548
17983000.0 0.990846811410431 -0.1509160487681206 0.00040987884441284707 -0.005956940186740068 0.0006162319083927312 0.0014043848241018743 -0.049320122920792756 0.22240221009207148
18982000.0 0.9869355689948045 -0.1622551466761582 -0.0069365613653791895 -0.007973318525208235 -0.0034068912614464084 -0.0038650403825548963 -0.024177639239341783 0.23255716141426871
19981000.0 0.9891453159790593 -0.16426974201503705 -0.004955115234321624 -0.0015933954746684075 0.0016327411632159551 0.0005900172911061246 -0.01326149162387335 0.24380017422375305
20980000.0 0.9864477107074633 -0.1774803148098534 -0.004593924921543857 -0.0037681392676251063 -0.0010394392881060517 0.002912651635081268 0.0061623126980322514 0.2540691349326432
21979000.0 0.983572402086624 -0.1855774570537824 -0.005688722052022462 -0.005858628892004796 -0.0018980580496145742 0.0016101869345803669 0.007428009241856806 0.2518105816766104
22978000.0 0.9800504316579146 -0.19607702852740055 -0.008738813968870093 -0.007042598385339102 -0.0006799083909736765 -0.003933619594687898 0.03161462622746206 0.25520973249141155
23977000.0 0.9822154578872492 -0.19954740617542827 -0.0068610883710798955 -0.0044662100564944575 -0.00163059120153414 -0.003203875770231962 0.042211648305566486 0.2568683539580872
24976000.0 0.9758873779466947 -0.21091497810569337 -0.0016564234287171052 -0.002177404505207305 -0.0012311843805018173 0.004396868572485235 0.06183845777971361 0.2530880271408282
25975000.0 0.9795941016100785 -0.22465431096407465 -0.004581299793999277 0.000330147206449149 0.02319163234414245 0.01654291966564928 0.0721281728532772 0.25001078927529863
26974000.0 0.9721727311165497 -0.2290254087702689 -0.0035164199383877132 0.000599976493148149 0.0014547594702684437 -0.0018781849559253417 0.08631992135302567 0.2613502221318502
27973000.0 0.9744543743071584 -0.23471351924344797 -0.0012469959746983712 -0.0018145977262429432 0.0020254031071750772 0.00035746861491121505 0.10629155555768281 0.2565980698721797
28972000.0 0.9689171645245579 -0.24372425982591642 -0.004515051700290013 0.00045368253601418845 -0.002638379212179643 -0.0026043986518462046 0.11010093359933483 0.24682429013481402
29971000.0 0.9674972614878496 -0.25266279733769986 0.0033589400807502133 -0.0023441399899386873 0.0007713235795929849 -0.003072613830390644 0.14864685957654744 0.25692448385864314
30970000.0 0.9659333672049705 -0.2586921296523488 0.0006353327531486856 -0.0007758244263527099 0.0024424784240608672 -0.0020591770395469015 0.16475109002979543 0.24868325888164292
31969000.0 0.9622837288396064 -0.2676625273652305 0.00513540481781439 -0.005867056949780593 -0.002294143470842398 -0.0019725065706332127 0.15296849568085372 0.24469782136164728
32968000.0 0.961193067165962 -0.2768169339944549 0.006016180523748147 -0.009810156670903552 0.0009799443295040202 0.0012052856864548406 0.1633291628993556 0.24409275517842755
33967000.0 0.9581801228720304 -0.2883995258923647 0.011981431537751115 -0.008060257377514875 -0.0002494150225204484 0.0014101708273972073 0.18964891567307085 0.24305295913653974
34966000.0 0.9556174596943527 -0.29571473263317793 0.013953106239016145 -0.013615360364409334 -0.004121840121248884 -0.0003442671719565778 0.19422934679159456 0.2476966427102121
35965000.0 0.952169376243381 -0.3028989881945641 0.017054525695895204 -0.018909069149168876 -0.000715926182219504 0.0007709935194887216 0.2156314645913475 0.2514470827494136
36964000.0 0.9495225141783608 -0.31281584376339494 0.017134793589048396 -0.014115355645562247 -0.00029620359934778514 -0.00017758759815205782 0.2125185521648785 0.2504067734601918
37963000.0 0.9469159527851362 -0.3203794496796226 0.02042300782929622 -0.01951070292773957 -0.0002991653798015726 -0.0014933034346967737 0.23456936210717788 0.23265201164320853
38962000.0 0.9432815902285104 -0.3309049277072987 0.02334485793212011 -0.026761615719891222 -0.00230597531102573 -0.0008807351783230804 0.2419596486074437 0.22782835519478775
39961000.0 0.9426330878588939 -0.3351981417573893 0.024958185253178368 -0.02839908517871711 0.00032474799410255213 -0.0007280641354491847 0.2575156870888867 0.22370796083988292
40960000.0 0.9390738619859517 -0.34356206720735305 0.02336481754904644 -0.023846568531127734 -0.00017475254695988293 -0.0006494061794439855 0.2704865838681274 0.21853903149632212
41959000.0 0.9353204515220311 -0.35556809468458206 0.029919131857049797 -0.03111341244673217 0.0005465710910596279 0.00044579652525775476 0.26751385755979773 0.21407572432080255
42958000.0 0.9306968607053736 -0.3640650299522909 0.02946004091040473 -0.04146555149527472 0.001495848845915447 -0.00033152466135934016 0.27539895991939156 0.1993465311971025
43957000.0 0.928508001631219 -0.36784212932561183 0.03115548116103774 -0.045476892596067096 -0.002380790163366619 -0.000387014107407918 0.28474766723310535 0.19698197771701023
44956000.0 0.9251424088024748 -0.3769745034934787 0.03333231602955737 -0.05157889405673326 -0.0030593242049988243 0.0009574742248793515 0.3091658004436868 0.1891191164346281
45955000.0 0.9208008135127299 -0.3877349740677191 0.034417051001980635 -0.0585032126411624 -0.0015755281731991068 -0.0007259249423128297 0.3155916760296294 0.18241349106030905
46954000.0 0.9185620281767268 -0.3950079208014165 0.03749646981213173 -0.06555267756520625 -0.0005212023335119934 0.002916963057843834 0.32985760703414646 0.16956486738622076
47953000.0 0.9162236862239955 -0.4021254247757947 0.03443741834695546 -0.07298370243278135 0.0019711197350809843 0.0013689956020653503 0.33297431943407435 0.1710143358359615
48952000.0 0.9102906607071206 -0.41381766380665025 0.03852022006129963 -0.07972234855878901 0.0014370082631490321 0.004096510259787153 0.3426359386470354 0.16760803267285543
49951000.0 0.9061168743793093 -0.4210352143456303 0.03693333834427853 -0.08904147487141621 0.0027755425118976863 0.002066477385685283 0.35731344758566413 0.15032284068113821
50950000.0 0.9029157486373357 -0.42814038595731607 0.040107644735848894 -0.09726164538595332 7.221453179595158e-05 0.003840983000207303 0.3579948849705541 0.1394109515673706
51949000.0 0.8999782306405016 -0.43639432508477016 0.04160133939841217 -0.10431813367338451 0.002166216344942392 0.00107722517976764 0.3647685605116575 0.13449967303771868
52948000.0 0.8974301794063337 -0.44291088767235753 0.04121863196460656 -0.114423117772268 -0.003033935551047748 -0.0005308269064286396 0.3816981607232668 0.13108826239017446
53947000.0 0.8906898230856989 -0.4514635131564525 0.04576364796289634 -0.12443834579970957 -0.00038150093658435435 0.00029056566648222646 0.37315133038060433 0.11942931286407499
54946000.0 0.8867151074093257 -0.4598229295686198 0.04268696166543938 -0.13394077863587067 0.0005757087490818564 0.0006883655752052133 0.39022193226913005 0.11320581463947195
55945000.0 0.8852008709443525 -0.46669615192366826 0.04527799252161215 -0.14379143458444538 -0.0007389786701543469 -0.0018442959583586122 0.3896939313318439 0.10016204513877561
56944000.0 0.8796952259380981 -0.4776313361440167 0.04656549132125168 -0.15416552952168144 -0.0010193607356171538 -0.002075974508870968 0.40145168478165555 0.09762640332005632
57943000.0 0.8738193603471703 -0.4872999014154034 0.04584032235619096 -0.16762794807620982 0.0034209150632496335 -0.002366576490509393 0.41062049310489396 0.08497181097013129
58942000.0 0.8690326235898238 -0.49404527008118126 0.046856725912035456 -0.17541068545206812 0.000775132438247612 0.002945123794563025 0.42054008677151916 0.0767711605905052
59941000.0 0.8672801577227638 -0.5001569469970178 0.04928254008530321 -0.18484267168386873 -0.0030524546147465007 0.002291973506154203 0.41375604089384893 0.08679104471048601
60940000.0 0.8600646702359082 -0.5084351202385596 0.04749735964415738 -0.19074528432659504 -0.00024366238449594093 0.0032581117695751807 0.41686959368887605 0.07394361937254243
61939000.0 0.8561711606844732 -0.5146915630921124 0.050413673992029236 -0.19784774325656432 -0.0004982056119091406 0.003450406045639156 0.41688391656888546 0.06291101150829279
62938000.0 0.8495371594950156 -0.5272986947548234 0.05343134345991903 -0.21312713853885001 0.00034751683355728106 0.0003621014703040033 0.44579386206421184 0.04972527356510411
63937000.0 0.8458080341984686 -0.5327858567101065 0.05406586417100833 -0.23516360112622037 -0.0025106605889111872 0.004122996266756511 0.43519510277090234 0.024448537500976267
64936000.0 0.8402448782148291 -0.5390900106306432 0.05408988123475093 -0.25289903137936404 0.00017173655403676967 -0.001109579624104812 0.43491960166269356 0.03056145440047115
65935000.0 0.8374509130294627 -0.5487413651895756 0.05416377674037037 -0.2646412798445838 -0.00030860367613917006 0.0013000550677392056 0.44377581490267354 0.010140760941271497
66934000.0 0.8331464500271987 -0.5526626398699993 0.05389866004971404 -0.2785361250837768 0.0011769092407189154 -0.001386968857188375 0.43536356525717385 7.44819611413077e-05
67933000.0 0.8276940069483296 -0.5636353112712318 0.05605403273636717 -0.2951773940416852 -0.0009447774009814855 0.004456695875230289 0.45314804427710087 -0.006505698317523851
68932000.0 0.8214070625747877 -0.5558474065759944 0.04993482891407747 -0.3046996040042747 -0.0009877415935059515 -0.0022680374552811783 0.44212717231030163 -0.011376529906208636
69931000.0 0.8127444490744082 -0.5798308212907766 0.051107280539547786 -0.3201995884895107 0.0027368797574502104 -0.002428910013413276 0.450242655382437 -0.0264398860438563
70930000.0 0.8086228085988505 -0.5852334987880538 0.04596937115778359 -0.3366005732773608 -0.0029748768022308555 0.001518097341921366 0.4516313366369913 -0.028654855793122228
71929000.0 0.8058805817848846 -0.5982980700738185 0.04084951010798057 -0.3524058631434755 -0.001946412887177173 0.00044704448960547656 0.44987024631699435 -0.050093114795716785
72928000.0 0.7986687358215375 -0.6043212188159763 0.03730034869580598 -0.36993167799220883 0.0003563348238796089 -0.0004753911116288231 0.4614733385124858 -0.06133366179758623
73927000.0 0.7919365081038597 -0.6096241029193853 0.029865548211461417 -0.3912508490842183 0.0020181780988041747 -0.002954632786169402 0.4570669640891525 -0.05387208411900732
74926000.0 0.7875019556510752 -0.619378900201429 0.022668369392718535 -0.4104848991590551 0.0043249372930810595 0.0006893216512178332 0.4636400455472122 -0.05391776033802765
75925000.0 0.7811077534994657 -0.6242913858640192 0.011013379401264801 -0.42827539023016925 0.0010606096759254566 0.003861355291932263 0.4693825123860349 -0.08177516793730086
76924000.0 0.7755724555808496 -0.6321778793229728 -0.0020406702135610313 -0.454740992478839 -0.00451658469404277 -0.00018736490139451432 0.46872981972576944 -0.0921379060639413
77923000.0 0.7686699628034618 -0.6391228279546308 -0.011045481538957555 -0.4754345295819631 0.0021649603022339944 -0.0012634304438911119 0.47070712745820803 -0.10133913374922006
78922000.0 0.7625213254234228 -0.649230267012026 -0.023825789666557667 -0.5037414722149894 -0.000390523628831519 0.0019295846920952349 0.4640149060961758 -0.1189775145544618
79921000.0 0.7551404770774364 -0.6514443914566015 -0.044396564526528376 -0.5273471348397863 -0.0007918767132019005 -0.0017686825284071064 0.4568839723668653 -0.1289170965670322
80920000.0 0.7498520204077673 -0.6638578599394522 -0.058405199528762386 -0.5577022954060397 -0.002758358865751595 0.0016137360430781658 0.46966041974642686 -0.1399920885214952
81919000.0 0.7443309678057074 -0.6684173766632785 -0.0783557791608732 -0.5861145541155692 0.0028807291716642235 -0.0052044106499797614 0.45611334871993187 -0.14351582257190243
82918000.0 0.7357311929155758 -0.6762529507159462 -0.09355644453248105 -0.6141765962127187 -0.0012772437488091587 -0.00016876607102784836 0.4679591607791286 -0.15760150047158086
83917000.0 0.7270020562829331 -0.6854623643216211 -0.11716964058001035 -0.6441738673885733 0.002156716776947322 0.0026606763487944103 0.473626398154942 -0.16404939363123652
84916000.0 0.7222352013512983 -0.6922774261132957 -0.13265552549156726 -0.6799593481360162 -0.0011977173905146478 -0.0005663235551412134 0.46652937286742086 -0.17616432696755316
85915000.0 0.7158540984331795 -0.6987180788389689 -0.15435605370234895 -0.7080534274907774 -0.003326086499154386 0.00014089112193081153 0.47519135325936124 -0.1897415515893578
86914000.0 0.7075006471016725 -0.709919975842147 -0.16941115435544848 -0.7439990524301455 0.0010516850642726717 0.0045722243421977655 0.45668304272316174 -0.18388011336225268
87913000.0 0.7008271617241444 -0.714708242198647 -0.1884339616513726 -0.7770966473189606 0.0012128978440402952 0.0015238332563710518 0.45426700817162774 -0.19009771431239858
88912000.0 0.6933732633989927 -0.7211087301402134 -0.20595588404891707 -0.8099911862228064 0.002959705562711695 -0.0015887363055439522 0.4601631690593527 -0.21727323255581588
89911000.0 0.6864671337197922 -0.7304188616592078 -0.22282032471516072 -0.8489574180763311 -0.001506887042756082 -0.0022355444918126387 0.4652753836834996 -0.2109191083713665
90910000.0 0.6785903472407427 -0.7335791909001291 -0.23577901431349033 -0.8852948646306262 -0.0026936644404503348 -0.0033768156407262425 0.45812917612617265 -0.2238681172363638
91909000.0 0.6695448697046549 -0.7404718006542697 -0.26137690707961453 -0.9144142128874062 -0.0010433915762585713 0.002724095213776063 0.4720241158446378 -0.24500471895677428
92908000.0 0.6626891332879878 -0.7488677290536798 -0.2781296708567741 -0.9477943965260095 0.0017242983926544619 0.0010893343587665078 0.4519324554306723 -0.24040586582153814
93907000.0 0.6570232459820166 -0.7539030996834106 -0.294491212565965 -0.9806491653136852 0.00037042673070055484 -0.0004390085346966487 0.47387508102542447 -0.25852638416832313
94906000.0 0.6437915982200465 -0.76171987763303 -0.3156320645506555 -1.0127543960543894 0.0007677896659077517 -0.002668859042746593 0.4459410777482253 -0.25971941819346367
95905000.0 0.6403913079774829 -0.7687854139510508 -0.34057175809055323 -1.0503403118947257 0.00017007797191456993 -0.002528412451504192 0.4523082894471775 -0.28092932936838094
96904000.0 0.6286575755536773 -0.7787237018988009 -0.3640181150812012 -1.0892206292247357 -0.0015881934339651857 0.0003147051769670638 0.45410383084869593 -0.2913570882517515
97903000.0 0.6208516108975004 -0.7821297472631882 -0.38329593107714827 -1.1211102904891659 0.0010504659730813906 0.0025666765055803523 0.45110100643149137 -0.28999591765487936
98902000.0 0.6153651807561874 -0.7899203754745819 -0.40542388931936807 -1.1613826522577118 1.0672502213482639e-05 -0.001098931998965447 0.43928576379424167 -0.31017161960712936
99901000.0 0.6035818026250652 -0.7960185106125842 -0.4332902810840394 -1.1895867728594305 0.002741006782130836 0.0006945194170336491 0.46613628381649597 -0.3180101505718758
100900000.0 0.5941591606282041 -0.7976929833799393 -0.4658657197323004 -1.218523370953264 0.0005257603751096438 3.698168135615504e-05 0.45290450138222266 -0.31926427347218217
101899000.0 0.5882511170779746 -0.8065314065809929 -0.4904108278603179 -1.2583027673093456 0.001717841352724042 -0.0012631574068861068 0.44456473782352324 -0.32690051979906976
102898000.0 0.5773564847637481 -0.8151196577786894 -0.5327194513411191 -1.2963461546067923 -0.0007626620642324045 0.0009551097533738034 0.44121230500860076 -0.3424275052605989
103897000.0 0.5693057463543065 -0.8221526587440838 -0.5741716264529926 -1.3319929051283739 0.0009814952586627969 0.0011181897378005439 0.4538386737922461 -0.3516671526607159
104896000.0 0.560257043235312 -0.8291178546155098 -0.6150921395737617 -1.36414472815738 -0.0014168435592376279 0.0017954972586018754 0.44115576467648576 -0.35217532877489466
105895000.0 0.550438253584038 -0.8315821909494902 -0.6643518076807498 -1.409332622790064 -0.00629426840601352 -0.0007749672395398611 0.42839463189628235 -0.3665968674995038
106894000.0 0.5437347983847983 -0.837996101219715 -0.7191194779982594 -1.443058086526149 -0.003907510458726924 -0.0022670403151774125 0.41967847034211764 -0.3763514712609748
107893000.0 0.534481508264795 -0.8436670626449689 -0.775967279750188 -1.472692516359438 0.0029313473450835333 -0.004854514352174862 0.41259866390044264 -0.4018278544807087
108892000.0 0.5230959079414195 -0.8494714713990941 -0.8315234432729792 -1.5100919082994413 0.002762490187433729 0.0023330002069507747 0.4224265507969372 -0.39551075701907606
109891000.0 0.5119032370691246 -0.8542572407695189 -0.8909554360838612 -1.545378991902186 -0.000800873544901455 -0.0020567038909996204 0.4327041725218584 -0.3804389124723887
110890000.0 0.49357226440607815 -0.869107100017631 -0.9744414731483052 -1.5471431109979972 -0.004888620075667933 -0.0017795305869460216 0.4118551898452086 -0.40174620506305625
111889000.0 0.4922088228273509 -0.8608129907075716 -1.0204720487446595 -1.610957833753223 -0.003996194983971578 0.001165526113555764 0.40417770980603956 -0.4138751469053739
