! Created with skrf 1.9.0 (http://scikit-rf.org).
# Hz S RI R 50.0 
!freq ReS11 ImS11 ReS21 ImS21 ReS12 ImS12 ReS22 ImS22
1000000.0 0.9827055756841439 0.0038494255032363927 -0.003646642952323413 -0.036976998724601355 -0.009131140833763972 0.0030092590938914166 0.29994909566269073 0.3033151467964203
1999000.0 0.9968694149534291 -0.013054587385969188 0.01047887821631776 -0.019818072499049474 -0.00017102773045153498 0.0012394418731015975 0.2520584057142104 -0.02810008424845943
2998000.0 0.9968554157929003 -0.021369505482673357 0.008719484099705462 -0.01687747450909299 8.659099772760332e-05 -0.0023155564602344507 0.1940192783882193 -0.12648762548057677
3997000.0 0.9968676734685716 -0.030232071876853544 0.013428433788003563 -0.007691578008107587 -0.005750345294177885 -0.0050824242102491075 0.10098743832230625 -0.2154970225457846
4996000.0 0.9946314131392318 -0.03663597107891224 0.01062319707328572 0.0033705507116395255 -0.0014996752513245345 -0.003827369452386939 -0.03705486305972447 -0.1971397559405892
5995000.0 0.9963111870187105 -0.04817716361895949 0.011144808811224661 0.00041581656962914345 0.003171691413458777 0.0012069948747993353 -0.12064190450672406 -0.0975861511219726
6994000.0 0.9946235885047907 -0.057831904980664484 0.006093548078970941 0.005070659299920431 -0.000875731660192099 0.0029406328787247808 -0.15437186983317275 -0.02684138543927967
7993000.0 0.9954503089650942 -0.06894183105189657 -0.0010585134870811264 0.006349730549957797 0.0011763231794686844 0.0008389263163882064 -0.1622262444643457 0.03641808051290386
8992000.0 0.9937237756529756 -0.07130268189910187 0.004348256610103231 0.002325151600905533 0.005370556637523806 0.003181439926141777 -0.16381426011899808 0.06446154018719404
9991000.0 0.9932958687482549 -0.08232049777874069 -0.002615430770379874 0.0033382757724085854 -0.004044451030052111 0.0011520991467796563 -0.1605809249773383 0.09124675928701488
10990000.0 0.9918002788066053 -0.09507605195915592 0.006744426527932273 0.0015402600060780113 0.0029082137621739574 -0.001558256595141505 -0.142271633427924 0.1114954103169741
11989000.0 0.9909556486711263 -0.10242717054955454 0.0016193335273029686 0.0028387510589258313 -0.00668322372063897 0.00047903764847620636 -0.11984219647971195 0.1290532887295714
12988000.0 0.9876728040866676 -0.11036963388350612 0.0029529025015779895 -0.0053247863294478255 -0.002175622532290594 -0.00079219457187642 -0.12559980399343587 0.15640724767992847
13987000.0 0.985930053695585 -0.11999010922914029 -0.0024553350416167416 -0.0045043996218263 0.005248728947332256 -0.0026610639972643327 -0.08951257925947566 0.1947835375266762
14986000.0 0.9864668497093322 -0.12719392600885382 -0.00017223140639677898 -0.004944852147493855 -0.0009634968345815289 0.0005047720725667912 -0.08653644613959849 0.20615388585175487
15985000.0 0.9860943587808616 -0.1333180200031547 -0.0005133262637434603 -0.004495545391379357 -0.0008162818157153298 -0.0019382006689278807 -0.0835279827221448 0.2165653240830791
16984000.0 0.9849333578299878 -0.14666761910778112 0.0036041934467391005 -0.0033368407343598106 -0.0008862727864498916 0.0001917720190313095 -0.06182489183744519 0.21551488742694366
17983000.0 0.9844530516224343 -0.15017343954666795 -0.00577172061222909 -0.0015507871398969819 0.0029784689936191884 0.0006889665699793418 -0.06263156690031996 0.22628235937611388
18982000.0 0.9820686105810271 -0.16154353394503507 -0.005630345863701372 -0.006438865949963615 0.00096694383679693 0.002139844879770595 -0.02270273655269997 0.2456954549312191
19981000.0 0.9810975797079335 -0.166737577352062 -0.006851418681191352 -0.00963013971424206 -0.006398022945263881 -0.004743971845866805 -0.016652077428507526 0.24485054583113552
20980000.0 0.9813206600117936 -0.17630095236276433 -0.009781520509628097 -0.005154805526518424 0.0006931360876353768 0.004332654858618042 0.0007123653146684974 0.2591154977205509
21979000.0 0.9779837976404891 -0.18632257261450313 -0.006655555262004376 -0.004769938997199636 0.0014036042952609298 0.002049460297425903 0.00865079206163597 0.24496714710692605
22978000.0 0.9760404488902366 -0.19236794966715623 -0.003468204031135914 -0.004106137850634413 2.1433194983574093e-05 0.0027458836056894246 0.026229316389368384 0.2545537642112299
23977000.0 0.9769466121362259 -0.2032218598466972 -0.006645114528241032 -0.0017132354455415533 -6.07590923525019e-05 0.0035069034375588546 0.03783680483029877 0.2634465895251709
24976000.0 0.9728932546728358 -0.21282224126509108 -0.009360338645587949 -0.0011601949112117927 0.0024904063938116544 -0.004096159872388043 0.06850569675698423 0.24763128266301518
25975000.0 0.9658042939083207 -0.22481925770104785 -0.006329885118205837 0.0013651627019576416 0.005149954227829326 -0.0268050383455007 0.07318507825782855 0.26848495821731894
26974000.0 0.9688611531044076 -0.2285460663918714 -0.005343255433587438 -0.001048200208244263 0.001302274106567126 -0.0002368790318892612 0.0845595086238291 0.2683047141238047
27973000.0 0.96938005509308 -0.2337647027434577 -0.0029736800752596074 -0.0014559436537874729 -0.0011277646225528058 0.000901607988278347 0.09598755408644043 0.2571558328669655
28972000.0 0.9635534013085545 -0.24759824367655667 -0.002489194903886213 -0.001115934490804415 0.0016035967129201015 -0.0010405675544201086 0.11579450726483544 0.25596037556093315
29971000.0 0.964141272337465 -0.2540147379198578 -0.001372820947956745 -0.005031892623541479 -0.0024518917844611747 0.002426021483868557 0.15015477415578973 0.2639858206991879
30970000.0 0.9622852261545825 -0.25799650562289417 0.0017053886925346823 0.0020406807031906897 0.0013444207709214049 0.002205189388876859 0.15981468050067169 0.25218549162961024
31969000.0 0.9594937226174272 -0.26836774840273125 0.00615349092353711 -0.004906769278909128 -0.0010574069618379208 -0.0019380764890108693 0.1456838774490009 0.24828015850531526
32968000.0 0.9581220523052913 -0.27710948353727766 0.005979786839877459 -0.005577847407784507 -0.002169392467415799 -0.0007617651794224987 0.16435465643946995 0.24222433977547303
33967000.0 0.955058563847429 -0.28825089322964204 0.013072818125026265 -0.008471911644958578 -0.0014252387283043822 -0.0009869997107610053 0.18204170252612412 0.245004885294947
34966000.0 0.9514250373212042 -0.2976768150970871 0.016826541559793188 -0.014400592596714641 0.004871764672583046 0.0011637038937254626 0.18619752275094412 0.24167512145732264
35965000.0 0.9501539689044195 -0.3045147281974709 0.017621691265305547 -0.016347656069609924 -0.0005606244833274527 0.0006715951845746265 0.21387022607257686 0.24573235669863436
36964000.0 0.946100455357354 -0.31409035112624467 0.016630816595937587 -0.013860591199594879 0.002433831385523283 0.0019327058067232631 0.2085652412330804 0.25296193022545305
37963000.0 0.9435953284921633 -0.3224274250149425 0.022516003304572187 -0.021628624462930932 0.003309528358142327 -0.000862793828589283 0.22190327704114604 0.23508429624796376
38962000.0 0.9408387138615203 -0.3311897929592644 0.027430605735236854 -0.025247860669727864 -0.001456280538576346 -0.0006155993782483769 0.24084149360108384 0.22637519947644238
39961000.0 0.9378960072113057 -0.34011959919576873 0.026740456380529336 -0.027931294127036217 0.0009677994664103528 3.494434535934524e-05 0.2380483017170193 0.22577760619167472
40960000.0 0.9336043256049966 -0.3466050396714383 0.024039160735037552 -0.02709602191180522 -0.0007619068555091275 0.0005922419720327102 0.2729255948278659 0.2307932337653242
41959000.0 0.9331161577922125 -0.35659713798500786 0.032113531213894694 -0.03348791985737859 3.4593578260587965e-05 0.00020528374315363743 0.270474978665022 0.21587144188186605
42958000.0 0.9266986806063855 -0.36423898898852686 0.036311984192540836 -0.041996303741408766 -0.0023509026794622063 0.002804939032527698 0.280364826447078 0.20364725838640654
43957000.0 0.9250258997693459 -0.37181107012017806 0.034367186724597536 -0.04924961839138093 -2.4432967288737026e-05 0.0006815767790106684 0.2716856833710255 0.2100928058483176
44956000.0 0.9213401763234312 -0.37985142381503395 0.03631464542241615 -0.052494749596261436 0.003644334246829037 0.000610035761746831 0.29070398502785755 0.19979032337659186
45955000.0 0.9181888338907551 -0.39009754849695655 0.03634631836984033 -0.06157789905297361 0.0015394449835878115 0.0024605923209882457 0.3063951698607885 0.19629067170902068
46954000.0 0.9143234201472459 -0.3978717300528439 0.03948381321390024 -0.06808947809713214 -0.0022310064376783304 0.0020920411041702425 0.3280222894055742 0.17373920705795148
47953000.0 0.9118201184501454 -0.4050543562666163 0.04049894042354934 -0.07415315578705872 -1.4894598701887747e-05 0.00037049987069184603 0.3297624487976161 0.1671634721552517
48952000.0 0.9053177978602176 -0.41796535900182713 0.041363195727635006 -0.08349386994898103 0.0007504052786694389 0.0042524541990533 0.3280991957689467 0.1628433225059302
49951000.0 0.9017965378690751 -0.42286214625732327 0.0428159284639315 -0.09105377688059679 0.0010147824627743096 0.001202550574340101 0.3564691224855208 0.15547106913957584
50950000.0 0.8985098694323762 -0.4298552721005226 0.04229868854805937 -0.09987415376925238 0.0020296845157989126 0.0020336724477472115 0.3514621461718912 0.1536610943643451
51949000.0 0.895341138184059 -0.4396447379024041 0.044355366698993495 -0.10972676877703007 0.0013886463511372238 5.818952940722564e-05 0.3686475260666723 0.14480962251494947
52948000.0 0.8932882539168383 -0.44664376044360704 0.04589053221161093 -0.11759211544548852 0.0005388927857060485 0.0024916290440533027 0.3719375111884446 0.14403128898939177
53947000.0 0.886489757312083 -0.4571187400290696 0.0467984275330026 -0.12686560150288298 -0.003088865320484145 0.002526662214050462 0.37360104349993484 0.12041341959167094
54946000.0 0.8806376195451198 -0.46503064240424535 0.04808906837705396 -0.13666948363430304 -0.0006045133920747812 0.0036996075403650914 0.38792752561265653 0.12676958474350905
55945000.0 0.8777729899239907 -0.47296704114335253 0.05357477546598213 -0.1500538703710424 -0.0017886722752880682 -0.001643683435828142 0.38520272949632905 0.1057152724343457
56944000.0 0.874732251261126 -0.4813346000991851 0.05396077110284447 -0.1558640063439806 -0.005293307849489343 -0.0025582323027306384 0.4034844404582215 0.10469069885026036
57943000.0 0.8665833531325254 -0.49243524965175745 0.05316587937809916 -0.17158840811836157 -8.893849171693232e-05 0.0008253159176189911 0.4017626094221436 0.10036369418445162
58942000.0 0.8630430424102288 -0.4951751327402215 0.05452867938254399 -0.18220714095195534 -0.00013187998927292974 0.0005832885667037989 0.41927820383787784 0.08959039755488839
59941000.0 0.8620240440781277 -0.5022245408740895 0.05687552258226679 -0.19218165832616302 0.0006251188962098386 -0.0019511912092079534 0.4252775195293811 0.08142303211270673
60940000.0 0.8527058563495983 -0.512361599377918 0.056549462885043325 -0.19809206891597936 -0.0024295952738094912 0.0019506006633810478 0.40539809996129006 0.07369968295363202
61939000.0 0.8495371070106118 -0.5192958481492419 0.0567073723753566 -0.20488135072349228 0.0009765817292341128 0.0017012008277173243 0.41559556415992877 0.06626577824820676
62938000.0 0.8447940499509173 -0.5290802657324568 0.06266169711750733 -0.22230196562919494 0.0017585851991821241 -0.00046985244358901484 0.44304516189959303 0.05594749321974497
63937000.0 0.8378259162191949 -0.5390570425562276 0.06474744704917686 -0.24241927686521558 -0.0005685429973155176 -0.0018106433102443142 0.42761296351576356 0.03822457878415769
64936000.0 0.8342122370548136 -0.5417605317084325 0.06287016529868122 -0.2608832744764725 0.005437896072676672 -0.0008112436127746272 0.43605470708225375 0.03963038175011574
65935000.0 0.8292397185358434 -0.5552510359608482 0.05942712932226563 -0.2749014481617089 0.0021879802270976106 0.00020474605212039685 0.43909087919955503 0.02603521478680796
66934000.0 0.8261440393836192 -0.5569669580504008 0.05820317978613446 -0.28868770987830933 -0.0001893989033719739 -0.0034780730353207783 0.4384693257482638 0.008780033664678022
67933000.0 0.8214461556725088 -0.5663799980691909 0.0622935528846248 -0.3069030857661266 -0.0006683504226963616 -0.002128997225941263 0.4480773137541795 0.006251534643475088
68932000.0 0.8030730200430994 -0.5701948308419287 0.05238155749756974 -0.3158627558342686 0.001502330947973503 1.9586528562419634e-05 0.4572065855042011 -0.013403189429372235
69931000.0 0.8086947416522468 -0.5829757751888202 0.05549384227730849 -0.33776498155195306 0.0011089710100555526 0.0002748665699432496 0.4388462330573946 -0.014306527958413494
70930000.0 0.8006388666036729 -0.589309397077279 0.054373505134719405 -0.35537271416922916 0.002653579498530161 -0.0015682403848200125 0.4454641126222704 -0.029750176595495312
71929000.0 0.7979380658384511 -0.5988988972364131 0.05055842950788599 -0.3721515641092298 0.002084692312166955 0.0009685467970666133 0.453355639773338 -0.03724777021443615
72928000.0 0.7887715106223404 -0.6083267393437108 0.03809307283061901 -0.38942078993947044 0.0024230203568169372 -0.0003618226928962908 0.4640653442044155 -0.03957683551570773
73927000.0 0.7836475128230879 -0.6144902204845805 0.031205598592270248 -0.4147636450122337 0.004722547242544978 -0.0019039611327258835 0.4636418442442235 -0.055091639057349116
74926000.0 0.7795004145650305 -0.62101181670959 0.02704588093051733 -0.43430363097507296 0.0015949266116424142 0.00554203495778174 0.46404473414775693 -0.0648857742300078
75925000.0 0.7718124745678637 -0.6291065551291218 0.01764090891395185 -0.45487068916440376 -0.003467441611741936 -0.0001516846514466188 0.4707620207128929 -0.07691836817245802
76924000.0 0.7678593950188677 -0.6354480687690054 0.004053918867086131 -0.4813234483318458 0.0021586084779720988 -0.0025875770970788443 0.4704066466479502 -0.07882911123709632
77923000.0 0.7595680483304275 -0.6439739267559715 -0.011095877304678496 -0.5066819826149825 -0.0026679349328075637 -0.0014171150466017568 0.4598064076436342 -0.09498017323555544
78922000.0 0.7542280022437442 -0.6522440180495415 -0.02473513339724227 -0.5369967836246886 -0.0011708774897572069 -0.002034708676759369 0.4587934037650817 -0.10825199192001378
79921000.0 0.7459878049637706 -0.6568698102846069 -0.04230854208840844 -0.563283189970057 0.001896334260196651 0.0025598890868364626 0.4611705295916897 -0.1160064166075328
80920000.0 0.7420731290048495 -0.6676842810355446 -0.05699791903572436 -0.5906808328239515 0.00022038004164066127 4.052004065940931e-06 0.4770448018609354 -0.12178412539186237
81919000.0 0.7340444922625321 -0.672159436595992 -0.07379053787551762 -0.6235906541009428 -0.0027739237761580573 -0.0021976246728832075 0.462510686519468 -0.12987833640869612
82918000.0 0.7263380605041964 -0.6791906760019621 -0.09034943673606308 -0.6541739416802508 0.0036797927280853154 -0.0005085349243773039 0.47639457305599264 -0.14529161567963406
83917000.0 0.7174876078340917 -0.6894533500546014 -0.10912222441215255 -0.686242599351238 -0.0010525529399274842 6.933160975348596e-05 0.46909328270017686 -0.1525639178494444
84916000.0 0.7106902421005773 -0.6969556241225282 -0.13187489193197896 -0.726092913863597 -0.002389647907401814 -0.003737621507797457 0.4671310757345522 -0.1729916288034772
85915000.0 0.7058652498874302 -0.702226120020009 -0.14724733091307052 -0.7531231581441223 -0.0015430046013322376 0.00019744727370247982 0.46774165064448475 -0.18771245677730816
86914000.0 0.6979342845975437 -0.7126793866664833 -0.16294211593967012 -0.7958430369621281 -0.0009886653628344336 3.963409771216652e-05 0.46567897365091787 -0.16982144228991727
87913000.0 0.6906853418583886 -0.7180012934472755 -0.18330483700635108 -0.8271696897723436 0.000604633129884022 0.0078002039935405965 0.4611872502535041 -0.18819169741678768
88912000.0 0.6840967450816773 -0.7251105688684 -0.19768178076983944 -0.8583540015382144 0.003536580646175904 -0.00358980909226299 0.4652139052430598 -0.21075322038227887
89911000.0 0.6786679342745459 -0.7337104138204125 -0.2116885256510251 -0.9014513740838689 0.0005789042521615796 0.001510573184151712 0.46606311342404977 -0.21312639415727297
90910000.0 0.6699620185562363 -0.7393487400118115 -0.23388640423859702 -0.9340831709362607 -0.001045650004149224 -0.003621406710247101 0.4607352153423196 -0.20934482988950637
91909000.0 0.6593069186076526 -0.7439441793078847 -0.2564953730634329 -0.9708061966726679 -0.0003264055953089358 0.0009724788339779019 0.4644124620493515 -0.23226269574182518
92908000.0 0.6512828076393632 -0.752657088184512 -0.27263184014611186 -1.0071363809234304 -0.00021311505379165637 0.0006381624885586581 0.45439633962715326 -0.2315039408551068
93907000.0 0.6463716024526159 -0.7578114842411913 -0.2968737444793453 -1.0363378641889973 0.002248317513231193 -0.0011133879872703434 0.45995873166491313 -0.2499372246649234
94906000.0 0.6340499763298969 -0.7655207100451672 -0.30986514414587607 -1.0723109772936463 -0.002275390352380089 0.0012184329627827762 0.4536085320448445 -0.25156796552248323
95905000.0 0.6275509717557306 -0.772119567336846 -0.345653515960869 -1.112630864619479 -0.0017215386291114592 -0.005013065199025147 0.4600101173550894 -0.26215866595052106
96904000.0 0.6196285262177543 -0.7807879734257015 -0.36248041348769705 -1.1552888846720497 0.0005693162755671575 0.003726077775238104 0.45813093235457575 -0.2739789158857432
97903000.0 0.6093286160008151 -0.7844682194859974 -0.3898647686690792 -1.1830748477617996 -0.00041230449389823736 0.001115546535083283 0.44402800840739803 -0.283968644201714
98902000.0 0.603910346624609 -0.7930687032160232 -0.40965691635724166 -1.229795123288703 0.001532327923353109 0.0010163408626053308 0.4472692011362427 -0.28636262385295197
99901000.0 0.594767292192715 -0.7978428660449035 -0.44559967866165384 -1.2599487606651434 -0.0007571045363126452 -0.00021122997724947688 0.45973541511135974 -0.31686422445960316
100900000.0 0.5844494191909878 -0.8020647278015143 -0.4780396678979918 -1.2957776363624194 0.002607405055780122 0.003459119254390091 0.463402051580223 -0.3098710380807479
101899000.0 0.5755197738529363 -0.810935429040602 -0.5124407460652521 -1.3375196957417443 0.0031664703706831506 -0.001127483759078467 0.4477148456912957 -0.32478084498261167
102898000.0 0.5662845838481482 -0.8154832039692355 -0.5543287403018319 -1.378003822032575 0.0008192796955593148 -0.003823835326870162 0.4442711129590053 -0.33563414056851665
103897000.0 0.5578944416505285 -0.8227533893952945 -0.5975082642285661 -1.4158402201532367 -0.0013203731327788542 -0.0004881738769749503 0.4559047694443822 -0.3367534214983787
104896000.0 0.5489633872963892 -0.8347301932062088 -0.6480087192553947 -1.4526462607317663 0.0020049719151916507 0.0003232762901802811 0.43625049489732387 -0.33885034383904644
105895000.0 0.5410602285011277 -0.8351671618659988 -0.6962529218515974 -1.500285502775093 0.0025419200490095946 -0.001506499539144656 0.432489267162206 -0.35782461010179
106894000.0 0.5316464650882157 -0.8411438898453728 -0.7529188507689675 -1.543554587133457 -0.0009098617403587989 -0.004830680816761883 0.4284252079696318 -0.36515110256738614
107893000.0 0.5241051720606134 -0.8483027430253393 -0.8154620451631015 -1.5824268390666316 -0.0018627641362128605 -0.0016905951106752776 0.41933972378184786 -0.38106048011118065
108892000.0 0.512385737217117 -0.8525091935202057 -0.8781193565126773 -1.623273434335005 -0.0009269575481057089 0.001617722224169172 0.4268275349656356 -0.3638724968943917
109891000.0 0.49887805991001205 -0.8585794922926021 -0.9403252667315747 -1.6594522868543684 -0.002601862112410083 -0.0004167502461044861 0.4374375223917451 -0.372454884640773
110890000.0 0.4910474636891155 -0.8618879870061346 -0.9974603691541265 -1.6676475431178237 0.0014646314380614186 0.000463609769286779 0.4282780857783433 -0.38341633514762785
111889000.0 0.48133030011548533 -0.8663384796721988 -1.0724309813272 -1.7356549816393751 0.00019759338068736117 -0.0019473222286216785 0.42357446888527694 -0.3994221569086467
