! Created with skrf 1.9.0 (http://scikit-rf.org).
# Hz S RI R 50.0 
!freq ReS11 ImS11 ReS21 ImS21 ReS12 ImS12 ReS22 ImS22
1000000.0 0.9834246921264106 0.0037667116539629175 0.007121192677171147 -0.05886698658250313 -0.007110391988829563 -0.01333274836062274 0.3427060958945887 0.30445721122957314
1999000.0 0.9935653092311026 -0.009803816650329774 0.006490288703226802 -0.021225603491980306 -0.004230046546973642 -0.005071123124608232 0.2770412477065006 -0.0628285800609512
2998000.0 1.0010466325312617 -0.020935619619710483 0.010633488845600855 -0.016120901273517004 0.003454003086958106 -0.0016966260052774964 0.1997200199160524 -0.13312743421523465
3997000.0 0.998274751715821 -0.032387736056664014 0.008975043695704477 -0.007133508887377609 -0.0049419292159127715 -0.0013074957443172748 0.0913164136050354 -0.207385383418707
4996000.0 0.9976985038637718 -0.03792566162219803 0.010824790904596728 -0.00010733622319121275 -0.002025753473288723 -0.0017939149132159742 -0.041173163852447 -0.20357913628272312
5995000.0 0.9972553053250944 -0.047114406514278104 0.005855728901970814 0.0034853483431536198 -0.0015399700599221088 -0.001093764150556918 -0.10628263894540438 -0.11483586192388165
6994000.0 0.9929410553442114 -0.058705312545064274 0.0023017873296487974 0.0005853445632080814 -0.0009892558442753374 0.0025284007575002996 -0.14712649785386472 -0.029608927244105507
7993000.0 0.9937293363539588 -0.06743388420876141 0.0067006006421586085 0.005324652485402558 -0.0006491906646793279 -0.000963567342671083 -0.16465639643022853 0.02026917962576247
8992000.0 0.9950876901936679 -0.07573817244871286 0.002043168402020262 0.0034575343593211 0.0012918137091524316 0.00047552036933220523 -0.14854286753114718 0.05822748720075483
9991000.0 0.9914368210879274 -0.08261621535791235 0.003914413756596267 0.0034906372767977327 0.002790859420894858 0.003483716783566428 -0.1553299443217217 0.0801415236567214
10990000.0 0.9909660348566294 -0.09305064088188576 0.0025563920279274817 0.0019872278992981197 -0.001399203913594792 -0.001955157380949426 -0.13456054856947489 0.1171461227769916
11989000.0 0.9899236028042276 -0.0995120728961958 0.0036820984847129794 -0.0015361216025674468 0.0006732509278320047 -0.0011648600184890649 -0.12993285203759702 0.13065368349715947
12988000.0 0.9891109962788164 -0.11141267042094956 0.004424156234039657 -0.003942649738362266 0.0015557102249784162 0.004702999290877854 -0.12253008092069179 0.15748681252590238
13987000.0 0.9851334020353838 -0.12001570478146197 -0.0031494790214639653 -0.0036221904378784925 0.000564983252619276 -0.0009669530319130001 -0.08433072172009315 0.1874224885877311
14986000.0 0.9849109172648837 -0.1264503870197534 -0.0022323271813691247 -0.005846974585007239 -0.0021942269634746894 0.0007411564276214862 -0.09311512977241286 0.20092165572786502
15985000.0 0.9891149426063373 -0.13433871895645805 -0.0024349013349427395 -0.0046298585112392 0.0018259916881349367 0.00010405708695770662 -0.06000576570082255 0.21108849078163403
16984000.0 0.9841134448665195 -0.14613395185907957 6.797997617927991e-05 -0.004309992968030693 -0.0019991848311087107 -0.002630133686253388 -0.06562874771435852 0.21496731336102023
17983000.0 0.9833691228540272 -0.15348876101298456 -0.002897849409944592 -0.007691410763168469 -0.00203861062714272 -0.0025641172798062037 -0.04965759127774344 0.23043558546974158
18982000.0 0.981574839186971 -0.16114450661462792 -0.0028911097675687293 -0.006614189359820951 0.0010266221912747704 8.054941004246068e-05 -0.03427866466185451 0.23927893190845312
19981000.0 0.9807950545712365 -0.16790349010251399 -0.0037956428524266845 -0.0073861232468475785 0.006969453173468976 -9.750626125652195e-05 -0.017065326317667974 0.23768706213145366
20980000.0 0.9798273124003247 -0.17678799539096637 -0.0028109424750275714 -0.003538193934903211 -0.00019020176904565268 0.006321265385018426 0.00460507124341565 0.24440063198088494
21979000.0 0.979210084242173 -0.18527236826746837 -0.0011042523325208809 -0.005110027948516739 -0.0019308843719373935 0.001832163049569535 0.019747653345974232 0.24153060307459434
22978000.0 0.9754717178858824 -0.19639831553698567 -0.003870307583301584 -0.002961907769603613 0.000400352331194761 -0.00012386716336027238 0.03718848008055146 0.2531276301081895
23977000.0 0.9763466636369255 -0.20126588367143655 -0.005360420261314546 0.0007615871917630307 -0.0013054867958468897 0.0007344005268063342 0.032801260377175276 0.2618347453947981
24976000.0 0.9728801994736438 -0.21290674902671128 -0.0024171360521205794 -0.0022370639280179135 0.00020950657316933565 -0.0008426421425444147 0.060597568604255025 0.26163192351013403
25975000.0 0.9711097804328009 -0.21854432369832263 -0.001439116303714879 -0.003141884542847179 -0.013994247157321378 0.017458861456000004 0.07478360488822149 0.2605487975100295
26974000.0 0.9689463344307299 -0.22841676000515385 -0.004842734420447273 -0.0026046242753063674 -0.002769533304419634 -0.0005009762788141424 0.08914309852135725 0.26575303513708287
27973000.0 0.9672130028731751 -0.2357990610393843 -0.003477546980109562 -0.00045650740397814806 0.00031593584861849984 0.0006210245812266278 0.09561753980687897 0.25574618240216207
28972000.0 0.9631114854300964 -0.24654829112697807 -0.0007782765405519874 -0.003081712100747802 -0.0009427621693225112 0.0008444517385021556 0.11322872865795967 0.259602417589864
29971000.0 0.9631366893963683 -0.25628785364820456 -0.0007639613528345492 -0.0017552388262616018 -0.0006411042398297581 0.000438507526706564 0.1551031860803402 0.2678972276615183
30970000.0 0.9595774438567249 -0.2601838645388951 0.000959483622156013 -0.0008138040054235277 0.0014593115144105712 0.0017385985484604332 0.16087836153774307 0.2590314161582167
31969000.0 0.9605849630084667 -0.2690866694060159 0.0026940234613655684 -0.006500142434694172 0.0018097706662945907 -0.000854612675759395 0.1454856621885212 0.24817947727313694
32968000.0 0.9574076885508647 -0.27857098086069687 0.00815857219851559 -0.005809854463461925 0.00035937896833967005 0.0005191975012537275 0.1706165286941551 0.25026055666316366
33967000.0 0.9552421545835271 -0.2884483937147527 0.008765964534797747 -0.0098417715045193 0.00219095763220586 -0.005143586744022005 0.18116188693159416 0.2393627054396409
34966000.0 0.9511761446004652 -0.2985029763486374 0.017164161584854065 -0.015673801993741653 0.001130931117095033 -0.002363146758050837 0.18841984485507945 0.24867167642855467
35965000.0 0.9483739857816951 -0.30531528055854196 0.016097787092058675 -0.013949346606517062 -0.002556628265759528 0.002151924443775716 0.20724444560202326 0.24362016964346367
36964000.0 0.9458716848507372 -0.31431347677538063 0.016681618218695064 -0.014894968091798686 0.002070698763898318 -0.0006149889195578864 0.20591874287103673 0.25360220471323164
37963000.0 0.9426556313773035 -0.3226276007685292 0.02654552299177935 -0.02168651868034411 -0.0018978689398431179 0.0005739979888838986 0.22284683103674555 0.23463992494219774
38962000.0 0.9396222209884969 -0.33490259716766047 0.02173073885625405 -0.022771838195703272 -0.0010869651082190041 -5.979036530586298e-05 0.24318838723352965 0.2338010529141279
39961000.0 0.9364874778533605 -0.3395053573477917 0.02752253618458844 -0.029301563553128355 -0.00010115248735795462 0.0044491187448395106 0.2515077705287817 0.23249857660562506
40960000.0 0.9333553158724757 -0.3493528153451623 0.02241673115155831 -0.025768008520814237 0.0014122206233231343 -0.0014684406072636431 0.26936097035327 0.22361350860657947
41959000.0 0.9304942175286236 -0.35797035401104726 0.028409270941270708 -0.033402778488704675 0.00013245981378937443 0.0015657257619349834 0.2677565930970876 0.2178392967810001
42958000.0 0.9247207897613324 -0.3678292915948617 0.03213385133747166 -0.040407865371376285 -0.0002806187819621774 -0.002305691568374023 0.27306977120234466 0.1985135885512605
43957000.0 0.924227900296856 -0.3711198148548052 0.03239387894947434 -0.04711416996431968 0.0022572107822268774 0.001902963207710209 0.2825678768617388 0.21209007118639292
44956000.0 0.9209106612966813 -0.3788704845499436 0.03630625858528387 -0.05279848314884151 -0.002067433957801534 -0.0021057882070685753 0.30490960630235164 0.1974348174424788
45955000.0 0.9157117899627539 -0.3900987227000483 0.036187910046320756 -0.058234803660520716 -0.001073000919356327 -0.0010863542431272027 0.3052892971300639 0.19435782471470384
46954000.0 0.9127101854895843 -0.400266812293461 0.038564830660630184 -0.0660446970949744 0.000712247036193925 -0.0009265077862716372 0.32409890889107473 0.18108467255296581
47953000.0 0.9098174834827414 -0.4089153180881487 0.038959888252560665 -0.07315739853000504 0.0009032452145646438 0.0025787123942320653 0.3285068480688431 0.170524949778248
48952000.0 0.9057507155671023 -0.417350286437762 0.041814041611376064 -0.08070033370273082 -0.00036148250955754524 -0.0019109757735512973 0.3331078928799899 0.16424485818147613
49951000.0 0.9014732925079194 -0.4256334875276275 0.04090683027423355 -0.09053273078657824 0.006128696433204587 -0.001034283683050919 0.3402166501413105 0.15640250711425685
50950000.0 0.8968479656351375 -0.43425382615483676 0.041182222595227844 -0.09833762203311154 -0.0013146717686501423 -0.00101821422496364 0.34305731920609056 0.1445786601270412
51949000.0 0.8943072710070467 -0.4420662183711042 0.04260009065983346 -0.1053223052244109 0.001812213047648424 -0.0007386313444857396 0.3551253490469965 0.13604311114219964
52948000.0 0.8893875640331194 -0.4510616101955851 0.045000114762903505 -0.11461759031918056 -0.003574453222783513 -0.00015155987712717921 0.3604811265876905 0.14406651511044985
53947000.0 0.8841836295156309 -0.4563554814972263 0.047451311601556 -0.12325943331032331 -7.622747339499989e-05 -0.0032369049740158906 0.37490724099512546 0.1315639833937196
54946000.0 0.8787622190876209 -0.46624327059293863 0.047801424313791446 -0.13691805592332543 -0.0022035833279335925 -0.0023548997159652282 0.3814224061640574 0.11673471015538103
55945000.0 0.8758459155711552 -0.4736809279961826 0.04726132239490535 -0.14483021822342468 0.0020177601108244537 0.0007188579540261678 0.37862736881849274 0.10292736849655237
56944000.0 0.8730185591518368 -0.4840325618028717 0.051106966851598976 -0.1536512048943306 0.0006303008134645465 -0.0013511114968965112 0.39297508254290237 0.10634559349878613
57943000.0 0.865816951564722 -0.49431348942262504 0.050797119517290996 -0.16872712135681106 -0.0008459418797304569 -0.0012149421501528792 0.4015109478359839 0.09049809604262304
58942000.0 0.8611317494763422 -0.49979027610970383 0.051544580342247355 -0.17821725802037694 0.0011852250877786887 0.0025901048717957348 0.4177205115269186 0.101040658779174
59941000.0 0.8589107024744828 -0.5060156875421853 0.05471001646986662 -0.18704905503668529 0.0002083542322478973 0.003162317277228898 0.4176610169245601 0.0898724210865175
60940000.0 0.8508125746406884 -0.5148930435054284 0.05377086616647062 -0.19406595693100712 -0.0023371766661239627 -0.0014835202193855255 0.39877788540331827 0.08084541747475847
61939000.0 0.847739323435677 -0.5212016181295109 0.057420331113154775 -0.20009581638778876 0.0017161754163028693 -0.0006588043749108481 0.41324389889380003 0.06960604852411012
62938000.0 0.8415199587398651 -0.5317475684415077 0.05898224242531696 -0.21489762536296472 0.00043393409491228156 -0.0006237089425017562 0.43428968898037035 0.05671057892971317
63937000.0 0.8378138641516959 -0.5377027029578738 0.057253304785708385 -0.2398063021743899 0.0011636535329881026 -0.002409807837598946 0.4305117475076213 0.05114300729263152
64936000.0 0.8306056350350174 -0.5434497539764604 0.058863029168147146 -0.25411217365966526 -0.004713816887831742 0.004909296106407951 0.4256364813406113 0.047329414806687134
65935000.0 0.8273560282283958 -0.556155425714012 0.0580489486063934 -0.26741204950998804 0.0015877007087011475 0.0010644803134463663 0.4334045066766432 0.017573151301813174
66934000.0 0.8229137342194246 -0.5626218442160259 0.05787954632869807 -0.2808013440241768 0.0012941791446124465 -0.0008585735739534475 0.43028157211847506 0.0053246033893171165
67933000.0 0.8187473736458508 -0.5691657233917214 0.05885592052079367 -0.29701426173436524 -0.0033779217314889418 0.0004800318347357279 0.44256516682176167 0.016080650711842396
68932000.0 0.8081329578451776 -0.5752560614668953 0.052959509900413114 -0.30851834278555956 0.0004376542241953662 -0.0018350608506499048 0.44488542841114265 -0.007843450146080668
69931000.0 0.8043060815340043 -0.5844224487409904 0.05552918159483072 -0.3264057768221915 0.0006900434834915626 0.0023866950278659043 0.4484934359175198 -0.023380103406691513
70930000.0 0.7988295044508411 -0.5914140382818315 0.04979302125711243 -0.341422265694109 -2.601751014529198e-05 0.002691557591765564 0.44283715223967157 -0.032416859649076334
71929000.0 0.7959944898347227 -0.5994389160487994 0.04706503801032247 -0.3621700695715991 -2.528203739462468e-05 0.0027339635144860977 0.44867299500518065 -0.03627812684429978
72928000.0 0.7879254549734278 -0.6131108129049077 0.037261315602364974 -0.37859745255296406 0.00136742973757755 0.0021627087403042955 0.45433465955901725 -0.03872624904637578
73927000.0 0.781373149476435 -0.6177615554364619 0.03354605686212673 -0.40199110255816806 -0.0023766884769445586 0.0039327401712748525 0.45280041599534343 -0.059182584832397515
74926000.0 0.7773756029366737 -0.6260749771399932 0.02903731890474014 -0.419883019501726 0.0014444315082864753 -0.0005261287758004292 0.4569354726494067 -0.056327193184760004
75925000.0 0.7685342625096461 -0.631485587222507 0.01772714202054585 -0.4397220212143388 -0.003966013173661202 -0.002676174876357261 0.4673051501807018 -0.07417959141564331
76924000.0 0.763696361098754 -0.6383621642684673 0.002545179376649683 -0.4643242682469124 -0.0022330213278548105 0.0013437835640628807 0.4662538897747412 -0.08020249223012615
77923000.0 0.7576025442640756 -0.6440673653194979 -0.008560141343240643 -0.4869787506733982 -0.0018533032917662424 -0.0032731436509918733 0.45427726575004296 -0.09685793944052729
78922000.0 0.7509302561263322 -0.6548785046304703 -0.025658671598809767 -0.5185107140911116 -0.0010209952092443916 -0.0028499206053327173 0.4593820343002609 -0.10248544190349135
79921000.0 0.7421347086028032 -0.6582584803077226 -0.03743382502123826 -0.5442964182983103 -0.0021956442086493813 -0.0019820981851624885 0.4606681695384567 -0.1281167681456557
80920000.0 0.7377588315007023 -0.668908577995318 -0.05741438064114107 -0.5726520594676965 -0.0035753228570855507 -0.00480931967824989 0.47517874035116053 -0.12554619429630007
81919000.0 0.7321625657290821 -0.6759314357373887 -0.07593476551909059 -0.6011769565074503 -0.0031368250392071755 -0.002009811327837243 0.46489251493275535 -0.12642661460506585
82918000.0 0.7209354522967921 -0.6841293062328347 -0.08772886413548837 -0.6313709198795088 -0.0011645695901622013 -0.002262791640136017 0.4669639514412114 -0.14873650420596127
83917000.0 0.7164009703533836 -0.6907153421249094 -0.10703794689909284 -0.6625414062325667 -0.0013431524707179837 -0.00016149770296823397 0.46451032425960653 -0.15324487447949184
84916000.0 0.7098460079645266 -0.6987332333944231 -0.12411647647099602 -0.6992913952026185 -0.0005824307186978951 -0.0001446082880648733 0.4753785205172208 -0.17028903328123707
85915000.0 0.7035198314162949 -0.7049903524985205 -0.14648357820861713 -0.7321548318683692 -0.0015791929241985411 0.0013838221022086834 0.46837857288140117 -0.17262367650638763
86914000.0 0.6964722714138516 -0.7137244710892505 -0.15823520816270673 -0.7673083769995639 -0.0013749945452708654 0.001847105622690637 0.46463622577514135 -0.17379794098444282
87913000.0 0.6881828314978136 -0.7203924285114689 -0.18112141353791042 -0.7955814948419987 0.0020737357837609357 -0.00030440472869096036 0.44774396366948827 -0.18331682225735849
88912000.0 0.6798024542265031 -0.7280269906573678 -0.19819526898361683 -0.8325305303762209 0.00028249451858117117 -0.003500221525593465 0.47185355137485874 -0.19494271892772383
89911000.0 0.6722076190503345 -0.7365535077695853 -0.21211549104956842 -0.8691311982559368 -0.0004205175833938768 -0.0008838260413144512 0.46546990794507925 -0.20458046370706925
90910000.0 0.6669492182730498 -0.7414418684010011 -0.2309992189207992 -0.9019654786010276 0.0017327497223378141 -0.0025141617198060724 0.4593364699359492 -0.20991176488415525
91909000.0 0.6573886424057591 -0.7463813256746935 -0.2511528585570938 -0.9310130848723881 0.0002777316222782803 -0.0021221680405274896 0.45356798534900167 -0.2311101567639289
92908000.0 0.6495869209203995 -0.7551287947278628 -0.2691952921866452 -0.9704180928489261 -0.0004450137676719706 -0.0008472503345920834 0.4550764194298367 -0.23492645534915677
93907000.0 0.6434352109946636 -0.7595128851950127 -0.29176051717932305 -1.0011139169431489 0.0007548353334149409 0.0005971769286487507 0.46070121070628367 -0.25349264290658297
94906000.0 0.6319228599437221 -0.7681686726354745 -0.3070940899365057 -1.0380374373456236 -0.0020232178470605197 -0.002031455041819975 0.45573742029972913 -0.25878806626957906
95905000.0 0.62312505920944 -0.7732397986221557 -0.3288447670331178 -1.070022656073662 -0.0008256145630917924 0.0028965488643202184 0.4595829965499644 -0.2745120862387583
96904000.0 0.6165336122063554 -0.7813020592765538 -0.3539767085083821 -1.1106330157786466 0.002878678779652071 -0.0013371287347450364 0.4547961848744965 -0.2622526333015605
97903000.0 0.6070781198165414 -0.7887415919158905 -0.3787644295393103 -1.1419151584140395 0.005057903811202453 0.001354419572968324 0.44587473892162427 -0.28366674619273474
98902000.0 0.6009110047238143 -0.7930856195435748 -0.3940630302007631 -1.1843524429260879 -0.00046822264611056215 0.004696651396472601 0.4445716641379156 -0.29565281217949607
99901000.0 0.5885697792649293 -0.7995146906499171 -0.4281335831860186 -1.213240552255529 -0.0009262571568414692 -0.0031202798644192086 0.45379992945318126 -0.3230337895983758
100900000.0 0.5816056680886054 -0.8039233855612158 -0.4653035452200487 -1.2460786542789561 0.0006369790932855279 -0.0005286888253615226 0.46210671086745575 -0.3139386347222363
101899000.0 0.5738171254005912 -0.8104120656413022 -0.4901414650685053 -1.291884274761675 -0.002901643198192884 -0.005107254335245208 0.44168378224544896 -0.31107886108566557
102898000.0 0.5637342417136084 -0.8182922037906648 -0.5324642921674685 -1.3229830364258632 -0.00030645642690985895 -0.0007735270429362133 0.44548103814169465 -0.33928376343290884
103897000.0 0.5556164309524362 -0.8251143043152729 -0.5716631276195707 -1.3579042478850305 0.0013653476987104695 0.0019079353847093524 0.4644246832363323 -0.3362282653523235
104896000.0 0.5455555479618109 -0.8344758566777641 -0.6162344623079391 -1.3910262572877785 0.00025778317731653215 0.0007699475375774594 0.4342147293455845 -0.3296500873416247
105895000.0 0.5341586198263109 -0.8362984649640645 -0.6694459948957524 -1.4371001400066163 0.003215590679204404 0.0014176946012148602 0.4382549509843305 -0.34909310198100746
106894000.0 0.5288707143064718 -0.842876868955936 -0.7270147387468212 -1.4742242661379208 -0.0011339972957007368 -0.0004163641517138762 0.42228141616394327 -0.36053096834332354
107893000.0 0.5193598075719654 -0.8500887497078237 -0.778278269517637 -1.5167556504848207 0.0030166478246339543 -0.000367280467636427 0.42915401270156656 -0.36434621874549994
108892000.0 0.5081192481978635 -0.8527525789112795 -0.8423715516069268 -1.5561177722921036 0.0010560078728186826 -0.0025467054281618365 0.4298746461911222 -0.3678482384830156
109891000.0 0.49680866428595355 -0.8607146350866858 -0.9031382113138153 -1.5916507904891959 -0.0009663014009937352 -0.0019383251004249891 0.43646221399339524 -0.37622617865319213
110890000.0 0.47787722534060556 -0.8699633613530883 -0.9792189394250087 -1.5902756106006788 0.0002518010037709139 -0.002229652133876594 0.4307118828695215 -0.3848464266548302
111889000.0 0.47646527337072214 -0.8658925965342139 -1.0286152165255809 -1.6618838622575385 0.0021776358882436547 0.0004949509716419095 0.4089047064060543 -0.39332775957969013
