! Created with skrf 1.9.0 (http://scikit-rf.org).
# Hz S RI R 50.0 
!freq ReS11 ImS11 ReS21 ImS21 ReS12 ImS12 ReS22 ImS22
1000000.0 0.9944672424839001 0.009524136098775003 0.0019031878465368712 -0.06127002353197194 -0.021119289384705687 0.008434099541383048 0.2897581203598626 0.33616571874228846
1999000.0 0.9936913251714602 -0.01518882732133597 -0.002088802788862422 -0.01708063015582682 -0.005045231321621302 -0.005269995938009001 0.2387770013210304 -0.0590898842559929
2998000.0 0.9969243512189261 -0.019601984537626956 0.015454752710155844 -0.017003448755118198 -0.004753974303151858 0.0013264867552568325 0.18716459841764965 -0.14361144657777086
3997000.0 0.9987751490821335 -0.029452511711600366 0.013757414425489287 -0.004778314379249159 -0.002019295013714349 0.0016696422605122232 0.09905817592787546 -0.2221788111628381
4996000.0 0.9979968533282999 -0.03846195684597747 0.015078721001566852 -0.0032153126595257766 -0.0008910231783218991 -0.0026339910426609542 -0.03679725034296698 -0.20699978434193358
5995000.0 0.9989738908762663 -0.04849826681824369 0.006386867101160974 0.0026508141628389624 -0.002822404278651027 -0.005209023578220046 -0.1283513373700716 -0.1067595884233077
6994000.0 0.9973875771411861 -0.057841509325436725 0.005740205654424098 0.00626175839704133 -0.0004388678128825467 0.0016669114126001687 -0.1553802309517308 -0.030841437947618386
7993000.0 0.9978862346872776 -0.06884362712036321 0.005631302227013704 0.0035349141431766764 -0.0015475011673533562 -0.0011612422200126895 -0.17436646284950144 0.027937945189176527
8992000.0 0.9975999975184267 -0.06988650191328148 0.001321344967821466 0.006213333691088295 -0.001063576835682087 0.0002578059965196292 -0.16480400076679574 0.06259762951540566
9991000.0 0.994213326919674 -0.07999196824408981 0.0017232947217784152 0.0037245680249782865 -0.002924620634340979 -0.0012089775931699359 -0.15368574600089668 0.09556317697370609
10990000.0 0.9955099370937843 -0.09513496003851347 -8.831209760193963e-06 0.003925275638044815 0.003491325432366059 -0.004893480592156666 -0.15372698281440247 0.12188402151135481
11989000.0 0.9908606509418916 -0.10028580517705879 0.005668619285402025 -0.0004879481670343983 0.003960365486871135 -0.00486500851627209 -0.13357663896820085 0.13154323091272663
12988000.0 0.9903490322049114 -0.10995320537753919 0.002520916284239917 -0.005629832834539051 0.0018671030371612883 0.0021143375022978457 -0.12786971000302766 0.17256867029893236
13987000.0 0.9903897792099169 -0.11862709045800761 0.0015684755750189055 0.0001730706260840188 0.0008012904064209987 3.796353472427034e-05 -0.10903463132711376 0.17779582682774192
14986000.0 0.9887482852541235 -0.12388838812830884 -0.002324970694459662 -0.004639822686138314 -0.0012438169345174574 0.00012782704147243368 -0.09489734665800283 0.20030743521816866
15985000.0 0.9932072248896676 -0.13401002167362336 0.0006226784736944069 -0.00517210837837014 -0.0020344914148297238 0.0019891524912595687 -0.0696357868255588 0.223404086525796
16984000.0 0.9863837192747873 -0.14555989455766158 -0.005718343239117352 -0.005404966814157223 -0.003862671179471104 0.0005377315450150862 -0.06432385728282942 0.21890223807706535
17983000.0 0.9875505334672235 -0.1467480876693189 -0.0026889131048814753 -0.000923444201638987 1.9341802064065022e-05 -0.006638264727329555 -0.0558899491716098 0.23344473915221325
18982000.0 0.9864911395153433 -0.15827681694651213 -0.0029055225281491297 -0.009365378159434775 -0.0013611851776352043 -0.0011354989651629884 -0.03075758738844835 0.23743348483617882
19981000.0 0.9838184213458526 -0.16408644289689012 -0.0037797998875897048 -0.0006891691250758788 -0.00017569022812055233 -0.00020030571963613092 -0.009631301208139419 0.23946255920782394
20980000.0 0.9823568672686691 -0.1757922031549936 -0.007322102851904163 -0.003984731269312515 0.0033339587706836997 -0.0019216786140198456 -0.013813691388133978 0.25964843683463507
21979000.0 0.982643688900509 -0.18464069197227256 -0.00870949871892875 -0.0061397429855229654 0.0034059061585607025 -0.0015804556388201083 0.015170764550049955 0.2462653799915996
22978000.0 0.9808294010927242 -0.1915749077360809 -0.009099105840286708 -0.002670805775128605 0.0024611724393121927 -0.00026301565746181385 0.03856556018100903 0.25968460514473124
23977000.0 0.9799697170719516 -0.19821302534878749 -0.00654843277737426 -0.0009330757565419954 0.0005943438079642208 -0.005815243415734511 0.04009689792285562 0.2557352052216787
24976000.0 0.9769112653886809 -0.2116503470648853 -0.004040501659243236 0.0012557356155467826 0.004260765944056138 -0.003495849210888738 0.06495101110834285 0.260903972679689
25975000.0 0.971202307986518 -0.22376289143345635 -0.0062386605310485515 -0.001308329784128225 0.020482247599856944 -0.020407957678027326 0.07882028424738577 0.26601520962027964
26974000.0 0.9718217888320598 -0.2265528239864936 -0.008440371937954178 -0.005275307040485476 0.001466481329535839 0.0010709669416573034 0.09090721292522995 0.2615855920355838
27973000.0 0.9699406170185605 -0.23322571914275222 -0.003573372684318191 -0.003166668415459473 -0.0002690715183168185 -0.002141160080833678 0.0993882273106092 0.25575417644694415
28972000.0 0.9693684804141528 -0.2422736723698148 -8.573273083817015e-05 -0.003382706345419896 0.00040718206468993295 -0.0017438413679414315 0.12169854367531929 0.2484405739976995
29971000.0 0.96754659635102 -0.2500916979480854 -0.0004208576647052974 -0.0018891183856708936 0.00020342198812694422 1.2177420224733961e-05 0.15559940585661144 0.26457512280082096
30970000.0 0.9634410890063224 -0.2582977816074142 0.00074757776092373 0.0007722115647491056 0.000631410503849386 -0.0030972693107756493 0.16752006074469503 0.24508798390189124
31969000.0 0.9605153046330623 -0.2670104722864919 0.00707812659517227 -0.005189419212948115 -0.0019078914557158124 -0.0015791776724949596 0.15102907987180048 0.24476358092060452
32968000.0 0.9593814949437832 -0.2760035176903212 0.008059239970931841 -0.007493119048556118 0.0006102246136026044 3.26307199183847e-05 0.16530608386262308 0.2403072358606861
33967000.0 0.9592554306635284 -0.2822808297768885 0.0132692354894184 -0.008417237580985774 -0.0024847069030403306 0.0021960654616344504 0.19108044456333076 0.2357902975007239
34966000.0 0.9539880755860131 -0.29374641776317123 0.012258661069639203 -0.012282928269338392 0.000543197237326838 -0.00029735404772844576 0.1882078741643634 0.2510849799719831
35965000.0 0.9510576476706902 -0.2993363924301442 0.020031734387481518 -0.014499363235307625 -0.0014896902956324871 0.000576299340176087 0.2139408542119519 0.2557807280446679
36964000.0 0.9500923079525593 -0.30915007289563945 0.016604646744778427 -0.015427139459119417 -9.839508365676765e-05 -0.002478667306383852 0.2178113136253263 0.24447475541210742
37963000.0 0.9459416453171717 -0.3186240551490772 0.021599806250071223 -0.02197374804646181 0.0022134474724800246 0.0010613607611212087 0.22879520623955205 0.23043168531215677
38962000.0 0.9428041186058344 -0.32939294925191676 0.02199057174076243 -0.02548182926821347 -0.0013126095445474054 -0.004417729097235711 0.23906173340701667 0.22771694832276426
39961000.0 0.9413624336864599 -0.3339086697824802 0.025293132806660054 -0.028114688226524173 -0.0018073893862381627 0.0003413606065770288 0.2504200594139486 0.22887635603555564
40960000.0 0.9374490495319016 -0.3435958087124092 0.022595536414956173 -0.020579989587227437 0.003444824989911201 0.000943168225349164 0.2661990862829979 0.2234126359588845
41959000.0 0.9352591412387159 -0.3525683685222199 0.02818524109499354 -0.03076096972052551 0.002034076832291721 -0.0006703940413802019 0.26971049835755384 0.20763804980234224
42958000.0 0.9297306264152769 -0.36038894054959114 0.03120902166423235 -0.037681716443010875 0.002260069201028916 -0.004251130132983525 0.27595033643292 0.20083805422418896
43957000.0 0.9284498279418723 -0.3680254373228945 0.03238373326507737 -0.046401398030838696 -0.0033577467081153207 0.0012078070327418726 0.2881764904081005 0.19872773590032666
44956000.0 0.9250026421307294 -0.3768527690387454 0.03351035626522032 -0.05093271454260032 0.0007673432771473852 -0.00041467313174922617 0.3115023915001316 0.19697638671348083
45955000.0 0.9218191475709215 -0.3868554169371546 0.03300044089097072 -0.055772229522689405 0.0004726531466299228 0.0004446509635678671 0.30362260251402007 0.1922428642436784
46954000.0 0.9162410167592828 -0.39357965261928296 0.03473676816138707 -0.06304210322476594 0.0014143898185471177 0.0005756360623790448 0.32079289797166405 0.17113318483257864
47953000.0 0.9159608111575438 -0.4005188253548319 0.032866324028739666 -0.06997480688403428 0.00014304786727182178 0.00022179205708271717 0.34397461947836416 0.16983748922930586
48952000.0 0.9093493873911613 -0.4122966067581925 0.03328005382642089 -0.07901077862488465 0.0026354309069843897 -0.0018092119263677868 0.3344521478589236 0.15700917021802496
49951000.0 0.9048256525450157 -0.4184968780450895 0.03609191621909387 -0.08723176456110417 0.0002829788450264177 0.00037161527893846705 0.3570353549212854 0.15291056448209123
50950000.0 0.9032966627077769 -0.42743918593525393 0.03633565894856536 -0.09357589556800161 -8.514756103943625e-05 -0.00021570601387547236 0.3541092883706208 0.14309456447626687
51949000.0 0.8998999653856912 -0.43426670398366 0.0395811674691554 -0.1004895848534995 -0.001226358437184761 -0.00019488079220321043 0.3582631602826002 0.13585956011383205
52948000.0 0.8956697001527056 -0.44236376355705537 0.04073747503244375 -0.10992806084085638 -0.0015517272579718142 0.0004910351596609709 0.37481728125181774 0.13301393699908204
53947000.0 0.8927593364834997 -0.4489907615926429 0.04311466115225382 -0.11590154212579028 0.003225599750137854 0.0018713334537998868 0.37288519806130843 0.12054755728665273
54946000.0 0.8851794991207877 -0.4586285191767639 0.040098132139080526 -0.12761444516588566 -0.0030715848931528456 -0.0007116908575043133 0.3863802995965535 0.11839448337518754
55945000.0 0.8829701523244672 -0.46795092179854425 0.04359541348730501 -0.13867580275217772 0.0013901434425700008 -0.0005826385648106611 0.3906869939948427 0.09832400282496515
56944000.0 0.8796268759258996 -0.4754000243603718 0.045746273489069886 -0.14836005014583012 -0.0005393774097194733 -0.0018538190874444332 0.40086076333601417 0.09716467677210705
57943000.0 0.8730443086873151 -0.48592048598684123 0.04790140511779655 -0.15797929090229113 9.418698272661671e-05 0.0002036106659530782 0.3978069991397178 0.09432113440524646
58942000.0 0.8697383466484607 -0.4891836905061349 0.04478818920041196 -0.16945372619732532 0.003224615281724334 0.0005438056537871733 0.41117002171755435 0.08965975283032987
59941000.0 0.8654872260992824 -0.4998320959642043 0.047438448037985095 -0.18016652628717517 0.00017356131467447186 0.00046619923722960866 0.42197700860814447 0.080435851721244
60940000.0 0.8589986499662496 -0.5053232753220065 0.04843412002449433 -0.18289809995257708 -0.0010024573713889194 0.0007916137158267398 0.39945305998174924 0.07760498655277938
61939000.0 0.8543690931455706 -0.5121040618679129 0.04815043105993527 -0.19231191367191067 -0.0006616126647854436 0.00016702860781765575 0.41550768716747677 0.06387642064161306
62938000.0 0.8492622162259479 -0.5229621990268428 0.05315982034963428 -0.20693583746310018 -0.001121746317895803 0.0023793777149547332 0.4427811741418969 0.050467456758620015
63937000.0 0.8438959464996609 -0.5309823416333553 0.05331861879235056 -0.2269999368782203 -0.0032266138238586325 -0.0008742883386391317 0.4366068548101187 0.02307132677576837
64936000.0 0.8395071484840123 -0.5350846916865054 0.05425928640250492 -0.2412134325975669 -0.00017551516644566856 -0.00021012857917129994 0.4355028426533801 0.04253452391863912
65935000.0 0.8345298097584932 -0.5481986058687609 0.05349197633063081 -0.256977712392054 0.0009855279104580726 0.0032879529929286007 0.44268752142655 0.015401331134076346
66934000.0 0.8322349188554774 -0.5546959305336726 0.05222552914397777 -0.26935761807107206 0.0049747780668956895 -0.002211771534411634 0.4357272217757261 0.001482655866067266
67933000.0 0.8271034119573978 -0.5615169421918016 0.052078521075584326 -0.28077762148636404 0.002957924437567126 -3.2511596272703096e-05 0.43995197703728717 -0.0037048726013614902
68932000.0 0.8204981522840229 -0.5537641888525335 0.05428395858077552 -0.29310459620340423 0.003354956623022246 -0.0007199555381967462 0.45323340603320783 -0.020156570836761364
69931000.0 0.8129393701304176 -0.5773898725445051 0.05043649551835857 -0.3086119828431595 -0.0033976058695843318 0.0029801047002020083 0.44689016607121057 -0.023154349427394312
70930000.0 0.8088967693234766 -0.5815341839161671 0.048124361538437854 -0.3249205916669606 -0.0021593620032992 0.0028048409429248682 0.4424190448144097 -0.03627267138983999
71929000.0 0.8038333605942145 -0.5923844053558562 0.046970484473710064 -0.34304733350981603 -0.001818933651223522 0.0018731935991366901 0.4442361912241055 -0.045229824102133484
72928000.0 0.7984724422130662 -0.600556140753137 0.04076220906451443 -0.35534247424328663 -0.002035672049150343 0.0012235144742535915 0.46157947035456426 -0.04455767020715866
73927000.0 0.7936131303462406 -0.6081996862470754 0.03571898305148993 -0.377431113238174 0.004791824132277933 0.00047771451339459855 0.4580607896563151 -0.06271057799704184
74926000.0 0.7876362406396261 -0.6154152471462476 0.02797143090182883 -0.39463913371842424 0.0018315475940198541 0.001663625015933604 0.4611471692090222 -0.061393957554025366
75925000.0 0.7804396531840321 -0.6208944843393179 0.01820131662640279 -0.4157580212373028 2.1315205775416467e-05 0.00270994326557656 0.4675977422235942 -0.09495210917824373
76924000.0 0.7739117439797859 -0.6295660872221169 0.0060699089042794765 -0.43569376286445016 0.0002010849302717667 0.003074250101085076 0.4630988228077652 -0.09204966939681052
77923000.0 0.7696585794367165 -0.6353178155824496 -0.007253063800367804 -0.45620041020243257 0.0004021978187720541 -0.007508599743587465 0.4534916574369403 -0.10098591717708372
78922000.0 0.7628687490758363 -0.6474398606878238 -0.019225582863226676 -0.48577139905496614 0.00485819200741985 -0.0025570298504205796 0.4557845631676272 -0.10320167377564779
79921000.0 0.7544868379509105 -0.648445932537044 -0.03758412186446898 -0.5079967525937904 -0.005808454748452849 -0.004586194472378548 0.45638475356367425 -0.12765831676637582
80920000.0 0.7520001462415015 -0.6609709336497032 -0.055331269616042233 -0.5361237998027385 0.00019367447933996417 -0.005586020292797135 0.4693838585890143 -0.1302417603769551
81919000.0 0.7445027889286757 -0.6645249009084788 -0.06660231471565389 -0.5651731989890505 0.0008852706850116407 0.0003589157238350259 0.4698885449062699 -0.14252012581691173
82918000.0 0.7372104728305162 -0.6744630077187381 -0.08511315788490115 -0.5934319507448683 0.0008798810937600596 0.0013633750345567433 0.47571327320420403 -0.15306058090619656
83917000.0 0.7286275831203619 -0.6818158553745872 -0.10598945511156342 -0.6229600830752754 -0.003032738225867278 0.0013147122790798734 0.4781347500831578 -0.15651366620176085
84916000.0 0.7226238945670844 -0.6902680524337623 -0.12272084935421058 -0.6551625769339859 -0.0006872341147468278 0.004152952537954671 0.4708192682209718 -0.17142266240164572
85915000.0 0.7165326634893279 -0.6963230058829664 -0.14248223903062504 -0.6865897528486861 -0.001295232933425457 0.000409331233104787 0.460019509705507 -0.18567625797420878
86914000.0 0.7090221772543632 -0.7042507963605594 -0.15604803102285103 -0.7208290032330076 -0.0023430246180186592 -0.003627808648696691 0.457814476425007 -0.17671537109345273
87913000.0 0.703433642652834 -0.7119724128603334 -0.1770755356932593 -0.7538496337526106 -0.002231667433023417 -0.001793995013589133 0.46442814593049553 -0.18420913651760704
88912000.0 0.6960743563745858 -0.7177455468658136 -0.18600024829799813 -0.7848135960526442 0.004128081881837244 0.0011628806944274522 0.4589487913780809 -0.20486992784105418
89911000.0 0.6888107329712055 -0.7269281655182103 -0.20793605189357248 -0.820874782470453 -0.000982418403347666 -4.511805620406207e-05 0.46729010275279526 -0.2218797348165938
90910000.0 0.6812403016679324 -0.7328558641870748 -0.2232104855986276 -0.8569177365528297 -0.0004945906648563835 0.0014095166318344456 0.4575239685545713 -0.21671135792817992
91909000.0 0.6729046312731801 -0.7369129228532401 -0.24638796375358119 -0.8863631100397646 -0.001404660807188876 -7.107992757273562e-05 0.4654580955457828 -0.22744757800401588
92908000.0 0.6640446795320177 -0.7459011838609856 -0.26248202123772024 -0.9202461280613795 0.0003417621905167109 0.0012072967905934395 0.4591495002042028 -0.23724964058609385
93907000.0 0.6590429171781256 -0.7517547158118439 -0.27874694284547713 -0.9511754070876203 -0.0008230560871189667 0.003664343610214579 0.4453890365899156 -0.2582272764649521
94906000.0 0.6456845510432068 -0.7599721835495905 -0.2941917406565329 -0.9851219162649256 -0.002667302714776465 -0.0034077991526271175 0.44610316919858284 -0.2551095218430323
95905000.0 0.6391342819337285 -0.7659465848745965 -0.31386936090563666 -1.0199317592724952 -0.002982205171548967 0.0029395002803344994 0.4561469056423081 -0.2730344141879321
96904000.0 0.6311288939332207 -0.7750623038779717 -0.33839194407617934 -1.0551450297344644 -0.0017182730435487778 -0.0009743283671994874 0.4451817108334922 -0.2716620640213958
97903000.0 0.6221042427641077 -0.7762669214592982 -0.35265253220073856 -1.088995565917698 -0.0009577988901238395 -0.00043784791058259175 0.44567815145708056 -0.2960663380626031
98902000.0 0.6179807195575566 -0.7846032374494286 -0.3749513082998053 -1.126103350365438 0.0033686801049244096 -0.0015868549450679067 0.4393874041537478 -0.29978259245164846
99901000.0 0.6065241555727885 -0.7902423083021537 -0.404120347580023 -1.153224868682514 2.544498433110819e-05 0.0015039000625760974 0.4514180327469852 -0.3263109371885071
100900000.0 0.6006871839923954 -0.7944672616069755 -0.4297849631188868 -1.1798614564739782 -0.0029218490004234514 -0.0010827092638416272 0.4513648456270318 -0.3164648476104191
101899000.0 0.5920977896102798 -0.8035363983290494 -0.4508807189668703 -1.2219516166415583 0.002846138571122938 0.001090162778059901 0.4409781403603202 -0.3256900791202485
102898000.0 0.5822182829607784 -0.809767172534305 -0.4917176335587168 -1.2590187070843766 0.0021442416641179094 0.00026070151905132884 0.444240011749783 -0.34581344588166707
103897000.0 0.5737370983866806 -0.8164091890466646 -0.5289185924978491 -1.2971475107863 -0.002490208674951273 -0.0007408693190154551 0.4457678604889171 -0.34132956335649184
104896000.0 0.5664883817099431 -0.8267599797641695 -0.5720691768436919 -1.3264842164916177 0.0033511590059321222 0.00109931674541964 0.4235250703805453 -0.34545241514737485
105895000.0 0.5557557750616492 -0.8292734290875512 -0.6174100845738033 -1.3650793367228033 0.0013010015575658923 -0.0010191563728943278 0.42221447038909615 -0.37010177459457705
106894000.0 0.5457804421644015 -0.8362065321299699 -0.6606364933546953 -1.4005146366404073 -0.0012715132131735367 9.064222319707236e-05 0.4183957355723254 -0.3712116408639319
107893000.0 0.5391292173869624 -0.8421216682242071 -0.7142467836539449 -1.4372933897934672 -0.001308701908401725 9.002776530984055e-05 0.42855936951802026 -0.37963047918115966
108892000.0 0.5279160992813366 -0.8451068898101458 -0.7740975332414767 -1.4710152877565417 0.0021382461665414645 -0.0004211533414704559 0.41725109615684325 -0.38577470267101854
109891000.0 0.5155671956018122 -0.8531335891906277 -0.830866236751919 -1.5096904081862959 -0.0004768390140859886 -0.00036722027054004303 0.42559035281151036 -0.3805659798901816
110890000.0 0.4998667287635608 -0.8688990532623551 -0.910276200407776 -1.5171070697453037 -0.00017173522657416547 0.002814363727001092 0.4171608648154056 -0.3901305783855746
111889000.0 0.4979133179569306 -0.8594224018694885 -0.9540770813093661 -1.5738856460747717 0.001738632295493951 -0.0007980225234581004 0.4020526797703447 -0.4160296940381596
