! Created with skrf 1.9.0 (http://scikit-rf.org).
# Hz S RI R 50.0 
!freq ReS11 ImS11 ReS21 ImS21 ReS12 ImS12 ReS22 ImS22
1000000.0 0.9836600421375384 0.001542919611446639 -0.011217851898276643 -0.03555173193204982 -0.013546534854519248 0.011945129464986774 0.33850426653622373 0.34326502983230495
1999000.0 0.9951939300043211 -0.009087257956306749 0.00039040185084497034 -0.022725576717091092 -0.0053668554506602125 0.009364144825247993 0.26042085638343915 -0.04446518715665288
2998000.0 0.9978632115512049 -0.021502591355586236 0.00795325251886166 -0.016448730947207467 -0.004427228988859634 0.001658470341580126 0.17849603071349476 -0.13451890865052069
3997000.0 0.9993107604128304 -0.027283074166422117 0.007446179164355611 -0.009432482312685054 0.0011116189371532007 -0.004690635610560939 0.08727156294977557 -0.22437277970055403
4996000.0 0.9960144280556885 -0.037192288129929196 0.01369637112797352 -0.004970317096294099 -0.0004946517659786962 -0.0021064436121506214 -0.021030274206782967 -0.216401727573043
5995000.0 1.0014665537712464 -0.04764321712261846 0.007825338346968205 0.003649447874359753 0.001523732659814462 -0.0019355642708044454 -0.1320394404041999 -0.12409608449401512
6994000.0 0.9979401827442486 -0.05458685684975461 0.010057129186552953 0.004519950290775853 -0.003262617278028465 -0.0006247540955441023 -0.14724244054957308 -0.028360932569565466
7993000.0 0.9936201351756911 -0.0651744093294379 0.007601796092552225 0.011920587993641828 -0.002595964381629193 0.00029738686289337304 -0.17234831291466307 0.029434916732163193
8992000.0 0.994738752144448 -0.07325743281139924 0.0029247585300252615 0.00860291809946163 0.003443047476081591 -0.0016409006409737873 -0.16745504129123565 0.060710365520152895
9991000.0 0.9931605703273947 -0.08401718025930249 -0.0003051172885654038 0.006245760113414419 -0.005588078755337897 0.0038433160730469798 -0.13430053600635292 0.08423984265569531
10990000.0 0.9944489616988026 -0.08916493756776486 0.004790666229737507 0.0006250306246646006 0.003795097415599203 -0.005234731930472872 -0.16147211558375862 0.11625140414595127
11989000.0 0.9915098479865058 -0.09628996181210263 0.0038373612696420297 -0.00022517966394705437 0.0004920442483854731 0.0011233702073736756 -0.13649487536589672 0.13780660830253502
12988000.0 0.9900497233026275 -0.10866244003054014 0.002806030854087149 -0.0014033221672555972 -0.00015443159124103184 0.003271860408270463 -0.1324870079465691 0.17210605523155117
13987000.0 0.9892420093177549 -0.1170596638170937 0.00025457137141684003 -0.0016509940946747659 0.004374166612397217 0.0009021428607878338 -0.10067050593538528 0.17870662496204096
14986000.0 0.9885697852892303 -0.12392867165513004 -0.0031527318752453577 -0.007346972817842182 -7.435447447428827e-05 -0.0018445616448074763 -0.0946251043762436 0.20952151624125623
15985000.0 0.9902113126871601 -0.13249570332041424 -0.00013648840627791733 -0.00728831844290936 0.0002289799422036212 -0.0011398793375478064 -0.07396241248940208 0.22267383439469834
16984000.0 0.986736281591129 -0.14096830912198732 0.003388819787485383 -0.00847053463662994 0.0029271160910334334 -0.001938794624015951 -0.07099036747712148 0.2201307362615981
17983000.0 0.9873869611623792 -0.1494519127563184 -0.0020476883736257855 -0.0013209194173066671 -0.0008124059782965181 0.0005597819878971432 -0.06445018776560844 0.23331643617556785
18982000.0 0.9848049229369936 -0.1579680603256942 -0.003738122289718692 -0.002703111994740189 -0.0009255229914573198 -0.0016470303031577453 -0.016137205572684065 0.24206653353560656
19981000.0 0.9834685924906408 -0.16451046267480293 -0.0010511088178786847 -0.003055944390900737 0.0016573988739033386 -0.003525430243358099 -0.015027788579898642 0.24446208228197247
20980000.0 0.9824977664533532 -0.17371635142142608 -0.007258050302386525 -0.007581130986793915 0.001190043425199595 0.004416618596012023 -0.005175496990767114 0.25788402410879807
21979000.0 0.980759551888339 -0.18406388982302982 -0.00811863273639836 -0.004420106141800316 -0.0012604284708795088 8.094750047001705e-05 0.008397578463725968 0.2575161445878405
22978000.0 0.9798807191091451 -0.18945608247333923 -0.00331747394427188 -0.0033039788435577457 -0.0017089020468434683 -0.0002568825881978068 0.02618607636576863 0.26468730304768323
23977000.0 0.9797916393834788 -0.1990428381812191 -0.0046812536657092315 -0.004097781753752129 0.005365753480956721 0.0004323520111550692 0.033611804289234964 0.24969344740435656
24976000.0 0.9740169486872405 -0.2071569462557248 -0.0073858377649247305 -0.0027499079222787896 -0.00034015113197143494 -0.0006529076453860466 0.06243627685513478 0.2626374094958846
25975000.0 0.9701868311187354 -0.2207716414052911 -0.011767792862314103 -0.0033612826101458997 0.014591882207891687 -0.018690111756782354 0.069253215139285 0.2576558062898484
26974000.0 0.9726252032911915 -0.22356056092872975 -0.003895963410920797 0.0015765102232356092 0.0016742447187421108 -0.0005084558258228047 0.0875503018419594 0.26166074081478446
27973000.0 0.9702148031132117 -0.23092352714695782 -0.003115298147877012 -0.00599122911099501 -0.0006808660662360707 0.0005622561391761043 0.09654467113849734 0.2547941507722644
28972000.0 0.9680371107845063 -0.24020992071100145 0.0027637969394766608 0.00017639798731403634 0.0003837805460168619 -0.0035756926344583926 0.11447094507571624 0.2528457014059609
29971000.0 0.9653366815558209 -0.24890976664806858 0.0014203779227728584 -0.0030281373475784515 0.0006362457529504934 0.0012359514534873363 0.14603345682560806 0.26368779865697856
30970000.0 0.9638135043058891 -0.25414150252094164 -0.001249693631038958 -0.0008487404278232919 -0.005138654350380986 0.0009709632942138232 0.1617872438394555 0.2516463364641587
31969000.0 0.962721924573511 -0.2634800341496009 0.00741181701870416 -0.006474425748979392 -0.0016035411216552503 -0.0013385220593104255 0.15316285275969346 0.24759997268883624
32968000.0 0.9590931272256285 -0.27314749299520286 0.008837127389228013 -0.004646897394967537 -0.0002704284597050023 -0.0025917882051299215 0.16047084013298987 0.23911299213554332
33967000.0 0.9570350671679779 -0.2845110465707511 0.009393815671646552 -0.013705085574075328 -0.002228845120676217 -0.003097090758847377 0.17491433001024329 0.2602789482037833
34966000.0 0.9534876001541426 -0.2919595393839595 0.014133196842241064 -0.014825094994247666 -0.002709577161217642 -0.0015305420211832621 0.19818420998683944 0.2511484193696873
35965000.0 0.9516768286234889 -0.2993654259916111 0.018225841847487382 -0.01418244672580785 0.001494406614630884 0.001921038746263974 0.20869337506936014 0.2545081292673367
36964000.0 0.9496170916029018 -0.3077223357275941 0.017440406216867637 -0.013917676380798796 0.0017000404787023626 -0.002870875484965073 0.21406421493369857 0.2520447757816442
37963000.0 0.9464214835767357 -0.31601516357512127 0.019902029361352814 -0.02157795742487807 0.002011915312048918 4.225683245957279e-05 0.22590340898453096 0.23981054183285547
38962000.0 0.9439533124072115 -0.3247722396087043 0.025737023739832957 -0.02328820991457426 -0.000759695597741631 0.00011617570857105169 0.23514036811393466 0.2382821142579596
39961000.0 0.9413764796587865 -0.3341153112852366 0.028585314691646904 -0.025432832052870474 -0.0006453176796645695 0.0012776099579141266 0.2509009231012043 0.23524471941355782
40960000.0 0.937126118623446 -0.34062427078931884 0.02159136925805819 -0.024195557584238057 -0.0015005459635104607 -0.0004252089752973983 0.2711073565273654 0.2259683141875072
41959000.0 0.9354628469097752 -0.3501795560558304 0.030910338018116282 -0.030397753256709542 -0.0008709516153444813 -0.0014738437641615336 0.26426209575832293 0.22168049980640825
42958000.0 0.9290399368448393 -0.35931750930247874 0.031572770446198696 -0.04128684360909226 0.0028183003707032486 -0.0012810065454531962 0.27911567056476283 0.20626289310048668
43957000.0 0.9293595857906615 -0.361648879579365 0.03531202999289246 -0.044851384052234815 -0.0021818938587796224 -0.0016322466673330256 0.29072771685670834 0.21582874445561145
44956000.0 0.9257134869669615 -0.3699184428552722 0.03492762746676735 -0.05163122481544206 -0.0009472705363748828 -0.0020700843917377 0.30252438094815437 0.1932581410883794
45955000.0 0.921121325655979 -0.38250741077627737 0.03409583698278115 -0.05682155256734555 0.0016040666599579118 -0.0010952537957987037 0.3050063583608514 0.19496039708733645
46954000.0 0.9179561587288029 -0.39174955507423476 0.03685297267246822 -0.061919718479110604 0.002192997602289322 -0.00014926358907076323 0.32585437698792874 0.1837651763686711
47953000.0 0.9173223277695615 -0.3973225153706157 0.03766146653101954 -0.07007556358519634 0.001583706935847642 -0.0015770572867997133 0.3333528995040684 0.17335318216067022
48952000.0 0.9102032771910662 -0.4085126910337586 0.039621959267443954 -0.07820889709552879 -0.0009197915212654832 -0.0002996995976108875 0.34153721892060795 0.1665657160401765
49951000.0 0.9075173513099766 -0.4126299804186852 0.041127364468784816 -0.08369781752490167 -0.0006730008250365467 -0.0014808316327662397 0.3539712667045788 0.15033083806244132
50950000.0 0.9033366942578299 -0.421381735442266 0.04114608141212813 -0.0939317860737063 -0.0028559126788598064 -0.0036758368216948645 0.3565121778699554 0.14792005285092777
51949000.0 0.8996918249209765 -0.4311508635598018 0.0397125846716262 -0.10191120646591777 0.00044298187678582787 0.001809688386149479 0.3562885257323853 0.14901189478844773
52948000.0 0.8987948663018673 -0.4376869926047707 0.042026827638920836 -0.11150931847203821 0.0015629761097603894 -0.0019397507620099752 0.3682940748861002 0.1456245063641132
53947000.0 0.8921174241569565 -0.4448308729444899 0.04381227542518264 -0.1191102437146274 0.0009820475417587182 3.499858455402161e-05 0.3747030145328569 0.13467467600476957
54946000.0 0.8861856958745036 -0.45632387992238765 0.04546737757478937 -0.13000235303913366 -3.487819264461532e-05 -0.002959257622217749 0.38555046953492206 0.13006283454700324
55945000.0 0.8843113335704568 -0.463832302021798 0.04863009795824263 -0.13946224862959053 0.001471902022573878 -0.0012546856745587422 0.3838596068693917 0.10816469877846488
56944000.0 0.8798158912165001 -0.4715212839437005 0.04986148776894739 -0.14838538629968623 -0.0017310589006334846 0.001398229502598766 0.400705949117111 0.11268709490871275
57943000.0 0.8764403498461781 -0.48144235038736355 0.05200698657534277 -0.1595815145868785 -0.0015727944480686082 -0.001052275054189047 0.40315985942585103 0.09720832473619759
58942000.0 0.870535732641245 -0.48528872714577953 0.051398093455730626 -0.17318128417749412 0.0013555029530335266 0.0018605779677340556 0.42254226661805516 0.09485798656141908
59941000.0 0.8669468578691414 -0.4961066838935177 0.052362315592753415 -0.18222441260888972 3.3303123491212064e-05 -0.004866687444729703 0.4233647924897092 0.09139386808088086
60940000.0 0.8594626848202626 -0.503347515049539 0.0523232532763238 -0.18297127535496294 0.0002622709899022848 0.000304750457013071 0.40181132036209805 0.07873130319940984
61939000.0 0.8570583119865933 -0.5096497171437373 0.05517554743273192 -0.1941031317487133 0.000655780328619383 -0.004314102305036919 0.4248488905892584 0.08235548152664979
62938000.0 0.8507457603552537 -0.5197810656098981 0.05766080151953405 -0.21235765094183653 -0.00012608240683732781 0.003067582634905718 0.4274345149737847 0.06148002582209462
63937000.0 0.8447739740910845 -0.5267552332187653 0.05898160254418872 -0.23225562892270094 -0.0031923830207373728 0.0022057721993233408 0.4326393959279589 0.051473271539516446
64936000.0 0.8397840371773193 -0.5325084264339511 0.060091873794780704 -0.2445074612360984 -0.0008485656082113513 0.006351643970938618 0.4270969116184235 0.0566543249014984
65935000.0 0.836463810922434 -0.5455097139970272 0.06049246423158096 -0.25908956929029564 0.0016214444686224727 -0.000712557557095276 0.44471826165516937 0.021975796387218006
66934000.0 0.8333383409933407 -0.5475173236642533 0.059362843463706266 -0.2716352863769056 -0.00025755358784299514 0.0016693081100759084 0.43632994136779524 0.020069080353787766
67933000.0 0.8293809368951327 -0.5572960503241987 0.05705505276843597 -0.2868367592393817 0.004439892710193713 0.005190024120095081 0.4456915921261949 0.007844495296544561
68932000.0 0.8116739983915943 -0.554599849120068 0.05436581388402914 -0.29492691269603916 0.0024860678449333635 0.0009000304420142581 0.45489406559344425 -0.008956974412559491
69931000.0 0.8155348634928146 -0.5727049180937391 0.05836561585760792 -0.31614964655651945 0.0018999026503410301 0.00016753321711269686 0.4542008074132768 -0.008108285831633725
70930000.0 0.8092978557143352 -0.5810270205232965 0.05153395247408202 -0.33031420501068226 0.00040156508309837583 -0.00012911046013470206 0.44721434775360847 -0.02803400807099321
71929000.0 0.807038767305233 -0.5886209139161214 0.0530967404345504 -0.3504360213305504 0.001243108216990178 0.0007332336993725127 0.4512966651382774 -0.03461455173882131
72928000.0 0.801593204214541 -0.5951918935058383 0.045897039364991114 -0.3627300804452513 -0.004104530708164737 0.0005829841316302574 0.4583264100936902 -0.04750869106427266
73927000.0 0.7949042720471566 -0.6021273197307858 0.0413905686367627 -0.384392683922217 -0.002038597700553728 -0.003896158799163229 0.4545389723890848 -0.04633815370690574
74926000.0 0.7887933830757243 -0.6113070131725576 0.03673267011416766 -0.4023375248669875 -0.0032488963162284434 0.002285085183378784 0.4564916794674094 -0.05348734283243069
75925000.0 0.7832210274130376 -0.6177179424462802 0.026609422949199404 -0.42644104779988196 -0.001621737779449008 0.0029528286268606582 0.4670244938108221 -0.06511368781220538
76924000.0 0.7749435181062544 -0.625622001757532 0.01259381938243998 -0.44654028493896547 -0.002988718963824299 -0.0007184488349200712 0.4738342333611262 -0.07683248380778697
77923000.0 0.7708945971543135 -0.6332582308665942 0.0027315395579637584 -0.46915530110188813 -0.0022667769699046005 0.0027466571071777636 0.4600004689490047 -0.08820929564788368
78922000.0 0.7657930854979879 -0.6417534043668732 -0.013107466913219868 -0.49679645317647836 -0.0033603246113857992 0.0019748918708159375 0.46083950970745957 -0.10567327659152202
79921000.0 0.7555757499721326 -0.6468651366583682 -0.027212380383474052 -0.5193868858595345 -0.0007089397555986134 -0.00018175395451207747 0.46623215493735537 -0.10954646279761764
80920000.0 0.7522850867618887 -0.656215985816147 -0.04253196007039222 -0.5494705936167836 -0.004166139451565658 0.0011752936469700652 0.47317148341402987 -0.11627525074910156
81919000.0 0.7466309506197738 -0.661041919453383 -0.05770166085464485 -0.5776770130026427 -0.0005390909734230849 0.0010906666959171125 0.46363648896955123 -0.11782267152372315
82918000.0 0.738383737733649 -0.6685774500164404 -0.07608286334694801 -0.6053686488041229 -0.003439525358970211 -0.0019419469175806128 0.47602104921109906 -0.1280146439317174
83917000.0 0.731231496861102 -0.6773282661297046 -0.09276896212436396 -0.6376136561950099 -0.0010565084326308231 0.0006368387570209288 0.47189343712069 -0.1367217825747654
84916000.0 0.7249088666818798 -0.6851243253381042 -0.11085096962575387 -0.672816803176786 -0.0029223048666210437 -0.001269205279150289 0.4691397445975861 -0.16404832579429662
85915000.0 0.719475151818951 -0.6915890055206902 -0.12841328434107682 -0.7034375052787118 0.0007722218997067268 0.002281424672334884 0.4670567905848425 -0.16379151655866223
86914000.0 0.7121986685410157 -0.7016134307989013 -0.14671152346400101 -0.740806407383786 0.0009655481282009516 0.005087174376127443 0.46235494344827266 -0.16246554189410312
87913000.0 0.7060268814988427 -0.7070434192219167 -0.16394576141210818 -0.7673139586271086 0.00028819441642314756 -0.002420507094121296 0.45837132319881124 -0.18156808078230852
88912000.0 0.6975016765313263 -0.7142223548230544 -0.17860716112377217 -0.8025575859938692 -0.0016457201201787225 -0.002849298337089139 0.4631594887173836 -0.19740044781117336
89911000.0 0.6914799089015016 -0.7216302345208182 -0.19050463372523838 -0.8402552277863035 0.0018318475944920979 -0.001229034306052323 0.46937841720001205 -0.19389831482457862
90910000.0 0.6834501768239503 -0.7276922811486398 -0.2072904709735234 -0.8747335397437179 -0.0027617715658897423 -0.0017587074404922841 0.46242210131037714 -0.19670298166956013
91909000.0 0.6757572887152136 -0.7321460291562493 -0.23096149128517038 -0.9087835003169513 -0.0018417999027111182 -0.0011668612980441661 0.4585462828309118 -0.21571450415295082
92908000.0 0.6667840800405945 -0.7407292397532433 -0.24399301812296217 -0.9450847550126115 7.959458322180102e-05 -0.0006547181924115045 0.459897461421759 -0.21791119106145435
93907000.0 0.662520958855887 -0.744687962236987 -0.262936635401227 -0.9798180257618667 -0.006211641594093905 0.008698235482494281 0.46499372148397816 -0.24627242543265082
94906000.0 0.6489678125956547 -0.754125726282303 -0.2847082229804104 -1.013328485366585 -0.00215409517517748 0.004989164150484237 0.45687784284276667 -0.2468122692338049
95905000.0 0.6440554545798242 -0.7614737674417787 -0.30239547323874916 -1.0486939826706898 0.0032533362910448674 -0.0015379076242318425 0.46733495272738645 -0.26994035368075564
96904000.0 0.6348184013697082 -0.7704802515129171 -0.3226034309954204 -1.0882813965192932 -0.0005469868752416678 0.005250673947600761 0.4499267086330415 -0.25866655049240156
97903000.0 0.6256020058708261 -0.7777495064481872 -0.35008055296955276 -1.1180926327601537 1.3342285037712455e-05 0.0005672071137813881 0.4478258220748087 -0.2785272144836512
98902000.0 0.6208264856766982 -0.7818678824093751 -0.3674153490454845 -1.160135524658557 -0.0013711203532063077 0.0038314994379254987 0.4563219849029053 -0.2776993640905083
99901000.0 0.6113742322023952 -0.7876734629025736 -0.39106520794563515 -1.1908232304836168 -0.0013905694104599893 0.0039098170569980585 0.45615249956849063 -0.3018829676470969
100900000.0 0.6011867586550871 -0.7923455014517278 -0.4265203610477412 -1.2193769364067473 -0.001327422817893665 -0.0003979861587747007 0.45412244924260897 -0.29893404890359015
101899000.0 0.5943661562307532 -0.7970792620539565 -0.4480479720266649 -1.2640937011388012 -0.0005205729082614656 -0.0016097761357882032 0.4465683505817481 -0.32487470516908046
102898000.0 0.5865941912978717 -0.8034555652726515 -0.47991912383131685 -1.3033961077880283 0.0038686295555914905 -0.0022770851008480095 0.45726614144916355 -0.3234565420921233
103897000.0 0.5775452377235488 -0.8109509612398579 -0.5228896962822873 -1.3354579106070015 -0.0003351097029110032 0.0005378344297829018 0.45964318837222495 -0.32627442426279035
104896000.0 0.569416312212395 -0.8204131607205215 -0.5628182744204994 -1.3676600753576642 0.0020448948275800373 -0.0012419447985463803 0.44138276121710235 -0.3384751578792252
105895000.0 0.5583681388139276 -0.8247444909530893 -0.60133718978268 -1.4146779957574336 -0.0014713419825471143 8.332493263320014e-05 0.43603481960802387 -0.34221729603630224
106894000.0 0.5508813480435869 -0.8305880624796388 -0.6605156511711245 -1.447352346673741 -0.0005295191290766067 -0.0039528259180057436 0.4336211448130854 -0.36351956296187043
107893000.0 0.5411221109457109 -0.838000213958599 -0.714247315413463 -1.4933935027676601 0.0018278468062211922 -0.002788838605492793 0.4367542754325725 -0.36496498883642053
108892000.0 0.5339781024671423 -0.8392045825176302 -0.7667888346210742 -1.5357985656411635 -0.0005435188997411411 0.0002509391297589505 0.4299602720025667 -0.3585254727860754
109891000.0 0.5202972356298113 -0.8489246897699327 -0.8241709386962025 -1.5719182144544355 -0.000909419666393167 -0.0008301737361048837 0.44803549132049375 -0.3536943291349237
110890000.0 0.5137836945339905 -0.851924686183 -0.8809461982183071 -1.5831762355608776 0.0019031024931483915 -8.129530671186519e-05 0.4226704611713245 -0.3777621163552797
111889000.0 0.5017493135797536 -0.8554801620769742 -0.9479237399246843 -1.6428123607056284 0.0006813983374517728 -0.0010175938833925644 0.42127776435025865 -0.3924325575191843
