! Created with skrf 1.9.0 (http://scikit-rf.org).
# Hz S RI R 50.0 
!freq ReS11 ImS11 ReS21 ImS21 ReS12 ImS12 ReS22 ImS22
1000000.0 0.9873950845594236 0.01492363819210386 -0.006689844087426371 -0.06211859890401929 -0.019990068280270935 -0.005105756985698184 0.2597299320494144 0.3315633532925594
1999000.0 0.9989559923054667 -0.01611816296263831 0.007158077237437773 -0.02368448179299001 -0.00597267819543028 -0.0018255223860395924 0.27056830505272705 -0.03420825391604224
2998000.0 1.000317965052769 -0.023638600144203204 0.009893684843772793 -0.016974745276704464 0.009560431255897941 -0.004832507480537379 0.18528163650107735 -0.12138792752363245
3997000.0 0.9976202730848592 -0.031588783941944636 0.012924453524329162 -0.005533371404483485 0.0012460093822504559 -0.006588567786844409 0.10227121798056803 -0.22948454304761168
4996000.0 0.9940576335900334 -0.04010266688167915 0.019497085875485983 0.002488657331981435 -0.0021750570019758403 0.00233101865943966 -0.042310287244420056 -0.2018001761843995
5995000.0 0.9945167737686617 -0.051354127787477784 0.01173706480219394 -0.003247748211838491 -0.001291796354851456 -0.004379318373045341 -0.11446626526948618 -0.11230450158054939
6994000.0 0.9957150361687788 -0.062164031220373464 0.005128858483591389 0.0032993889336955465 -0.0012306092858457276 -0.0008343623705436796 -0.14038965625112396 -0.023298759351760557
7993000.0 0.9933017016411507 -0.06907836975518666 0.004063769744368344 0.006940033460175566 0.0020406301859191714 0.0007688896769442853 -0.17027200649194674 0.034247974931321874
8992000.0 0.993383653560469 -0.07415638714004545 0.0016746714679096197 0.005334210690511713 0.000798577573914355 -0.002631319311854999 -0.16471701676863978 0.056307552409331746
9991000.0 0.99278545644407 -0.08107851175638106 0.005170597539591351 0.00358580041850796 0.0010762987528343951 -0.0013341276768162502 -0.14640560399987346 0.09138614391975534
10990000.0 0.9920209623447589 -0.0919322867363716 0.004659226760884671 0.0016741777928153663 -0.0003624699947792873 0.0015105394940645226 -0.1297781294790014 0.10046611364500745
11989000.0 0.9882302594656122 -0.10045961199173035 0.002979926450554335 -0.0002649234821823859 -0.0005297140361630944 0.0018110007691858675 -0.12120133378060333 0.13393106063868374
12988000.0 0.9891662521947064 -0.1097203868206747 -0.00013484143538704428 -0.004812146623809769 -0.001985462950972026 0.0005706082474110023 -0.11619591701335968 0.16624463466357173
13987000.0 0.9858383694661969 -0.12102910249287281 0.0012761785750920217 -0.007417738006655135 -0.002514031014944822 0.0017968183116541052 -0.09984615711800972 0.18773832320121994
14986000.0 0.9862725539825399 -0.12656186100385017 -0.0037194828444459026 -0.0010996872865831522 -0.0019352190135708484 0.003888464670086881 -0.08498789998574108 0.19795281477479343
15985000.0 0.9873413548005393 -0.13491352961669753 0.0012036212725825338 -0.005467851778412323 0.001689252302550009 -0.002986120300344494 -0.07288071736136173 0.20751491834095523
16984000.0 0.9838931471886634 -0.14620820772168433 0.0020995417288793314 -0.00869106494157617 0.0025772107248425566 0.0012420188642112097 -0.07025371509614516 0.22147813149067258
17983000.0 0.986142177830508 -0.15019694812379786 -0.004886763830242574 -0.007786481911950539 0.0023732321217375396 -0.0020092336969235645 -0.05103594512535906 0.2314086447848726
18982000.0 0.9796951288158472 -0.16253591809966364 -0.006411880842630058 -0.005371555131171387 -0.0037216715192623117 6.088508714581543e-05 -0.02286182756024574 0.24375248924410103
19981000.0 0.980599148198099 -0.16740877332195755 -0.0022895086946911197 -0.0034869160847565235 -0.003761640101563605 -0.003278080972048822 -0.017868496009484168 0.24333967044055735
20980000.0 0.979364966498914 -0.1765104467151478 -0.003834707017698787 -0.007162274344285595 -0.0026567639107283637 -0.0043016515787254695 -0.002340746662747229 0.2593655209623919
21979000.0 0.9782919540041882 -0.18440418979152126 -0.005963648973213932 -0.0025689255035489865 -0.0014167968814638983 0.0030729390866683598 0.009133380608045374 0.2442824580498538
22978000.0 0.9736746098709408 -0.1948062637844876 -0.004339501790133591 -0.004420332585895246 -0.0014011949688550115 -0.0022987581126024123 0.029242152041882234 0.25242194426317105
23977000.0 0.9762779956488123 -0.20211166302056285 -0.00426700275839447 -0.0035899868756241976 0.0013730544232615507 0.0014765486007788198 0.04170956396587593 0.24744760378113687
24976000.0 0.9720287172829218 -0.21379504294140583 -0.008359328607966454 -0.0020298410650180483 0.0005408914664231712 -0.004491993211870048 0.06919687875098318 0.2568019163631022
25975000.0 0.9722645300076221 -0.22657966945438376 0.0005918150177207116 0.0007314232927834838 0.028461094808338094 -0.0001047271842765019 0.07395889342349204 0.2569457653369919
26974000.0 0.9701471619432895 -0.22926405056044158 -0.008175395183037636 -0.0014624810453694953 -0.0034916390171964434 0.001081005854605542 0.08473314395325394 0.2677847333718768
27973000.0 0.9687921091330127 -0.2345953461976789 -0.000512793308223083 -0.001484308870400843 0.002037644500503176 0.000349509711071326 0.10756205164689418 0.260292011468871
28972000.0 0.9627319768978991 -0.24609930307146938 -0.0008809377176529258 -0.004183602272936142 -0.0007726636469297303 -0.001206474726149806 0.11166578447109508 0.25663312298192326
29971000.0 0.9632658438710165 -0.2569089849722242 -0.00026551061161838105 0.0007950231742383572 0.00020330011096529263 -0.0001852182812238028 0.1545231682485017 0.2804472207019446
30970000.0 0.9601464228361151 -0.25947855331609204 0.0008889931241478834 -0.0009814359147324832 -0.002076409796384932 -0.00258636463505761 0.17600129217735924 0.2559051254056859
31969000.0 0.9591796253879916 -0.2690434701875369 0.004370720685674896 -0.00657351394819495 -0.000780624442002353 -0.002053746918846993 0.14527893181849313 0.25575766337233696
32968000.0 0.9573137548509477 -0.2782709934275935 0.006821430838171563 -0.00968253402669167 -0.0034202189168732987 -0.002182452977743631 0.1712176699322406 0.2462434672676096
33967000.0 0.9549893829999401 -0.2877646309440999 0.012637585522496577 -0.008865398283353374 0.00037549156840093834 -0.0002999628946349922 0.18838787077101593 0.2448306767775701
34966000.0 0.9500119973297312 -0.29879425994248127 0.014166706080463436 -0.011064358063157587 -0.002033619659455272 0.0009588693630922954 0.2015843991400706 0.25017612698524355
35965000.0 0.9479961425380846 -0.3055465801116282 0.015919510420699837 -0.012850553232652252 -0.002326701211646216 -0.00024466979693666844 0.20220279309524922 0.2574608698064229
36964000.0 0.9474762798811899 -0.31428348030480596 0.015383450993116091 -0.017228071508802012 -0.0017570497819762707 -0.004055676962438841 0.22192325997150877 0.2518438155695274
37963000.0 0.9429750495975897 -0.32324851702741525 0.021593304690128393 -0.020928249372780306 -0.0022712868947421727 -0.000948740670716956 0.22156817279868557 0.24410812609712898
38962000.0 0.938808785381475 -0.3345864524014077 0.021987919897133636 -0.022720820530016842 0.0008865151464670975 0.0020744500723838648 0.23390746276735197 0.23089845785916338
39961000.0 0.9376450965335397 -0.34166704025499617 0.0281017320106124 -0.02620924226401294 -0.00080880630164615 0.0017438480532266786 0.2546095282758374 0.22634700575920058
40960000.0 0.9335674755340763 -0.3484591950242265 0.021171502548545506 -0.023460438418685427 -0.0032466817576108334 0.0041767827974766684 0.26174347368307627 0.2255180700993088
41959000.0 0.9286254347247469 -0.35959681268926025 0.03012270762743369 -0.03269799646388367 0.0008527328665636193 -0.0006742884607304152 0.2708264815428353 0.2205238140431284
42958000.0 0.9253797996215095 -0.3668108633920957 0.032189337046727176 -0.04194009020999118 0.0017507393232520162 -0.002014445260343173 0.27810377218584775 0.20232384249267824
43957000.0 0.9249158730017826 -0.3713910390374954 0.03578634310158697 -0.04488090704503975 -0.0012025548928561926 -0.004424126743761714 0.28746220534591305 0.21227969367714872
44956000.0 0.9202872834771282 -0.38072934901355826 0.033000942678934025 -0.05266162972641191 -0.000502306537482019 0.0010083359856649097 0.2956699546045378 0.18162046682340227
45955000.0 0.9165201922354599 -0.3915106939339918 0.03812738313330088 -0.05821749687341842 -0.0004251464439284525 -0.0013058218860545227 0.30582546204120675 0.20375361543119272
46954000.0 0.9102481384325273 -0.4022357026633996 0.03670598939885994 -0.06659645973736729 -0.0029903749557095394 -0.0030522953164405916 0.32454521941718373 0.18379068676473267
47953000.0 0.9110549697161758 -0.4075983830775805 0.038074008924716 -0.07236921652913376 0.000877232921902409 -0.00035437795696059 0.33636870822128423 0.17369535652556906
48952000.0 0.9027300289874834 -0.4184957176175848 0.037037716106545944 -0.0805748516246906 -0.0032382688483002992 -0.00038698207418930153 0.3365710746244223 0.16782813450420508
49951000.0 0.90027803397119 -0.42524200568848886 0.039638856678735505 -0.08668670985435234 -0.001550088724034294 -0.00041390450749144344 0.3466556546155671 0.15170910510926056
50950000.0 0.8976019659465503 -0.43473233271737216 0.040463977980727074 -0.09512923432060849 0.0005754272295497398 -0.0026307005086844666 0.34781266737936833 0.14366433756311572
51949000.0 0.8929810367765149 -0.44275836558504506 0.040846902432018294 -0.10510712314372028 0.00014979354432902422 -3.226706869532247e-05 0.35060610449649043 0.14221678474004404
52948000.0 0.8908215816525823 -0.4489687223660371 0.04029903185746202 -0.11488585177031706 -0.0005349643952064359 0.002128793682079457 0.3738882886924848 0.1359111884894145
53947000.0 0.8835441191568213 -0.4573806290480575 0.043562739754905086 -0.12056228127837668 0.0011908627076695232 0.0014958275000754638 0.3663175541198777 0.11918634402325815
54946000.0 0.8798742602220626 -0.4664093474284989 0.04753576441771795 -0.1319539381336655 -0.0014928425620234034 0.00151500885248615 0.38284954886097083 0.12263635016156972
55945000.0 0.8760666022819845 -0.4747679990038281 0.04709886561446936 -0.14399390084677252 -0.0009366469698505113 -0.0019242896632965254 0.38447429314166176 0.10132696660667152
56944000.0 0.8727224629947101 -0.48325165203488646 0.04925599713750612 -0.1550307079670024 0.003048815409400328 0.0011337023188439323 0.38822473832863913 0.11019863337478221
57943000.0 0.8660523236540213 -0.4939010721829528 0.050291668233047176 -0.1630220778478397 -0.0015228559795155009 -0.002962702550468724 0.39543955253069146 0.0919007187598471
58942000.0 0.8602131095206043 -0.5005244509061397 0.0512341222807774 -0.17353854353004217 0.002399028358087583 -0.002033578412230911 0.41640303980787 0.08311178273298785
59941000.0 0.8562785008528374 -0.5073890274939115 0.054791184689656 -0.18410255597507064 -0.0018212246348923238 -0.0008434667395370858 0.42199382605753355 0.08911043354251028
60940000.0 0.8502268963128049 -0.5157319725228354 0.05269524182085663 -0.18788690339853772 -0.0001508528367663818 -7.379842893975023e-05 0.4054671533606168 0.07703853959446605
61939000.0 0.8476113237782809 -0.5212649354865819 0.054599789058363546 -0.195530166541693 -0.0013771845844408569 -0.00024822880155708066 0.4036471216974561 0.05487605744693245
62938000.0 0.8417574191624231 -0.5312648122424605 0.059089418497490775 -0.21479063260828762 -0.0011718494228547904 -0.00118037908324186 0.44072875906247494 0.05194338976126752
63937000.0 0.8370005718214455 -0.5389222440951692 0.05697896246539051 -0.2345823777060153 -0.004118473329017117 -0.0015703342440941258 0.4322145296195668 0.03991008475932621
64936000.0 0.8287676667286233 -0.547908921331998 0.05521261452836681 -0.25343039653502886 0.0009128787587500077 -0.0023279319981013287 0.4321832419979893 0.03249941039652571
65935000.0 0.8272716297262759 -0.556426353550972 0.05805310590711213 -0.2657921237688349 -0.0007465277663327803 0.001291864408012772 0.4370410372356737 0.012045636031627375
66934000.0 0.8210637191848897 -0.5634675666125573 0.05861049605520932 -0.27786076351901917 0.000862055554836579 0.0005770615975581791 0.4346332411128251 0.005174387632445937
67933000.0 0.818691069906803 -0.5701977262449003 0.05643455756439629 -0.29129207852483874 0.0008596871018434661 -1.1184157286244736e-06 0.44079995845622755 0.008998915342863364
68932000.0 0.8010695296071074 -0.572383951001465 0.05086109633626212 -0.3010174155179622 -0.0016493251821180796 -0.0005982277047581165 0.44600695955037967 -0.0223951601663402
69931000.0 0.8021261938001524 -0.5871916613488992 0.04962649842482849 -0.32131650431675696 -0.00017663513643533058 -0.002769324143758811 0.4496545851548797 -0.02783078435892549
70930000.0 0.7979553124906352 -0.5905875920242253 0.051022427046379534 -0.33466528900587655 -0.00018308421321410062 0.0008569688474925876 0.4390036795327372 -0.035731568451548935
71929000.0 0.7932462468728902 -0.6025407504452073 0.044036916281736255 -0.35687919988062533 -0.0028941752718018264 -0.003396085670855614 0.4442322556451774 -0.04258161000018409
72928000.0 0.7874544617471041 -0.6129680495316038 0.04165044547720392 -0.37045609956990916 0.0018863206462830977 -0.002155612112465069 0.46332105335983753 -0.05343792580827409
73927000.0 0.7815978337111389 -0.6166815818281385 0.03331255929527923 -0.3924567176430344 -0.0018404369246252017 -0.0014148099633788734 0.4524074787928147 -0.05080298563882811
74926000.0 0.7755506353766535 -0.6274706215806992 0.021145096878329096 -0.410548804489084 0.0018179161670393673 0.0023519906717750596 0.45561803010545365 -0.0663566072570467
75925000.0 0.7706056703660983 -0.6310303702498133 0.01700942416595941 -0.43222703159185044 -0.0002696448847962365 -0.0026796818685851913 0.4697487045117453 -0.08039775249680219
76924000.0 0.7634028123027483 -0.638661431881756 0.007797657419887136 -0.4538919169028813 -0.0027020641184818542 -0.0027327918159663904 0.468789380531719 -0.096329796146816
77923000.0 0.7556433167725833 -0.6466901410698397 -0.012740304734977396 -0.48072125786649994 -0.00022371775409269035 -0.001429633785799609 0.442158982285517 -0.08909423981512982
78922000.0 0.7506342894015872 -0.6573813687294264 -0.021657870444314577 -0.5074657029040556 -0.0010998605735080952 -0.0003483044309845113 0.4596530007928703 -0.09791714876930184
79921000.0 0.7396975563721735 -0.6603917859596948 -0.04331154556809987 -0.5366122818222319 0.0025096131970961445 0.003487910728639836 0.4583689074249009 -0.1297704037564137
80920000.0 0.7389334330092221 -0.6706882600725955 -0.06069981553841726 -0.5646807888954627 0.00016766381280437496 0.0006683836595832513 0.47268973857618796 -0.12566364711313738
81919000.0 0.7309376442718871 -0.6758187972728077 -0.07095869959687992 -0.591567779386707 0.0006145667041727061 -0.0026188792123766026 0.46299827156481577 -0.14270089234827202
82918000.0 0.7224844945911201 -0.6828735403428762 -0.09010797088756625 -0.6227465837855118 0.00014735435538337446 0.0008847517125581335 0.4756698902536976 -0.1486311552940207
83917000.0 0.7139263615313214 -0.692118912991582 -0.11152051119592625 -0.6489577285521756 -0.0015961446362714271 0.001267306658469825 0.4683980595639584 -0.15451625255201631
84916000.0 0.7088044683569875 -0.6986219129294244 -0.12380320562480945 -0.6869869019835976 0.0029918066810036884 0.003991231084064377 0.46380819114233024 -0.16680291019727334
85915000.0 0.7014534878878698 -0.7045781906097734 -0.14465282956232367 -0.7142706386409939 -0.0026920166396588157 0.0013362208132640565 0.4597347031979045 -0.1764373074395964
86914000.0 0.6952342065396666 -0.7137498554803078 -0.15740409285218415 -0.7515026539430057 -0.0008651648949425061 0.0008683127541336258 0.46238157587352124 -0.18066877578242221
87913000.0 0.6883383101038011 -0.7209001877093966 -0.17922838429860402 -0.7797502018657718 0.002429264282717819 0.003247054344834943 0.4621482326399893 -0.1892026587676143
88912000.0 0.6809848598255782 -0.7277148528684416 -0.1956448121488472 -0.8173568588714737 0.0009397964653254394 -0.0028021426351545363 0.45134819585037655 -0.20233924343688278
89911000.0 0.6719026980802318 -0.7370355785133477 -0.2114676681602121 -0.8519466949316034 0.0010149139303462324 0.0003174604252582723 0.4573319859210782 -0.21640099238100258
90910000.0 0.6659883595520716 -0.7402823984711109 -0.226393296496272 -0.8901058438419283 -0.0016739128708007601 -0.00256381973638311 0.4616790946474418 -0.22216950099083926
91909000.0 0.6565911472087234 -0.7456646867065199 -0.24955862218894068 -0.9202380765938549 0.00011367742059597874 0.004211939343588728 0.4570531487169567 -0.2230654015595324
92908000.0 0.6495450665396272 -0.7544383946910652 -0.26895714820659844 -0.9530738081290315 -4.807186697077141e-06 -0.00029047766297610466 0.46054416634996853 -0.24718865024311384
93907000.0 0.6434850874610184 -0.7600429194751342 -0.2857412430969909 -0.9855633229505786 0.001379060748501512 0.0012653179497827613 0.46171259982641605 -0.2576105710321915
94906000.0 0.6305842632300442 -0.7679963971638293 -0.30577853164222574 -1.0215365029364953 0.0010754241364787638 0.0017281775637876177 0.45818643070040616 -0.25243975270947705
95905000.0 0.6242554738238704 -0.7737723442065729 -0.3257072753792578 -1.054384741566863 -0.004398829771348098 -0.002563399295233116 0.45404319943442506 -0.2796411739664796
96904000.0 0.6139638127505339 -0.7841485695535173 -0.34702415666237985 -1.0932967859743137 -0.00042525570290406035 -0.0034428086365025537 0.45077620029416793 -0.2815417300656374
97903000.0 0.6058247327110655 -0.7893666149265283 -0.37282976118938377 -1.1251361570261027 0.0004361116484123501 -0.0013382108885818642 0.4405196769517093 -0.28447395143204535
98902000.0 0.6003568947685555 -0.795993862682909 -0.39519688900024197 -1.1652281018858628 0.0009463422515379211 0.00328738125287502 0.44952031478877 -0.30824744999627335
99901000.0 0.5905104401121409 -0.8011563058533371 -0.420573344894678 -1.1973339286987161 -0.0008489344438767746 3.5491701517840715e-05 0.4538289185504928 -0.320555419845446
100900000.0 0.5828996377857955 -0.8041727836822061 -0.45512128903413573 -1.224511453279187 0.0009110972097126389 0.0022769347214300732 0.45487228072075603 -0.3122969768856205
101899000.0 0.5742325932090766 -0.8126376117540828 -0.47931525777622574 -1.2663708876940083 0.0018659494200145993 -0.0018339956609401181 0.4394126743461891 -0.320674054148336
102898000.0 0.5618511145653389 -0.8202809815920923 -0.5234848668133503 -1.302818037310817 -0.0005652414363682375 0.0006390942471853206 0.45442738764749857 -0.3328212933540612
103897000.0 0.5538364324940351 -0.8278186967587046 -0.5619804959239435 -1.3395758637651243 0.00022135623959881635 -0.0014622751115989465 0.45682581302132025 -0.34081471239283345
104896000.0 0.5475070009468802 -0.8356551357995431 -0.6083568975120797 -1.371925046491417 0.00011631694319546385 -0.003324415067026779 0.43435446656353 -0.33255772581810716
105895000.0 0.5366919998835686 -0.8379283135722145 -0.6547628472252233 -1.4159997086488114 -0.00012310530658076347 0.00047024016761538595 0.42962217178806855 -0.3495557804315404
106894000.0 0.5264398507438461 -0.8446033823036687 -0.7159716819385902 -1.4515266086083392 -0.0007773564670683135 -0.0001928466661907331 0.42276071274849414 -0.37201438246038987
107893000.0 0.5189106603392774 -0.850387700813138 -0.7629153623719257 -1.4938887955845017 0.00036583863848961134 -0.0017520565620447496 0.4310549659639087 -0.3922826796110854
108892000.0 0.5083747225365489 -0.8540407271412102 -0.8264219041486345 -1.5313122538343855 0.0034248316608785673 0.0017020011727210277 0.4215698960007977 -0.3757029183795045
109891000.0 0.496274628951371 -0.8619307774555791 -0.8845119049213241 -1.5675735562175228 0.001731305510875472 -0.0012453907731359748 0.4481195516950999 -0.3841464376583266
110890000.0 0.4898149648654022 -0.8656688831498478 -0.9470332724295963 -1.5815607589059895 -0.0013014617947677814 0.0020969061750969746 0.4270375117679053 -0.3922787529398912
111889000.0 0.4748838142782166 -0.8684636284552004 -1.016388379874066 -1.6344573975656174 0.0012155803042578413 -0.004338194844412756 0.4171342324980225 -0.41185823893942647
