! Created with skrf 1.9.0 (http://scikit-rf.org).
# Hz S RI R 50.0 
!freq ReS11 ImS11 ReS21 ImS21 ReS12 ImS12 ReS22 ImS22
1000000.0 1.0024423106076814 0.013343291643835131 -0.005151398340402211 -0.05826163524032433 0.0009206116145267366 0.015046063729175928 0.33294671241578955 0.3352125352258139
1999000.0 0.9936386106013393 -0.012056520430040154 0.005860247848552226 -0.017970336725716605 -0.004666338462041331 0.0034462507856616795 0.25823573083664586 -0.03895390833823199
2998000.0 0.999498049274224 -0.023183635666366463 0.010739177363201891 -0.014777030640886285 -0.00043120948917223684 -0.006889380464762331 0.19612975674835564 -0.1442740560975217
3997000.0 1.001143596631004 -0.03181558217646436 0.015938621804866996 -0.008142177227364829 -0.005644047752291995 -0.001077755919792453 0.09998986538723352 -0.23323968451430582
4996000.0 0.9940258255409019 -0.03869975496070533 0.015758471426795952 -0.0013312668131353416 0.0006975823847461763 -0.00465156649999931 -0.05335601732016481 -0.20550534008142046
5995000.0 0.9982456245854764 -0.045240933329917965 0.008660296033735188 0.0010546690815092618 -0.0001957111555149464 0.001022850974715283 -0.12396718369230333 -0.11440623755896669
6994000.0 0.994557297764866 -0.05861999145929497 0.007487116717052024 0.003467675252851704 -0.00021761659280686242 -0.0025930054122263475 -0.14262445476106675 -0.036668633027676784
7993000.0 0.9935890795553787 -0.06794818501612232 0.0035123570481907303 0.005417564376583345 -0.0025555859376655754 0.0018873457398701386 -0.1699045350888748 0.027437317299497735
8992000.0 0.996817120886257 -0.07369505132662271 0.004750259097201977 0.0035996371005352547 -0.004016042249639265 0.002444230695252064 -0.1500548936118083 0.05347763131963584
9991000.0 0.9922605277486695 -0.08430626544505453 -0.0007742987301013935 0.0071100294052643944 -0.0009004623113787314 -0.004039412741314073 -0.15537777358783217 0.07596213293541962
10990000.0 0.9934927035231575 -0.09333482119363315 0.007143774192002039 0.0032312878143064927 0.0013338290933908419 -0.003923820312313519 -0.13676641074662912 0.12417387789903452
11989000.0 0.9923741167288881 -0.09970099220448807 0.0003454931278711155 0.005197281013956993 -0.0027336066946066196 -0.0007993852638358255 -0.1168120817653334 0.12606045832714183
12988000.0 0.9903327008893978 -0.11182553703922271 0.0009778941026012589 -0.00360363948365797 -0.0012245192847236469 -0.0008808528675323074 -0.13410531145668322 0.16695361045543755
13987000.0 0.9872492431500929 -0.11906711563050855 -0.0015911668835760443 -0.007370400847302058 0.0019508841790506642 0.002355007370780358 -0.10747989059893825 0.17817653079696064
14986000.0 0.9874744259871584 -0.1260185409466882 -0.004013805783946121 -0.004147324669948166 0.0007658693355394507 0.002985087271467345 -0.09817341146027578 0.2006841533779172
15985000.0 0.9882843672367148 -0.13476940277943783 -0.002763529230908364 -0.005736937031170467 0.000424927428144944 -0.0009860348358101368 -0.08287302269698278 0.22653765388134792
16984000.0 0.9865785824437598 -0.14665752107635444 0.0018737454324980422 -0.005729644993740251 0.0018645421516136692 -0.0029190427174085455 -0.059266566078274775 0.21168312943354622
17983000.0 0.9850811233867839 -0.15132100037678844 -0.002036380493112771 -0.005954499745576432 0.002108463474807286 0.0004835303268457776 -0.04370303328391008 0.2179113040936276
18982000.0 0.9834445377012486 -0.16325459605958245 -0.0012815178248782712 -0.008292762506313518 4.584551824803435e-05 -7.18611359049462e-05 -0.018233146995175538 0.22880256893038226
19981000.0 0.981773768022457 -0.16587633791769898 -0.005051035539412719 -0.00599292123566543 -0.00547392622098356 -0.0023013876449283024 -0.010504716640350626 0.24096127331248487
20980000.0 0.9803280058355551 -0.17871212794459085 -0.008413992870812974 -0.003627534498417407 0.0028198852709846673 -0.00046438661665118173 -0.005830628728914939 0.24926458166494825
21979000.0 0.9786182709318711 -0.1854826656895865 -0.0059812066794497085 -0.004313029240128821 0.005270210823692209 0.00047449420574595554 0.008666715487163612 0.24261500840894934
22978000.0 0.9762906214969398 -0.19734648054150614 -0.004992173031159175 -0.00485660944654468 0.00047124297919938995 -0.0028911759667955674 0.035821699326001356 0.2527655975419866
23977000.0 0.9762512480155169 -0.20372947066182093 -0.007082553656933866 -0.002684136334401201 0.001665725750470442 0.0031180190265647327 0.03392299107897989 0.24678225824905942
24976000.0 0.9736865191638825 -0.21493381329730893 -0.0037751164674290827 7.39334560382745e-05 0.00012452083323481457 -0.0012593849879418393 0.05412806381086407 0.25069338453373086
25975000.0 0.9675766993048118 -0.22757767411458826 -0.003270885654613804 -0.0012556201733572249 0.008876890872655788 -0.02459885934554406 0.0704283055464248 0.26215052284645446
26974000.0 0.9687042072239603 -0.23143904910709986 -0.003328548899247583 -0.0013687367665543681 0.00047769131301842935 0.0008068836942786297 0.07870360284037674 0.262287373004562
27973000.0 0.9686807983283542 -0.23612287194370293 -0.0006586272911844472 -0.0004472163044557271 -0.0010261661353945556 0.0006509133083025747 0.08903406623852209 0.2665385994653016
28972000.0 0.9664782006495443 -0.24627561983927496 -0.004518928970498111 -0.0012598488814508206 -0.0013035757607495816 -0.0014122927657487135 0.10137345228034367 0.2487580730725435
29971000.0 0.963352810360889 -0.2553559734366459 -0.00030051998745914935 -0.001428809479518719 -0.0005978858680709609 -0.0022011744427148506 0.1401142716265929 0.26866862476952785
30970000.0 0.9604470363699302 -0.2618637695543579 -0.0007310689574888165 -0.003974310521682623 -0.002896736844911591 -0.001051852269359458 0.162202730659782 0.257875486044157
31969000.0 0.9603698839207567 -0.2699171180715153 0.004984296684846976 -0.0023305031752013225 0.0036705792661202528 0.00029732058315748287 0.14601607164344405 0.24539644371061411
32968000.0 0.9570366815149239 -0.27994555198627835 0.007659076912348337 -0.006869995911711494 0.0012568486713503168 0.0019280152789137703 0.15658358243085316 0.2445322898946481
33967000.0 0.9557353390964746 -0.2879143590377993 0.011886946489587632 -0.011106702739953038 0.00018425852896751554 -0.0009301151963986651 0.174787331042745 0.2520847920302886
34966000.0 0.951645260685312 -0.2999047106668796 0.014202821570813762 -0.010579224255474846 -0.001336085339632872 0.0018268676170478562 0.19262024738184788 0.25132669217485787
35965000.0 0.9489252937208305 -0.3072159542696893 0.017526240645747586 -0.012949405060748749 -0.0008725550666230233 -0.0016472897021469817 0.20237763539552317 0.24859692394862148
36964000.0 0.9468886885757062 -0.3151189756415495 0.01661033544867722 -0.014128597491698066 -4.640927372765679e-05 0.00012590750099430705 0.21280555650688343 0.24347830610918017
37963000.0 0.9419812846947261 -0.3257277782717855 0.02286463273950166 -0.01895625529548779 -0.0013417707200635539 -0.0014224155346382198 0.21938973646114326 0.23488024784027733
38962000.0 0.9394966482228876 -0.33506067461873185 0.025561039328572517 -0.02383921812419965 -0.001622262208485323 0.0019126403187009109 0.23965402419013462 0.23227957111092307
39961000.0 0.9361108683482191 -0.3410438092581993 0.02607236803949203 -0.027054628313530286 -0.0006441012708393649 -0.0008607268232320375 0.24319681399627294 0.22872258858727146
40960000.0 0.9336080229609621 -0.34986417933238545 0.022655456087225922 -0.02320490197306978 -0.0043045707527087015 0.002223290566688222 0.26029222247826683 0.22607453298265248
41959000.0 0.9299775508374324 -0.35998514246897867 0.032753991684448355 -0.03201797335302608 -0.0011449543748680438 -0.003717992107962378 0.2698552104685817 0.2170050874978683
42958000.0 0.9260947475366466 -0.36798703832748647 0.031136950682390818 -0.03955964398288187 0.0018413803022492867 -0.0009080050957000881 0.2673821728925936 0.20315452449855792
43957000.0 0.9241038277928831 -0.37543359869428505 0.03114578709276315 -0.046517491946280465 0.002283609356359196 -0.0006522813447989593 0.27281758437198605 0.2074080330229142
44956000.0 0.9210934071747952 -0.3835692901369021 0.032582154814626355 -0.05011630258344805 -0.0026420491318354072 -0.0021749083254858745 0.2990708157638155 0.19323884198412575
45955000.0 0.9166411656747873 -0.393078159859292 0.03310290250467398 -0.0593941257072284 -0.001675555708089789 -0.001159359233192079 0.3031426451515618 0.19775286834965064
46954000.0 0.9143110968596297 -0.40088303610447373 0.036295250312569534 -0.061737509211482786 -0.0009937539907251217 -0.002185235136185096 0.3160684393862061 0.1812152081089448
47953000.0 0.9110550287875409 -0.40758434753303907 0.03534214561073807 -0.07303540825359565 0.002286049547998572 -0.0030387493806655927 0.3290170119515193 0.1774210046513485
48952000.0 0.9041389339967969 -0.4196149122721161 0.037191820085682614 -0.08015816641543277 0.0003780950009543948 -0.0011175176382385629 0.32070596119958833 0.16929836306369933
49951000.0 0.9016637125876655 -0.42282633502139816 0.03695574926866566 -0.08341249880036875 0.0006567768802715861 0.002021819476348401 0.35022176080677797 0.16123404771449484
50950000.0 0.8974558547112083 -0.4336409682013158 0.03755678696859723 -0.0934626663895023 0.0016548830106310536 0.004780605473036308 0.3430959911238742 0.1478067336210582
51949000.0 0.893911813375746 -0.4421431421115626 0.03994892080607168 -0.10053741538069405 0.00012976807542162914 0.002816341142489199 0.35151307207281174 0.14531002168788718
52948000.0 0.8916107467451019 -0.45041427363000125 0.039588509142224296 -0.11161688879849689 -0.0005673109390798547 0.0013004531530725484 0.3668037065878856 0.14008600733616608
53947000.0 0.8832915706055531 -0.45892106152929524 0.04143666382048068 -0.11788839831140495 0.0009373829782170698 0.0012927464567535649 0.3603769669224317 0.13161648455945243
54946000.0 0.8802699750620443 -0.46537489744642224 0.04304059472603387 -0.1294565569186795 -0.0037507650997203 -0.0005479351697200771 0.3770286513003161 0.12721621179576392
55945000.0 0.8766061445105753 -0.4750607022384659 0.045284003159597824 -0.14280260857369356 -0.001943770470180976 -0.00031007163276963517 0.3792991658185882 0.10861266284519103
56944000.0 0.8729604129223428 -0.4833169194229111 0.04495399924377304 -0.1501986796421355 0.001507229770888475 -0.0006298469871551945 0.39094819073433085 0.11017981227141056
57943000.0 0.8670490615150792 -0.4945735568566322 0.04621302504933114 -0.16063115935907293 0.0012206798098891856 0.0032552671747997737 0.4022469429960108 0.10139764183749068
58942000.0 0.8611956879326048 -0.4993013467959879 0.044950503759838265 -0.16961226788468683 -0.0003097204365568521 0.00226768793227001 0.4188333755354371 0.09632493619842944
59941000.0 0.8588043903776752 -0.5090602965052661 0.04866789113698487 -0.17992856898924806 0.0014456619734010989 0.0011312119235413146 0.41698151478832884 0.09608832655047504
60940000.0 0.8513536036310596 -0.5150816505879514 0.04879127527315068 -0.18620593894787466 -0.0010226914348530403 0.0007790155788790299 0.40010453598229767 0.08171773797279436
61939000.0 0.8482166497859802 -0.5212424538406746 0.050892762316782726 -0.18926705479614633 -0.0011734478600484981 0.00047299319624239864 0.41269956458958024 0.07026845559325233
62938000.0 0.8413065991667555 -0.5330262895575305 0.05319965965189725 -0.2106859638347137 0.00295957435480183 -0.0036778838141109534 0.4358058579758814 0.05958930279056731
63937000.0 0.8361302280399692 -0.5407593523396789 0.05177854615349328 -0.23018188486169056 0.00011175016488356521 -0.0024027711106197245 0.4290790757733292 0.0415514715474153
64936000.0 0.8301721381366958 -0.5478612866397359 0.05232239241198007 -0.24123737250454536 -0.0004843355542944991 -0.003740149040234926 0.431493978787403 0.05834233662021277
65935000.0 0.8271401308197436 -0.5583807805865969 0.050295769554518366 -0.254888038951083 0.00018101648508308992 -0.0016264006859956295 0.4378769897505548 0.03194680097279009
66934000.0 0.8227145837164495 -0.5621483940315665 0.051808129649430795 -0.26876177241607063 -0.0011885065826275597 0.0013577060731804066 0.43180422406782126 0.0182217302521014
67933000.0 0.8176823183893698 -0.570817266700461 0.05367868406139702 -0.28014950082282264 0.0024996468897692916 0.0005022364455539916 0.445814951126494 0.01272453153447171
68932000.0 0.8150760038442096 -0.570508347779727 0.05136387407416559 -0.29527090064490485 0.0008989664399117032 0.004158935481215413 0.4517416641241377 -0.0038701954427106744
69931000.0 0.8015009744470808 -0.5887451740654694 0.05108441846318365 -0.3123010445502357 -0.000961880525138425 0.0010005245109738327 0.4462195042587309 -0.004983838453686573
70930000.0 0.7996208571582615 -0.5942646541613317 0.04959412555657191 -0.3257969172080653 0.001045668783056065 8.527349124401256e-05 0.44959417167552884 -0.018971376703735665
71929000.0 0.7955139608874948 -0.6015478712239694 0.044404787662234886 -0.343541754862654 0.0026893021358400057 -0.004285229648428003 0.4468691939149689 -0.022696316987474707
72928000.0 0.7892584822055967 -0.6110895045666533 0.03547226585633116 -0.3579176131379536 0.003367473631213187 0.00010894443346896639 0.46295618656377135 -0.046269094384595026
73927000.0 0.7824480631144057 -0.6165138917514472 0.03268590094719445 -0.37806618619943894 -0.0010944665534384668 -0.0003578777593390282 0.4509510859631066 -0.047393284107084474
74926000.0 0.7776550237096377 -0.6270581343154418 0.02375350605565378 -0.3957509524890926 -0.0019420012319643046 -3.499402306285772e-05 0.4619370568179499 -0.03735513496602743
75925000.0 0.7700581828892445 -0.6307719685031308 0.016111355312499392 -0.4147088624998921 0.00020766838780065277 0.00015626267508678357 0.4661088673449549 -0.06567276359224773
76924000.0 0.7634201348358821 -0.6403483334585665 2.4367648343436168e-05 -0.43801301366564177 0.0011098943806453928 -0.002206740687143775 0.46531547150553004 -0.07715957337612911
77923000.0 0.7564944451630146 -0.6487125320960762 -0.00790450917223921 -0.4644306954724203 -0.003224615447029713 0.002165196441290574 0.4616542240974226 -0.08794517249972683
78922000.0 0.7504115260719338 -0.6555175657626509 -0.02762126392651091 -0.48809071967370166 -0.0025532844456143205 0.0050544789264852985 0.4593247336093635 -0.09842344281057874
79921000.0 0.7420825336075836 -0.6587795578162315 -0.04215299030737842 -0.5150793777053262 -0.004732891172327885 -0.000106641610179956 0.45450358160669513 -0.10525816904965732
80920000.0 0.7390575970186035 -0.6696294511669029 -0.058478876364966945 -0.5417882007676902 0.0008752104541382544 -0.0009696897659499714 0.4653867893318995 -0.11038064513920083
81919000.0 0.7312379625881689 -0.6764163697863201 -0.07752441871090687 -0.5672738463886167 0.004583327526163567 0.002201965314079983 0.4619646169768901 -0.12981495616990843
82918000.0 0.7228814593550363 -0.6849233676468724 -0.09284785258698429 -0.5998029821224514 0.004546941231512847 0.0013650547319680741 0.47724717252943555 -0.12132246302173047
83917000.0 0.7141515518283243 -0.6926109194246047 -0.10887231921041904 -0.6272928353789358 -0.0023532579235245434 0.00213892579494216 0.47755545129020127 -0.15022681007400843
84916000.0 0.7085980060739301 -0.7002246878124553 -0.1270618627156068 -0.6620805884273003 -0.00011724673631248228 -0.002106584407526333 0.46678058360726343 -0.15642077308421187
85915000.0 0.703152925311061 -0.7068810005117535 -0.14797899088840422 -0.6895326953790151 -0.00024602792428855033 -0.002240083565600013 0.46557821287186857 -0.1595865384455627
86914000.0 0.6942895806771859 -0.7167284536371481 -0.16098556879344755 -0.72824940509296 -0.003673369143210639 0.0012983121767155754 0.46815232646847244 -0.15919947939034473
87913000.0 0.6872185475463118 -0.7230085180475659 -0.17644580410500393 -0.7596991860195313 0.00034397131923295104 0.00467064075007928 0.4548245860795468 -0.1709734488818919
88912000.0 0.6816526875751766 -0.7281553867455343 -0.19559007003976284 -0.7901977394398447 -0.0019060618766840846 0.001716696317218496 0.4615682758780117 -0.18665804054205565
89911000.0 0.6710951397521823 -0.7393612901349373 -0.21113932568212376 -0.8245057373824018 -0.00010840110702214215 0.0013535355763482776 0.47417086611349357 -0.19461385204856144
90910000.0 0.6655066729500311 -0.7421758057219194 -0.2250703920002266 -0.8586059941328528 0.0014101663770571926 0.0014460035987567225 0.46845982213643417 -0.19704107408583738
91909000.0 0.6568029416205484 -0.7474895944102462 -0.24690129305092717 -0.8916016539322817 -0.001355027261888274 0.00034588319808219513 0.4664737855138169 -0.21285028044710094
92908000.0 0.6483130282074265 -0.756462189776539 -0.2596947792113456 -0.9262268517913798 0.00022316173241879495 0.003616082739053939 0.45678587621254063 -0.21708021828057372
93907000.0 0.6412183716135905 -0.7606521626671519 -0.2805876950088637 -0.9536582077634591 0.0014406424986402161 0.0006027756769617327 0.4720544365196372 -0.23247020190580947
94906000.0 0.6305616416062236 -0.7697831241329368 -0.295592217474043 -0.9883654255698031 0.0038106231575853076 -0.0006937741510567977 0.45515402726481957 -0.24258550213402266
95905000.0 0.6211631494926605 -0.7769748712135797 -0.3201444854948201 -1.022370499709502 0.0016144437626171614 -0.0016256175527615783 0.4619459560241184 -0.2586146786977941
96904000.0 0.6150843939431753 -0.7847869501537069 -0.33125250031025405 -1.0595735266432456 -0.0002727756760079882 0.0011066045397586188 0.45543152776653334 -0.2686938449429785
97903000.0 0.6051996462489042 -0.7908074781798674 -0.3545098762841314 -1.0886282173272057 0.0009091222814513127 0.000725780674218982 0.44928631425976095 -0.27149658404458654
98902000.0 0.60097722130581 -0.7971493366061014 -0.3725086165935829 -1.1291941610633376 0.0015724370889499773 0.000674567103922598 0.4510637533805102 -0.28937462555705584
99901000.0 0.5898044690946771 -0.8037681477173291 -0.40205233121224027 -1.1629558836528595 0.004242945151503516 0.001031967601352776 0.45210846223772894 -0.30222980220030593
100900000.0 0.57849905516037 -0.8071163085346245 -0.435242119460418 -1.187050792405954 0.00030085891382992193 -0.0020937175360361006 0.4618115783420444 -0.3040512477169429
101899000.0 0.5704140589900883 -0.8150880952611516 -0.4611477272223556 -1.2244415243602513 0.0010354143493987564 0.0013718490613253158 0.4573615431410232 -0.310298400772002
102898000.0 0.5614057178970232 -0.8186237408709377 -0.4952128017964726 -1.2629794316163219 -0.0012839644228382896 0.002237120230695154 0.46049786046020674 -0.3238574088261251
103897000.0 0.552162801216281 -0.8282537408324756 -0.5314621061260836 -1.296188159456808 -8.634607458995004e-05 0.0005307460174272783 0.45892219249373073 -0.32413479026748604
104896000.0 0.5455893157960904 -0.8379179286894117 -0.5779157213719179 -1.3267128861890862 -0.0027652804192958846 -0.0020590136152922297 0.44395423451124855 -0.32047091476845657
105895000.0 0.5315880743951982 -0.8389985498120991 -0.6204858127157418 -1.361383898618786 0.0008829128520994362 -0.0004079127563617484 0.4389947442239551 -0.3471438080158484
106894000.0 0.5220048417708419 -0.847103178377226 -0.6808505547730828 -1.4014250247748488 0.0011356228386735494 0.0018047310849772134 0.4429985656078601 -0.3586620157172745
107893000.0 0.5163276048781735 -0.8539537481326308 -0.7330699862809925 -1.4429136248639367 -0.0006490279096357895 -0.0012180771632876127 0.43277115990188153 -0.3660612284047303
108892000.0 0.5052299738225998 -0.8561272087553433 -0.78916821415483 -1.4769385413728888 -0.0020801276346244873 -0.0008824195796108206 0.4346665681851247 -0.3598971061986555
109891000.0 0.49341680408244787 -0.8644633662533441 -0.8478601008289268 -1.5087703211298804 -0.001847962641290325 -0.0013371734800672968 0.4455619195404498 -0.3705050241406042
110890000.0 0.48763961882555773 -0.8784536600195054 -0.9214619137280254 -1.5293936561097292 -0.003591041723902902 -0.0015774209234343487 0.4289119545775966 -0.37039647177102775
111889000.0 0.47232955611052085 -0.8699450150397083 -0.9684974568582905 -1.5731478184388852 -0.0022918310498280547 -0.0017257036279570252 0.41965781500610483 -0.3910230096072377
