! Created with skrf 1.9.0 (http://scikit-rf.org).
# Hz S RI R 50.0 
!freq ReS11 ImS11 ReS21 ImS21 ReS12 ImS12 ReS22 ImS22
1000000.0 0.9966816609852813 0.010230207943010617 0.00091713157889835 -0.048801882089497456 -0.011921914650843501 -0.004711210704437138 0.285807249753386 0.36379358112864724
1999000.0 0.9936322672646773 -0.014078846084350062 -0.0007659213615662206 -0.0253639191097791 0.0004007567633600562 0.0032199055042651755 0.26661742181895454 -0.04270629831890902
2998000.0 1.0004523626916384 -0.022302824596191376 0.005847328826170896 -0.011394199327496904 -0.00037349135040795145 -0.011093047134794408 0.20118553364243044 -0.1303205128558451
3997000.0 0.9948699173619502 -0.03206927369985952 0.010407971687430479 -0.01262420992591796 -0.0015856298595485713 -0.007795066730940024 0.10014732896452627 -0.22342106205584322
4996000.0 0.998283282246894 -0.03903630077720428 0.01726900929108595 -0.004830595059905887 -0.0038356657072202687 -0.003868939996814946 -0.045085551186501524 -0.21413564152064776
5995000.0 0.9952607594931001 -0.04932271540890178 0.009264427944449783 -0.0011540279383957614 0.001703920077304964 0.0025602138278388088 -0.11818970310564357 -0.10867232170060517
6994000.0 0.9933479486499851 -0.05961207399534575 0.00980798049980599 0.0024597944835139064 -0.005361347188346149 -0.006400539703065112 -0.12815125659166232 -0.023646066168983033
7993000.0 0.9954931996988708 -0.06928947310193671 0.004019458174664033 0.004288597023809357 -0.004263978434722516 -0.0011355423614825319 -0.16254638795029153 0.036858713646481495
8992000.0 0.9936924422865043 -0.0754888074801309 0.005829627084695655 0.002837907129696607 0.002558937522597132 -0.0002654078504876101 -0.15036158079245215 0.054436707032616174
9991000.0 0.9926819166728703 -0.08332967917924856 0.00114143912291579 0.005387406946674553 0.00204211159939581 0.0026862012274796324 -0.15994223133471258 0.07655545888879045
10990000.0 0.9916747067830328 -0.09269870182362772 0.0024685445365458937 -0.0007987917424118881 -0.0077115870005873685 -0.0007387059148916631 -0.14095875664568291 0.11192327542965827
11989000.0 0.9891096426127625 -0.09749444314653656 0.004550528904651828 -0.00037090853812393683 0.005311497290063615 -0.0017019153709121 -0.13146474674191191 0.1307293380733069
12988000.0 0.9883753927971268 -0.11105597935332082 0.002297677682229826 -0.005428879372972195 -0.0053111903240655785 -0.001216528447078889 -0.11303076471205444 0.17152558371743906
13987000.0 0.9857696486234205 -0.11838694136119136 -0.0014933200324174338 -0.005629361054443105 0.0029660661631268647 -7.65702948530283e-05 -0.09775715826248997 0.19824014842075377
14986000.0 0.9857664116650297 -0.1257973056072795 0.0028998131397086576 -0.004877843227879819 0.001968389504945443 0.0007071155773603304 -0.07999475645216379 0.20330490328892464
15985000.0 0.98707210169626 -0.1362018738121034 -0.0021794522266915194 -0.005992662509066348 0.0011638939723764374 0.0010449816714018466 -0.06374898371001389 0.2163547579933947
16984000.0 0.9845461840360105 -0.1436349631013641 -0.004669696793855494 -0.004764915171212991 -0.0025199799541541427 0.006488464820985106 -0.06342632943968973 0.2213653436011336
17983000.0 0.9845323175106939 -0.14803676879080538 -0.002524060870044816 -0.005686481661195136 -0.0010921870180074325 0.002917015841608686 -0.055717710228662384 0.22689011772757933
18982000.0 0.9816573858351482 -0.15924364390236417 -0.007755801256472208 -0.005174429227093953 -0.000755468318223594 0.0024316592888777434 -0.02566981564866797 0.23566188547273276
19981000.0 0.9818640187728965 -0.168280754645732 -0.00547714311040204 -0.00454017684557281 0.0021306626488653635 0.0012725438346988416 -0.01719920245618536 0.24933352335662998
20980000.0 0.9814012293803456 -0.17533116961552087 -0.006253449791888328 -0.007650510194368205 -0.00020786621582867852 0.0012974323520006986 0.0033237914613712728 0.25442445091094473
21979000.0 0.9779939565025132 -0.18740077009062814 -0.008296209759618551 -0.002761608637806943 0.002036923439603037 0.0005505748181961581 0.010083359607864226 0.2403572933526846
22978000.0 0.975278499395387 -0.19567915518287077 -0.008977369588819815 -0.0050289239059199495 -0.006851219566331335 -0.001132292958852825 0.027097952658589233 0.24977953289385593
23977000.0 0.9762107874685695 -0.20133147838824272 -0.0015755052585448611 -0.001192897869432874 -0.003948944688445422 -0.0022730719783585138 0.04218034446826325 0.2522137376943386
24976000.0 0.9738743295267216 -0.21174830591737553 -0.00868031639001043 9.050030512678875e-06 0.0014570790179960235 -0.004336998445897316 0.06623967288609979 0.2631877478455874
25975000.0 0.9723233673778149 -0.22462023735199574 -0.009947046199614496 0.002378670647680086 0.0210348715261544 0.004592147597342535 0.08443347747526114 0.254922416888893
26974000.0 0.9683201060307906 -0.22715048871071908 -0.003251379141013807 -0.0017588102076063585 0.0017262377953164184 0.001469705787639523 0.09116491878135113 0.2624946416930251
27973000.0 0.9676275263476817 -0.23473102204707968 -0.0019065057567568993 -0.00044481995128006915 0.0018752413045117393 0.00014523898418975127 0.0974164600882257 0.26288018764615784
28972000.0 0.9658417052977878 -0.24477117985469848 -0.0006393380342876088 0.0016255437205652933 -0.00040869102686850306 0.00486164152570849 0.11316405937133608 0.2543540042216767
29971000.0 0.9629583112025571 -0.25532848863947605 0.00444561843010745 -0.0020083656958803514 0.0014786722548122955 -0.001354184654117865 0.15829981833236356 0.2712897155753249
30970000.0 0.9607070887803373 -0.25966644077972234 0.000891486619253917 -3.965012342454665e-05 -0.0037785091351297782 0.0003778973069787807 0.1605817785133285 0.2574886538597309
31969000.0 0.9605202774770972 -0.2682677428024478 0.005342132620004696 -0.0039125998803713315 0.0010607203407588996 -0.003578325944282511 0.15482071398721262 0.2507001384791993
32968000.0 0.9579219645637767 -0.2762447905884827 0.007381290266790807 -0.008466584020570475 -0.0018791530333384353 0.00020473611905073735 0.16263781650658785 0.23905859536935598
33967000.0 0.9559401641299514 -0.28599045501065523 0.013085845018995648 -0.007739211406366077 0.0026419779046958068 -0.00035373025865502764 0.1903092466347231 0.24345814051562156
34966000.0 0.9519375949880785 -0.29792103966204386 0.01446412744822246 -0.01326551935438555 -0.002256221267603103 9.281288833155597e-05 0.19447736419579503 0.24846010271360694
35965000.0 0.9482615990768336 -0.30278573154170707 0.018460479258638564 -0.014522485460532414 -8.383993013077959e-05 -0.0009175833593939387 0.20566002728321905 0.2547911745486205
36964000.0 0.9464172048425082 -0.313322949169214 0.014430762733690273 -0.01435029609359807 0.002378825861037678 -0.001082610126388235 0.2089144091816008 0.2460326667910232
37963000.0 0.9427676506767145 -0.321777453912651 0.01841393712564081 -0.018910370191589247 -0.0024774574490850233 5.17519767557586e-05 0.235109122778632 0.23877462568552413
38962000.0 0.9413850501077383 -0.32993315549918756 0.02508351264420849 -0.025908167160720436 -0.0009303191139413693 -0.0019769461924481774 0.24118633313775217 0.2333353444242111
39961000.0 0.9382422176740546 -0.33977371002929596 0.026365461852618205 -0.026662915514776966 0.0018874451109549856 0.0010010930717910909 0.2499717589913351 0.2199319935952427
40960000.0 0.9340314424333865 -0.34739787522494614 0.021954818976984022 -0.023427486742880935 -0.0019479756371813808 -0.001311776901857855 0.2695225935408784 0.22732987120261705
41959000.0 0.9323253275803048 -0.3570663507042877 0.030413123618409112 -0.03315788280004267 -0.0019604605748601766 -0.001159877542941024 0.25806391131549705 0.2213717888023388
42958000.0 0.9269989847099985 -0.3641517912514393 0.026239698750947248 -0.04019574416364918 0.00013242720803554865 -0.0012912914069556569 0.2786680646485446 0.20337318467544968
43957000.0 0.924299605383915 -0.3726583165221718 0.03383450490345705 -0.04620365602663864 0.0038071176086108337 0.0007330494654157559 0.2857962900562853 0.21661583888317962
44956000.0 0.9218680784027669 -0.3809944987883551 0.03397720378962027 -0.05025242050059493 -0.002113859356004287 0.0003878390738813497 0.30347666868902823 0.19193107709646653
45955000.0 0.916927547288087 -0.3906627653632389 0.035738738627365596 -0.06005764410509995 0.0028696404975455093 0.0022725975924801915 0.3056870328449261 0.1904848512702915
46954000.0 0.9132200117373991 -0.3993182938713737 0.034623250276218646 -0.06776293902008919 0.00028771436478779204 0.0004079155001366795 0.3219532185441095 0.1816785268574381
47953000.0 0.9114674702135589 -0.40624969062203004 0.035837117210314934 -0.0736756151620341 0.002726976880625283 -0.0005363768189027181 0.3381026528094663 0.17223402420021863
48952000.0 0.9045772873705077 -0.4178517754879282 0.036985794126489405 -0.08028310173525274 0.0027318430414043737 0.003113904391408076 0.32785342707418896 0.17132566880566807
49951000.0 0.9021437718769705 -0.4221230917642303 0.035152389493765666 -0.0873352727643224 0.0022674484452523506 -0.00039164277532810157 0.35301183503982164 0.1448278584624441
50950000.0 0.8981119190654151 -0.4322146121577071 0.03958958830048491 -0.09652217281784589 -0.00036201504073765786 -0.00045099746272535935 0.3520075298285294 0.14592386561840048
51949000.0 0.894897785366427 -0.44048214836275057 0.03608884214411021 -0.10218875292446568 0.0014484101489331146 0.0005276519949669036 0.36472960522823994 0.14785374953328786
52948000.0 0.8904961139279698 -0.4490420146591899 0.03964192316718729 -0.11142730509155653 -0.0007399333877188161 -0.0013317571664364927 0.373560510705877 0.14260517904748188
53947000.0 0.8852792322384399 -0.4554071568303671 0.038155487279032105 -0.12224019722149346 0.0005969226634123575 0.001499859212961569 0.3652722816164172 0.13010275008906155
54946000.0 0.8804713675719481 -0.4645780749712406 0.0407634940337473 -0.13141656688732456 0.0018257990412449902 -0.0013135715256463484 0.38584856887311114 0.1262883572764015
55945000.0 0.8767930089448841 -0.47386241943245117 0.04487173708236363 -0.14300540907064052 0.0018564835293767175 0.001610054367763079 0.38482698372265634 0.10298908591769518
56944000.0 0.8739589707717056 -0.48101012007717775 0.044561984873052116 -0.1511261855952961 -0.0019590445397402495 0.0006858053840980793 0.3979297573643475 0.10480017198226127
57943000.0 0.8692332239125395 -0.49072100904751675 0.04447913061870477 -0.16165132816541966 -0.0017626225895376834 0.0014074254381854375 0.4028928333212901 0.1014552207199962
58942000.0 0.8638761270933462 -0.4955909150279096 0.04670357130228652 -0.16989671858624064 0.00024176967185004445 0.0009820945226807457 0.420016009068299 0.09211116378799354
59941000.0 0.8597825201618727 -0.5073854663272283 0.04697176517035117 -0.18368369839651366 0.0017161309673660804 0.0011285500062678487 0.4207816914529328 0.09003680106694618
60940000.0 0.8523812412194761 -0.5118985637234639 0.04712241709636372 -0.18262655974530737 0.00021875921389019005 0.0003811355538048715 0.41507102633638676 0.06691871719704845
61939000.0 0.8493320661623832 -0.5191309777438997 0.04911066143852818 -0.1907841202099385 -0.00148799772721725 0.00036288714877396634 0.4216061272128263 0.06594955556220317
62938000.0 0.8439841311856607 -0.5289690695378941 0.05273712499736632 -0.20864897517903644 0.0006301536676054479 0.0009856523795316494 0.4500668815931131 0.057363535911768196
63937000.0 0.8384273023591892 -0.5368966715902536 0.05177517037042539 -0.2293659471838691 -0.0012292930264365006 -0.0030027132796779966 0.44257191205896257 0.03954781439882542
64936000.0 0.8318666231520785 -0.5434804617707594 0.05079507073664608 -0.24040249663948815 0.0005285483747913222 -0.0013807694008973592 0.4366358110134295 0.04438780290355297
65935000.0 0.8282865762755797 -0.5533397197045213 0.04921414652474837 -0.25390480195957416 0.003935381124693646 -0.0044395630985272615 0.44641954607424805 0.02126152123022241
66934000.0 0.8248006125708094 -0.5572819777301411 0.05541752610984825 -0.2663594324148373 0.0009790894902461248 0.0010150945133585265 0.4357117335085685 0.016919098573202358
67933000.0 0.8223448911104883 -0.5676725314778575 0.05449322117980325 -0.2808944725825146 0.0032160600101630477 0.0012174316616710191 0.4483044411588143 0.008523014800127104
68932000.0 0.8075393662784724 -0.5725164932432628 0.04734821247862661 -0.2937426921381515 -0.003116725978407458 0.0007888993205853805 0.4490388683436791 -0.010511452023293556
69931000.0 0.8056417796808676 -0.5846098532779312 0.04767135318996966 -0.30726485205979415 0.0004561847488971736 -0.001737915584914763 0.44160974322793684 -0.018986361697694163
70930000.0 0.8010156638371276 -0.5926896965972714 0.04523033670135577 -0.32310899946618943 -0.0023197378426882864 -0.001586094917462349 0.452550173176138 -0.03547002608537889
71929000.0 0.79685625276286 -0.601025356610462 0.04286268940439466 -0.34052436581694473 -0.002126715849542478 0.0032087238161307707 0.45375851231269015 -0.03929568744104369
72928000.0 0.7899576855485975 -0.6084053144308514 0.03424641399193339 -0.35353958600388374 -0.00012890040337249075 0.0005798327655409784 0.4677090998110901 -0.05566984111841685
73927000.0 0.7824505640018796 -0.6140394061997492 0.02791819208517243 -0.3755491784650691 0.0025925439820813634 -0.0014455232711629753 0.45394699970531466 -0.05637109291598929
74926000.0 0.7777554508220346 -0.6246393436268753 0.02423425182951847 -0.3937785177744794 0.0009982378449217128 0.0014117753751805044 0.4614762566624423 -0.057792797001267285
75925000.0 0.7748178306057345 -0.6289218280719977 0.016817055915322374 -0.4132059303959115 0.0015630818501668534 -0.0023134581360765892 0.4680426572298246 -0.08004016240766229
76924000.0 0.7651094174523158 -0.6369833815656244 -0.0018107359625586126 -0.43372177478890067 -0.00045896067208215074 0.00114148958156345 0.4583770630730247 -0.08446447183016247
77923000.0 0.7598083274915338 -0.642897386963517 -0.012964109697207746 -0.46012932392165445 0.0023348624854816497 0.0017052491591818641 0.46675264819491163 -0.09266512977942153
78922000.0 0.7537094641197497 -0.6530118423875019 -0.030364356163318864 -0.48331473161044564 0.0011906306183169376 -0.004182415214072155 0.46588656126679145 -0.09525597650543616
79921000.0 0.7435491606978624 -0.6566958702249501 -0.045444579415164305 -0.5092878824894509 0.0007204886588829813 -0.0036725140821554383 0.46024236900363513 -0.11706407436067527
80920000.0 0.7408520461774433 -0.6666818276807127 -0.06605486132679486 -0.5370476609399745 -0.000952376604042024 -0.001150980305727853 0.4678224204818975 -0.1291690685669704
81919000.0 0.7342777735634065 -0.672227199673419 -0.07959786483916356 -0.5634150478510902 -2.0906572399979994e-05 -0.0028559361665099385 0.4661013342216267 -0.13049735666602383
82918000.0 0.7238515684919947 -0.6814990415434778 -0.09155763698755777 -0.5905118735929488 0.0014948272142259228 -0.0005176113744630878 0.47268999319660926 -0.14852563501560762
83917000.0 0.7189382625566826 -0.6879993906755868 -0.11539623071735214 -0.6190686668708307 -0.00348924076534674 0.0006694713800025319 0.4720722239753407 -0.15024110040523464
84916000.0 0.7116418556479001 -0.6969548138437764 -0.132489268492283 -0.6557564875793298 -0.0013639237457771076 0.003796085991722835 0.46926094608031954 -0.1736376182075861
85915000.0 0.7052529946287124 -0.7038784724334403 -0.15057196789499974 -0.6841000532738081 -0.004092014363937871 0.0009441564627889499 0.46893138959209874 -0.1670511439865746
86914000.0 0.6987154694950172 -0.7132185991996828 -0.16543711692786056 -0.7205223665783023 0.00040395052882550854 0.0003100470739784396 0.46294403898708136 -0.1754005369641942
87913000.0 0.6900336919233029 -0.71742489743575 -0.1817352042895986 -0.7494608011035787 0.00013479368726948348 0.0030770718447240223 0.4647510405622236 -0.18434027746624002
88912000.0 0.684990985891145 -0.7242267711683109 -0.19628343171604315 -0.7805844374792348 -0.004884827546744544 -0.0035212635788258854 0.4621897665576269 -0.20244833788995734
89911000.0 0.6751666907629709 -0.7344868775173448 -0.2121758230870528 -0.8207292454746156 0.0026104786684715193 -0.00017581126789590097 0.47694462398750154 -0.20240401252549506
90910000.0 0.6684620982047402 -0.739405484519635 -0.22863677454964884 -0.8495082537259618 0.001697231483799521 0.0025690906269922975 0.4611521962202296 -0.21219745691515438
91909000.0 0.6601030854362439 -0.7442606842542141 -0.2498412744368286 -0.8801872886651917 0.001149169162872241 0.0017909681151554633 0.47696443660331445 -0.2185710203221891
92908000.0 0.6520229983225014 -0.7531734899201745 -0.26506627868230753 -0.914968453395806 -0.0003072618209813293 0.0007927064891983901 0.4505596726561554 -0.23123097830519626
93907000.0 0.6457496099989841 -0.759157583564282 -0.27868293273701655 -0.9451839213222449 -0.0007755289882558252 -0.00046485538065929306 0.4577575388042261 -0.2477875218970831
94906000.0 0.6334165451869661 -0.7669794252288701 -0.2965918160963374 -0.9771074358916099 0.001457619453776111 0.00449012327003095 0.47139731757366227 -0.2557667719492816
95905000.0 0.6255807611304774 -0.7737003820293824 -0.322072619481278 -1.0075163287016582 -0.00039527834541762624 0.002910895847877143 0.4644366140975749 -0.27058288292236865
96904000.0 0.6199676493579557 -0.7792641442043711 -0.3309370456734959 -1.047293122848087 -0.0014579611422187808 0.0026101217099361684 0.4511831062631409 -0.278029609974807
97903000.0 0.609488172152701 -0.7867972499354325 -0.35941507420469665 -1.0746491131227123 -0.0018104385730333939 0.00018848596860723674 0.44675687266419123 -0.2856976681656881
98902000.0 0.6038880858364291 -0.791915751154006 -0.37429565851723967 -1.111070017906678 0.003550285805911036 0.001054594418666544 0.44365661515739746 -0.2997411113812733
99901000.0 0.5951979121828621 -0.7991879873866736 -0.401981075594885 -1.1447790179264201 -0.0033529902662255973 0.0026053903629008066 0.4681196041093835 -0.3114943292236217
100900000.0 0.5841540167022029 -0.8030208090583223 -0.4375726958612674 -1.1702172206328632 -0.0005105774690193021 0.0008337823852294096 0.45917068393156535 -0.30303404679642604
101899000.0 0.5754592729126441 -0.8105632494653646 -0.45906510620844965 -1.205671582998797 -0.0039994348508647385 0.0010977877179985892 0.4548222163977543 -0.31894298316162145
102898000.0 0.5672126552932523 -0.8146989250693647 -0.4895617975205233 -1.2437218778860786 -0.0037241633063302975 0.003131343742466322 0.45809362540320486 -0.33377090259929526
103897000.0 0.5584800672949691 -0.8214932582098327 -0.5304906210127753 -1.279152537581613 -0.0017183100932168576 0.0016234411891870534 0.4612107148439376 -0.3337896884778559
104896000.0 0.5505932173824517 -0.8336724565232081 -0.5739905468166213 -1.3076957431410243 -0.004753364185409985 -0.0001662422751608934 0.44412653821527837 -0.330085739646403
105895000.0 0.540723983647073 -0.8362132657796335 -0.6128975813959565 -1.346809322452138 0.0018225541362955862 0.00027604150130721317 0.42742896671628045 -0.3430493414275166
106894000.0 0.5323268096796433 -0.8420213043636681 -0.6679633538155703 -1.3845961514768323 -0.0008748738943027888 0.0005411275717688691 0.42811471610613966 -0.3694862186907103
107893000.0 0.5241047983897877 -0.8475289983256029 -0.7191576788742051 -1.4178588119207305 0.002502703717455989 -0.0008732269099334792 0.43417830846278704 -0.37847650455661436
108892000.0 0.5115057860696788 -0.8535781364457736 -0.7779078754417348 -1.45610688658825 0.0025407732822929803 6.708902209866992e-05 0.42638397217757334 -0.3588669273910238
109891000.0 0.4996321038732378 -0.8592529480829274 -0.8335006296047833 -1.4846682343703694 -0.00036536276713532644 0.0005683091396909056 0.4348799210230638 -0.3737820399590833
110890000.0 0.4947947737237612 -0.8631581285353525 -0.8916192840649041 -1.5048480566102305 -0.0010349802203254732 0.0014191898716729326 0.42919651216317667 -0.3764961238086843
111889000.0 0.48121907006316833 -0.8657556950846697 -0.9592135728581209 -1.5521499328817299 -0.00030378953689740024 0.0010474255915508572 0.42181051578897333 -0.3920490234177867
