! Created with skrf 1.9.0 (http://scikit-rf.org).
# Hz S RI R 50.0 
!freq ReS11 ImS11 ReS21 ImS21 ReS12 ImS12 ReS22 ImS22
1000000.0 0.9765037940417878 0.012388724215341462 0.015303495820737447 -0.04012296411463978 -0.011275095652770314 0.019759539500476216 0.3683757360200344 0.29796471535350944
1999000.0 0.9949935437440109 -0.014142306762864298 0.005047445162919541 -0.025026863025601514 0.0009381141456206031 -0.0012694671463691078 0.2597129986199948 -0.04394685653173129
2998000.0 0.997597540157903 -0.019283763070030758 0.010205696994666174 -0.018537167358932214 -0.0011040240139161307 -0.0013424734756398412 0.16701657016633564 -0.13757437646187418
3997000.0 0.9994647818945139 -0.02963706304345191 0.012671432984905083 -0.00821216848168372 -0.0015153548083215306 -0.006916684777557585 0.1012689001076886 -0.23579757876827104
4996000.0 0.9972038989650235 -0.037065521234228384 0.012293451495818678 -0.007757596906900584 -0.0030979953068139615 -0.0024581378016211115 -0.03693617520883836 -0.21856445696037127
5995000.0 1.002690221242463 -0.04640094745789722 0.012911325904215867 0.00201389928733399 0.0015146832062783824 -0.00173902733435051 -0.10785705362518819 -0.12048316065448016
6994000.0 0.9971909467088638 -0.057904082746988716 0.007756684842574563 0.002857111832248438 -0.00032664487968994666 0.0008907760785277859 -0.14900868673136008 -0.027631835240450344
7993000.0 0.9987261881880953 -0.06780657996306319 0.0056407907841201504 0.007654950618899196 -6.298891783666469e-05 -0.0002655887323094975 -0.1607385158928008 0.02103126745633319
8992000.0 0.997711140434934 -0.06951333902376776 0.0031827633771970587 0.0027584695293537643 -0.0010755031660855253 0.004953760802889055 -0.1615753256174917 0.05861862635000526
9991000.0 0.9961932555318038 -0.07750941571677658 0.001289574866665224 -0.0019083587308903348 0.0005277816836935242 0.0024226428855336126 -0.15320427184654975 0.08376665211895772
10990000.0 0.9965050264707436 -0.09236451618745585 0.0016310690387243655 0.0002471199398647831 -0.002048931105808148 0.003927619805079381 -0.1502407158350299 0.1100962166033774
11989000.0 0.9927251747668333 -0.10081677778108335 0.006721050286642303 -0.001058904541035414 0.00013818437297955392 -0.0031326276661659373 -0.13411931406593888 0.13897221608826002
12988000.0 0.9917439663918243 -0.11057179944005657 -0.006375035047936194 -0.002950248648671016 -0.0015568261637187843 -0.0010899428472909267 -0.11483989112626734 0.17535576736197492
13987000.0 0.9907267741035574 -0.11585687558517552 0.0001189471136641815 -0.006711385910266389 -0.00351589922734267 0.0029909544071535453 -0.10940707885495941 0.1844899669397355
14986000.0 0.9897843514752022 -0.12451320392959728 -0.0012557430628687295 -0.0037364669639322473 -0.00018986648861866838 0.0016076681698297126 -0.08362440330996804 0.20041413494637
15985000.0 0.9919716879226796 -0.13221769067651207 0.004628002616918969 -0.00503623718542834 -0.004842796175716761 0.0028297054948109184 -0.07223795628577134 0.21844425836845652
16984000.0 0.990061807264012 -0.14374345470357325 -0.000369584044389875 -0.0023777722932941717 -0.0036152571501444747 0.002876416641870446 -0.05769996428158372 0.2204944195579425
17983000.0 0.989864407253656 -0.14972296785185754 0.0027892940242804512 -0.00728480386658511 -0.0011945004816638156 0.0015990260729909667 -0.056083409581420406 0.2178721407155413
18982000.0 0.9856623265417891 -0.1612616182891258 0.0021653439940575426 -0.002860371809432985 -0.002734973915979532 -0.0013642436315451816 -0.023316190914927763 0.24394608545450905
19981000.0 0.9842235429801448 -0.16420756044899748 -0.0031437179923993882 -0.001320537534969892 -0.004178034685340704 -0.00045439620776806694 -0.013779692964406214 0.2338932604133492
20980000.0 0.9846541988786013 -0.17461593087613717 -0.004694355237037307 -0.004635853044068632 0.004083120509983854 0.0030378278400609205 -0.008708674537845074 0.24214936381859603
21979000.0 0.9819572536253026 -0.18355636194273714 -0.007293134111999281 -0.003511267398944781 -0.0014899109431256326 0.005593677357057206 0.017548764152707057 0.23955748908761476
22978000.0 0.9784695372672799 -0.1962000160294465 -0.005591786587877504 -0.0039462165994827575 -0.00350061816648385 0.004596838313589379 0.02246820499375263 0.2489238195700016
23977000.0 0.9809612580938383 -0.2016054690700474 -0.002761160146165092 -0.005893681092469252 -0.0032599714544738075 0.006644307993058113 0.03924861509876018 0.24276283792267173
24976000.0 0.9783256811344297 -0.20869556566888034 -0.004763491618175522 0.0007741483995795283 0.0037302154965368037 -0.0012973215534695653 0.06291597097198379 0.2588705125243362
25975000.0 0.9769921962194874 -0.22455189349284646 -0.00693167275290682 -0.00021073459410639108 0.02442737282649541 0.00589377703472006 0.07617587305624485 0.25837465231978324
26974000.0 0.972281256356452 -0.22804665483167952 -0.006234435042875326 -0.0008143927361470847 0.002847513830325276 -0.003122341555933027 0.08247755943184427 0.2600592039651868
27973000.0 0.9729114587343978 -0.23305783674510083 -0.0021654925653429268 -0.0016828933866245093 -7.003100752687355e-05 0.0006545287825132375 0.10194825416261728 0.25824705440564927
28972000.0 0.9688133435319712 -0.24365180155172841 -0.0031032527567163943 -0.0009971500339432877 -0.001262762764017999 0.00018701589167400564 0.11439842584251854 0.2535761738289972
29971000.0 0.9680752554130381 -0.2505413395788828 0.0027620867696082382 -0.0012244842984518532 0.0006702633681844435 -0.0009253579225289235 0.14190880970564534 0.2625732444251069
30970000.0 0.9639843312669891 -0.25723907256040185 0.005157348302876871 0.0003186468119361254 -0.0005926685933329012 0.003410022419937705 0.16945787342852764 0.2554690086587434
31969000.0 0.962295742210388 -0.26703896848355013 0.006559078266463469 -0.0033581809824973076 -0.0007400145615656085 0.002385387032223463 0.1476002376848564 0.25942907246562386
32968000.0 0.9613965797254774 -0.27508853281471696 0.006868712163997113 -0.01241483738317414 -0.001063287272252597 0.0020090990137784726 0.15731697224904387 0.25465679908141775
33967000.0 0.9582798494643247 -0.28773235904157746 0.010708491352601024 -0.01044396795529693 -0.0017722641790433916 4.675672604602563e-05 0.18045116998315075 0.23924714894374816
34966000.0 0.9552869499200596 -0.2940248319588492 0.014972447301360737 -0.013080606104381234 0.0005526415631778672 0.0022918510974182693 0.2012132652974877 0.26084103970296324
35965000.0 0.9529158961795251 -0.302023693395688 0.017787314037708547 -0.017400655211914764 0.0004864967940362063 -0.0016312242496767553 0.21195238912977987 0.24547604349748342
36964000.0 0.9493878388459615 -0.3111142420018646 0.01569671776204505 -0.015923654295063663 0.0015984302727140782 -0.0030570884344047356 0.2152396456809037 0.25070707343862286
37963000.0 0.9466877009443538 -0.31827373243906554 0.020169271599881515 -0.02151540827663312 -3.815164395453505e-05 0.00013342583853064737 0.22206886772245762 0.2353389846869099
38962000.0 0.9449314001163445 -0.32819164605328544 0.023341970398192902 -0.023854654634470944 -0.004920144554641519 -0.0016425756836844416 0.2332379863084514 0.23211663419018166
39961000.0 0.9412888753141827 -0.33556713719725445 0.02778217517736821 -0.029034002975029567 -0.0025657938981942284 2.969469721403931e-06 0.25649179086216023 0.22311280832422387
40960000.0 0.9388693144697109 -0.34460984643677106 0.02488127299913742 -0.024098371862895537 0.00010744633425699184 -0.0013508441736479952 0.27009699968161077 0.23012548402337352
41959000.0 0.9358765766027499 -0.35371602290017534 0.029404135341272723 -0.03442991128266404 0.0025950178930724656 -0.0015164720565621194 0.2695739919245244 0.2170479779101304
42958000.0 0.931160031285118 -0.36053770787824385 0.03552273688391115 -0.04598685274854564 -0.00219360231092457 -0.0008702682620562385 0.2769859749962696 0.20252790089359515
43957000.0 0.9306068660972504 -0.3665445901342074 0.03546979326487537 -0.04759262939696652 -0.0004642446695833387 -0.0029022879998188422 0.27802962475397314 0.20863854042857208
44956000.0 0.9262444778452664 -0.374736636467733 0.03282481455976988 -0.05242575028902038 -0.0005291759784540152 -0.0014672361765616455 0.30623368744334295 0.20165980582370135
45955000.0 0.9210306522506796 -0.38517300701981677 0.03553424543036301 -0.059466530729434065 0.0005791624396359424 -0.0006745652812107538 0.3003554539092046 0.1961855867794463
46954000.0 0.918677983262383 -0.3934800571235609 0.03667554634499166 -0.06456106456554422 0.0014720994137861563 -0.0008320311717787112 0.32162293739661996 0.18274115293871238
47953000.0 0.9137482408478689 -0.402899233014193 0.036553518622151865 -0.07613827724173958 -0.0014500553324490616 0.001435872900237358 0.3388984195864487 0.17554374191012162
48952000.0 0.9090957963105796 -0.4120719902764967 0.03681066537985911 -0.08282241676467815 0.0014692106155525751 -0.0021638943188722554 0.3292013056442103 0.16915562986831753
49951000.0 0.907545863761957 -0.41954803737422425 0.042295430130924995 -0.08999247588170937 -0.004636261641572068 0.0018192990987980712 0.3518045615439106 0.1584643050812921
50950000.0 0.9026405086581545 -0.42464003555287644 0.042089631618416015 -0.09638187355341271 -0.001588423673770134 -0.0009025244956246848 0.35827025853760536 0.14114108520341423
51949000.0 0.900057405946623 -0.4349734270339232 0.04231716725500233 -0.10677525607158318 0.0007533559323216328 0.0016918206489553802 0.35207578745906054 0.14034598882077967
52948000.0 0.897223229071753 -0.4415868768872742 0.04440545821340162 -0.11530234903876783 0.0026773551410026377 0.0012192790924750352 0.3779872187545805 0.1448510266003556
53947000.0 0.8908824076592665 -0.4518851055923711 0.044310003362042626 -0.12545521384149713 0.0008780597236378227 -0.0002721132159948696 0.36846217986479807 0.13545114148755347
54946000.0 0.8857360906556657 -0.4588416924942829 0.04628384005438675 -0.13633343430376843 0.003656747358126122 -0.00014583757846874443 0.390777488526725 0.12199091417702115
55945000.0 0.8837745231005785 -0.4679185388626369 0.047657449922145996 -0.14848988176612624 -0.00018323576711646932 0.0002791955043374427 0.3853725460824116 0.09758364424558837
56944000.0 0.8797052579860519 -0.4737572860206943 0.049664346386247414 -0.15699865311519978 0.0006780961621198001 -0.0018723793352316187 0.3982912169712945 0.11583251952614683
57943000.0 0.8745018440216612 -0.4857332942425443 0.04894784118864295 -0.17160952750477285 -0.0014178093508256126 0.0007052953677973891 0.39764272551457347 0.09966790262783495
58942000.0 0.8696783707238699 -0.489703358562176 0.04981820732076492 -0.18284627936686404 0.0035372549923225393 0.0025041620765016937 0.4212271578147879 0.09057943292782177
59941000.0 0.8659423675576188 -0.4993141739112818 0.05281840600533855 -0.19109169578332078 -0.0002679479692377497 -0.002502889989037146 0.41081470750823385 0.09328448966325689
60940000.0 0.8583912841376575 -0.5058134740064792 0.05459422020057136 -0.19587300763551246 0.0007585911969357275 0.0006457905020961677 0.40474696399343 0.07502046266526934
61939000.0 0.8575069965563474 -0.5125120265534386 0.051739710939807726 -0.2051006156429452 0.0021858841151943553 -0.0015969551364834866 0.41792895028566734 0.06807428348745378
62938000.0 0.8507131597745259 -0.5240970240436804 0.05679957836878631 -0.22155398261944673 -0.0015101218950593902 -0.0012633932420914066 0.4409945307404194 0.04810731897536311
63937000.0 0.8454157178722366 -0.5304778012731267 0.05591591006507811 -0.24206026274470188 0.001073792338570582 0.0024514125000348512 0.4379613733831859 0.043193645010737754
64936000.0 0.8399276410847788 -0.5364194718079864 0.057730696234666375 -0.25476338343205973 0.0020113350849742125 -0.0006777436530523743 0.43667894870991164 0.0399928827650162
65935000.0 0.8361027230625193 -0.5489894938115301 0.05667349166154199 -0.27533178238209105 -0.0013720579983854241 0.005025946619649535 0.4350225686590282 0.015118056366119136
66934000.0 0.8314534068524904 -0.5516405254886437 0.05767163049337675 -0.285399020411643 -0.00046736042977340534 0.0025557321656515613 0.4418780174811679 0.007115744790442554
67933000.0 0.8298956539998827 -0.5622695970769777 0.05461782372619342 -0.30165380734606095 0.001419585707002875 -0.0041845739776676365 0.4348240912837058 0.002454137671256752
68932000.0 0.8222581805881654 -0.5673352500258028 0.052687738307159414 -0.3170179810631035 0.0013128323995089746 -0.0001523617993576724 0.46313077474632525 -0.009559610406213134
69931000.0 0.8134008120919259 -0.5768464157236268 0.05097911805832765 -0.33484635354628706 0.0017136810978654615 0.0005475325696418677 0.4458608618638086 -0.012468476084582096
70930000.0 0.811808225930569 -0.5836050365002535 0.04979593653593297 -0.34732882569081325 -0.0004616605372050721 0.001705534510590895 0.446061465016449 -0.023412642212898908
71929000.0 0.8074323274235291 -0.591604404226695 0.049985571488494585 -0.36630074047080297 0.0006218302020393335 0.0004985971628596794 0.4469080330194733 -0.0423719461445352
72928000.0 0.7977811116527042 -0.6035017816097775 0.040918253245342415 -0.38416294422928143 -0.0025802199916510104 0.002721887765299014 0.4678740253654224 -0.0440451762508229
73927000.0 0.7931333274121057 -0.6070746697385764 0.0352353028813584 -0.4078637326374736 -0.0014446091230288414 -0.0021670503217188657 0.4565046073462421 -0.05100258012986508
74926000.0 0.7889471011614761 -0.6177212806872557 0.025170142997772562 -0.4248550370214646 -0.0011293083208551342 0.0011010260493954523 0.46003724761310716 -0.06467587812907309
75925000.0 0.782006288540167 -0.6224925048839007 0.017342126963596185 -0.4456745355555088 -0.0005529491246644332 3.787193202685863e-05 0.4640842815813396 -0.0624453050050352
76924000.0 0.7741234974098793 -0.6302115990228175 0.0027015997376863402 -0.4695207153202693 -0.0008652925199682258 -0.0005727781083386808 0.4549061206252954 -0.07932070651881629
77923000.0 0.7708429029358971 -0.637980075496374 -0.010032179216585497 -0.4981899682789752 0.0029001285912647673 -0.0049157977851238596 0.45006416962815604 -0.09329265022989959
78922000.0 0.7654772063250704 -0.6457226190685638 -0.023550677189160023 -0.5222418624131657 0.0004005174699377596 -0.0009601279365207825 0.45668899825412934 -0.10342416461659175
79921000.0 0.7556619583672737 -0.6516393434105531 -0.04203708769338844 -0.548134704541747 0.0005179242261511344 -0.0011683590683033828 0.4617208381877475 -0.11549036271137018
80920000.0 0.75125957013034 -0.6607705015575203 -0.058239375785241805 -0.5784910068256077 -0.00021410620749627227 -0.0032205781384707258 0.4654965839287384 -0.12936571716136785
81919000.0 0.7469162469405789 -0.6673995079120153 -0.07957843240440896 -0.6100080924062048 0.0011036055928762825 0.0012307930225558602 0.4662608460481473 -0.12961708439270572
82918000.0 0.7372895733875732 -0.6739802157326061 -0.09475017500133386 -0.6405846236393883 0.0003945602589803114 0.0016510490659754449 0.4727037239344603 -0.14705465897921605
83917000.0 0.7288340930511378 -0.6841661061374827 -0.11781454025119549 -0.6690399772856622 -0.002672781086164431 0.002285183333814091 0.47332554976023355 -0.1533605289935212
84916000.0 0.7232460582677628 -0.6896394091887034 -0.12783167073587004 -0.7067637960746688 -4.040532403453483e-05 0.002259693165855414 0.463814007544634 -0.163540729652849
85915000.0 0.719064542756513 -0.6962695982393363 -0.15254760012509522 -0.7376981840028305 -0.002579607316121659 -0.00045217837114971553 0.4752094810218948 -0.17340104488411068
86914000.0 0.7092255797907698 -0.7066804054666058 -0.16610963758579683 -0.7736462382834387 -0.002857351503181295 0.0030737877893842304 0.45897020898796576 -0.17867544003175997
87913000.0 0.7043986566019373 -0.7119631350353655 -0.19097850910158265 -0.8071892652887158 -0.003951536481837825 -0.0006037147420336382 0.45982831813598585 -0.17807302502409125
88912000.0 0.6962231726776527 -0.7185034543192284 -0.20446624331558066 -0.8414236342261927 -0.0032590610203045768 -0.004758623190664637 0.4611358478358943 -0.20103290959111883
89911000.0 0.6887992828005147 -0.7277063267441726 -0.22605228031376418 -0.8794149457502682 0.0006442141724347536 -0.0013923965672890052 0.474574440689277 -0.20220028988470778
90910000.0 0.6818300111278767 -0.7317829896590652 -0.23987257443937407 -0.9177014160438169 0.003085687499974438 -6.676535720343601e-05 0.45621604428979706 -0.20966468608129968
91909000.0 0.6719686155603953 -0.7378309988770094 -0.2667281321422569 -0.9475112906334694 0.0026155653500877425 -0.0012560750388095395 0.46306612551505805 -0.22123024663339438
92908000.0 0.6650059745095338 -0.7469032706667076 -0.28623066558069665 -0.9853088370187447 -0.00245221544854864 0.0018529451186690316 0.45157292667565646 -0.2198006807441282
93907000.0 0.6587921754861193 -0.7509301258507786 -0.3078458214379512 -1.0146327024732609 0.002643018437580399 -0.004585065863028585 0.46141903827987074 -0.2437340808953051
94906000.0 0.6451701572213976 -0.7604954654966175 -0.3247270523129393 -1.053704373949425 0.0006859530060070475 0.0001621347348192098 0.46005291151227334 -0.24406088123064779
95905000.0 0.641267408924619 -0.7647955426335236 -0.3474618461048733 -1.0909561931747733 0.001242840400030666 0.0011878967976434714 0.4706641396060623 -0.2759705626926269
96904000.0 0.6307789709272901 -0.7750049811955462 -0.37296688539394734 -1.130594861953449 0.0029857538232437512 0.002034789974170632 0.45506461153965105 -0.2660800745344651
97903000.0 0.6222780287947658 -0.7798559262538822 -0.39925957124315176 -1.164638136158925 -0.0002981846580158876 -0.0028639170546181938 0.447433731286899 -0.29230504779713107
98902000.0 0.6198651469730844 -0.7861319814815043 -0.4194947369294361 -1.2044883937724362 0.001642804020464766 -0.004254731727153288 0.4347438222488213 -0.2931838801460361
99901000.0 0.6083279633402496 -0.7924087317459998 -0.44665480095649823 -1.2371537973362532 -0.004448010596542355 0.0003136567667306384 0.45372274590323114 -0.31188757689114827
100900000.0 0.5997957363367529 -0.7966539259793128 -0.4803805955445942 -1.2689023582014578 -0.0013243016291680009 -0.0010710944104288748 0.46229711243187765 -0.3107920356526979
101899000.0 0.5913075337332967 -0.8044092474849142 -0.509640018452786 -1.308329066244591 -0.0020683612235390834 2.1000525800707748e-05 0.43725044483637215 -0.32499534314108974
102898000.0 0.5819434573269429 -0.8103063208172355 -0.5447856911909258 -1.3502986548721825 0.003632095415411347 -0.0001460903544963808 0.4463142990840948 -0.3405511253807175
103897000.0 0.5722357708547761 -0.8164380965187993 -0.5836858193301645 -1.3862682824453119 -0.0018217693784046084 -0.0011887909487825381 0.4572923851754892 -0.3369595513715438
104896000.0 0.5650742587318257 -0.8288375603769883 -0.6403760098288543 -1.423237900021172 -5.900741407984321e-05 0.0005294558111349897 0.4357986926101342 -0.3299669234094499
105895000.0 0.5526267323601931 -0.8284381035387589 -0.6954558682110243 -1.4628661752924805 -0.000635416021706269 -0.001807656718458452 0.4323765036573277 -0.3611838985102532
106894000.0 0.5439855066097586 -0.8358714733967922 -0.7518122190371131 -1.4967848136958404 -0.0001249766175434918 0.0007208573270941676 0.427809084452636 -0.3739031697709948
107893000.0 0.5346439491776307 -0.8423033797823366 -0.8034703507662957 -1.5336808763036354 0.002539372297109848 -0.0018519435339315975 0.4273562387458453 -0.3810744204351744
108892000.0 0.5286899065526492 -0.8452306973497536 -0.8591160072184643 -1.571025837238205 7.28660041789046e-05 0.00018287609044445873 0.4224696496557889 -0.37198959228413225
109891000.0 0.5149111674479496 -0.8545431338196975 -0.922641451929311 -1.6058157224544085 0.00038308576529035227 -0.0007757135887529013 0.43183350626022515 -0.3766362318046421
110890000.0 0.4974414629942553 -0.8576005259712327 -0.9980769369488807 -1.6009939499044774 -0.004852050705070975 -0.0001544177975793441 0.4165607999193124 -0.38052517125622926
111889000.0 0.49667411534132805 -0.8605294492386123 -1.0509750116081895 -1.6782361070407128 -0.0002650046414249356 0.0005114969605268845 0.4106527032527429 -0.4051978071710343
