! Created with skrf 1.9.0 (http://scikit-rf.org).
# Hz S RI R 50.0 
!freq ReS11 ImS11 ReS21 ImS21 ReS12 ImS12 ReS22 ImS22
1000000.0 0.9943831197954542 0.007321843588301276 -0.03344452229923324 -0.0615586043771794 -0.024922354561604312 -0.0016127873558782649 0.30115811646231755 0.3361751455132714
1999000.0 0.9894892094574942 -0.013363985266132543 0.008139382579605654 -0.012714255806523321 -0.0077380572358251186 0.008368293316321704 0.2833562524023667 -0.05497018948244793
2998000.0 0.9983365283138093 -0.019669475742146156 0.009240447531953723 -0.017386593590226648 -0.006717751061237326 -0.003829503107786279 0.18866644720525408 -0.1544397566591811
3997000.0 0.9982128222142264 -0.033172949285815226 0.014980548604922126 -0.010060279053563362 -0.0006224254718060837 -0.0021259309530640863 0.06871618874014072 -0.24652822905709876
4996000.0 0.9988038562887991 -0.037756513565659726 0.006328178410391573 -0.007228256727168313 0.0011157730173473538 -0.006513236613770422 -0.050210348085269606 -0.18633202056073472
5995000.0 0.9995379835847155 -0.04753657151500339 0.008872765091361623 0.004350009347129563 -0.00019183199584968294 -0.0011528802618040292 -0.12636455490016865 -0.09319537266797241
6994000.0 0.9988536282333027 -0.055665230059050295 0.005327181063160995 0.006627429139666368 0.0004547858015511487 -0.004283213047722875 -0.1379488106069719 -0.015301865623570174
7993000.0 0.9984526754986908 -0.06626460776852311 0.00460921723021057 0.003919623076410538 -0.0038339065653453254 -0.002863705791086439 -0.16161382724848103 0.05390730023464476
8992000.0 0.9976861428066509 -0.06925282298092161 0.0024154343047294758 0.005551355553334342 0.0014128928250477907 0.0018671310225928104 -0.16104998448937766 0.06798899155842227
9991000.0 0.9930650976884 -0.08396209137473047 0.0071220877243363895 0.007538663467469343 0.0007962479971307751 -0.0025426896404764443 -0.13189291762855182 0.09204269963483276
10990000.0 0.9959400746043325 -0.09461390752482668 0.0032079555228345037 0.005371841566512885 0.0018741942816222633 -0.0007720549082308899 -0.13627768716973798 0.11202718695328844
11989000.0 0.9926526796859824 -0.09900742417737499 0.0019140104246359079 -0.0025443610660409563 -0.007045154943363315 -0.003348851483972294 -0.12158813217885026 0.14920394876228454
12988000.0 0.9929077423213765 -0.10792575265555049 -0.001037581099401114 0.0007289319643708703 0.004284828769246437 0.003866478304120956 -0.11024529654449704 0.1849156632625152
13987000.0 0.9889731088096149 -0.11815994810614 -0.0014318579945162462 -0.005189804133542991 0.004404345825395587 0.0008087248525731488 -0.08897492704243946 0.173778563253937
14986000.0 0.9879272472146963 -0.12537799798925015 0.0028724441871446514 -0.0027359523406373337 -0.0011063428708202796 0.0015048179089129496 -0.09033568335611541 0.19734473474727832
15985000.0 0.9890227661169626 -0.1332709704037294 -0.0018814822314602402 -0.0023876880932608 -0.0023380069041563168 0.0035603302723648256 -0.06222766234395149 0.20973481127415916
16984000.0 0.987448216261825 -0.14344526169009622 -0.004707804378080848 -0.001730242215015806 -0.0014857592384330029 -0.0018008909961213595 -0.05607194294711565 0.21586882695325746
17983000.0 0.988516575619122 -0.14870050861797615 0.002408929551836591 -0.0034031146141716064 -6.760137682423519e-05 0.0004251677310105716 -0.04173804534901897 0.2240001305205049
18982000.0 0.9838935552292047 -0.1615372739507382 -0.0011340768530599804 -0.002054646035173351 0.00023531736758301955 -0.001396806905602488 -0.02081055184273989 0.2384267334517894
19981000.0 0.9835973921870932 -0.16655256517913364 -0.00543925672179285 -0.006726460276968214 -0.0014394773694701077 -0.0018445194938746024 -0.005453925414849408 0.23684021876615077
20980000.0 0.9827417343017812 -0.1770115154065615 -0.002778006492944965 -0.002537219842693103 0.0033009566429344347 -0.001930931400844429 -0.0021788399963341095 0.2600173302348643
21979000.0 0.9811684907632872 -0.18368316157800965 -0.005124662794178691 -0.0008659193604837867 -0.00011939626250313007 0.004768058603556409 0.01831249458034455 0.24348601767143602
22978000.0 0.97853306895038 -0.1909677679728993 -0.004273942142322942 -0.00266591318352192 -0.0007247311396605651 0.004112083159889924 0.039238097670732476 0.24681506001932307
23977000.0 0.9807105667943007 -0.20074241236719637 -0.008723099895035715 -0.0006183275734526845 5.0478239382850755e-05 -0.0009049691932895051 0.038797767194629525 0.25848799032788994
24976000.0 0.9749454907577604 -0.21003783129738737 -0.0076313730658999915 7.128751273647864e-05 -0.005840278623735544 -5.038488132323252e-06 0.06759287627052425 0.24599935236534176
25975000.0 0.9778411034601657 -0.22214450808607758 -0.009007196953862874 0.0008498646684757269 0.023293123667206643 0.014077546711846411 0.07953072227180998 0.25442279397454587
26974000.0 0.9720156148150012 -0.22693446843927237 -0.004195635388226325 -0.00306702763891409 0.0028736798315772737 -0.0011927440382940558 0.10205617970191777 0.26328967373911544
27973000.0 0.9707783941050966 -0.23417101251164635 -0.004292212473826414 -0.004698993901222786 0.0029545951949495604 0.0007187114457290702 0.11327929676342621 0.25063709530072287
28972000.0 0.9668852626276118 -0.2423360135649142 0.0014496293756103315 -0.0013821470289978562 -0.0030803153875334343 -0.00010220237966680728 0.12390967794383724 0.2550154283114151
29971000.0 0.9656696491925827 -0.2536408046475851 0.002760978654633203 -0.0005764089706656444 -0.0014438961911819534 -4.931832140906409e-05 0.15368136322469753 0.2522047934009157
30970000.0 0.9654461810316071 -0.25710043538758454 -0.0021821367040845367 -0.001088037667402684 0.0020643794456736324 -0.0017653089884720535 0.16793740857010825 0.2489459357928073
31969000.0 0.9622171950131014 -0.26665296545532574 0.004678086555434105 -0.002038382236006455 -0.0014983537906259118 -0.0004171318298115858 0.15420156391426984 0.2543587898292358
32968000.0 0.9615683229753815 -0.27518374445325133 0.01067392256581553 -0.007136560591900975 0.0012436650771798447 0.0014697565463719666 0.17437776751882428 0.23875493671367481
33967000.0 0.9589241470776817 -0.2836920123255861 0.00962554526238275 -0.007349532369138937 -0.0010912255110656383 0.0005982882760806338 0.18533636126063455 0.24575391090208015
34966000.0 0.9543901158880554 -0.2926009272151815 0.014219742357570822 -0.010373135654386585 0.0013549449615376352 -0.00016865390227556787 0.20365164524902263 0.256262618882205
35965000.0 0.9530203341065594 -0.29812165832160215 0.017073693501947804 -0.012310481712814706 0.0025288950040705106 0.003382010728854539 0.22304670579234803 0.2443524409028519
36964000.0 0.9514223741719221 -0.310178680134633 0.015222642751629134 -0.010866230387133939 0.0016336169387131372 -0.0007981885185528025 0.22018701355983092 0.2510324225903953
37963000.0 0.9457207830722024 -0.31826101125538514 0.02121128614527652 -0.017451733431473233 0.00045977607238490223 0.001047916048948251 0.2270668524524465 0.23070257124128213
38962000.0 0.9446705188406002 -0.3262722505859661 0.02135828118179464 -0.023514458584015855 0.00028543989500275904 -0.002507605168290418 0.2430363044819079 0.2263662782036612
39961000.0 0.9415446873135848 -0.3368491684842993 0.025223652453476502 -0.026634986242839113 0.0038848053275165745 -0.004424942811449527 0.25655432677167556 0.22300681653198928
40960000.0 0.9374481133668161 -0.34196484730158583 0.022726356249373508 -0.0247020288860361 -0.0008038438442463568 0.003002384211372062 0.27204083863738593 0.22269204631838058
41959000.0 0.93428336674119 -0.350438900483019 0.028054844500626976 -0.03155825770373961 -0.00040522601733495965 0.00012464333729023382 0.2716761510086014 0.21434127139016323
42958000.0 0.929025943388048 -0.3607109558149675 0.03182551533087698 -0.03755950425463727 -0.004012846496408779 -0.00025049975010125173 0.29155921697658 0.19726114589802915
43957000.0 0.928550555339495 -0.36708200158508925 0.032406411188316595 -0.04414572486927527 0.0033260693319258285 0.0014808652525204555 0.3011583399620292 0.20645260497100754
44956000.0 0.9253775721977525 -0.3760868418588896 0.03350290335892394 -0.05001994556077209 -0.0021774936543027417 -0.0019888247128320015 0.3061797814887091 0.18691161291243066
45955000.0 0.9228655465940417 -0.38283635198564997 0.03767030835745342 -0.05843155547779278 0.0015871739344301772 0.0004984088473627167 0.3128549465559044 0.18540768023062631
46954000.0 0.91908542687761 -0.39283323512299906 0.03677028441631882 -0.06182270233460377 0.003639462689783055 -0.0010047774146929726 0.3265588468597608 0.17078273737595173
47953000.0 0.9150967874033794 -0.40114765995330726 0.035946951569963255 -0.07048731387155222 -0.000559847070910594 -0.0011010186461131476 0.33804730519210624 0.16415304780099277
48952000.0 0.909169195493285 -0.4130868117189082 0.03604174123104827 -0.0803481238043811 -0.0014010109999305976 -0.00034854032219883396 0.3346144193019244 0.16691485131418318
49951000.0 0.9081690656173225 -0.4151465194034023 0.037957980378839073 -0.08601124608450728 0.0005979059208767248 2.0198177827856795e-05 0.35651152183662976 0.15008652501717218
50950000.0 0.9039636542774792 -0.4244073669687016 0.03948015341920045 -0.09306424171611992 0.0006573712293259696 0.0013403112401242719 0.35578372467728503 0.14425912278520836
51949000.0 0.8992052499476252 -0.43376897066137504 0.041887907618402845 -0.10193537084521814 0.0030517141491798174 0.00019168424962407083 0.3625354910945571 0.12718803115792104
52948000.0 0.8966059714820142 -0.4423264808812533 0.04400987294692589 -0.1108205019533635 0.0003539240752657028 -4.2037488737044966e-05 0.38676893504293774 0.13671059436178243
53947000.0 0.8931534618404061 -0.44848410766436103 0.044135815038640606 -0.1188122873276788 -0.0005258733865299238 0.0015667341700121146 0.38085316984217055 0.12435867650538412
54946000.0 0.8878192303409217 -0.4563183892917898 0.04358085548853075 -0.12809833457597256 -0.0015607932633292841 0.0018924790128680227 0.3918138267550601 0.11830818379366546
55945000.0 0.883984311277669 -0.4654967843497366 0.043984219805119136 -0.14035339561316273 0.0010365413067789273 0.004751466164484498 0.3870329511528471 0.10440322570283866
56944000.0 0.8800444043678569 -0.47381389637053095 0.047766224185833754 -0.15021462319174744 -0.0012145545947175864 0.0012029434025549162 0.4001566969262784 0.10114354649235195
57943000.0 0.8771507308994393 -0.4845921179596087 0.049437650665639356 -0.16229368202697297 0.0003624865221637355 0.0016881569795933196 0.4036717335794735 0.08761893595166846
58942000.0 0.8700219178934988 -0.4880530215231927 0.050887787064111324 -0.17123915201240533 0.0002929873916637777 0.0002878662182109184 0.4338532493049814 0.08934591660394804
59941000.0 0.8656605891379427 -0.4983663285007824 0.056386893998352734 -0.17915905433501966 0.0032028324556709173 -0.00052765976317794 0.4402974140159714 0.09157903084270072
60940000.0 0.8591397508715986 -0.5046089850907212 0.051942928712803205 -0.1852797496641947 6.128924573682666e-05 -0.00023777441705904963 0.419145105222371 0.07800108872559137
61939000.0 0.8569342812933046 -0.5118693561655429 0.05365141961743642 -0.19447887230101313 -0.0002330507801816918 0.000763476087676428 0.42973492684169107 0.06503701434419065
62938000.0 0.8501137578925795 -0.5226510868445188 0.05500743169193568 -0.20856451463424222 -0.0006273243634099113 -0.0010358233804893331 0.4478778475197188 0.05272093974497723
63937000.0 0.8446649325593167 -0.5311446913794442 0.05648684585329889 -0.22941440599176777 -0.0026287095822832957 -0.0030096048366042975 0.44194337373197184 0.035994616633083676
64936000.0 0.8411418391046737 -0.5340035942927792 0.05862271727132735 -0.24706032185109372 0.001571587975026473 0.0008713580135330086 0.4415479013044258 0.038987953079727675
65935000.0 0.8359301981114325 -0.5487357850390124 0.05795695851802819 -0.25796515115786384 0.00042210387520176865 -0.00024472543600665987 0.44518392413660807 0.011535068165418515
66934000.0 0.8330397519886339 -0.5495847156460186 0.055177024475339995 -0.2717686291181116 -0.0018548387910425743 -0.0032203777364377185 0.44274708115169426 -0.0005077525924238781
67933000.0 0.828201128067755 -0.5596142201046164 0.059256650320407236 -0.28307813069839033 -0.00025938364710330873 -0.002249376225293667 0.4469533648422029 -0.0018408399285851215
68932000.0 0.8163446707514589 -0.5510343998206394 0.056060325813526775 -0.29610886709904727 0.0012610319034383843 -0.0004819513178315473 0.45232244331221816 -0.005262979543491393
69931000.0 0.8158510220387731 -0.5757194369233066 0.05689084096559424 -0.31600594736415555 0.002694805349537286 -0.00030264256133139385 0.45535588560928414 -0.01676219372351173
70930000.0 0.8091271881835482 -0.5825270747202957 0.05282507018786636 -0.32977539812584106 7.986862771224885e-06 0.001696283051705721 0.4607039258996808 -0.03114531138809493
71929000.0 0.8068217854406265 -0.5906840871687669 0.05100563049601019 -0.3465842187311252 -0.002490108171143307 -0.002181592238390422 0.45241025565789006 -0.04793170504553926
72928000.0 0.7991639375731165 -0.6016693303897349 0.04472367356522981 -0.3647486714860395 -0.0020262679094349497 0.0012962863874908656 0.4640979773466255 -0.05041362887683339
73927000.0 0.793869750495409 -0.607153448177112 0.03895961879279194 -0.3820139066005455 0.0012515430245743568 0.003076925892402882 0.4591626629428091 -0.07077722919010275
74926000.0 0.7858742365260037 -0.615628145017486 0.032453938769605783 -0.4017032838771707 -0.0009919019728904669 0.0023290145860764802 0.4722284938146492 -0.05979606466815197
75925000.0 0.7829435673699858 -0.6202091036061631 0.02504831066282285 -0.42142631797502106 0.0037284958881729354 0.0016857551952693226 0.46997971579888376 -0.07901826658185092
76924000.0 0.7759906024817564 -0.6265503849276614 0.0063306059110674944 -0.4445904881541651 -0.0025094702733867848 0.001178950697649421 0.4685386035767962 -0.08650867650880928
77923000.0 0.771345646440921 -0.6361667059895839 0.0016433648939072067 -0.464352172211206 -0.0022036077131661787 -0.0005031465896481106 0.463196184871945 -0.09260564467177453
78922000.0 0.7633986980919385 -0.6454577501862794 -0.018987681294104507 -0.49190210193501255 -0.0032530142849176782 0.000597002569175815 0.4611744807411933 -0.10701127973298294
79921000.0 0.7555063870202385 -0.6485808387831278 -0.035434523493481 -0.5211862938645643 -0.002292418824312359 0.0017159682161795255 0.4654650618839682 -0.11770192435705405
80920000.0 0.7511863050155548 -0.66056606520323 -0.04713482281003214 -0.5444946210525472 0.00013808022745472482 -0.004074707487355019 0.47138962290368797 -0.13645254668095735
81919000.0 0.7453958148582558 -0.6652393312333515 -0.0672485279183683 -0.5752313998468899 0.0007813276156359373 -0.0014781136506418107 0.4667167472630293 -0.14373861246449277
82918000.0 0.7355127523268792 -0.6733942396936128 -0.07935874667175104 -0.605671279672141 -0.002749389115643557 -0.0022785107387898657 0.47710884622780464 -0.1432709646759351
83917000.0 0.7284934670244322 -0.6820009144808549 -0.10045293593444034 -0.633112477295426 -0.0006450091169658895 -0.003921513226158989 0.48615989217366185 -0.15457857694613938
84916000.0 0.7249699900963028 -0.6888155711885195 -0.11511365253058749 -0.667456865261769 -0.0008219588872204292 -0.0022936057323699626 0.4814705882139609 -0.167675128891862
85915000.0 0.7185762090283743 -0.6939049921051225 -0.13552791414201235 -0.6971509656267539 0.0012206957075374125 -0.002061927230068931 0.47011353441070064 -0.18124656743750753
86914000.0 0.7105208108991989 -0.7044875139107468 -0.15008450291504077 -0.7371446014600833 -0.002106430495742747 -0.005094641847736204 0.4625780687864313 -0.18687152468692406
87913000.0 0.7019564212197372 -0.7101950254974888 -0.17459078044307866 -0.7620797925206236 0.00035393447705661874 -0.00480495236969183 0.47036195151405263 -0.18050737459974325
88912000.0 0.6971334709751922 -0.7165579407599086 -0.18902207938017587 -0.800185809715965 0.0026492225181313947 0.00037803691845446976 0.46756403819148895 -0.20549577713925868
89911000.0 0.6883152835540598 -0.7268498719996407 -0.20423326668051975 -0.8360056010757366 0.0015784496299670048 0.001922931601944548 0.47311913833955077 -0.2106106235327197
90910000.0 0.6826869199791226 -0.7304827465200113 -0.21794647151201943 -0.8716130914548385 -0.0025430819000719874 6.866060243872852e-05 0.4695110282222502 -0.21148131571769024
91909000.0 0.6725408751844127 -0.7367769761435167 -0.24109341677468574 -0.899032623696108 0.0017779168606919602 0.002572780713424144 0.46717907569113243 -0.22179759912447017
92908000.0 0.6639888392893822 -0.7460570904589935 -0.2592310885833222 -0.9335913594897426 0.002560026680288255 -0.0009324633615924524 0.4664375675383861 -0.23131577106171008
93907000.0 0.659537600435338 -0.7491548324538769 -0.27715352105344543 -0.9656538804875572 -0.0005005860758275377 -0.005402828835279865 0.4630988715905749 -0.2596126176682023
94906000.0 0.646082492368358 -0.7574186721042007 -0.2945789891005926 -1.0020424429601138 0.004139903962539891 -0.0012811233561786741 0.4661594139663588 -0.2606391684696315
95905000.0 0.6405032025320008 -0.7625956022730861 -0.3118187448420772 -1.0350477898943178 -0.0010720306062199782 0.0019557513229418065 0.46698017909485867 -0.2714341544270612
96904000.0 0.6325441720035906 -0.7734801316422368 -0.3353575532240536 -1.0785257557316728 0.0012240390178105873 0.0020482749776036644 0.46464798799854445 -0.2774564759271344
97903000.0 0.6255240444128103 -0.7764936342369078 -0.35135225317359536 -1.1105616248866326 0.005235412502133476 0.00022904620552520794 0.4471528788834198 -0.3001333995347231
98902000.0 0.6197771066121422 -0.7851970745905011 -0.3732874570329445 -1.1492751909259495 -0.00403110955869511 0.000320154577904049 0.4472860546194732 -0.2931632122827584
99901000.0 0.6094099055785115 -0.7917623618882055 -0.40224947740535766 -1.1744728286031638 -0.00023149273225850142 0.0002549545283310218 0.45186361704864436 -0.31717401102977544
100900000.0 0.6009158820898669 -0.7951290615618053 -0.43387269153691355 -1.2055394741618852 0.0012815940116593727 0.001066065353286953 0.45683074180951605 -0.3162114468955344
101899000.0 0.5914270636888119 -0.8021854935439993 -0.459674850390708 -1.2452383350986589 0.0025526264447617987 0.0004132043029818778 0.4488350903969173 -0.3208075027386221
102898000.0 0.5826415164319398 -0.8077764426608947 -0.49437205435577464 -1.282676015600608 -0.0034451022880553164 0.0007727212218103135 0.4500155680849564 -0.34140867641900075
103897000.0 0.5736247815047574 -0.8159583565744145 -0.5301214202864252 -1.3183429190227796 -0.0012870971268175474 -0.0018452717953293533 0.47488090654251186 -0.34145389549741867
104896000.0 0.5665679784308557 -0.8262367815588783 -0.5775194583664385 -1.354482184191485 0.004218021120703693 0.0014014616755008175 0.4412043090100045 -0.34249472897696465
105895000.0 0.555329726996583 -0.8264523500304786 -0.6169967772487004 -1.3927218388898472 0.0012273281976059014 -0.002657641602944695 0.43036886508018146 -0.3550098185509755
106894000.0 0.5463584002577474 -0.8338059812677018 -0.6698075694865432 -1.4302664611825062 0.0005480039398577188 -0.0005537380259377332 0.42956058238549194 -0.37598367571696123
107893000.0 0.5389339634493107 -0.8418012467832399 -0.7216153406068937 -1.4687691163844632 0.0013338697111527228 0.0018747356428759103 0.4297067234596344 -0.3818952581842111
108892000.0 0.5313352892330394 -0.8437310362299365 -0.7798359252078447 -1.5089376530129484 0.001964294054057903 -0.001144476867303472 0.4259642309156695 -0.3809687280898817
109891000.0 0.5168382879332925 -0.8531819036279328 -0.8323448863504133 -1.5414417294086462 -0.0013204686092657216 0.001995729080222025 0.43393272341833916 -0.37948549404653553
110890000.0 0.4968805946747825 -0.8640382055786853 -0.9179871588257453 -1.5403647635320135 0.0009616039318452421 -0.0020581679667813248 0.42562759207666845 -0.3979079745104604
111889000.0 0.4987135162537921 -0.8593337921313107 -0.959663074168925 -1.6083014619705622 -0.0004674343189552928 -0.0024257592347887292 0.416141945183867 -0.4065373847244401
