! Created with skrf 1.9.0 (http://scikit-rf.org).
# Hz S RI R 50.0 
!freq ReS11 ImS11 ReS21 ImS21 ReS12 ImS12 ReS22 ImS22
1000000.0 0.979955298877579 0.007105614527760775 0.01639015776492752 -0.04579365366610078 -0.010328030225599496 0.0011034981549614164 0.3407938497293051 0.2869319038512096
1999000.0 0.9979667527418098 -0.008394031935108718 0.005864127430144783 -0.01683578067042403 0.0017497032422080277 -0.0027111869100279154 0.2726676699813166 -0.032243026573971725
2998000.0 0.9983610886119543 -0.01871480985726547 0.005761242774518298 -0.017321551782604836 -0.005323760706388717 -0.0038517240076115936 0.18325751406479168 -0.1359181088846982
3997000.0 0.9997601824334515 -0.028286648706444404 0.012273326677196408 -0.0029967152295336656 0.0014235058707810881 -0.007534684875716554 0.08439110961198881 -0.2332263483967823
4996000.0 0.9954300196079872 -0.039680499587232465 0.014824069390056847 -0.005754183269689942 -0.00017713936352764834 -0.0018684495450948147 -0.05419726265718446 -0.20584665795030083
5995000.0 0.998754328402353 -0.044866541448663956 0.01087295488832189 -0.0003013849158685805 0.0006761130661126743 -0.0008678235386204494 -0.12693190032235047 -0.10805456775424574
6994000.0 0.998635972327432 -0.05723315558873582 0.004754191668301668 0.002789237966551258 -0.0016540682685306013 -0.0027364410093294864 -0.1336265495011293 -0.022077981689054903
7993000.0 0.9980875537441204 -0.06463355769132144 0.006048784777911698 0.0010864109343170876 -0.0003363690949505155 -0.001643964569839378 -0.15499673062751454 0.031371043301453884
8992000.0 0.9961162952850592 -0.07071379901390501 0.0022635297300622552 0.0049567116744495335 -0.0030136594270651243 0.0018719092454928226 -0.1516733144719798 0.05367781621763239
9991000.0 0.9952166269950892 -0.08096225861231564 0.0016395057474958771 0.0004806149546820038 -0.0013609252255510635 0.0011344829305277304 -0.14456895562516237 0.10095207981240323
10990000.0 0.9952651264354707 -0.09110007642909225 -0.001564633898372973 0.0024812972917129844 -0.0007712699507036256 -0.0005190633387618768 -0.12864285764706557 0.1212139486874214
11989000.0 0.9930688218131088 -0.09716007479785022 0.0019530063439278285 0.001371109896790792 0.0010999145931197794 -0.00509984585196868 -0.12224407623244454 0.15040550500256392
12988000.0 0.9893303788140482 -0.10809336929086848 0.00783535543097845 -0.003315698385806 -0.0015394186967183838 0.0011890425153853299 -0.11303442678468265 0.17439110187007315
13987000.0 0.990548379883878 -0.11699908375463719 -0.0035009431060375007 -0.005896322871993062 0.0006260009476323486 2.3009046648038892e-05 -0.10322599895136107 0.1891877698544322
14986000.0 0.9909787487416273 -0.12461495445763632 0.00098693852146056 -0.0038839687446478306 -0.0029404196743132325 0.0016320996055117672 -0.08017479754839207 0.20822248114128872
15985000.0 0.99112574322439 -0.13178717753218816 -0.0005099058558712824 -0.003877333151993671 -0.005995504370701967 0.00041159017367961424 -0.05452372928294404 0.21344496419304493
16984000.0 0.9885786714345728 -0.14070560840867394 -0.000617455794001871 -0.0014544932149303821 -0.0017730822239060558 0.002509139874651941 -0.05895946393218529 0.21396308731711025
17983000.0 0.9862924664691557 -0.14447010491513207 -0.004861338870702997 -0.0018971194899352316 -0.0025649810673918074 -0.0008358849224753276 -0.05386607047759733 0.22649406529121802
18982000.0 0.9843272316118665 -0.16046311623647017 -0.0021887780623208518 -0.001166383163674347 -0.0031500706875688617 -0.004447791166109245 -0.01721549308521318 0.24263067849067024
19981000.0 0.9838427492295096 -0.16340092910849718 -0.0008531268920539607 -0.0062129772027776945 -0.0066870359818086995 -0.005233113905333589 -0.005238919008963264 0.23873002899086326
20980000.0 0.9826727790616321 -0.1732681499188144 -0.004090359392805222 -0.0016164848128238291 -0.002236039268968504 -0.0005278109920518882 0.005777007360357929 0.2577149994113039
21979000.0 0.982514033167746 -0.18071043124415775 -0.00697053313036373 -0.006915143695470226 0.0025763614533345545 0.0011340079793246002 0.01997088691754187 0.25106740881461853
22978000.0 0.9759026733992002 -0.1909222790255075 -0.008823744550165633 -0.0023504836208793917 -0.0006471101291440038 0.0023469021519399204 0.03081243619173434 0.2554805400920788
23977000.0 0.9827434358769767 -0.19611589874539645 -0.002972451402377168 -0.0017967244338812805 0.00041195908146406986 -0.002155393406307832 0.04418931425293726 0.24866795046248955
24976000.0 0.976145344156475 -0.20743469745111803 -0.006865131638207998 -0.0038725254244582528 0.0009188582237934629 0.0007144788448212601 0.06555255085368568 0.2556882830201356
25975000.0 0.972695608701607 -0.222269462836464 -0.0016948711531106686 -0.0034780205763700295 0.025019561625767323 -0.012133135533094122 0.08544824109824022 0.26601856121862444
26974000.0 0.9732464961585087 -0.22447951912855216 -0.004908432396238703 -0.0012662088739439435 0.0027397341764148916 0.002628472518152742 0.09632177951747933 0.25602497109380973
27973000.0 0.972411207487343 -0.22864951113441592 -0.0058396745917986565 -0.004787332264581309 0.004744371396336093 0.0022407753217643022 0.10944429220570172 0.25859152306406524
28972000.0 0.9676930943276506 -0.24154982469167044 -0.002510734526096688 -0.0016081689450944013 0.0012600906958257431 -0.0015107155607834968 0.12221777942785451 0.2600003294550303
29971000.0 0.966691071433212 -0.24992549892579746 -0.0026521031389521842 1.9208710061396192e-05 -0.0003230595052875282 0.000145894929052992 0.14475341777059816 0.27473046939451523
30970000.0 0.9650846007509618 -0.25280248242127035 -0.00030220218177766915 -0.002542617522298196 -0.001332338222182094 0.003189675071510052 0.17543948000568674 0.25579528424178244
31969000.0 0.9635907436293762 -0.263718448595819 0.004585564639478058 -0.004438540276483752 -0.0004795842683932376 -0.00035332857056247674 0.14956283896581346 0.25406007281839105
32968000.0 0.9625531487039094 -0.27121350324087773 0.003984532550555695 -0.0055477375988831805 -0.002831590755292246 0.0025859251140633375 0.17599339362302371 0.25309830536582306
33967000.0 0.9595301130882777 -0.2802970458759724 0.010316866511864274 -0.005465781461902179 0.0001213722098083539 0.0019467029736018378 0.1889458064965755 0.2526610027712204
34966000.0 0.9551826469139606 -0.2899561331640355 0.011898551474123978 -0.01120463492835095 0.0019081908211674584 0.000961015056837436 0.2059123822375931 0.25429815501933817
35965000.0 0.9535504944511906 -0.2983144976562319 0.01438188460090304 -0.016970884434710762 0.00210392792150979 -0.003128009223706269 0.22394502566386063 0.25622640344315184
36964000.0 0.9518305998173683 -0.30770359047516604 0.016037770311451996 -0.012797564794018784 0.003394782973978526 0.00269365742574766 0.2217375668567504 0.2586293577930552
37963000.0 0.9470244818048243 -0.315078162434822 0.01795427656428035 -0.018184210850442018 -0.0010752165266152446 0.001988001339183012 0.2282230163401496 0.24932203313105683
38962000.0 0.9454851153808957 -0.32365675780705455 0.024048936265803417 -0.021436035732693794 -0.0007516093257648128 0.00046384124690713254 0.24362417608831735 0.24146705165982488
39961000.0 0.9411397668185274 -0.3322192733026907 0.024499276847287962 -0.023932366396993424 0.0025239062164200735 -0.003964319155720956 0.2575748958668646 0.23444777994080873
40960000.0 0.939744749066231 -0.34042473481732577 0.021421933665537383 -0.02294694546272589 0.00034964530738373987 0.002662047384261507 0.2824332773337094 0.2261329467736623
41959000.0 0.9359766605274215 -0.3485991711133808 0.029187226836404758 -0.02772799272522723 0.000486987778166472 0.00145713833882905 0.27091939777525653 0.21948111356126368
42958000.0 0.9318273328510461 -0.35772038829748815 0.03291789161980891 -0.038071542820937984 -0.002710292256433071 0.0025676986315607466 0.287474228940274 0.21188629419619132
43957000.0 0.9295213708443119 -0.3639624427612157 0.030513860994996787 -0.04313597491222394 0.0004612886309092885 0.0005731365583749079 0.2906453504953388 0.21889177445587504
44956000.0 0.9257949389264049 -0.37013748298470706 0.03357257414523868 -0.049024206849294885 -0.0008017730674998211 0.0006646028115919519 0.3137007613112442 0.19369782617971168
45955000.0 0.9214101294928309 -0.38221587631207166 0.03186387439229817 -0.05617607649134857 -0.0005544654578131525 0.0016146218207023129 0.3132983473804978 0.19001184961377784
46954000.0 0.9196405445021131 -0.3903260138677115 0.03650903027342434 -0.060149499680165135 -0.001027676826523878 -0.00019869541887474759 0.3354370152621021 0.17968406956948696
47953000.0 0.9154870901009406 -0.3993852375282694 0.03359112730742967 -0.06874303206402851 0.0017475893665727593 0.00526694696297977 0.34567861777875875 0.17940656179629227
48952000.0 0.9114105887283515 -0.40784774678651825 0.03446911989333464 -0.07536683917306683 0.00039037213764257973 0.00048110069622207233 0.34765572802209166 0.1660839242022823
49951000.0 0.9088878323516956 -0.41139051855388714 0.03310327724496232 -0.08246648886264747 -0.004293837070911499 -0.0024373464549928394 0.3558573255831341 0.1571975763643298
50950000.0 0.9055337714925809 -0.42251040573271365 0.038224166123933076 -0.088896745317306 -0.001314875039373435 -0.0016518668431906697 0.36765561952587267 0.1537475701663176
51949000.0 0.9000319157119381 -0.42908978732300146 0.038714900756418355 -0.09878473817640393 -0.004795650122254343 -0.0004703778032453344 0.37239102009864555 0.14603965721642254
52948000.0 0.899325344844553 -0.4363336790728239 0.038116370557383 -0.10457726764537438 -0.004300123362443089 0.0023256804204084326 0.38545696790051626 0.1506635421226395
53947000.0 0.8939672389999263 -0.44426223417802313 0.0415391585007699 -0.11446641300087951 -0.0029104927832725525 0.0008028946300570138 0.3794219608435886 0.13556600182422707
54946000.0 0.8873207957466726 -0.4551033942484848 0.03999914618189835 -0.1228469372445204 0.00026065444863664463 0.001472938945444083 0.39271425582811176 0.12245836408907473
55945000.0 0.8862009083829419 -0.4629602303343654 0.045733402168099305 -0.132430516240672 -0.004783842229070183 0.0007139240728577626 0.38968677798299073 0.10589554844126006
56944000.0 0.8818298419589965 -0.47077067725121907 0.04289464882385124 -0.14448391774629618 0.000997094113827506 -0.0010937524555856048 0.4180680207749517 0.10140973031595414
57943000.0 0.8756791506250705 -0.4816191489896919 0.04494232511502581 -0.15283111175066846 0.0027627730260685653 0.0006568669888980117 0.4097769719718942 0.10268864278928515
58942000.0 0.8706265775971181 -0.48444710241111894 0.048586981720426047 -0.16433652562671205 0.00032901393009733375 0.00256200420779961 0.42901496215478413 0.08652454269355693
59941000.0 0.8690877189818951 -0.4924075126760827 0.05037689053579958 -0.17243289983336724 -0.001484049137143843 0.000958851757803371 0.43473836055775705 0.09289552153340677
60940000.0 0.8611819634722544 -0.5022297338022437 0.0470084330411542 -0.17666085667805792 0.00012378374019685314 -0.00020242769949509868 0.41731276892669406 0.07613512425927779
61939000.0 0.8585698464325051 -0.5064745205169405 0.050264781493753 -0.1826859823999238 -0.0023278612743076335 -0.001994141343254996 0.42293908290205573 0.06798516325293359
62938000.0 0.8536617580034886 -0.5177447631482072 0.052622733959528614 -0.19967507117781297 0.00010705266212741592 -0.0022472325410955413 0.44720429797954825 0.0593075194573117
63937000.0 0.8485723531207157 -0.524235570989962 0.05430819176506287 -0.21837440812157718 -0.002075330990609207 0.0009040285816372221 0.4453953993985269 0.04363571758762191
64936000.0 0.8428366271590417 -0.5316031511147866 0.054598629833198235 -0.23139735081938037 0.0005620000266405897 0.00364526549495808 0.4404004025621744 0.06251757948829038
65935000.0 0.8379015794070032 -0.5421185898788652 0.05429483718188738 -0.24599445664462105 0.0026127523208362524 2.9293112258268784e-05 0.44697532630393894 0.021100294810249366
66934000.0 0.8353531028519559 -0.5454039889408671 0.0574433715891766 -0.25847533058051747 0.0036260782735779962 -0.002709688953272243 0.441492293717872 0.01836179792953668
67933000.0 0.8332286434537198 -0.5550025117396081 0.05756361143947105 -0.2750185440472253 0.0012552124820402475 -0.006489393738289145 0.45574498692617943 0.018895594083726062
68932000.0 0.8272607323121755 -0.5491140154834178 0.05629304589910495 -0.28498377423778226 0.0003560790907071505 -0.0006795303268958414 0.45873640462384124 -0.0034645573730869915
69931000.0 0.8190485658719419 -0.570866315202706 0.05328796695774454 -0.30227071251929183 0.0005138807909073482 -0.00012081467401536256 0.46185122869507395 -0.016303432393533965
70930000.0 0.8108567688052021 -0.5785623154749947 0.05118139144602671 -0.31102198391819275 0.002944264897503853 -0.0013592077381425634 0.4526642689123338 -0.02398327309401952
71929000.0 0.8091844870698773 -0.5871797214613763 0.05312333162596033 -0.3326039018457965 0.0024107887854837627 -0.002307350498252427 0.45859219264617485 -0.028939042103421957
72928000.0 0.8027606646562025 -0.5942455341041545 0.04622147221689812 -0.3464717520943843 0.0016511574188378957 0.0044641647290749225 0.4768966555955402 -0.03963538127479913
73927000.0 0.7941879526954779 -0.6013508903480275 0.040980560570670906 -0.36435051694367543 -0.002679233879649286 0.002548291479862426 0.4747462085077079 -0.03804734861414094
74926000.0 0.7920945360394464 -0.6102952468407845 0.03435552757107624 -0.38329831376227447 -0.001797300211475778 0.002758517059858272 0.47662251374013276 -0.051827208279406255
75925000.0 0.7855314984187085 -0.6157022877804325 0.027918407422058502 -0.4015711295098988 0.002685326335617725 0.001425516719978367 0.47520350212611107 -0.07553565485966983
76924000.0 0.7802487487178095 -0.6235439006632111 0.019673107952004446 -0.4213638403344302 -0.003128060480160763 0.0020339958334658443 0.4815977015554353 -0.07278580472538494
77923000.0 0.7723451238676253 -0.6303705816056953 0.0064777117374560265 -0.4447310996817475 -0.0023432849295454265 -0.0006871629569216355 0.47603981901284026 -0.09800984887358168
78922000.0 0.7682411554956536 -0.6390837904834569 -0.008413037034718497 -0.4699306143033697 0.00021475656411297096 -0.0020901665854961902 0.4815807563456402 -0.1122376088419616
79921000.0 0.7612129799793126 -0.6451193271480982 -0.02556641367691849 -0.492563133631315 0.0010978592314075841 0.0040918802840397405 0.46742118504551644 -0.11133985494711716
80920000.0 0.7554102145927329 -0.6531502940441511 -0.039087094786859435 -0.5189603033897421 -0.0020181568778913387 0.0008844589489172937 0.47229749503757373 -0.1257268402618671
81919000.0 0.7510818878903596 -0.659409376218638 -0.05867792213098253 -0.5482384965610773 -0.0012168629643646571 -0.0018991980152837302 0.48049411926920665 -0.1266568758840569
82918000.0 0.7395107606136871 -0.6692034176097472 -0.06752526300760016 -0.5796510020915641 -0.004040402348319138 7.306808620868152e-05 0.4882597116634547 -0.14017171427688288
83917000.0 0.732636623838608 -0.6763563504044049 -0.09243132471910574 -0.6028405948546193 0.0015315100082785272 -0.00256855782328191 0.474942114482816 -0.14839449118680825
84916000.0 0.7287386277770838 -0.6828945047279066 -0.10827127601798694 -0.6357759028922352 -0.0005604528615153062 -0.0004725764648597146 0.4717863437471476 -0.16295193811580855
85915000.0 0.72321503750156 -0.6871865461987866 -0.1227241353631412 -0.6717269595895116 -0.005678283565242985 -0.0016700660940188593 0.47385720881687055 -0.16259778297469096
86914000.0 0.7161316998903817 -0.6983744140646277 -0.13767027544397525 -0.7042458447617421 0.0030238412260753453 0.0015807114165422957 0.4715950770272339 -0.16834620583986243
87913000.0 0.709083680497658 -0.7047090006902816 -0.15718613015733576 -0.7319822028923663 -0.0019279056700201608 0.0014230892373650061 0.466632665691841 -0.17460866081992216
88912000.0 0.6993904001136537 -0.712034057487325 -0.17454131988601343 -0.7676260172339446 0.0006962743073966028 -0.0021824856145387034 0.4820444867618648 -0.1943098823515942
89911000.0 0.6952107249410638 -0.7204922267532943 -0.18703295571415535 -0.8042297588263112 0.00027019816498321327 0.001211731240403046 0.48412312707829563 -0.19965999753063307
90910000.0 0.6894614836072933 -0.7242856698182215 -0.20244787947693937 -0.8352703164516805 0.003325441217629871 -0.0023248683338392227 0.4721273340964803 -0.20642052876579534
91909000.0 0.6797486231013236 -0.7286208229469253 -0.2165841293797149 -0.8692824688159948 0.00016826465187066837 0.0016079788448719848 0.47669277571912816 -0.2238421513437382
92908000.0 0.6715147120398656 -0.7384137100325374 -0.23828689061326627 -0.8972977119272406 -0.0006115194666769558 -0.001190990414092041 0.4582591589644717 -0.22092783059219817
93907000.0 0.6656141565217931 -0.743966302206479 -0.2522371897037974 -0.9287605841713624 0.0013426656412925707 0.0023142828195128634 0.47393652651472584 -0.24634791835969827
94906000.0 0.6539034824186709 -0.7526720989579292 -0.2697580454644743 -0.9633918773496 0.0030440093763829876 -0.002081102297171491 0.46802887045076536 -0.23955069886055572
95905000.0 0.6492789586005996 -0.7575069507400715 -0.28494289471177436 -0.9980368877603045 -0.0021086450172787285 0.002288983440220918 0.46735717150847733 -0.25739516423117914
96904000.0 0.6377482813394016 -0.7671581737951042 -0.30208162856457604 -1.0338132022588866 0.0005173968706772765 0.0009577801504527862 0.4636847200613392 -0.25895220507197364
97903000.0 0.6294253823480891 -0.7723760855347361 -0.32518750955246273 -1.0653002656467645 -0.0024853074899176763 0.0017547961521097262 0.4604254998301729 -0.2693321810165571
98902000.0 0.6229802285831251 -0.7805508397020127 -0.3410420236644637 -1.1018168569067401 0.0027210804443836734 -0.0007285386510966673 0.45989123653536923 -0.2834199053047776
99901000.0 0.6150962187741811 -0.7869974296493636 -0.3670961055767454 -1.1394643522284438 0.0016408175990579252 -0.001248030084341634 0.4703023160436281 -0.30464079754031537
100900000.0 0.6051588975973452 -0.7890099396964312 -0.39580658051844064 -1.1618816344543446 -0.00037763332214560245 0.0012762917202118315 0.4656899682888139 -0.2931057551467789
101899000.0 0.5991682886461618 -0.7973677430149967 -0.4133015202848951 -1.2043959454661057 0.00047346449477189977 -0.0007906730761341186 0.4625520519877931 -0.30486550080302943
102898000.0 0.587680164392828 -0.8041039235355207 -0.45139963964070173 -1.2335545226005393 0.0006905367938956706 -0.0050516549598554625 0.4559894896078913 -0.3295631300982177
103897000.0 0.5796191095116754 -0.8104053864911637 -0.48339690353792863 -1.2740734752650422 0.0006070076487575563 -0.0006053076831387681 0.4681704760330019 -0.32434961722041916
104896000.0 0.5733087714798913 -0.8216103494487017 -0.525680858878328 -1.307891586437096 -0.002547948473646091 -0.0020190775944585572 0.4450646332933202 -0.32461207586207025
105895000.0 0.5619565673301686 -0.8209154125021004 -0.567545949194954 -1.3459256966792033 -0.0018013235219707378 0.00044095618333791093 0.44871536816212987 -0.3508614538534039
106894000.0 0.5539557137663029 -0.8293090021202386 -0.6186838298372527 -1.380855019660612 -0.0013343854932396685 -0.0005500675425504819 0.44716689588899466 -0.36015364900136865
107893000.0 0.5450767082197538 -0.8357886619243632 -0.6613332905253171 -1.4124844775656673 0.0014102604542633973 -4.528510665545859e-05 0.4322085523859333 -0.38091745757900874
108892000.0 0.5384469734300585 -0.8372047459451062 -0.7120190372639534 -1.4502302612670557 -0.001042955968287304 0.0011886962243495567 0.4297480039284016 -0.3769813289641207
109891000.0 0.5248539326722954 -0.8494989763386568 -0.7705583464416345 -1.4865450345163225 0.0006165195475064443 0.00037715803751139806 0.4532290614816499 -0.368286242716807
110890000.0 0.5141070351364009 -0.8638001845243259 -0.8481562391266089 -1.5021665874764378 0.00044690169525261577 -0.00036244018286241125 0.43803949471563636 -0.3780620712082476
111889000.0 0.5042363129827545 -0.8531878935566055 -0.8821593364074588 -1.547562757399244 -0.0002831551182796038 0.0006043567391177693 0.44120552403253094 -0.38717795391419146
