! Created with skrf 1.9.0 (http://scikit-rf.org).
# Hz S RI R 50.0 
!freq ReS11 ImS11 ReS21 ImS21 ReS12 ImS12 ReS22 ImS22
1000000.0 0.9835168414062313 8.677699233799637e-05 0.0004979948408898753 -0.0637444716872685 -0.015127631396820941 -0.000155942465487339 0.35786558919573996 0.3533347261812598
1999000.0 0.9994301994744796 -0.011186417255400672 0.013047530695321606 -0.01778418918575262 -0.0022441094200404414 -0.009232159490811766 0.2702371645908327 -0.01783371728123953
2998000.0 0.9998064585676959 -0.02232703436021511 0.006925218206150536 -0.013408511921268563 -0.0022837441259433537 -0.010521499672233954 0.1936890170831443 -0.1552406093339157
3997000.0 0.9980469165965726 -0.027590235264747753 0.008296380085197692 -0.004006781418237726 -0.003885978247583482 -0.002743369215582914 0.0783900131196324 -0.21370341918395658
4996000.0 0.9974519443187898 -0.03913391475824953 0.00872898625492729 -0.005625579678423409 -0.002011323575403872 0.00042850495986112555 -0.050633225997652576 -0.2187403610343337
5995000.0 0.9981556167666604 -0.04881671416807793 0.00605935614124055 -0.0001622461151659159 0.002722360851638394 -0.0011492142439365589 -0.12936400769594836 -0.09815220872197737
6994000.0 0.9948701988127578 -0.06065202662981444 0.003897832365701804 -0.0003693886198077585 0.0016221967242982152 -0.0008261906848180632 -0.15576351572511954 -0.020478226899574126
7993000.0 0.993926714253427 -0.06514183336839997 0.0093356694274621 0.009802480454688468 -0.0016165164325334961 -0.0007061564673251803 -0.1699597516578898 0.03955363114036972
8992000.0 0.9938500697951542 -0.07363017711921542 0.001076086844455827 0.006563434332069538 0.004489031888962312 0.003474641557913487 -0.15274030551823906 0.05951462815438738
9991000.0 0.9929782529779918 -0.08328013168418598 0.0031702828666745125 0.004022441467326781 -0.0012561286498139895 -0.00046371661606684254 -0.14959748908099968 0.09473198677901873
10990000.0 0.9918179126444419 -0.09414167031990824 0.0027163138695064353 -0.001191441758890034 0.004598052946903769 -0.0019442081525314024 -0.143829172112572 0.11614239441914458
11989000.0 0.9910808222453423 -0.10249608046406596 0.005242496856121832 -0.0035145130392918882 -0.006795705381667339 0.0027794676024155344 -0.1315171509706133 0.14350950668709342
12988000.0 0.9885431167821089 -0.11004876504401931 -0.0011013164417458408 0.001042861470014249 -0.00199558997695128 0.0015496518948756165 -0.12243494179767879 0.16474039740148438
13987000.0 0.9887243077478745 -0.11920927551363868 -0.0010204969695691132 -0.008687422703402907 -0.0019562290620852964 0.003970927932392236 -0.09501222523220018 0.1855733448910852
14986000.0 0.9870536624817989 -0.12646346124579552 -0.0005849503537038081 -0.0014562287485579968 0.0004482287501084083 -0.0036546786844314037 -0.08655020015390175 0.2048235839773329
15985000.0 0.9877576311502105 -0.1344741095435279 -0.0023930242039229555 -0.009581821304263553 -0.004386113975869123 0.00040877311580698485 -0.06852264930798167 0.22617782331531835
16984000.0 0.9850561859595057 -0.14354481856170084 -0.001955892278438457 -0.002783641038791608 0.0016072089720266384 -0.0026981438392230084 -0.06836454240035279 0.21329275877066328
17983000.0 0.9842298342830437 -0.1514394565368365 -0.0012967940496932903 -0.004044320916851193 0.002035768112038675 -0.0012065701854457073 -0.061949879125031186 0.22485808966253365
18982000.0 0.9831384464606064 -0.16205030035154303 -0.009036607633141553 -0.00727108349949633 0.0034738013644612918 -0.0023104468730241047 -0.02461098235795716 0.2301059840964948
19981000.0 0.9810705577506077 -0.16863307354404503 -0.003152645646759873 -0.008386898868805203 0.0025886417095567034 -0.0009314991399160541 -0.011568845652757528 0.2402602348043743
20980000.0 0.9801381396695619 -0.17572141233808275 -0.005691572707601603 6.085092588089442e-05 0.002496702783215929 -0.0011902260280643466 0.0008798853025566863 0.2628972859467818
21979000.0 0.9779324200020082 -0.1867013315593006 -0.005514189991591399 -0.0051568571959123765 0.0009573277569505897 0.0038956172754355573 0.023451102581238663 0.24002077328226037
22978000.0 0.9772461171114832 -0.19401804425240757 -0.0048880810863538016 -0.008529312226178042 0.0043777272136126645 -0.0007057823347350788 0.02821513609352675 0.2661158021247024
23977000.0 0.9778168394999984 -0.19948756763325948 -0.005774382991509316 0.0017117611949007147 -0.0016996504198928915 0.0019884033428250714 0.04131310286099685 0.26241555157641994
24976000.0 0.9722233432265482 -0.21498296791465438 -0.004879620510343224 -0.004027781825960503 0.0013398232937539027 0.0004178168261935405 0.06648969353833688 0.25252967204957927
25975000.0 0.9699824893648079 -0.21841920436319295 -0.0031131945735682746 -0.0010868163160562374 -0.0267799039349134 0.007388565678615152 0.07154432909195137 0.25407916959834104
26974000.0 0.9711781214169652 -0.2283424912494701 -0.005642190641552869 -0.002179823862717633 -0.0017086976399519596 -0.0007691653100261373 0.091844810322417 0.2692209058071071
27973000.0 0.9682745018835827 -0.23686433886741975 -0.0011944909416344942 -0.0015117586104775919 -0.00020144975522858003 0.002930272501041387 0.10438483951690614 0.2618673870053882
28972000.0 0.964948472567315 -0.24700421574541143 -0.0002922623019450233 -0.0028918416285297842 -0.0024976793279341196 0.0009814876083326606 0.10969388701807699 0.2604425363796501
29971000.0 0.962934403638654 -0.25571282889028024 0.003787485155225958 -0.0034876719563260244 -0.0029513803653875926 0.0014687943951774186 0.152411310046301 0.26185926414578176
30970000.0 0.962098053269625 -0.26138979993832523 -0.0005737397637800329 -0.001716995436504894 0.00046422763099417596 0.005796647333409419 0.16355093522606767 0.25302580920467105
31969000.0 0.960239422756423 -0.26952956435317327 0.005698694642940334 -0.006745010379133834 0.0004728826345771948 -0.0003282738013858725 0.15534031509374674 0.2436580726111398
32968000.0 0.9572257107591313 -0.27833712388877624 0.007179454999110633 -0.008625562708829224 0.00046110278800278305 -0.00021044790060264435 0.16290325582329346 0.24661263799361663
33967000.0 0.9554203971767576 -0.2881545934799699 0.011243704517028552 -0.008537996468765475 0.00029096785570442214 -0.0019341208888194582 0.19102504869797818 0.24307860869055314
34966000.0 0.9527772784552095 -0.29672854619244887 0.010893126999092556 -0.011785133116840077 9.769982369335675e-05 0.0016722390639712034 0.20272022164523817 0.2594209558769405
35965000.0 0.9488170798895237 -0.3054451559280609 0.016107567447595884 -0.01678885026114503 -0.0017519282414544858 0.0008064672113348397 0.20921006442692902 0.2523165500764471
36964000.0 0.9465566926489603 -0.3137543146196748 0.017142048050317656 -0.015595117740196791 -0.0018890445123138924 -0.0003358338610470495 0.2186043489813516 0.25275911597890877
37963000.0 0.9449431283458272 -0.32278336539543284 0.020134968363979364 -0.02138493724193621 -0.0022296982533784333 -0.0013213857089363296 0.23192009384939105 0.24052686981476654
38962000.0 0.9410344330134208 -0.33088567618304293 0.024913553824894467 -0.022207765083954 -0.0010716551507990238 0.000948469368313981 0.23418875902667302 0.22939530869341435
39961000.0 0.9378899575571925 -0.3411745861159176 0.02778907737790204 -0.02595497378259075 0.00026082343060595674 -0.0002715007200873317 0.25279341123845556 0.22758319340941044
40960000.0 0.9348354150494383 -0.3477584137563666 0.023895504115696232 -0.022854693767730607 -0.0026288447414970603 0.0005646338698902619 0.264757498568338 0.23207330739410006
41959000.0 0.9314121704438679 -0.3577380902700231 0.031125968890297926 -0.02983642537470274 -0.004228644772074225 -0.0016670573828483914 0.2633275456358103 0.21775783767621376
42958000.0 0.9268835009430979 -0.3665109895261891 0.033902397598336666 -0.039673642426229234 0.0012643682580712912 -0.002437725208669297 0.2836111658810335 0.19637706187740175
43957000.0 0.9242394658748796 -0.373829227381056 0.03332049794547035 -0.04811312680335696 0.0016483998208706035 -0.0002909290887531906 0.28113982652290526 0.2106831254767945
44956000.0 0.9214530698436486 -0.382136847200994 0.03621255307591071 -0.05227591156760779 0.0029057846227740114 0.0034018294450854085 0.3000573368694539 0.20091846314067574
45955000.0 0.916655537142367 -0.3914027737960458 0.03520136634847852 -0.06026628926771752 0.0002631812764588905 0.0008944341846589211 0.30686993441957316 0.19545038627315853
46954000.0 0.9122488838086241 -0.4008714028649582 0.03949706966240029 -0.0627425437636497 0.006754339086559275 0.002039761019403404 0.32724775039329174 0.17507600820937697
47953000.0 0.9115398872891857 -0.4074615622188412 0.03705170891254551 -0.07055827888936915 0.0014273975627503085 -0.0008953971998389757 0.3359250186649076 0.17058558811336177
48952000.0 0.9063732504880486 -0.4165477963928378 0.03809645507042541 -0.08093331591351646 -0.0013380711554323603 -0.00034904026816530507 0.3375319695483211 0.16495927236997393
49951000.0 0.9017052528698786 -0.42539570739708715 0.03889504943264792 -0.08968421781942393 -0.0039128468237308615 0.0002428966721042279 0.3527577100339448 0.16358610522170675
50950000.0 0.8981504483795544 -0.4332314506364991 0.03977442437425641 -0.09556186542652124 0.002693485766334299 -0.0027637709443719344 0.3534393803128007 0.14816509389563864
51949000.0 0.8953915138473748 -0.44103876060399305 0.03876362567709488 -0.10337587941379783 -0.0031763137783716346 0.00037653582329774774 0.3683938834260859 0.15009554820595916
52948000.0 0.892495608354898 -0.44786678743150893 0.04118213774489625 -0.11204614276382027 -0.001333507620113873 -0.00012994074906788792 0.37504833419027417 0.1508784730274681
53947000.0 0.8853615093068786 -0.4563757101247237 0.041355904940791825 -0.12066066721851901 -0.0017446350590988346 0.0016154365055808307 0.3740348225861428 0.1259276020972078
54946000.0 0.8812585142296303 -0.46535691650794736 0.0435467744753577 -0.1302452992222074 0.0022571096100897805 0.0031969494413487927 0.38266734784726447 0.12026360327439352
55945000.0 0.877488558293824 -0.4756324468625181 0.04726762189438883 -0.14308623980431906 0.0035922281728890362 0.0007604160194599366 0.3880930201975105 0.10160336361329139
56944000.0 0.872537872262006 -0.483917457007382 0.04791201453878655 -0.15604040018958265 -0.0009048509468046976 0.0008510390522218368 0.3950939689567589 0.09856686895197421
57943000.0 0.8694272346689784 -0.49413350634808506 0.048011107906852514 -0.16059991071929824 -0.0006079125616959556 0.003113964299211097 0.4029258161455152 0.09319423324734465
58942000.0 0.8627624289561113 -0.4965509267252965 0.04948001863841553 -0.17622291824715097 0.0025493841737364185 0.0032401092603185893 0.4312651687038786 0.09675045003732624
59941000.0 0.8589305344522327 -0.5076959326709265 0.05307034164529704 -0.1855830272198712 0.001457486084982538 -0.002173253629809985 0.41518145441553145 0.0971663520159834
60940000.0 0.8514146147178765 -0.5154196826090464 0.05362961420043871 -0.18709785418190156 0.0008454252406039868 0.00018151046887629105 0.414408919589612 0.08156396133348659
61939000.0 0.8491899859262387 -0.5211117107411755 0.05549002069278156 -0.19627396673467593 0.0005198675821214029 0.0012660212988604286 0.429368845038298 0.06453573053338793
62938000.0 0.844370031009469 -0.5312248705765465 0.05818563001773612 -0.21122544335330232 0.001535496112388104 -0.0007806029334975748 0.4430019254115999 0.05741477450365273
63937000.0 0.8383902049686965 -0.5389230902991139 0.05573241766920869 -0.2312606398835627 -6.114763094775166e-05 0.0014138839207952815 0.43098649618615376 0.03954172719333939
64936000.0 0.8310978475522407 -0.5455346925457927 0.05893848968535033 -0.24299085664456566 0.0006527340709871667 0.001157733875180959 0.4411429476259705 0.04977741222110956
65935000.0 0.828613385126544 -0.5556996476642123 0.05861347654548885 -0.260871858655282 -0.0023693458325850024 -0.0030983680926597607 0.44203598044331327 0.021756134418165308
66934000.0 0.8247572951391133 -0.5599858792816239 0.05828869568187329 -0.2752707974420751 -0.0005622520749885029 0.00584839052982204 0.43650174401654446 0.011972025265388165
67933000.0 0.821185759097163 -0.569527924152114 0.057272551002684115 -0.2866409193964723 0.000991407965524216 0.00010899169713044621 0.44712302022427525 0.007087886309213187
68932000.0 0.805268611907662 -0.5729090013163585 0.051475095893308134 -0.3014714278899822 -0.0005729834909012447 0.0022708592096392995 0.46131096492200335 -0.01134300017721081
69931000.0 0.8063830579131261 -0.5846787632364252 0.05621934254748319 -0.3160885442543256 -0.0013371904545341636 -0.0032430687339775445 0.4551002151085527 -0.016805825653893536
70930000.0 0.8005129607769149 -0.5915267848924319 0.049955126175595846 -0.330443947653744 0.0009675515230598913 -0.0012090272105409726 0.4462616053042747 -0.03260113446648353
71929000.0 0.7977956679796767 -0.5999073082884234 0.04730233422433888 -0.3505271051158939 0.0014198642914787635 0.0020163020661556415 0.4517528141619513 -0.038255100026108026
72928000.0 0.789343315419399 -0.6111129848953557 0.04470257522140535 -0.3654481486082322 -0.003067398890007936 0.0018929201194392974 0.46358826596107855 -0.04587986643660084
73927000.0 0.7830676754522284 -0.6138245354063679 0.03669393023914928 -0.388266905930636 -0.0012784582769452021 -0.0022549844160681697 0.45851106380517564 -0.04927286925211675
74926000.0 0.778921060742481 -0.6247177943334158 0.029350662524070207 -0.4039967765900642 0.0009348140734424673 -0.00432210640174648 0.4563834862592346 -0.06681801362527202
75925000.0 0.7699427009320388 -0.6309150206529222 0.020777129521716568 -0.4243241414494912 -9.602353317246284e-05 -0.0027776704085290746 0.4732605259519653 -0.0748869805751917
76924000.0 0.7658157201458785 -0.6377579869522996 0.007057223698834084 -0.4479931787035095 0.0031958503122825823 -0.00010856144750012022 0.4667599423677375 -0.08025899685933266
77923000.0 0.7592058508504449 -0.643826464945681 -0.010657981547561588 -0.4724789854229835 0.0015882379804931168 0.001212748610602851 0.461621980744474 -0.08939990627818618
78922000.0 0.7534664248165724 -0.6543950531079313 -0.02207478765993263 -0.5000239679265575 -0.0006525890971383284 0.00020715923275147895 0.46401042410874294 -0.1029266094235329
79921000.0 0.7448490206097462 -0.6593996986606088 -0.03905052635303151 -0.5267788605046629 -0.0019226731854853315 0.0028721125626123513 0.46363245812714765 -0.11788715924976156
80920000.0 0.7413332665227421 -0.6698869804039492 -0.05626531408706922 -0.554934809115164 0.00028526934408704027 -0.0019369267167513463 0.4748268916210415 -0.1259916743419964
81919000.0 0.734208825974613 -0.6744436306400858 -0.06945820078303967 -0.5851912561718459 0.0015872357609731413 -0.0015957134058432966 0.4710698202380928 -0.13146190200149618
82918000.0 0.7249939273109915 -0.6821441348147652 -0.08398902490820342 -0.6147004222098511 -0.0006075664940514605 0.00018311739680056794 0.4715813126934121 -0.1374522446792278
83917000.0 0.7187059879348556 -0.6891374387853145 -0.1042396178446665 -0.6403285861841542 0.0032649541671469864 -1.981683560837293e-05 0.4729921034456896 -0.14252792986647236
84916000.0 0.7125482328321824 -0.6972162146850386 -0.12061395492807385 -0.674676252529025 -0.004092520134333108 -0.002875292139605665 0.46033611894508364 -0.16629769078245735
85915000.0 0.7054155966275275 -0.7053495895565755 -0.1417716862666606 -0.7051988911627041 0.0012589538725962255 -0.002904244840438038 0.46186788290971265 -0.17022013410140405
86914000.0 0.6963151057968862 -0.7142272513283648 -0.1556157166594603 -0.7463736474511695 0.0019315428396624158 -0.0020010947979915523 0.46388102780258395 -0.16914138367004786
87913000.0 0.6932180194908845 -0.7191955501239811 -0.17813246893324725 -0.7715224661801792 -0.005210972486768936 0.002963173486405608 0.45994091037990353 -0.1843734531973233
88912000.0 0.6816838759738915 -0.7269381081070191 -0.1910604796833921 -0.8079342963831602 -0.004639793524581944 -0.0015163303644811232 0.46237553154732547 -0.20038920230224044
89911000.0 0.6768790158319424 -0.7354415648264525 -0.20775470119097517 -0.8478424894926231 -0.0036120296340896767 -0.002246805042734682 0.4653158238907641 -0.21295258865263747
90910000.0 0.6691481314976754 -0.7412301949955692 -0.22200869966905903 -0.8789862043395525 0.0010967828917369375 0.0018393167915541795 0.4671007827855274 -0.21609531143721636
91909000.0 0.6589399278836181 -0.7446228506631611 -0.24119978957362748 -0.9092172988849463 -0.0010567630031176273 -0.00044564036627959744 0.4596547739918631 -0.21075558909430903
92908000.0 0.6532927721823157 -0.7544930153443072 -0.2576324325168843 -0.944376475977898 0.00048724047443827226 0.0007324090438048723 0.45741818078648644 -0.2288472058273406
93907000.0 0.6472917903903856 -0.7603397136926421 -0.2792424926548939 -0.9734119064203404 -0.005281847245685304 0.0016753851168154073 0.47000593774400584 -0.24638184184386985
94906000.0 0.6305680645971483 -0.7676938783969861 -0.2950529918523496 -1.0065803511180702 0.00010073367597023256 0.004556135196772537 0.46662884853702125 -0.2440654368525247
95905000.0 0.62457141401492 -0.7752604526689101 -0.3205651943415914 -1.0387059442723614 0.003452421014198572 -0.0019194249683746705 0.4580106804331909 -0.27335595388087947
96904000.0 0.6180672619751466 -0.7816761760854334 -0.335273794065219 -1.0840390763312515 0.0007401610096945184 0.00020344795099727845 0.44975679329344764 -0.27388609355605287
97903000.0 0.6088549334707749 -0.7862384925894295 -0.35715324624609446 -1.1121816208231805 -0.0006271168611944985 -0.0001230375953510554 0.45172294111603384 -0.2845169056444277
98902000.0 0.6022960976764916 -0.7950200423289152 -0.3785412018826868 -1.1554035017595414 0.00041640071325954424 -0.0031412377814641706 0.44396607852923375 -0.28823533072885815
99901000.0 0.5916932648755489 -0.800297118691498 -0.40457880850557243 -1.1815254865965488 -0.0015972168510738523 0.0003525774943395101 0.46088149477206575 -0.31345897301348113
100900000.0 0.5843551610561167 -0.8049476772294457 -0.4413952219122229 -1.2109894404717405 0.0023601207262580947 0.0012366782034369187 0.4678222087914099 -0.30887150057350143
101899000.0 0.575918925569014 -0.8114357868201479 -0.46683100046983284 -1.2495938997787783 0.001134483822578465 -0.0005576693574724668 0.45200149180802923 -0.3223856685653319
102898000.0 0.5643288090204277 -0.8192568745726737 -0.5061047470019638 -1.2859586922362936 0.000502863586755094 -0.00018975420061964897 0.4512150571771381 -0.34036577577164245
103897000.0 0.5580554300909323 -0.8254889243927048 -0.5403238909488794 -1.3263326207350339 -0.0001519069693914803 0.001272313685004209 0.45860144875764214 -0.3284940480547429
104896000.0 0.5503051667059053 -0.8350402916038159 -0.5887955603507476 -1.3561683034123195 8.467081816311186e-06 -0.001230214388143187 0.43478962600376597 -0.3371290658034477
105895000.0 0.5374635349942031 -0.8363844924773145 -0.6339950513395656 -1.3992655228290096 -0.0012016620535832958 0.00025654867339157384 0.4433795965548699 -0.3594496933978951
106894000.0 0.5276981185575529 -0.8440881278917616 -0.6877174770315327 -1.4335433789465122 0.0024909353814932308 0.0008486730919890009 0.4333336235956127 -0.3597542986018316
107893000.0 0.5211824148273924 -0.8505134646621932 -0.7340113521442464 -1.4722228683770588 -0.001144891200824491 -0.002873859257701158 0.428530500396504 -0.37422454782512854
108892000.0 0.5130320414155057 -0.8517503055949194 -0.7998028751587434 -1.5128494084514188 -0.0031179359314861812 0.000842368142410075 0.4363224986659354 -0.3748178847052457
109891000.0 0.499463334156922 -0.8617158562791164 -0.8549482930962276 -1.5520315050062121 0.0018979430840442813 -0.0032822791026249553 0.4301023176639559 -0.3654096522385438
110890000.0 0.49092005739084 -0.8619858523991994 -0.9117929097223468 -1.5621833871476345 0.0005698590008525348 0.002577806247456032 0.4355958430336908 -0.374773026478385
111889000.0 0.48003383384944875 -0.8663730516410352 -0.9826974332953081 -1.6159422114032462 0.0009057325723526084 0.0010808064393592995 0.430761910131649 -0.39303475224556567
