! Created with skrf 1.9.0 (http://scikit-rf.org).
# Hz S RI R 50.0 
!freq ReS11 ImS11 ReS21 ImS21 ReS12 ImS12 ReS22 ImS22
1000000.0 0.9762863389940615 -0.010539369484576516 -0.004281527899017676 -0.028801005263949266 -0.008738210976253146 0.01506276801448157 0.4249432128850372 0.35787751203441376
1999000.0 0.9973436315878582 -0.01184449877127712 -0.002409951152929694 -0.017195069370508305 -0.0054767933662731045 -0.0009438972286514621 0.25289552580522207 -0.03277711049971093
2998000.0 1.0000222994199166 -0.019186465941196516 0.00920564005608483 -0.014948573488069236 -0.006121844279012758 -0.002059747390462908 0.1734131560240308 -0.13860952203865778
3997000.0 0.9986993532757952 -0.029512570314160966 0.007868709178931605 -0.011374455157830528 -0.0019248272527729396 -0.000987305651499361 0.0802261468117911 -0.2406571548215904
4996000.0 0.9977314428186013 -0.03601806501912803 0.013933470615898178 -0.004826671193721614 -0.00034606171512849504 -0.004463221010631932 -0.05912699211391279 -0.203768006057014
5995000.0 0.9966856822157714 -0.04533241916302783 0.01254182682261189 0.0030855228591136603 0.002244517990140625 -0.001239517121477186 -0.13249063946726214 -0.10368307039992575
6994000.0 0.9926489330777711 -0.05808306538572638 -0.0008786838822344854 0.001878822165833247 -0.003002809621459036 -0.007327510911890411 -0.15902593952143732 -0.016377980563065803
7993000.0 0.9965176010058036 -0.06537967199855012 -0.00024251965104667245 0.004649207038891385 -0.0039126511822555774 0.0012296879069479507 -0.15062934415538284 0.031175705022969884
8992000.0 0.9937987147099537 -0.07299523063415886 0.0019340114987737927 0.003152662281486989 0.0012615566607957 0.001783936013791415 -0.15843495651939865 0.05844617181181553
9991000.0 0.995739742412833 -0.0841438187751475 0.001394086996678573 0.005847090945922743 -0.0018718708142879523 0.0002783294092365344 -0.14282377004604646 0.09863701876473172
10990000.0 0.9936131029322994 -0.0934536563289405 -0.0018752788461756991 0.0028369258188373444 0.00482201573779874 -0.0021912159950404843 -0.12374668318288405 0.11637524342502972
11989000.0 0.990602962078149 -0.09914337905275003 -0.0004119080104873626 0.0007974908358008529 -0.0012933059887212204 -0.002015501511990955 -0.12226204374623668 0.13295146916071782
12988000.0 0.9917877027087469 -0.10729611445297646 -0.0032157199230947215 -0.005725649653507597 -0.0035600958898411657 0.00038092388099466424 -0.10622565259328168 0.16448565478220717
13987000.0 0.9890570122454346 -0.11840296500567093 -0.002545014790649068 -0.0006837966451200842 0.0017433502693952724 0.0021389019891288686 -0.09929535172131755 0.18708809022102355
14986000.0 0.9879925388544852 -0.12305197412828622 -0.0013319599751142074 0.00042155918325872114 0.00035517588973426234 0.0015769740650475122 -0.08873381603878994 0.2173141179560228
15985000.0 0.9927781685559799 -0.1321006907273172 -0.00014121775894240275 -0.00286107312492975 0.0030074851860807193 -0.0027942656144334275 -0.0713726720062577 0.21070401932010496
16984000.0 0.9850082170798045 -0.14304854517703028 -0.00036142639624949386 -0.005918486008150658 -0.004020336729488362 -0.0008423252007246517 -0.060668575164795464 0.21924960629320084
17983000.0 0.9864320480609942 -0.150508674777212 -0.0019741626325766055 -0.002320123135425835 -0.0001494697950474489 -0.0004180465597962428 -0.05199673934007612 0.22487168244543415
18982000.0 0.9829528236183769 -0.1612524581569533 -0.00483476272145661 -0.0033392511850733058 0.0006767433769109319 0.0002685751322743571 -0.020738544552298146 0.24525670501762503
19981000.0 0.984103579358053 -0.16403457857314152 -0.006905136642480333 -0.00599189973955468 0.00014400418140327455 0.003342766401405185 -0.020989892283005365 0.24213726067088032
20980000.0 0.9824462300148608 -0.17402232200090642 -0.003921180431047301 -0.004825732596370391 0.0004320909550079764 -0.004463661082814901 -0.005146237292907006 0.253184824549266
21979000.0 0.9813993223532418 -0.18233760081123657 -0.006978094903288472 -0.007410937673439135 0.0006574860353910733 0.0039836818224182665 0.013692708173759345 0.23909633431183813
22978000.0 0.9798940610182371 -0.1899329126249255 -0.005778180181342127 -0.0019289572179665023 -0.0004069116550772395 -0.00014290612811318368 0.03945906176647197 0.2527823353907463
23977000.0 0.9782773011297542 -0.20143928840046132 -0.004181748106168713 -0.004425342274248896 -0.003169832572319925 0.0001614458069713958 0.047423103170489124 0.2607204308564466
24976000.0 0.9767582502145763 -0.20878595544422768 -0.008992095205039864 -0.0036600417578627554 -2.7277650098328275e-05 -0.004937857859659906 0.07621341896986936 0.2604194541964236
25975000.0 0.9694973837551348 -0.21371317589692285 -0.006839208982857056 -0.0006633827161362792 -0.029074046186258327 0.0026746418612063993 0.07063508375459294 0.2686930310356814
26974000.0 0.9712143933497345 -0.22610767150918867 -0.0041528103020617565 0.0002210015898262809 0.0001389218689368915 -0.001756794355083113 0.09568107537499175 0.2629093938148372
27973000.0 0.972505896054323 -0.23043876211605135 -0.0014065080902559998 -0.003574009372643617 0.00031072140175267553 0.0027593788067501444 0.11342384623590357 0.23950346020476218
28972000.0 0.9672961665254753 -0.240464295640995 -3.055753451697303e-05 -0.0022756166415743235 0.0009516383413059763 0.003043118840376828 0.12071810157384429 0.24769587386633435
29971000.0 0.9660201829693413 -0.2497035649963381 0.002326701291499538 -0.00048739667031524 -0.002468132279508073 0.0015713610240330777 0.14582397522579627 0.2635835755341109
30970000.0 0.9641791438971467 -0.25620657024121263 0.0026161625246821536 0.0002558278053783471 -0.002833547541336967 -0.0019156454351949442 0.1668959748529449 0.24769985962629287
31969000.0 0.9614601614568733 -0.26578126986927253 0.005912348722699463 -0.0044864560046983665 -3.092823534904786e-05 -0.001223010744087346 0.14976294658670453 0.2463786782874441
32968000.0 0.9587675826630985 -0.2748052953772156 0.0073685753088809135 -0.011552871410941547 0.00174000960351781 -0.002569922877007361 0.16244848489800448 0.25316712128620256
33967000.0 0.957145499520331 -0.2844898405443964 0.006480593732913329 -0.00839161242858156 0.0012212813426151748 -0.0037501372856710295 0.18640944763637085 0.2471545998861909
34966000.0 0.9543369144421122 -0.290514586014383 0.011058104832921434 -0.013691879046504887 0.0007784029610536355 -0.00021421451349741083 0.20054094388840804 0.25454697234370394
35965000.0 0.9511196095361095 -0.30063910526390064 0.015990454779692145 -0.014289491889798627 0.0015637691571414834 0.0022743842228113123 0.21523708277646544 0.24452629529536687
36964000.0 0.947648385817593 -0.3068739381021305 0.016225068584706924 -0.015076049783400044 -8.988510472474691e-05 0.003045217292249054 0.21967993244791267 0.2531869319883641
37963000.0 0.9453882664091553 -0.3184358616737319 0.019125441325055538 -0.020232124626243728 -0.0021474353553025322 -0.004445860261186432 0.2244146246956581 0.2407042539460134
38962000.0 0.9433145637564071 -0.3278921712042839 0.02571467678974521 -0.024717905918563144 -0.00033585157100293853 -0.0005426560022139792 0.24517779492639832 0.23166300971244624
39961000.0 0.9404604349619571 -0.3356564041161234 0.024365464248163236 -0.028169940878735956 -0.001790119495948017 -0.0005445356892829134 0.2535450779253533 0.22293435701978848
40960000.0 0.9373391222148018 -0.3399904486769959 0.022384055132456948 -0.023989578083974877 0.0024638724558544273 0.002512749944837702 0.2678559050009512 0.22504067580355647
41959000.0 0.9345963731986832 -0.3513562940504521 0.028225666313285463 -0.031782979995290915 0.0004820719908141347 -0.004646462632118814 0.27254364390507946 0.20869196408089424
42958000.0 0.9316990462174667 -0.35976345475251226 0.029840073902718874 -0.03994005400109364 -0.0013729440869307801 0.001128881661363053 0.2918135720425474 0.19776249557681302
43957000.0 0.9305536000941552 -0.3646432509396095 0.03040305989992469 -0.04588043284910891 -0.003384032585764147 0.0030914199548243877 0.2920216940583201 0.19914975117059244
44956000.0 0.9250760162891654 -0.3745642775633683 0.032506583822897867 -0.05105308232912989 0.0018615040690554098 -0.002873844769953686 0.31268748551308834 0.1815247564700258
45955000.0 0.9222295596667592 -0.3821597408504137 0.03398606326396042 -0.054639162826566806 -0.0011465337232940632 -0.0003183108097417557 0.3082834319468325 0.18625561370622554
46954000.0 0.917675552264071 -0.39278961661662104 0.03119617420552899 -0.06460637524067024 -0.0013911430571789914 0.004791239921049945 0.323694373919221 0.17432021328016867
47953000.0 0.9136422305184434 -0.40123717681476556 0.032458654720394435 -0.07442802679046527 -0.0009198698227989408 0.000631292993900491 0.34351335514507725 0.16446197807083568
48952000.0 0.9086855735028434 -0.4116437307196704 0.03278969668102063 -0.08142867085779223 0.0029787299309149717 -0.0008019471536206655 0.34163078070503144 0.16904953692592803
49951000.0 0.9057608770427575 -0.4146295621620999 0.035236357936950714 -0.08337524687854958 -0.002635987429538668 -0.0027927344891188863 0.34935304069962264 0.15198454709584067
50950000.0 0.9024109762125875 -0.42518551594338755 0.03763225687563256 -0.09323713189591584 -0.0035942097688074106 -0.002936005827294861 0.359970680260616 0.1396473790864309
51949000.0 0.8981514217338427 -0.43293780816472605 0.03465796180413695 -0.10358721603553686 0.002837763828352196 -0.0003991242039715069 0.367521423005808 0.14396962795251633
52948000.0 0.8972772273561894 -0.4406104460472871 0.0346326161013674 -0.11226970339292479 0.00047250694335232386 -0.0005962697751570541 0.3785981290894813 0.1341054678637095
53947000.0 0.8921877589693848 -0.44796895723497043 0.03963611018402468 -0.12030757996169592 0.0039041371039376643 0.0006854209624320154 0.3762838162934331 0.12137193712160119
54946000.0 0.8865477167184576 -0.4580458180480307 0.04210910407292708 -0.1303405987733116 -0.0004916212360574929 0.00026515425988337966 0.3816159242000473 0.12020996019441885
55945000.0 0.8835367358396682 -0.46650226444764925 0.04285275787187559 -0.13930537133213639 0.002396652949240501 -0.001314116233442388 0.3948570699619476 0.0988080657532858
56944000.0 0.8799654817381132 -0.47365253584712336 0.043523943372516756 -0.14919922882946127 -0.0018534118468387902 -0.001102516655201918 0.40407200210127525 0.0989135687734851
57943000.0 0.8733507736893336 -0.48468685022109104 0.043478602057278735 -0.1623225306525092 -0.0013412630906396677 0.0026387911488573185 0.40954906984637357 0.0896318428585524
58942000.0 0.8687951533869462 -0.4878894279858426 0.043372014601010526 -0.17254757586303476 -0.0017038896298530357 0.0015217282100556872 0.43215544203717443 0.08170622623774983
59941000.0 0.8657277393334251 -0.49703616277755586 0.045468378247147986 -0.18169157169936165 0.0020960192843901557 -0.002976248279506362 0.40996293884176394 0.09128072746458658
60940000.0 0.8578331518984585 -0.5046699122881768 0.046824043049342574 -0.18336205902845146 -0.0013115100160834055 -0.0030733835322349383 0.40918622864735343 0.07212930086723278
61939000.0 0.8560413258993311 -0.5112305919959361 0.04569142051859478 -0.1895710403808634 -0.0006477665112543407 0.0022285388949754453 0.4197107041448665 0.062089052652704896
62938000.0 0.8504364923472416 -0.5207540503473016 0.04998142781642236 -0.20939015668944844 0.0033195154474828224 -2.2547212508849737e-05 0.44349350320289443 0.0474039645897287
63937000.0 0.8430492711975784 -0.52884529181343 0.05031268634035471 -0.23180415944321853 -0.0005476159278368862 -9.606762156437678e-05 0.4388428446778041 0.03247864473780896
64936000.0 0.8390364108833323 -0.5336745760489402 0.04779939716825988 -0.24038425403339328 -0.0014071157165200918 -0.0030855110841353575 0.43228719613310146 0.035249539013601894
65935000.0 0.835880779613883 -0.5445108894412372 0.047711546751521436 -0.2572980690229474 0.002690543268771977 -0.0013933209917911258 0.4416926439902338 0.008619076756046213
66934000.0 0.8302024250606463 -0.5513784385632267 0.049416732361463184 -0.27042107725906933 0.00020062598318782256 0.0005284482767896206 0.4408366334564344 -0.0003175475355076345
67933000.0 0.8289436773418914 -0.5592566441329972 0.051121509896832076 -0.28043462379869943 -0.001761943252122414 -0.0018319697864048663 0.44865952674331805 0.0166742675887717
68932000.0 0.82258083667971 -0.5519267072314115 0.048872260465327416 -0.293893976591592 -0.0007793587472453481 0.003029718929952605 0.45089723357248246 -0.007792481438679975
69931000.0 0.8128853237499616 -0.5753765161456628 0.04754402706242029 -0.3121207773357741 0.0024312914502613043 0.003555179855982857 0.45474824217668464 -0.029451522250223405
70930000.0 0.8094785116002648 -0.5803208134354824 0.041831098904690944 -0.32384027168534174 -0.003357726446769745 -0.00037929835398010984 0.4499390858623668 -0.03519980854816812
71929000.0 0.8040316430774346 -0.590930522947665 0.04050994777712893 -0.3416547561575197 -0.0030669703810206777 0.0009770974544751807 0.45649210548866154 -0.044039481869893905
72928000.0 0.7987242261154758 -0.5989674290528946 0.03435949225293663 -0.35652853002643475 0.00132720682964928 -0.0011730664876008975 0.46723653879462274 -0.0544929884156759
73927000.0 0.7925642270638303 -0.6057889579537687 0.029964044927790784 -0.37807536240177 -0.001510661781611286 -0.0016925540110965486 0.45853126162582913 -0.070298909864844
74926000.0 0.7879512609465347 -0.614261788344974 0.024502135449517338 -0.3961081627642296 0.0007395359319130591 0.0033094237834622336 0.4654695103236175 -0.06932464616845725
75925000.0 0.7819173809375978 -0.6188015271762728 0.01070496878047128 -0.4121603009006315 -0.003568831029098738 -0.0014584813191268662 0.4690074539571221 -0.0852605667917939
76924000.0 0.7743695513565048 -0.6264654246468241 -0.0008269956846030234 -0.43513877729540223 -0.0020381840237780617 0.00043772694456689566 0.47112238602407513 -0.08557354375613017
77923000.0 0.7677958231494708 -0.635488836090947 -0.01412894316187102 -0.4577242411136738 -0.0025342598560299146 0.004347523631323381 0.4683195792246417 -0.0942170897706705
78922000.0 0.761871920180135 -0.6435340378356331 -0.023480645876987435 -0.4837958359051466 0.0013273189559866708 0.00419573561231859 0.4668701542497408 -0.11395060825122087
79921000.0 0.755645619300126 -0.6479037897655247 -0.046882830769857546 -0.5061822179694728 0.0026557823773862873 0.0023080958551291667 0.46547874269313033 -0.12535873556247504
80920000.0 0.7510688679785993 -0.6578507019600612 -0.05937987120958365 -0.5328781887128552 0.001389624342140904 -0.0014563425312162862 0.46494804818334773 -0.1331598851249705
81919000.0 0.7460346930634649 -0.6637390970386644 -0.07741118505195475 -0.5597272299244088 -0.0026058134629084306 0.00242103387153612 0.4597293170770284 -0.139477804513439
82918000.0 0.7356938072979119 -0.6705142613781625 -0.09247249611266002 -0.594028372449241 -0.0012444363762343633 -0.0003775951708558862 0.4800194764260775 -0.15217146515899235
83917000.0 0.7270604047242809 -0.6798127448247531 -0.11394004087850489 -0.6190561571074182 -0.001791631712900479 -0.0009058187935179394 0.47200790587039737 -0.1708770453303839
84916000.0 0.7230764584404932 -0.6875632382182411 -0.13314605483438804 -0.6515170244798197 0.0014439569594155897 -0.0004932211148149324 0.4783389220090595 -0.17068326000288067
85915000.0 0.7167280735828735 -0.6930278738832826 -0.15226775591819225 -0.6819550231647523 -0.00036216510874962667 -0.0009731735810596027 0.46517827863419764 -0.180601264856935
86914000.0 0.7101605756849227 -0.7039978358630509 -0.167436716927576 -0.7193976006468987 -0.001832615766111675 -0.0026339165241705967 0.4689081335292596 -0.18366469566878135
87913000.0 0.7021164206978437 -0.7083458559089963 -0.18368020623939083 -0.7469930666102965 -0.001057597776197292 -0.0019199884853255092 0.465129568553041 -0.1943640117657123
88912000.0 0.6980366769154611 -0.715667994677574 -0.20032920686910094 -0.7805093782064357 0.0003068147800774706 0.0058840352458092915 0.45915692241434114 -0.21604081797889663
89911000.0 0.6874264129372935 -0.7259192001849556 -0.2149028693290091 -0.8166722819265748 0.003883842366233411 0.0010488704492812519 0.46899734650842023 -0.22692185022174663
90910000.0 0.6827733867290408 -0.7289354083213105 -0.2286906513337829 -0.849296466218087 -5.60348370155341e-05 -0.0007549367486098703 0.4699553344050507 -0.2113355350059165
91909000.0 0.6731569430642433 -0.7354888063692085 -0.25385492566517814 -0.8798293468966166 0.0011635907614471928 -0.00023953299642166725 0.47259302741292514 -0.23071828316517562
92908000.0 0.6650029671816028 -0.7435790885182719 -0.2712820607309802 -0.9095925463670823 -0.00034355582018100487 -0.0005761951003781245 0.4551652705574853 -0.23023373928104282
93907000.0 0.6580371255215972 -0.7472206245970957 -0.2908357177119481 -0.941587850661305 -0.00023747837958444187 0.0006197464763013564 0.468098765891743 -0.2658495475200723
94906000.0 0.6464738328919056 -0.7554024514826838 -0.30423946309310773 -0.9755644465245839 0.0047078242085127195 0.0011699654920302525 0.45093247146058474 -0.2538650831493944
95905000.0 0.6412471226939068 -0.7597232577964069 -0.3244834370594806 -1.0099783250209216 0.000786761924272417 -0.0012018558516058253 0.46640816065231033 -0.2813907640860458
96904000.0 0.6342584502612284 -0.7721401140843707 -0.34496973940271486 -1.0478856451433156 -0.0020107965508064196 -0.0014206248566968715 0.4519586721294045 -0.2869436360803728
97903000.0 0.6238688370117467 -0.7766682207755192 -0.36444306979806057 -1.0791103575655114 0.005813901774078484 -0.0019090108334860376 0.4490575206063152 -0.30013839026673816
98902000.0 0.620416048732045 -0.7825568922166085 -0.38228246334551835 -1.1145918010910911 0.0022786688535560047 0.0016969651623512383 0.4460166049398756 -0.30687073162474615
99901000.0 0.6096534921850689 -0.7890548309899319 -0.4100769778877635 -1.1448143802081796 -0.00041736344677266907 0.0038172530756428666 0.46104343281771953 -0.31926466629687184
100900000.0 0.6012270831873104 -0.7928248092151753 -0.43961397494472554 -1.171001430372012 -8.88011302365767e-05 0.0006716927374555025 0.46887934803056 -0.3208514762198189
101899000.0 0.5927690760949453 -0.8010668503024856 -0.46297356483978647 -1.2112258111849086 -0.000520980255822652 0.002900910217443305 0.4477546244589444 -0.3215841920953666
102898000.0 0.5813354365797192 -0.8059950102541995 -0.5022001670549218 -1.2447600970363761 0.002430789596400544 0.0008023502499880462 0.4522139791807439 -0.35315734875479765
103897000.0 0.5750087765365101 -0.8136358375212992 -0.5389845297165575 -1.2745184930455977 0.003566566237149485 -0.0013313799085630526 0.44953499133476205 -0.3364493143679378
104896000.0 0.5653951067070748 -0.8218449722597904 -0.5809973789094636 -1.3051167574973257 -0.004053788893072627 0.001162443892710956 0.43645444070846495 -0.3343335317536383
105895000.0 0.5575137757028935 -0.8270087287220758 -0.6202478940441962 -1.3469195946153356 0.00030070357568189076 -0.00013135723982379274 0.4326969653237098 -0.3520960535885801
106894000.0 0.5506139680310536 -0.8326840887029714 -0.6729143456566364 -1.3852035433139422 0.00044692057684450175 -0.002055514050091115 0.42791369883252517 -0.3704504553559989
107893000.0 0.5391737207926958 -0.8383687187911774 -0.7228195720983256 -1.4197671094611233 0.002335022267737507 -0.0015984719412520168 0.4271735599498571 -0.37867314651129647
108892000.0 0.529976535111843 -0.8414772786480009 -0.7839934467370508 -1.4608564184745736 -0.0005390668826942767 -0.0014154432009470654 0.42239068621557674 -0.3849491949314016
109891000.0 0.5192009552892514 -0.8491120568292085 -0.8413376205713422 -1.489147874824845 -0.002569754531620253 0.002153759245718327 0.43741104171000467 -0.3796063528975359
110890000.0 0.49880244024460096 -0.8562751498268715 -0.9129859913180898 -1.487550988590618 0.0014168164862579588 0.0009524971801473487 0.4285786723446955 -0.3839039182676548
111889000.0 0.4973603294529758 -0.856508823019604 -0.9565768402123233 -1.552686664839177 0.003900698620217513 -0.0028663055653982863 0.4177297923755521 -0.4057262137832336
