! Created with skrf 1.9.0 (http://scikit-rf.org).
# Hz S RI R 50.0 
!freq ReS11 ImS11 ReS21 ImS21 ReS12 ImS12 ReS22 ImS22
1000000.0 0.9912615556177093 -0.0014023805558744575 -0.017547445525648967 -0.04294574936794539 -0.02486365688910401 0.011847526676522429 0.3232959883418889 0.3484324557256991
1999000.0 0.9961545417175627 -0.014140128366913295 0.007001225487327943 -0.018632874561891666 -0.005436504306489363 -0.0007467013249269118 0.25679313646383106 -0.06641631373810375
2998000.0 0.9990717302346206 -0.02170400347497146 0.0072948331388124855 -0.007976631579224604 -0.0032711050518442588 -0.005583362228478372 0.18642089823765687 -0.12114422122522059
3997000.0 0.9976293114733469 -0.029795617838462397 0.008361330644438596 -0.006231332859097808 -0.0034187666583137973 -0.0029773608079139333 0.08860546816204719 -0.2080642818627802
4996000.0 0.995545171766964 -0.041124822272882375 0.011890761143539496 -0.0020873563101903117 -0.004271573338120395 -0.0030593962830040484 -0.051318829685376294 -0.18820261591575538
5995000.0 0.9968474995252052 -0.049992553063289445 0.005074085651774361 -0.0019788728494164434 0.0007623471683495908 -0.0007204235809122023 -0.11237982572218778 -0.11388350031787177
6994000.0 0.9955320099671727 -0.05942920042345427 0.006637200969210457 0.004455115013151936 0.0005319244471832664 0.0028225124969023215 -0.14381271443683208 -0.021387280550602766
7993000.0 0.9930466901828616 -0.06760607298426327 0.002656785527199486 0.005142556859400132 0.00063939606602144 0.00429252798975584 -0.16100486131370975 0.032278752736019524
8992000.0 0.9947569420424439 -0.07341259794153772 0.004889222876602984 0.003647059183630291 0.000832341874486442 -0.006848200749293233 -0.1680178420618839 0.06552311385479057
9991000.0 0.9957538058574924 -0.0810983885494611 0.00205963880087368 0.002897040542076626 -0.00033191685429486643 0.0005863741374540664 -0.13502545179248035 0.0858002069698935
10990000.0 0.9914306729042257 -0.09459215190317963 0.0042353938831785525 0.004197732721092864 -0.0033281799950369635 -0.0014815553493325037 -0.13848965228186824 0.11135305763133417
11989000.0 0.9929696988873558 -0.10057326606784815 -0.00010325432232393291 -0.003203011734925494 0.0031078742558630136 0.0061343770196364625 -0.11983131313892013 0.13157849912657488
12988000.0 0.9894436207458487 -0.1108242829227657 0.0045637708818538 -0.004913051775143773 0.0005848458539981109 0.0008206768637424966 -0.11461910215710847 0.1706278659003222
13987000.0 0.9890535702520824 -0.11517877686713408 0.0003098139913579408 -0.004586437755986978 -0.001682856208056564 0.0023168757744655806 -0.10142703681801184 0.18695342671991247
14986000.0 0.9888416673281926 -0.12548332536476758 -0.005851535831059054 -0.0006967626506645051 -0.001871555394458847 -0.0011716327360021953 -0.08006096673867674 0.19845614183801039
15985000.0 0.9867409939951723 -0.1340371329088291 0.003069958683283989 -0.0004948749799234507 -0.0009880553331494623 0.0008784415740314805 -0.07733381451068282 0.22265927071026553
16984000.0 0.9849783652508811 -0.1440950870387396 -0.0029536756136055876 -0.003566793983858846 0.005710531560722188 -0.00030860258674355305 -0.06592955018364567 0.2065504699725279
17983000.0 0.98499886304181 -0.15109471291657328 -0.0005247910902796638 -0.004153397517646016 -0.0005066362125781116 -0.002705908373301008 -0.049385817850463316 0.22067304204465227
18982000.0 0.9851200514179016 -0.1590240996433905 -0.005659244328416762 -0.006145298296631557 -0.0026552277313218477 -0.0006575138584398294 -0.01595316958738 0.2456908685871868
19981000.0 0.98312564339631 -0.1649273642443583 -0.003615735698414749 -0.004084985576389372 0.00021920126141102453 0.0030892922971769462 -0.004270613382170659 0.24563296928253653
20980000.0 0.9816888081127876 -0.1743969272094391 -0.005902336023002227 -0.005915780908770224 0.0029959685783009222 -0.0011236486748239195 -0.009344064608493149 0.25751765392433723
21979000.0 0.9810500432880598 -0.18205909563242362 -0.007991464923989333 -0.005447844371111216 -0.0007377063601335786 0.001162264096512693 0.017619243526546185 0.23429890147611077
22978000.0 0.9766817779091084 -0.19316644973261532 -0.0024062262578589894 -0.005836409532442863 -0.0014982027634652603 0.0014380328928244503 0.028533656639374218 0.26204742959257643
23977000.0 0.9798846077581554 -0.19747461055701718 -0.003580446412957086 -0.004788940775677095 0.001369984459581595 -0.00014737083953728598 0.03975627562255088 0.26446916882410654
24976000.0 0.9753669128615643 -0.20920767142698557 -0.005898137045153848 -0.007456735431057201 -0.001260842632793037 -0.0029586908637827514 0.06179943407667781 0.252037997312394
25975000.0 0.9752524989100293 -0.2203843897710168 -0.005513701995319705 -0.000983513947756463 0.01636926647081422 0.017695805267279513 0.08038335058034894 0.25464015629298675
26974000.0 0.9714506855990351 -0.22472587341506625 -0.004970761705964975 -0.004062387671740867 0.0016644734908155437 0.005189227274197221 0.09284600018383295 0.25478814237737535
27973000.0 0.9694447273581817 -0.23600433272594967 -0.004171527853559739 -0.0008640316477278327 -0.0010034698724683741 -0.002202865324083228 0.10986069556343948 0.2619080413051827
28972000.0 0.967625098972131 -0.24462844266596145 -0.0016124485338656176 -0.0012903942960717939 0.0012154564286352369 0.0010990109159554676 0.12337241611281569 0.25961187723693663
29971000.0 0.9660811837277661 -0.2500551214035783 -0.003942376129634653 -0.0019871027105529526 0.0013826894700610403 -0.00013995117820983052 0.15365645675839326 0.26773694597768166
30970000.0 0.9631334957793343 -0.25638523476963193 -0.0010019017579054647 -0.0023977821006100487 -0.0015190226300874597 0.0004787733375650493 0.17365242340586862 0.24878422485613702
31969000.0 0.9620120935894279 -0.26635844481766674 0.0030104439577348274 -0.004933195496657098 -0.0023332024649545834 -0.0017249357406088654 0.14308764537976887 0.25019856870428636
32968000.0 0.9591940521238368 -0.27520747046229355 0.010599919721558534 -0.007130256502603143 -0.0024626896395723284 0.001994149203079628 0.16353437530547454 0.2477196965714438
33967000.0 0.9582316507376691 -0.2845484198331834 0.009979007362819647 -0.009537602408592596 0.0004775034264651574 0.0008872360619356239 0.18619408999582876 0.24363916519235002
34966000.0 0.9541352722687627 -0.29307973482759575 0.014355805498746594 -0.012662428023572616 -0.002539980607682421 0.0016625528199119683 0.19272833190727034 0.24712200863792164
35965000.0 0.9514428647379517 -0.3020778724703944 0.01746603109232375 -0.012315737678758022 -0.0007932680632704016 -0.0012099440015947954 0.20895998936917967 0.24692470380023204
36964000.0 0.9480413153796085 -0.31102361885603125 0.015197069694863763 -0.010980278924027998 -0.001657909455812185 -0.00015077710668611125 0.22326435639123143 0.25404587726867206
37963000.0 0.9442258974049744 -0.3209157695950305 0.02247323881708578 -0.0220267374876587 0.0005400469756031371 -0.0012456207727357892 0.23263343873099107 0.23322453123373238
38962000.0 0.943396373580256 -0.3283066831494939 0.023724691315385172 -0.022418267305251035 -0.0008229361204130807 -0.0016558741102210843 0.24215599604806654 0.2288762238328149
39961000.0 0.9400070386350808 -0.3348303667254594 0.025510816724737102 -0.027550167569851073 -0.0010082817360626726 0.001101944308818936 0.24626675872498432 0.2194640004649746
40960000.0 0.9363127156818815 -0.3438066057268536 0.02195858390283262 -0.022898463272068285 0.0030714481101704744 1.1001830357862846e-05 0.265469933203385 0.22818868336092016
41959000.0 0.9336061216418693 -0.35357612554275675 0.029081632218526346 -0.02996990357686141 -0.002748022830041461 0.002529961442724162 0.2640832495209745 0.2081241367608349
42958000.0 0.9296589749085226 -0.3610279922388775 0.032934135247422676 -0.0402131501109335 -0.00019510401482325626 0.001764131481848461 0.27490464763675215 0.20165543231391797
43957000.0 0.9264603925070117 -0.36879850889171684 0.033075160451669874 -0.04451139613252199 0.0012505380954813017 2.990758997912113e-05 0.2873578335575216 0.19630938812529508
44956000.0 0.9237000976332461 -0.3769157200679373 0.0335716450288425 -0.05051260223921744 -0.0018705366489957607 -0.001319193215743513 0.3059151945318039 0.19284187645988246
45955000.0 0.9205005269069682 -0.3862525972754022 0.03159250856566388 -0.05619515941919245 0.0007852186107776429 -0.00032534410616058275 0.31921977077531205 0.1906923045934399
46954000.0 0.9172604118443362 -0.39464371354825706 0.03535857667277186 -0.06282202293221473 -0.0013531089336859658 -0.0009519610573695905 0.3264461393362993 0.1773423061128547
47953000.0 0.9127835154837043 -0.4024362708432358 0.03455016889946082 -0.06940045940963743 -0.002057020041941496 -0.0007519012818149771 0.33303750103094165 0.17381103891026478
48952000.0 0.9073059775913987 -0.4130725271086375 0.03636393153559507 -0.07839443404199405 0.0014495692640337657 0.002931322245535043 0.3301021342150031 0.15823113556029378
49951000.0 0.9056751852456603 -0.4161656021732683 0.03847117400323324 -0.08992587040286545 3.063856355857432e-05 -0.003870559355508202 0.35822419870247657 0.1477322389357468
50950000.0 0.9021249587004082 -0.42429309284713396 0.03747601791747465 -0.09450217152689731 0.003966897136879456 -0.0034543419911638134 0.351670553951085 0.14704935782497314
51949000.0 0.8966188424000333 -0.4349916680882799 0.03846511411341375 -0.10241608476451372 0.0005718343783570405 -0.0054365856110421005 0.3501372045880484 0.1372208554712699
52948000.0 0.8960112407723697 -0.44336537326403685 0.03893413249010396 -0.11268293210372647 0.0017685510737006356 -0.0015451441114059004 0.37407985683632144 0.13769114281360742
53947000.0 0.8895672778902615 -0.45319594909587435 0.04169383838319073 -0.12090201023376894 0.0029033094254839174 1.56517427862604e-05 0.377948637759772 0.1252700569870257
54946000.0 0.8841037100300617 -0.45940574168819476 0.041171725229266196 -0.13228590134963666 0.000544247207385465 -0.0004066737094540569 0.3863483331100176 0.10522694243567501
55945000.0 0.880712423033885 -0.4670455232948747 0.04813042077616975 -0.1413037442374364 -0.0002683433648413932 -0.002610931310366973 0.3866594426656161 0.09344222595783518
56944000.0 0.8788775056156175 -0.47646163640724554 0.04612339033426708 -0.15113820044685208 -0.00168506761675369 -0.0005384967703236852 0.3992258968108165 0.0957636704570649
57943000.0 0.8736087605376439 -0.48599671005561496 0.045526821216154874 -0.16609137669967178 -0.0002127652666348219 -0.00011877425314357121 0.4094377448355532 0.08859201756939761
58942000.0 0.866201775340525 -0.4920088764086707 0.04744160381094992 -0.1724991851372199 0.0008486988970928471 -0.0008258512643396418 0.41765268446115994 0.0783715857021966
59941000.0 0.864132480915279 -0.49901021611506596 0.05117481318662366 -0.18186069523861986 0.0013316122094897576 0.0005087276108467143 0.41924119284698463 0.08617715541996866
60940000.0 0.8571409680216465 -0.5077079521958608 0.04964310238049476 -0.18519927525074098 0.0019032794837988663 -0.0005305860407608939 0.41256883451351173 0.06966135180085567
61939000.0 0.8540868100964016 -0.5138493917164378 0.050428221808230346 -0.1943242226235832 -0.0017368510601785969 -0.0020385975148754804 0.4191359415644094 0.0684960291608643
62938000.0 0.8482460604557419 -0.5250937581863965 0.05289032870174976 -0.213701518544981 0.0007857269310179469 -0.001478139083027412 0.44070991528781694 0.04826552733209533
63937000.0 0.8442019458676807 -0.5309556323321388 0.052865985819133696 -0.23296181527362197 -0.002625831807555181 0.001700656030663312 0.43732727581560854 0.026772410412718255
64936000.0 0.8358225271555141 -0.53911572265458 0.05428626281154859 -0.24463805189952662 0.003948804643326627 0.0018922357202109017 0.4335600764684165 0.03340409520194887
65935000.0 0.8346257303329484 -0.5468060182616797 0.05335407865695066 -0.2596163860970796 -0.00041748694746937483 -0.000620206338485591 0.439713644734054 0.002766433750186394
66934000.0 0.82971845032956 -0.5547945974382893 0.0532969640932395 -0.2726926978166705 0.0038541898341623625 -0.002043563325160124 0.4387831807545845 -0.00014928713830975802
67933000.0 0.8261512991799931 -0.5611624534626399 0.05532626979579786 -0.28471486776394833 0.003475721969847831 0.0011969812775549625 0.4370794419460024 -0.0013537422690877844
68932000.0 0.8171882465227254 -0.5688476033483075 0.04905574442242443 -0.29870441801078496 -0.0013272916255916746 0.0013023491528903492 0.45557081313600095 -0.015568357808161619
69931000.0 0.8118616825093306 -0.5787364702540516 0.05212178914416259 -0.31361470208721315 0.002467493062653661 0.00016902984366171862 0.448627883410786 -0.028099685179164727
70930000.0 0.8075679058036155 -0.585084972384322 0.047441749955449496 -0.3295624533319362 0.0021214341824321472 0.0013548870049227158 0.44567812676147106 -0.04728406190658849
71929000.0 0.8032894396855204 -0.5905583037581665 0.04789852698561608 -0.3487737576633428 0.005102800326949354 0.0013486270866646427 0.44459908352782596 -0.044477021215648255
72928000.0 0.7971729160197971 -0.6030346648448108 0.042382998164723074 -0.3663338871052732 0.0012810373102747623 -0.00046841820903227295 0.4630290849881913 -0.04782604556105768
73927000.0 0.7899289926700802 -0.608281866433837 0.032285806835297685 -0.38493454261614324 -0.0024588910283429724 -0.002207860029538657 0.45977364362013456 -0.07159302645164196
74926000.0 0.7854574830925931 -0.6184184347113602 0.028304234071459416 -0.39993168049879224 0.0002982099595194643 0.0027462323612665045 0.46241876462581594 -0.06218784690777003
75925000.0 0.7787013044931972 -0.6235274282865133 0.017744346028339054 -0.4209887609150736 -0.0017462929262883622 0.0038048541832237446 0.4699504648250254 -0.0896460408258085
76924000.0 0.7744858599937418 -0.62944220097381 0.00398194197745591 -0.4421369700908624 0.000540000198092337 0.0013816663743813978 0.45938072519724704 -0.09034156074726289
77923000.0 0.7652346101347104 -0.6371074101216981 -0.008974659692933762 -0.4670301479454576 0.0022051284019496123 -0.0012547455221737793 0.4602716155863822 -0.09971070445294054
78922000.0 0.759239625355415 -0.6459685045032529 -0.025910043685203072 -0.4942205946385388 0.002240630013702028 -0.0005084790452109593 0.45356962998122463 -0.10919387679121495
79921000.0 0.7519390516824365 -0.6506805593806521 -0.03630398752016984 -0.5191029086034341 0.0011086753320310079 -0.0008881880418593432 0.45831254916759495 -0.12432072045922542
80920000.0 0.7466211870036584 -0.661432779422254 -0.05419161023181384 -0.5475257330553909 -0.0009696197045118976 0.0007157316154189784 0.4613137951023017 -0.1374354526361797
81919000.0 0.7430554738826369 -0.6661187720317224 -0.0703205356162919 -0.5736929052242479 -0.001434691855531015 -0.0005202988899401702 0.465714174182453 -0.14896445968940317
82918000.0 0.734495446581943 -0.674714382875741 -0.08866132998467337 -0.6029107564054144 -0.0003934366233261531 0.001754870999112389 0.4772976809117254 -0.15685093619513013
83917000.0 0.7233483169135946 -0.6833721658571338 -0.10708528936112445 -0.6298613610219665 -0.0006873424639606949 0.0015868854768320369 0.4763519315640252 -0.16759695344552736
84916000.0 0.7191227350314189 -0.6907244633295766 -0.12637951008280598 -0.6653621429381371 -0.0007006856616117494 -0.0007055929828624326 0.46800788821536143 -0.1825763950712077
85915000.0 0.7123306267669912 -0.6963124520147155 -0.14543162143845312 -0.6964580076291624 -0.0018679684685309716 0.0022117524785278428 0.4665599472182665 -0.18394261696705405
86914000.0 0.7064393520623876 -0.7066184777216584 -0.16144563058030992 -0.7337449502759975 -0.0006905154767075965 0.001554799614744061 0.4633518678313329 -0.18785750492917508
87913000.0 0.6972196406746723 -0.7106960804524538 -0.18104418816154824 -0.7600482096847054 0.002168178279054827 -0.0034114938738380946 0.4648211613000004 -0.19976668156556796
88912000.0 0.6936761187916338 -0.7182295318818177 -0.19496900988366386 -0.7962794994893336 -0.0010272664690336188 -0.003147078454265035 0.4620048364366705 -0.2202640308223867
89911000.0 0.6861639185531582 -0.7270712509347173 -0.20677139135700862 -0.8356490227160484 -0.003221786129370591 -0.0009865615530701903 0.46887180672105283 -0.21935326661833793
90910000.0 0.6784791098947069 -0.7319529217794585 -0.2261779548455203 -0.8672922510122512 0.0021567557613236094 8.674107122152777e-05 0.47007106936119264 -0.2230980633659217
91909000.0 0.6685666243027836 -0.7372234007506683 -0.24752828484326175 -0.8968572612113664 -0.0021533335214106984 -0.002514811865283167 0.4560951776782195 -0.23465327949694934
92908000.0 0.6607495012050558 -0.7451194365913896 -0.26842560128516846 -0.9295937645658428 -0.0019533070257873085 -0.0030765057949417125 0.4593029349748894 -0.24643495831446582
93907000.0 0.6563454846753679 -0.7491811758581874 -0.2800872282796761 -0.9630438590488019 -0.0008313023584849506 0.000875501585082722 0.4664852489106229 -0.26474538813319143
94906000.0 0.6437321751775947 -0.7594402235140844 -0.3012213682202138 -0.9966119839895277 0.0012270677133839247 0.002097529076168134 0.4566691233711788 -0.27079143730073707
95905000.0 0.6375384844729522 -0.7654632884188055 -0.3236205769215993 -1.03143545151499 -0.003446028708572374 -0.001576766892154646 0.45432508239661196 -0.2802534312998
96904000.0 0.6294498140037036 -0.7733249234963936 -0.3440272583920924 -1.0675139834719825 -0.005096186836842895 0.005823747659410493 0.4531268316969107 -0.2855245771581136
97903000.0 0.6190976597947432 -0.7788806488452981 -0.36548883889020034 -1.0994449023355801 -0.004011176862129337 0.005597065777103057 0.44197569081370297 -0.29015137786119505
98902000.0 0.6155449418406121 -0.78690552954941 -0.3826757519128316 -1.138848019677318 0.00024640839736401104 0.006348839949763225 0.44335731379988425 -0.3042462020225577
99901000.0 0.6048439153740238 -0.7923097177619499 -0.4114861063287788 -1.172048207574834 0.0011648447176961303 0.0022142140062458783 0.4510417392503152 -0.3202513226624532
100900000.0 0.5980604201621647 -0.7970042954617342 -0.44574377392612985 -1.1992113344740747 0.00022763913477761956 0.000489177989531108 0.4589927210207458 -0.31668491800363946
101899000.0 0.5872964899245694 -0.8022892306065689 -0.4656964985053046 -1.240023858136971 -0.0002836915679124898 -0.0019443466360171875 0.44361412570732356 -0.3287631331793863
102898000.0 0.579422544067592 -0.8092079373055108 -0.5023318220845037 -1.2706580645812084 -0.002727454065061809 0.0010895316606128586 0.4468425546852726 -0.35126298451066434
103897000.0 0.5690121547798422 -0.8166078946384249 -0.539910772108705 -1.3085285367243553 -0.0005597085676109903 -0.0030420561353189813 0.4468200590201611 -0.3439087894518251
104896000.0 0.5624728998411934 -0.8260607663763234 -0.5863320836913046 -1.3391981405222353 -0.001985196545722475 -0.0012474137045309197 0.4279044249559581 -0.3545703069817196
105895000.0 0.5500959708751462 -0.8287103539855951 -0.6301250961376578 -1.3784713454194495 4.311974266828261e-05 -0.001415874473080828 0.42439424608637333 -0.3746576003056375
106894000.0 0.5426613381880683 -0.8360838480445217 -0.6823876030512652 -1.4167295962755027 -0.0005811710031353223 -0.0007752496901151803 0.4239652261282745 -0.3759665481129952
107893000.0 0.533315833002433 -0.8405449266481364 -0.7347625028765521 -1.4506944382889821 -0.0037014640366889303 -0.0018522435956424554 0.42827406580125144 -0.39289465476010915
108892000.0 0.5242485239961989 -0.8462527765968079 -0.790953008624294 -1.4934881851803106 -0.00012829293227298194 0.00041054589044038674 0.4408071365763226 -0.38549234694528406
109891000.0 0.5109224359477786 -0.852658976973906 -0.8450506691406383 -1.524731381486247 0.0021820189316754763 -0.004429085696699694 0.43863952326835925 -0.3856498087020225
110890000.0 0.504664744450841 -0.854772112104956 -0.9035134377731467 -1.5395153526234642 0.00023095487589489748 0.0020018652968142917 0.427900441652344 -0.3847515833713086
111889000.0 0.4929009321669514 -0.8592690601190937 -0.9736669279456353 -1.5946349306110503 -0.005695637665492945 -0.002030970266158041 0.41232892211939337 -0.4098849886600621
