! Created with skrf 1.9.0 (http://scikit-rf.org).
# Hz S RI R 50.0 
!freq ReS11 ImS11 ReS21 ImS21 ReS12 ImS12 ReS22 ImS22
1000000.0 0.9908339054267133 0.017198052227123024 0.018198493608262825 -0.06130740743596989 -0.004838868736052478 0.009937157213783724 0.2725527025855317 0.32396376562097595
1999000.0 0.9958011200680722 -0.013665677925840536 0.009647987599736896 -0.03595261611637494 0.0008904753042998215 -0.012535195097379862 0.26051053992629863 -0.07986532489602957
2998000.0 0.9995632807985542 -0.02133164572626593 0.007521168645208048 -0.02230341902930444 -0.008325542283831621 -0.002146515535613879 0.1748052112555827 -0.13960195330256345
3997000.0 0.9934827795768374 -0.030796911811436206 0.04939951319506414 -0.020215281535281293 0.0015181615366158837 0.0032420903659892177 0.07973205103867527 -0.2039035817958235
4996000.0 0.9964470209187606 -0.039005336688292584 0.009512848636805642 0.004038531394074464 -0.0015842138181175755 0.000613362685084717 -0.04107414731090521 -0.1876415382599814
5995000.0 0.995787012032898 -0.04744323482524144 0.00781363744590927 0.00470025354405318 0.0027030473580057237 -7.485428729281802e-05 -0.12097067588963024 -0.09613088503709945
6994000.0 0.99592345562754 -0.0601621957078476 0.005632217279734407 0.006833772256079446 -0.001089027114885227 0.0025807436363081008 -0.14116091105116982 -0.006717500009328026
7993000.0 0.9954449768953179 -0.0679286273166923 0.005618317207715204 0.00685015359701454 0.00139890894580542 -0.0017530735573402412 -0.15540790997066412 0.040611403398429356
8992000.0 0.9951419274105748 -0.075438766346066 0.00027285670749707046 0.004177499945987175 0.004210097862768151 -0.0031209090494301573 -0.1609075984662535 0.06563974562193961
9991000.0 0.9941676024533709 -0.08436981157544549 -0.0001573524689015158 0.004458982002616247 0.00022901483210042251 -0.0009473547285188454 -0.1351760077971799 0.1080089804831837
10990000.0 0.9930838008393365 -0.09562037924259273 0.004774208019516664 0.005709623666589837 -0.003839981760415528 -0.00026486476927116014 -0.13553623467470197 0.10443496871356892
11989000.0 0.9900215541157144 -0.09783919437682329 0.004285082398141427 -0.0022638347947980908 -0.000827233141731252 0.0029607459023201304 -0.12662517938495893 0.13463721278950694
12988000.0 0.9882483293919148 -0.11000811538740927 -0.0011881855065109619 -0.005191589128794506 0.0028521027955599933 -0.0037731734713976344 -0.10733467852488299 0.16445897051532346
13987000.0 0.9874677775601942 -0.12057412747903584 0.0019049476938982333 -0.00826081888826476 -0.0004198592997261856 0.00033167817176057437 -0.09425242912262055 0.18726493660064983
14986000.0 0.9862649255421684 -0.1266750458389541 -0.002718495944415955 -0.005081151826180163 -0.0016304365780674072 0.0010176205904460878 -0.08698669518180072 0.20022535160710417
15985000.0 0.9889470115846622 -0.13407540892634304 0.0023343319142778603 -0.0028933012105350976 -0.0007106158238159899 0.005899164913050602 -0.05514165398143661 0.20939353549274517
16984000.0 0.9863883227981157 -0.14437639804871227 -0.004245528215171044 -0.004842503479976712 0.0010996932628934439 0.003761830360282979 -0.05724557528722419 0.2201716555737244
17983000.0 0.9849727582420632 -0.15102963463513433 0.0015852497895830812 -0.0031525462478965787 0.003732186252271831 0.000566663622863811 -0.05185794621593769 0.2240435419853804
18982000.0 0.9825789722178246 -0.1621151815634902 -0.0024615351700080284 -0.006649313877334528 0.0010567005630842876 -0.000663251645005385 -0.014744471657930544 0.23797082863445362
19981000.0 0.9806628744027778 -0.16578835856923613 -0.003357024433770845 -0.0030410949066850142 -0.0003215858113905885 0.0013574099977340143 -0.01225537947403066 0.2370205109404087
20980000.0 0.9801058960229504 -0.17871164716953883 -0.005468793482104685 -0.007327373827462969 -0.0034285434038284217 1.4425494893225398e-06 0.010122868156947865 0.2573709453728549
21979000.0 0.9774675915870722 -0.18713683074950435 -0.0021962538037401027 -0.005125695285720478 -0.00225153861973053 0.00310185795586483 0.02328738681653114 0.24264707285359377
22978000.0 0.9759730499147914 -0.19490742882204387 -0.004309496865148153 -0.003851326587265515 0.002880417943438919 -0.0019349613522019271 0.025346556178460333 0.2635285854579198
23977000.0 0.9762114744640188 -0.20302140635358246 -0.002880902475675678 -0.0009824522392308693 -0.001152714890907945 -0.0014075555621285735 0.040814713733626495 0.26451339202023805
24976000.0 0.971898604162633 -0.2126779070607142 -0.005785770942002836 -0.0019635826650985727 0.003738760668236445 -0.002793630322617538 0.06447650106640361 0.2587904606836853
25975000.0 0.9721797431906993 -0.22009246603567736 -0.00703047854228924 -0.006021061381119658 -0.013585950005676356 0.024444388291247187 0.08354111434457567 0.2586947922749055
26974000.0 0.9704796883725968 -0.2295897347231087 -0.0014160653360096379 -0.0058227647644956354 0.002294047039177659 -0.005139454505036524 0.09087408610191512 0.2678692080236766
27973000.0 0.9663606312658362 -0.23810618276200807 -0.002840930288108851 -0.0022687001226706365 -0.0009099795368738969 0.0010109437874514923 0.10580341866451537 0.2534280931248572
28972000.0 0.9646495966435652 -0.24701333617318472 -0.0032582440533722025 -0.003097975870461983 7.855273253830502e-05 -0.0003767934305727815 0.12245296754149874 0.2544385855806478
29971000.0 0.9639481208599185 -0.2577361077626336 0.0026347057770541066 -0.0027092771878044733 0.0014225138468797614 0.001619799177532617 0.15231620314253075 0.2710830098424527
30970000.0 0.9603014693173094 -0.26081509122751445 0.0017225698195448445 -0.0016145171903678333 0.0002744229078745744 0.00221442858143984 0.17598688718896746 0.2595471124315153
31969000.0 0.9593882242349068 -0.27115425357790773 0.0041002119957166405 -0.005366092956470412 0.003622228992199064 -0.0008965588704444065 0.1563614096566699 0.2469374571408296
32968000.0 0.9582154404996996 -0.27978302120208526 0.008599190855360322 -0.007568741859073239 -0.0015117739151653223 -0.0034028240840698353 0.1749458508448595 0.24567862827923836
33967000.0 0.954586363112769 -0.2895207619103278 0.008790745438608914 -0.00791817416858688 0.0004176007603993869 0.0016541641370295917 0.1865265675173825 0.2370068250919862
34966000.0 0.9513640443636198 -0.29890526813205637 0.010643083460789217 -0.009742402824081696 0.001135370716325419 -0.0005175668134711735 0.203124328824355 0.25151970525518536
35965000.0 0.9489020149745897 -0.30637606195517897 0.01910221544317018 -0.01697374924059828 -0.0013670170780467217 0.00080853264714395 0.21871712572114602 0.26021393771717993
36964000.0 0.9477737557863615 -0.3164900518730635 0.01606062581871675 -0.01190606182207908 0.0005445980850236991 0.002075375281147369 0.21987297942846576 0.246408416900173
37963000.0 0.9431807923484237 -0.32466959757421027 0.020194326722158193 -0.017994457300200186 0.0030144245542924266 -0.0006612681920332374 0.23529725864471476 0.23181901083880546
38962000.0 0.9396160678936216 -0.3349550103284452 0.02226610916995979 -0.021373176682969536 -0.001687714580712586 -0.001666267209228502 0.24070901614102494 0.2421600996890689
39961000.0 0.9374405017451525 -0.3405527328590929 0.02651036265014923 -0.027608678682211008 0.0004997351397591538 -0.0024199590066550504 0.25990096663057244 0.22052452431757805
40960000.0 0.9345186564821553 -0.34963964739684106 0.023299651267114335 -0.023127822661912153 -0.0012528458110423835 0.001970242317115728 0.2737313785526122 0.2234077000277441
41959000.0 0.9300176188442919 -0.3595420278621032 0.028669857075523362 -0.03175296386983526 -0.0017772840288940031 0.0017389508637791638 0.2682834534011464 0.22505600643429827
42958000.0 0.9257351993227977 -0.3679054902930644 0.034563107352817604 -0.041384732871043224 0.0011328773627265708 -0.0008326043857785581 0.28381036988614233 0.21083925250553098
43957000.0 0.9245819678854862 -0.3747378925409089 0.0352555639555847 -0.045994113547971296 0.0006275274556932829 -0.0017654008625088847 0.28782358737544417 0.2066024854698754
44956000.0 0.9210527962401387 -0.38317907128550416 0.03854922902906447 -0.05258271751597413 0.000973713257501997 -0.00018825775196216964 0.30864719742140295 0.19324600775155362
45955000.0 0.9164309971848889 -0.39379815305776944 0.03725753152302544 -0.05787616385992394 -0.0010262390267015734 6.825995428219409e-05 0.3095647771732626 0.18932347754747245
46954000.0 0.9121833689115358 -0.4010941848172333 0.03788364280029717 -0.06876031568360848 -0.0030856996250549946 -0.0009605777158457645 0.3349354449150448 0.17830708511038196
47953000.0 0.9084069799206551 -0.4088507448634948 0.03685436137151152 -0.07554581947346947 0.0016288842126863212 -0.0011114327154899044 0.3455328949207835 0.1712622371004851
48952000.0 0.9038401829768008 -0.4209875785928406 0.03867211533918543 -0.08046654133733311 0.00027871128144155285 -0.00036463716955791476 0.3388105596178764 0.16653446995568644
49951000.0 0.9016306533864143 -0.42398647643054305 0.042738831820565336 -0.09233337436714545 0.0002693673433534556 0.0025966083524880494 0.3650860994428488 0.15181651306299435
50950000.0 0.8955749689166582 -0.4359558277279092 0.042093070663410635 -0.09768571837712574 0.0036789789569289847 -0.0017764557341723214 0.3560043689327877 0.1467899817622701
51949000.0 0.8927089818282753 -0.4432494206788363 0.04431371963562725 -0.10612487680584146 0.0012773913875741688 -0.0008054919184543938 0.3650601551144543 0.14021386244166642
52948000.0 0.8907475127879108 -0.44913265467916136 0.04879812089026298 -0.11358963781709702 0.0034719193714516875 0.00013910530208211528 0.3777092572231321 0.1420080004012093
53947000.0 0.8835518768225439 -0.4602943414255276 0.0473223145037651 -0.1267390276830572 -0.0025981117207446963 -0.0008294528525805637 0.37862905882872 0.12826185044461869
54946000.0 0.8791026868101354 -0.46772048375627223 0.049256273435338324 -0.13390765387816034 0.0005994042044764163 -0.0035173382525898753 0.38016728838828373 0.11662460870699431
55945000.0 0.8772565045742965 -0.47732878883018076 0.05229428179774762 -0.14317772458974812 0.00024125065843009667 0.00034570559182206593 0.3940518201224528 0.09173247603696337
56944000.0 0.8731823498413407 -0.4843374923032023 0.05722273103472363 -0.15463791645624198 -0.0019237580427370338 0.0002488799794289963 0.4050068915443301 0.10132602220303158
57943000.0 0.8664359335474107 -0.4948561415258247 0.05371406316144239 -0.16836999614509282 0.0008523125120155198 0.0016907807979740586 0.41605347326175146 0.09227888159987135
58942000.0 0.8612819599497199 -0.5018137797083385 0.05550064383462739 -0.18002764904009005 0.00023476453801305776 0.0014270958179787773 0.4255658378262971 0.09220286987774172
59941000.0 0.8606690611013305 -0.5067459484129638 0.0591352505083708 -0.1914379730029344 -0.0020962042626283452 0.0003822921741217785 0.4232669797725397 0.08411683123776413
60940000.0 0.8502571888243661 -0.5169317518207662 0.06017823047602665 -0.19547877096499308 -0.0016012370362744716 0.0014372423417304912 0.41474430277199337 0.0714598818662132
61939000.0 0.848268263017448 -0.5221252998489555 0.06273231703029825 -0.20553214684739748 8.143874003733262e-05 -0.0007923263140577761 0.4247325609014122 0.07003787519634082
62938000.0 0.8426640552064986 -0.5329375534309243 0.05940677638854399 -0.22147713445970335 0.0005812974429101298 0.0009878260544200807 0.44412313709348566 0.05422816239603705
63937000.0 0.8354523445575939 -0.540567149362796 0.06292154172635145 -0.24194452804522987 -9.720846336897022e-05 0.00020171052232167657 0.4413454857930411 0.03906336024799368
64936000.0 0.8304138461041813 -0.5459625219733136 0.06513703156639596 -0.25687485119364706 -0.00011510828725067933 -0.0004882862157006023 0.441097481574807 0.045266750508212925
65935000.0 0.8258259626796816 -0.5580163041132197 0.060292051095549797 -0.2730509578682734 0.005388084160465178 -0.0034058050934021853 0.4492306543632394 0.011131556689688989
66934000.0 0.822367750205572 -0.5626048307914054 0.061120042371994844 -0.28651004102028527 0.0006339652380192008 -0.002576170067291416 0.43583031000835637 0.009507666246769223
67933000.0 0.8178043035449571 -0.5723074158949433 0.063882562231076 -0.30244817483695075 0.00011209345573825605 -0.0036144154568816043 0.4539592209962355 0.011328417309624576
68932000.0 0.8132931115505703 -0.5686745244323782 0.059692075563244566 -0.31754070305079296 0.00020848120364511618 -0.0026789119975297077 0.4493966092599351 0.00452148387515411
69931000.0 0.8051144457923609 -0.5861778724009118 0.060338280124895255 -0.3331959484561144 0.0008447183791857977 -0.0002647694322419391 0.4530278032606488 -0.017297713987428315
70930000.0 0.7979857425391187 -0.5946676556281596 0.053322263935632504 -0.3525446606864707 0.0001066970968183553 -9.991821282175996e-05 0.45359646602658654 -0.03973620446433826
71929000.0 0.7940220157036482 -0.6040021989462584 0.04480787687971072 -0.37190269098776724 -0.0012234131296115518 0.003446684675015988 0.4552549385792742 -0.03716035433619155
72928000.0 0.788432032781337 -0.6111861965991122 0.04395622231704654 -0.38745202009263596 0.0006870846125515954 0.00016556886906307026 0.4743647039449696 -0.05131676909706387
73927000.0 0.7792760530932747 -0.6175399143758787 0.033490590661909084 -0.4128576803829481 4.8509444377731084e-05 -0.00040476220946181944 0.4694090164376466 -0.055938392581940076
74926000.0 0.7750575755542 -0.6287763895583591 0.02811423197949007 -0.43197253972620275 0.0015213444378137206 0.0033911545200319693 0.4679336039492162 -0.06524917883550793
75925000.0 0.7676975136226541 -0.6310609211182346 0.015979614881187168 -0.45292354917541977 0.002839399346382662 -0.002107017098118027 0.4781230172833127 -0.08062266493301443
76924000.0 0.7626941170190562 -0.6409457864940858 0.009816602796940825 -0.4790920027276254 0.001975823853741323 -0.0005662420888902428 0.4681244360756232 -0.0785826991765984
77923000.0 0.755924976443132 -0.6459732339419728 -0.009099202553544407 -0.5042363870846089 -0.0050010168439756225 -0.000598497950891315 0.4704942050401721 -0.07765468320466282
78922000.0 0.7495057322079093 -0.6581282948707536 -0.020110336715477423 -0.5340123480511946 0.0012664769673350598 -0.0035546719120635862 0.46799250821113003 -0.09958281050590702
79921000.0 0.7408682084100258 -0.6606457304541662 -0.03889548129525478 -0.5614255968304709 -0.00028356228907650525 0.0024516566282531678 0.4683782860369916 -0.1273798003179863
80920000.0 0.7378571789652182 -0.6709948252903967 -0.051901048022112914 -0.5875459275828625 0.0012346587721264964 0.0003803717340537965 0.4762096826244466 -0.12856482047871348
81919000.0 0.7291376412318926 -0.6785012765469141 -0.0711386276352136 -0.6204003128844944 -0.0015182301361964896 0.0036060581595482883 0.47550178786946756 -0.1317938581950612
82918000.0 0.7200137982613013 -0.6858616473767389 -0.08167124673815528 -0.6532362192478578 0.0010813035606610478 -0.003402984999183179 0.47544321127121797 -0.14835913206173706
83917000.0 0.7130328154482072 -0.6926703913659099 -0.10241321965624317 -0.6823441216758902 0.004258270703881552 -0.001285468944962934 0.4839745662964525 -0.15026982793681748
84916000.0 0.7070002377618207 -0.6994274667510055 -0.12121991708678519 -0.7201959599848314 -3.956635474518776e-05 -0.0006579844060585159 0.4673224613154726 -0.16899074820548185
85915000.0 0.7027192230359375 -0.7062091647159278 -0.1372194735606806 -0.7543594695612494 0.0011050565483604852 0.0004531263446430928 0.46395164651174686 -0.18012286399021943
86914000.0 0.6943710188692656 -0.7167930510122557 -0.15695104554414124 -0.7886795117464387 -0.0021660792176889008 3.4700245895961704e-05 0.4576244538700845 -0.16879395939460307
87913000.0 0.6850667683177821 -0.7236725663527878 -0.17687136359750194 -0.8205598830506889 -0.003275980015348811 0.0015324605307267146 0.46483371275447555 -0.18896296405616023
88912000.0 0.6808152439758458 -0.728848663903632 -0.19233023307137387 -0.8567187871085301 -0.0006009969821179419 0.0027986085514921746 0.4791333511105693 -0.20575595825772797
89911000.0 0.6707329833273219 -0.7375020379401203 -0.20508458041144645 -0.8965167430669998 -0.0008076182527193311 -0.006884250621460159 0.46937083699762144 -0.2113020779125285
90910000.0 0.6638740611784498 -0.7427636754381786 -0.22417542882780436 -0.9303330907276545 -0.0018447830446335766 7.173722099769101e-05 0.4701156952384245 -0.21788944824954867
91909000.0 0.6551327535031773 -0.7475956729311274 -0.24910337134214988 -0.963637254243512 0.0020905559855435947 -0.0009618811172945692 0.46608325971784254 -0.22533998202891137
92908000.0 0.6475904645996815 -0.7577930912878321 -0.27167901419905055 -1.0012529883889647 -0.001360643755518322 0.002213677800464421 0.4700682308019912 -0.22638769965633262
93907000.0 0.6396631972799937 -0.7604249671739717 -0.2853128383623722 -1.0355006248238612 -0.0006708535442904162 -0.001340486062832802 0.46107913981473037 -0.24115298960557857
94906000.0 0.6274899840417759 -0.769083678776407 -0.3094031292277095 -1.0706812723463044 0.00034201228456447744 -0.004749297071404146 0.46052206308985316 -0.25297656677539393
95905000.0 0.6215272046448413 -0.7766593258980217 -0.33624593900541916 -1.108797023617652 0.000999677035061539 -0.0012199432456141434 0.466017522947575 -0.27446621643984964
96904000.0 0.6142116627723743 -0.7856175489157529 -0.3559500361303677 -1.153303747001539 0.0007072887161278643 -0.0010278382639181114 0.45492925364399794 -0.27485202208445725
97903000.0 0.6034499076227278 -0.7902703974223768 -0.38407214415274665 -1.183962569684917 0.001155444178506581 7.640217156378647e-05 0.44714894229653035 -0.2823498320879511
98902000.0 0.5972357225483976 -0.7971585587686387 -0.4048167311840535 -1.2226626319645408 0.0010634741334339967 -0.0014345066916598226 0.4509844833548156 -0.3031128120917855
99901000.0 0.587845475268642 -0.8015656154951911 -0.4412555262962037 -1.2597014223831218 -0.001060425856084126 0.0010884419220997732 0.4664081650345782 -0.3122523327151899
100900000.0 0.5812729455933031 -0.8044605500994346 -0.4709530227287385 -1.2941500647833173 -0.0005681053399713954 -0.0022883917012854215 0.46527446109897197 -0.3013637769707256
101899000.0 0.5702724191469408 -0.8133273547479488 -0.5044862974512966 -1.3317748799702906 -0.002211439055198451 -0.0014237227420193105 0.441696466055659 -0.3128961844253491
102898000.0 0.5610669760777767 -0.8195559913629695 -0.5475304003304722 -1.3740575328092899 0.0021496840249246043 0.0014886975928925098 0.45658067069245084 -0.33989698626206116
103897000.0 0.5510320573879618 -0.826405047132936 -0.5897618751529426 -1.4054375747065697 -0.0008320595603244491 -0.0011264970428641542 0.45640536858434916 -0.3320269825110369
104896000.0 0.5441671219296397 -0.8362570669834802 -0.6404995358705331 -1.447237779069366 -0.002195180616065522 0.0019278787226768685 0.43844928252955956 -0.3356353057446645
105895000.0 0.5346504826434428 -0.8381440735274178 -0.6860030467739339 -1.4974048795973252 2.0791807427209905e-05 -0.00046292693263722494 0.4408324448559498 -0.351653846861265
106894000.0 0.5257143069053974 -0.8460365006304265 -0.7469947123612445 -1.537949564374704 0.0009218184377111527 -0.0010330054526094088 0.43314183783443433 -0.3677326189276777
107893000.0 0.5154107928307947 -0.8524485133769262 -0.8076724087503111 -1.5777213354212682 -0.0008793667741850315 0.002073641284712332 0.4521596403826848 -0.3680539997527552
108892000.0 0.5051799198396932 -0.8556826554977968 -0.8738859884093239 -1.619336545398102 -0.002272012671191011 0.00012807273477007748 0.43442640223441215 -0.3738136898424999
109891000.0 0.4936364357647554 -0.8620674585080152 -0.9309395554417851 -1.6585878659009452 -0.00029106367138023335 0.0036587733719272175 0.4441498728842061 -0.3715258244347808
110890000.0 0.47605236904491943 -0.8762468676592914 -1.018360284223114 -1.6594979142852266 -0.003136151911544537 -0.0011562516966459096 0.43354963111511813 -0.39228294908770256
111889000.0 0.47398058691103434 -0.8683662717750336 -1.0691699054295243 -1.7260598274462629 -0.0016516016090386166 0.000284355888908693 0.42211786696469833 -0.40380271986846894
