! Created with skrf 1.9.0 (http://scikit-rf.org).
# Hz S RI R 50.0 
!freq ReS11 ImS11 ReS21 ImS21 ReS12 ImS12 ReS22 ImS22
1000000.0 0.9893905811497036 0.008138173770217864 -0.004199077430421985 -0.059432445837651844 -0.02352390054620608 0.0012973418536010857 0.33870021272004036 0.4020506837059221
1999000.0 0.9952706954015076 -0.016017170786365467 0.00458557938139411 -0.03054918655435089 -0.0014411069792377251 -0.005959213366879249 0.2639856268570757 -0.07485373273549394
2998000.0 0.9963555769130997 -0.024269527810904593 0.013183708359490365 -0.014607040117077238 -0.004702162789713474 -0.0013213753973924278 0.20143828124099672 -0.14633689533290334
3997000.0 0.9979578982308358 -0.03330882256674477 0.011796757818101019 -0.00614883767825859 -0.007931774582875688 0.002067849393390925 0.0806486099866593 -0.23651852689687908
4996000.0 0.9999382215462633 -0.03773439985724039 0.013523689297151465 -0.0041384037619003385 0.0031436932784495047 -0.0014376042783156298 -0.05580350026735206 -0.20605423099337622
5995000.0 0.9954318012541092 -0.04598906333857547 0.012259964492480381 0.001926962164008484 -0.001745910269960085 -0.0006572961836561222 -0.12664532379854507 -0.09452564755938822
6994000.0 0.995573039671135 -0.06247163556796451 0.0065399229468243595 0.0006678069959390856 0.0031498803078918616 -0.0021444798425154458 -0.131687084497508 -0.020151313543940303
7993000.0 0.9931941372682986 -0.06732966339170167 0.0004645934331288754 0.006385888286120383 -0.0019074420748811454 0.0009281260148671141 -0.14464396712203673 0.032647193976805426
8992000.0 0.9952537021679514 -0.07303576980765539 0.0024730860965046847 0.0036610704643963384 0.002694117100215078 -0.001295426959742887 -0.1457722803035277 0.0671596518042623
9991000.0 0.99239381114001 -0.08239421535742794 -0.0015689597119851232 0.0005068740297081312 -0.00020506145671422488 0.001366364087134626 -0.15476962535411853 0.09708537749504709
10990000.0 0.9926679448439107 -0.0923813910068826 0.0038089099930067385 0.0026017638075685134 -0.0008508358702802015 -0.0011987987922685492 -0.1300137248949812 0.09756166967068648
11989000.0 0.9891672244140505 -0.10086695175826173 0.00225146676263015 -0.004510695712212442 0.001624192987984008 -0.0007388541827780227 -0.12828280177533427 0.13805971611469545
12988000.0 0.9883648653947174 -0.11135722040928517 -0.00011666780763284804 0.0016991932510703382 0.0008395193722460933 -0.0011782486952696047 -0.10424786060740346 0.17167114294423327
13987000.0 0.9869316684058163 -0.11873426689339572 0.0007873619890745006 0.0013724323319878639 -0.0018016320149297253 0.0019306216437407556 -0.09458529920419663 0.1834054926874945
14986000.0 0.9875185868358549 -0.12454729153906136 -0.0016417657443737568 0.00026256614115663206 -0.0020263740633188134 -0.00265262154345636 -0.0899338329505641 0.20174516986332047
15985000.0 0.9884637835399086 -0.13398119291515787 -0.005093948236283889 -0.002140396487233205 0.001860982178552206 -0.00037002303344533133 -0.06448351738556637 0.20777143650113544
16984000.0 0.9843534961659961 -0.14672241373007855 -0.0022689862214515287 -0.0014609479806150228 -0.0008817354238254691 0.0013758280156009035 -0.0638466917395518 0.2252884364545918
17983000.0 0.9866723057789449 -0.15134797434343233 -0.0033141881877561236 -0.005452816604529972 0.0005799335236091064 -0.0026876717794385397 -0.056526438418740985 0.22837836191270897
18982000.0 0.9824657108198558 -0.1611278412697059 -0.005561057483601229 -0.0072706068127827385 0.006727331162885052 0.0020051144710154676 -0.018880219602293098 0.24085035501750707
19981000.0 0.9814448693190975 -0.16692194092215545 -0.0030879476357229293 -0.0028616738453452672 -0.0011093763209199566 0.0049519825027726115 -0.007605429656301296 0.23385671882710565
20980000.0 0.9803862492481891 -0.17674357017178233 -0.0037454638468919638 -0.0010754438205081893 -0.0006885744137209965 -0.0035817087457929607 -0.0008945089985146047 0.2656256229606468
21979000.0 0.9766551614190397 -0.18401333555628402 -0.006472097313855924 -0.005205981605852918 0.0029559264431892906 0.0004642346045732794 0.018878006928780444 0.250489303022079
22978000.0 0.9754749837706539 -0.1928913980395249 -0.0038414015620483665 -0.0031062374392329326 0.003605854311567067 -0.006764252222992073 0.02880356123966543 0.25259300889484815
23977000.0 0.9770744250336686 -0.20184279644596198 -0.005853017822024029 -0.001116693255800396 0.00484515213042233 0.0030160375607680943 0.03627472720968235 0.2626370646600992
24976000.0 0.9737598805504304 -0.21225261279996382 -0.001946106960700672 -0.0017573623758668536 0.002206820949211741 0.0005551741725082239 0.06241173028668251 0.2527390592701935
25975000.0 0.9671609728744796 -0.2181535566739404 -0.004384708188180631 -0.0008869697332072442 -0.023200241729643713 -0.007423816914801876 0.07770741617952821 0.27007094736039566
26974000.0 0.9680834030712752 -0.22994541119782974 -0.0014581075568097014 -0.003472142209900747 0.0003283366153477183 0.0022617351094869633 0.08737263247381002 0.267975165091537
27973000.0 0.9696513561190306 -0.23558147784052344 -0.00040818966961340546 -0.0005507322022098389 0.0005612646901253077 -0.0006785830757133148 0.10659347989322021 0.25351579292472814
28972000.0 0.9638714471009324 -0.24549562629007127 -0.0020571006983023284 -0.0016704213333000972 0.0014326643061686904 -0.0021283838362076953 0.12381430427281613 0.2525430628812411
29971000.0 0.9632729356878009 -0.2551221165646086 0.00110097696726636 -0.0028927560422456933 0.0018450153726163063 -0.0010080744467595199 0.14777300728779613 0.2735036670725293
30970000.0 0.961919961697961 -0.2591293930298014 0.004447985853986812 -0.0006644224167569997 0.0010127486769739074 0.0019646419469938024 0.16741039210980072 0.26289295375426625
31969000.0 0.9605274967283356 -0.2680712233825129 0.005150409765477816 -0.004767667241373998 0.000135645301199991 -0.0011767148628119403 0.14526260547141112 0.25474979063712133
32968000.0 0.9588421656855286 -0.2774206068562417 0.009328401695795676 -0.007332639748554156 0.0003367654864293725 0.00387939898206539 0.16649005531994093 0.24820557941465177
33967000.0 0.9564863455714365 -0.2870336835728491 0.01173937729461985 -0.007393222400595287 -0.0032212142300131826 -0.00042780869340931066 0.19048255401583017 0.24553432946455028
34966000.0 0.951629097636005 -0.2974685859254435 0.013870485608518555 -0.014485852393417504 -0.0004464293944216261 -0.0010094341603459533 0.19459891403124027 0.2502757653027196
35965000.0 0.9483702846047064 -0.3042080649962918 0.01714460928618837 -0.015332632308704967 0.0010457006043799821 -0.0002865564930608621 0.2178761471355308 0.24842297325202545
36964000.0 0.9472469461530525 -0.31345122370907447 0.0189827498823337 -0.014948673832643485 0.002809714602752773 -0.0005278611256787411 0.22136821071035628 0.24913108533640538
37963000.0 0.9443276988863203 -0.3223584423666723 0.02296688131041326 -0.022173050320003114 0.000661575929702264 0.0004436627190993008 0.22880373709049376 0.22900198779579234
38962000.0 0.940854308210468 -0.3338979668488588 0.024892219779570582 -0.026172759469638564 -0.003549244252387543 -0.0006696000370743644 0.24707628259564912 0.23603422278075467
39961000.0 0.9386423081678101 -0.33801059471916833 0.026317550714250803 -0.028758698941760856 -0.0001451709137136754 -0.0007606032789658066 0.2575872962021278 0.22308885564339
40960000.0 0.9330172499220126 -0.34719664016370383 0.025427915613176196 -0.025513589224944223 -0.0020166446181914214 0.002829806420308565 0.27547334304927446 0.23394621077131542
41959000.0 0.9308024181088337 -0.35602191222275636 0.032511853395996514 -0.03171474969091243 -0.002325304174662583 -0.0009117670337979783 0.26773846885902514 0.2234655445992174
42958000.0 0.9269552542178963 -0.3654227136110115 0.03185405798761235 -0.04362911318571385 -0.0022842365821298593 0.0005788699891035111 0.28325950991439036 0.21142662061116949
43957000.0 0.9253444890303675 -0.37130653282446857 0.035527066426219236 -0.04866533852884417 0.0034112068986155296 -0.0011703926073492689 0.28968847269959924 0.20204095187603316
44956000.0 0.9222273332410984 -0.3814167498524572 0.032420148097868536 -0.05215763894811835 0.0012009788256519634 0.0018028761081493182 0.3077865720988003 0.20426639799210744
45955000.0 0.9157047884977833 -0.39048797708921845 0.036626738125108464 -0.05795754530218413 -1.530874270266332e-05 -0.0011006276173672108 0.31503926708761454 0.19499812997538896
46954000.0 0.9151372009606877 -0.3979635003512733 0.03731844675587701 -0.06747822908693418 -0.0005600461404782824 0.0020360321350212968 0.32507580202558023 0.18589369582217088
47953000.0 0.9097646139563846 -0.40881463634609566 0.03759732103121855 -0.07707025202168144 -0.00048088601386782803 -0.00047149482990517625 0.34034759048269825 0.16626138928392714
48952000.0 0.9045147573058392 -0.4182991042160606 0.03627359087450165 -0.0825740873611042 0.003271646451927722 0.00034314569380621495 0.3444707892739987 0.16474736244914026
49951000.0 0.9017219823168223 -0.42192606748412714 0.041158586206305484 -0.08898321030569824 -0.002879043915740938 0.0030092301379813224 0.35147080961457605 0.1505079692570278
50950000.0 0.8982646001607391 -0.4323029608030317 0.04224079178733465 -0.09700414846174901 0.0033926156385728178 -0.004832855595381591 0.3567883733318101 0.14118376431176807
51949000.0 0.8949351910350506 -0.4404312974438324 0.039574667511362065 -0.10741581782831215 -0.0027935678497639934 0.0031628492716797266 0.3461008304927996 0.14521170546548365
52948000.0 0.8920267617577686 -0.4479808043967386 0.043486856129231345 -0.11444293546635166 -0.0002116065584171319 0.0008625809096825972 0.3790530654629525 0.14168295822765226
53947000.0 0.8868598196265061 -0.4544933556984537 0.04428423534618733 -0.12347430416148734 -0.0012696136188213838 0.0028124250282813355 0.3682863798136596 0.13571391859993165
54946000.0 0.8812948134437456 -0.46692175112127055 0.04570664275534625 -0.13218136281183954 -0.00029463025667078016 -9.978650037254641e-05 0.38556885224970794 0.12263531092977627
55945000.0 0.8778498913734251 -0.47300113171499464 0.04678810473423584 -0.14613417701711046 -0.002685949039619892 -0.003144054375526126 0.3944361667440222 0.10669976954095026
56944000.0 0.8744694753385076 -0.4811719999316204 0.0467287859880463 -0.15232358217457126 0.0002798036194048579 0.003130595627035204 0.3965269714897248 0.10424727958770408
57943000.0 0.8686559490504923 -0.4914571800423599 0.04578699765623741 -0.1656915251472679 0.0011974760240658106 0.00030773642960907056 0.4099313506586786 0.08531576138886364
58942000.0 0.8634437415859609 -0.49604106586152336 0.05257218094387704 -0.178563762873922 -0.0012695290617047218 -0.002197475446025991 0.420982989282839 0.08819018368670661
59941000.0 0.8593610654266274 -0.5051178021311581 0.05369463818902962 -0.18959867300548072 0.001311039393371012 -0.0004853033711302338 0.42684471194413187 0.09010447797069304
60940000.0 0.8529796424562576 -0.5110675799932871 0.053309357387052364 -0.1859834669899976 0.0005492965909415429 0.0008745265942565722 0.40868389959503243 0.07801570403987551
61939000.0 0.8492039558856158 -0.519539600744949 0.05477810173935072 -0.20031756314922397 0.0013561349685305693 0.00013667202762976882 0.4188878918278239 0.06330232305414485
62938000.0 0.8426917739374352 -0.5310116519090506 0.0556182162285077 -0.2188650811670262 0.0011635365284942574 0.0022610242513647506 0.4436011885395133 0.05519474979353723
63937000.0 0.839004443628345 -0.5369171887888216 0.05753794296210517 -0.23571854325922165 0.0014641574322350136 0.003228683110825677 0.43285346570027117 0.03864618605896524
64936000.0 0.8325409020200482 -0.5437724840442411 0.055479336229160625 -0.2544844989135129 0.0003356295212661935 -0.0014110104372312864 0.437079971013033 0.046388306626306886
65935000.0 0.8301223241170376 -0.5537623908090256 0.056401969476772375 -0.26949818371147 -0.0020269480091556153 -0.0012255163518615688 0.44667518929050876 0.020883046530434036
66934000.0 0.824893075517019 -0.5591324405380835 0.05656470613932611 -0.28122222704404376 0.0009053559754523875 0.0001693767665174178 0.4395383540268409 0.009818940349420501
67933000.0 0.820956286120961 -0.5669209350548616 0.058172681991755196 -0.2975359177536321 -0.0007756766090579275 -0.00025237751325622325 0.4409652956368141 0.004812354603220892
68932000.0 0.8038383819344216 -0.5652501398328451 0.04998855285630025 -0.30488623535294745 -0.00040674063096792043 0.0005292142085997105 0.4509884255823688 -0.013950163237262085
69931000.0 0.805077879996453 -0.5841778774152755 0.053511879567025675 -0.322807573084406 -0.001678410931967371 0.00012287019153733335 0.4540926792896052 -0.016282095061376827
70930000.0 0.8023809924483616 -0.5892746042437111 0.05035424863391677 -0.3386516172787511 -0.0028187415089273907 -0.0005551283910760979 0.4558782348948385 -0.03222815527417731
71929000.0 0.7979774326812703 -0.5983531800462071 0.042303775200349746 -0.3592006120008682 -0.001406615933927587 -0.002266199091192348 0.46534784068973184 -0.02788108872146106
72928000.0 0.7909231971346761 -0.6103832488021459 0.040420712609153205 -0.37386752514870114 0.00017002861157676367 -0.0012948213499932868 0.4660574039293857 -0.050456716603851634
73927000.0 0.7857947697462292 -0.6148464012055944 0.03219846782595432 -0.3964602162272408 -0.005229835269461728 -0.00021083586567559673 0.4652484245923346 -0.057936640961577496
74926000.0 0.7793429146285463 -0.623977583350782 0.024155522068008587 -0.4148487190437401 0.002604307858456788 -0.002757836312905503 0.46380313053608013 -0.06086393414183613
75925000.0 0.7733360416320967 -0.629747611601505 0.015314915249313313 -0.43654341808652475 0.0003650713208965438 -0.001084653984310136 0.4696372305543523 -0.06745402531152733
76924000.0 0.7682368061246101 -0.6371815559645919 0.002996027370933549 -0.45816475229790715 0.004955999277574577 -0.001979263427661984 0.45626124167813226 -0.0823182211866179
77923000.0 0.7609798903955131 -0.6424250942978745 -0.015247407863441146 -0.4837606854957168 0.0030236916108295833 -0.0005772038765313356 0.45244142087323147 -0.09679403648061914
78922000.0 0.7540206748007574 -0.6544211290552976 -0.02685761691836203 -0.512477279811141 0.000462009655820757 -0.0032539470111641934 0.4638930448909324 -0.10608764851206473
79921000.0 0.7453539661840357 -0.6558672827780992 -0.04731536611687158 -0.5358890543246675 -0.004594203510334422 0.0006643828002972915 0.466160304569714 -0.11832957688368295
80920000.0 0.7412956914894967 -0.666396877093605 -0.06124229020893538 -0.5622575789929065 0.001218306155459396 -0.00020586632763457504 0.45746700424285436 -0.12652154245450953
81919000.0 0.7357127348415802 -0.6727565493972709 -0.08028026289821245 -0.5914651946936471 -0.0011198622475120548 -0.0021571916077848183 0.47064204928841097 -0.13458236495026007
82918000.0 0.7259400242311683 -0.6821677699079978 -0.09275527454752014 -0.6256756753395596 -0.0008858494735183829 -0.000837106300483519 0.47128539880847614 -0.14488129932788274
83917000.0 0.7179025878303247 -0.6891385666326643 -0.1116668836042957 -0.6524639337826305 0.003166916296820258 0.0013036888881536363 0.47354070652763325 -0.1469503188880852
84916000.0 0.7134870691017685 -0.6958935992991803 -0.12457329575605922 -0.6883731873762033 0.002823704518573504 -0.0017497769912727676 0.46899705003008874 -0.17023282454648525
85915000.0 0.7058340638494937 -0.7028684964135958 -0.1489211070832587 -0.7195291649558734 0.0012020224986519414 -0.00046442946833673596 0.47642489844426034 -0.17496369465513759
86914000.0 0.6988448267976657 -0.7138566185475488 -0.16527495517667534 -0.758479979524409 -0.004705599774735271 -0.00027697273236793973 0.4682257439446824 -0.174635988901053
87913000.0 0.6911950328322702 -0.7187171622279495 -0.17979398757098025 -0.7889596249170969 -0.0011739973619018266 0.002645234336818489 0.4651771649264484 -0.1815113018519559
88912000.0 0.6855540754119323 -0.7237250190466615 -0.2003428582264615 -0.8211387832563093 -0.0011802957714487652 -0.0012481753547078887 0.46853601525077204 -0.20627251094105664
89911000.0 0.6764704739823993 -0.7351202883766902 -0.21909325923722597 -0.8599254037698909 -0.0011503877580354668 0.002145639597804378 0.46989445508549194 -0.20853735928343534
90910000.0 0.6699807995523702 -0.7377141500711278 -0.2312006103325778 -0.8916335001119259 -8.243252327379953e-05 0.004770496709778418 0.4632357359143956 -0.21117968516135346
91909000.0 0.6614140898413132 -0.7439267898848563 -0.25170268909916566 -0.923768768039518 0.00423068207350006 -0.0021988174302259005 0.4640966134012312 -0.22140016967136247
92908000.0 0.6527115530055067 -0.7525852642419594 -0.2700886537020328 -0.9578016390602094 0.0045312742639464524 0.002625377167607834 0.46403217459272084 -0.2294207439089818
93907000.0 0.6460249733025348 -0.7551963564752276 -0.2895025090007694 -0.9875060959175187 -0.002698041563370057 0.00389089905403978 0.4699066889289318 -0.2534247261019495
94906000.0 0.6351561174702471 -0.7649724201787418 -0.3074616332589368 -1.0213227415091408 -0.0016120831090511913 -0.0030271260588240864 0.4539079749257105 -0.2526626006037311
95905000.0 0.629531252821802 -0.7701125735901293 -0.3327037303829008 -1.057630865005982 0.000497942172442333 0.000263471230263211 0.47421005414116857 -0.2735713406708202
96904000.0 0.620308842126357 -0.7797454398461453 -0.34647994707414853 -1.1009737265709365 0.0016653662800174343 0.004933445523098526 0.4561977531526471 -0.2715765463943388
97903000.0 0.6104410161505307 -0.7876753526149637 -0.37739601010495477 -1.1294136828110684 -0.0006586857909439736 -0.0011218758568952768 0.45619297663817254 -0.2883202397647514
98902000.0 0.607002421004251 -0.7919343108541125 -0.3955934521043557 -1.170919341355825 0.0016304536109892197 -0.0035509616265051664 0.45310344161392563 -0.28625619054723656
99901000.0 0.5960754754205075 -0.797156902020685 -0.4225301380984413 -1.2031351179179801 -0.0012501741802716454 0.000990318281706502 0.46691079452602213 -0.3197242201336626
100900000.0 0.5879088292186373 -0.8017235353915783 -0.4586695614117272 -1.2325841782301825 0.00035552870434048207 0.0010675375701838217 0.4785855019299885 -0.3144665420222333
101899000.0 0.5761073717743536 -0.8111299044445636 -0.48955621715297093 -1.2675105223038083 0.0016159972894140718 0.0022749975684176835 0.44503956674395245 -0.32408232686981725
102898000.0 0.5694428848040607 -0.8148393755201262 -0.5245538971502783 -1.306760992945709 0.001775958344855523 -0.003174103783217876 0.45957605462535206 -0.32887577230467346
103897000.0 0.5600144825702277 -0.8215293520189039 -0.5662998289993029 -1.3434457172228287 -0.00039131810649853285 0.00235207417331648 0.4607013576307453 -0.3402081689233639
104896000.0 0.5512833164157103 -0.8329386388862603 -0.613144462276981 -1.3729761243295788 0.0020516764545680777 -0.0034587832041298805 0.4402955848982783 -0.333407436905782
105895000.0 0.5389685947403718 -0.8343833677534499 -0.6621824120479451 -1.4176691836685191 -0.0005695133132703256 -0.0005985700067334279 0.44484142000419336 -0.35629809440642934
106894000.0 0.5320855358178705 -0.8401048605414742 -0.716342379778522 -1.4526905601156923 -0.0013469136463872145 -0.004471814751583064 0.4343845816105145 -0.3581672585106827
107893000.0 0.5236706642985245 -0.84708220912385 -0.7723162309189634 -1.4956806020922804 -0.0024018644004141416 0.001296605178079748 0.43105140521647545 -0.37618783483640444
108892000.0 0.513912077269985 -0.8498385857161634 -0.8266647629116508 -1.5362910809674786 0.0015047390404215768 0.00226617049284275 0.4216821667269373 -0.3711335989242626
109891000.0 0.5010275571833358 -0.8585934376134604 -0.8869452120461846 -1.5703306409888167 0.00019234831438899363 0.0032322044751489213 0.44001529524710886 -0.3792576320347419
110890000.0 0.48872053947389316 -0.8591122478799536 -0.9480872609137347 -1.5744872796860228 -0.003342515369884346 -0.0039889913902999225 0.4272910096204162 -0.3814249241758663
111889000.0 0.48187899968856174 -0.8644528620602462 -1.0138827106045434 -1.6344976655649235 -0.0010578886675706907 -0.0028061767869336936 0.4208164090238836 -0.39804057962127865
