! Created with skrf 1.9.0 (http://scikit-rf.org).
# Hz S RI R 50.0 
!freq ReS11 ImS11 ReS21 ImS21 ReS12 ImS12 ReS22 ImS22
1000000.0 0.9951176144219742 0.013121042263446023 0.017792562514885153 -0.045294461633668896 -0.017348628461508246 0.018534252293376876 0.30648512134218664 0.31002896808663716
1999000.0 0.9936068143040689 -0.016777027834491493 0.002122397044991952 -0.02619851179794397 -0.003485460882022935 -0.0034209049277476133 0.2850810434039568 -0.03854373407846317
2998000.0 0.9989250371067246 -0.019844610057615068 0.015901386376359596 -0.012002697828393642 -0.010012098906260177 -0.0037180129784824267 0.1971391011698524 -0.13316132264266042
3997000.0 0.9984664208207946 -0.030003626798639407 0.012849875269923478 -0.010805417828451108 0.0010634495520582298 -0.005402280681038995 0.09803260315237315 -0.21498653344842164
4996000.0 0.9960781607113518 -0.041887585689921396 0.006779475661199648 -0.007479229524603559 -0.000514856399114917 -2.2767518487319286e-06 -0.027096170061250886 -0.22479373694011534
5995000.0 0.9977359802700404 -0.049338652642138325 0.006415037374795224 0.0035093472895227113 -0.0004862343317503481 -0.0004967585914217211 -0.1101396753139951 -0.12907964963822816
6994000.0 0.9933382566732909 -0.060256699712787874 0.012048985701620909 0.00430916591995886 -0.001004066222215001 0.001011333557722622 -0.15523166512911793 -0.02687693946957856
7993000.0 0.9982193097092518 -0.06830052225821363 0.007473863326060652 0.002461187867324555 0.0043976431989568255 -0.0007824279119240155 -0.16549967662917722 0.03393752519156016
8992000.0 0.996498250805258 -0.07466113976535063 0.005293940453853007 0.008617159260728481 0.0022956867331323278 0.004904580298243696 -0.16988225835496612 0.06131396530829296
9991000.0 0.9934409284510913 -0.0834682820671037 -0.0029406255092319176 0.004149109566612398 -0.0008876124175661128 0.0030425374109994837 -0.15784953501071386 0.10425716762842457
10990000.0 0.9944736047027459 -0.09299569750545737 0.00670067949191807 -0.0011469530114998608 -0.00679419423965825 0.0021618068640594746 -0.14212848478877765 0.10994773675090454
11989000.0 0.9912786822494147 -0.10087653348457186 0.005276224509402318 -0.004593971823083188 0.0012760016326242953 0.0019235329832212739 -0.12261384167747816 0.12947373123182293
12988000.0 0.9878016528451323 -0.11080036349409968 0.0022168001339001003 -0.004346072138430344 0.001946430333159735 0.003729940762955316 -0.1279345780886751 0.17410443556174182
13987000.0 0.9893382292863236 -0.12093659173964601 -0.0004901508303189136 -0.0003991019358894161 -0.0008714160874775937 -0.0014819621573809647 -0.10657802820417193 0.1891156083275802
14986000.0 0.9868431120978486 -0.12787018528974242 -0.004037087897214021 -0.0023513597888600696 -0.0019418861448902535 -0.0007199088107977765 -0.09325468761848694 0.19047586433527064
15985000.0 0.988549927912698 -0.1382343301275032 -0.003101797426759903 -0.005167931339041342 0.00011221057054870583 0.0011109091961623747 -0.08185956779985995 0.21655506459492038
16984000.0 0.9846457541303213 -0.14891808886139662 -0.002677813404190323 -0.002099286725447154 0.0017986529431794466 -0.0008375502853512224 -0.06550424443341948 0.21643636367433
17983000.0 0.9863898794605174 -0.15363980578894912 -0.003529131497890628 -0.0036593511172879067 -0.0009129301559415682 -0.004091859305441537 -0.05640155890760391 0.22880541577078564
18982000.0 0.9828468141842919 -0.163950715731246 -0.0022485425131739153 -0.0073425396404411414 6.299064134160766e-05 0.0024078771083963922 -0.028925280028787685 0.2380882219435817
19981000.0 0.9836393528345302 -0.16705164481760298 -0.005087546430709654 -0.006048390795936838 0.002836295979765824 0.0036638080760411323 -0.008159270933455164 0.24368042179493404
20980000.0 0.9831626410160846 -0.17916912181030945 9.31942470461891e-05 -0.002047352419374521 0.0030167788029918795 0.0009340669968582992 -0.012494308044793461 0.2602190404311326
21979000.0 0.9768460840807209 -0.1874550923078945 -0.004916759588786491 -0.0008504951499197998 0.0003682419186676984 -0.0010723252350569449 0.011531384254088993 0.2511596922267276
22978000.0 0.97469096551078 -0.19909380727853715 -0.00897397402092637 -0.000863477635989838 -0.0035931103897923716 -0.0023547571595317666 0.027973281552465184 0.2517768551832088
23977000.0 0.9784634481130209 -0.20414549918079913 -0.0063615176311545415 -0.003826978514900484 -0.0015788383000762845 -0.00043092433411937654 0.03171301763115176 0.254965953587957
24976000.0 0.972456218503261 -0.21371605745787536 -0.0071774204921573135 0.00046688603427524146 0.0018903118924649726 -4.16028028563431e-05 0.06723096163608602 0.2590297592003227
25975000.0 0.9703580188512121 -0.22071107207421833 -0.00728133591497031 -0.0030299772934732493 -0.02602261265735285 0.01524727427986324 0.07230468538300594 0.257441649445218
26974000.0 0.9687285065441084 -0.230545495782983 -0.0033467235093275097 -0.002436446862998362 -0.0005501394942005276 -0.0006366202652828354 0.0861860124990727 0.2673995071674585
27973000.0 0.968825350900108 -0.23871520092629747 -0.007586007322833453 -0.003206512327501212 0.003372915034637568 -0.00012792917894231362 0.10265272218921966 0.2563485459528548
28972000.0 0.9657463609389808 -0.24715800503749755 -0.0018946249882502493 0.0009096321565043435 -0.0015052016604306865 -0.00042781221027654706 0.12769723909398065 0.25348751466645203
29971000.0 0.9633227066567164 -0.2578824569151185 0.0022518670449489654 -0.0006953353300486127 -0.0022933808593424538 -0.002399200858057046 0.14906039280988884 0.2657472515010488
30970000.0 0.9602057934595724 -0.26292521708400884 0.0028123436760290918 -0.0018593734721403263 -0.0017902405573136594 0.0004571973195517202 0.16512657471401274 0.2527341343788321
31969000.0 0.9595962683801011 -0.2712400360565984 0.006258677634030418 -0.006658863833702217 -0.0003597589901877099 -0.00027076629348594933 0.15521687835884498 0.2530193510159559
32968000.0 0.9581155045720332 -0.28017704887923683 0.00785321227835682 -0.005771889020482434 -0.00371596633760147 -0.0006363359272724727 0.16523651106511017 0.24714933900585231
33967000.0 0.9562426476573384 -0.29005567452694947 0.011648704115241541 -0.010629203230983722 -0.0022389775611063763 -0.0007337775488437511 0.1894193669963557 0.24648361886279563
34966000.0 0.9523118440956166 -0.2996958601052175 0.013377941739775192 -0.010918605036229708 -0.0024564350963437636 0.003101395835934298 0.1902078124380159 0.25255620534753165
35965000.0 0.9495846823664816 -0.3073860001869771 0.01680182463807348 -0.01607136710213002 0.00019538116314032623 0.001420295322060146 0.2094166275907394 0.25327065156966283
36964000.0 0.946948346939522 -0.31621335486267294 0.015907093143460466 -0.01524644662291096 -0.0005622580511964727 0.0005751452222828117 0.21218888174436165 0.2512392185708221
37963000.0 0.9418865324393303 -0.3288802558704525 0.02004622113566032 -0.018312892325359355 0.0015073332125177536 -0.0033221713250885946 0.22780147187989974 0.24047567340450726
38962000.0 0.9408913800064093 -0.3332009111251568 0.02412255146990348 -0.023999415285415965 0.0009669488196272035 -0.0019521881012972493 0.23518034669129578 0.2311257363582903
39961000.0 0.9367270257457954 -0.34435755322257144 0.026584659232373502 -0.030937363404119917 -0.001032433127548038 -0.00040798538816650846 0.24618662533798671 0.22501358155830004
40960000.0 0.9329247782140943 -0.3490589951199983 0.02311135143474785 -0.02383202259313251 0.00036539437925028694 -0.0007067100399996433 0.26657748633198664 0.22077814871703097
41959000.0 0.931017824615778 -0.3610158773845057 0.03001888600974649 -0.030367393382769073 0.003701643767985045 0.0020999131202355677 0.26865014430170175 0.21612747224421702
42958000.0 0.9252430464056184 -0.3684670697675041 0.03234487884971694 -0.04005536588332621 -0.0025607491934620708 0.0014238941836679279 0.27514093759595964 0.20085048537610317
43957000.0 0.9247539883335364 -0.37291086381495725 0.03137874343999761 -0.04559821097166869 -0.000611218676949505 0.00424105479022897 0.2901157330640095 0.21318720050868997
44956000.0 0.9205226339689168 -0.38123655720159827 0.03586401606608051 -0.05326004349615122 -0.001861882322822983 0.0005742006822081404 0.30329228457708796 0.19778538760234712
45955000.0 0.9165830658324475 -0.39511710723681803 0.03689842128182225 -0.05845024106262666 0.00016661452461322476 0.0018043171981078907 0.30750189865190153 0.1935326286740189
46954000.0 0.9136711092196929 -0.40257971427688233 0.038609809888348744 -0.06527436807496162 -0.0014413951672298181 0.0013268276358617665 0.33215859102351125 0.17759942737879467
47953000.0 0.9095356036825124 -0.4099705923549736 0.036994036642024906 -0.07409256690808139 -0.0004998773119547513 0.001132879866570985 0.3349478845351013 0.1705678711054941
48952000.0 0.9037528902628279 -0.4213223381813324 0.03891004703247098 -0.07955879023194669 0.0012810310450758974 0.000900216722893301 0.33653930604353727 0.16896983444607624
49951000.0 0.9016694424875291 -0.4256287773791011 0.038807424325567726 -0.08725235094383037 0.0035328138701396475 -0.00032230444984506315 0.3557032854878087 0.1611866750298499
50950000.0 0.8971754625571193 -0.43596183662497223 0.04079120619398267 -0.09808799067699363 0.0009750648459111278 -0.001165182837182349 0.355142641293569 0.13807494587732927
51949000.0 0.8923850159886488 -0.4438124358959975 0.04135945876064862 -0.10584997323625644 0.004292521717236962 0.0017849553971595585 0.3568719354675942 0.14654008027025675
52948000.0 0.8923766183143158 -0.4514514287483275 0.04556228704888076 -0.11357161585922511 -0.0024610679133111207 0.0016509822284235664 0.37014569638898503 0.14128981553074987
53947000.0 0.8832510291039225 -0.46205805218701895 0.043680350897203644 -0.12208191958376621 -0.0011760427890036233 -0.00010190264305492259 0.36962085271629697 0.12790397807057252
54946000.0 0.8790757685748146 -0.468425634384583 0.045341454356789275 -0.13329552109662648 0.002111502549449262 8.802360944290458e-05 0.3882084829354422 0.12002825898496772
55945000.0 0.8753443913009561 -0.4787065387457734 0.04860398102386457 -0.14306466952228916 -0.0012539576863038642 -0.0008817751156527721 0.3915578635683569 0.09412007779317856
56944000.0 0.8732386201056709 -0.48533116612159155 0.05227293776593243 -0.1534408060660819 0.0004259240141422787 0.000635435516950326 0.39830732632103105 0.11087681059031992
57943000.0 0.8677400011256183 -0.49529797831861966 0.05174711329864555 -0.1639626769500216 0.002819037574195781 0.0006149758603403597 0.4082237685977849 0.09404943475780263
58942000.0 0.861799257677648 -0.4988099533051188 0.05468030169138763 -0.17496443739351386 0.0024302323221597408 -0.000982492811184934 0.4219637143758862 0.07733427948429825
59941000.0 0.8573850203814916 -0.5115027900700342 0.05461736846643331 -0.18569221432847383 -0.0002822104460034495 -0.0013181713804325801 0.4252213279058117 0.09132452890164933
60940000.0 0.8495029256896554 -0.5174187601611636 0.05496946036394887 -0.19065411077389927 -0.000150842866449549 0.003660779753488358 0.4092892000010446 0.07859828332931311
61939000.0 0.8472532006751187 -0.5237050936460015 0.05758999955820256 -0.1966621684925096 0.001696729203367341 0.0027786471896303114 0.4287987646783841 0.06985599794614461
62938000.0 0.842143785087083 -0.5339693111558013 0.0610188066638192 -0.2163337470543453 0.0015888434269456626 0.0015604227847450711 0.4416138209685863 0.04721713701915242
63937000.0 0.8376806059879334 -0.541253810850038 0.058733179562534744 -0.23576827281777135 0.0004795926645990401 0.0011641778715659361 0.4288550534873253 0.042934166472325924
64936000.0 0.8296753765759288 -0.5492420574214895 0.05941166053512209 -0.24850694893774983 -0.002273000991886775 -0.0026137573623773377 0.43979582261315914 0.0456732243051074
65935000.0 0.8273458513645989 -0.5579992048307836 0.05513902719584773 -0.26343716209089707 -0.001172969456620677 -0.002478006058090858 0.43947481677137107 0.01404705882844485
66934000.0 0.8217460654423943 -0.5641236280310765 0.05778541959256473 -0.2784165520316657 -0.0014435518954325488 -0.002398287492710808 0.4321247052104708 0.0016158835272636085
67933000.0 0.817316846433387 -0.5732529504339104 0.06081917100686138 -0.2936626111232551 0.0003365171179979179 -0.002773157918181973 0.44841654365222255 0.0018403733410204063
68932000.0 0.8032613928476444 -0.5656103808545793 0.05452619750893499 -0.30655473348192913 -0.0006002857989479374 0.000735459200724579 0.45516299285603357 -0.018935030469962186
69931000.0 0.8036656923290221 -0.588574875822366 0.05635590769160227 -0.3248336302002389 0.0019173348096441576 -0.0023792541466238536 0.4506468522730066 -0.02307864427194528
70930000.0 0.7972721112656951 -0.5955949303477501 0.048094921062342026 -0.3369281886221708 -0.0027082694901584526 -0.0011914165947802962 0.4474342542206615 -0.036948200635625275
71929000.0 0.7943203977130362 -0.603463491997655 0.04799995596442957 -0.3605827968448479 0.0007969334622347995 -0.003602680199436449 0.4435586959015804 -0.03621847016895253
72928000.0 0.7875247017098926 -0.6138012285925668 0.04417051929323341 -0.37285330605283107 0.0018161006620982148 -7.178001202581434e-05 0.462405955147305 -0.041690145336141515
73927000.0 0.7805450388353153 -0.619624020943811 0.0330628123337577 -0.3976313470290351 -0.0010549784849526974 0.0017617909434841895 0.45782014208362953 -0.05711247970255979
74926000.0 0.7769606913391637 -0.6288114225288602 0.030808337143038607 -0.41681201321587863 0.0017806589173767209 -0.0018229185280935526 0.45740123387347664 -0.053112400027781954
75925000.0 0.7708673546624357 -0.6327392562404665 0.017657367703916023 -0.43392620026258927 0.0005119143652851102 -0.005373355927081975 0.4675542535285741 -0.07670453250843713
76924000.0 0.7633925697894542 -0.6412847138130248 0.006936372008002397 -0.4613676286147702 0.001325572941559723 -0.0008335521720352617 0.47734562245580214 -0.08100238980599754
77923000.0 0.7573408856528846 -0.6464097486722369 -0.010254511376836644 -0.48563133501768846 0.005091366954888011 -0.0008083839036462715 0.45780672778136233 -0.10519635150575136
78922000.0 0.7491489865272949 -0.6583590166065372 -0.024364764965426142 -0.5118287217329832 0.0008960638087064517 -0.0017922036613754275 0.4637386064135062 -0.1004886766638867
79921000.0 0.7417467221001699 -0.6634954916189357 -0.04158613968254126 -0.5368004321081198 -0.00019608625238162644 -0.0006314748307485652 0.4563405680021422 -0.12577248127266255
80920000.0 0.7358574908327137 -0.6740493223640113 -0.054013947125559764 -0.5719153580993583 -0.002948021271139909 -0.002867197138148446 0.47470262391753887 -0.12772912492773003
81919000.0 0.7307411598137401 -0.6794017831585888 -0.06769992288092001 -0.596453094557248 -0.00013128441938048096 -0.003496255338251617 0.46320496806866446 -0.13210767468057083
82918000.0 0.7231125136669703 -0.6864307544270112 -0.08514706349548555 -0.6266037623978136 -0.0032097794939994592 0.000966474266807231 0.4693664580291533 -0.1365190486568342
83917000.0 0.7141391214743609 -0.6917202424425847 -0.1007321374346007 -0.6578157879664008 -0.000552224048505355 -0.0008184217407286754 0.47653848888718825 -0.1544053677762375
84916000.0 0.7082956029022085 -0.7037655001940611 -0.1208900768728118 -0.6899993911328368 0.0008187863492036677 -0.0011565228708861448 0.474411470720659 -0.17216542734725032
85915000.0 0.702494114048248 -0.7076143031232249 -0.143331902665411 -0.7187164177777722 -0.0016290101637162482 0.0015457127598972461 0.471944822630453 -0.17069754677882826
86914000.0 0.6938845213943339 -0.7186155317959362 -0.156832994080227 -0.7598210652211688 0.001622353757742517 0.005017473763084241 0.46666451967492917 -0.16650433797522415
87913000.0 0.6849973959346298 -0.7247169707153103 -0.17919686506316554 -0.7846508312679811 0.005833573573214676 -0.0016663599898855469 0.4632627505184448 -0.18928076061524363
88912000.0 0.6776609093717371 -0.7309281593244786 -0.19178138965705493 -0.8236106758379282 -0.002193205826334557 -0.00031351093796120304 0.46291269701623444 -0.1963229972829366
89911000.0 0.6706631349380636 -0.7385994759577402 -0.21013327572901336 -0.8603299597395144 -0.0018790441862989915 0.002793543302820982 0.47236122755854437 -0.20559670874891228
90910000.0 0.6634777291826452 -0.7430543039796218 -0.22057748492637197 -0.8952977784315987 3.688932673521692e-05 0.0007660577396613276 0.45670974608380743 -0.21701035311031613
91909000.0 0.6547860392907784 -0.7479087244523193 -0.24484621239062254 -0.9249834252525644 -0.0016810001804347457 -0.001665275365331017 0.4672991004431756 -0.226683105005642
92908000.0 0.6479514518719294 -0.758085763782739 -0.2647716898204076 -0.9603254718758875 0.0015027658963349998 -0.0012382188143508664 0.45738292211231135 -0.22953547163783491
93907000.0 0.6408915724183694 -0.7626824834019135 -0.2888559227087482 -0.9913167187231726 0.0005578480821536845 0.0026275309096704183 0.45442661182824107 -0.2561789688212229
94906000.0 0.627093827116497 -0.7704380582249197 -0.30141564334396 -1.0292941731213419 -0.003785761498927249 -0.0028650627332817875 0.4530838473887934 -0.25507776266928595
95905000.0 0.6199864786755392 -0.7796574207076497 -0.32939046752208584 -1.0613301126612689 0.001179854742553715 0.0003720892213562584 0.469442810961155 -0.2590549900115596
96904000.0 0.6128142560113012 -0.7880174773197073 -0.3511618247287337 -1.1008915217809547 0.0008781294408658916 -0.0003772416787810654 0.45506951635044507 -0.27556860171937586
97903000.0 0.604883556908055 -0.7905209602422063 -0.371983942271243 -1.1366840092661392 -0.004930673552185737 -0.0008767020394073929 0.44886637865325396 -0.2852553634267261
98902000.0 0.5992025940883613 -0.7980941769307545 -0.3949066809827352 -1.176437078793082 0.0009439542803567702 -0.005121615704347323 0.448648643442926 -0.3000332801620884
99901000.0 0.5882014174776888 -0.8049924477268328 -0.42423300637447076 -1.2089474035815118 -0.0014968545163826818 -0.0009812517089456546 0.4557681043681746 -0.3046975105455256
100900000.0 0.5798996879491687 -0.8085141242560063 -0.45537513804634044 -1.2397119952655442 0.004014546005457618 -0.001082491854086802 0.45379238346580497 -0.31954808183029954
101899000.0 0.5689234378780298 -0.814824236017832 -0.48414154907585605 -1.2767632176200214 -0.0002724919371224177 -0.0034508249044210098 0.4470930586727937 -0.32832173200476056
102898000.0 0.5595451949248901 -0.8231798404385683 -0.52637936161092 -1.3137741198162949 0.0023892107111635847 -0.0014950994450407633 0.45247405096132115 -0.3410404369098359
103897000.0 0.551017504698229 -0.830592326705549 -0.5684058883921992 -1.3514421047718157 6.970322810258216e-05 -9.617473009522513e-05 0.4449695023905547 -0.34560425080762847
104896000.0 0.5435874383560569 -0.8387223537729873 -0.6130752296725205 -1.383241752797748 -0.00020166317396478568 -0.0031307920892923325 0.4339738439563116 -0.3346493308073138
105895000.0 0.5304971710074354 -0.8418437808745205 -0.6643683300701018 -1.4303969228000544 0.0006742609680084515 0.0014134689801128663 0.4281290034191235 -0.3536294241594555
106894000.0 0.5207809741594778 -0.8471622128574346 -0.7211630731076011 -1.4663914310670942 0.004082302913605026 -0.002086790606546788 0.42679351654666825 -0.367736841165974
107893000.0 0.5144757733684737 -0.8539087474694884 -0.7704676478246494 -1.5062937104750027 0.00044016421577479234 -0.0007965722556606916 0.43022049380733773 -0.37941941714700167
108892000.0 0.5037289694423912 -0.8581919518024546 -0.8325737152217244 -1.5447917093323278 0.0009885281438579705 -1.8377288421191465e-05 0.41215385058063475 -0.37087963550936015
109891000.0 0.4913922649580691 -0.8644199343081919 -0.8911655835639212 -1.580157810685748 0.004877449132296317 -0.0008941604010254012 0.4399318719690494 -0.38230836728328077
110890000.0 0.48796462175847677 -0.8676223074219028 -0.9478125510582875 -1.5972557015570115 -0.0019327633105600244 -0.00022699848645386117 0.4311837295606539 -0.39343574127824854
111889000.0 0.4710213157505721 -0.8706040606835004 -1.0259532065906585 -1.6529607348289754 -7.209776227795674e-05 -0.0034144797285985623 0.42006176975422793 -0.40465842674649194
