! Created with skrf 1.9.0 (http://scikit-rf.org).
# Hz S RI R 50.0 
!freq ReS11 ImS11 ReS21 ImS21 ReS12 ImS12 ReS22 ImS22
1000000.0 0.9949745497688389 0.008164507226353751 0.01079454136036539 -0.04921097518795335 -0.011980403461517117 0.00034558765381979183 -0.4338620624989035 0.18297383125790834
1999000.0 0.9916077617846454 -0.011755899782491025 -0.005193574132098541 -0.01995733699388014 -0.007643574301031673 0.00330555744562217 -0.2544070894187079 0.2577486681992781
2998000.0 0.9981725172306928 -0.02186768465984233 0.00841246301234687 -0.008687019956895222 -0.00691511593344725 -0.0012805499146788322 -0.11102533574362435 0.24801656383398163
3997000.0 0.9998562520960084 -0.03157877835847025 0.015257974831850178 -0.009401074741471137 -0.000455240671830768 -0.004832223560901035 -0.06537746903629671 0.1300501918910467
4996000.0 0.9934705036258823 -0.038941742937057496 0.014532317216408498 -0.0005209781131690158 -0.0004530636955191661 -0.0029301090565537857 -0.10922125699339014 0.05355145461772095
5995000.0 0.9978447775326846 -0.046095325886222255 0.010331138255520655 0.0013850223945545484 -0.0038768707841638343 -0.004450200701698396 -0.18088288243023246 0.08306341778719854
6994000.0 0.9951376867228139 -0.061007125922933766 0.007769096106346404 0.006588922903665905 -0.0033760225566249187 -0.0027285569058313128 -0.1995141428095766 0.12660421967280505
7993000.0 0.996778747352024 -0.071119509910712 0.003386259971493353 0.009032021909775343 0.0019287269458053671 -0.0006476825215592123 -0.21671451009326867 0.17075426324116935
8992000.0 0.9961290816798609 -0.07147083206124848 7.701642752202994e-05 0.007050686297803622 0.0011271289158134433 -0.0011210273827776073 -0.2270596299975083 0.1843053038938235
9991000.0 0.993310278577966 -0.08313657608185117 0.0063735736175994226 0.0034784817829393044 -0.0006072601391042408 0.0023681496797185557 -0.21901104129750273 0.21557458387013892
10990000.0 0.9939928800407114 -0.09522835372604121 0.001547544850227566 0.002626896740611275 0.002870769055219156 -0.0009873924908039935 -0.21542327024886648 0.23160847408781018
11989000.0 0.9901381475301698 -0.10139073826303749 0.007717013083762891 -0.00014327531654953244 -0.0018642040872779294 0.003375733610783923 -0.18920090161347516 0.23340697504283822
12988000.0 0.9917366387369166 -0.11081885758661436 0.003087857343387522 -0.007420631539255117 4.9451506621025294e-05 -0.0021275799360252956 -0.18338740375716706 0.2583549118000388
13987000.0 0.9887191584686753 -0.12017256076989655 0.0033103579479245174 -0.0032786083063264786 -0.002028724125848554 0.00020636366337371405 -0.16992244638647466 0.267861982257721
14986000.0 0.9873800607241451 -0.12728979906254687 -0.0014378880517467924 -0.0039099914418888205 -0.0013733790779935928 -0.0018854069172010242 -0.15348372100498428 0.27817516904185424
15985000.0 0.9888435380352656 -0.13535204247774893 -0.004472741100405599 -0.003973026568655501 0.001510556546321519 0.005348525335956184 -0.13997483690198786 0.28423493679395206
16984000.0 0.9851734268328514 -0.14502645096470004 -0.00046048842463746316 -0.003694860780277236 0.0032665565605460812 -0.0057645136341718676 -0.1388793147973454 0.2934297876263073
17983000.0 0.9851012899472343 -0.15160558307099103 -0.0047934288728299235 -0.011801871451325862 0.0007210215932679611 0.0012885449636665114 -0.11649247440438043 0.2927536449801176
18982000.0 0.9828225724360048 -0.16284997128422848 -0.0030503097119487133 -0.004665438387374906 -0.005946524313826627 0.0014842846363042224 -0.08620956013189479 0.3108436355082008
19981000.0 0.982364361478671 -0.1671413222533637 -0.0009659018167977069 -0.008822459195077462 0.004105681558868472 -0.0010619256292543993 -0.07942394650313439 0.3076459603283574
20980000.0 0.9799122310530464 -0.1789984552576955 -0.0019960611381006263 -0.004520778285546022 -0.0009775153760059028 0.0014290275157700912 -0.06190176241232781 0.321268947572058
21979000.0 0.9784104960974225 -0.18773712074972182 -0.006772261144378972 -0.0030075072390826963 0.00018470048545641169 0.006970832986899139 -0.0462801118780456 0.31008687084758296
22978000.0 0.9772031590122355 -0.19585537481648935 -0.0070516505002448 -0.008346393093839834 -0.0035843326060642573 0.000685625472327721 -0.030332625213610964 0.31408627281670654
23977000.0 0.9777679853512073 -0.20262297084052738 -0.006740953201144744 -7.891907689163516e-05 -5.690111099688563e-05 0.003686196850333194 -0.01486939370418421 0.3160426278132745
24976000.0 0.9735778676849961 -0.21408709264908085 -0.005832008837023287 -0.0008725775889760653 0.0010469592652762975 0.0021414550618334524 0.0017527948209975633 0.31344944772260147
25975000.0 0.9658241605043056 -0.2209349704667713 -0.0018455426691328302 -0.0019183369407927452 -0.023261740192577488 -0.02075115664084836 0.02088962255261567 0.32203910446038886
26974000.0 0.970288494344547 -0.22995921252168144 -0.0007512076608998721 -0.004028342808285604 0.0019158351175162275 -0.0013772878315339836 0.03201545673953338 0.3212763497846038
27973000.0 0.9677813403123372 -0.23924646158983492 -0.004431674870432065 -0.003245721302589141 0.00038749378638577083 -0.0001848455146613481 0.05349243192894628 0.3127799464098315
28972000.0 0.9636087988079096 -0.24681735692608306 -0.0013332170577868892 -0.002041521693572241 0.0023889358590289344 -9.98836802019682e-05 0.06483372773606852 0.3137183494460204
29971000.0 0.9646915058951164 -0.25699028560592074 0.0014875885009916344 -0.003277100453406557 0.0014719519675997867 0.0007968577263778753 0.10326332030404052 0.32308887686948484
30970000.0 0.9607052327002426 -0.261816539743716 0.0029275824132753555 0.0010844040612658387 -0.0020615213986946647 0.002086469450656777 0.12351871166840242 0.31748672974595027
31969000.0 0.9592829355773391 -0.2693611681648313 0.0016487677018896059 -0.0011275092370821923 -0.004127971938931851 -0.0003578203437707519 0.09846416529623402 0.31215332935356616
32968000.0 0.9575351610628405 -0.2825683550937016 0.007451609356766907 -0.00732320662802463 -0.0011943366787864548 -0.0017697239121697318 0.11349785941407589 0.30890965511039414
33967000.0 0.9545414919239142 -0.2915872273894517 0.010932383906600745 -0.008942244292659256 -0.002613200573213676 0.0018846891648905174 0.13136438981111825 0.304511902906196
34966000.0 0.951189872524899 -0.30015327981893936 0.01240964667434498 -0.011957685267137554 0.0022743434317047707 0.0007428976940618179 0.1498389439654585 0.31284300641746204
35965000.0 0.9477822046433981 -0.3064875331270424 0.016914128809285663 -0.014708589914498693 -0.0006180524642306475 0.00013699746697813103 0.16813854449730772 0.3153700842412401
36964000.0 0.947675723739191 -0.3143642772571346 0.016177035964324824 -0.013799732524181086 0.002797242938197238 -0.0018812151258975362 0.17825451009449875 0.311207213149005
37963000.0 0.9444822807558533 -0.3237401838206396 0.023810261598412145 -0.017829208818542115 0.0014804683918118828 0.00464476358968311 0.18624735341368417 0.29724999064827273
38962000.0 0.942319582455185 -0.3324499712039175 0.027166373962298804 -0.02270521332096516 0.0041205202470113176 -0.0002972259880525022 0.19796721827515643 0.2934046979623819
39961000.0 0.9373368149169012 -0.34278000855860724 0.027033376884281746 -0.024675493023086314 0.0009959648059588403 -0.00027623107200561197 0.206014119288253 0.29761068468703444
40960000.0 0.9330417334470711 -0.3489501168692808 0.021526877206014983 -0.02137569004470154 0.002800253300094176 -0.0007137675513832737 0.23119214564778104 0.2898150276344813
41959000.0 0.9290766679196434 -0.3606271105121365 0.029169584327317283 -0.03075431811992466 -0.005076623044499298 -0.0005111421533856123 0.2284293153755823 0.2774952378096654
42958000.0 0.9240121943122157 -0.36865635295261645 0.032735098968469545 -0.037607024259099585 0.00094232524976626 0.0014200379937709259 0.24459311266215747 0.25557954831174806
43957000.0 0.9249716486672671 -0.3724756615871133 0.03477983170740019 -0.046045206874710864 0.0035063442004249286 0.0020500390032744415 0.24774522340881283 0.26487313847598326
44956000.0 0.9214154549101942 -0.38123743288223916 0.03720048105499847 -0.050365362390503064 -0.0009456347321147376 -0.00391435652207592 0.27117487669185614 0.2548370245002807
45955000.0 0.915833770108039 -0.3928956649311564 0.037398727796270625 -0.0531426909411864 -0.004213715715684729 0.0006474809500730749 0.26609738021941515 0.2520631767183854
46954000.0 0.9126907808777976 -0.400398370117407 0.04043335731576593 -0.059900938050297656 -0.00015894077749989963 0.002498258975266203 0.28788445872454277 0.24176734435584354
47953000.0 0.9105698283756057 -0.40856709091778304 0.04029931615562963 -0.06860655360268877 0.0008631739151579705 0.001509883828427492 0.30322854670563676 0.23100926030743332
48952000.0 0.9031251882567006 -0.418893604727142 0.03812032086524629 -0.07709154877015163 0.00099313093935088 0.0004541807192517521 0.2967684268225082 0.22741369448275006
49951000.0 0.9010692476787456 -0.42639155597837447 0.041390278993737574 -0.0846125254906776 -0.0017659315580972508 0.0010576551491938272 0.3298168474263723 0.21366480416467531
50950000.0 0.8996068223163747 -0.4323705232550373 0.041492605710590665 -0.09447526153573461 5.1039750876040955e-05 0.0018696744470175848 0.33196395709883997 0.20209581855961176
51949000.0 0.8938751101726924 -0.4423413310993637 0.04278098970700441 -0.09836124840631692 0.0025250573103988995 0.0008721720440085642 0.3291581390246796 0.19685665394852594
52948000.0 0.8918140701257721 -0.448870989922165 0.04719174278030766 -0.1070138689359808 -0.0011946893361097176 0.0027393319099163066 0.34274382211518445 0.20365193409068036
53947000.0 0.8840682443265283 -0.457097295664074 0.04686282888578036 -0.11897759005032027 0.0009358009842516238 -0.003049017830127874 0.3466322766203716 0.185292528270781
54946000.0 0.8796152266053573 -0.4661454637696327 0.04897150807388125 -0.12729748191527507 -0.0012208452287689128 -0.003251439683646643 0.3640148023863668 0.18489588264646228
55945000.0 0.8762472561665903 -0.4759585174513865 0.05045109088661691 -0.13973062077565648 0.0010910830974061834 0.0016502316342121577 0.3614468176358932 0.16668791617536452
56944000.0 0.8719136273377673 -0.48417797048987804 0.05714204932383857 -0.14919260681384988 0.0004685935954553015 0.0016130303494609993 0.37530248880280076 0.15804840626663583
57943000.0 0.868989796613764 -0.493306216224942 0.053986863315412636 -0.16065595094649607 0.0007405812639636641 0.0017190472242210163 0.37430654952696935 0.1656957508846092
58942000.0 0.8629121910273211 -0.4970031261525705 0.05653434543304861 -0.1708059701465576 0.000522793037708772 -0.0016013657839008034 0.39816144437197104 0.1545626821216099
59941000.0 0.8594411219294846 -0.5093168563051774 0.058437091637244004 -0.17974933496419493 0.0011296917921411265 -0.0011388441779580606 0.39719074792729236 0.14745266774446
60940000.0 0.8518908747372433 -0.5139347252379569 0.05675887840360594 -0.18636695247388868 1.4866293708656855e-05 0.0026395965905030576 0.38552806455416994 0.14016031736235396
61939000.0 0.849137447693403 -0.5223207966496577 0.062030439379748774 -0.1923567659931808 -0.0011019067117665176 -0.0008875961827119925 0.4007891149893286 0.12336604008831073
62938000.0 0.8423857331351331 -0.5335714894092303 0.06673900718633312 -0.20769957253721674 -0.0021669625099941902 -0.00029977168760354664 0.42437221370640804 0.12379757160042654
63937000.0 0.8383843351676876 -0.5401224111675373 0.06844968027489766 -0.229459848438685 -0.003258830897407109 -0.00044189230374467486 0.4211859068634698 0.10626373991911149
64936000.0 0.8313115994404184 -0.547307610798364 0.06438109168562761 -0.24339576863077717 -0.002755599030069063 -0.003195505077837061 0.4176763813743505 0.10179459020654365
65935000.0 0.8268711645323927 -0.5587300457240909 0.06491748234723313 -0.2580293963403912 -0.0005453646460092576 -0.001575640741067645 0.427723514471395 0.08674998856765534
66934000.0 0.8222073849038407 -0.564287201728506 0.06680817805791567 -0.27014962391501096 0.0009425524117920369 0.0020105494316541967 0.42075275804747725 0.06859533571643937
67933000.0 0.820336113053064 -0.5702990477477501 0.066505556010502 -0.2864941822995608 -0.0009660713551150789 0.001260447280066134 0.4343000410806757 0.07246759225014573
68932000.0 0.8091443078369228 -0.5634357222080502 0.0673520421743898 -0.2962656794137641 0.0004181995941198922 -0.0029414673104867163 0.4368201519746081 0.062175623681072184
69931000.0 0.8054130601555516 -0.5873261922440287 0.06354061927874022 -0.31594260839733884 0.0011465054261542056 0.003679297071493271 0.435163758906124 0.04597364345288247
70930000.0 0.7994772794521355 -0.5949623141374687 0.06076299752486119 -0.3324790480782266 0.0021810475813375564 -0.000907700224546406 0.4307873588383761 0.032521324675138456
71929000.0 0.7975071131345134 -0.601946621923285 0.05615782990258935 -0.3532188803855788 -0.0023874338797453347 0.001992820756702453 0.4361492534437187 0.028685995717592738
72928000.0 0.7884876865926422 -0.6119947333350043 0.05190825343509856 -0.36420194528184163 -0.00047184054043550603 0.0009864701012425718 0.45329248465365124 0.009918721397408289
73927000.0 0.7825875107223794 -0.6164722700668295 0.04649057689153358 -0.38795169663314066 0.00025620019416400794 0.0005585989560018212 0.449669739077924 0.012920820470533476
74926000.0 0.7770244946861281 -0.6259490287521557 0.040775217816841174 -0.4060977989524676 0.0014636745545993995 -0.00012378121066724897 0.45167517162220455 -0.0027118785909500086
75925000.0 0.7709875209983422 -0.6303862475172113 0.03292812676550754 -0.4272142738069939 -0.0011560582571037298 -0.0011909982934842041 0.4599858578411508 -0.010401403229883525
76924000.0 0.7639934242288182 -0.6407017910542508 0.018359635716078893 -0.45415405898415445 0.0002967680055871507 -0.002323674199982879 0.4593811069190367 -0.02340244487399858
77923000.0 0.760246288520409 -0.6453543188179213 0.011490057104330589 -0.47654009255211593 -4.313791855684325e-06 -0.003516656155487031 0.45819263026966806 -0.02264475430763825
78922000.0 0.7535241674432275 -0.6574020061819029 -0.005909495769670101 -0.5039826293092236 0.005460966063089596 -0.001857992065586858 0.4567814511039152 -0.04299733920850801
79921000.0 0.7428177356523729 -0.6590180005836573 -0.02240014469429955 -0.5281333122825281 -0.0003145017940643405 -0.0011878514265476602 0.45848197889478304 -0.056084940489615286
80920000.0 0.7384499041463225 -0.6709233979868992 -0.03956238672761393 -0.559995471904242 0.0017960208758938966 -0.004582453387712015 0.4627429267877139 -0.06373997092829935
81919000.0 0.7323907346604703 -0.6777995984548062 -0.053380643859924075 -0.5857883862949999 -0.0004893460226845581 0.0024498320440813496 0.46254761972669534 -0.06583802388839213
82918000.0 0.7243303328944924 -0.684777660863695 -0.06832754765839177 -0.6234574796696165 -0.0009031048983329197 -0.0006075302835316826 0.4784529383744135 -0.08023063538256257
83917000.0 0.7159532007178167 -0.6919130467435296 -0.0894272309732139 -0.6477631135511371 0.0005842622688476042 -1.5028377504240472e-05 0.4687697700059017 -0.10043666970093146
84916000.0 0.7110832074260527 -0.7007618788766103 -0.10204551679886166 -0.6877387669669737 -0.002402097796434937 0.0016354461277775006 0.46577983746646234 -0.10602743030799121
85915000.0 0.70221795754765 -0.7056784501879073 -0.12147053934196969 -0.7149556153845992 0.003705416974278975 0.0014900258653879942 0.46240830096586294 -0.10949330268954306
86914000.0 0.6957988299033157 -0.7160533715877448 -0.13355581435332184 -0.7542342949590803 0.0018622388402800313 0.0030164958374498847 0.4589025354701644 -0.11444857147231899
87913000.0 0.6888670494729731 -0.722210208960937 -0.1506479380778491 -0.7867059568084461 0.0015010732686916977 0.002856132242004775 0.4638147224322902 -0.1265475767648577
88912000.0 0.6810848491155546 -0.7280228255001638 -0.16897266026608238 -0.8182142339018573 0.001793480027629018 0.00477451879348022 0.4655862249991466 -0.15617088559345524
89911000.0 0.6754234787325895 -0.736046986788729 -0.18290867806682337 -0.857561141195103 -0.002301178948798403 0.004001795748624245 0.4652530785129963 -0.1525632583034974
90910000.0 0.6675479515051083 -0.7432303614864866 -0.20172665601190343 -0.888981351416471 -1.9630228333235044e-05 0.001394877519325473 0.4700599479241191 -0.15990616513935432
91909000.0 0.6575327615878247 -0.7453281449393205 -0.21844300356564236 -0.9246044941975032 8.865032758643663e-05 0.0010974586558111508 0.4681878539568169 -0.1700058550177325
92908000.0 0.6503146455990597 -0.7554804220761577 -0.23358347049849268 -0.9608717387778036 -0.003562332970007228 0.001768187804052353 0.45701775657857013 -0.17232004606803805
93907000.0 0.6454279555251773 -0.7611963026227792 -0.2521578201184578 -0.9942270629077181 -0.001821005613073795 0.004556149232910807 0.47056596059678424 -0.20030014171893556
94906000.0 0.6297026277308788 -0.7697193028044873 -0.27002379261531145 -1.0281576504289813 -0.0024583308211108003 -0.00148725583168354 0.4643101758626436 -0.18938505706206332
95905000.0 0.6220910501219643 -0.776037294324926 -0.28846542571574024 -1.0656621640401038 -0.0010951676345221462 0.0012517018414687127 0.47630797255008095 -0.20795141886082755
96904000.0 0.6160736206619579 -0.7830200091533205 -0.3080563458025759 -1.1044011642907496 -0.0021012423362711335 0.0026418934832354293 0.458721509094519 -0.2221964648032168
97903000.0 0.6068623979639208 -0.7911162997047146 -0.33483418047133673 -1.1363772533204317 -0.003363773497190683 0.001021010982358937 0.4564947650481946 -0.23726316858204863
98902000.0 0.6019540920414879 -0.7988639717176561 -0.3580971432873921 -1.1789143294172861 -0.0014455119838999162 -0.001070423967008273 0.4561369692431776 -0.23732992371517012
99901000.0 0.5923664808333928 -0.8020170949338061 -0.38327138043002446 -1.214126999027805 -0.0010195459182994995 -0.0018936024116690468 0.474135061898078 -0.26650021921361666
100900000.0 0.5807445549962397 -0.8051133995284264 -0.4135111158990806 -1.2462809931840804 0.0017360210326374831 -0.0019986636142033227 0.4668988124290383 -0.26713808207994927
101899000.0 0.5705186145030559 -0.8145356315567255 -0.4434563262009603 -1.2826380082222528 -0.0030626892918060164 -0.0013977285046663252 0.4583563291281205 -0.27348089878123855
102898000.0 0.5621894848808663 -0.8193740463520834 -0.4773663156188452 -1.3250522414054056 0.002539543475925932 0.0023509490064401732 0.46415130413971734 -0.2863188187849336
103897000.0 0.5540437912005077 -0.8279096163212313 -0.5187896970548269 -1.359209723015091 0.0013221389942920667 0.0024642787423244886 0.47230673254986827 -0.2890154591593107
104896000.0 0.5456229326321851 -0.8366342091295659 -0.5658067755424843 -1.3944702537287115 -0.00017918151699028223 -0.00013953216537437236 0.4492543804836569 -0.30250843006641254
105895000.0 0.5368664599244078 -0.8392257748217902 -0.6106143511000599 -1.4418708335931665 0.0015643160038240215 0.0002257055229687661 0.44690215472909994 -0.31429962632253894
106894000.0 0.5260785065923448 -0.8446952539759934 -0.6729223418834066 -1.4822113726584853 0.001508106267735313 0.002166693670853696 0.4540675301329525 -0.318868223885605
107893000.0 0.5188484856255003 -0.8513287557025928 -0.7229679174914093 -1.524077366658968 -0.001133121937632251 0.0015793843370698383 0.45437435275796306 -0.3311886781334503
108892000.0 0.5073989247554002 -0.855019169112052 -0.7882465699828745 -1.5567532565137716 -0.0019339381217114838 -0.0032513679321004353 0.43443149360028677 -0.3326007019493855
109891000.0 0.4944520478121061 -0.8614340652745367 -0.8434315758356407 -1.5967902340268143 0.00018153707431675694 0.0011317499977245471 0.4613972422985472 -0.3248590797627421
110890000.0 0.4897335654862423 -0.8668891225284421 -0.9072482250102218 -1.606796998757404 0.0008828927111133888 0.005420751593078477 0.44245106322283656 -0.33904644346015705
111889000.0 0.47138322253429676 -0.8700620012034669 -0.9723182770880141 -1.664121094914849 -0.0005156584735177588 -0.00034677736424157645 0.42660199396055165 -0.3464726302637504
