! Created with skrf 1.9.0 (http://scikit-rf.org).
# Hz S RI R 50.0 
!freq ReS11 ImS11 ReS21 ImS21 ReS12 ImS12 ReS22 ImS22
1000000.0 0.9928616441959669 0.013098185549575344 -0.007406908064008157 -0.0534062140547608 -0.007551380263312071 0.008486841114623327 0.35123303149348634 0.356204822752157
1999000.0 0.9973659519414495 -0.01431840345626094 0.008669085349591064 -0.02616843057414612 -0.005487100307762761 4.629568936526659e-05 0.2687568368457623 -0.0530523074230549
2998000.0 0.9995730162795039 -0.021983710623657806 0.012876612816699749 -0.015016796468581565 -0.004600951401585079 -0.004072224244605433 0.1874888286118149 -0.13307207828379888
3997000.0 1.0003305746354993 -0.03127752084647935 0.006402297797550299 -0.008521545151648414 -0.0008155077982648493 -0.001898511272330301 0.09901720667279955 -0.22920611997221213
4996000.0 0.9950039593952894 -0.03914462803575138 0.01377968097594668 -0.002632495080476525 0.00020271195227107973 0.0015571148044708995 -0.05604348029882224 -0.19634620231477748
5995000.0 0.9943908496243881 -0.04599919569174688 0.01202831737603525 0.005299041841528375 7.557758000050003e-05 0.006795578695912899 -0.1365955904724749 -0.11736167698391123
6994000.0 0.9918053962191274 -0.06007409196908169 0.004287921420581244 0.005112974265505404 0.003217107350536191 0.00033545588170429624 -0.14613858581207337 -0.017546042388164804
7993000.0 0.9948747241604178 -0.06773039266195446 0.0031256087632069635 0.007012352441268467 0.0013271883478435482 0.0051385686991562455 -0.17342378763786045 0.033081718506575236
8992000.0 0.9944552758050672 -0.07388118238921045 0.00013572486396686058 0.00019345632164180415 -0.0008554321558781806 -0.0024202035387526004 -0.16368605355785476 0.06855869774795245
9991000.0 0.9922619091495495 -0.08326054394688609 -0.0006231170085318164 0.0018039114219116636 -0.00035603888507487833 0.0006100048960497264 -0.15382790024757284 0.09296049029250428
10990000.0 0.9915934774526087 -0.09418012606937194 0.002144550850542593 0.007461469957182502 -0.005758707538795181 -0.002569710657374396 -0.14419613444034754 0.11123056913214652
11989000.0 0.9897188924198577 -0.09750422438135933 0.004878401251927839 -0.0046081228764854884 -0.001459514034670682 0.0014038618636815047 -0.12285843906660927 0.13777359340641537
12988000.0 0.9880617011142978 -0.11074562869982722 0.004154682109159416 -0.00391007253743849 -0.0019264152597507234 0.002399354263296596 -0.12190947488215663 0.15743798481928312
13987000.0 0.9879494078359112 -0.11717805146729629 0.0010793377651212015 -0.0027018651173556334 -0.0008678945403497743 0.0009535534185435309 -0.09023679829543614 0.18609884668140417
14986000.0 0.9879250132074359 -0.1248018256320305 0.0013793131073502932 -0.003491242448239835 -0.0002523753532702217 -0.0010767377851839002 -0.09548290060344579 0.20495142653173334
15985000.0 0.9873800244592599 -0.13664209713273343 -0.001738092187813114 -0.004427784592396407 -0.00025651990922421374 -0.0037637838842696056 -0.06813644913228707 0.21927261978216356
16984000.0 0.9841455608498935 -0.1447918097043091 -0.00033332691964266204 -0.004401682193410325 -0.0021320127739513136 -0.0008343186175271556 -0.06039535936556139 0.20875072773620382
17983000.0 0.9860406821183474 -0.14795279135110728 -0.005186187938207658 -0.00579758401875207 0.002802158510441781 0.0021795531228576874 -0.0489364780210721 0.22232609022582825
18982000.0 0.9814521651615851 -0.16112075617261926 -0.002290378345072456 -0.0017835262768244149 -0.00017262723729148335 -0.00045662463552146405 -0.021252760788517393 0.24772124546414273
19981000.0 0.9818127534532655 -0.16691265308992442 -0.0026619729014796356 -0.0018837354514336902 0.0025939355876584357 0.003304711052887844 -0.012803347646313471 0.23417131351731477
20980000.0 0.9801725451598053 -0.1780514063857664 -0.007495086612340379 -0.004226390072191163 0.001005999712682763 -0.0028226453839983513 -0.00472575151718572 0.25031239926785687
21979000.0 0.9779829028871021 -0.18687886318553268 -0.006038419126556365 -0.005653592879907279 -0.00191728094679222 -0.0006382066098588511 0.010110860004069222 0.2557827841461151
22978000.0 0.9763638761691023 -0.1969799362017512 -0.004338241467731394 -0.004939318972313467 0.003844510976560844 -0.001615184072699823 0.024050889113371693 0.2639341680838354
23977000.0 0.977526297282992 -0.2004898775754116 -0.008984931619588719 -0.003671177438563117 0.004709776276502364 0.00017117351478359755 0.0460397267305059 0.25306630525405854
24976000.0 0.9731338764169852 -0.21297892941474658 -0.0051938604397729305 0.0007411549515605628 -0.0007182284442601576 7.156656636163027e-05 0.06175535435216909 0.25095402497287833
25975000.0 0.9729563032026236 -0.21979104847168943 -0.008236663846591866 -0.0031892200815789545 -0.011136409665131717 0.025226159977895186 0.07624165723150664 0.26005737909946613
26974000.0 0.9689601394358612 -0.2292858580559129 -0.007470076998215693 0.0006376317962310418 -0.0007497822442482487 -0.0011418227872306015 0.08380946431085877 0.267206388139144
27973000.0 0.9702114453109981 -0.2350361429919752 -0.0035222923638200754 -0.0021124449404125996 0.0010038349580162853 0.0022275814231278827 0.10320782310954121 0.2560702817470033
28972000.0 0.9643975963647543 -0.24615484397200918 -0.00027316778173292063 -0.0003211567592253282 -0.0005745117674499987 0.00037002288501858724 0.1075435353903942 0.2578692247239578
29971000.0 0.9635372578613987 -0.25572056103867824 0.0031740394493807366 -0.0013585417266594457 1.1034753622631952e-05 0.0013529047147369424 0.15181956499046542 0.2730494603365951
30970000.0 0.9611427947899066 -0.2605273735722359 -0.0034393981233464257 -0.002963793615220379 -0.0019987475644432304 0.004566773097114883 0.16789255702504893 0.2543690061949189
31969000.0 0.957493835509536 -0.27027108351660123 0.0035287339891001035 -0.0052030532359922735 -0.0009526712425193902 -0.0011454636635059889 0.15591048349089123 0.24945864646196678
32968000.0 0.9570152474099497 -0.28199672252505464 0.006645931653354982 -0.006311735558579297 -0.0004055877429385969 0.0024005060338193225 0.1661342836535154 0.25122543976264283
33967000.0 0.954925459969601 -0.2894305492632837 0.006614528305695535 -0.010631503270504722 0.0009287898871463364 0.0006138857545950191 0.18487441902474258 0.2447594179071847
34966000.0 0.9516736269298721 -0.2966604410485881 0.012901374796219686 -0.013627845724745617 -0.0002513285976010671 0.00012113169235126241 0.19382156813808504 0.2513350850667166
35965000.0 0.9484769516818102 -0.3057096002555056 0.019360538611676015 -0.016626422505933203 0.0005423227859367815 0.0005922054798984622 0.20523974441526527 0.2514820244597148
36964000.0 0.9462379117834729 -0.31608791607660763 0.01511775119987786 -0.0149713911083303 -0.0010497436827042446 -0.0006074419319461986 0.21094727837107155 0.25777190538892647
37963000.0 0.9433183882012162 -0.32202155671703037 0.02111620234205765 -0.021997386276766593 0.0008194248481175265 0.0006107981877351706 0.23025219713589323 0.22809541320047136
38962000.0 0.9418294962508089 -0.3312138399356939 0.02156794275518327 -0.025359269970548003 -0.0012870030272418213 -0.000954693030020848 0.2405432592343526 0.23289377794590185
39961000.0 0.937247784093427 -0.3413146940829838 0.027201547648397526 -0.026927758849781002 -0.001581204225352735 0.004178273479827124 0.2506113643162061 0.22405935413539382
40960000.0 0.9344144273805474 -0.347194603165262 0.025980820631734177 -0.025214845220061444 -0.0027562004122373696 0.00232295502749893 0.2707301844403355 0.23241027248790433
41959000.0 0.9311362525302855 -0.3586849119559621 0.02772746285640046 -0.03201731699685239 -0.00019980630906361852 0.0022569495119577963 0.26976330105375074 0.22069622995779387
42958000.0 0.9266631689989935 -0.3662457465537899 0.03243221669610956 -0.04210865490355388 -0.0035974945933034265 0.004491289721010281 0.279230125100097 0.2101826531604932
43957000.0 0.9247106781443089 -0.3734114726717596 0.03383805225083604 -0.044840652344939065 -0.0012209553474707038 5.6261900889436715e-05 0.28471154467496285 0.21768722138149643
44956000.0 0.9211930592412767 -0.38171535878282076 0.03480946777886362 -0.0502011403659544 0.0009576496359374394 -0.0005114579765942554 0.3094439517672411 0.2008910084390871
45955000.0 0.9171761952416966 -0.39063372754021813 0.03257416381326399 -0.05974581478326865 -0.003509938500649993 -0.0007756773429196446 0.3063631739463393 0.1966566693339563
46954000.0 0.913600654428303 -0.4001380719766323 0.035075343172984 -0.06397027301018345 0.0014001057581162937 0.0007906281669948259 0.3155771930599679 0.18362778723655024
47953000.0 0.9116223048932866 -0.40658506387969034 0.035919860802466896 -0.07273185369960951 0.0008377684321861515 0.002120349464777294 0.33258629299138115 0.17479593820295478
48952000.0 0.9038685186683271 -0.41929667407496096 0.037731136898109426 -0.07807759418985784 0.0018875467110693058 -0.0018890665987019743 0.3358874231571027 0.17014655221273642
49951000.0 0.9011421325486711 -0.4244256659011484 0.03531279540079493 -0.0858802273749994 0.003039950867186515 -0.0010710765152835522 0.3531621344523914 0.16147099248481442
50950000.0 0.897632059730055 -0.43290755372686557 0.03444061082955053 -0.09543416687401556 -0.003227032226100984 0.0011336876290256185 0.35277102364863067 0.1439894946129656
51949000.0 0.8938447600084389 -0.4396113259954253 0.03775353190535578 -0.10174703355789437 -0.0025245020866826715 -0.001978688077094224 0.35551913674190244 0.14782391227163652
52948000.0 0.8927664530561081 -0.4478276319998753 0.038531178383692515 -0.11262078028021323 0.0008246328209922289 0.0006970102233299011 0.37457273519024065 0.1481210005269403
53947000.0 0.8844352046477325 -0.45724203378158873 0.039328625691308294 -0.12233096811794208 0.0017014570758732855 0.0027800677906592007 0.36516704349495777 0.12779303475210083
54946000.0 0.8795775716603204 -0.4654874120200611 0.04419435082365133 -0.12851116457831993 -0.0005318468967623031 -0.0024590636827852403 0.3862686955397266 0.11944471390579847
55945000.0 0.8781878475508722 -0.474291655105765 0.04224851806404111 -0.13943597573439356 0.001104915532730606 -0.002096935005367272 0.38512075275216623 0.11645921365269832
56944000.0 0.8734979072819373 -0.48297505276264135 0.0446803186979411 -0.15081581807784755 -0.0017649755235767063 0.003903819882637406 0.3938187240016051 0.10726212001185483
57943000.0 0.868128915766197 -0.4923548124377452 0.0449423318761469 -0.16166766233524954 0.002443635293542961 -0.0007973792630155407 0.3984614753946521 0.09644096905738266
58942000.0 0.8631114980538338 -0.4962581746714775 0.049753522951327574 -0.17146164356479768 -0.0012826636836955317 0.00023100498918553406 0.42094443503447265 0.10238509898514825
59941000.0 0.8584410322750698 -0.5051560120779645 0.049684094023896404 -0.17757034488144305 -0.0037527024967615413 0.002177996329496378 0.4215856228162434 0.08859713075292092
60940000.0 0.8523034323191002 -0.5152152412439687 0.05050009831165055 -0.18792701242483376 -0.0018295917824730354 0.0014617646252414035 0.404498699754863 0.07899390237755836
61939000.0 0.8482316031086318 -0.5211026346783911 0.05342847948943788 -0.19084437441508909 0.0006799278965509986 0.0012959861149903322 0.4145998647125215 0.07577695825756589
62938000.0 0.8435254434859488 -0.5324378552900174 0.05448093504549056 -0.2114507139741529 -0.003534888252518106 0.002034666170950284 0.4391171335946411 0.06128429611993687
63937000.0 0.8365296479889318 -0.5397948085592466 0.05485892951111025 -0.2306568986826647 0.00011423718290032467 -0.0005793122357755253 0.42848431347289556 0.04603038983825104
64936000.0 0.8335826634269261 -0.5431604324360088 0.05657922402801607 -0.24473388601842117 0.00035680140094710854 0.0024129522446047665 0.4347886100729746 0.051970745187757864
65935000.0 0.8279211125792857 -0.554263317715937 0.05867677964932811 -0.256251931278467 0.0005313390514461629 -0.0037655041916786246 0.43141290563159623 0.023780866612373722
66934000.0 0.8243239949870507 -0.5602596017290457 0.05587947841830783 -0.2713366746457026 -0.0011253630452224077 -0.004786929320989369 0.43774585385945625 0.0147107752975689
67933000.0 0.8201007329158012 -0.5692315693212786 0.05594949705786001 -0.2814038769965021 -0.00012519224435176407 -0.0012358811117106564 0.4431735246262384 0.005504084124252065
68932000.0 0.8059408193220622 -0.5732629097678332 0.04722487422633307 -0.29481776002694793 0.0017774242334175684 -0.00012905663724105718 0.4557874114207425 -0.002796158189159948
69931000.0 0.804725117073727 -0.5855589474063874 0.049191204479446464 -0.31246797585880903 0.0013007291003256534 -0.001628067191907636 0.4535375681605717 -0.01514031949480381
70930000.0 0.799309029630803 -0.5923240017985631 0.05165758972066097 -0.32640555908431135 0.0008445370315158932 -0.0006459605429152182 0.4469925026432457 -0.015635801512489222
71929000.0 0.7962099785048834 -0.5989950178250675 0.04831928452794647 -0.3421962375278217 0.0007256096301483184 0.0004578580306667346 0.4447516453296744 -0.030209818351613623
72928000.0 0.7893357149249148 -0.6077894698536439 0.04458370590562977 -0.36071056075725083 -0.0009754512717369164 0.0017850766770275816 0.4638798003054742 -0.039173723928717645
73927000.0 0.7825057466743487 -0.6161107805919486 0.031136524597874356 -0.38261242046050475 0.0003482140449806681 -0.0011105308895218544 0.4650007808939002 -0.04668286425823804
74926000.0 0.7796607074603001 -0.6248189463616675 0.02834583641817734 -0.3995746000007684 0.0023706966674530536 0.0036734131420556263 0.4622448018752891 -0.05728023159489434
75925000.0 0.7707212024097586 -0.6310009534707979 0.01580304083349473 -0.4163026421057461 -0.003586902376803145 -0.00188567190621379 0.4768745976306136 -0.06338001075418352
76924000.0 0.7648406999743819 -0.6382385133981634 0.00554813803560075 -0.4416944899549664 0.0013981664969809307 0.0008507692641022435 0.470380752908651 -0.07468116071734983
77923000.0 0.759580439431453 -0.6444363242696061 -0.010815726192855545 -0.466748253167252 -0.0010332785518808159 -0.0020631014319036967 0.4669563829272899 -0.09087971381701311
78922000.0 0.7513170537220427 -0.6545830767713362 -0.025238725185332014 -0.4892735837220106 0.0020420867682891582 0.0018041014166832034 0.4649253594246986 -0.08907620789983632
79921000.0 0.7435135015111363 -0.6584930759511823 -0.04083850617992348 -0.5195690607585794 0.0024381910376010257 -0.004331929126551129 0.45530420927544246 -0.11453672822315167
80920000.0 0.7393934347266005 -0.6690336911196628 -0.05534426404041087 -0.5471954295010378 -0.0013772218654632075 0.0014136868946800218 0.46841307024581585 -0.12352993017033717
81919000.0 0.7318908507066669 -0.6760019761271939 -0.0728140218578189 -0.5732510301306828 0.004411908010381232 0.0012364142216680124 0.47466616739740514 -0.12082258190528207
82918000.0 0.7247001275947959 -0.6823616083229526 -0.08762112515149542 -0.5999000404302253 0.001758848756734614 0.002464062244492436 0.4644393692406392 -0.1298251919904498
83917000.0 0.7161797065339464 -0.6911955705311996 -0.11053394062183963 -0.6310465188079304 0.0028548033502161516 -0.0007775626760555303 0.47573077672049874 -0.13009484554705078
84916000.0 0.7099202322935831 -0.6977605768522788 -0.11995234646937222 -0.6673554793972188 0.0034889699946208217 0.003955825941878079 0.46515427073983506 -0.15488922404574235
85915000.0 0.7043590930880292 -0.7022237334704723 -0.1428610457910848 -0.6956758374073929 0.00027150348334484975 0.0008718419337773407 0.46008164907550786 -0.15649148457970882
86914000.0 0.6944058351054581 -0.7144072052859571 -0.15311934452826303 -0.7325010735666093 -0.0008808409585398299 0.0036804471397871804 0.47232781329462104 -0.16463298275048538
87913000.0 0.6905660515266706 -0.7191798365380273 -0.17516020958269543 -0.7645274540034165 0.001549607044561732 0.0012024008521473418 0.462869603474098 -0.1738051268511123
88912000.0 0.6802194870190005 -0.7263170243857761 -0.18866855995877788 -0.7974087890304954 -0.0030421732804390665 0.0010703952738510233 0.46343638560734773 -0.19078424740055902
89911000.0 0.6744245583207792 -0.734038454237121 -0.20318817043364515 -0.8319813657984343 -0.004082742004969018 0.0009327588653352835 0.4788390598637493 -0.19042719334380973
90910000.0 0.6679256428334998 -0.7406657240344364 -0.2216715459255698 -0.8682078660003997 -0.0009538893884753652 0.0031643788137829033 0.4691358907653557 -0.2044857863172798
91909000.0 0.6586243160214426 -0.7448411306495412 -0.2364504982239845 -0.8987908778462483 0.0011140619242470963 0.0006334916099869492 0.46452225050287954 -0.21647189501812938
92908000.0 0.6500070938937094 -0.7552493421148109 -0.25987050450210103 -0.9285184548595808 0.0017606389076307842 0.001473015873857671 0.4683126796856555 -0.23325621691101955
93907000.0 0.6470394710714882 -0.7596669738013683 -0.27725312992378276 -0.9641650834024567 0.003652896599176061 0.0036140230953229904 0.46888320653877374 -0.25118637206448435
94906000.0 0.6310582214297249 -0.767805964433041 -0.2900110384190524 -0.996612884109022 -3.16494858359343e-05 0.005014473202610153 0.45822263484009035 -0.24171644658401975
95905000.0 0.6245255304395887 -0.7752868287473678 -0.316208058390068 -1.0284829983515447 0.0005840565225727066 -0.0018891303903797315 0.4630754760049786 -0.25925268309655425
96904000.0 0.6172796154697466 -0.7819542012327332 -0.33230805442270717 -1.0702862261403698 -0.00222956777379161 -0.001107880690629602 0.458445190139559 -0.2622692939001888
97903000.0 0.605542797573331 -0.7882294634071121 -0.3517670449623991 -1.102448162201934 -0.004629729191674057 -7.060714401590372e-05 0.4512942942758341 -0.27261504113140345
98902000.0 0.6036116181407983 -0.7959040196521481 -0.3731132613158628 -1.1400922447829567 -0.0009669060074340099 0.0013902331584277592 0.4494121546365777 -0.29122602680720144
99901000.0 0.5906457861470301 -0.8016230000260451 -0.39960835292409963 -1.1729724247288544 -0.002981404871795768 -0.003059873577344734 0.4712874972442208 -0.30637573155568076
100900000.0 0.5845694289478607 -0.8049273235917465 -0.43157977350864407 -1.1992499991887546 0.0016489437204240279 -0.005698462136965565 0.45732526343165086 -0.2959108716491694
101899000.0 0.5738941068184675 -0.813573205129098 -0.4622045577416571 -1.2388021145380077 0.0005603461195178715 -0.003498892038386189 0.46013646481312914 -0.3003802391624255
102898000.0 0.5645950069436376 -0.8191414853804646 -0.49773712901394496 -1.276348734369238 -0.0015972097626176748 -0.001206243348830903 0.4578923472058696 -0.33365683644621974
103897000.0 0.5571076659453249 -0.8261117952656 -0.5350181280602979 -1.3113673370367491 0.001778215310657748 -0.0012305575232968058 0.4611866630944684 -0.32126336677061285
104896000.0 0.5471152196008134 -0.8353572308199372 -0.5790273561574717 -1.3401226128120844 0.0006070297440643144 0.0023828456201210797 0.44683916727116524 -0.32785306756901267
105895000.0 0.5392546325384309 -0.8361980237478691 -0.6198415924841537 -1.3836493918604194 0.0016315873429621876 0.0016394738481554348 0.4373867783924799 -0.34414987567112043
106894000.0 0.5324863796686516 -0.843187547228001 -0.6720405355583201 -1.4197365823938912 -0.001781775045101442 0.0010449770912100197 0.4348266827208332 -0.3523167810422828
107893000.0 0.5225676859545514 -0.8490474479828 -0.7225732067443301 -1.4591138643794102 0.002684704782433194 0.0012838531184899361 0.4318069570349965 -0.3640825781497608
108892000.0 0.5108754477201995 -0.8532550659191457 -0.7875118043881435 -1.4953454213824076 0.002239880635767188 0.0008870569114838 0.4280011226761958 -0.3711159152783885
109891000.0 0.4979114168591508 -0.8596552367846734 -0.8435826975750539 -1.5315940066649503 0.001476189865384958 0.0006051439550509778 0.4477058264136844 -0.3608775881725545
110890000.0 0.49535225577307035 -0.8690386211817808 -0.9066219265740922 -1.556412301176999 0.00043532670717309237 0.0009525380476384304 0.44134113145955833 -0.3726353721790202
111889000.0 0.478449387565521 -0.8669370010832262 -0.9712459023369833 -1.6037899013878407 0.0011145859042387672 -0.0013679137889857132 0.42775603386381067 -0.3793789781604965
