! Created with skrf 1.9.0 (http://scikit-rf.org).
# Hz S RI R 50.0 
!freq ReS11 ImS11 ReS21 ImS21 ReS12 ImS12 ReS22 ImS22
1000000.0 0.9736985377885985 -0.006081313833442918 0.00235718409354041 -0.032051832020370694 0.003438009069985502 0.002979877875836093 0.3440217342169288 0.25563056231870407
1999000.0 0.9959574800007737 -0.012343561560536157 0.0040696031441158345 -0.027427407733196414 -0.0021005682007084955 -0.00394083139408073 0.29058117008537254 -0.08697749047946719
2998000.0 0.9967701039502351 -0.021461884811862477 0.007780965106838506 -0.022368883414311536 0.0016952296316577785 -1.6923481493006797e-06 0.20318515531985404 -0.14542973603306442
3997000.0 0.9996853466138214 -0.02686749545182378 0.010019648200827541 -0.008775351553992205 -0.009734276566173832 -0.00516902921901579 0.08687228930058254 -0.23345814898545714
4996000.0 0.998386271094568 -0.037385188619609884 0.008586208334325232 -0.002665724085584239 -0.0004231714361430571 0.0008661954064514673 -0.05820043713880803 -0.19257208270437762
5995000.0 0.9993392431461926 -0.04660947505395106 0.011519220037596955 -0.0022396522670996943 0.004359197896090487 -0.0013335033155265385 -0.12665598322301766 -0.10440615511937344
6994000.0 1.000446679453066 -0.05348859361232538 0.008204127152991701 0.006238087822557829 0.00496736565704108 0.0019684357159299956 -0.14053839169975177 -0.019531612880075815
7993000.0 1.0017806551392883 -0.06566321837572664 0.004227487575245859 0.007942721704808867 -0.00079017592350339 0.003152067720389993 -0.14740343687435478 0.03997571868569849
8992000.0 0.9987529087696414 -0.06908774121268171 0.0008747960983142277 0.004837252877502912 -0.003987093519312155 0.0036302896216774527 -0.16556663622148834 0.05972147942835426
9991000.0 0.9966249593669926 -0.08275652931938549 -0.002769774217121223 0.001877040030252556 -0.0023435661759424638 0.0038065534473954803 -0.15467277001021987 0.08551547971288957
10990000.0 0.9964027058032974 -0.09040938895860004 0.0063961553600476295 0.002826953746903895 -0.000347521930393966 -0.001366595101234909 -0.1219146393136236 0.11373778342322774
11989000.0 0.9945515964731604 -0.09996806773009007 0.001839585159212217 -0.005051477324427594 -0.0027026613834054505 0.0007077198517280243 -0.12022383248293382 0.13112458551742104
12988000.0 0.9931102836967736 -0.10996063495957996 -0.0020082676383458412 -0.0035121401020137017 -0.0008854549076847009 -0.00020611062156297957 -0.10550724062529884 0.16203022870018818
13987000.0 0.9927288060621886 -0.11811216581852006 -0.0010733883847547166 -0.0036413873596163404 0.0017148725567045552 0.002112995750885832 -0.09271047098710068 0.19326666242875404
14986000.0 0.9926457797605459 -0.12515470308613236 -0.0007869841543449201 -0.0008700675875620301 0.0004748061002364796 0.0009242147052883471 -0.09143561016438576 0.19885722085513133
15985000.0 0.9945504909592374 -0.1335066716300722 0.0015910017080318839 -0.005578088236012373 0.0018568332432379187 0.0016267487142169659 -0.07001766598738865 0.2188606420267666
16984000.0 0.9905367572299008 -0.14270046931062547 -0.00747320499350094 -0.002742861549333581 0.004651450773543632 0.00038513179536407244 -0.059922712029009895 0.22101625525173113
17983000.0 0.9889248807606263 -0.14956535132704005 -0.008959324766476585 -0.005664246006318872 0.0005808316977483892 -0.0012210089978094854 -0.047342647073826044 0.21604991238851073
18982000.0 0.9850985190098606 -0.16047463794188663 0.0006505215175586983 -0.004801311771518085 -0.0012295613618054089 -0.0011484927793221987 -0.026324939732466496 0.22825892842358217
19981000.0 0.9860608811207943 -0.16550345494968582 -0.002300411544640693 -0.002114951317119101 -0.004861532965700386 0.000624595703691124 -0.008022174535656332 0.23415942092789915
20980000.0 0.9842187532253974 -0.17593692939358746 -0.004883670543605439 -0.004830798188914598 -0.001980905080678777 -0.0012836539405310958 0.0013015501066286337 0.2477098549299612
21979000.0 0.98209366236364 -0.1850180628889314 -0.00758461370551595 -0.00431650356868839 0.0009985790583534123 0.00019621445952582747 0.023897193272119248 0.2406480433300985
22978000.0 0.981280943718341 -0.1925682542301358 -0.007376660784598714 -0.005168839665018008 0.005961859913921924 0.002934218048964813 0.03253140279675989 0.25884080631081907
23977000.0 0.9811585533672429 -0.20249862335408358 -0.004351743866814491 -0.002160185505863435 -0.00010628615232488416 0.00020920368360516866 0.04206521306031983 0.24945399354879028
24976000.0 0.978738973147084 -0.21006707786797893 -0.0074421291114369365 -0.0013441592432085075 -0.0001670859830268233 -0.0022508388041741147 0.06383217117012044 0.24672584335482253
25975000.0 0.9701839394635434 -0.2234413598620446 -0.005028352790379558 -0.0012909001032156285 0.010772159862081212 -0.024650333471694992 0.07651458024006243 0.2536008256939378
26974000.0 0.9742237984659453 -0.226612612937994 -0.0034697795563441254 -0.0013551296789519312 0.0011119353631621246 0.0036798564864882317 0.08755103029394685 0.25863300391912164
27973000.0 0.9726831982554717 -0.23443367036649562 -0.002543205264538417 -0.0020946880094238575 5.944348410413358e-05 0.00024396939743041878 0.106741172820335 0.2484482889354229
28972000.0 0.9707197034651777 -0.24161810447372856 -0.0007905607506539467 -0.0042794264741147815 0.0011048881926485545 0.0022651264101029352 0.10724263184806976 0.2519372869173981
29971000.0 0.9678569659430969 -0.25382098631402256 -0.0017606509504025413 -0.002383088524446087 -0.003676101796637251 -0.000699120512126752 0.15141636494255595 0.2621037048452057
30970000.0 0.9651919918856998 -0.25868769840236905 0.0021509523791330967 -0.001671226113876178 -0.0019331477898332432 -2.0991595462408402e-05 0.16188867874341545 0.25190401836158
31969000.0 0.9630380308743146 -0.2650209928792858 0.005829595237278117 -0.006279132998010497 0.0012960699029047253 -0.0007664899932063924 0.15020851628462636 0.24920044168012853
32968000.0 0.9606542803802498 -0.27658298143614046 0.006924943573961707 -0.005728179044045887 0.000676105909115767 0.0016446440720775247 0.16235963090404776 0.2437321935192423
33967000.0 0.958165132586313 -0.28629307691568995 0.008571365110746638 -0.007404887492627776 0.000822264472139019 -0.0039559199530762685 0.18685463195506247 0.2470830742097446
34966000.0 0.9561884767601677 -0.2930895489233115 0.013895111422905473 -0.010594861084272971 0.0019149449304229267 -0.0005855572121898362 0.19379339165385415 0.248484368625666
35965000.0 0.9520762008726825 -0.3035471489387435 0.017504972172010483 -0.017867193099844716 0.0005146927310665497 -0.005051752502905923 0.21810928534032936 0.23857607030532377
36964000.0 0.9504306015620767 -0.31096331513917996 0.016939271497211236 -0.013676211760709432 -0.00223921626632678 0.000554822783456623 0.215219851388832 0.25410305476748807
37963000.0 0.9478980014598417 -0.31878884180823847 0.02031018567923137 -0.02156694333500102 -0.0002545441515401771 -0.002896744272655198 0.22098525581197825 0.22887378822992058
38962000.0 0.9445835233573366 -0.3310017477881951 0.025636712714339514 -0.024377874151008793 -0.005040155054430503 0.0012506369811814508 0.24320498494087228 0.22951434553184266
39961000.0 0.9413646575005922 -0.3358237050444664 0.029483592163643806 -0.02851413097269355 0.0011669181717088072 -0.0033334584650683403 0.2524129420980278 0.22161823488697335
40960000.0 0.9388933939543744 -0.34289295937629843 0.023528247031820892 -0.02704063770604553 -0.0033826551946678158 -0.002074514491389935 0.2711789427656557 0.23047032045255034
41959000.0 0.9362789331899125 -0.3538026899456241 0.030704075235941493 -0.03137902779255031 0.0015212509567861078 0.0020909434070957903 0.26982902650314583 0.2165325146585718
42958000.0 0.9313280291373175 -0.3612720495709567 0.032634888808143164 -0.04085225760469221 -0.0012445846941290107 0.00115727917497888 0.2791366144662972 0.2056172296022242
43957000.0 0.9284909083139392 -0.3694148736845285 0.03410841526685093 -0.04870232196542636 0.002232027643286583 -0.0003248502825003263 0.2893174076984683 0.20031924861989248
44956000.0 0.9268198508160758 -0.37705829663762475 0.03505572334490465 -0.05286877214221555 -0.0037875480658466744 9.273626433127234e-05 0.3030054399216357 0.18618913618924174
45955000.0 0.9218355949261949 -0.38643244828050904 0.03557633159318858 -0.05987751307078053 -0.002040346719575018 -0.002000941791237182 0.3116829416821835 0.19030769151387603
46954000.0 0.9192522226864893 -0.3938743946487876 0.037540523676366684 -0.06760563652169954 -0.003088734977339886 -0.003878499922838362 0.33063157640939994 0.17736078602395483
47953000.0 0.9172767622364274 -0.40083331026382585 0.03852422353158502 -0.07188550094266904 0.00035218576391030234 -0.0007424878287298161 0.3306799872883631 0.161795136033096
48952000.0 0.9103911097404581 -0.41375441831905196 0.04088613125344811 -0.08029210879859747 0.0010154146334791071 -0.0024706009521718577 0.34021156538878033 0.16487468448708445
49951000.0 0.9065231274478536 -0.41990489649462626 0.04028624085565032 -0.08741625654785573 -0.002123003905924836 -0.0042869289179000725 0.3588696004543709 0.14872873960240582
50950000.0 0.9039646788991865 -0.4277014288913361 0.04227077422146027 -0.0981139111417353 -0.0009008559357425901 -0.001078064790658865 0.35655038539308703 0.14938796469609292
51949000.0 0.8998466778799177 -0.4344872792355094 0.04399496357707067 -0.10756184116656904 8.326239866535167e-05 -0.0015899215743150643 0.3582458184062175 0.14287628842974423
52948000.0 0.8974829859891147 -0.4433929960261692 0.043918561137445404 -0.11379449904708255 -0.002254794910801395 -0.0019796098520476527 0.3785455122427548 0.13336445472790112
53947000.0 0.8925563957423077 -0.4491272352368547 0.045384500884928576 -0.12358463888087354 0.00019217454244466946 -0.0044506232118520185 0.3727624627220658 0.12724374553344664
54946000.0 0.886160118484452 -0.46205736558096555 0.048486348809732426 -0.13244071080053504 -0.0019411899275863448 0.0003571991386346301 0.3890350412984929 0.11418922122569153
55945000.0 0.8842347883534473 -0.4672628515156478 0.04850441637196541 -0.1453686662027791 0.0028414709198910726 -0.004832689768184315 0.3922440248388729 0.10837125693744476
56944000.0 0.8792562233670118 -0.47562227125144113 0.05015159548522192 -0.15550465682151346 0.0006487982249654867 0.002059634245729478 0.39765000360447406 0.10235269628887066
57943000.0 0.8771933349494667 -0.4851096456351211 0.05007579009595667 -0.1696523544152149 -0.0006698048888689603 -0.002484966114665598 0.4048751209787265 0.09258797522071424
58942000.0 0.8686859150496854 -0.49041610307094397 0.05007144229458231 -0.18005733622329947 0.0017431609396634292 0.0033945045458994025 0.41906047860532675 0.09427616142925233
59941000.0 0.867306710503975 -0.49707356655506624 0.05640062769949306 -0.18853723944704712 -0.00017634355499305653 -0.001602381014212416 0.4116045630843493 0.0864849727496167
60940000.0 0.8592764570254122 -0.507257459449198 0.05200519717870216 -0.19273632470090923 0.000489051009319928 -0.0019099160394928777 0.4033049900419738 0.0761152193155445
61939000.0 0.8569119475937232 -0.5133415865163586 0.055193715948175175 -0.2044491767416102 0.0019133315260841833 0.0007949453190109183 0.42274347129278445 0.059612469242740794
62938000.0 0.852749123844314 -0.5244333279338326 0.056679209427555416 -0.22267090023412872 0.0019283508174203778 0.0003059527124412528 0.44764028226201197 0.0563203550250374
63937000.0 0.8473247696673043 -0.5319319629710642 0.06036150479053002 -0.24466345920041435 5.831219530947031e-05 -0.002111002408209948 0.43929129797564714 0.03511223339281067
64936000.0 0.8421349839631876 -0.5366356786930232 0.059109436916522325 -0.2571467863296403 0.0031845366194504458 -0.002615194359388825 0.4389093167121286 0.03846218135236685
65935000.0 0.8367606690691246 -0.5501093009611734 0.055083731226741574 -0.27236220332775635 0.0029274950449583326 -0.0044061653402867685 0.44294224922279135 0.0193952674786144
66934000.0 0.8328238543679067 -0.5529945766721259 0.05572154111107257 -0.2861447412783381 -7.941669160816771e-06 -0.0002214828282379926 0.444682090246519 0.02004451467582284
67933000.0 0.828797092102954 -0.5621189260491833 0.057079766209651175 -0.3008791896221831 -0.0020710207476241425 0.001238573478405838 0.4517588843299283 0.00857970266492177
68932000.0 0.8151227337767365 -0.5528763398386113 0.05432760857955139 -0.30955061202844847 -0.0002436474340684017 0.001147366777202427 0.4478030157679737 -0.013371018112240621
69931000.0 0.8171585455456057 -0.5764949156651688 0.05291418095137954 -0.3318716657828515 -0.0034979783808212262 -0.0013875634341561879 0.4513916090805332 -0.01645679627166498
70930000.0 0.8094931882035148 -0.5855775327162996 0.048895471641398534 -0.34604414645703113 0.00145823931783402 0.0011769559978703416 0.4559040500777777 -0.035553055202600256
71929000.0 0.8067370661856008 -0.59165410142012 0.04848351123340585 -0.36527653822510997 -0.0023028823787958888 -0.001176207998370776 0.4527999943861634 -0.04367641270732279
72928000.0 0.799548198488266 -0.6041081685453098 0.03797897801590809 -0.38356870784059954 0.0016085401306855428 -0.004049571053133176 0.4648872418072786 -0.042993973859843056
73927000.0 0.7949612211369658 -0.608047484998848 0.03626740909786476 -0.4091191237221356 -0.001200987752011332 -0.003943659046560537 0.4646551704049568 -0.05205570578044799
74926000.0 0.7900389515649413 -0.6176213872617822 0.027918688880187673 -0.4251949019355981 -0.001093643195120669 -0.00016144610372658178 0.47454663610903997 -0.05350856731920965
75925000.0 0.7831847618953303 -0.621688601561871 0.01700345560538043 -0.44624927973436085 -0.00025663336190298147 -0.0008552414139150262 0.46781314203003366 -0.08521340726662399
76924000.0 0.7755455740689171 -0.6295099067998167 0.0011424041250509447 -0.46796611427770607 0.0045964174230940695 0.0013424024394633953 0.466376949999925 -0.09133384322236439
77923000.0 0.7724167594370358 -0.6369312953889047 -0.012267017252542665 -0.49947383741289775 0.0046127785931443 -0.004132502348738558 0.4669117665405306 -0.09069342740794956
78922000.0 0.7661894885988899 -0.6457177239278565 -0.02257893347672389 -0.5223507518862145 0.00042929687967833535 0.001643495807126518 0.453074523874517 -0.09911871749008723
79921000.0 0.7578027260475486 -0.6518420790489857 -0.04149448003338377 -0.5503132221609791 0.003735236062322115 -0.004077511855878334 0.4602738995620196 -0.11441857793195942
80920000.0 0.7508744662336416 -0.660898349078997 -0.055138083724891845 -0.5801602977518427 5.3107111165321645e-06 -0.0028078886349375463 0.47092571890851 -0.1424219237073528
81919000.0 0.7465823163712922 -0.6675411531551261 -0.07467362194228239 -0.6078869614977945 -0.0010662554986118002 0.006509317948810083 0.4688826920201411 -0.13324894682114932
82918000.0 0.737568550118284 -0.6744797605090996 -0.08901771788856051 -0.6414840053437908 0.001254456727379998 0.0019006152573130275 0.4718875160581913 -0.13998596965921362
83917000.0 0.7308493973867269 -0.6817057719254385 -0.11091228133237324 -0.6677919260777629 -0.003656826024682505 0.001464404787142116 0.4802909806537937 -0.1490722527119556
84916000.0 0.7243090257954606 -0.6917159698150901 -0.12589572845722147 -0.7034374239527106 -0.006519246788599843 0.0017797391710671073 0.46405919569931003 -0.16076969865901175
85915000.0 0.7187059898204359 -0.698612114150068 -0.1474175567793184 -0.7346695405324876 0.002791096839303179 -0.002493768299849007 0.4678464613190203 -0.1725635904942594
86914000.0 0.7106822470943164 -0.7080944593435067 -0.16227004900048636 -0.7736512875956323 0.0023157973593663774 0.0027729077502960165 0.4631457634513746 -0.16597180610586668
87913000.0 0.7031283900448252 -0.7127685019541563 -0.18186791365031732 -0.8019661186773919 -0.0016040849091439491 -0.003030757882420938 0.4690976340773209 -0.1881764602309757
88912000.0 0.6966313020524878 -0.7195726200750384 -0.19848920120486477 -0.8412814209823337 -0.003089511937810852 -0.002464787150855877 0.4595486216050539 -0.2079902965210037
89911000.0 0.6889943396840705 -0.7281697518321615 -0.21941226564076027 -0.8780241628260514 0.006300064145157705 -0.004102214562294166 0.47173739893950023 -0.21357344384963872
90910000.0 0.6840788134794049 -0.7321840943633025 -0.23356743769850563 -0.9149054368452265 -0.0018175415122382087 0.0016758023375955905 0.46171516055681855 -0.2129479555313722
91909000.0 0.6736747690140464 -0.7380982822333833 -0.25569573140807617 -0.9480633631291154 -0.000276206152949657 0.0019231493359769933 0.4718181206328981 -0.2179472543310422
92908000.0 0.6651231147637933 -0.749314561433254 -0.2746877621202647 -0.9842540461849069 -0.0005024483694136055 -0.0012867814304650222 0.4493028388766822 -0.2319778312476306
93907000.0 0.6600597980340378 -0.7514373842425364 -0.2980205903731092 -1.016368160488444 -0.00010743883425165191 -0.0006541314787958503 0.45969267036843153 -0.25321958730426153
94906000.0 0.6479391233333375 -0.76117491576774 -0.31899202352374256 -1.0511898493846046 0.002060619306135943 0.00038188323119616726 0.47055961679776415 -0.2454303899176736
95905000.0 0.6404802201973429 -0.765633626106484 -0.3408167171999344 -1.0891859056736184 0.0028967205706570093 0.0008142089437199352 0.46270435487032124 -0.2659005002816651
96904000.0 0.6322480964482378 -0.7772363698223211 -0.3665131900789541 -1.1296271131320939 0.002910793247494945 0.0009256726910538251 0.45954559503205217 -0.27714389471290385
97903000.0 0.6244754356700946 -0.7783535201755342 -0.3896310803886873 -1.1653197987334396 0.0003911101342323577 0.0067483958816715655 0.45775853943919415 -0.2732246027913588
98902000.0 0.6199794741599499 -0.7871760625580225 -0.41152844825301654 -1.2037751275360629 -0.0031802445339394873 0.00243668457910498 0.45207699336610413 -0.2886698127984002
99901000.0 0.6096098885335286 -0.7943989065621495 -0.44369677677942 -1.238641184968251 -0.0017674512495809984 0.0004186405403249517 0.45651705232385165 -0.3048801073316226
100900000.0 0.5995066471250652 -0.7963044686461722 -0.47482366917229263 -1.268701397277847 -0.0015210604528875904 -0.0009150709609589842 0.46166875816302333 -0.30701024600851984
101899000.0 0.5923419064960136 -0.8045299661154132 -0.5029325090619755 -1.3101424889124182 -0.0031054296260873727 0.0005113524149496535 0.44958314000155647 -0.3208597309781034
102898000.0 0.581100784200455 -0.8118310030798382 -0.5458829318684003 -1.3466698034153584 -0.00034500353210337485 0.00298560543400842 0.45187979259733896 -0.34589748516603286
103897000.0 0.5734888612792238 -0.8178307175685317 -0.5846156143626037 -1.3888591481688977 -4.2236399037096646e-05 -0.00036997003914991433 0.46114398308314597 -0.33648630877230534
104896000.0 0.5641642604857638 -0.8288558959207273 -0.6367872372890058 -1.4233727356886654 0.001411527777085928 -0.003071852589597173 0.4386769633164714 -0.3313919338448648
105895000.0 0.5560941859953645 -0.831858447277031 -0.6880204638770353 -1.4710984281670039 0.0003469189806101552 0.0003011523898450929 0.4412021522127482 -0.36882032074689014
106894000.0 0.5494256692343747 -0.8375483993396198 -0.7437142670075135 -1.5085362483710747 0.0014251409496475196 0.0008704722860113156 0.4394135602338403 -0.3793199125970336
107893000.0 0.5399497497212189 -0.8430914061725413 -0.8027542237994503 -1.5436971635982046 0.0018664103794609678 0.0002631068409310679 0.4407382556892465 -0.3761113503644902
108892000.0 0.528448525503932 -0.8471905086134525 -0.8623067320497638 -1.5773736891623547 -0.0017573583235352126 -0.0005858534011256624 0.43471278677688924 -0.38391698237727234
109891000.0 0.5172530704638847 -0.8541543687698867 -0.9194000581130315 -1.6143634160689329 0.0021968489688734584 -0.0012950967519686017 0.4308502585383745 -0.38252977232944346
110890000.0 0.5026020194593795 -0.8729258538297244 -1.0083088318771607 -1.6237137040003438 -0.0004571749169778247 0.0007127474635523574 0.4306939197058556 -0.3926118132257434
111889000.0 0.4983207554210986 -0.8619591294293167 -1.0464717930734095 -1.688398465173942 0.001058767396528427 -0.002687205075624936 0.41343541366579856 -0.40894072097675727
