! Created with skrf 1.9.0 (http://scikit-rf.org).
# Hz S RI R 50.0 
!freq ReS11 ImS11 ReS21 ImS21 ReS12 ImS12 ReS22 ImS22
1000000.0 0.9658707242199738 -0.0012711458632648763 -0.007112482268000635 -0.03891886751818809 -5.815543450661955e-05 0.0007511649187219783 0.35233414132766305 0.28643777535775256
1999000.0 0.9938060802207033 -0.011151648457554513 0.008620883920256412 -0.026185340920390255 -0.0052710990849781335 -0.0043195734543173 0.24067509062743792 -0.054905684311230975
2998000.0 0.9939334396206208 -0.023049977883110466 0.007692594489692775 -0.01181226891910476 -0.003096776473196561 0.004853860584798072 0.182714580325085 -0.1348588268102168
3997000.0 0.9958995851173417 -0.02986138042265906 0.015522924702878117 -0.009214670498112039 -0.004032929541118702 -0.0025008290600862927 0.083455992954316 -0.22529546638902692
4996000.0 0.9945073534420785 -0.04134845348647009 0.010168790930964056 -0.0014730573167542197 0.005019786586570218 -0.0020482946190159574 -0.028704006352794152 -0.19688661196906904
5995000.0 0.9945988345807104 -0.046354163504292764 0.007143531003332441 0.002078943057957145 0.0012609862526615887 0.0063930043515938945 -0.13497544752775587 -0.10314382785548548
6994000.0 0.9919933844013311 -0.05526932217924245 0.005159523043851606 0.0019175301535215203 -0.004780245036922881 0.0006871869440284562 -0.14388087324316365 -0.03451741416437038
7993000.0 0.9931649043808174 -0.06713017785766598 0.0069627184210198185 -0.001385480064451048 -0.00212101437497431 -0.005195094466287627 -0.16031702894116273 0.022341009397929792
8992000.0 0.9895749616697038 -0.07547651194142609 0.0028622131629236613 0.00626016360783698 -0.004511783142806955 -0.0028344218280952813 -0.17098524241140464 0.05780972369829482
9991000.0 0.9877043632484642 -0.08353948372443934 0.002429662325012207 0.005379629789066928 -0.0015984806561875821 0.0015848719054845145 -0.16050083746454916 0.09326105128180989
10990000.0 0.9905464439317927 -0.09203997354997345 -0.004772139186075892 0.003950686851728309 -0.0015641193811013728 0.002124370746588989 -0.1418734590206844 0.1167945595073083
11989000.0 0.9868616981576602 -0.09954344063964757 0.0021454670933741056 -0.0019495092418988088 0.0006932664407567405 -0.0028020395127007903 -0.13098569344716024 0.1302584241312882
12988000.0 0.9855970073300206 -0.1094642070089911 0.0016667847510780022 -0.007552763904278608 -0.005258220467568446 0.0006591093895654014 -0.11436410406999128 0.1744013596399644
13987000.0 0.9850923891970524 -0.11541662661871106 0.002254628144251118 -0.0006363858484125491 0.0010452779505243127 0.0016392560124482366 -0.10135817742970579 0.17694465958467998
14986000.0 0.9845532370155637 -0.12489554495727681 0.0024785267152551563 -0.004558133096243075 0.00018844680742696664 0.0014016189352101316 -0.09533023124115535 0.20305829478095164
15985000.0 0.9846349472410988 -0.1342548945719244 -0.00452498209542786 -0.006690167366229135 0.002902277235619743 -0.0001886202344379413 -0.07401300471223576 0.2264167197258775
16984000.0 0.9827517767896522 -0.14212417667230912 -0.000246180763999578 -0.0029653364986443925 -0.0025724809004063617 0.001961538556604094 -0.06637979746948401 0.21091049434172374
17983000.0 0.9835005315964523 -0.14754157203478532 -0.005757685780583535 0.0001236755554956867 0.0013391626540637097 -0.0049487924509077005 -0.05791988184750618 0.23271761102411417
18982000.0 0.9789137913876926 -0.16242062792937642 -0.003510119594345756 -0.004564585303386276 0.0026534545920289926 0.0020831159058103924 -0.027950764144141667 0.2448656567090791
19981000.0 0.9786586276217875 -0.16509211519160866 -0.0036736289848237546 -0.00227149474150014 -0.001771522678328309 -0.0007673697031890781 -0.023071228868726947 0.24199091634682657
20980000.0 0.9777404548340273 -0.17668720601659155 -0.006561403805505635 -0.004054558534279183 -1.1776673977291227e-05 -0.0014725574842338897 -0.011950180809674563 0.2621015309644692
21979000.0 0.9762246203985097 -0.1852381536773293 -0.00527174298526563 -0.0031642470801286396 0.0045210086096822266 -0.001121626275048505 -0.0014592751346265752 0.25147058515761556
22978000.0 0.9734369636311924 -0.19510105568521324 -0.0039322218530639915 -0.0024333033184307275 0.0007872148302125137 0.0023615215027398087 0.026516116307829605 0.2607949363100243
23977000.0 0.973707752812274 -0.20122337885363029 -0.0037837274004324586 -0.0010810207121515433 0.0012757146175136499 -0.002039557207401156 0.02824060986613683 0.26070614732366526
24976000.0 0.9697784225418761 -0.21082085404719927 -0.004009352274236411 0.0004653672438099994 -0.0009431541704748877 -0.0019305813594088252 0.05926095080515232 0.257691232698979
25975000.0 0.9719995694836986 -0.2211367028073463 -0.0018089396359075329 -0.004049710886574834 0.00537337317936388 0.02492967332305405 0.0670396486125202 0.2681167656528025
26974000.0 0.968145987646653 -0.22799866309627043 -0.00015948581722029218 0.0004055824412108783 0.0006770029627332028 -0.00205020582138464 0.07873021308001689 0.26864684541861855
27973000.0 0.9652610546136242 -0.23430529968226055 -0.00197666722938725 -0.0028596422784094053 -0.0014436912213873455 0.0008267917245528734 0.09165430909256872 0.26205145252366735
28972000.0 0.9626767056614646 -0.24710536971460145 -0.0013726142166011525 -0.000972888413451617 -0.0011041260181253122 -0.0006662067878539985 0.11433812034221283 0.2521565514152065
29971000.0 0.9617835068667768 -0.25380740489009473 0.0020287556793976975 -0.004861199269142501 0.001147860352830702 0.0015323964132362671 0.15140960012627006 0.2675325595934129
30970000.0 0.9599608940731619 -0.26030136318362956 -0.0005996952937181724 -0.0008213326184033329 -0.00016157549954017364 -0.00031420156587506584 0.16028676731387598 0.25269670004190276
31969000.0 0.9576589143506741 -0.2676080375207145 0.007618128240305465 -0.006170466734920491 -0.004457268316819513 -0.0002600874208487597 0.14255735730938138 0.2552119966321438
32968000.0 0.9566387978127681 -0.27683459063011234 0.0093245497982163 -0.004209250999297183 -0.002563783087403354 -0.000244956998366092 0.1522940305674065 0.24462445176746714
33967000.0 0.9529623954651852 -0.2868659199038044 0.00988412324901211 -0.009336382245604468 -0.003001575309443117 0.0025666669964647644 0.18259091463958904 0.2424263114537659
34966000.0 0.9485258727272422 -0.2967424866446052 0.014381517312226257 -0.013754216577040528 -0.0043858710806065964 -0.00035540061108940685 0.1941663791638301 0.25198913350263297
35965000.0 0.9462655304119664 -0.3056177255185961 0.01550132232861508 -0.014203011653321261 0.001610499618801745 -0.0021631759994830365 0.20372425459957466 0.2509732498352119
36964000.0 0.9458237294622199 -0.31348384656817246 0.017268500698496364 -0.012385795795023854 0.000927320528254703 0.002762510256356964 0.21359570658557153 0.2534256880689296
37963000.0 0.9420915014243275 -0.3217172692925516 0.02364471697859695 -0.01888369642342434 0.00047491074183467327 0.0002487230907053874 0.21957353843297733 0.24258385750297118
38962000.0 0.9404547676184732 -0.3302102592526212 0.02358489101100871 -0.02458196729248578 -0.0021419894071254162 -0.0016940095466857642 0.24009905848235752 0.2278743546033328
39961000.0 0.9359909397411572 -0.33997484100366226 0.027899052754943983 -0.028740058252843755 -0.0011747085271436063 -0.0021948748935545505 0.24278888110087038 0.23492700513944206
40960000.0 0.932503201830166 -0.34743748152076026 0.023272083682093873 -0.025661599646624133 0.001544742102050438 -0.0022144289920096316 0.2605628603235481 0.2270220292394797
41959000.0 0.929312350904411 -0.3572574751415524 0.028549279248512447 -0.030546261567014333 -0.0016759965089370756 -0.000873836345021043 0.27100732406007527 0.21873732139440066
42958000.0 0.9237873352017107 -0.36786643436160665 0.0320364115358507 -0.039432976611024594 0.0019705038974768443 -0.0033123214385727367 0.2738236295026704 0.201748776747182
43957000.0 0.9227554772724829 -0.3742492402712827 0.03305087045502418 -0.04586284032683987 0.002539105852471234 0.0015998084024177164 0.28119675112656267 0.20616189117745784
44956000.0 0.919440239537679 -0.38237785790484213 0.036312101109235474 -0.054016094661153174 -0.0007349151718220189 -0.0034810532888661463 0.2870827583292117 0.20357246327313383
45955000.0 0.91497335008027 -0.3917185216196543 0.03718158538837468 -0.061224389353320655 0.0008115088846976004 0.001337031064574738 0.2936791647379934 0.1962996001493496
46954000.0 0.9125564469614486 -0.39943811785944644 0.037099319277766114 -0.06651571157107448 0.0003673746816255201 0.0005264033527263554 0.3239643354587648 0.1833450234087659
47953000.0 0.9077358172876423 -0.40749870280791844 0.035596916408098436 -0.07532618044235916 0.004369495030301781 3.566434787052327e-05 0.31927513065514657 0.18119369040653455
48952000.0 0.9028131610028403 -0.41748666158939673 0.036967812045423765 -0.07817710308027678 -0.0006839489110764994 0.0006663149585213217 0.33142905136379464 0.17639325293813019
49951000.0 0.8993959313433431 -0.4227655630879133 0.03924588176465923 -0.08845515886037619 -0.0031429595800170854 -0.001488834414862454 0.34867160976601963 0.16401488675169854
50950000.0 0.8962257281370088 -0.43198438448431015 0.04045739463024436 -0.09729810607788147 -0.0031014011019461023 -0.0008704900341052179 0.35453347935207224 0.15165028718902498
51949000.0 0.8928804213071876 -0.44006856976987024 0.04194570111454101 -0.1059442974775877 0.0018790777991838136 0.0020583289661311468 0.35241995188241654 0.14812395594634653
52948000.0 0.8899483266525685 -0.4481059943063619 0.04376908850383965 -0.11333380242801815 -0.002540714830826808 0.000144269736250209 0.36134232945397027 0.14404006472082137
53947000.0 0.8831077685725414 -0.45757809845733055 0.04378651489021483 -0.12316042343938653 -0.0012427589231365163 0.0007500389082098117 0.37071728523000147 0.13379540775638663
54946000.0 0.8792084088996933 -0.4646011485963735 0.04543620875690428 -0.13374044486948972 -6.606852892200151e-05 0.004893694441552934 0.37305799287346203 0.12729615963658913
55945000.0 0.8743458540921417 -0.47538846468954543 0.048945048608898964 -0.14546576381290724 0.0021119282885158843 0.0008994047837138562 0.37821921961489025 0.10796199210885933
56944000.0 0.8715096230003582 -0.4824225578616465 0.04973791345645566 -0.1542707015054969 -0.000886439339006153 -0.001432846349512513 0.39668417064620876 0.11206228479724814
57943000.0 0.8653626669938659 -0.49311835531773063 0.050009210460231934 -0.1685509578878276 -0.0015535857811922141 -0.0014023581015123697 0.4049911219294046 0.09999096146458514
58942000.0 0.8590329744112132 -0.4986171894863069 0.04947254221717459 -0.17938862589523305 0.0030371199267424562 -0.0008317517925342252 0.4064385725975283 0.1005527671482674
59941000.0 0.8587385755009773 -0.5052574419981879 0.053628558397261335 -0.18825504176845181 0.0029233630491392695 0.0002210555004712503 0.40905513736208715 0.10103980892818441
60940000.0 0.8496206304065698 -0.5139230342566317 0.0537210098307128 -0.19037846298039718 0.001211728014067584 -0.0002724457313665041 0.39911777097196205 0.07685487660787993
61939000.0 0.8467949113534725 -0.5202327302004985 0.05515045936484369 -0.19934674399060728 0.0017572920226250296 -0.0011521791519197144 0.41154084830637805 0.07106600785802382
62938000.0 0.8391668485015463 -0.5319523248976198 0.05987264150543791 -0.21566151088326196 -0.000255025957076146 -0.001096041824253708 0.4297560449367353 0.05602361409392294
63937000.0 0.8365677628852267 -0.5372201061968985 0.057022177302553274 -0.2361002814868423 -0.0011416459593873145 -0.0011925976646860491 0.4355252223551875 0.04723438666601387
64936000.0 0.8274743999310094 -0.5463006346690583 0.05801078306614511 -0.25375949353317334 0.00178838995203757 0.0032104244737185548 0.43218988989243434 0.04806567720073729
65935000.0 0.8246212724235461 -0.5560238176297593 0.05819860640092903 -0.26963108221694276 -0.00013470457147491159 -0.003725464870378563 0.43669259608656774 0.021810372118957623
66934000.0 0.8203466105265983 -0.5619067911090962 0.05874760163702212 -0.2823664885771464 -0.003218256854328429 0.003231892197083326 0.4327374058727545 0.008288814222126033
67933000.0 0.8160812711105935 -0.5698498595415445 0.058499594581888574 -0.29730582516702336 0.00529571859234447 -0.0021855816958414303 0.4364031221992165 0.006579949165126846
68932000.0 0.8094936144529168 -0.5745949513430765 0.05204232203377665 -0.30706411773169245 -0.000533745043799314 0.001146001998396455 0.4478726124363492 -0.003401091736457314
69931000.0 0.8015873159247362 -0.5858579272541912 0.05784579669242435 -0.32576547091904734 -0.0005780967991437639 0.00014598824391277084 0.4391941569230752 -0.011770969837665731
70930000.0 0.7977337475582414 -0.5912287012042665 0.04973168963059191 -0.3422479605781844 -0.00017124211889147617 0.0014268218186547497 0.4444246814162127 -0.026876139717187473
71929000.0 0.7936795295447964 -0.6000435778187703 0.04936603187438572 -0.35909640413151883 -0.0013016317317275368 -0.000214818118919177 0.4509678888922874 -0.03870334631002247
72928000.0 0.7858674405877688 -0.6083074719021867 0.04254123764353027 -0.37707687752090646 0.0005326608712929117 -0.0006514616831537187 0.4569493617871511 -0.04543414497715705
73927000.0 0.7804833210115577 -0.6157949255009901 0.035544866100517894 -0.3994500552660518 -0.00010051825920726904 0.0017463533617358745 0.4545553579904994 -0.04481546755182803
74926000.0 0.7762111004876947 -0.6243061289140783 0.03064675545519961 -0.4187740681139524 -0.0012293489668740328 0.0006665352891983656 0.4472762094001685 -0.04338272337205948
75925000.0 0.768006092821404 -0.629154450851459 0.017656301036184464 -0.43683427008847375 -0.000702862297053296 0.0014856052551000768 0.4623814961265153 -0.06739233679800202
76924000.0 0.7613420371794393 -0.6366149757031021 0.005735757263795807 -0.463932153421824 -0.0012969427349681336 0.0018196307878010245 0.45684555624770584 -0.07376819776654565
77923000.0 0.7546014786949884 -0.6448002899063686 -0.009037084352400002 -0.4842021994572284 0.0007836717493346274 -0.002678275811075253 0.4593757157121152 -0.08655977416780783
78922000.0 0.7490807161486368 -0.6540412389194166 -0.02131906903761615 -0.5132105651667056 -0.003223527255447075 0.003066067914428813 0.46603571448587716 -0.09522442785671122
79921000.0 0.7400054621356684 -0.6573987283189523 -0.037657842201334814 -0.5417813663718044 -0.0007809664024529346 0.0010890540177345294 0.45436258065340235 -0.09853919355251711
80920000.0 0.7364829500961299 -0.6703449329798067 -0.05224819624469938 -0.5675714004767818 -0.004630412994543445 0.000748000032729414 0.4625698217980024 -0.12383429274544391
81919000.0 0.7315119626675542 -0.6753077558063899 -0.07175454713081539 -0.6002996685123618 0.00020049216577821532 -0.00016264766973910391 0.4640591876841759 -0.11841002488768755
82918000.0 0.7196691518975341 -0.6824898757528085 -0.0877342645010476 -0.6312508913993391 0.0013484889136372222 0.0017205622598434223 0.47646177056263606 -0.14399011558547312
83917000.0 0.7129919837759999 -0.6902585669994717 -0.10688615624464978 -0.6591331328284479 -0.0012269949905471876 -0.0035921106952837784 0.4646690014464172 -0.13654043906399857
84916000.0 0.7071725869042973 -0.6962566799759152 -0.12449179561366738 -0.693505506805739 -0.0013972990504092161 -0.0026963938744600175 0.465903567755521 -0.16065109023494564
85915000.0 0.7008307304263691 -0.7039422872018998 -0.142844789274307 -0.7246512674426083 -0.0022486588927792053 -0.0023643077872445026 0.4594678524367003 -0.1725102165734151
86914000.0 0.6930243600915348 -0.714306052995296 -0.16167551094088037 -0.7642248553449471 0.00048233158566312153 -0.0005116560327961539 0.4551328292787281 -0.180913816196387
87913000.0 0.6864064903535182 -0.7197737160264784 -0.17743156179068695 -0.7928660407209517 0.0019881102049908094 -0.0018653655328946665 0.4522585481214036 -0.17837673316640834
88912000.0 0.6802368021866553 -0.7254320355807794 -0.1910423699147768 -0.8305806586083893 -0.0011798142388159437 0.00133523355391001 0.45652138392097663 -0.20211148438393167
89911000.0 0.6718851608222739 -0.7341872673567877 -0.20842965395003457 -0.866779052453547 0.004098643174915053 0.0008793458581714314 0.46497376180197103 -0.2150416273136992
90910000.0 0.6647688271473611 -0.7381014918445308 -0.22507279838727925 -0.900794497533771 0.0012274875343122411 0.0032856999908859688 0.4545912006743451 -0.20391576249632418
91909000.0 0.6561437039333939 -0.743990243660202 -0.24429400796861217 -0.9372683662893098 0.00048426071766532135 -0.0017801070649739773 0.4534400510493241 -0.21856263538259754
92908000.0 0.6477495571004451 -0.753787667517967 -0.2672213748154717 -0.9657340823651867 -0.00024673383709917336 -0.0021965137543159888 0.4530784364053192 -0.2337505009139255
93907000.0 0.6428622550365352 -0.7583297560938387 -0.2873025765957773 -1.0021224320662758 0.0018823431680659987 -0.004262593559915754 0.458662804920845 -0.24105842914559708
94906000.0 0.629860659628886 -0.7671638781980448 -0.2999000520824114 -1.0354239782673411 0.0022032177692726234 0.0017015775199976531 0.4504835644549872 -0.243215884670244
95905000.0 0.6221545864183579 -0.7710741711006809 -0.3238906231945782 -1.0705731602308306 0.0005431118828607464 -0.0029193490784042006 0.4644244950022016 -0.27411177044218665
96904000.0 0.6157226814339996 -0.7802258012766082 -0.34218401329808146 -1.113615856652202 -0.00022448976463788691 -0.0009279021910771772 0.4566507498075754 -0.2712784071137604
97903000.0 0.6050573541694477 -0.7855355185855492 -0.3696656631055836 -1.148207025655526 0.0034061294436988103 0.0007647515890876144 0.4489428077816621 -0.2697940226508318
98902000.0 0.59970891193761 -0.793893167024133 -0.3889136712707702 -1.1870378798756553 0.00020875704866623384 -0.0011767493146917587 0.44953242796104864 -0.2823761701231968
99901000.0 0.5904289537329822 -0.7996943995738472 -0.42105233511483015 -1.2208119501947663 -0.0022375540666980066 0.000593869094862001 0.4565960243806923 -0.3103342532621016
100900000.0 0.5804372349462115 -0.8021481399467286 -0.4516468950235046 -1.2453901556157523 -0.004246701233886376 -0.003211888603081984 0.45767294460223523 -0.30759679573773085
101899000.0 0.5715685234931354 -0.8093791114013736 -0.4772911701483625 -1.290156959948055 -0.0005268570800042848 0.004795350088071213 0.45175655176221147 -0.3117009247979805
102898000.0 0.5609640219571924 -0.8143994064030318 -0.5194458766720145 -1.3271117174486262 -0.001653012139730038 0.0015380957044037026 0.44358657844250365 -0.341683120523494
103897000.0 0.5530052862628311 -0.8229426658992498 -0.5544183004428105 -1.3632558532183552 0.00041794069801047803 0.001336029631109473 0.46100827953332385 -0.3222852103521426
104896000.0 0.5462076579696388 -0.8336081553825647 -0.6062952885422467 -1.3996880021960156 -0.00429327216751743 -0.0020369852706684424 0.44580233155584365 -0.33024115418792616
105895000.0 0.5327535564596366 -0.8362736267751175 -0.6570763566427793 -1.4403985258983192 0.0027298747955326616 -0.0009669613586982211 0.4358481748347421 -0.34476845476235807
106894000.0 0.5242829919023853 -0.8423031049425638 -0.7140494478248067 -1.478634677831576 0.0008885180308775507 -8.084538246851258e-05 0.4496755396587242 -0.3584174783498081
107893000.0 0.5164335038209692 -0.8494303703666339 -0.7646397584397974 -1.521874422952869 0.003930643637507196 -0.0019285484378216164 0.43667293977996174 -0.36809239821127243
108892000.0 0.5083793296665496 -0.8506315302014085 -0.8237183929737398 -1.5588397151653401 -0.002549693682797389 0.000646174299262271 0.4342029213383955 -0.3704203886048973
109891000.0 0.49524590677373087 -0.8605885004047317 -0.8881432585383043 -1.5944918802906973 0.0006546907465938214 0.00019677554980592702 0.4365701133598126 -0.37398793766377053
110890000.0 0.4817364937208443 -0.876239339808221 -0.9722716127407524 -1.6142993749173342 0.001064629476925491 -0.00016811277795086054 0.4333992592633363 -0.3803647429178886
111889000.0 0.47552227101555533 -0.8659088310083278 -1.0138362011980488 -1.6689136493061318 -9.278398964180752e-05 -0.0029991296719698783 0.42790781217740004 -0.3952173923596366
