! Created with skrf 1.9.0 (http://scikit-rf.org).
# Hz S RI R 50.0 
!freq ReS11 ImS11 ReS21 ImS21 ReS12 ImS12 ReS22 ImS22
1000000.0 0.9918394698313598 0.017510059579773828 -0.00794682006707139 -0.030893317368226925 -0.006916310778529534 0.021922896914388302 0.38068911028814056 0.2932250207673689
1999000.0 0.9917919591265432 -0.011468683436790111 8.697717712874505e-05 -0.024649565505005532 -0.004892756003433586 -0.0020830718153401727 0.2569319580269587 -0.053692851856025944
2998000.0 0.9996898870551224 -0.01909209491063397 0.003119151718011776 -0.011259861520024311 -0.005465891277776247 -0.0025818839032825513 0.20931889242069532 -0.13194281122051849
3997000.0 0.9982863522714163 -0.03338908683791395 0.020165631080353384 -0.0070636250334715316 -0.0024704301941617635 -0.0029211041613701272 0.09264569069470312 -0.22943779308429418
4996000.0 0.9945905819917548 -0.03694636409976759 0.01931128812864889 -0.006552083128189416 -0.002472018852398326 -0.0058490534884447125 -0.039996778384713175 -0.2192220588827779
5995000.0 0.992287394417192 -0.05084141084096528 0.00545903615378138 -0.0010211101724142218 -0.0003230992223335051 0.002377278640348347 -0.12228509557060527 -0.11441826048882205
6994000.0 0.993403401851187 -0.059555928626200454 0.005538508679388426 0.005223240377748193 0.000855167463143675 0.0006349930803027789 -0.14188600045843996 -0.02164204392259602
7993000.0 0.9963017999941514 -0.06942803833015905 0.004438804618162764 0.0072570682499668495 -0.0021653132107187184 0.0026298277635592405 -0.1620442970873208 0.04232862481626491
8992000.0 0.9941527327137023 -0.07185292838937032 0.0031001422767870917 0.003514087228040497 -0.004189188242386385 -0.0009912835774144911 -0.1496448085158988 0.05996462187490205
9991000.0 0.9931973439208912 -0.08428656723539601 0.0031251760959081676 0.006256761716939856 -0.002222213024412125 -0.0010205791008746537 -0.14907795916572072 0.09748551653319432
10990000.0 0.9921683326235038 -0.09136995409376347 0.0007460136720508794 0.0023849939511860745 0.0012409643706987954 -0.0018573350588023 -0.1401433218783312 0.10370586001237565
11989000.0 0.9899834090369276 -0.10295755446116323 -0.0006393309033637523 0.0040509873470586264 -0.003914250564727462 -0.0014498756654729894 -0.12093639237614921 0.14030925160887317
12988000.0 0.9910988102981774 -0.11187962376383505 -0.0009831054548834542 -0.005516956068148304 0.0018313751549435147 0.0020674164291587744 -0.12220122601209696 0.17618286452757087
13987000.0 0.9869176848923591 -0.12006379517867263 0.0019246909317552489 -0.0003050549836391996 0.0009081545286379021 0.0010123001716538776 -0.10738424153570199 0.17410940647421097
14986000.0 0.9876782840315861 -0.1280127049062768 0.0010854846228914858 -0.0076718480628872685 -0.0031403554645815217 0.0018300483951450505 -0.08748004907523091 0.20617029895218952
15985000.0 0.9878823959095349 -0.13549057339179338 -0.0033526652772198854 -0.0019770674620316095 -0.0008730990727470288 -0.0030797714215837963 -0.07469076506687171 0.22376680688548375
16984000.0 0.9854803653298766 -0.1443889772326578 -0.006856277771540044 -0.0063817005462483015 -0.0019468392264244663 0.0014269307549614962 -0.06572486679677637 0.20554278286438568
17983000.0 0.9870068108854755 -0.15199976444285468 -0.0036228287000760733 -0.002687393893124919 0.0005693975633860625 -0.003840682964061732 -0.04972558526541099 0.22689904380059062
18982000.0 0.9829721742788802 -0.16283299222040587 -0.00420867094117222 -0.007489553916798552 0.004995488426956238 0.00039170318776757913 -0.033054059143984946 0.23938363991007397
19981000.0 0.9822869109109775 -0.1691652783817331 -0.005232272055879152 -0.005099262580193939 -0.005547079788621002 0.0009238128935408812 -0.015210204216378016 0.2412386209426386
20980000.0 0.9801684620088083 -0.17798049568221652 -0.004339941680261349 -0.0009252686358189693 0.003026351413680891 -0.0009606105293570715 4.514190476464309e-05 0.25667961170489334
21979000.0 0.9784000753615829 -0.18674797343598912 -0.004175518059863269 -0.0034292923378236037 0.00042444283971714497 -0.002014979700063712 0.017983285758266437 0.25021074418263206
22978000.0 0.9779337192636267 -0.19716756791168807 -0.004024617574014682 -0.0031472003829645452 -0.0028042940013679463 0.0001948175195606204 0.03070832710173765 0.25458438656387133
23977000.0 0.9782541814671235 -0.20262066067429596 -0.009358504388625837 -0.003418954856834318 0.0019437422880078231 -0.001589774277251369 0.0322871839261985 0.2526216743670381
24976000.0 0.97207423130799 -0.2150682300735754 -0.00313851455112653 -0.005243505005134165 0.0006216363362996693 0.00026923500320152384 0.05478741670469997 0.2497178026502427
25975000.0 0.9700240594327775 -0.21978259423019686 -0.004159260894370103 -0.00385959311513061 -0.025458502314305895 0.01097015487413379 0.07159012116582225 0.25369512572588554
26974000.0 0.9687479572221258 -0.2324651289956371 -0.005497533689851275 -0.00032024131299729223 -0.0019523315567858631 0.0021141323112043127 0.0902145389537181 0.25923388200497266
27973000.0 0.9696907340008125 -0.23709809855198244 -0.00400786072255394 0.001861095883776389 -0.0012366949362170262 0.0031508905319028724 0.09308755655236686 0.2584730310268364
28972000.0 0.9632833643991067 -0.24942869172759116 0.0015458601704232467 -0.0006061601827636081 -0.0010026711552324217 0.00019999477067633844 0.10958597035245976 0.2503173857144361
29971000.0 0.964016682284465 -0.25574448221272117 -0.0002829871084794603 -0.0013218951364459414 9.636851459390668e-05 0.0008491544234095256 0.151995820199744 0.2655454916465484
30970000.0 0.961030650725094 -0.2619345529171409 0.000369510505141759 -0.0018371669700848864 0.0004720656734145088 0.0019388909839440965 0.16461216647118884 0.2603958653947132
31969000.0 0.9573307420193095 -0.2716367428860802 0.005299539890413604 -0.005584327631766869 -0.0015023383747375465 -0.0025081074836200592 0.1545142866349112 0.24536925991391934
32968000.0 0.9559748543165187 -0.2811447934134843 0.007864501458082054 -0.009937439249038215 -0.0006712859165628486 -0.0006261422722811296 0.16017478554167575 0.24600931061786704
33967000.0 0.9537901075265847 -0.2906708914862757 0.01007895040917446 -0.0075444340505767555 -0.0009066644158827256 0.00033060927259536457 0.18306316264027309 0.2420614226681751
34966000.0 0.9518910737891852 -0.3000788971128625 0.015112907212090625 -0.013072102426493573 0.0005128758704224394 0.0013261958489843894 0.19589652756367876 0.2569593888798245
35965000.0 0.9486846561845838 -0.30820330910770294 0.015596236567195623 -0.014731052510939945 0.0011690253196831133 -0.0006113968014839419 0.21310197605657188 0.24922655430508253
36964000.0 0.9467620613406013 -0.3165995020828296 0.017106169322717527 -0.014180369099304778 0.0018928791107820256 -0.0017040528870798136 0.21310279730739023 0.245664269033503
37963000.0 0.9419856307246381 -0.32667588486496163 0.01912878910994531 -0.022065592836750116 -4.016621115830508e-05 -0.0009179647042057916 0.2230196524593594 0.2329908228362365
38962000.0 0.938769710370417 -0.3371003165869816 0.02358851052773401 -0.024979301055333435 -0.00017568212162435835 -0.0008682486056686553 0.23798414156390243 0.23807214610090877
39961000.0 0.9381860387613217 -0.3411319724964812 0.026236413542845914 -0.02693159789928498 0.0012298657428814275 -0.00032296780834583863 0.23966204416046002 0.2354291094593651
40960000.0 0.9326046163157358 -0.3489431445315687 0.021476798303443356 -0.022872882879147797 0.00035069068019177445 -0.0018621691794546032 0.26229266841444177 0.22541302179118158
41959000.0 0.9287902887798415 -0.3617708853974554 0.028632781055046665 -0.0335329970320841 -0.003963109764427242 -0.00157851583207184 0.2621142662069813 0.21731421843905133
42958000.0 0.9257312981125873 -0.36962182440405766 0.03324502167559434 -0.0411061884625571 0.0014975279402324286 0.0021000818592672096 0.27492095621852286 0.20782917731611467
43957000.0 0.924850638135508 -0.3729509987844831 0.02937292333414785 -0.04776564434618539 0.0019102342602566168 0.0021390996786362845 0.28108306677783057 0.20883549041235697
44956000.0 0.9205418045613303 -0.3843565229848059 0.03329970446659067 -0.05473520652128502 -0.00045092306648654055 0.0008813851108768374 0.2974062687856378 0.19319420615278546
45955000.0 0.9155085899468687 -0.39355692725639596 0.03673778833590808 -0.060095063082386525 -0.0005062675881836222 -0.002924757143445544 0.3007295320781166 0.18853746221129905
46954000.0 0.9113707801322983 -0.40269599019737706 0.033395343503894295 -0.0658991162365392 -0.000441985907783736 0.0003075786290521285 0.32704989466632683 0.16997128117345162
47953000.0 0.9108300442435786 -0.4099337191415715 0.03696481155217878 -0.07561296057556476 0.00017472880894761506 0.0013040410774280648 0.33184905870249876 0.17209101110536115
48952000.0 0.9034029153850692 -0.4210717038162947 0.03746275885029361 -0.08054049167725974 0.0021411290462695037 0.002002765213603693 0.3395030303288564 0.16759464414629613
49951000.0 0.9000987846960636 -0.4254881249631642 0.038225579602633966 -0.08694450038204081 0.002605870942949322 0.0013919112322243873 0.34945498994468893 0.15570049167474506
50950000.0 0.8974722673791533 -0.43665044384074725 0.038951713813977995 -0.09670075946198126 0.0006714002150106315 0.0005005053235767605 0.3478316796014156 0.14414969880529813
51949000.0 0.892345005234378 -0.44213390911946326 0.039997921597076457 -0.10525384049750452 -2.3042277577619e-05 -0.0031006606458574334 0.3559877248802956 0.14652418570171605
52948000.0 0.8891328408618807 -0.4529526525288061 0.04035665563677895 -0.11393361254614214 0.00017833205626974812 -0.0006313739383888152 0.3620080942057669 0.1469046165697613
53947000.0 0.8858003471810526 -0.4585979437578483 0.043088531697190346 -0.1230963785156583 0.002032658837460975 0.002873877272169394 0.36863762193801214 0.12986403578314976
54946000.0 0.8788811012393694 -0.47037735199441044 0.04393526538291571 -0.13351334207760948 -0.0006259961605884894 0.0010712595662440874 0.38358446715086 0.12453755848976164
55945000.0 0.8760086291812973 -0.4771618636866363 0.04659469875685361 -0.1429339943085901 -0.0011634310815758463 0.00018915799867903215 0.38564314316772014 0.10035475096362553
56944000.0 0.8703673062420012 -0.4851150233532689 0.05042138240172528 -0.1542571511973075 -0.0012354835394793558 -0.0019121813328436094 0.3955806937310021 0.11378037645301216
57943000.0 0.8675362692174995 -0.49470452881814436 0.04819807775099408 -0.16345980709458557 -0.0005776467996736219 0.0004179817710269462 0.3923559053777626 0.09757457188856249
58942000.0 0.8608332708276567 -0.5006828994884469 0.049788732492563825 -0.17669918767327122 -0.00048350181941267964 0.00047444860440054885 0.4116554854936116 0.0979076454412981
59941000.0 0.8586004338055542 -0.5069088198689328 0.05117026217160015 -0.1849047073811257 0.0022094873175327505 -0.0003877829934163307 0.4073871551595381 0.09703894966897773
60940000.0 0.8507762524125418 -0.5157362004871006 0.055288039676203195 -0.1917014518175921 0.0022731340933263046 8.534524802199592e-06 0.40165249086802796 0.07493709929846995
61939000.0 0.8475251447473734 -0.5235078135872892 0.05196182687886283 -0.200724104549556 0.0009030698823451962 -0.0018718350610566715 0.41273346097993846 0.07277523365377557
62938000.0 0.8404409885858436 -0.5344559630594928 0.056728630372709685 -0.21509536690221034 0.002828218303134532 0.002127762311635119 0.44349176960073045 0.05628843855449056
63937000.0 0.8372826048499936 -0.5408798749007113 0.05840535830239047 -0.23784079410147324 0.00024031085076801987 -0.00010126901642728883 0.43087283428006495 0.03592901046889167
64936000.0 0.828157343115893 -0.5486935372174755 0.05521817177284061 -0.2502963287299178 -0.001965890809127588 0.0009911762520801626 0.43113506923063905 0.05310334862823727
65935000.0 0.8263487872771567 -0.5587392110507122 0.05574916830709349 -0.26304202785501285 -0.00020405177011048093 -0.00023513851799052287 0.4310452150218549 0.02381593671228872
66934000.0 0.8209796817549376 -0.5641554406637955 0.056364606146489686 -0.27879742969109506 0.0020570517010244675 -0.0023796393031954113 0.4329685932779564 0.023976314063585028
67933000.0 0.8189270460697665 -0.5710712726091609 0.05862250940120726 -0.2939210464154368 0.007001589707245069 -0.0017033385213456283 0.4344588879780893 0.02173022709992058
68932000.0 0.8050180570242128 -0.5785433195759512 0.05433284767600758 -0.30606444922549525 -0.00230127959606556 0.0017636927399443292 0.4517976945117329 0.0072353447528703575
69931000.0 0.8016822473854567 -0.5903461228847051 0.05238105063616653 -0.32636640072411155 -0.0002746022523704464 -0.002772408263626062 0.44657292595072673 -0.011135667833442393
70930000.0 0.7948456394878746 -0.5967198977745855 0.04993383146017615 -0.33589563639165776 0.0011576189715223088 9.142148721200265e-05 0.4462409952190766 -0.02405049389197754
71929000.0 0.7942719977479377 -0.6053529168951778 0.04720051890242289 -0.35515616284724955 -0.0005667755362723693 0.0007592212883139989 0.4477720505118272 -0.03097891793919932
72928000.0 0.7855799863563501 -0.6139229668104597 0.04132504670699513 -0.3725083814219818 -0.003193960613267921 -0.0005550392852701566 0.4586135775595282 -0.03653602788290777
73927000.0 0.7817355412731225 -0.6196059946969674 0.033573947153174126 -0.39276171483711125 -0.002066962139109093 0.00039058370164353023 0.46489143281186696 -0.044187453302712745
74926000.0 0.7741436933541637 -0.6297905953187731 0.025446618115083707 -0.41267913975702863 -0.0019505732811247465 -0.0012142123182797319 0.4568887064452454 -0.05133621152559231
75925000.0 0.76851546288429 -0.6335160284489617 0.01521159577602964 -0.43191090022617706 -0.001880897413299259 -0.004861915333522804 0.47132274873014085 -0.0661461990695952
76924000.0 0.7626252679049983 -0.6415838756724092 0.00216377771832558 -0.45780856441808254 -0.005620628155048689 -0.001975892317909548 0.4687241033908466 -0.07211250009843605
77923000.0 0.7555344057125564 -0.6492240399196371 -0.011246708669449445 -0.4802684016055965 -0.0006402643849448553 -0.0015609536066444082 0.4536790761248095 -0.08997985989953163
78922000.0 0.7488905577693484 -0.6579520183546169 -0.025841590424940917 -0.507060518830198 -0.0024395637907223037 -0.0031070269353670925 0.45913755243195714 -0.09626225119324708
79921000.0 0.7410943898115444 -0.6627315180688592 -0.04336727580795179 -0.532732145724056 -0.0012028699551975624 0.0012764517928159345 0.4566170330579067 -0.10089889721099303
80920000.0 0.7341670188166535 -0.674787046813191 -0.057971310465077565 -0.5651976158150012 0.0035342837890517537 0.0034870946363621935 0.468561859238424 -0.12317429856926852
81919000.0 0.7316287211673267 -0.6792945644866166 -0.0789825706714386 -0.5923194328832468 0.0042127209317042846 0.0004919831528921967 0.4698768963206844 -0.12255815545707596
82918000.0 0.7210908678766945 -0.6862143328507759 -0.09030972412618675 -0.6242464573237497 0.00045953428776104453 -0.0020432139314981064 0.4686141530899456 -0.13981049443011437
83917000.0 0.7128606130543381 -0.6955383138431652 -0.1112456198107105 -0.6534681577697041 0.0013783164837956388 -0.0019403530928924322 0.46790003272549735 -0.1433201954662306
84916000.0 0.7082780951885194 -0.7032982813160591 -0.1302883590027007 -0.6894851100744551 0.0011384432401810606 -0.0020871822798428624 0.4603698560427618 -0.16024184742184772
85915000.0 0.7012573468253582 -0.7077657192266799 -0.15011260931541215 -0.7186559419426785 -0.000894656032068939 0.00653612764956489 0.4631922863526956 -0.16938950751850726
86914000.0 0.6917504317481064 -0.7196349602543698 -0.16496512166790495 -0.7574561400854133 -0.004325048401368671 -0.003714671513272514 0.4586245990651064 -0.1646301934803285
87913000.0 0.6854165711209785 -0.7243013962175969 -0.1795556230670475 -0.7835764390236631 0.0028790538957933296 -0.004597517682577985 0.4601717589118009 -0.17279997774889722
88912000.0 0.6804597093435809 -0.73014782368028 -0.19713465602480812 -0.8229260590137979 0.0013504887400020876 -0.0002348229439462289 0.45675850058687006 -0.1937565765635691
89911000.0 0.6701703625466566 -0.7398915194439539 -0.21342966746259442 -0.8595615779732168 -0.00019758626534421904 0.0012417205874723847 0.46749391484456126 -0.204924732600304
90910000.0 0.6643798566230167 -0.7454965898108319 -0.2354733705180737 -0.8907224318393795 0.0016681229442839286 0.0011216828438032375 0.45877454894004444 -0.19985427246335966
91909000.0 0.6542524600794163 -0.7494902165405708 -0.2554810970868347 -0.9274489226665301 0.0029876110907789515 -0.0020077367307380235 0.4653259129759748 -0.22129233852773908
92908000.0 0.6465071483404746 -0.7588948257760542 -0.2700382691177748 -0.9585656072491211 0.0037694309881654803 -0.002066689778040674 0.4528099042800712 -0.22730364706900938
93907000.0 0.6380873555234408 -0.7637430420312201 -0.2900555495259979 -0.9935563589843163 -0.0021226135639815045 0.0036616552248541555 0.46215404213058686 -0.23690339127028068
94906000.0 0.6246648847305822 -0.772963909939868 -0.3097474701365743 -1.0222601217782057 0.00016838145508570772 0.001785152747159811 0.46226376862524415 -0.24804098101198263
95905000.0 0.6188798111929372 -0.7781347963012542 -0.32729462179280444 -1.0630206553785795 -0.0008578672412721246 -0.001062461487378321 0.4552676809018854 -0.2536079298133618
96904000.0 0.6119662313339054 -0.7865213800145404 -0.3510088002218215 -1.0987514272736292 -0.005898288565040263 -0.001903330365442448 0.4605358335558342 -0.2678619600895823
97903000.0 0.6012464031454204 -0.791479645543519 -0.3729627590371472 -1.1314204578282996 -0.0012161808067767802 -0.00264412639420429 0.45343986739981895 -0.2666576628515194
98902000.0 0.5986079505590749 -0.8003416946888774 -0.3926656497486835 -1.1723980358361423 -0.000712877564592289 0.002150479730199977 0.4473821367927627 -0.2756783064420227
99901000.0 0.587404449462862 -0.8054216784146254 -0.4227932321771586 -1.2029740883997424 -0.0002806985948197445 -0.0012029692650218544 0.4586307286474618 -0.30944100327089535
100900000.0 0.5803695842778497 -0.8089776136736765 -0.4574646716508164 -1.2330081412758032 0.001996158867536475 0.0005276606604205956 0.45082213517370034 -0.3030018188962335
101899000.0 0.5700366336530521 -0.81698396659512 -0.4839085096611825 -1.2753666043481355 -0.0007260114096513349 -0.002014557026404833 0.45035645188865536 -0.3090368059297488
102898000.0 0.5609141563115593 -0.8203976273407254 -0.5180056607161183 -1.3101549604768352 0.00017058063025183576 0.0010112411172177912 0.45651842285421973 -0.3297742387493235
103897000.0 0.5504444511169124 -0.8279898906173923 -0.563796836957117 -1.3455636848422114 0.0036527645041112586 0.001260456855590396 0.4569062993080579 -0.3190864019440745
104896000.0 0.5438439617309648 -0.8404574940434341 -0.6115377370316143 -1.3834289221840246 0.000903393392893816 -0.0010052902471151298 0.4430590460372963 -0.33092393201689263
105895000.0 0.5319415321629173 -0.8409871585233439 -0.6605808767401296 -1.4221080904773877 0.0005834812179336197 0.004354544545370814 0.43854177948535483 -0.3477923262851244
106894000.0 0.5215288413921557 -0.8488769138816038 -0.7169538041067571 -1.4587706556158337 0.0016971243604418918 8.14823941456096e-05 0.42784021570181757 -0.35804352956061386
107893000.0 0.5138877248077973 -0.8556550518216236 -0.7649112996525621 -1.4979657458382778 0.0022090730459934137 -0.0008740072152822196 0.4309322187097251 -0.3652639133529531
108892000.0 0.5040184154047032 -0.8576325386859643 -0.8232922671647578 -1.5362615439197562 -0.0038865492997202703 0.0033747849254795303 0.42485391828578567 -0.3716590778000921
109891000.0 0.4911493496861407 -0.8635316589169623 -0.8855173306846801 -1.5722163914541405 -0.0010761885297673884 0.0005423080177815067 0.44435701883844625 -0.3660192622991428
110890000.0 0.4733776752621671 -0.8748261526391322 -0.968232024763236 -1.5729653764539397 0.0017461913652034667 0.0008108081131894603 0.42625334293322814 -0.37696447825126417
111889000.0 0.4734252879168688 -0.8714799384282061 -1.0113261562284974 -1.6425268765923111 0.0024394336273243834 0.0002636662166167918 0.42270582335428014 -0.3908510528991576
