! Created with skrf 1.9.0 (http://scikit-rf.org).
# Hz S RI R 50.0 
!freq ReS11 ImS11 ReS21 ImS21 ReS12 ImS12 ReS22 ImS22
1000000.0 0.9888231548936707 0.00023975642843384535 -0.0013436532560072395 -0.05483904757039113 -0.013810872817567502 0.0036537145828697587 0.3412499649272508 0.3037232867581117
1999000.0 0.9917094171950784 -0.013484002106496008 0.0047154170902836655 -0.025755121366770158 -0.006442254076271334 -0.001003860856783133 0.2666977414937827 -0.052255022158213996
2998000.0 1.0003203259928202 -0.02232681454793484 0.013890835603078392 -0.009649642391024124 -0.004446459633372315 -0.0004824328523582705 0.1977370543147156 -0.1405552272949648
3997000.0 0.9972421456288804 -0.028573629909357332 0.005868563672388569 -0.010997765909834652 -0.0035697762550619453 -0.004810167947628847 0.09775716241874183 -0.22883314755717912
4996000.0 0.9971291604216955 -0.0406491720319682 0.011345293689386622 0.0001444900778223095 -0.0007925457651658615 -0.004219331876984632 -0.045559175719897996 -0.20633397618706292
5995000.0 0.9978162855512197 -0.0491654913692187 0.013892924592924662 -0.003148394890957787 0.002821252978746086 -0.0032573894862015403 -0.11870248488191448 -0.10610074803157073
6994000.0 0.9989228980946759 -0.056548932778467495 0.007092217681367076 0.002394921656047273 -0.0015489697952551214 -0.0055097316227732274 -0.1370294834369697 -0.01725778152015053
7993000.0 0.9975677902390399 -0.06599093064625548 0.003518447105001804 0.004428533826200769 0.007373610530290039 -0.00017201183015086487 -0.15112893235834116 0.02611889256970796
8992000.0 0.9966243611947823 -0.07176413547017849 0.0014007419535953115 0.008966231633157712 0.0020449007495644466 2.6162913389285902e-05 -0.16302645225432477 0.05499903643209004
9991000.0 0.9954069129185771 -0.0821691817736322 -0.0029504081990199323 0.0061656355799265304 6.060665892739153e-05 -0.0005653054550825322 -0.1594836928987591 0.08693878254803376
10990000.0 0.9950066530565851 -0.09115750039976157 0.00405001587388399 0.004008103988644468 6.698122266269502e-05 -0.0016086103929231126 -0.14363273045118632 0.12388283671734694
11989000.0 0.9917898333638208 -0.09628710025836601 0.0016060191928486632 -0.0023610222459777303 -0.0038951612356451877 0.0043622694367068905 -0.129845630281529 0.13579742792038615
12988000.0 0.9932444371698106 -0.11150924460880472 0.0010365124924277631 -0.0005025751573070304 0.0024240095318867508 0.00044331749802841786 -0.11873956570131514 0.17213870049777613
13987000.0 0.9901436509655751 -0.11534679186072457 0.001939673798877503 -0.002325380211244629 0.0020831362959738975 0.0001896551136277406 -0.09777986966273296 0.18687360353120758
14986000.0 0.990772749181848 -0.12156333698793753 0.00038817712308547635 -0.00412866239447331 0.0008045677492537777 -0.0005459742648163101 -0.08946289614743934 0.20659926068048373
15985000.0 0.988640962696747 -0.13255410629644576 -0.0019824755433647764 -0.005974056663479225 -0.005323629845770161 -0.0009178817668094134 -0.08180855780076342 0.21996988964803604
16984000.0 0.9891300551547105 -0.14231679461553118 8.98094322664666e-06 -0.0027894855832641973 0.002159131879192207 -0.002622066045460321 -0.06044025500341884 0.21153105157655155
17983000.0 0.9895650439400887 -0.1459831173726953 -0.0028838884536409406 -0.0017987699980143278 0.0009706409550403245 0.001150027184471483 -0.053196110320414346 0.2194202453558657
18982000.0 0.9862564228791754 -0.15607132604861523 -0.004538270382854054 -0.00843550297977007 0.0009373118217186701 0.0011748082133503442 -0.027884412327263713 0.23922880265422292
19981000.0 0.9834485450832476 -0.16392071857652232 -0.0038146928269946197 -0.00907405561786877 -0.00013762793264390297 -0.0006720235444128169 -0.015970313766397834 0.24441950432036477
20980000.0 0.9841834611274289 -0.17429929864527421 -0.003679830513846065 -0.005373116016713897 -2.3090599964861193e-05 0.001193528441194234 -0.0002718055842843546 0.25914128106172496
21979000.0 0.9792923002468253 -0.18539861287313253 -0.007485371427510949 -0.0039613216395923585 -0.003070146546575632 -0.00208170180867715 0.012084544171106501 0.24388889961453059
22978000.0 0.9802950374192431 -0.1902341167514514 -0.0011525681255125301 -0.0036773208951698154 -0.0011672227078432464 -0.00034388418471351643 0.01763674295092478 0.24827590681452158
23977000.0 0.97844819575072 -0.19937736501960432 -0.001788183164140676 -0.0002413729676431072 -0.0011785899856272097 -0.0033881435908590493 0.03843309266382594 0.2639558351434076
24976000.0 0.9766993242681954 -0.20615961469465938 -0.005827321188696179 -0.0012880238964679757 0.0011571085413960456 -0.0005547890882599581 0.07112884733784375 0.25192063802481474
25975000.0 0.9701053910142862 -0.2209784952410962 -0.0020383027430266863 -0.0035981590312783407 0.008439008714231049 -0.024212612928670718 0.09262449669426998 0.2539919139173
26974000.0 0.9725520444436128 -0.22416340235316978 -0.0053700978851582955 -0.0013237392349773453 -0.0017033272912410301 -0.0012535377564770415 0.08897139013495453 0.26711579258571316
27973000.0 0.9727186430508633 -0.23038367386446265 -0.0017985056791204094 -0.003592340960804199 -0.0008691473645056558 0.0007951743758578195 0.1027257609046814 0.25840708023495457
28972000.0 0.96751706236527 -0.24276554248302679 -0.002901043952945755 -0.0025864326016884474 -0.0006537212668884653 0.0021093224953000287 0.10926122883080691 0.25786434311936585
29971000.0 0.9665099205191988 -0.25176172585794726 0.001316097028982478 -0.0019146988390876237 0.0007650591497122785 -0.00016992533434283854 0.14099973528840803 0.2711603538749698
30970000.0 0.963687734206842 -0.25532623535250565 0.0018919875776672642 -0.0012448255324955212 -0.004257360661722658 0.0010272776825262036 0.16176471324974806 0.24772247288695226
31969000.0 0.9629385451181811 -0.26405034331104477 0.003907267848774224 -0.0032607517716065487 -0.0007385361868107059 0.0004341617429531327 0.1422824747034568 0.25711770363446423
32968000.0 0.961484071400904 -0.27232898462584054 0.007770885904246351 -0.007307289207502694 -0.0009970315944794503 -0.00390333236777369 0.16566593746740688 0.24776481585577326
33967000.0 0.9577050256131908 -0.28415450108741447 0.013973955933510316 -0.0117952945778523 -0.0011558612760861112 -0.0024282899076602422 0.1869576561035078 0.2519618918969345
34966000.0 0.9562955046233725 -0.2909414050648845 0.01169177702117539 -0.012482555761426227 0.001660658635009829 0.0023282137345328265 0.198151264524899 0.25747611172919227
35965000.0 0.9523324238894282 -0.29999462536166627 0.01647098266068131 -0.01700882249779613 -0.0015804509280257872 0.0011704227647745186 0.20788146953464154 0.2520378945815845
36964000.0 0.9495120850120289 -0.3085490543108335 0.01548955541264201 -0.011442524870354995 -0.0012966354873792207 0.003573332653108139 0.21632300940953228 0.2466542892065804
37963000.0 0.9466954940741675 -0.31650555448786044 0.019450380295657013 -0.02314614876570868 -0.00016251457895178237 -0.002856890919243002 0.23521086985990408 0.23608683883001028
38962000.0 0.9443315089694513 -0.32594632834483545 0.027163161663119675 -0.019530150325668915 0.0005438281425195414 0.0007795186120919406 0.23916983746660117 0.22991957369088778
39961000.0 0.9436942458848393 -0.3306923866992474 0.025214799952305394 -0.0273310750541434 -0.0003277432274070486 -0.002544977734918876 0.24854081755834329 0.23638937081313605
40960000.0 0.9374392683566102 -0.341682984274932 0.023013299045364765 -0.023526366654853727 -0.0005002273082422036 -0.0012811287090740572 0.26638233779456416 0.22458951653205608
41959000.0 0.9365417375176103 -0.35080037169378214 0.02750732493627125 -0.0296567639418125 0.001362817099245777 0.0035747134103593994 0.27215253731233957 0.21200338985133144
42958000.0 0.9319649977712314 -0.3594294940197155 0.029607587542663554 -0.03930962810347503 0.004344544247273145 0.001031574887713838 0.2801089197130221 0.20559774865791633
43957000.0 0.9309951630481711 -0.3636890391404576 0.032596603055320125 -0.04253500948047261 -0.0013139567999761377 -0.0012169757287211888 0.29196721183845686 0.20983883175255638
44956000.0 0.9253462453289913 -0.37323394742914046 0.029855108737104785 -0.04853355321450975 -0.0017456668905802353 -0.0004917031729772883 0.3015210298266641 0.20309664791243587
45955000.0 0.9222121941372989 -0.38337635436274475 0.03350599530646242 -0.05639118705190837 -0.002400161393636314 0.00034047227411609547 0.3058664450002863 0.20502934221444213
46954000.0 0.9191937061300149 -0.39126364517543355 0.035272793472711526 -0.062235548412233326 -0.0013007155182919298 -0.000626528014105161 0.327352994311075 0.1803777952093142
47953000.0 0.9147140094119555 -0.4014545589746179 0.037462293898347036 -0.06866673923759502 -0.0016929659116319486 8.703943977419386e-05 0.3377521058255491 0.17091265890918414
48952000.0 0.9115106579970526 -0.40820688484000417 0.03217530492672085 -0.07548419669919348 -0.0007419494335520263 0.0017374190159071667 0.3327748638165956 0.17583671690476438
49951000.0 0.907844843422059 -0.4158529611689417 0.037798257069899 -0.08271334295606622 -0.004707756571847631 0.0013058797405295184 0.3486383975107757 0.16489304720672243
50950000.0 0.904697579806827 -0.42385998472805847 0.03648324922368322 -0.09453115739634535 -0.0015191329782186826 0.004429251525877531 0.35261323816432 0.14926102495049579
51949000.0 0.8999294026832692 -0.4312264202065248 0.03880879755276357 -0.09798228033225505 0.001480880865217134 -0.0014564791428419953 0.36278991828437535 0.1476288142105607
52948000.0 0.8970809403125459 -0.43994362343481985 0.03710037060013557 -0.1075293405656921 0.0002519882279440282 -0.002049405586284381 0.365427868287437 0.14876506439315512
53947000.0 0.8919473811119054 -0.4458127280065178 0.04122123149706563 -0.11483518787843439 0.0007579490108687918 0.0016891546909161457 0.3699929138690637 0.13990883847234112
54946000.0 0.8864258219663362 -0.45674810210476524 0.039386305668628635 -0.12425870414996028 -0.0018200115751478398 -0.0017904153634639868 0.38519367361576967 0.1286191390555383
55945000.0 0.8842298212415295 -0.4617468167688574 0.04107759033258885 -0.13680297014578305 -0.0031368865045471365 0.002394577832435197 0.38819000475859095 0.11800868970497526
56944000.0 0.8799370577831327 -0.47228430338193944 0.04600848080405874 -0.14447707968831097 0.0006824823776039013 -0.00027785229595798895 0.40200348663511226 0.11336482140176077
57943000.0 0.8752381566782873 -0.4816099110840576 0.04278468809855969 -0.15702601107188885 0.0023085529754585396 -0.0019319912369111624 0.3961753907669539 0.11392088145152048
58942000.0 0.8704791274595763 -0.48589533563023074 0.04850757361929668 -0.16553091664872913 0.001613652079946811 0.0018671872622432195 0.42656317733953325 0.1035989673450556
59941000.0 0.8678323650485003 -0.4948017539968167 0.049597218825954276 -0.17740041571002702 0.0009882475383579808 -0.0017774221222054685 0.4268662670638007 0.0999885057792944
60940000.0 0.8599382565961985 -0.502075104547408 0.04895542803423811 -0.18059742486709088 0.0011496788931359705 -0.003766736813074899 0.40856574894120956 0.098209853672422
61939000.0 0.8578047194175233 -0.5077997471582909 0.051244960768481465 -0.18482992627731257 -0.00015861831048917971 0.0006884200064339778 0.42178670012899355 0.07040473927041052
62938000.0 0.8521154886394432 -0.5194781771362131 0.05138852634700508 -0.20569166578433157 0.0019313900283701659 0.0005472301046619138 0.44067017432300665 0.06413785088807528
63937000.0 0.845865307441379 -0.5276310822460153 0.05481324330657119 -0.21960107400535323 -0.0022778683466940577 0.0030874761295966776 0.4388713518213945 0.04855442389836178
64936000.0 0.8428847835852464 -0.5319299874019628 0.054333605659066565 -0.234338164685834 0.00380766224112322 0.000236823203779924 0.4337399430123413 0.043957258941623174
65935000.0 0.8385083629623463 -0.5440735900622324 0.05235440197612205 -0.2487600700417224 0.001119730151313897 0.00018478950961447262 0.4426551888657506 0.02298518856469911
66934000.0 0.8342791999700438 -0.5477861068221276 0.05659798056845838 -0.26385230930765496 0.0030611214331360695 -0.001116148402003504 0.43964871005895395 0.019279375761750494
67933000.0 0.8296113607383897 -0.5570202517519425 0.05529420335100891 -0.2752813527571697 0.0014546892149102696 0.002489812870443027 0.44844547752017927 0.018966755914188792
68932000.0 0.8272667556136555 -0.555584829939098 0.0513891906312702 -0.285951074642067 0.003715089991858428 0.00047194661650375706 0.45943557832807574 0.01608903115002833
69931000.0 0.8150582962150348 -0.5742370321984158 0.05310903613789386 -0.30370167950762783 0.0010272565331431408 -0.001094420774928791 0.45635895335529064 -0.005366474141716043
70930000.0 0.8108683415784331 -0.580524201320532 0.05106313748875622 -0.31438799098318687 0.0030919118728713656 -0.0016208732629348543 0.45476369548496515 -0.020482987604787322
71929000.0 0.8080203459473086 -0.5872131197658919 0.05045243853377908 -0.3327824440820838 -0.0008989698934234789 -0.0025662315265225348 0.45260974728302644 -0.021673913757209225
72928000.0 0.8011797537186717 -0.5979499079524041 0.04300480657326538 -0.34898431463033697 -0.001541295439736491 0.0008493189029737282 0.46114771597768284 -0.032843898167032384
73927000.0 0.7952461634909295 -0.6035756633504683 0.03840707241017813 -0.36307170056600296 -0.001276083664987652 6.328487636616768e-05 0.4653338039788392 -0.04505597117745056
74926000.0 0.7898434668739727 -0.6118701375075464 0.029372783964836682 -0.38563120590467603 0.0011287188213287655 -0.0003690930402516452 0.45826443953980134 -0.0537030920751476
75925000.0 0.7859449431134591 -0.6169481559453611 0.024383618680361017 -0.4005402348128183 0.0010812521315332756 0.0016594772685562004 0.4679697277374007 -0.06876948474776468
76924000.0 0.7774431525929603 -0.6261753980286345 0.008616118348248889 -0.424627336815023 0.00043214368119083016 0.0013521931421549358 0.476904082253343 -0.07643353797317412
77923000.0 0.7717027896709598 -0.6324207388630281 -0.0009872097184365069 -0.44498272205228584 -0.0013644231124722431 0.0005286261667639589 0.4657813370171204 -0.08243006815806804
78922000.0 0.7685830130175877 -0.639575922005204 -0.01192630126227425 -0.47481197967664157 -0.0007925675159486775 -0.00026383247985216417 0.4622556344310919 -0.09406721732202328
79921000.0 0.7587583960839996 -0.6471040293677951 -0.032952639190363536 -0.4938814039619124 0.002581461064944547 0.0037071010601648514 0.464850008721795 -0.10251839671662409
80920000.0 0.7546702251832231 -0.657136778795635 -0.04931758318853305 -0.5228047693439705 0.001700023359550931 -0.0009707776752074419 0.47079786559194153 -0.11852900305019069
81919000.0 0.7484473521286538 -0.6609268996353582 -0.06332596968662484 -0.5512290357566886 0.004672991136374166 -0.00036956037178312794 0.4758229673102932 -0.1275220402480591
82918000.0 0.7400314648453743 -0.6707525112489774 -0.0778296979343145 -0.5817860369486821 0.0003519144557658235 -0.0036922034134139058 0.4753069515883758 -0.12624240394085248
83917000.0 0.7320250442439904 -0.6766919206644808 -0.10305421724723811 -0.6052334384215392 0.0022907712880931423 -0.00034609288103641504 0.476268465696818 -0.14444502217729377
84916000.0 0.725753452478303 -0.6834288018695316 -0.11112767614400589 -0.6423851917586775 -0.0004033202053133153 0.0023535669751496395 0.4712209454778259 -0.153388038607917
85915000.0 0.7224435780726379 -0.6898461255545357 -0.13067682628760544 -0.6694793314930634 -0.0018073644136138705 0.0017657606865320655 0.4715314953704203 -0.1531189610033171
86914000.0 0.7125052511845218 -0.7004886512281848 -0.14781552067856799 -0.7054768634983885 0.0033952918513400847 -0.002569481406495019 0.4661981978933174 -0.16191313871648366
87913000.0 0.706646650481692 -0.7065496303926607 -0.1658947074002038 -0.7352924905543377 -0.004699253373222428 0.0012260810566832967 0.4646000138005064 -0.17139681348720937
88912000.0 0.6993968132411507 -0.7130825821040105 -0.18343276114005388 -0.769909575296694 0.0015868575599076436 -1.229733060298539e-05 0.4713027470828902 -0.18700318811485878
89911000.0 0.6942111042147612 -0.7213713481348715 -0.19124465401288038 -0.8123345114098586 0.000812982442398577 -0.0004974981475348872 0.47912184560518706 -0.19040492407729187
90910000.0 0.68618138098508 -0.7270077807248067 -0.21225699140901824 -0.838987194591188 -0.00492617748785297 0.0010802598968630628 0.47255473102997286 -0.20332067492065342
91909000.0 0.675740934702092 -0.7319888269099077 -0.23320349336022778 -0.8662357120348863 -0.00026611217780091705 -0.0010489687845570304 0.4809560630389268 -0.21027629157633512
92908000.0 0.6684840679362181 -0.7411420365007276 -0.24276902758123692 -0.9013844517281517 0.0006445371535717726 -0.0007418962008735435 0.4554198057476315 -0.22705181771743113
93907000.0 0.6609553642126741 -0.7468691406829522 -0.25872344662582814 -0.9339135183977434 0.00042524103421826 -0.003375592334301194 0.46629163582034716 -0.2398915116755586
94906000.0 0.6513662369122727 -0.7554692938457161 -0.2774779030966742 -0.9625457413448322 0.0010016624784631321 -0.0036629963047121812 0.4661167932787411 -0.2360277590529201
95905000.0 0.6450140613369093 -0.759788857033101 -0.29430940853237386 -1.0010059751366744 -0.0015029486527206903 -0.0006796414166522394 0.4778917228584585 -0.2597359563737264
96904000.0 0.6366195685181154 -0.7697170314244115 -0.3156806562434908 -1.03792210602852 -0.0009304361949016318 -0.002059488468580723 0.4680432781973906 -0.2617452859828425
97903000.0 0.6273046001385733 -0.773007071128709 -0.3342122492134762 -1.068341599244207 -0.0024711357433234 0.0047331480645939564 0.4632483182003944 -0.26985862802124033
98902000.0 0.6229596156356871 -0.7822425843950436 -0.3530136106240184 -1.1044289087189785 0.00356469938548524 0.0018610576288017402 0.462260458976295 -0.28035110195079516
99901000.0 0.61290393521252 -0.7861939884347929 -0.37774029137385823 -1.1346693304645157 -0.0009690968834543008 0.0005856109524327232 0.4704006407334633 -0.3010534507135687
100900000.0 0.6057955727261675 -0.7910507899555975 -0.40350289314169685 -1.163468606730444 0.0005627982187346964 -0.0025452442434104536 0.4735487976347925 -0.2958834754910154
101899000.0 0.5970114962912298 -0.7989508231575375 -0.4233065127950439 -1.205023248321085 -0.0014603421050103451 0.000787869095382573 0.4597143132942505 -0.3081369361313175
102898000.0 0.5858839754369184 -0.8038723846950039 -0.4586018668383498 -1.2407930323500291 -0.002679774385804476 -0.0005591579392821362 0.4610227981646901 -0.32358675469400694
103897000.0 0.578625815199113 -0.81002776444648 -0.49485282867765557 -1.2726461970185285 -0.0022279852547251802 8.059276094873049e-06 0.4654390993695224 -0.32911255775355625
104896000.0 0.5711611470377771 -0.8227968713640632 -0.5350299861350215 -1.3032660534366567 0.00032792293038212255 7.785178756612855e-05 0.449518228125395 -0.33262136840709045
105895000.0 0.5599913872168917 -0.823731032704184 -0.5778532571702679 -1.3393650748868704 -0.00158784194143484 0.0025839766976543037 0.44291111703626274 -0.35067835587998586
106894000.0 0.5524834779349187 -0.830999984573367 -0.6215571133069022 -1.3786938704054612 0.0013325573413335153 0.0008328861400588636 0.4382317940507573 -0.3536941920473881
107893000.0 0.5428863260190637 -0.8366474644714599 -0.6749207601537962 -1.411790914233911 -0.0035302495968414175 0.003375003240206001 0.4406093364130829 -0.3619203957870056
108892000.0 0.5328441251391696 -0.8400342646372665 -0.7251451244287737 -1.448672257177992 -0.00340259894634036 0.005038555911703617 0.43325814009100105 -0.36144474770825835
109891000.0 0.5215862077895904 -0.8482973694599519 -0.7836770158935403 -1.487989966283441 -0.0035308430955719606 0.0013875527433044905 0.44895888322819216 -0.35722711166216725
110890000.0 0.5021544463992444 -0.8567629404984021 -0.858483971197129 -1.4853238757209173 -0.0023701977292042904 0.00028243924064446984 0.4445300435570037 -0.37329271058675706
111889000.0 0.5006314886217486 -0.8542018079150688 -0.8992408916837185 -1.5530393776475442 -0.005098107989713857 0.0003469104200218475 0.4367887683753753 -0.38583728450490984
