! Created with skrf 1.9.0 (http://scikit-rf.org).
# Hz S RI R 50.0 
!freq ReS11 ImS11 ReS21 ImS21 ReS12 ImS12 ReS22 ImS22
1000000.0 0.9923744166154438 0.009318971996845804 -0.011764707173580588 -0.04132169314923944 -0.014189069330176215 0.012462290124349244 0.36061503196048866 0.33025530899159783
1999000.0 0.9941661850748446 -0.012172013758624825 0.006968320051944621 -0.020673132668412073 -0.0014921030577922812 0.002997259699696862 0.26008208370676333 -0.06154197047534431
2998000.0 0.9990131063869881 -0.022242555055127688 0.012026401341139335 -0.01933108651270906 -0.004212019225267157 0.0008127094214292417 0.1919423835356863 -0.1507796241262045
3997000.0 0.999994691535757 -0.02902265395162665 0.013216545428911033 -0.00657619976551282 -0.002175427107850839 -0.0013363786788660363 0.09394343959273163 -0.23264477331220398
4996000.0 0.9966659028958414 -0.03824162313013056 0.010197207121261705 -0.0047955346437065375 -0.0015314451968169848 0.0022197050785287193 -0.04675405446178246 -0.2000238586578728
5995000.0 0.996071553124563 -0.04589576497097492 0.009883343568557728 0.0026325046942310627 0.004453796306195618 0.001493908702504364 -0.11955797645153256 -0.10580198529240735
6994000.0 0.9937180447749333 -0.058601800567674715 0.007756080482574071 0.0025785934801619195 -0.0007609096241960009 0.001700670744790684 -0.14531353708068234 -0.020730649389518917
7993000.0 0.9962053371538652 -0.0657823089774437 0.0041853719147138925 0.006994307684647864 -0.0035635515866763267 0.001466336221470585 -0.1551842932460921 0.03281723520577099
8992000.0 0.9936496230950449 -0.06959187346066623 0.0021050938722533526 0.004775440265064719 0.0012214341897274336 0.0005232391409947158 -0.14942124518445998 0.0731779005447375
9991000.0 0.9926824360416976 -0.0810680454345037 0.004331161016996931 0.0042473241741178775 0.0051101511001643 0.003983569949077034 -0.1431912185379026 0.0930007907170182
10990000.0 0.9946385942594035 -0.0911529482774845 0.0018204743473794708 0.003164643985448172 -0.001750980323888105 0.005066757781644659 -0.14542395445925557 0.12455958671026633
11989000.0 0.992906456592683 -0.09927784474172893 0.0006295088504290177 -0.0019481916102777304 1.8670823465691925e-05 0.0021046045968476056 -0.13065152823369972 0.14082668566787604
12988000.0 0.9898862797080931 -0.10690714199561684 0.0033535302654638 -0.002409861246050961 -0.004277544749708925 -0.0001595174254387466 -0.11847505699086736 0.17451367821179728
13987000.0 0.9893486312511547 -0.11635634257945188 0.005384634594224887 -0.004711486027950904 0.000646202589601786 0.000992136639144501 -0.09475314376870649 0.19028683812063
14986000.0 0.989030830369004 -0.12322472461563304 0.00021107794435909542 -0.0034566376475067702 -0.0019106574103771583 0.0025467596258325702 -0.0796345656745261 0.19201893144122428
15985000.0 0.989963432290836 -0.1328731159713923 -0.0008493484343577044 -0.001784480588626034 -0.0020210825922738506 -0.0007211706760875771 -0.06537775962133917 0.22386140809550983
16984000.0 0.9853187947938171 -0.14398414684630984 -0.0037306001399071012 -0.00425361326062033 0.0022474341884341814 0.0003333897357346089 -0.06401091680601505 0.21373912376320678
17983000.0 0.9867913144187822 -0.14791386270614373 -0.0036848440276441435 -0.004992658042619711 0.0007207074909490463 -0.0026758928196456092 -0.05496618132178416 0.2219472041881599
18982000.0 0.9824382013645013 -0.161032756232028 0.0015085847341151958 -0.003438492750914939 -0.002053138112035429 -0.003092125925412417 -0.023847610319153795 0.2434716859848508
19981000.0 0.9819082466590356 -0.1643860203757559 -0.0029401836545673667 -0.003908967168960988 0.0017731328306641396 -0.0031509658897108 -0.016641986382505122 0.23975177001057682
20980000.0 0.9824727539951259 -0.17192651249656904 -0.00861699480812673 -0.005184747723787242 0.0009780610565104262 -0.000957465468673784 -0.007547660018191891 0.2618914755928606
21979000.0 0.9822457280267675 -0.18037639928262628 -0.005659254896012703 -0.0019610013526910794 0.0013469598012513684 0.002691495503658305 -0.002264103391346999 0.2578034303535996
22978000.0 0.9779801039325965 -0.19056652155346623 -0.005882008104220415 -0.006931891544072611 0.000207668394782762 0.0030780794495973217 0.033217903053447066 0.25117346551445635
23977000.0 0.9789938347946552 -0.19930519831167323 -0.0070999280794609345 -0.005192365454326395 0.004019162459179834 -0.002790033122297926 0.04122438688631689 0.24995642248417477
24976000.0 0.974460625319349 -0.20779464528043867 -0.005336970270375168 0.0005005492169413535 0.000499133879908301 -0.004673520725308564 0.06573214463233082 0.25613108632259834
25975000.0 0.9668556659671458 -0.21885892638918572 -0.0036915934041577155 -0.0013198536772230669 -0.005007731345313127 -0.025121788389156702 0.07890909963528421 0.26561502482937366
26974000.0 0.9713288500108966 -0.22412551594699998 -0.005143012826571405 -0.0020428807605247087 1.5386452099637642e-05 -0.001602692607609128 0.09443456932352755 0.26435295180247165
27973000.0 0.9718039985568593 -0.22923515549299955 -0.0031297181848245147 -0.0022249288913982726 -0.0015034152218127875 -0.0015034142020819172 0.10158238847928716 0.25603199971066737
28972000.0 0.9669294444958324 -0.24327420862060387 -0.0015423818910384793 0.001284101832370223 -0.0025966786650059286 -0.004266826192933459 0.11441294825285106 0.25731159363132167
29971000.0 0.9658993204974567 -0.24857528432962 0.0005605241121644896 2.5567975853609272e-05 5.3673774130010636e-05 -0.0026270312305250354 0.1375081367571526 0.27239220763923516
30970000.0 0.9646296641959556 -0.25553844490838884 0.00527780350852047 0.0007549804090259647 -0.00020990821727388047 -0.0020613749881304715 0.1719622223830042 0.2541987199851687
31969000.0 0.9623682210521537 -0.26338563701521933 0.00803285159185472 -0.006147339037155597 -0.002506759374649661 -0.0003209232682917231 0.1476518455757396 0.25361840635702676
32968000.0 0.9603137709664593 -0.2721568018940161 0.01077688644909214 -0.007032670848708489 -0.002054795950715634 -0.0016005379594132194 0.16570149794060945 0.2521103998732266
33967000.0 0.9559988981825758 -0.28365668667369903 0.009104952113623305 -0.0070493162978424034 -0.00044326816639743416 0.0012386728657941357 0.18175888209429394 0.24408278199789626
34966000.0 0.9545554575938089 -0.2901269007156593 0.014518323560679806 -0.011430926387542246 -0.003160180164283306 -0.004389622137869082 0.19722679752408886 0.2536047675486248
35965000.0 0.9511369153374333 -0.29692983168148046 0.019109232898982715 -0.01601020657057356 0.003896735131688473 -0.0016452802764163985 0.21860651871895098 0.2453688594943966
36964000.0 0.9508777256719054 -0.30899225019088167 0.015230520287585342 -0.015985751676710458 0.002462678086065934 -0.0004631199411077305 0.21697288181044608 0.2453595452695293
37963000.0 0.9449155649085514 -0.31805095481314494 0.019931066067645446 -0.022535618497328897 -0.0001515939399899581 0.002293853820973344 0.2332803948257918 0.23533887884266524
38962000.0 0.9439292561333152 -0.3272704162028798 0.025087265795221313 -0.02403996560854276 -0.003298086875009589 0.0010691624985424265 0.247120860424964 0.22871206927450385
39961000.0 0.9420037515372919 -0.3314994299824179 0.028351840586235272 -0.028242446197571172 -0.0006923127303244066 -0.00013291261753033593 0.2567393524571828 0.22467383947595332
40960000.0 0.9390324952603689 -0.3389116768157822 0.02488500956551426 -0.025768631150572662 0.000621349521382665 0.0018614268596905798 0.2660745322601321 0.2235154770760895
41959000.0 0.9356673425692852 -0.35097275056239324 0.027608387173310794 -0.03232816187627389 0.0022629281288867754 0.005703540783802024 0.28073422859571506 0.21853201242556844
42958000.0 0.9302724540348455 -0.3585989034464358 0.032328988235663214 -0.04243832104912198 0.00010956105984110607 0.0006677514778444849 0.28697616893993977 0.20106678010192316
43957000.0 0.9283965633592928 -0.3648962361653716 0.034608120952415514 -0.047124207283974325 -0.004159420116370148 0.002267045588543675 0.2858113334697854 0.21167733862230775
44956000.0 0.9243577312868311 -0.375275319513904 0.0338317445606525 -0.054683657608491774 0.004921499554064793 0.000590532443745508 0.30956551279788364 0.19615683446207866
45955000.0 0.9204436190081036 -0.38306437998496434 0.03379148363500936 -0.05869498847222729 -0.001009311048508118 -0.001074456926013995 0.31041227231851765 0.19667101080244243
46954000.0 0.9159831297955132 -0.38991403612080444 0.03826352270012219 -0.06397862010849589 0.00037960753642298336 0.0017145650639234645 0.3224058416775837 0.18108429419794758
47953000.0 0.9161641368424701 -0.3979043321599948 0.03606985713369262 -0.07549562579298884 -0.0023095203490438128 -0.00032099923783950957 0.3349273778130707 0.17193448308952047
48952000.0 0.909640110374982 -0.40816087838864523 0.0375928420067819 -0.07847650446180139 -1.988924428737872e-05 -0.0015207417917652017 0.3360012706195621 0.1666747775280946
49951000.0 0.9054307679557742 -0.4153622783354515 0.03777576068686895 -0.087915361268486 -0.0004091925769341365 0.0013696869377281078 0.35477179054165714 0.15295012834537472
50950000.0 0.9023691193679357 -0.4242914902141404 0.03856737721130763 -0.09589947412181524 -0.0007923107804983596 -0.004025829657341587 0.3584668472956425 0.13958798705448305
51949000.0 0.8984801412029536 -0.430574939461089 0.0397769413024098 -0.1026541067513358 0.0018176251821920137 0.0038430762200431894 0.3618448693114751 0.14651520277077565
52948000.0 0.8961408844757655 -0.4397198109603353 0.042869578110410055 -0.11438070004417464 -0.0018095396664484732 -0.0005406366872804219 0.37170983073087743 0.14463105933036133
53947000.0 0.8924885393559697 -0.4467608528690128 0.041691723354496404 -0.12183806620253024 0.0013633109677541762 -0.00011201850670836308 0.36107901850517926 0.12484033707234385
54946000.0 0.8855398072755702 -0.45830629559972874 0.04394887142418435 -0.13292750026800515 -0.0011467669800958853 0.00020959538259647634 0.3841288936429748 0.1149176369258616
55945000.0 0.8840487489325595 -0.46315504999489787 0.04439787489086384 -0.1443483780699499 0.0008166057114941717 -0.002201191618113947 0.39814049767378745 0.09372827305071203
56944000.0 0.8802108545070043 -0.4728917335046673 0.04921738944823296 -0.15290533781637894 -0.0010870723499444147 -0.0009069718269689131 0.39977071130135455 0.10901600403160563
57943000.0 0.8749292826401207 -0.48251126053268806 0.049574664931590774 -0.16605546993977796 -0.001990054744806666 -0.0012752340783842293 0.4062007414090241 0.09431885263831999
58942000.0 0.8700524927612147 -0.48792432351441184 0.047821539478004806 -0.17665647948918722 0.003972980738713005 -0.0010020950243442316 0.4250554309697451 0.08867618783035425
59941000.0 0.8657550785022698 -0.4981972818799081 0.04921503021106485 -0.18726914086085827 0.001465023524628836 -0.0004477897531968567 0.41679848058147273 0.08564657837757275
60940000.0 0.858799940532391 -0.5024837627650884 0.04826139278610609 -0.19011638258704902 0.0002435134594128526 0.0015339930100915667 0.40855589159272837 0.0792472860236915
61939000.0 0.8558103500998291 -0.5108392364286519 0.05018635695228132 -0.19770136250837578 0.0007451821014086538 -0.000652865139830718 0.4137304471184455 0.06862115583529028
62938000.0 0.8509615577681544 -0.5210022504757498 0.05447533497013759 -0.21471420735165922 0.0008001407461048602 -0.0003785585565903346 0.45153414101948053 0.05281046339325082
63937000.0 0.8464731596161114 -0.5269509589236149 0.054449001938579 -0.23594416626831996 0.00044783908386609376 0.0014467758878979763 0.4430429901476437 0.03869910540148058
64936000.0 0.8386858404301413 -0.53483074271398 0.053583773832794855 -0.2516777985032567 -0.0012935931462284478 0.0004792925231753424 0.44725319813444175 0.04548922899845393
65935000.0 0.8360439026894455 -0.544490693842237 0.05060685764268759 -0.26367863049381296 0.000849127181370575 -0.0007087456560118465 0.43561233912294534 0.022038028967393732
66934000.0 0.8327673303755173 -0.5499708794256601 0.055050395002058286 -0.2794959436080555 0.0007737505633229952 0.003423359707132505 0.4504708723067372 0.004156671294111287
67933000.0 0.8295153533746614 -0.558681593253895 0.05575171457514505 -0.29106193591780694 -0.0005745394803702247 0.0029116305432001347 0.44655219573141824 0.014323333350136939
68932000.0 0.817140898216795 -0.565318292631195 0.05235218224190544 -0.3056573677008299 -0.00011936460397889892 0.0024631698259413156 0.46351448161804326 -0.00684033439289702
69931000.0 0.8133905416466155 -0.5746601441215715 0.04865007770580103 -0.32077778814691876 0.00016938412127840953 -0.002478962038359029 0.4452817201430216 -0.018953987730338653
70930000.0 0.8081895775604128 -0.5807084086378652 0.04624852753473404 -0.3377389754590206 0.0018972430859150765 0.0038442262203657366 0.4527125829000449 -0.03676461948626598
71929000.0 0.8058485423912148 -0.5904162215928305 0.04363602976641755 -0.3527262513504124 -0.0004217528187373443 0.0020213984930310264 0.4462410887875534 -0.04025625052571171
72928000.0 0.7996524631755566 -0.5977834729893969 0.03965073365889903 -0.36829076376981146 -0.0032887691954233736 -0.002218624178096483 0.46531398227529785 -0.04072022172230591
73927000.0 0.7938532477800326 -0.6052246587483808 0.03301033519871298 -0.3930201695938245 -0.006501377944184371 -0.0027161051163334974 0.45897917504977814 -0.06822136485819641
74926000.0 0.7887623775234565 -0.6129373164129789 0.0287754969558514 -0.4107634809756241 0.0006754578464542235 0.0010092753808121065 0.48135152323495717 -0.05961073467544686
75925000.0 0.7817926646100758 -0.6171401148741488 0.014779550334901997 -0.42772633399568477 -0.002714342821001663 0.004409839255639227 0.47183645200010954 -0.07709097426384165
76924000.0 0.7756960409260911 -0.6271008697048569 0.0038477934114474776 -0.4537197826341197 0.003075520372323072 -0.0021709426949428562 0.4690817495700759 -0.08448004804849821
77923000.0 0.7711584716262428 -0.6314397052926568 -0.009891114813753063 -0.47599425054256816 0.002261841651072068 -7.068675126628155e-05 0.46602169543675515 -0.09233614875687757
78922000.0 0.7639270205171109 -0.6438085020499882 -0.02341769041222741 -0.5012770381707077 0.0019106093907164054 -0.004265971931389878 0.4691875969946211 -0.10866823112305195
79921000.0 0.7561091394775781 -0.6475724665923317 -0.04652721861989238 -0.5251600887098589 -0.0036352445007724133 -0.005490469498394825 0.45921010444074106 -0.11183719517460938
80920000.0 0.751671982955983 -0.6578170519369503 -0.05652886722809932 -0.5551660502015121 -0.001303735301176962 -0.0013673116497949606 0.46662336232346946 -0.13132876974577995
81919000.0 0.7476990123086403 -0.6618654024397133 -0.07242380820440747 -0.5818507579699207 0.0016844930130971486 0.001152463035774636 0.46355009469637287 -0.1261816903674369
82918000.0 0.7356344547834711 -0.6712051783623432 -0.08790451612957811 -0.6136481207369779 0.0018918945101434259 -0.0013963371642583917 0.4691643080602694 -0.1492863953591509
83917000.0 0.7302027144159084 -0.6774380781530066 -0.11107931598835116 -0.6416628464073325 0.0016399840524257139 0.0033809430900843826 0.4807249001199234 -0.14705130271333766
84916000.0 0.7240835045436094 -0.6856193145710269 -0.12605860555365828 -0.6774630285785839 0.001396156767709204 0.001278332901391413 0.46134486845015654 -0.1690986611144742
85915000.0 0.7192635061950657 -0.6906449614910548 -0.14756930006251642 -0.7088733811676519 0.0021875284772836204 -0.0007917566075595479 0.46305579685599774 -0.17964150650130084
86914000.0 0.7113946733516523 -0.7005490240460663 -0.15724749870759278 -0.7459503318259236 0.003106927554060955 0.0007753208375516623 0.4656418809580017 -0.17352907382595636
87913000.0 0.7042211166278881 -0.7075149425308066 -0.18139584614615742 -0.7744112609156195 0.0006645870068097046 0.0023468457544757217 0.4601639894314805 -0.18045192766635743
88912000.0 0.6956700618213464 -0.7145610177147113 -0.2000899721546197 -0.8098111566465132 -0.00011342778765248445 -0.0016496456047964553 0.4681206338489688 -0.20299212814747203
89911000.0 0.6894577580180827 -0.7226069370367811 -0.2117819956383545 -0.8511170067390476 0.0003020321844374391 -0.006091210126953425 0.4587544115197627 -0.213571813224864
90910000.0 0.6842402074722207 -0.7264995382698961 -0.2300744470871122 -0.8860941554160932 -0.0009267593078920195 -0.0021907554752038177 0.4606408411186093 -0.23058645653754295
91909000.0 0.674357066416451 -0.7327474661970508 -0.25446764771890096 -0.9156943363526988 -0.0036034721247648555 -0.0003892914618106305 0.4650332806331769 -0.22256674382428518
92908000.0 0.6657935761292135 -0.7426706907573997 -0.27016787447405843 -0.9476735356134882 0.0017986571127326858 -0.00014495061749478016 0.4571147546840705 -0.23467320959181107
93907000.0 0.6580923049185231 -0.7457575267759794 -0.2902041331565896 -0.9802271604112143 -0.00044929047085291967 -0.003860977448454829 0.46515017093820193 -0.25409686749379945
94906000.0 0.6473821220483729 -0.7556538710687226 -0.30797858962152364 -1.0112744343963893 -0.002258784887760692 -0.0013636311524103273 0.4666003674493238 -0.24092692673953234
95905000.0 0.6436450366512141 -0.7611792999157672 -0.3269566932929683 -1.0482884331074764 0.00032800783563567335 0.0020955870173349047 0.4582499721952171 -0.2638760210933967
96904000.0 0.6344486498656985 -0.769456268688216 -0.35008177504109567 -1.0899001520621399 -0.0018010865066288254 0.0011743256562553566 0.45334657083122437 -0.27346930562600563
97903000.0 0.6256852019491754 -0.7750732563827882 -0.37167270058565693 -1.122340006692876 0.0006671927425063118 -0.0007057280663463134 0.45366957928382795 -0.28289996003788087
98902000.0 0.62101762201514 -0.7821939451335971 -0.3888505566351731 -1.1602038224400555 0.0009038341992811227 0.003465567058766841 0.44629690309645326 -0.30043632738321613
99901000.0 0.6092469212965627 -0.7883247672169509 -0.41827735442781283 -1.189087135776378 -0.0005820996807970435 -0.0017971413132408314 0.45076509474757787 -0.3110808770451941
100900000.0 0.6007753507302034 -0.7902631459298866 -0.45171251791133477 -1.2173113465248742 0.004027074852334167 -0.0017235416913140651 0.46013093909495684 -0.3146961423462212
101899000.0 0.5953208741962278 -0.7989364380301095 -0.47747717587191213 -1.2621214511458012 0.0003815841055097853 -0.0018311091660103984 0.4506305633091591 -0.3211295353789027
102898000.0 0.582976167081977 -0.8057372867221715 -0.5148123769408459 -1.2936608668339307 0.001401044862296312 0.0022287956148406944 0.45058835705852557 -0.3364279791995587
103897000.0 0.5751033066949673 -0.8139768126657628 -0.5518894808069026 -1.3311482594000141 0.0006714028008522003 -0.0003745393472785212 0.45615843063546424 -0.3331979797450615
104896000.0 0.5687705856696703 -0.823569433559175 -0.5955741416828807 -1.3674907948530037 -0.0011942954819772417 -0.002814115191019861 0.43507476603936157 -0.32479318701104987
105895000.0 0.5570491838375984 -0.826912217589549 -0.6417228615645867 -1.4074356616223558 0.000849933562005351 -0.001961986275889028 0.42653230823598104 -0.34941992261444693
106894000.0 0.5489828115284459 -0.830976432278511 -0.6937079846034835 -1.4414538382762636 0.0014966314681475552 -0.00256433012630014 0.42616046052733836 -0.3768010179645577
107893000.0 0.5425287656065255 -0.8358629884989882 -0.7409511694589538 -1.487354679776619 0.001182346232515616 -0.0024172040527305778 0.4267551026209953 -0.3690682295171771
108892000.0 0.5300469725470321 -0.8411011303159245 -0.8059633609243363 -1.5206421637622536 -0.0029866878536224818 0.0008703801670097565 0.4259682313787416 -0.37579741829483987
109891000.0 0.519185112273459 -0.8483019870798346 -0.8611043883538665 -1.5546478779960797 0.0024292158151595386 0.0007022661600161138 0.4433224429936403 -0.3725206888592237
110890000.0 0.5038852820381318 -0.8518375824412494 -0.9264467039170845 -1.555928731433792 -0.0007210235416596674 -0.0005724045579915922 0.41992594608556 -0.39277851089405
111889000.0 0.4996924625075957 -0.8562204111343615 -0.9938379232306794 -1.6200894851978176 -0.0016704979303269196 -0.001953137606640525 0.4138942919604678 -0.4012333598388138
