! Created with skrf 1.9.0 (http://scikit-rf.org).
# Hz S RI R 50.0 
!freq ReS11 ImS11 ReS21 ImS21 ReS12 ImS12 ReS22 ImS22
1000000.0 0.9688124017881014 -0.00818528645683654 -0.016540043457877702 -0.03307915589705271 -0.004704808354542505 0.004084096844386412 0.4028459718778752 0.31023975242829566
1999000.0 0.9954666860660074 -0.014583516968517904 0.013531508224050753 -0.020264688168152176 -0.003611505144082982 -0.00021164195895700063 0.2811130671622197 -0.04024639813957726
2998000.0 0.9967100623551457 -0.021762318692905566 0.00782217207384883 -0.0050863146042001255 -0.008957062217825666 -0.0027070661853933245 0.19719989299802226 -0.14020218547001528
3997000.0 0.9984623504961793 -0.031242668941771565 0.010793054861653481 -0.007112120257577074 -0.004246481082988976 -0.002114142128622571 0.10307882985420996 -0.2262826490672381
4996000.0 0.9977478539093297 -0.03783251435705608 0.013238757655374614 0.0006747263891838133 0.00021400341105635718 -0.0013830587029321076 -0.06256854733134577 -0.1879591404030545
5995000.0 0.9983859387114711 -0.0498078169890499 0.008297938313645519 0.004510902709595248 0.003120518754291972 0.0044333296670913255 -0.1238038039793151 -0.09573969976457687
6994000.0 0.9929931651266677 -0.06198615969337404 0.005111448793639763 0.004032453041871488 -0.0006707160543148302 -0.0020439454650418992 -0.14062839469213234 -0.00872608333768597
7993000.0 0.995357257004397 -0.06974242182289658 0.0026666057627604827 0.006264121304198425 -0.0005085648492465035 -0.0031783463480772327 -0.1572032556338148 0.04037252234056573
8992000.0 0.995569770085928 -0.07359553740338236 0.00491400036479797 0.005219838393673258 0.0007049836680516847 -0.0014777715995732874 -0.1424931127986025 0.07951919738185707
9991000.0 0.9915115082019716 -0.08495389970037515 0.001851798742508764 0.004860766853392883 0.0012411308352955834 0.002590754203736527 -0.1410665495105041 0.10354641190403699
10990000.0 0.9925450745155006 -0.09382145068703351 0.002909913065645316 0.0014774650218826438 0.0032309858245988766 0.002650127072244106 -0.12321101440763592 0.12164437713943597
11989000.0 0.9901811450616875 -0.0984095975061655 0.00041528311042992114 9.581766339845665e-05 -0.0010648426245015853 0.0014778752989154991 -0.12428939313608112 0.14844292869269549
12988000.0 0.9873593805554455 -0.11078939892501895 -0.0017692513328472852 0.0014828195921682804 0.001647921098641468 -0.004818502149377159 -0.11445018274029871 0.16826695433361905
13987000.0 0.9859311346674065 -0.11932996164601974 0.0005556983122162807 -0.001686538931532853 -0.002489986330240403 0.004751572040095356 -0.08476432606562904 0.17558217168861343
14986000.0 0.9877015705205038 -0.12621382115810578 -0.0018685605111470889 -0.0007814000023308997 0.004505454671347968 -0.0028670035321618917 -0.09296803402592611 0.2076542172352978
15985000.0 0.9881948196711023 -0.13362812006534247 0.00038683169246769904 -0.0012843568495003932 -0.0026308541576135574 0.0011779383156037754 -0.05845427706082267 0.2253800155109955
16984000.0 0.9857023694047372 -0.14569106946854024 -0.0045578575104389405 -0.0067472055286492754 -0.00151645498149305 0.005080358442423616 -0.05991800726065614 0.21870508275337808
17983000.0 0.9848753764278197 -0.15125415586409643 -0.00473626188128463 -0.002988237212285894 0.005596979297671698 -0.0022712796796375426 -0.05264026353100206 0.21887235560133364
18982000.0 0.9813013204839047 -0.1633125353319361 -0.001633339907467364 -0.008290966454345025 0.0011799952253839828 0.0009661909734348606 -0.02334795824545368 0.245886579438282
19981000.0 0.9824433345630126 -0.1687847568434675 -0.0031396922319231247 -0.003865069779991247 0.002714699846374541 -0.0027930119679467976 -0.0020452101865982425 0.2399555829837446
20980000.0 0.979734568025634 -0.1784674412760616 -0.006786298601071726 -0.005482861194056615 0.0033048286546612598 0.0034451775698546875 0.007498983788654899 0.2491105005838724
21979000.0 0.9787612007493303 -0.18895791403571674 -0.007911132046702987 -0.002171964294142291 0.004478134077853164 -0.001535375859967256 0.00911307057745038 0.25070228955797436
22978000.0 0.9763386239824267 -0.19501273124876126 -0.011282316451487744 -0.0022921696944356094 -0.002378784627187751 0.0059279661445014375 0.02794802569759377 0.25762156138898124
23977000.0 0.9765126833001918 -0.20466222603807288 -0.004512859805647078 -0.005371255175829483 -0.00015819056752524222 -0.0032334293371196533 0.03848603610329998 0.2554356215833952
24976000.0 0.9722568813173305 -0.2152839798686806 -0.00443693628656076 -0.0013725314260520287 -0.0010921384901865544 -0.0014096375221854137 0.06509471129277554 0.2624851184697338
25975000.0 0.972927656216747 -0.22610325825513297 -0.001759778719931099 -0.003259249884095674 0.024745232772672203 0.008933777777394592 0.07802870759762262 0.26811585354559825
26974000.0 0.9703293228374763 -0.22955638497276615 -0.006322263037165783 -0.0011673665037803226 -0.00466719433236067 -0.00044311432224703725 0.09427239524029246 0.26320345973535014
27973000.0 0.9674407659099058 -0.23658074703714757 -0.004310373552635627 -0.0014847348475870445 0.0023176451067561644 0.0003177431040293529 0.10548397726727125 0.2635622811630636
28972000.0 0.9667556620449557 -0.2462813795316639 0.0008635908150015518 -0.002614651521516769 -0.0020809973289085005 0.00021631483970519945 0.12346385845692918 0.2575967059958791
29971000.0 0.9632556343179633 -0.25645101033861833 0.0011117332235797014 0.0008101731254553471 -0.00024351744108338814 0.0018723986401683267 0.14953718659773452 0.26876004384103364
30970000.0 0.9603412905156022 -0.2620335099864666 0.0037011010788816643 0.00028620423978337596 -0.003877084383074301 0.0014960448896411394 0.1684230057055183 0.2619415071158425
31969000.0 0.958279240752326 -0.2715372282968685 0.004601519101975218 -0.006117464049682448 0.000998709664068204 0.002136992040274548 0.14868421398966147 0.2467999373587371
32968000.0 0.9564426776024103 -0.28253970393863553 0.007692735895805391 -0.008829251054318664 0.002774490069937791 0.0012540177488044551 0.16026605410441647 0.25227168589003457
33967000.0 0.9548325038836508 -0.2914332272618858 0.009375108168397931 -0.007745076840376627 0.0014983731932718073 -0.0020301668725709343 0.18720977920484203 0.24435283971150054
34966000.0 0.9518601493591498 -0.2993655559044447 0.01408662510878965 -0.010961480232816049 0.0005254512003266341 -0.0009032316719957838 0.1960664395917665 0.2535590297954466
35965000.0 0.9486484654598188 -0.30633176022203606 0.01507023046698316 -0.020592169304908415 0.0005257415219866089 -0.001817571048722774 0.21100630008137666 0.25530558310966883
36964000.0 0.9475189882628829 -0.3163850827872306 0.015742337522807022 -0.01542827886829967 0.001661755098371257 0.0008075843549085964 0.21878299615066382 0.2524688364775713
37963000.0 0.9435786063948908 -0.32397749932653624 0.021620878446785202 -0.022692517192002725 0.001357609219314175 0.0032154265154304426 0.23285521252152933 0.23476817881168097
38962000.0 0.9406279826659639 -0.33430189969959634 0.024614915268560373 -0.024801760192405573 -0.0011141264085573052 -0.003815049590314024 0.233410379495799 0.23726504911517646
39961000.0 0.9367740081067749 -0.34342547079179786 0.02363829167897865 -0.030047668371930767 0.0030626508807759293 0.00014220762037755831 0.25029142117047154 0.22661058881364227
40960000.0 0.9334299385931483 -0.35033916034036405 0.021001920351132613 -0.024663809653309474 -0.0017485219705014453 0.002438143342273735 0.2746204001136518 0.2206802972954717
41959000.0 0.9310500854517044 -0.36050810948628315 0.029002556503593596 -0.033054991281436776 0.0015361090441320475 0.0027915245232552994 0.2702033004502018 0.21979403234578043
42958000.0 0.9259517033592594 -0.36863981038825167 0.030587649050557508 -0.044223583928600006 7.0187127215431464e-06 -0.0012592673209832661 0.2820499675051014 0.20346655527474594
43957000.0 0.923745056213473 -0.37567611045442795 0.033649391295305815 -0.04841486587015807 -0.0010609634726323862 -0.0013837264362003884 0.2883076598855968 0.21021418850375215
44956000.0 0.9198606359381314 -0.38410484599585104 0.03333720820492043 -0.052094380983766245 -0.0005048797763222584 -0.00298566423709646 0.3041078089765964 0.18809125484310527
45955000.0 0.9156100298493332 -0.392471164876228 0.03476233750665996 -0.05852576672375222 -0.002446689402511677 -0.0013147926009972268 0.3183044934420468 0.18347003031177045
46954000.0 0.9138166633486194 -0.40049666387049454 0.03506814658340868 -0.06746240303913405 -0.0017317993457832692 4.6873212612760436e-05 0.3270745037605181 0.17785419531686858
47953000.0 0.9086349894994569 -0.4118261526728505 0.03256748747147721 -0.07494952775358343 -0.0015948581631482558 -0.0008873181270369556 0.3370719065674397 0.16986287507278103
48952000.0 0.9026080665071009 -0.4224453268581779 0.034570285775771946 -0.08126122613818634 -0.0044803665975112926 -8.724161771239853e-05 0.33501569080960925 0.16261542482606095
49951000.0 0.8999609594733047 -0.4263689008756251 0.039589955110789256 -0.08673007547036779 0.0015932551439777685 0.0022503630130910834 0.34543183519216875 0.1497207361749546
50950000.0 0.8974891781604363 -0.4349779908442548 0.03856714309456068 -0.09629218209872326 0.002373979140086862 0.0011824546346192084 0.35233712596969174 0.1511892255665646
51949000.0 0.8903844191965538 -0.4437255021542208 0.03986863570556701 -0.10585859347042538 0.002912652025911631 -0.002287985137375869 0.36215142015322643 0.15400613668942306
52948000.0 0.8889441116879144 -0.4532875410160582 0.03947722925742034 -0.11313441632287266 0.0003481902500706223 0.0016871298575855851 0.3743246832756746 0.14652453936309068
53947000.0 0.8847473885896916 -0.45745810596023007 0.04351754109151925 -0.12517185796618957 0.002498743798681183 0.0008098227796112746 0.3697592265629636 0.1275662315997417
54946000.0 0.8786171907655221 -0.4697116559212707 0.04089142227675469 -0.13464090175899052 -0.00038988236867243024 -0.0006971368303449296 0.3820141176839642 0.11659147092468786
55945000.0 0.8763898476367549 -0.4768811921896537 0.04668895656132678 -0.1439350140218305 0.002205878386426963 -0.002575906060844296 0.3801150162263868 0.10066151973730428
56944000.0 0.8720929581515263 -0.4848157200169154 0.049071248333333685 -0.1547842190841763 0.0027147836241587387 -0.0007934798300325866 0.393538690470258 0.09849346541372396
57943000.0 0.8655857950499005 -0.4966669414968462 0.04705592326052494 -0.16383633900545258 5.410730236328691e-05 0.0008361540643756795 0.4003963170310142 0.09015186482130899
58942000.0 0.8594322337784561 -0.5013957425193926 0.04893401742851183 -0.17863221347994904 0.0006349533400037176 -0.00389704745572839 0.42226272727329306 0.0796679742645093
59941000.0 0.856990871788489 -0.509667357726788 0.052173472866731074 -0.1867883562844978 0.0016308948347477981 -0.00026875631718892236 0.42207028626614956 0.08323544917431844
60940000.0 0.8499692781094478 -0.5165458704656386 0.05134645730553422 -0.18960409656508204 0.0016073683023238555 0.0026424581705836946 0.40240276633774896 0.07498925943204815
61939000.0 0.8459990143646459 -0.5237919826477376 0.049278961536736283 -0.19853166408376993 0.0008799638819941683 -0.00010213531257480601 0.42051014548030125 0.06114695386604186
62938000.0 0.8424149393064714 -0.5344934937473741 0.05356525642124628 -0.21605156627640107 0.0011386050333304398 0.0023033493390657417 0.4395522415616111 0.0571696053882926
63937000.0 0.8350829897176701 -0.5436464645467656 0.05319293241607932 -0.23361564894068723 -0.0010603496784546992 0.0022868529054711887 0.43640961569164094 0.030729108803280492
64936000.0 0.831558909515945 -0.5458009553213079 0.05122286193391734 -0.247976642697067 -0.001883660673899625 -0.0019438120589460315 0.43590296202100587 0.0481717824693413
65935000.0 0.8245167306542035 -0.5596046782830748 0.05284180559196951 -0.26488952497346985 0.002938874298024608 0.0009995460431512734 0.448274879302481 0.023287662471181365
66934000.0 0.8223734176820624 -0.5633174238588081 0.050507707146287446 -0.28096712845853494 -0.0009400536464321362 0.0013874919911933345 0.44440671577766966 0.009000809294474495
67933000.0 0.8178364439594685 -0.5718543198855203 0.053948713693017895 -0.2939973749036355 -0.0013685383402034736 -0.0014115149874844124 0.4484237267328664 0.012592063252999476
68932000.0 0.8139571204548393 -0.5744263121696866 0.0498392246379025 -0.30619207007571686 -0.00015071160358314518 0.0008058272455669621 0.4480428987149221 -0.008520584941192507
69931000.0 0.8017273050779369 -0.590027195299902 0.048506923077582746 -0.3220644299025204 -0.0006857512610193304 0.001987356443572818 0.45472162337943434 -0.020006680619780493
70930000.0 0.7984902767189129 -0.594072735245739 0.045614450506057246 -0.33592707622618106 0.0029929040011099583 -0.00010348355676629978 0.4531533668143595 -0.03198351440680829
71929000.0 0.7933100916636269 -0.6045364350001146 0.041552289126825535 -0.3576742485967933 -0.0008137711985132235 -0.0016636675094138709 0.45011107376299275 -0.04423451018702087
72928000.0 0.7860910996953263 -0.6128181531815066 0.034149372873377416 -0.37349818978824983 0.00021424042686505918 -0.0005254540896231347 0.45687783385276204 -0.059269734158489455
73927000.0 0.7807440475810903 -0.6189649484750299 0.030430449666282437 -0.39120886792578813 -0.001977902897433792 0.0010863315632084944 0.4615860933750054 -0.06323727035293997
74926000.0 0.7776553505841737 -0.628160151054495 0.01824474835872522 -0.41654430733328573 -0.000800012813569938 -0.001379736357926728 0.4741461297925921 -0.06099894595537223
75925000.0 0.7699990226371302 -0.6329143204967513 0.010022210266850375 -0.4358622845250172 -0.001220157507285445 0.0017053203944757624 0.4690622470649767 -0.07872629918492774
76924000.0 0.763429162828678 -0.6403574161534353 -0.002626320354178024 -0.4571884269689656 -0.00468626103523526 0.0012206863316330467 0.4714589074904435 -0.08505169294562819
77923000.0 0.7565747873967215 -0.646294429714976 -0.018178545028894055 -0.4792157331222259 -0.004373823642200971 -0.0022679254442604223 0.46254865760315095 -0.09853865411361706
78922000.0 0.749644427360976 -0.6596331764788929 -0.03326680709215982 -0.5071166743718185 0.0031502707997206813 -0.0025941526719388017 0.46724216905518984 -0.10587200219888818
79921000.0 0.7403421296509869 -0.6616960000097034 -0.05374349281814467 -0.5326859448865776 -0.0022622400194795057 -0.0009378210791624202 0.45970596806651776 -0.12323882869057856
80920000.0 0.7356451317020255 -0.6731908186659334 -0.06356235057999507 -0.5602455601374684 0.0017979819609680145 0.0017309761516940705 0.47540791228472273 -0.11731535167692826
81919000.0 0.7308678793105247 -0.67855271769048 -0.08697878803129638 -0.5918059380596032 -0.002471744673211928 -0.0035613808959094025 0.4671906595303652 -0.12624869212622525
82918000.0 0.7215127290276852 -0.6840549787414912 -0.09761053639487559 -0.6224322466917219 -0.0015508299343893809 0.0018751064007148576 0.47669500552072225 -0.15167283635707002
83917000.0 0.7143677107369424 -0.691686228489089 -0.11880468478910211 -0.6481175261572257 -0.0027071881599515456 0.002309474425668785 0.46996196580073396 -0.15712279782930855
84916000.0 0.7086760502093646 -0.7001529304927989 -0.13167326550876815 -0.6845562528063398 0.0014244942895619032 -0.0003551538896964654 0.4773167331273375 -0.16030112710036087
85915000.0 0.7009328101337534 -0.7071804159413634 -0.15725256366257898 -0.7176431394345983 0.0027636058420742794 -0.0018270231158233634 0.4699258197921532 -0.17913749420395703
86914000.0 0.6925509533050185 -0.71940917664797 -0.1712830198091875 -0.7563622922548727 0.004349308325910999 0.0025691058387425896 0.4607796734366596 -0.17796350433896652
87913000.0 0.6867878842598149 -0.7225569495215771 -0.19074602910492336 -0.7837676920170312 -0.0025276223814370987 -0.002594906529599525 0.4682943417442549 -0.19395166959919433
88912000.0 0.6784912648752841 -0.7299122682192272 -0.20425266149756394 -0.816527177854578 -0.0005960640089649341 -0.0014526719869663112 0.4630291739543736 -0.20143378911227985
89911000.0 0.6712112150402709 -0.7393466092802233 -0.2223274144908759 -0.8535499539978912 0.0008924306880751098 -0.0011780223539096303 0.47079793689351057 -0.2158986882818282
90910000.0 0.6640563959584059 -0.7433301205176154 -0.24067590101339612 -0.8872340051961433 0.0015089456620391943 0.002562324599794705 0.45780004092121857 -0.20461262996582244
91909000.0 0.6558968812959436 -0.7474071159998779 -0.2600944523272145 -0.9194994533492701 -0.001958572997609076 0.00033005999684996385 0.4642274938233641 -0.21938673695207378
92908000.0 0.6466168428014658 -0.7576511103241812 -0.2772902378446007 -0.9517549642849701 3.449062427397524e-05 0.00048660194581448345 0.4567706792215837 -0.2326928464402227
93907000.0 0.640053913622148 -0.7614808770848891 -0.2955964562153268 -0.985923800955703 -0.002154848998881723 -0.0002846409043800198 0.46064435375394197 -0.2506584925423697
94906000.0 0.627716795454876 -0.7696940209614865 -0.3169753993026986 -1.0166960415335031 0.00140931545600797 -0.0019037722688013522 0.4586868932920877 -0.2530165769412213
95905000.0 0.62225491991155 -0.7755469610789991 -0.3362121454788353 -1.0559853643178576 0.002007832628627152 -0.003318285993449055 0.4606958447680383 -0.2719297822590669
96904000.0 0.6130062425553388 -0.7871980029961873 -0.3611756941048474 -1.0906270015233814 0.0014848742984129165 -0.0005120655670065589 0.45601961373959954 -0.27670095146707835
97903000.0 0.6031247465706677 -0.7897862669748492 -0.3823834010548306 -1.1271774432190083 0.008040720844642602 -0.0036753838802130543 0.4434368517393749 -0.2950441426913465
98902000.0 0.6005428662944254 -0.7980902509083017 -0.40410406640041563 -1.1645098040633444 0.0023027098463803556 -0.004349112553634702 0.4497181108053369 -0.292667707709065
99901000.0 0.5866414547482794 -0.8038244082228546 -0.4332634785463936 -1.1945538733212824 0.0015607177492667269 0.004680964500359279 0.4639595626007624 -0.3121293281579115
100900000.0 0.5808884577551802 -0.8065948910052732 -0.46697733814762793 -1.224970908846637 0.0031767524524818087 0.005306223658361078 0.45548114407749 -0.3108746248149901
101899000.0 0.5712499836388989 -0.8150630556622951 -0.4970115340343797 -1.2612154262602377 0.0007952350240484795 0.0020316195417761206 0.4514832477457385 -0.3137852536862752
102898000.0 0.5602024159802872 -0.8193286901578934 -0.5351928150794498 -1.2977991812261764 -0.00019371964309129232 -0.00094400450432113 0.44887074832969137 -0.3335827843203886
103897000.0 0.5520137319468218 -0.827925877518116 -0.5720957084170923 -1.3375215813555104 0.0007195462079013763 0.002795789500354909 0.4650194080368084 -0.3333610800754886
104896000.0 0.5421779616544721 -0.8372911010253257 -0.622716959092954 -1.3669192118563642 -0.00035646955655930704 0.0018914683171513634 0.44533802163069613 -0.3309244266763299
105895000.0 0.5321044441972812 -0.8390033693034268 -0.670990362961237 -1.4066433866130206 0.0020757605302528146 0.0002500900481965824 0.4397619215620111 -0.3501690246910592
106894000.0 0.5228229847340435 -0.8457208281713217 -0.724309407826819 -1.4428393678488824 -0.00014701106188247043 -0.004963035547803903 0.4358219599143599 -0.3695953877369224
107893000.0 0.5143914190257608 -0.8529353624763509 -0.781672163573592 -1.4833291328208917 -0.0009098701055648698 0.0029379978164165424 0.4289387322637382 -0.37791942803192474
108892000.0 0.5059050975125238 -0.8553517546926783 -0.8395668221479968 -1.5239696091616504 -0.0003753872940054929 0.0005824387945906708 0.4263831683976424 -0.3754619187243732
109891000.0 0.4930066561847196 -0.8635342221837892 -0.8998904934169957 -1.5558806517074875 -0.002312506531111127 0.0015486460056992953 0.44000758797030504 -0.3640265578245003
110890000.0 0.4737254299680773 -0.8783628996847261 -0.9884010219019358 -1.563512728442979 -4.188012389176022e-05 -0.00039498621207644804 0.4359837092455052 -0.3851422841568175
111889000.0 0.47401849777488153 -0.8693696325109618 -1.0274342207181624 -1.6236901370019041 -0.004692253482771138 -0.0018653759284450227 0.428996690107419 -0.39999881106683194
