! Created with skrf 1.9.0 (http://scikit-rf.org).
# Hz S RI R 50.0 
!freq ReS11 ImS11 ReS21 ImS21 ReS12 ImS12 ReS22 ImS22
1000000.0 0.9852137101040594 0.01018708124264308 -0.011865761236623126 -0.050706716560288655 -0.009306873980816439 -0.0017489551944237952 0.3173788439646243 0.2845096559990164
1999000.0 0.9952771273045684 -0.01545655060244144 0.010170017246081495 -0.02001027978576024 0.0001520817099273197 0.0002021925462958083 0.25526277968310923 -0.06202303549724442
2998000.0 0.997398850863048 -0.023140741371688 0.014060077990019083 -0.01555823805688102 -2.9620810834350618e-05 0.002168191111545697 0.18554179751388927 -0.11170619868796405
3997000.0 0.9971855381941419 -0.030385796521065694 0.004351404576583049 -0.009913343690874038 -0.004624595805436348 -0.0013665243864785345 0.0677068014963617 -0.24263761622867192
4996000.0 0.9956761890581051 -0.03788769799774976 0.008824317187439208 0.0011080556576566795 -0.0019762633969873044 -0.0016031987533141983 -0.05912152858367639 -0.19330686225382568
5995000.0 0.995631149942284 -0.0476987512605434 0.005972223294137686 0.0034297365027446645 -0.00398901116642055 0.0033058623553729764 -0.13139701696630893 -0.09590742684691067
6994000.0 0.9921406302377083 -0.06132257106093149 0.004496490641899244 0.0052875197278319935 -0.006483619772503199 -0.00045064925566404713 -0.14129268181450028 -0.013018482588857294
7993000.0 0.9956064474640057 -0.06948981906194578 0.0021723716108835644 0.0050327875837479115 0.004404864398425244 0.0013705112850268034 -0.16658823032848524 0.0445516481606859
8992000.0 0.9944715884800931 -0.07525708605467306 0.005754416225799077 0.0005701348095356879 0.0012570004534052882 -0.002306703376387805 -0.1633288411216724 0.06028869224399802
9991000.0 0.9925702029937368 -0.08528233169925678 0.0048348863947964464 0.0038279267412415587 0.0032353481649809016 -0.0008329629471805514 -0.14661112541119842 0.0966157228119308
10990000.0 0.9900165751917529 -0.09634463046061437 0.0035691239337334335 -0.0015588820783340805 0.0009088090051267215 -0.0023260708267971073 -0.13704712438520736 0.11126451366786046
11989000.0 0.9912034079865042 -0.1005627520553201 -0.0006185128651740396 -0.002431027411782558 -0.0016399638115817128 -0.00307932684567624 -0.11737989094150938 0.13878212275202942
12988000.0 0.9876333597063308 -0.11271173745526802 -0.00239267171923801 -0.002056350268523975 0.0004971024586337913 -0.0016010463006285109 -0.10531949575160784 0.1749199696736398
13987000.0 0.98698722483713 -0.11820007733627233 -0.002169479477148334 -0.0038635206542649916 -0.0005409932184171424 0.0007569742192199561 -0.10957678116301521 0.19148645325963054
14986000.0 0.9851425164251346 -0.12542730597263588 -0.0006320658616470105 -0.0019804341219683175 -0.0012435035273149267 -0.0011256271813328495 -0.07546006848138104 0.20279635411958294
15985000.0 0.988477391428143 -0.13271157099293937 -0.0020748173727034515 -0.007395962858717447 -0.0033514598417550075 0.0005601073663571125 -0.07299742887073524 0.2147179868581623
16984000.0 0.9846914452918524 -0.1438125614334262 0.0014653428691821448 -0.005703649925419427 -7.846417259126817e-05 1.8133787895739805e-05 -0.0631420356373098 0.22739333092642952
17983000.0 0.9833426220993713 -0.15179989313478842 -0.0017799824387514603 -0.005558267938902945 0.001292951632568213 0.0011198821766771686 -0.053562588564798716 0.22257706529873666
18982000.0 0.9823620620466675 -0.16091651940189147 -0.0016256004598474293 -0.00908614601780886 0.0026120981347896055 -0.0010664362305964027 -0.023666926357982166 0.24065644285945442
19981000.0 0.9825697690683916 -0.16854812988843157 -0.0016378150484586624 -0.0033436435460052183 0.0004530569948426702 -0.0013961832271804904 -0.019485890490029623 0.23545965531466442
20980000.0 0.9793307636636681 -0.1773898295476281 -0.0044081465521205055 -0.007165016033947733 -0.0012247958896057488 -0.003190453034727962 0.002756421425574454 0.25768642356027516
21979000.0 0.9786431138645026 -0.1868105296994528 -0.0025071441744591535 -0.0051045499175711405 -0.0038968999043383404 -0.001695834258430887 0.005911683387724038 0.26530844925385116
22978000.0 0.9766500906283948 -0.19723086504284346 -0.006112285146416715 0.001230396122349872 0.0021172189540910463 0.0018840868463363405 0.039501386459462356 0.25437320005499836
23977000.0 0.9767296093207342 -0.2048650636618305 -0.007377416280187157 -0.0006701780297006822 0.0013879141667316034 -8.604315711733787e-05 0.03955188879921198 0.2552243226467743
24976000.0 0.974036003004769 -0.21313850579023413 -0.0025034361818249474 -0.0006568271764275045 -0.0032929246965640755 0.003923367340583646 0.07054700220367223 0.2491200345843647
25975000.0 0.9747517825192368 -0.22351426361771767 -0.0011719758326784236 -0.0002893403521438302 0.001643981952031709 0.0250703587775184 0.07357383665880411 0.2665234226464789
26974000.0 0.967144602673757 -0.23153196652734703 -0.006022061125994487 -0.0032594064723636433 0.00039038145699678316 0.0008524318377037949 0.08669697137325254 0.2726382861844525
27973000.0 0.9682920345671354 -0.23582986044569818 -0.002520185253766096 0.0018706911725616066 0.00037997094569651354 0.0015094292229632688 0.10797107684852648 0.2622237952001488
28972000.0 0.9628670982591776 -0.2487890367418773 -0.0021692274616229375 -0.0034278258692414507 0.0019184541031266246 -0.002669482789885827 0.1227428480301206 0.26588586867762404
29971000.0 0.9630013861073785 -0.25556789321874435 0.0011479246663939934 -0.0014902402238512551 0.0008573802610180811 0.0012795333810438738 0.15260098021036422 0.27686766610031593
30970000.0 0.959868429965647 -0.26130831421958983 0.0019510328279794893 0.0006385345896898272 -0.0004642502763059353 0.0015094029077416219 0.17860866732265543 0.25933730792584586
31969000.0 0.9590448590789121 -0.27173518934858193 0.007899259786667438 -0.0035049558217670434 0.0007541637332902241 0.00029212121802900886 0.1535730737493273 0.25256739149815777
32968000.0 0.9576640506649103 -0.279006622303264 0.0028422845328521114 -0.006812948567977719 -0.000798043753106608 -0.0014418978743751304 0.16712533966618937 0.24384334331381866
33967000.0 0.9543861597169162 -0.29042629633832545 0.011795006798096083 -0.009625757385414782 -0.0009175674262755588 -0.0020518404110473716 0.19420566488060256 0.24611616061584232
34966000.0 0.9507753372815805 -0.2989461089395495 0.01067777606078944 -0.01287021988450982 -0.0010726854444434257 -0.0023313726960911265 0.19068934966647308 0.25135761163087456
35965000.0 0.9465883717226178 -0.3064215031545981 0.01730381723452673 -0.014996694741312025 0.0005372943256234532 -0.004021373054285916 0.22234782542147505 0.24310039273999798
36964000.0 0.9446822916841243 -0.31625155930592835 0.01647318384620159 -0.01477327634038039 -0.0030914789337006207 -0.0016388925732290312 0.20987283009745689 0.2466435303994086
37963000.0 0.9422254992436906 -0.32391725783443215 0.022062480897335868 -0.02001750636479704 0.0024721832748530307 -0.002047880771050148 0.22974376646331005 0.24165397589167048
38962000.0 0.9405724062085064 -0.33344866042636956 0.024797787033140912 -0.025629129304543072 0.001465769402099485 0.0009318479655812522 0.2413281444356113 0.22697043385486299
39961000.0 0.9369161106879956 -0.3426002393961212 0.023992718142608643 -0.02782493536684924 -0.002407113953350862 0.00024023436715961955 0.2577858091727153 0.2224875357613734
40960000.0 0.9330510052474447 -0.34858799115393063 0.020456909829048516 -0.02379950533721611 0.0012772972449384672 -0.0022935615902505433 0.2637494056462803 0.23359356679975987
41959000.0 0.930112966735235 -0.35859079404242866 0.02672189224126078 -0.03363536475818936 0.0009542021361228402 0.0006161808520334018 0.2736615152095464 0.21937088381600506
42958000.0 0.925976241842185 -0.36733297609774057 0.0325844772674044 -0.041194765518327764 -0.0004700842135041145 0.0014405438417244435 0.2841336125153201 0.19977552175127442
43957000.0 0.9231824961027605 -0.37482207525501576 0.0295634893877604 -0.04790133089382567 0.0008248838278609993 -0.0020621997987414764 0.2921386865750934 0.20852477366293753
44956000.0 0.9200495943928566 -0.381441699979879 0.0342259137380669 -0.049565817659395106 0.0009835020169143278 0.00040785000508697963 0.29779594143066124 0.19728407231559816
45955000.0 0.9151707738790781 -0.39383521003405647 0.032372684886604254 -0.060188922108994646 -0.0010068848552825425 0.0012962785279416818 0.3164069167788254 0.19488797407617905
46954000.0 0.9123347536777379 -0.4013387735589243 0.03362832134572938 -0.06593525174835053 0.0006242108735601237 0.003093092668940636 0.32423495085515613 0.18402993019602673
47953000.0 0.9093845161481882 -0.4084232405666035 0.03105165474292775 -0.07384413137261495 0.001572340668021739 0.001019886355995584 0.33616462793914087 0.17493477624400192
48952000.0 0.9021986773313251 -0.42115331698872743 0.03295293317794112 -0.0803629015452413 0.00014353433587991856 0.0007144265865073265 0.3440740693213954 0.17260553992736044
49951000.0 0.9003162232002742 -0.42438424430979316 0.03620920595966856 -0.08490289989664843 -0.0029934734583417838 9.485316009116593e-05 0.3516422607535403 0.15806005655173966
50950000.0 0.8970579920920079 -0.4349065235482853 0.03409745878312055 -0.09800624350837756 5.190548684502273e-05 0.0012278835961866993 0.34837309421905943 0.13751442343710113
51949000.0 0.891921145053466 -0.443156392638664 0.03805339912637054 -0.10351433549581016 0.0002985237684511741 0.0010805324450129713 0.3680121127398365 0.13844444129961245
52948000.0 0.8903452024078328 -0.4500890575012409 0.03910990139375845 -0.11186734045672352 0.0007766422816430831 0.0007911149992872248 0.3775659423649965 0.1375332774096223
53947000.0 0.8835987843087354 -0.46127258970062923 0.03770778153021733 -0.11953667441550898 -1.7597101079000385e-05 0.00683840994267188 0.37480982262466156 0.12802923097507748
54946000.0 0.8777542529364104 -0.4674281909438542 0.03986748479265273 -0.12903918692613342 0.0018048146554967858 -0.0021784909575906027 0.38917686176057725 0.12006465199295156
55945000.0 0.8755433799629719 -0.47608996436074447 0.04222693434822925 -0.14317602439092356 -0.00028379745741566304 -0.005588409400192903 0.3892882747516996 0.1041187871145512
56944000.0 0.8725398402382105 -0.4851482052054589 0.043353514965502105 -0.15193362087601278 -0.000892551799781865 0.0010750620275045315 0.3997404085807835 0.09733403006943786
57943000.0 0.8656407894713979 -0.49565215402471025 0.043540533940172876 -0.16114843402641135 -0.00026649372159134063 0.0018067695246091564 0.4027998717861673 0.09679733206063694
58942000.0 0.8606776960694008 -0.49898293757869905 0.04649687277568035 -0.1687320044543186 -0.0009579681990838013 0.0023027009830197537 0.4222280758822652 0.09251113375005256
59941000.0 0.8576990718013722 -0.5114663523742932 0.047399081896388015 -0.17959277299317897 0.0015479041113570283 0.0008653052729904105 0.4193494053315488 0.0913726092704285
60940000.0 0.8501529584705277 -0.5164990567395155 0.043575058927068984 -0.18365332413344024 -0.0007203473301600118 0.0021276837274668767 0.4105143695269695 0.08963815993517897
61939000.0 0.845778597015336 -0.5236234294154243 0.045795809140689585 -0.19137945787338184 -0.002084613512804266 -0.00048675717625409367 0.42030038950385346 0.06489268663685513
62938000.0 0.8397323698766755 -0.5341390600380225 0.04796598636687068 -0.21056239447929245 0.0016372648508664602 -0.003598716202664115 0.44144326614889356 0.05940070509478115
63937000.0 0.8346739607456684 -0.54250042602208 0.052470171413809163 -0.22866224006461033 0.0008697586759875652 -0.0014528372385664398 0.4348602886047489 0.034118508865285946
64936000.0 0.8308825334948763 -0.5458826650399661 0.04860758407891974 -0.24245662762904782 0.00256096063260008 0.0027375752246600635 0.42755894664213906 0.04561151830968223
65935000.0 0.8277556742592345 -0.5569037892954581 0.05273904574718473 -0.25667989940501057 -0.0005427005694591311 -0.0009821651070251554 0.4434429315498181 0.021678949238210326
66934000.0 0.8219204255838796 -0.5630928038263445 0.05220608199095179 -0.2685747613365113 0.0001292877377651269 -0.00044001134059797346 0.44027348910936037 0.015363159029311206
67933000.0 0.8181823807678127 -0.5716475525654895 0.050422862417635855 -0.2809207700585739 0.00083256917565131 -0.0030865377513666177 0.45898002681071864 0.007942784372749636
68932000.0 0.8054248321445673 -0.5770260931586156 0.046025525270695034 -0.2933878528647132 0.002369925387510151 0.003025942747002141 0.4568304487367889 -0.011064454751773964
69931000.0 0.802989744751567 -0.5864487422723432 0.047390013223866004 -0.30941022098458837 -0.0042516923867038595 0.0034294433497791496 0.45404854470561534 -0.026712847765688063
70930000.0 0.7989979244512917 -0.5929338292883347 0.04477823260583882 -0.3235551386001116 -0.0009537998591834801 -0.002259735882160031 0.44803791736997217 -0.027225330485193135
71929000.0 0.7939595094900117 -0.6042889304814213 0.04225099624439568 -0.3431345196377014 0.0039807271119832585 0.002210515312505531 0.4540422371424337 -0.033234509537287106
72928000.0 0.7865413519317497 -0.6115607455612038 0.03306882454698317 -0.3548914905817078 0.004142190829230639 -0.002011027315587136 0.46595194143382057 -0.04021838882915966
73927000.0 0.7796871173486645 -0.6179647392550242 0.027946211647691756 -0.3730869983770747 0.0012786679245467443 -0.0012083926364122389 0.4596551409966003 -0.04797431750880355
74926000.0 0.7734463633407073 -0.6275593188114049 0.018728936432176036 -0.39288987190672087 0.00116719510220219 0.0032550153332196797 0.47469965704499884 -0.06101839514155123
75925000.0 0.7696511690788309 -0.6313875988777328 0.006341495303364858 -0.412203485950965 0.004960964265514448 -0.0016830425380211544 0.4741080412363427 -0.07735337122607142
76924000.0 0.7612699498680813 -0.6400435620618717 -0.004741108701623796 -0.43317235773406565 0.002655189233586663 0.00039500524647334464 0.46993413198049966 -0.07530117502890829
77923000.0 0.7560437702314046 -0.648510373480088 -0.014056381187670115 -0.4571116299674696 0.0019131012519806039 -0.00027788281576097274 0.4652898152461969 -0.08008025692491265
78922000.0 0.7494036397533002 -0.6559100338106636 -0.02910959308229069 -0.4835424516589453 0.005161583100084514 0.0008737006642843658 0.4602162832606808 -0.09968195948477739
79921000.0 0.7414198626981638 -0.6626637729577766 -0.05151877840477585 -0.5065493806007165 0.003295510971758076 -0.0021403669492454183 0.4586783032463233 -0.10884747388926347
80920000.0 0.7369692740938858 -0.6717982914934595 -0.06501270217999618 -0.5337902947780665 0.0031597387478333426 0.0009299193090029805 0.4740751222259453 -0.1163798541305798
81919000.0 0.7302982641239091 -0.6781341205820609 -0.0819304960572329 -0.5613925878142815 -0.0030532785493289794 -0.0025801841997631723 0.46109728619791773 -0.1353318164472625
82918000.0 0.7214927087384656 -0.6856540472791154 -0.09741471810780528 -0.5924246061280514 0.0018973848971095763 -0.0009730499610094453 0.4741036027566547 -0.1379325340054337
83917000.0 0.7125550035146366 -0.6945694450134242 -0.11539240065279184 -0.6188894733145697 0.0014018896636140883 8.250827200753007e-05 0.4701322631826176 -0.15874160257408898
84916000.0 0.7083723109420529 -0.7002153761290989 -0.130626966458868 -0.6552774811740091 0.0014852955080842882 0.0025120540805015795 0.4616602767011214 -0.16643507796208104
85915000.0 0.7014736661288541 -0.7065963365010782 -0.15296492735409772 -0.6830368867642183 0.003233789249816161 -0.0029576684438039074 0.4688560784055056 -0.1734496047565703
86914000.0 0.6939294817034611 -0.7169638782091927 -0.16699880469413406 -0.7192441688937982 -0.0008120042461346547 -0.0017242945798370101 0.46650475814765413 -0.17846747958829565
87913000.0 0.6857146814433668 -0.7228740310801198 -0.184859581844923 -0.7459117457515468 0.002190625914339979 0.0007140351480922568 0.4649810525819631 -0.17745020348472318
88912000.0 0.6792797108541384 -0.7291495343610378 -0.1980253490472388 -0.7801129875759789 0.004651667880710609 0.0012648413378765224 0.4612816590694879 -0.20817406935327154
89911000.0 0.6714049790933045 -0.7386790199665342 -0.21818854551786193 -0.8173139425641777 0.0003132375289643975 0.000605525840842716 0.4733569273404259 -0.20822952510110262
90910000.0 0.6642952033294003 -0.741169365779206 -0.2287091392376369 -0.8523290324042583 0.0008440710259160992 -0.002545277375595427 0.46519250623556696 -0.21420238708350572
91909000.0 0.655008445415609 -0.7467435787465649 -0.2505802293364008 -0.8825690635614399 -0.0007770117035037161 -3.2108458188664606e-05 0.4699343909193226 -0.21636219491465059
92908000.0 0.647589617767292 -0.7572697851796365 -0.26933763227426005 -0.9121026905841774 -0.0011702393036955479 -0.0002181048494131187 0.459611570314472 -0.22019140613126842
93907000.0 0.640444031652901 -0.762539892156586 -0.28219090019907667 -0.9409458376414844 -0.005718918189378301 0.0005338206212746109 0.4766885796434366 -0.2455950774293389
94906000.0 0.6271485752496679 -0.7711046785380774 -0.30409920274780117 -0.971904788232444 -0.00034846440264845217 -0.002698061603542042 0.4569110560731929 -0.2591844386591904
95905000.0 0.6234272072980005 -0.7764270288511445 -0.32183465806031925 -1.011473077918141 0.002708519034217025 0.002816158942209064 0.47044586002379235 -0.2782563968761084
96904000.0 0.6137337738824624 -0.785036819022516 -0.3367408137033314 -1.0487646654590428 -0.0008645917741135058 -0.0014762169891432834 0.4597544950478229 -0.2668123777269739
97903000.0 0.6040478908945948 -0.7917889615489672 -0.3598715758999892 -1.074509291085125 -0.003291650958407954 -0.00168320850479434 0.4595475457704748 -0.27707153748686153
98902000.0 0.5993887735062025 -0.7971474424250072 -0.376815335336747 -1.114667715604545 0.0018938824869352176 0.0018534202589483247 0.45267533885242234 -0.30269551401341344
99901000.0 0.5879123476815485 -0.8035193555189384 -0.41010688841405274 -1.1375691797848355 -0.0029344008075696767 -0.0030120876741281002 0.46309097076595046 -0.31942330246719575
100900000.0 0.5803265176350213 -0.8053061422705091 -0.43776434860859115 -1.1675414790114722 0.001799669154908108 0.0010281473875575118 0.46440290614134955 -0.3216075736491119
101899000.0 0.5716261211166958 -0.813763417790503 -0.4590225377156836 -1.208002468865463 -0.004739352995496107 0.0012849243839549794 0.4482313133876953 -0.30419742432134705
102898000.0 0.5598182401981037 -0.8208535921115886 -0.503019167979322 -1.2418403547438739 -0.002074822920980624 0.0037923250933791838 0.4467222449284277 -0.3372286063312332
103897000.0 0.5518740751026788 -0.8255086096459339 -0.5387461000516066 -1.2777522066066584 4.442829355386742e-05 0.0009145143341604282 0.4636437723602658 -0.32558991829069583
104896000.0 0.5448211834483117 -0.8371803375450125 -0.5760743379644432 -1.3035152601004822 0.0016929155693694404 0.002575935836368317 0.4423907978963946 -0.3364432918912061
105895000.0 0.5301319972511139 -0.838191673520171 -0.6253103945303631 -1.342246881209743 0.001789671120937145 -0.001744341939094392 0.43784914823401055 -0.3623722647606345
106894000.0 0.5223771349371844 -0.8452318067416884 -0.6796909754869713 -1.3776658249381701 -0.0041062271585118664 -0.0005386381796059133 0.43568565351221045 -0.3545804051673444
107893000.0 0.5140356608994202 -0.8525848811565311 -0.730642816004654 -1.4140547659043439 0.0014447935488133667 -0.0007898539512266033 0.44096542397213084 -0.37335499295721075
108892000.0 0.504628790938659 -0.8540503948156615 -0.7852674412489051 -1.4491781513407516 0.0037000526868940196 -0.0019969412781071826 0.42715148170299555 -0.363339640899442
109891000.0 0.4929083902495306 -0.8644541264211865 -0.8430114830861446 -1.4839054984684499 0.0008977317088620029 0.003086504965394306 0.43629749713985605 -0.3699713598422144
110890000.0 0.4751394809890541 -0.8690778197868428 -0.9192045064954637 -1.482863473296996 -0.00020114170173637358 -0.00041943456608104645 0.4338645403607842 -0.36779368037328414
111889000.0 0.4726923515748251 -0.8692803170247569 -0.9670011585500924 -1.5476578833394607 -0.0024629647062401213 0.001636659997774588 0.42085188734145423 -0.40041683008976514
