! Created with skrf 1.9.0 (http://scikit-rf.org).
# Hz S RI R 50.0 
!freq ReS11 ImS11 ReS21 ImS21 ReS12 ImS12 ReS22 ImS22
1000000.0 0.9870511129148105 0.006327178470299647 0.0157110972268613 -0.05065464790419642 0.002859709391447813 -0.004592719355574122 0.3339632875764675 0.2559364088071834
1999000.0 0.997005693828144 -0.013511607985402577 0.008312693356183782 -0.024048540574963338 -0.005472941973924828 -0.00018019750436896824 0.2735378785372148 -0.04295678315016085
2998000.0 0.9978838657013427 -0.019329173209286343 0.011936898168152656 -0.017316035068489374 0.0012034427897751828 0.002262353486049014 0.18528939352925625 -0.15052201058503176
3997000.0 0.9991697281985197 -0.032202227713411684 0.006519987825469493 -0.009384565688732197 -0.00346297546072269 -0.00221629822671329 0.07210195333080467 -0.23247091268021566
4996000.0 0.9973027328844899 -0.03867504663136103 0.013964972623490859 0.002090481870658253 -0.002678951471580753 0.002148513829910182 -0.05344726800546043 -0.18674256035259476
5995000.0 0.9979314730324296 -0.04665471832478751 0.004620739534562805 0.0022424436796781117 0.0017062860632164856 0.004390983177350283 -0.12865115230501348 -0.08388290102042383
6994000.0 0.9918404249301708 -0.06058777376689298 0.005220314559637964 0.0035612895527367453 0.0012018907813893284 -0.0004162046403001168 -0.14407664601425876 -0.021545181655580777
7993000.0 0.9918013598828471 -0.06717853085193973 0.004498336692930736 0.005495339212863294 0.0030875527342770913 -0.0012922034023550848 -0.15378164416378728 0.0438121563310037
8992000.0 0.9949722367446732 -0.07252367062243945 0.0041748199952208066 0.004058048152006645 0.00022009251772660957 0.0010559314458054377 -0.16021828079760156 0.06922557846685642
9991000.0 0.9936836314111741 -0.08523366169572955 0.0016634721522437179 -0.0016064900145689213 0.003875267082594735 0.00013695741359098142 -0.14020682029399578 0.08469211278913266
10990000.0 0.991474698958686 -0.0928297928996018 0.0013914957432312784 -0.0026752260278094697 0.0016843421345509547 -0.0011119481663622336 -0.13375488738133773 0.13016562814585755
11989000.0 0.9902995670306001 -0.09920872342695575 -0.0006877793980995962 -0.0012201539866548638 -0.0020062207424522216 0.005724415771199229 -0.1156414017992286 0.14717815565466694
12988000.0 0.9886993564417877 -0.1112161185332176 0.002524119672136374 -0.005770360495301326 -0.000672430417925374 0.004868620771864729 -0.115539093729877 0.1738747389993115
13987000.0 0.9874251956264002 -0.11947174969491899 -0.0008260047260187932 -0.0029173890764818493 -0.0032547889107345063 -0.0016331515869201139 -0.10225307131785695 0.180070759189451
14986000.0 0.9860576670459726 -0.12718950469615714 -0.0005412657765580195 -0.0023725041937269664 -0.00048626152336180695 0.0010241091737612036 -0.09422165980601845 0.20655339497739786
15985000.0 0.9884104989670549 -0.13481859410592356 -0.0022816077889001485 0.0028389068403930013 -0.00624891923019789 0.0005537841196278693 -0.06365654959502813 0.22373882097960943
16984000.0 0.9850723286543112 -0.14641224465724448 -0.0027416843506145316 -0.0026702963745800527 -0.00019586401099390782 -2.4381543699863342e-05 -0.0558395537370322 0.20789851072448565
17983000.0 0.9829459645298381 -0.15265314325786603 -0.00409851178309687 -0.0022748382238779326 0.0015775377393017957 -0.001357494652320435 -0.04456961494392203 0.2342695276336863
18982000.0 0.9816372791470508 -0.16413490311866968 -0.0022972498773852356 -0.00690458455921524 -0.0014934929674506059 -0.0001803951257090477 -0.014749035072222798 0.23631751546833837
19981000.0 0.9802301950028294 -0.1673440621196789 -0.004070100017754781 -0.0033734307838123086 -0.0042449244810338045 -0.002210455028115225 -0.013053286650007602 0.2383125230063448
20980000.0 0.9804417754575312 -0.17567047798558577 -0.004259116762966144 -0.0036824127968929283 0.002516896520239891 0.0006828911061130668 0.0017523971996562299 0.26321963732931297
21979000.0 0.9773516869126396 -0.1852555051247268 -0.008149472063928104 -0.005575097528999417 -0.0019270164221741376 -0.0017558552780543122 0.022453125040821188 0.24369495082816398
22978000.0 0.9746540883999713 -0.19561419435772276 -0.004827712534592041 -0.004751807708634989 -0.0004329353433006115 0.0012951413776901663 0.029729366664317053 0.2554915522058383
23977000.0 0.978133873293609 -0.20142102116870036 -0.006393252007885106 -0.0005205500277485963 -0.0015931131843076435 6.0964179270783095e-05 0.04541678815415071 0.256598814176919
24976000.0 0.9717472948721498 -0.21378787169916605 -0.01057624501104004 -0.00048194430845342637 -0.0004775690453042038 0.0009131247401550521 0.07304983483798597 0.2584209785582103
25975000.0 0.9676382968625997 -0.22651973709336506 -0.0063564654834556335 0.0002766722871885505 0.011039462329882347 -0.025834811326524307 0.0704294820522635 0.25914574673069574
26974000.0 0.9688234011179802 -0.2283413451484188 -0.0005078231621639752 0.0003383499636231412 0.000726528950547686 -0.00036884626640658585 0.09757418513293734 0.26383492113941864
27973000.0 0.9693780834769687 -0.23616762036849814 -0.0042465104575135455 -0.004192088128502085 -0.0012396403251840266 -0.0001972472393384536 0.10762694080612803 0.26419283668887433
28972000.0 0.9661544871078743 -0.24532695997244194 -0.0033968044175627854 -0.0015016326017458293 -0.001413021537845104 -0.001705553221446302 0.1206416316488805 0.2481077671277057
29971000.0 0.9632066534281205 -0.25566537309890125 -0.001444630241098982 -0.002031039845276871 -0.0007687000391041989 0.0010300577914259 0.1522073674567446 0.25750627397577625
30970000.0 0.9612856798745669 -0.2607293732073386 0.0011994974252176318 -0.001703563710753511 5.034572439728549e-05 -0.0028557299806127685 0.16468221604710118 0.2580008862597489
31969000.0 0.9582169798724125 -0.27115262774716475 0.007360284561364831 -0.004797051204743859 -0.0005947056703874807 0.000819699543470031 0.1573063673276812 0.24639012543153724
32968000.0 0.9569751166515865 -0.28156110971276244 0.008264135418771445 -0.008624715829591564 0.005433904648818863 0.0035123387019541197 0.1753726261938811 0.25257612259249934
33967000.0 0.9543997661071527 -0.290375592628947 0.010829719524324162 -0.007859596913771852 0.005283537918075393 0.00019488089734528898 0.19013640821753702 0.25046211680638275
34966000.0 0.9507579075861936 -0.2973019939175031 0.008957136675919419 -0.012883684921981723 0.0020634955567498565 -0.0018250576353292516 0.20298752594914973 0.24569562610279264
35965000.0 0.9497646352699248 -0.30555162564710187 0.01734637570948309 -0.012137620271101534 -0.001360434579310952 0.0006494697878354563 0.21534429237924702 0.24809675631027786
36964000.0 0.9472051217615041 -0.31459691813616736 0.018923428420536053 -0.012795856198896912 -0.0010651253341417883 0.0010756459729248018 0.22495744266615134 0.25562669084840345
37963000.0 0.9428175119470453 -0.32448562651677376 0.02377072935837534 -0.02200476866387995 9.014071229438455e-05 0.0006026861484297287 0.24039330619496224 0.23039439146310645
38962000.0 0.9397694959315431 -0.3350137371296486 0.024590166784162724 -0.023471240458421888 -0.0011213767215901918 0.001522675477826984 0.2543674136183787 0.23834846075671776
39961000.0 0.9374005687106244 -0.3425591003111697 0.02437975361994511 -0.03161309939567415 -0.00016787327376623648 4.516832605003439e-07 0.26356296613527924 0.2280965629880767
40960000.0 0.934501398094842 -0.34939122809793827 0.020163986096670607 -0.022440441473003028 0.002035454443762944 -0.0014172122053756394 0.2773301614815951 0.2263868781744922
41959000.0 0.9299268982654698 -0.3594301583998797 0.03173624854836906 -0.03128549460318859 0.0014884752060531719 -0.002131840904820284 0.2759489555563201 0.21790228357769928
42958000.0 0.9270538016599285 -0.367210021475278 0.03292744448422993 -0.040172570753039386 0.0010005247479947296 0.003488149021981441 0.2929620547917193 0.20328062773715966
43957000.0 0.9243761105687036 -0.37406327059853883 0.03172527672398858 -0.04826816039498862 -0.0014789498991777288 0.0027851262692959156 0.2905548132960265 0.20307163416024207
44956000.0 0.9220455318281452 -0.3784032181625213 0.03322585404930823 -0.050881202933343354 -0.0006115354392407299 0.004381643262078013 0.3060802886620518 0.19514182140831587
45955000.0 0.9159817273216242 -0.39180089478955216 0.035528785374468075 -0.058449459214735114 0.0026449895918348823 -0.00022175393292824506 0.31812040833123 0.19002098273656912
46954000.0 0.9137867871939366 -0.3994333311777867 0.03159631546801055 -0.06486737851012601 0.002955041996598918 -0.0006671836731198398 0.3365594197512144 0.17640328503382777
47953000.0 0.9095880189238709 -0.40796155710329846 0.036506344321699156 -0.07348641190257926 0.0008722177179375375 -0.003621759814539865 0.34608422630208263 0.16273699905641884
48952000.0 0.9042543394475903 -0.41792204382420667 0.03465933743933488 -0.07834045372472845 0.006089993108574509 -0.0009931274586955014 0.338181867693855 0.15113445984320045
49951000.0 0.9003970831165828 -0.4252958229810742 0.03716085688134977 -0.08564472522195304 -0.00016839260488220068 0.0005561893575015501 0.3526254228232496 0.1530618207285031
50950000.0 0.8967351763668401 -0.43459773396364154 0.03660719388850145 -0.0989543582592483 0.001349756045471751 -0.0035967360130696917 0.34989928775857454 0.15062310644798907
51949000.0 0.8915953730168746 -0.4420010011118754 0.03760691009846025 -0.10584298840209648 -0.002594142242164026 -0.003787815108135586 0.361772465474012 0.1414722160597437
52948000.0 0.8922985538185649 -0.4495890982367094 0.042217989628383794 -0.11390581089697609 -5.158423529214226e-06 -0.0011798591193661653 0.3755476254598668 0.15258189112884799
53947000.0 0.8835899117803659 -0.4590469207498999 0.043058523328092596 -0.12308420732902377 0.0010845424225359682 0.0045892827868654834 0.3809824817221804 0.12397689132176393
54946000.0 0.8792728913950216 -0.4671697838386368 0.042268922029216636 -0.1333948507801107 -0.0008066985484655021 0.000716365163667003 0.39248274219678964 0.11859363555814603
55945000.0 0.8768326008812231 -0.4745845347131211 0.04011933793665087 -0.14047637466995938 0.0009400782054822082 0.003050798667886387 0.3937956900918155 0.0960473753054754
56944000.0 0.8708347783057245 -0.4821624470427159 0.04515987203783537 -0.14909392258618837 -0.0019497175882661924 -0.0010794111963818346 0.4044989444676693 0.10208175430987351
57943000.0 0.8672635370248748 -0.4924963632557134 0.04679413852497002 -0.16243460806043125 0.001230002161485722 -0.003920154015177139 0.40556292032656094 0.09254263641777027
58942000.0 0.8609402861721699 -0.49885787984032304 0.047155187296484845 -0.17564535042292875 0.0029218255314949937 -0.000704909623861808 0.42226188416353605 0.07308707231043295
59941000.0 0.8608820494610494 -0.5048986114218806 0.04895404273984368 -0.18086314869167122 0.0013615029649952832 -0.002634179261422626 0.4312253178085033 0.07706706682004529
60940000.0 0.851315682767311 -0.5141213912437675 0.05107863872966228 -0.1877983726381159 0.0021532398872732227 0.0009241504247683923 0.41725852945228303 0.081814448839299
61939000.0 0.8475941383562906 -0.5204895125946893 0.05057609609911066 -0.19553323405839101 0.000725388552098476 0.002164689568936035 0.4188304418201204 0.06241981554901253
62938000.0 0.8411665407894656 -0.5322927654263998 0.052716505731373285 -0.2110526955882916 -0.0023330540683620163 0.0013151346896418795 0.44440191265579077 0.05190072162431771
63937000.0 0.8382853660745062 -0.5386945431349115 0.052039191301504445 -0.22713165829521745 0.0014803048011540333 0.0020423276436165472 0.4296596380847598 0.038130358517632995
64936000.0 0.8298572060081146 -0.5453856504074943 0.05571632487075223 -0.2440159884739252 0.001168167291195547 0.00019051150705891255 0.4417888734692272 0.0337700720007165
65935000.0 0.8268985255108551 -0.5555741028575519 0.05275894447117427 -0.25757294156010946 -0.0015324542360550663 0.001210768769376252 0.4421002904862503 0.014763814730044818
66934000.0 0.8227995799195968 -0.561085787968413 0.05082181967238879 -0.26784056937700307 -0.004532258195399011 0.0008194900997196394 0.4360102515998452 0.0012523305792356203
67933000.0 0.8186348350816617 -0.5696184485529068 0.05281207649023278 -0.2841850222968828 -0.0015820538832247997 5.589634540228305e-05 0.4436177469470784 0.0023536733923525677
68932000.0 0.8108132135838971 -0.5638006956423106 0.04922267537647963 -0.2952044805648988 3.09579048956522e-05 -0.0012816277854015815 0.45781474938149774 -0.008740014748068566
69931000.0 0.8040134990050773 -0.5853213327511757 0.04969284082170416 -0.31299856019718164 -0.002706265638174037 -0.003754890202794014 0.46031802891142715 -0.024966307355884704
70930000.0 0.7984940670341764 -0.5935759147212936 0.04413568205053292 -0.3274902194053652 -0.002040384907499655 0.0013233284511970657 0.45534394963747504 -0.034158016293464474
71929000.0 0.7942599642292992 -0.600785009256616 0.043520466311629945 -0.3469068896829642 -0.0038888589449528888 -0.0024534022835156705 0.45456755504103113 -0.04489629487896671
72928000.0 0.7881819655092054 -0.6106780269823416 0.03912058240185313 -0.3623769202277683 -0.0008072612614387905 -0.0011277030103605526 0.4631137386443928 -0.058033056884615665
73927000.0 0.783060041276528 -0.6169952728157669 0.030481475751698416 -0.38226253761436396 -0.0002545433668683385 -0.0007491167365586825 0.4667393211454055 -0.04926441745038721
74926000.0 0.7764065002609353 -0.6256088333811842 0.02243394079278513 -0.39931810830388825 -0.0015048931797169303 0.00039783360861227776 0.4765099675396961 -0.06778908953745989
75925000.0 0.7698219872558246 -0.6313673714110456 0.012033801330875641 -0.4233193201931244 -0.0015403581789229432 -0.000784812510456602 0.46662758462229625 -0.08535787907136513
76924000.0 0.7643145795476434 -0.6386846157368353 -0.0004108707643544423 -0.4433680396949074 0.00019065041985929623 0.0013099122393700558 0.4721350878937427 -0.08589339661212493
77923000.0 0.7568373059763409 -0.6470292262823022 -0.013594537145575434 -0.46616046421784585 -0.0010037563399147888 -0.00389849882263428 0.4691601448168266 -0.09910975552615567
78922000.0 0.7512661354984652 -0.6541329464185409 -0.028106906771159266 -0.4919271826368283 -0.0004385889471089511 0.0010182218616602483 0.462545622217371 -0.11594355623985793
79921000.0 0.7423084550915828 -0.6599848745725523 -0.05105437847114775 -0.5148707541977644 -0.005863065384584235 -0.004413489982529711 0.4546903790653409 -0.11342154327294535
80920000.0 0.7372597576676594 -0.670785988528252 -0.055647012264070345 -0.544444640248283 0.0022077578187138457 -0.0035824801126604854 0.4726754267082432 -0.1248956854145899
81919000.0 0.7341577461250199 -0.6738163564982902 -0.07963090051014966 -0.5713188693093749 -6.932342049257734e-05 0.0011396962200315045 0.46807325532241917 -0.13719046724125336
82918000.0 0.7232202650793713 -0.6844700987629219 -0.09245241760252446 -0.600242482034926 0.00014793379557537646 -0.0042744307576030125 0.4769923075700506 -0.150418494501169
83917000.0 0.7156449341439275 -0.6923471500946139 -0.11525429453415079 -0.6291324529933543 -0.00012159403329431425 -0.0008668133901874274 0.48658720101489544 -0.15466909978883875
84916000.0 0.7098982869802981 -0.6968850048088553 -0.1275881452934277 -0.6668943922920504 -0.0023893696918892205 0.0028239724161509103 0.4702140023696198 -0.1702258961043917
85915000.0 0.7054602574757389 -0.7042684302673691 -0.14463001765375183 -0.6960483378088588 0.002498166961682861 0.0002479372713562878 0.4701654825068344 -0.17998766700003535
86914000.0 0.6929817634286682 -0.7150043785098754 -0.16284827303007635 -0.7345164227191395 -0.0037993441432580756 -0.003908009049732429 0.46842143128571273 -0.18296879373883485
87913000.0 0.688634771847711 -0.7200544197539869 -0.18079930189285637 -0.7605106821755075 0.0007748686904770608 0.00093034939422959 0.46175407931747114 -0.19325788837373375
88912000.0 0.6828478120151352 -0.7268328612928441 -0.19584898679517188 -0.7902412723442789 0.0014005085015050538 0.0016499899053667175 0.45796476328609803 -0.21796900515510964
89911000.0 0.6729912949240114 -0.7375933929195015 -0.21653805330214757 -0.8261782758975912 0.0029027248597234627 -0.0014355394101324443 0.47394968567334167 -0.21316794119928223
90910000.0 0.6671273240448895 -0.7403514628186432 -0.2274014873399424 -0.8617491574307351 -0.003657664975253782 0.000955375023015439 0.46296225162452176 -0.22569430356292336
91909000.0 0.6569702593512655 -0.74690430236606 -0.2504166213069661 -0.8924977852018477 -0.000533851521202526 0.0019874657402314515 0.4744365504801812 -0.2300670837244356
92908000.0 0.6502093138406754 -0.7564643800125939 -0.265650033278391 -0.9201828867851161 0.0036977773163259196 0.0014925855150930152 0.4653155678420091 -0.2432800938853581
93907000.0 0.6432031161144013 -0.7586649854565082 -0.28316913415743905 -0.955750255067466 0.004470900051783384 0.00038360827492844277 0.4653743430642903 -0.2629032910757874
94906000.0 0.6313483286129772 -0.768640903246503 -0.3024994442668777 -0.9876783258446195 0.0019022489576210738 -0.00038046110585779775 0.4599973103764917 -0.25711360709303893
95905000.0 0.6236502406492829 -0.7753061104222585 -0.3264339647812096 -1.0216895185746107 -0.0011969649763786615 -0.004215245956741175 0.4599461532495465 -0.2818980216034598
96904000.0 0.6170556050962056 -0.7847804240393331 -0.3442589558011733 -1.0569673686352314 0.0035181121731302613 0.0016423321528158264 0.4530120573305601 -0.28202387974448784
97903000.0 0.6065173818127997 -0.7866071716453815 -0.3633649559640472 -1.0899468426956638 0.000756077857869625 -0.0016681357254849734 0.4589618242790523 -0.29160970639957146
98902000.0 0.6039919391159547 -0.795974226175037 -0.3854823080622407 -1.125727688695631 0.0009004158113996635 0.007732401132143979 0.44517583696380386 -0.30215587578032743
99901000.0 0.590815043690117 -0.7988857163571303 -0.41932133375410324 -1.1550146210826422 0.0005162843451839334 -0.00380055132465791 0.45789877400918155 -0.32985268527918415
100900000.0 0.5830750429809022 -0.8035165718128153 -0.44380142709204695 -1.1878727181125355 0.0018894554630538996 -0.0013832296586379915 0.463700278754488 -0.3246197462462968
101899000.0 0.5738087374974559 -0.8124085171541322 -0.4709590059835472 -1.22380910830243 -0.0026700362254371292 0.004398359189897234 0.4495194024099519 -0.3280608564230113
102898000.0 0.5637352305497276 -0.8180202478710692 -0.5063649438775276 -1.2628189230372295 -0.0011269627054579041 0.00026874824341007516 0.452899520006141 -0.35431919065753
103897000.0 0.5550702700384621 -0.823330609202299 -0.5443875443189653 -1.294509984101848 0.0015776604657845837 -0.0010259490791946597 0.4640053024398903 -0.3393292549923539
104896000.0 0.5458906430657982 -0.8349236638586846 -0.5903088640350077 -1.326939107170219 0.0019277176036012857 0.0009199635832959455 0.4378819307994855 -0.3418673625491539
105895000.0 0.5378373595685508 -0.837066779944306 -0.6342240898718924 -1.3682355040350949 0.0004423132146934685 5.4898774616798224e-05 0.4329522870750807 -0.35960894795104426
106894000.0 0.5270311086963556 -0.8426079968688229 -0.6880355916232594 -1.4016436785230515 -7.539589104097602e-05 0.0034108214636675337 0.44653884006681877 -0.3681997796981688
107893000.0 0.5187177983672392 -0.850283521833773 -0.7400488085039549 -1.4407166575495947 0.001598895195916851 0.0021241197786551523 0.4275709687966771 -0.3796455569663248
108892000.0 0.509543827452897 -0.8529111946296943 -0.7983454530022345 -1.4764155039576958 -0.00358300832606931 -0.0022612367991694292 0.4227995927653167 -0.37361509586134556
109891000.0 0.4966282390230195 -0.8611827928853981 -0.8590653646513204 -1.5131004207442722 0.0010290533568299658 -0.0031499195365542244 0.4313982921285275 -0.38437877040959173
110890000.0 0.4861301687131394 -0.8606571295329717 -0.914750796263064 -1.5143630838527762 -0.003910981174426657 -0.0020945968255204356 0.4248114022599454 -0.38632014391944264
111889000.0 0.47860817567112657 -0.8664806609277302 -0.9774724026720948 -1.58253109865634 -0.0001406647318258914 -0.0021987190167859897 0.4206424216305845 -0.40387178553317826
