! Created with skrf 1.9.0 (http://scikit-rf.org).
# Hz S RI R 50.0 
!freq ReS11 ImS11 ReS21 ImS21 ReS12 ImS12 ReS22 ImS22
1000000.0 0.987318105473412 0.009191334866527236 -0.003917074390756824 -0.06442292628443445 -0.016511942275162478 -0.013862011136617303 0.3055093005507441 0.3592521188775302
1999000.0 0.9957273661237701 -0.011251174779083446 0.009382634637062086 -0.025804596767649807 -0.005961169564793588 -0.0004134163529114607 0.2509860954899255 -0.052651531395886284
2998000.0 0.9980984027583282 -0.021363791134396612 0.0034280313881208378 -0.01470042172067381 0.0008748188492231482 -0.005537570271980744 0.1939151694376048 -0.12532289919238632
3997000.0 0.9973981953786925 -0.030323906199859 0.010590800430102198 -0.012630073444748733 0.0005907106902998603 -0.0017120350935090271 0.09639584103650028 -0.2395625130914805
4996000.0 0.9956547672607396 -0.03754133928687672 0.005530835386614492 0.0028911789246902245 0.002524494892665285 0.0035558461023372325 -0.04618858376331961 -0.20961150264739484
5995000.0 0.9947756321984811 -0.04775982989869458 0.00907257510901442 0.003569796668354092 -0.0006439723402152476 -0.0013357408612877338 -0.12406283505908117 -0.11241071962719221
6994000.0 0.9952883641680629 -0.06087124484443773 0.00035790641352929535 0.0028812378528895524 -0.0037534951233727035 -0.001959104403169298 -0.1597059490997321 -0.019778460097888795
7993000.0 0.994538313634283 -0.06751674173659791 0.002626836386849569 0.005663862292404636 -0.0024201267352937286 -0.0017939689298358868 -0.17800935508614685 0.03637747275518298
8992000.0 0.9941073066611951 -0.07078611548930135 0.005138244282863291 0.004779553304088437 -0.002781992751768318 -0.0013440274156089763 -0.16188794051132074 0.05730873110480705
9991000.0 0.9942924032966486 -0.08235176971276839 0.007365286607020647 0.0007008082887054668 -0.0012341375711451762 -0.00048379541832151043 -0.1397498736804984 0.0905466085686523
10990000.0 0.9911136804481173 -0.09556266750979282 0.000853979392580382 -0.0010384987145187238 -0.002548342450048801 0.0021851935626345043 -0.14406566929352566 0.11373896560110128
11989000.0 0.9904292806971923 -0.09889250299007789 0.0005590227433950206 -0.0022867333406053508 0.0004981494519332444 0.0003707715145741487 -0.1387893966893106 0.14283785260433307
12988000.0 0.9880101424304815 -0.11132066061383125 -0.0011397139323899397 0.00019895532186966038 0.0004217925887118588 -0.0004455342529231043 -0.11810712430693976 0.16357035818553764
13987000.0 0.9882909008582512 -0.11689331384123838 -0.003042511855272483 -0.00339880915876817 0.0033655362868418894 0.003797722218982124 -0.10166058482896381 0.18470149549920556
14986000.0 0.9854352014543276 -0.1273645949220924 6.993533334611504e-06 -0.003107717322784321 -0.001869819989638633 -0.0002964342464574264 -0.09585360696971508 0.19633671439783082
15985000.0 0.9896116913731277 -0.1330252804681031 -0.0019389916339151692 -0.003913744554018182 -0.002789557904620683 -0.0037463000284638525 -0.06742832321136136 0.22450422612535426
16984000.0 0.9870456089199836 -0.1438756376728837 -0.0017521393505576755 -0.0007819365140165327 -0.0033997368435699916 -0.004099829898431489 -0.06897392524394527 0.21801608524254043
17983000.0 0.9840600071739913 -0.15140871970175349 -0.00313728663442934 -0.007091132292097717 -0.005491620679449836 -0.0014643430790422442 -0.05598764510705288 0.23536688272381628
18982000.0 0.9809131648015559 -0.16184332562387524 -0.004670299028813999 -0.0031026184814860838 0.003233502369360225 -0.001144102726961967 -0.025246506196981842 0.24415125052543918
19981000.0 0.9820907369858418 -0.1678382437962392 -0.012756948489146847 -0.0049270764450791696 -0.0041865354699181555 -0.003783771147997348 -0.00989443503751088 0.24260938908973942
20980000.0 0.9796715030508102 -0.1791816000881969 -0.007338121958832779 -0.003348147357419649 0.0008287088446967423 -0.0014131364565311414 -0.00960988737553785 0.26578188053299345
21979000.0 0.9789254768633708 -0.1859724508625465 -0.006369699098450616 -0.0041377573881992424 -0.00012006989494242041 0.0008995370137241525 0.012529699378166885 0.24618027143681268
22978000.0 0.9754400086302658 -0.19758995076771205 -0.0056425406947201535 -0.0026493712431116577 0.0009400339960665827 0.0022622364612045072 0.030125016706300578 0.2622300548291425
23977000.0 0.9781316860696798 -0.20132604108630686 -0.007795553578363451 -0.003173078243672032 0.0006531990033262031 0.0024801207240732564 0.0340340314699059 0.26581296348747824
24976000.0 0.9736670270467954 -0.21265910539136332 -0.0025036336402173426 -0.007279067352070048 0.00046175250971904996 0.001355884457574892 0.06413320640592794 0.2602751952781798
25975000.0 0.9685840510276316 -0.2178546477078293 -0.0070528844680807804 -0.0036414856304679954 -0.027336686736170502 0.0017794027090514842 0.07416151900147008 0.2606534416666018
26974000.0 0.969304791881545 -0.2289786338842007 -0.005159576780016312 -0.0020992954475291237 0.0007436570422483078 0.0017733747430319117 0.08569447675719641 0.2623432471410696
27973000.0 0.96938474034832 -0.2348043156754586 -0.002633506757416584 0.0021584605277931742 -0.0010871925778867286 -1.9202097385691457e-05 0.10364934204909154 0.2564163829258779
28972000.0 0.9646374288059206 -0.24755227210975514 -0.0027285239655742742 0.0020981369648778504 0.0012536072266461644 -0.0010611644060655788 0.11172557653260519 0.2565256292175442
29971000.0 0.9636148119200787 -0.253871683982738 -0.0011972648997746822 -0.0016301886687642999 0.002016080979526434 0.0010321522351551319 0.15268636313100017 0.25912462874035797
30970000.0 0.9607899062965012 -0.2616917543996381 0.0028922984360905536 -0.0032656030950481627 -0.003111958906476776 -0.0018977474752452886 0.17870151131027026 0.2556804776052043
31969000.0 0.960449609708454 -0.26881344882813846 0.006673081843871054 -0.0027159913975376444 -0.0017932060286755737 0.002412114618611972 0.16113280291081752 0.2554606846054861
32968000.0 0.9576402505139703 -0.2779706176928422 0.0035760344036315293 -0.006593697193452524 0.0011595417854902111 0.00105758396286166 0.15655212587021272 0.25109019104400926
33967000.0 0.9551447940990205 -0.28747492007049896 0.010287154929116278 -0.007107049709320926 0.001411989865784795 0.002520644923332328 0.1889641971060619 0.247309234615413
34966000.0 0.9514422643640129 -0.2983557850735927 0.013605072649470272 -0.009697838195321468 -0.0017253663997941007 0.0024173528580994424 0.19549693941033663 0.2616952467015616
35965000.0 0.9486898769124372 -0.30582203177316153 0.015218410548797422 -0.015542391108457258 0.002860910468911075 -0.0041063866117762235 0.2111763729730081 0.2544625954398111
36964000.0 0.9450531863588205 -0.3145571183537905 0.017807766983685133 -0.014716269857024698 0.0006185230372209975 -0.0006534542007760855 0.22301398351294288 0.2577058749479507
37963000.0 0.9438389538838998 -0.3228470816227795 0.0204405680372056 -0.021580845587149008 0.0011629791145291262 -0.0028047530901968982 0.23009358771288452 0.23601257481628626
38962000.0 0.9419343034328553 -0.3311890921157601 0.021448734001478027 -0.023551787599115286 0.000758433767638055 0.002832653337940834 0.24427740330886913 0.22612019853537207
39961000.0 0.9367887234234842 -0.3424000457777407 0.028604604905317528 -0.024027864151036908 0.003184373177023466 -0.0010151424057015237 0.25973348389709466 0.23560510917142197
40960000.0 0.9336071646122328 -0.34789399348753797 0.019384870254014513 -0.021643384007243954 -0.0020289520147541407 -0.0035073955878721624 0.271751036740657 0.22960762577793029
41959000.0 0.9313065539607719 -0.35718533520808476 0.030433983089064382 -0.02832670924877338 4.66026775314875e-07 0.0007091873123514653 0.26938324756248816 0.21064902834023994
42958000.0 0.9267305935413632 -0.3661675549232517 0.03275334416647039 -0.039454661009857124 0.0033148210544278775 -0.00022181754046435688 0.2907290032814692 0.19860983498297216
43957000.0 0.9242566614774906 -0.3734414370881774 0.0287751727895277 -0.04633630112064216 -0.0005769542344935373 0.0013539337989831614 0.2902528147803952 0.20283563861673218
44956000.0 0.9207053290179339 -0.3807010130679691 0.032496837318381336 -0.052011600653629746 0.002487659852365316 -0.00022504197952998278 0.3065292019815087 0.18880470835649057
45955000.0 0.917245614503668 -0.3894708634182901 0.03247672665365221 -0.05827950976727546 0.002787055095260972 -0.0047157929260390405 0.3111009991589714 0.18922722781695467
46954000.0 0.9148755255241044 -0.39940879857859146 0.033629868850607036 -0.0663288370316484 -0.0014873598809164242 0.0018822203008256714 0.32544421155114056 0.18048336501699122
47953000.0 0.9109573583760365 -0.4060414241743733 0.033427182623168926 -0.07083045454518355 0.0034242441838212502 0.0028391334786456134 0.3410833738530624 0.17385070445934944
48952000.0 0.9052906355014747 -0.41716033030279365 0.03433009567303766 -0.07799184685542508 -0.005678501792820546 -0.0009497092121327676 0.3301527075905346 0.15796415185933474
49951000.0 0.9010326615998049 -0.42339178674411193 0.03353372892348059 -0.08735250785075677 -0.0020486531415330653 0.00022615451364653785 0.35468059706405547 0.15551060161701236
50950000.0 0.896635099426492 -0.43292962527233564 0.03566148222747762 -0.0933909254786529 0.003550638176188589 -0.002813089690108044 0.36332825111463607 0.1410922023890051
51949000.0 0.893780255355678 -0.43938641679202933 0.03477543897029803 -0.10080937483524574 0.00013967330634455076 -0.001175085956995922 0.3698758652076328 0.14236479533193952
52948000.0 0.8927964393667761 -0.4482856689210646 0.03854223612174128 -0.10940720917995277 -6.614927383316058e-05 0.002633479015160497 0.3790894773527712 0.13588122984946358
53947000.0 0.884702474302517 -0.45838914447007145 0.038994966766441014 -0.12046400144393413 -0.00037872689607854147 -0.0008751299938613198 0.3676883778439704 0.13026292505340753
54946000.0 0.8810797906980719 -0.46517209795025566 0.04213793943095538 -0.1278390974730467 0.0019170734712798214 0.0019165033400219099 0.3876871264335908 0.11789581631094873
55945000.0 0.8783965313565077 -0.4734738311214839 0.03828923091299801 -0.13986925562728614 -0.00036286008850395385 0.00249218632932911 0.3900576526714572 0.0991488270516745
56944000.0 0.8726800309884634 -0.48250666577672735 0.04461436984144947 -0.14958449882260652 -0.0009991927067573136 0.0018609846031571549 0.4031112448004437 0.10022505141668303
57943000.0 0.8676618083755693 -0.49069318441510557 0.043741241795748106 -0.15659010679850083 0.0021079626369296615 -0.00038166102091980337 0.4046138788096798 0.09038553435962929
58942000.0 0.8614202081010318 -0.49636085522246326 0.04272396201047363 -0.1708792704294105 -0.005843200733067131 0.0032022522914323514 0.41693811301249056 0.09355371842114917
59941000.0 0.8592344631545968 -0.5056292059488174 0.045785693138649525 -0.1810047155119817 -0.004524342650640719 -0.0005974635228173465 0.41396948227712743 0.09195879714006203
60940000.0 0.8523551672617188 -0.5121336384960935 0.044530440724268386 -0.1815796859341441 0.0020393668572946315 -0.0005845597075143118 0.417023683415523 0.07874389689721789
61939000.0 0.849212094115583 -0.5208578441857494 0.047886208250785156 -0.1880630297390012 -0.0003349956232330795 0.0009534558639494963 0.4198447319198036 0.06289613968621814
62938000.0 0.8427795072375486 -0.5297881941582266 0.05216627836080435 -0.2076284204634401 0.0022108289830640683 -0.003140378520647455 0.4462204053125468 0.04974647773206122
63937000.0 0.8391227303987744 -0.5361204339708622 0.05240544510302443 -0.22546842236400624 -0.00045359845425158046 -0.003881091086437624 0.4323466711163237 0.044059822446799346
64936000.0 0.8310663213746067 -0.544990307479756 0.05150600811362561 -0.2416691955208382 -0.0021050917884923577 -0.002267109927776341 0.44020182436498023 0.043798349744631905
65935000.0 0.828585839448927 -0.5551197190171836 0.047827341719088375 -0.25410695299468994 -0.000979472295438035 -0.005813301168619199 0.4355638955851732 0.017459454449976538
66934000.0 0.8242625981268651 -0.5598626037119734 0.04732296617397873 -0.2646871464690087 -0.00042162845603383137 -0.001065721646755159 0.43916390275452943 0.011293057266311541
67933000.0 0.8203902121968988 -0.5676740627415766 0.047351777472659486 -0.27752509379886664 0.0024219619281739017 -0.0019677697913567417 0.447189200844454 0.0029174620663437937
68932000.0 0.8139294601907506 -0.5606519517522375 0.04720389562012525 -0.2873913042674296 0.001523941771056798 0.0012819084308281423 0.45888240667669095 -0.0013966154868258094
69931000.0 0.8057814724998377 -0.5849990677642086 0.04537750751689171 -0.3082715104070508 -0.00010963736179414398 -0.0010208167327487435 0.46028643775730177 -0.02288433953457213
70930000.0 0.800410485500358 -0.5933941284113632 0.04611216708239979 -0.3183748785774639 0.0004177621932938557 0.001369756755672447 0.45384367397936165 -0.027228277098540008
71929000.0 0.7971970833911803 -0.5996330648009627 0.03919569306171007 -0.3390790712750821 -0.0001306311270774123 0.0017331078017137236 0.4469918421358226 -0.03623581762722953
72928000.0 0.7890345496450503 -0.6084314889142677 0.0324542547555476 -0.35559819930604547 -0.0006013005495957984 0.00029767482821493467 0.46182167505140675 -0.04890294797170121
73927000.0 0.7824313092874797 -0.6133406592813493 0.026675480938129263 -0.3685130401068918 0.0036246893541949264 0.004798025371429998 0.4507116271020097 -0.06707023037457836
74926000.0 0.7789489753352812 -0.6257284222449188 0.020494948412627417 -0.3889410675908675 -0.0006683481732624109 -0.003103965602017168 0.46502919888469624 -0.060043889841495085
75925000.0 0.7730245387651811 -0.6273169388625492 0.012728866250788498 -0.4086295342683022 0.0010140652055453054 0.004069688804933659 0.47623636402120273 -0.07447304726452722
76924000.0 0.7666536120352817 -0.635915308960443 -0.003273835445746716 -0.4295904395674142 -0.0008580510470186068 -0.00022389686291521057 0.4613405529250276 -0.08672298193575767
77923000.0 0.7593795581832297 -0.6434191434970231 -0.01644806335413164 -0.4522704428997527 -0.00011072307795849729 0.0020781287548604028 0.4612863066753941 -0.09323940792805524
78922000.0 0.7530686844200644 -0.6522779913287229 -0.028701879525744774 -0.4785974988284515 -0.0004885748756585956 0.004634430412644652 0.46268099775212246 -0.10832325195035669
79921000.0 0.7447237344281556 -0.6572804423352197 -0.05221293091207744 -0.5017306466075803 -0.00048242350628183156 0.0005702246288023199 0.46388532945499045 -0.11644152544704563
80920000.0 0.7396922279736275 -0.6674306666047127 -0.06245825122854667 -0.5285957348990548 -0.0029930247666250837 -0.0011400711342477122 0.46636860867711216 -0.12622306716909787
81919000.0 0.7356491123382838 -0.6727809866040324 -0.08081163784644983 -0.5562552459622957 -0.0005977102474271016 0.0029847251048859815 0.4629990703762486 -0.13369489588136732
82918000.0 0.7246244654906274 -0.6821529644972765 -0.09712140849638544 -0.5888266102314655 -0.003914769442644046 0.004697472076068193 0.469223296266846 -0.14164757297770986
83917000.0 0.7176523246610685 -0.6886132682925623 -0.11827679144978856 -0.6100996070055636 0.0011057763850088273 0.005297968882728249 0.47436496666586225 -0.15263064240215787
84916000.0 0.7127951299149747 -0.6960618079843874 -0.1315299247341214 -0.6489130714328664 -0.005779466610359833 6.029663947375778e-05 0.46036370712188585 -0.1654040550107356
85915000.0 0.7065689991332358 -0.6996551649447444 -0.15000103519529148 -0.678979245051232 -3.930649385253588e-05 0.004997491200866892 0.46957612099111395 -0.1728598618677532
86914000.0 0.6988963711305025 -0.7122918076382846 -0.1664089997592573 -0.7126791154180987 -0.002072000916575629 0.00395570959654646 0.4691783020888798 -0.17436053476344887
87913000.0 0.6920248112459123 -0.7171565528007532 -0.1857145013823198 -0.7391574632149204 0.002882781991539588 0.002395017552034859 0.4590930948461819 -0.17752778377638423
88912000.0 0.6825703747337315 -0.725130128032792 -0.20450718849131755 -0.7700123098550937 -0.0001287723215108767 -0.0016660866365509625 0.4607233100922567 -0.2046000280245199
89911000.0 0.6745945216167234 -0.7330392302992413 -0.216936973100024 -0.8086706089200963 -0.0018096257209204848 -0.0007806888198405404 0.46651740889947885 -0.20930985074457545
90910000.0 0.6680139453465621 -0.7395747063140549 -0.23247196459838398 -0.839020919303427 -0.002279115309629402 0.003476792565729638 0.4550000638126923 -0.21619289391755211
91909000.0 0.6604060982201526 -0.7444050146141105 -0.24632983043977977 -0.8695989697213938 -0.003940504297141431 -0.0008219073435217113 0.4736015714469931 -0.22047222702857316
92908000.0 0.6498977759274766 -0.7540120731132357 -0.2688155495600512 -0.8992737782514999 -0.0032808895126028637 -0.0019199954204613475 0.4573226168531655 -0.23939917344170755
93907000.0 0.6476257238700824 -0.7577375283742726 -0.28087267995222803 -0.9333928011407917 0.00023495580790013616 -0.003483851636977384 0.4567873895763895 -0.24540721866519688
94906000.0 0.6339322401938549 -0.767750935863839 -0.2987985436204608 -0.9637650458645466 0.001389404383688021 -0.005028645246487817 0.45423999292250733 -0.2609200370127992
95905000.0 0.6275073237563672 -0.7722596667735028 -0.31998183898232874 -0.9954797814016552 0.004129262066754105 -0.0003154376620294741 0.4635133571144513 -0.26889546698576217
96904000.0 0.6202612951963032 -0.7812981189145437 -0.33653790243687637 -1.0368378942271483 0.001044803009645842 0.0030811920371075522 0.45655982467284945 -0.27120195700012373
97903000.0 0.6083684358832926 -0.7867002567038581 -0.3633211042018084 -1.0627613827395963 0.0005898258321091062 0.002290606915846933 0.45133274725700656 -0.29255036403744733
98902000.0 0.6041875209814375 -0.7911369992076627 -0.3793884450086618 -1.0973575911793336 -0.0014035636479956212 -0.0019634401788761542 0.4424663606832314 -0.2975844196353978
99901000.0 0.5954948010753819 -0.7987644900602376 -0.4063209203454663 -1.1249346218272478 -0.0017392034593881626 -0.0017257278348141248 0.45160695151804386 -0.3136966648923434
100900000.0 0.5893683178843786 -0.8022918151066595 -0.4329302031603913 -1.1546383724558535 0.0009810311151716232 -0.0015587438787902654 0.45219940254893565 -0.31673262861660734
101899000.0 0.5769898777114969 -0.811183038905198 -0.46344086596533124 -1.1937196312104883 -9.182471770527239e-05 -0.002447268073657512 0.45203052734431076 -0.31030837950952006
102898000.0 0.5668821682130107 -0.8165383783277524 -0.49588243103726093 -1.2247733768385791 0.0005734117423931086 -0.00043670964058822805 0.4585158353505048 -0.3344862799545428
103897000.0 0.5580956998857857 -0.822919991084185 -0.5317103864057521 -1.2572223425668372 0.0005895379398845857 -0.0006155030775598434 0.4552053903001048 -0.3364135644511518
104896000.0 0.5516222775440871 -0.8349031893064454 -0.5737115966000239 -1.2908409573881094 -0.0017130287741415414 -0.0004727100711462869 0.435780544013447 -0.331044153848613
105895000.0 0.5387890534372411 -0.8348671754843411 -0.6199891658710522 -1.3212190888730442 0.0010824018610966328 0.00024255528988365813 0.43415187173772424 -0.3584749930854741
106894000.0 0.530612496211935 -0.8434092605353225 -0.6707549637071338 -1.3568091229344832 -0.0008513893522526544 0.00016884136716991348 0.43825912638903247 -0.372554200602707
107893000.0 0.5218552235306089 -0.8493176743591401 -0.7166308121119019 -1.3919702979934003 0.0014601773395128048 -0.003074138809190845 0.4289663553142292 -0.3759225747656376
108892000.0 0.5146500902500863 -0.8509089715537014 -0.7792494248665354 -1.4320973871944513 0.001519988722515768 -0.0009784695573316952 0.4322554152168286 -0.36017779528550503
109891000.0 0.5027414153972031 -0.8597010092918449 -0.8339066826269869 -1.4654372146120944 0.0009718150867056774 0.0011111696047103865 0.4455723833808612 -0.371307840749827
110890000.0 0.49674244803980094 -0.8627522544678893 -0.8855395769097204 -1.4811577429587144 0.0010061791387423267 -0.0006857476531624075 0.4260911806234643 -0.377457862873331
111889000.0 0.48158770000784673 -0.8660963840394165 -0.9550162450671874 -1.528530302499028 0.003928570992208359 0.0005593654689628517 0.42972936055575656 -0.4078026336566999
