! Created with skrf 1.9.0 (http://scikit-rf.org).
# Hz S RI R 50.0 
!freq ReS11 ImS11 ReS21 ImS21 ReS12 ImS12 ReS22 ImS22
1000000.0 0.9784544478351438 -0.00035015704606006465 -0.018410735245745075 -0.045579205562746264 -0.013526568320248872 -0.0013457454273522783 0.3908009785157137 0.3259530357231861
1999000.0 0.9897633622697539 -0.015905775023925203 0.0035004915958823206 -0.029537566971388436 -0.005353999886064176 -0.006893219899301399 0.24295307820005166 -0.03298149571440904
2998000.0 0.9968104088860978 -0.02422851944177535 0.010689078168283917 -0.011805285077977411 0.001611309609372763 0.0036101512044293925 0.19584511856132383 -0.11068869616045264
3997000.0 0.9928858851339037 -0.03117505604846088 0.016528405245161255 -0.006060956856151181 -0.0018305822273146433 0.003305188672911088 0.09116222411252063 -0.19985688440758942
4996000.0 0.9943344774465458 -0.04093765196484614 0.011221949446007237 -0.0035610082993666097 0.0005509840293159473 -0.00013428903950718903 -0.036193041708897776 -0.189857850860237
5995000.0 0.9909355379660141 -0.05014892649066681 0.005992740100806306 0.0006063218159929786 -0.0007696503532984042 0.0016891578775436122 -0.12560231262100482 -0.11363695322497597
6994000.0 0.9897523967246965 -0.058653615173823705 0.009320171468492953 0.007486260040500191 0.0017256255336871196 0.0034597467657022304 -0.1602951954142446 -0.01958012507618709
7993000.0 0.9899703456709859 -0.06852869347768599 -0.0012891198498596315 0.005640070825902622 -0.0012155742650616756 -0.0013613993297044655 -0.16766642677181903 0.02518148573417067
8992000.0 0.9893038426485372 -0.07348176522157376 0.0006914606972330971 0.0038434211122875825 -0.0014628104675928801 -0.0004990597573204029 -0.16649097980944444 0.07178624786114096
9991000.0 0.9873866402198784 -0.08248852265612795 0.0026636219326616147 0.0012837576877448495 -0.0005212507959643923 0.0019626468431703363 -0.14904365241345452 0.09025553568627993
10990000.0 0.9892429549746034 -0.09429428420702264 0.0034388744118466798 0.004872448278796416 0.000742840802014761 0.0038072465882712492 -0.13239116090246236 0.11476623325219974
11989000.0 0.9870034258360899 -0.1001221445926036 0.0034556184523672462 0.0009076803418930031 0.0018576470825020749 0.0010899069675304994 -0.13528164642748242 0.12948152967844348
12988000.0 0.9845788990939833 -0.11007280919409494 0.0047805264771644315 -0.005519975749913204 -0.0016064504303120839 -0.0025994411696074454 -0.12462081777951897 0.16938743454271907
13987000.0 0.9831277683833699 -0.11826562031095494 -0.0010224074977180078 -0.003001294425595397 0.0013600890149822853 0.0007110964602397606 -0.10999063325905385 0.18576985703087656
14986000.0 0.9830456333976477 -0.12569333147712186 -0.0039963698567693174 -0.0007600501384741547 0.002171474184584247 -0.0019047399560528414 -0.09504917733374398 0.20085984860441497
15985000.0 0.9846098468440493 -0.13264105227167697 0.00040041202007577237 -0.0070379416191550526 -0.005198355591957701 -0.0005511428427241853 -0.06940946692157103 0.21892046907839235
16984000.0 0.9827023392421301 -0.14627252284022893 -0.003858228332681695 -0.0016048819918586617 -0.005824424041497555 -0.002814985945919675 -0.0615253971732303 0.22272023915368863
17983000.0 0.9797965157120672 -0.1493363342274511 -0.0039522268790867605 -0.003723683996987946 -0.001074315928598666 -0.0002332667877521055 -0.05054025851100757 0.23121355498413265
18982000.0 0.9786831538050189 -0.1613453738638373 -0.0032012697613302836 -0.0015857913972816067 0.004768909365111462 0.002230145108496798 -0.03349608808148683 0.24119842973493272
19981000.0 0.9795858242355616 -0.16626665443718788 -0.0073133454405594185 -0.00656446264079161 0.0006243407746563852 0.00038990145745619473 -0.013598400889932916 0.2422394483300339
20980000.0 0.9786577123812596 -0.1784200290289172 -0.005452524405399967 -0.007960505722365743 0.0011561870206516604 0.003480238994534231 -0.006709348474777397 0.2540930127145058
21979000.0 0.9739269450399063 -0.1839832126641868 -0.0042985874876863605 -0.008658263508210308 -0.0023848092707253253 -0.0032393718939421794 0.02113977411179992 0.24259604432748294
22978000.0 0.9726512961840164 -0.1965860798137876 -0.009529132675061329 -0.003236515801842857 0.0014573289712090274 -0.0005043461889177295 0.031154160547386317 0.2579362071182479
23977000.0 0.975252527724906 -0.20005790535787737 -0.010066282058033938 -0.0031303305640465566 0.005304619879495171 0.003818949733089536 0.029252857037823852 0.24857999002205436
24976000.0 0.9700276936894621 -0.21191181046016047 -0.006064752599432635 -0.003066598831307265 -0.001226328262991075 0.001740873965394765 0.0622973536484631 0.26064847139971553
25975000.0 0.964996846750645 -0.22427123663615947 -0.0031441688555273154 -0.0006128726909465395 0.009341984733152925 -0.025347862960573966 0.07013272591275536 0.26554559614171036
26974000.0 0.9666672967495626 -0.2269747318335082 -0.00420718184473123 -0.003952364951957742 -0.0010609667249338944 0.003231594649825848 0.07639224508321747 0.2647025712590371
27973000.0 0.9662300690979405 -0.2351300123165674 -0.0019191560517793603 0.0012203707121275316 0.0016771716577386056 0.0023559051886861532 0.09721876983839992 0.2593311647432839
28972000.0 0.9645759987832937 -0.2427067806638521 0.0017669846062538963 -0.004344826788925165 0.0003137732407126272 -0.0005554248387295041 0.11295873750709717 0.2628945496920823
29971000.0 0.9606661463181588 -0.2553726264093667 0.0012280847717183996 -0.0015582505489084117 -0.0031438107161399827 -0.0015847034701745963 0.15673518753980453 0.2668694007128999
30970000.0 0.9598896247606286 -0.2587039509997862 0.0014118804789854267 -0.002552178947166496 0.003682596549621601 0.0009475829407239668 0.17525612648461977 0.2533616165910041
31969000.0 0.9581237174947304 -0.26759323761275844 0.002958768726285379 -0.002617706241837612 0.00043739440145916975 -0.0022104165001755154 0.1569741072932437 0.24836246928328207
32968000.0 0.9556778686082954 -0.2770100901001726 0.011591715837290533 -0.007942016148334617 -0.00016759426814128359 0.0007377698170528444 0.16699815879086174 0.25747848332134887
33967000.0 0.9520268916078874 -0.28847718603110334 0.011275506745768998 -0.011012100310391194 -0.0012876657890585881 -0.0006980903269807737 0.18000624957300373 0.2517364224355735
34966000.0 0.9499707658243438 -0.29727746135237 0.01688125541336049 -0.01353020596180587 -0.0012909366476632192 -1.8176840510367313e-05 0.18877009007076323 0.25519173572958026
35965000.0 0.9470021999952941 -0.30545346071713286 0.015615080564244373 -0.014629691010481305 0.0004179041264233478 -0.0003927661779358535 0.2042738377564073 0.25518099963216107
36964000.0 0.9447273185607472 -0.31315609188074334 0.01859207088272098 -0.01569026413008649 0.001009930307383899 -0.0007833752099648441 0.21099008305399777 0.2553470009043911
37963000.0 0.9424574994554794 -0.3209918132696301 0.023397882114721293 -0.02088160638134924 -0.004048992702792081 -0.0029119958225822507 0.22076099027326404 0.22622463948599372
38962000.0 0.938425324255122 -0.33000053411118746 0.026297052476102978 -0.02806200104623842 -0.002264928960845337 0.0004670981580182722 0.23861816957635704 0.24113897793187422
39961000.0 0.9355810098225951 -0.3398265188479753 0.02636560860411144 -0.02866920766161501 -0.0009479333185619877 -0.00031468465458782196 0.24406384905432396 0.22598169252793057
40960000.0 0.9330708916766371 -0.34615886342366736 0.024299203249554084 -0.02715910257955627 0.0009761119882905304 -0.001969011980110712 0.263376049269831 0.23502290581348778
41959000.0 0.9301359783338952 -0.35610215576692 0.0327473991663975 -0.03426137730209672 -0.002037089961510548 -0.00393653928054998 0.2693936938829908 0.21794750961201065
42958000.0 0.9247816725352591 -0.36569477917094867 0.03424784570774584 -0.042445011770742086 -0.001923497758570533 -0.0010927892733414506 0.2766366592357677 0.20768667062638785
43957000.0 0.9225101208176805 -0.3741371099449353 0.03294929578771716 -0.047323197871060284 -0.0013744436949510671 0.0014303379260193227 0.29189641519741105 0.20594532070163823
44956000.0 0.9185440429361551 -0.381464389431704 0.03513455297934337 -0.05404741002140356 -0.001753765689209636 -0.00612348211449589 0.29709314775164203 0.19811461794633178
45955000.0 0.9141537645733188 -0.39119109712572614 0.03842201485566306 -0.06118090399161496 -0.0015649943881235035 0.0005592960254980729 0.3065129535129757 0.19903678678513773
46954000.0 0.9104493808151755 -0.3989884843917975 0.03922207021896695 -0.0683507174597928 0.0016820694743723311 -5.174897906036284e-05 0.3260118512684268 0.17832620133489402
47953000.0 0.9094564842977688 -0.4057804682371272 0.03882066482853358 -0.07456055083756193 0.0009291612075973077 -0.002711584508897392 0.33460085027071257 0.17494304689845833
48952000.0 0.9024143892398471 -0.41890628375076194 0.04056358210242154 -0.08110390356838632 -0.002354353709855495 -0.004144940201002864 0.3279133319932202 0.1729818509818419
49951000.0 0.9006588326604829 -0.42061511446886496 0.04174157814742096 -0.08864443845534106 0.00039023538861132005 0.0029954077991771627 0.35144152127867256 0.15145860703945602
50950000.0 0.8961798248720335 -0.4333210496967941 0.043631392909796445 -0.1000738072796322 -0.00015684681567222904 0.0024588081027736124 0.3523224765016178 0.14244757066642783
51949000.0 0.8925990082682616 -0.4391505835491008 0.04125880754347371 -0.10722338313227482 -0.001042902575365888 0.00021232086316751492 0.3545605244268711 0.14381330690218536
52948000.0 0.8897229399812465 -0.44683920235485985 0.04493188115420463 -0.1163739488886771 0.00020326856482095392 0.00016524447332552352 0.3725210638426344 0.1418473596636607
53947000.0 0.883557768868407 -0.45803847301540357 0.04592347699440463 -0.12335791383220773 0.0027589508226482855 0.0005654640599342721 0.365011558858475 0.12638294449689802
54946000.0 0.8773104969141617 -0.4661464887191865 0.049334560935814474 -0.13380953885755084 0.001590593915651601 0.0011047362004080919 0.3868854976444318 0.11604841048536749
55945000.0 0.8740304386284256 -0.47429578445944653 0.04873470153164038 -0.145945208770216 0.0007185853634332089 -0.0008692159752774699 0.38086586284500135 0.10198894578621062
56944000.0 0.8702037338282241 -0.48256394905692807 0.04857042058109356 -0.1563291244931209 0.0021824978176373092 0.0033539425001195802 0.38883045231133584 0.10899608131305444
57943000.0 0.865915788830222 -0.4921343262357691 0.052423963920085706 -0.16541801452125932 0.0008359612699740525 -0.002784344000871187 0.4007981287702096 0.09677949787815854
58942000.0 0.8586178489517633 -0.4979651719612999 0.0561146040847727 -0.17858396908205176 -0.0016512723673946044 0.0011072663250903181 0.41563113194788065 0.09773272114150618
59941000.0 0.8579226753383249 -0.5044931070424363 0.057012545489854446 -0.18851062464574056 -0.0006642299813554507 0.0017818310616533033 0.41453201939467904 0.08568286772750673
60940000.0 0.8490424350114356 -0.5123485571735829 0.054844039838854074 -0.19207130021144278 -0.00059183187092777 -0.0009609797781452717 0.4023058485073516 0.08024103069745481
61939000.0 0.8463054553191799 -0.5202140275136722 0.05729259149282263 -0.20223824940410395 -2.4167967434272802e-05 -0.0004173749196199814 0.40477315060605995 0.07198071246996605
62938000.0 0.8396868319170666 -0.5315199150832262 0.0580709226042397 -0.2186309131195824 0.0008414920893724498 0.001586100565481139 0.4343875698904592 0.04839410957442543
63937000.0 0.8365655384693768 -0.536960265761296 0.058050993509788755 -0.24454265069825032 -0.002974445158149443 -0.0034604157368243104 0.43075940652856703 0.03864034864499404
64936000.0 0.8284507102852322 -0.5457196500804183 0.05934401625207338 -0.25679786900074475 0.0005142617662619828 -0.0026921018193987586 0.43415570171120926 0.04930272119880882
65935000.0 0.8256495779680769 -0.5549485071131702 0.05839045363176156 -0.2696085513487417 -0.0018595350983956272 -0.001676085022555469 0.43727312934784857 0.03294946276205083
66934000.0 0.8207745454627197 -0.5603569776717927 0.05928864973162631 -0.2821073120941755 0.0006911545039352033 0.0013021068451129817 0.42316968935890165 0.017721498125922813
67933000.0 0.8179902267388474 -0.5677883684769608 0.05960469600904488 -0.2987212498650194 -0.00172794661923394 -0.0028985910538187336 0.4461862970007143 0.005565888489753002
68932000.0 0.8076568653325583 -0.5765760466635653 0.05156278484273885 -0.31207952555582913 0.0038074784992858397 0.0011655682457930336 0.4508500910847347 -0.009155021036371239
69931000.0 0.803497307445662 -0.5836045499244942 0.05618404425333116 -0.3298604726334753 -0.0007324212388127313 0.0014946162971987238 0.4498309707761098 -0.012802998081411984
70930000.0 0.7975424216708346 -0.5895192464944811 0.050592007752072676 -0.3430688866039942 -0.0031459078459636037 -0.0010726061139582593 0.44199839478784336 -0.02335091945641001
71929000.0 0.7931778061023375 -0.6002208871171368 0.045938976029896744 -0.3626242243648576 -0.000695899613250302 0.0012181710837062586 0.44492035492281745 -0.040170136045501785
72928000.0 0.787069270959702 -0.6081070005648374 0.041990933525565995 -0.3818835064870064 -0.001824559578530956 -0.0019081410192359843 0.4619539927040933 -0.038930954650464616
73927000.0 0.7806871848965329 -0.6145240814836526 0.036527058824954245 -0.4041036879282271 0.002398163571349983 -0.0031632611254131223 0.4512777435689657 -0.05675917740236251
74926000.0 0.7761686758905184 -0.6236067283467678 0.02874424658272378 -0.4227647194711309 -0.0036769843176411095 0.0003245990194399051 0.46114244722860437 -0.058211878224756014
75925000.0 0.7699241848355272 -0.6286572546875994 0.017723571025287568 -0.4436300831493639 0.0030018369067675156 -0.0035010988824751054 0.4588872292192646 -0.06975703924670314
76924000.0 0.7630517864986274 -0.6359434124033781 0.003051300165437662 -0.46715171285240986 0.0019791638934626883 -0.000969870275714032 0.462477077590535 -0.08667710509308806
77923000.0 0.754451943831766 -0.6432413042346318 -0.008589615256561312 -0.4912493558212003 0.00014072649911051402 0.0045670747236375596 0.4608295837757684 -0.08865704421562937
78922000.0 0.7494149054392629 -0.6529537843143728 -0.028105840832779668 -0.523000817990835 -0.0007163609235002084 -0.00022459534211538944 0.4570150567479192 -0.10296779785785544
79921000.0 0.7410180815747665 -0.6562364624838006 -0.04091376537971044 -0.545498379671016 0.005328146972267453 -0.0044263818733946995 0.45442096819943906 -0.10190455726160826
80920000.0 0.7345974847195531 -0.668473984473372 -0.05560574653204791 -0.5765966714460061 -0.0005838820792652259 0.0003424807857353701 0.459898940815665 -0.12484916405659051
81919000.0 0.7316063020385769 -0.6726998516511198 -0.07177683945475256 -0.605434316704039 -0.0028028424553301736 -0.0012389302656318978 0.4652271946782338 -0.12802948935624464
82918000.0 0.7194370829876723 -0.6811638255949806 -0.08808695718859177 -0.6404396828252097 -0.007678174853392683 -0.002192270456679157 0.4625145081965726 -0.13818291027722127
83917000.0 0.7119121986682351 -0.6884032907070966 -0.10674076215867474 -0.6675751097627781 -0.001826680975328574 -0.0011547677731897658 0.472781683408257 -0.1550976947174092
84916000.0 0.7080817100508184 -0.6970303673187479 -0.12463222887540992 -0.7052847456393393 0.0009122629207700989 -0.0005518147428159277 0.4606213639761192 -0.16791877784744477
85915000.0 0.701728031073068 -0.7028568414181621 -0.14571892341588802 -0.7366354010339949 -0.0016318691209056722 -0.0005513341321363556 0.45546002717338363 -0.1737520867996143
86914000.0 0.692616811058819 -0.7123480331317779 -0.15491139401446097 -0.773080767449622 0.0009674288820069209 -0.0008578148736480612 0.4676524573748071 -0.16995830715591467
87913000.0 0.686273944817575 -0.7180741367606301 -0.1765773043364369 -0.8005792416908382 -0.001663293970720021 0.0007996330201926543 0.460821928443623 -0.1793893152406251
88912000.0 0.6797937321736024 -0.725112546983904 -0.20057282302732904 -0.8322918700124662 -0.0007807050634806365 -0.002299414875561976 0.46171734035067363 -0.20500369353623907
89911000.0 0.6708283670640889 -0.7341757802918373 -0.21136455479655705 -0.8738902296430904 -0.0018008419153966223 0.00030416891947670246 0.4656941990492711 -0.199735016514025
90910000.0 0.6655284786241502 -0.7377744771142628 -0.23319787649009727 -0.9052888590927811 -3.2116910785245836e-05 0.0011614474515266081 0.45554690706468376 -0.2011644945530904
91909000.0 0.6548693999723776 -0.7439997523372022 -0.247857081088056 -0.9446825550477308 -0.001066624262298296 0.002028340567464107 0.4666953579602665 -0.21385152100309845
92908000.0 0.6483326646395785 -0.7523620453387744 -0.2698815420004121 -0.9769709696364984 2.6442727758585944e-05 -0.0015097136149060473 0.4534790241640586 -0.22436030499224488
93907000.0 0.6418778917979999 -0.7578193297870905 -0.2852558898967915 -1.0113762549280014 0.002586374133901924 0.005015844631134728 0.46535274410035743 -0.24350835930264736
94906000.0 0.629490880818953 -0.765619239848228 -0.30751340793277876 -1.043526265765059 -0.003034066830727599 0.0007887864245653473 0.4542520551425128 -0.24818157998288978
95905000.0 0.6230017514579467 -0.7710707953491241 -0.33292587319021855 -1.0786517624314766 0.0015344385739914368 0.00019905309620331423 0.45743109199358056 -0.26841337467153237
96904000.0 0.6146055419572161 -0.7798715635182993 -0.3463847567608688 -1.123562028295596 0.002007714435674091 -0.0023307649940064457 0.4499687961499771 -0.26859615520208097
97903000.0 0.6069439259072567 -0.7848171509372655 -0.37904958111437687 -1.1511751448923904 -0.0010386157042605122 0.0018842324199664009 0.4399352733206264 -0.2786818363264921
98902000.0 0.6013192348632745 -0.7906015557051771 -0.3954771912099654 -1.196610691114147 0.0022119074646215543 0.0003596670796617986 0.4515387203729895 -0.2928332577080738
99901000.0 0.5893937349971209 -0.7975547687250976 -0.42695519255867903 -1.225304889432904 0.0007003776992762472 0.0009254129005414343 0.4614447922307676 -0.3090575464296313
100900000.0 0.582195146565129 -0.8016892055940431 -0.4609672437992015 -1.2543339087261285 -0.00023525524350156987 -0.0018477550583413421 0.4608638682274817 -0.3076086032711089
101899000.0 0.5722061099133915 -0.812349654374755 -0.49543220195876736 -1.2949106012738052 0.005192828256723468 4.1333006560610056e-06 0.4543245790595386 -0.3196318968569517
102898000.0 0.5627190137259908 -0.8163427007429221 -0.5357521562065322 -1.336724650234315 -0.002681854855597399 0.0025151462426086994 0.4561731121046966 -0.3374389622594225
103897000.0 0.5561356448544237 -0.8235455382638864 -0.5735451097055068 -1.3749983185654804 -0.0007156260153957939 -0.0006242634436980424 0.46232945513721974 -0.3257339260585571
104896000.0 0.5476569961827269 -0.8330936568460432 -0.618600582834296 -1.4116280499926563 0.004306209262018128 -0.002220281199355002 0.4321168308885889 -0.33563679395412344
105895000.0 0.5380761324605561 -0.8330646748099994 -0.6681880524714929 -1.4539013176396647 -0.0008832292191786532 0.002848135219088635 0.4406132749539997 -0.3465206850136238
106894000.0 0.53014622592704 -0.8392280583133026 -0.7189706200393547 -1.4948365143952116 0.0032334737997012524 -0.00010015819584310349 0.42862380555805546 -0.361401266437917
107893000.0 0.5212882862880182 -0.8456441562684042 -0.776861574221742 -1.535886854718705 -0.0003979246272722532 -0.0021266432624517067 0.42460407622361646 -0.36745389569888803
108892000.0 0.5091443038330232 -0.8518050183882377 -0.8418467184046453 -1.5732554953062552 0.0016249492184347478 0.0027157951825585638 0.42664002290869585 -0.3709639402050656
109891000.0 0.4988014200139224 -0.8561262857529224 -0.8970260167064883 -1.6095352411959458 -0.0012436747460988003 0.0018807930081370158 0.43732593784730345 -0.37015076639523053
110890000.0 0.4916428289554312 -0.861306998022018 -0.9620625612925893 -1.6213839051437333 -0.0033205599613889826 0.002379147802159504 0.43563262610036374 -0.37323692231329514
111889000.0 0.4761323920379308 -0.8647201606006641 -1.0324163566450713 -1.6809858787425065 -0.0011462200258755592 0.0002724432611716286 0.4201756916161492 -0.39332894018224834
