! Created with skrf 1.9.0 (http://scikit-rf.org).
# Hz S RI R 50.0 
!freq ReS11 ImS11 ReS21 ImS21 ReS12 ImS12 ReS22 ImS22
1000000.0 0.9799875372651515 0.011021609278996848 -0.010780986105070025 -0.03819256656382609 -0.010842782319721484 0.009150653715485861 0.38400402876130163 0.32364698389462776
1999000.0 0.9918220422594015 -0.016861020385193593 0.0021518621193018415 -0.021149031150412397 -0.001993364336867777 -0.009102995358930142 0.2721962198417771 -0.03696856126842027
2998000.0 0.9955916896541342 -0.02620504932863314 0.009164750328691821 -0.011805616505932386 -0.003520913799727623 -0.0017648640146729693 0.19073696617631844 -0.12712438802941767
3997000.0 0.9959296302323256 -0.034160579624960066 0.015998111426376943 -0.011002814974324865 -0.0018614802162533809 -0.0029918286189882714 0.09588884212227229 -0.22067819758519402
4996000.0 0.9923207760868971 -0.03912778483045506 0.01357856879564679 -0.0020714160937598384 -7.693649245426656e-05 -0.0019002610885345318 -0.02273409068242346 -0.20418413220875747
5995000.0 0.9935053585268456 -0.05202413559237438 0.007562942115421373 0.007564920549932146 0.0016130914864739157 0.001699980238580841 -0.12512107515347157 -0.10112620670449038
6994000.0 0.9917727597925028 -0.059089564212409906 0.0051828932282793295 0.010388428762534603 0.002165656835555625 -0.0029486056049446824 -0.1383028301556478 -0.029528086898714542
7993000.0 0.9924071220236734 -0.07055156693071825 0.007282003710456363 0.0067663425953686206 -0.0020659199038402837 0.0013512136749665293 -0.15872825346202052 0.042896434921058144
8992000.0 0.9918664549978811 -0.07287847511972419 0.003515017028173992 0.006145597120528394 0.00273714607444841 0.0007450330561744621 -0.16278163503661947 0.06651127197434147
9991000.0 0.9883518906335862 -0.08371574879618403 0.0013290556955094463 0.00037083560462137653 -0.0007852339847325158 0.0024632104181823555 -0.14761865436880162 0.08093024114225959
10990000.0 0.9872664104232961 -0.09596487561029789 0.0015601003419969683 0.0005821018750544809 0.001918892420280841 0.00292512207155338 -0.1470744465804758 0.11717669351900473
11989000.0 0.9876401002800497 -0.10099158674272544 0.0012715614531469408 -0.004043409910430903 0.004740093743810603 0.002304189983310313 -0.12239457440666625 0.14631503067289783
12988000.0 0.985098921235133 -0.11023438571687626 0.0019701297282384844 -0.005478534672146464 -0.00034315310505105034 -0.00014957635233827182 -0.12193637571482654 0.1757648988351561
13987000.0 0.9841472000483718 -0.11883977976649987 0.001735553154940646 -0.004476355949528095 -0.0002955028640242039 0.001794958803992307 -0.10080924390482461 0.18222990433542344
14986000.0 0.9837648623137454 -0.12636439836369046 -0.0009764260456765779 -0.0028720126053735215 0.0007372084998465647 -5.714076490346388e-06 -0.0957086815661155 0.21050290848224854
15985000.0 0.9844747009083735 -0.13442452096388052 -0.003942146124338322 -0.006095473175821902 0.0026904738735685175 -0.0006745851338780117 -0.06830388993127824 0.22847316866953069
16984000.0 0.9801741205340085 -0.14465214289592465 -0.00436736544857766 -0.0021084054044395845 0.0020542680386437706 -0.00396373165895557 -0.06803236809551137 0.22551317782408378
17983000.0 0.9831082337473552 -0.14920396861731122 -0.005723592396398927 -0.007595987328918104 -0.0019269601788275493 0.002799757526021298 -0.05289883831694528 0.22985662377768815
18982000.0 0.9776082151090915 -0.16188911350741436 0.0014955670894100479 -0.0010407801026026378 0.003165953890554135 8.53061216960672e-05 -0.023298706710800345 0.2376402342905008
19981000.0 0.9783445612259176 -0.1663103710346011 -0.004367419840729626 -0.005653057174290846 -0.0014874007139503973 0.003280169289097721 -0.019132290389264034 0.24636967074676802
20980000.0 0.9766689436087622 -0.17740096486531484 -0.0029940828921501154 -0.004445243556818231 0.0003809552781863551 -0.005491685279560997 -0.007213135926420405 0.2627211087708306
21979000.0 0.9752182842224476 -0.18764923818450624 -0.002698237424517652 -0.007105010569466618 -0.0013664707457448175 -0.0025587172821598726 0.009676258929493326 0.2494510690178124
22978000.0 0.9730711391341783 -0.19287266401466152 -0.005653649954822442 -2.502790682451482e-06 0.0011265579399707222 0.004772500618374913 0.018376325299254506 0.26358102380806164
23977000.0 0.9734549741942775 -0.20215838418531767 -0.008062319313024322 -0.002674421600970016 -0.0021501867549758263 -0.0020796035577307814 0.04013357089125546 0.2605069412619875
24976000.0 0.9690941461011262 -0.21162625503592156 -0.00641542655744727 0.0017978044095507898 0.001634183384585082 -0.0020762815304399464 0.06467800503400094 0.25890496898488013
25975000.0 0.9725969770136277 -0.21981612216112129 -0.00508902246741869 -0.0019356249196080808 0.004786714045849099 0.02446112452093875 0.08030724052298018 0.25757071838676504
26974000.0 0.9651903053428661 -0.2304479393402006 0.00029786581856240934 0.0024884424384206973 0.0013112709610606005 2.8960860117907745e-05 0.07915772711127388 0.28463572015835803
27973000.0 0.9654015827753708 -0.23559378749196472 -0.0013720787401934763 0.0001329097872622001 -0.0011236535369823768 -0.00033615394458937244 0.09598932786340786 0.2644741461189188
28972000.0 0.9609977056024589 -0.24449927554863987 0.0003049799606078803 -0.0022698752518946095 -0.0001617461660941377 -0.0024758950183121353 0.118099547673291 0.26576007998073015
29971000.0 0.9603363531641604 -0.25552758922934543 0.001554153815853193 -0.0004935249364368123 -0.0014746786968219251 -0.0016779828086543641 0.1412972254205443 0.27052284382923353
30970000.0 0.9591734065386146 -0.2589221835785988 0.002491800550763071 -0.0006289861224326453 0.001724248141655369 0.0033833729192919316 0.16278706214846692 0.25649306906244307
31969000.0 0.9566934068781631 -0.26965325910297033 0.0031462155418275775 -0.004179713755469697 -0.0005751302523667002 -0.0010704998608041087 0.1507830095436918 0.253092209303145
32968000.0 0.9551480536487246 -0.2775901393296479 0.007552592758816455 -0.006515691393610752 0.00031314927605290155 -0.001994564786129682 0.16517855057078312 0.24960069385187064
33967000.0 0.952759843335802 -0.2863539651842419 0.01384964426001292 -0.009074859098806504 -0.002712053878801891 -0.001058963695128694 0.18451130134826274 0.24399709084284296
34966000.0 0.9483014683966904 -0.29614674870185725 0.015838273662684872 -0.012384524938240575 -0.003802696403363395 -3.5722846696435736e-05 0.18845669847805704 0.2494802151168519
35965000.0 0.9469949073155058 -0.3044936123870194 0.015418505638950334 -0.014478854082822188 0.0002561506604835261 -0.0015548746178486075 0.2035849773123566 0.2519793069097684
36964000.0 0.9449254346152919 -0.3131918973123377 0.017207685274294476 -0.013325209300451122 0.0032359583138561513 -0.0035119363182417266 0.21380729909272644 0.25851740620831204
37963000.0 0.9410659382789311 -0.32282628607998287 0.025133481375720433 -0.02085537938725436 -0.0014677935205316952 0.0008325034678066946 0.2236801774088113 0.24597855827360784
38962000.0 0.9392789227879771 -0.3304837385655416 0.023905464816688916 -0.019734252845954127 0.0034735175622834535 0.002166928696775326 0.23163211064516143 0.23542527470105606
39961000.0 0.934999500376897 -0.3412472379491927 0.024943449386328836 -0.028090336614424036 -0.0018723168569189728 0.0030153044392062732 0.2393562323279205 0.2347998343819317
40960000.0 0.933020400453055 -0.34725154985459855 0.026618607026749543 -0.02868997048317547 0.0005672591796701942 0.0014021495494165015 0.2721071246439404 0.2321352876234182
41959000.0 0.9278511923681716 -0.3580986622384427 0.03135014225270724 -0.03538926621823375 -0.001093341813467018 0.002906015779744779 0.26430504388569004 0.20426693147346067
42958000.0 0.9237714716086378 -0.366038085284867 0.03448614526296502 -0.04417238605907174 -0.002852204526816846 0.002325567331299073 0.2754145920992829 0.20706349094609997
43957000.0 0.9240748898598174 -0.3702946598353347 0.03384337706387018 -0.045908636341245264 0.000674873045913973 -0.004141246731697932 0.28163968237469905 0.20952079113271466
44956000.0 0.9192887028393002 -0.37887445475518255 0.03693816083731779 -0.05398364675099712 -0.003456503895003136 1.2979203255582354e-05 0.3002052393150057 0.1985745039118068
45955000.0 0.9148088108135745 -0.3923223426442264 0.038213354621035846 -0.05979505870209476 0.0012858844930074252 0.0002610064375509489 0.29967570078444794 0.19144579448332105
46954000.0 0.9096347996181221 -0.4011235711519568 0.037694552589070396 -0.06862598049827637 -0.0006133118259638463 0.0023021247450253197 0.3196880239441071 0.1813726013368943
47953000.0 0.9095418434431495 -0.40681206642261414 0.03725203700118001 -0.07621611000269377 0.001753503931775373 0.005092479768653805 0.33885662090732577 0.17478152201325206
48952000.0 0.901745806770168 -0.419665824718214 0.037658217119943264 -0.08328385062475924 -0.0009698182569242219 0.0004187742745709957 0.3271802943258494 0.16647073427437803
49951000.0 0.8993825620835707 -0.42370579245508555 0.043086432551120726 -0.08881165293691884 -0.00210295058388741 0.0008282284368509702 0.34863929909699803 0.16460603480478453
50950000.0 0.8963153407486951 -0.4330567251856858 0.04117167592612476 -0.09923776744790341 0.0006559483923448427 0.0032189501137737777 0.3467095643825003 0.1607558988954897
51949000.0 0.8899129068684442 -0.4425927549960075 0.04146735192964437 -0.10526953469163347 -0.0018232538997219761 0.0016761704716849676 0.35305628663273675 0.14741761885576235
52948000.0 0.8904808145559229 -0.44948436059758534 0.045241482885234205 -0.11648840489832049 0.0005773268231101805 0.0010594171339932661 0.37159119859459844 0.143732639383091
53947000.0 0.8832397101306764 -0.45922985189693255 0.04725909126871374 -0.12560476738112047 0.0005933369471524946 0.002693393133620259 0.36858613648027155 0.13957976649409687
54946000.0 0.8770535823601935 -0.46631371584605075 0.04826206708537879 -0.1340454201428993 -0.0016492991911236583 -0.0007693901435343756 0.3867753410953371 0.12602936258898423
55945000.0 0.8753446072723529 -0.47509044776885423 0.050554259905986484 -0.147515978458091 -0.00022051330020087884 0.002230179296109218 0.3899260096202209 0.11048743306463134
56944000.0 0.8709036627164515 -0.4835904949893755 0.05326772539516767 -0.15493718322867175 5.6641982260926895e-05 -0.0008740717520738779 0.39350055482173196 0.11041494800953862
57943000.0 0.8652029587075629 -0.4936470265419201 0.05115050516426437 -0.16675536237698796 -0.0012084955998654804 0.0018730378003675668 0.40396015738871627 0.0920312172403124
58942000.0 0.8606033154706476 -0.4968207154516897 0.05311902160174511 -0.17594292968867303 -0.0028966716317256986 0.0013465826949933587 0.4172972974490879 0.09685810513285623
59941000.0 0.8569166650053729 -0.5085817581904306 0.05554959389349436 -0.18718180291702466 0.00013142092861640774 -0.0006186681842416427 0.4123024193812357 0.09202798023872773
60940000.0 0.8481125213804804 -0.5138451936153963 0.05776124539941187 -0.19323779502816968 0.00010527105127183247 0.0008676623021574253 0.4032702119848453 0.07631394525870049
61939000.0 0.8451782555522814 -0.5211039385684996 0.05715251250184565 -0.1989659510854467 0.0008744674786158239 0.0004082808086076097 0.41626901478009903 0.07289897538549978
62938000.0 0.8402583415708647 -0.5314323096289689 0.06134813953496682 -0.2190270270286483 -0.002114031857693734 -0.00019938177408785433 0.4324303385160219 0.05336119811369251
63937000.0 0.8361429593261273 -0.5391216652772788 0.06349964613625267 -0.24097164851453104 0.0026217858097721076 -0.0007813356242573445 0.4295956948308767 0.04373499739094881
64936000.0 0.8279185220768653 -0.5460723946209506 0.06095062386306516 -0.2542404884279118 -0.0013514032067810677 -0.0009067117741878323 0.43323517441374326 0.04473320326092742
65935000.0 0.8244927478618952 -0.5576304916592538 0.0581049977978482 -0.2666175609146405 0.0027078637818281183 -0.0022292739705930095 0.4405836368727335 0.024344461448873686
66934000.0 0.8193040189826266 -0.5599818591953812 0.05996912406039925 -0.28488437141977174 -0.0007609003804585484 -0.000687572641339107 0.43681900751087166 0.008299601145659169
67933000.0 0.8170627119069543 -0.5691756644931804 0.0629640215922186 -0.29852267044454867 0.0033393707886424477 0.0011604331630346134 0.4448372852771747 0.020565035265398365
68932000.0 0.8127769219950467 -0.5664649655753281 0.058627351916097366 -0.3110885555482009 -0.003700040513720023 -0.00106095658656444 0.4498724621816984 0.00545161754127379
69931000.0 0.8025742343774716 -0.5846316434503143 0.05506529403208293 -0.32877044605469063 -0.00015517816419929244 -0.0013556508752092988 0.45051290843272035 -0.01723305330031125
70930000.0 0.7946205190619344 -0.5913608311773295 0.052579318529816184 -0.3433446082619474 -0.0019850135760058445 -0.004294970987605445 0.44428638549506166 -0.02275555438883993
71929000.0 0.7916773420985653 -0.6025112409704494 0.04822185274094787 -0.364546977318864 0.0014279894290323114 -0.0008123172670625518 0.4469093554640168 -0.0374654160124653
72928000.0 0.7853434138552772 -0.6092959960463704 0.04370283758440291 -0.3801055629745917 0.003137217716948506 -0.0038047867504584815 0.4587386335318141 -0.04340729079548765
73927000.0 0.7787698558287197 -0.6161115484110935 0.03653791359068306 -0.4006443902332518 -0.00010481309708268671 0.00134755310101414 0.4649683407595216 -0.04932301329336494
74926000.0 0.7729592667357079 -0.6245930056287828 0.02957929256034746 -0.42044766624857544 -0.0004133991638286928 -0.001796508641739788 0.4533654920539466 -0.053160900812277916
75925000.0 0.76821334200821 -0.6287119796381941 0.02149222386361394 -0.43929658431537605 0.000466014619504639 -0.0006031569892664318 0.4568713721349309 -0.07534996131084289
76924000.0 0.7606306234923115 -0.6379712513261844 0.003970210773773816 -0.46529771558868815 -0.0004900490400134319 -0.0003013329500849745 0.4598309290106496 -0.07619961576151771
77923000.0 0.7545310587299416 -0.6445062065363477 -0.003935604440918273 -0.492574023922227 -0.00015718012914546508 0.0013573243228317338 0.45570171312352153 -0.08795679599262184
78922000.0 0.7497951112236919 -0.6529981527883914 -0.02435859371122729 -0.5223099117019525 -0.0022924349044168724 0.001419207410180487 0.4594390574490103 -0.10048951445979339
79921000.0 0.7408271102132765 -0.6574302312801306 -0.04031606736844241 -0.5443841126081778 -0.0014383954787974878 -0.0005291066096883933 0.46065599994478573 -0.10781627276005024
80920000.0 0.7344556182057431 -0.667801708568509 -0.05256263828316173 -0.575732476337503 -0.0001410717710636916 0.003783933949675781 0.46460242713102434 -0.12139366402313265
81919000.0 0.7286253872153605 -0.673920806939707 -0.07386661411652706 -0.6052250827130019 0.003787665116681991 -0.002147842373236546 0.46189623390366313 -0.11715829690471145
82918000.0 0.7188449845809752 -0.6817070212105619 -0.08418427262028937 -0.635555809243683 0.0029572448895192637 0.0013028063275530237 0.46618447074931824 -0.13441298456688633
83917000.0 0.7129872855152266 -0.6881274424309995 -0.10504868958744791 -0.6627716655387133 0.0012900112800582973 6.23089733072444e-05 0.4704292729716601 -0.14498406198046496
84916000.0 0.7055954530123785 -0.697378543910161 -0.12420744002851941 -0.700470791502088 -9.998654605215954e-05 -0.0029765965050469233 0.46310011096007214 -0.1609496702008702
85915000.0 0.7001129938345841 -0.7030287708173654 -0.1397232008272734 -0.7354107461273471 -0.003860541678537159 -0.0039117411425064275 0.46109086208110506 -0.17212106404012087
86914000.0 0.692304707031705 -0.7135366756668822 -0.1560714860538187 -0.7723825472406486 -0.0041927458678856465 -0.0006337359312969715 0.4509206157542308 -0.17791744335175605
87913000.0 0.6853928841880564 -0.7196763530903161 -0.1760571313075877 -0.8008533676109147 0.00597172200560138 -0.0005443130910755654 0.45430190757660077 -0.1800280302737928
88912000.0 0.6773650252568806 -0.7254192972286755 -0.19412067211510256 -0.8371021849300005 0.0013038939091940566 -0.00043575818367030256 0.46691486416377814 -0.20375481315277097
89911000.0 0.6692716069978426 -0.7366506788950413 -0.21002606628334858 -0.8769016448419643 0.0005373210089710603 -0.002663107087520012 0.4701923237735622 -0.1973677812142034
90910000.0 0.6643787336739599 -0.7385354873306936 -0.22405713098257174 -0.9094598709084744 -0.0015946474283872164 0.0008144841944826413 0.46162841742359534 -0.20342323795473036
91909000.0 0.6542520533080605 -0.7456586266832743 -0.24372051060631664 -0.9428228532841131 -0.0028189362148654433 -0.00434409339805443 0.4708695424194837 -0.22418092253951044
92908000.0 0.6462997644673983 -0.7539762048383128 -0.2645799229424567 -0.9817531924841211 -0.00042917251015958717 -0.0008536347638090421 0.46132432806543683 -0.2247535004843599
93907000.0 0.6388013311087567 -0.7594141775307336 -0.28007084556525097 -1.0100351936766192 -0.0019716874407088797 0.0007362605100994274 0.46091491018117087 -0.2457557780677459
94906000.0 0.6272466944082857 -0.7656990919250712 -0.30104422268373676 -1.0475384669331933 0.001994729085752192 -0.0004054990974875577 0.462730919205195 -0.24072345661259373
95905000.0 0.6212917451432634 -0.7732784319595615 -0.32997101437915694 -1.08380905759529 6.784580946194888e-05 -0.00037261470020204907 0.46040216177963245 -0.2574751747132938
96904000.0 0.6109176339746033 -0.7806552845858873 -0.3502204834375665 -1.1223592640370361 -0.0031508120243525393 -0.00029271445885041954 0.4546668420928373 -0.2753344256269582
97903000.0 0.6040950934873123 -0.7858852047013962 -0.3688978975515728 -1.1587573491128458 0.0024880104588926306 -0.00018250376013901836 0.44978417331632986 -0.28173209875366656
98902000.0 0.5992849915735282 -0.7923428239895381 -0.3969333504555059 -1.2001881065571207 0.001769928792917159 -0.0028665020848767596 0.45193154320766193 -0.2829996242381625
99901000.0 0.5876083527069309 -0.7981937640911806 -0.42696157052892664 -1.2258189753415762 0.0018536945733504547 -0.00199080434139849 0.4545181453846502 -0.30644242645739833
100900000.0 0.5802851587343516 -0.8028121465926188 -0.4597775405244654 -1.258071703145045 0.00014019739662858948 0.000701559286301996 0.4590139086663906 -0.29963239623879534
101899000.0 0.5701529779753427 -0.8092933915841946 -0.48909695197651204 -1.3031694007423922 -0.0020668454959237724 -9.196472400651111e-06 0.4505859397012311 -0.3169465393856802
102898000.0 0.5611707125593859 -0.8181667315807892 -0.529481191080475 -1.3440383647753518 0.000535703270293454 0.0007932659943687859 0.4445623359624903 -0.32505213347334605
103897000.0 0.5528652234014962 -0.8226832195755629 -0.5680399723303131 -1.3773517270468634 -0.000431117715742577 0.0023006181981530317 0.45791429943376283 -0.32435582551279424
104896000.0 0.5463460324254581 -0.834229600078396 -0.6173239775118812 -1.4149288927412256 0.0015834587609461315 0.0018822184500431778 0.4443168860035012 -0.3258445113196657
105895000.0 0.5342575538478856 -0.8343060262424535 -0.6612571930960812 -1.455877695467477 0.001773583947206776 -0.0004324801307695332 0.4362203986787132 -0.35613086909250724
106894000.0 0.5262819388812955 -0.8407235952162545 -0.7201416112823852 -1.5011264809697447 0.000626252828608954 -0.004729936542060514 0.43463914064080583 -0.35950813758804095
107893000.0 0.5181996986759394 -0.8478618982647855 -0.7742668964279339 -1.545147745774447 0.005696864410734733 0.0027443311111095907 0.4341135980496411 -0.36803458032961334
108892000.0 0.5070381775516198 -0.8514708132315117 -0.8387353803777694 -1.5750828364573588 0.00040154118463437116 -0.00019126682649227462 0.42037608431519435 -0.3672286787286971
109891000.0 0.49461483580934434 -0.8587889231105018 -0.9015040842607966 -1.616129193802619 -0.0019277890129606207 0.0005028873739758395 0.444060375980801 -0.36900651990688405
110890000.0 0.487731294554051 -0.862998820597473 -0.9590746053326742 -1.6323942193618475 -0.0007610688735069474 -0.0003149339326570988 0.4351894661350972 -0.37582419621552987
111889000.0 0.47389290499923875 -0.8652326162607269 -1.0275959245910964 -1.6887436899552786 0.003305664483652319 0.0009319636606754844 0.41930739831517705 -0.40521520384007986
