! Created with skrf 1.9.0 (http://scikit-rf.org).
# Hz S RI R 50.0 
!freq ReS11 ImS11 ReS21 ImS21 ReS12 ImS12 ReS22 ImS22
1000000.0 0.9833192503527226 0.005990881719918686 0.003549487359295633 -0.0698315441864112 -0.01014599931717318 -0.005364261277521946 0.3252962077638261 0.33002810343434946
1999000.0 0.9929145773542581 -0.011816446038255452 0.0061921097319595836 -0.022776638515028317 -0.007076075417646908 0.005007659730879598 0.2502101473943595 -0.046464568108429694
2998000.0 0.9986901766494497 -0.021487877882680174 0.00915586556393307 -0.01583270158960828 -0.0003393630997468871 -0.0035195554497569983 0.18694348692673668 -0.1395329821965869
3997000.0 0.9960142561675575 -0.030369124036546877 0.014201966082547519 -0.0088153751151196 -0.0030481037738958527 -0.005900553255395791 0.07500903701848818 -0.22901433457198495
4996000.0 0.9974371338948238 -0.039233447588494376 0.014660709436942816 0.0032227604205767287 0.005651202910761192 -0.001457245877195824 -0.04421555270146383 -0.20570742002490838
5995000.0 0.9947225597379319 -0.04629186405305606 0.007515521858331913 0.0015124312265141924 -0.0019837271175200994 -0.00184510917653005 -0.12024417959809468 -0.10455237165545864
6994000.0 0.9941947177981458 -0.05804234870295224 0.010352238611070631 0.0024417975389164417 0.003368535769962464 -0.0024482298702089614 -0.1297763564397963 -0.024348052542676697
7993000.0 0.9972462291026599 -0.06884498787686072 0.002702516024257769 0.0038642349890799835 -0.0008421550589465809 0.0011507237869096479 -0.1456594552091199 0.04361542493226901
8992000.0 0.9961824569633084 -0.07177832314812237 0.0011794257013030373 0.003635328670575171 8.902290780009001e-06 -0.0027615014989679273 -0.14732004052190062 0.062130018656970994
9991000.0 0.9952731482359792 -0.08161030074005755 0.0003453224659401647 0.003883793626826869 -0.0007415368402738643 -0.004341953646806084 -0.13765320691492508 0.09423268538531003
10990000.0 0.9946408915068317 -0.09107792346389425 0.0019397210460245552 0.004897248159130738 0.002279265886256396 -0.0004604316606977043 -0.13599791143248038 0.126358321225803
11989000.0 0.9918005725053938 -0.09596797384009534 0.0018055514258891313 0.0030615711627316002 -0.002395906863296558 0.0006591464106952627 -0.11704424671620138 0.13420825838463513
12988000.0 0.9921170700428663 -0.10732746982277364 0.0016308829303971744 -0.0076553695826745765 0.001134094291954871 -0.0046028758083132525 -0.10099788341210886 0.17582045314955275
13987000.0 0.9890182865897374 -0.1151551958753923 0.0008334198941279444 -0.0013327639610117637 -0.003977275492324879 -0.0010020845343966201 -0.07968919915290297 0.18763788645968857
14986000.0 0.9900459720323338 -0.122211674072288 -0.0014884122262972766 0.0029535149841517284 7.203709897773583e-05 0.0005666093090376136 -0.08854742723406768 0.21291809010994692
15985000.0 0.9913091618766732 -0.13086259243713488 0.0017096694869250422 -0.0033352634642674728 0.004248213074270078 0.005889609499245326 -0.061809435244962976 0.21326864801397494
16984000.0 0.9880366337866858 -0.1412595138051752 0.00015217795847849498 -0.0012732593211825774 -0.0005555133133205939 -0.0034278405416856214 -0.05960332496545004 0.21830647341666937
17983000.0 0.9870427157870835 -0.14676387385749504 -0.00228937827737102 -0.004712955485043509 -0.0004904188213418632 -0.001438409003029965 -0.04275041502000696 0.21973360510287718
18982000.0 0.9847727470917742 -0.1588226928285774 -0.0028270449870174017 -0.005406164475881194 -0.0016729195078596987 0.0009516186808504044 -0.01502186042015779 0.24172199728100316
19981000.0 0.984772616632945 -0.16420720859603757 -0.007078252137456828 -0.007074276407031878 -0.0026233119328533975 0.0010581680206606938 -0.009887305616499083 0.240911527345431
20980000.0 0.9835868882940181 -0.17466402574110906 -0.009666962311607664 -0.0031323250275246003 0.0004595163640546035 0.0011014655501966628 0.002544249495075213 0.24782443014523264
21979000.0 0.9821971984435702 -0.18307078137868368 -0.0067767657377820695 -0.005607825230989553 0.002129758465865254 0.004232853964652605 0.021567629074119483 0.23639900489682947
22978000.0 0.9788408926868573 -0.1898325210626365 -0.0069590359538906 -0.002699912914124815 -0.0027776936551651894 -0.001191281656265658 0.028452629846580223 0.2522531221607643
23977000.0 0.9810386285028003 -0.19614274677985022 -0.005511681676739637 -0.0010508501303119046 0.0007476969040798034 -0.0006131829077457045 0.03970548810253657 0.2574467817208623
24976000.0 0.9748036793196692 -0.21047094850557296 -0.004960261772545979 -0.0020390265487038213 -9.959210928530996e-05 -0.00373164906902352 0.06426166117711231 0.25353416490524117
25975000.0 0.9767121253695682 -0.21443461434680003 -0.00763253834050439 0.000659041136951629 0.0022093923487328092 0.02852146815806404 0.0765714163636728 0.260532645306785
26974000.0 0.9725564896609818 -0.22396524776694346 -0.003483482307684198 -0.0018064257656906844 0.0019528876300981956 0.0016351975853423505 0.09086952637008941 0.2678303048619324
27973000.0 0.9697211445171344 -0.23119537488102773 -0.006611788988596442 -0.00044770125523482335 -0.0026368761121147574 0.00227915849500612 0.1090735810460328 0.2553320769092566
28972000.0 0.9691875503100162 -0.24021351210968522 -0.0021677636773908817 0.0016699937310914554 0.0007087554554051556 -0.0022019812169095424 0.12007426489272494 0.25235678829679165
29971000.0 0.9662892514833225 -0.25173835543635503 -0.0011121078914367775 -0.001809147253350054 0.00038748487186566913 0.00018558019166992464 0.15164439950373076 0.26981272308613036
30970000.0 0.9627780489845729 -0.25474404569579123 0.0016896491038750831 -0.0007921646777881025 -0.004195797283223866 0.0022343965861259334 0.17188474784917956 0.24976428206175513
31969000.0 0.9635415018459507 -0.26411393721356297 0.006937986723381442 -0.004249071855991946 -0.003540547418908245 0.0021922797882027198 0.1543049626880692 0.25048616982546873
32968000.0 0.960814607975857 -0.27299806064732424 0.007321216013032931 -0.006468834384965361 -0.0005139244021136344 0.0011982541733844049 0.17212441877442963 0.24798194302320636
33967000.0 0.9591974643106111 -0.2812120599691519 0.011256527038618187 -0.009108396146350778 -0.001089885202957664 -0.00128300263650311 0.18391557741444056 0.2471505605583627
34966000.0 0.9546147015509119 -0.2905033023011325 0.011347654818351871 -0.011536450064622804 -0.0009502320878468953 -8.674351197836185e-05 0.20391752681145353 0.24250355452467107
35965000.0 0.9522490546110042 -0.2996250072297855 0.015856768999422958 -0.01689841802178355 -0.00016319715457820472 0.0020852731419453373 0.22097206470930683 0.253725895462221
36964000.0 0.9498167699184341 -0.30828032190153226 0.016733869982055682 -0.015139090548433081 -0.001032849133876723 -0.0014039385232801696 0.2249997600488028 0.24440641057464338
37963000.0 0.9447247516676837 -0.3176889391959273 0.019074111142771806 -0.022877004242102778 0.0009499897767913896 -0.002736192581853998 0.23169850810259685 0.23515113594671588
38962000.0 0.9448400451301537 -0.3245386650423167 0.02242082685079049 -0.0224651414768942 0.0001691221359967096 -0.0021004019964758914 0.24743080879328214 0.225800542525704
39961000.0 0.940615504150439 -0.33389410035491096 0.0264746819314162 -0.026039581384506634 -0.0020356093286700463 -0.0016718219617027057 0.2493166791219455 0.22914204745660469
40960000.0 0.9379348143364727 -0.3414035148099773 0.021547351044853846 -0.022099031350940157 -0.0004477750703039401 0.0010012146950271461 0.27071703527646424 0.22688662313393806
41959000.0 0.9347667419783522 -0.35102799163054915 0.02831547825376114 -0.03385129995732484 0.0014016832357879126 -0.0008957708596689933 0.27455261837884787 0.21371467704937525
42958000.0 0.9316399488533409 -0.3582596101789098 0.032575022647078164 -0.03998635330700144 -0.0013234056517132452 0.002652149036821543 0.2864861531072262 0.20345188187830296
43957000.0 0.9289435029427264 -0.3660855814020768 0.031508522796222876 -0.043813031624162946 -0.0010463738571432734 0.0030633837652359374 0.2917586433408592 0.2066311334840452
44956000.0 0.9254190327148581 -0.37231348287444066 0.03168201309420437 -0.051511928232873046 -0.001042341462259216 0.0027491208407706127 0.31283466036930224 0.19196243770494087
45955000.0 0.9219519323396252 -0.3829662326775443 0.033413727687811985 -0.05391570378261557 0.0007978816495775409 0.002285902229623223 0.30835743805359156 0.1869149012733481
46954000.0 0.917252713278561 -0.3924272463745581 0.035205189065359486 -0.0650401926488713 0.002039227233091408 0.0017388196434128414 0.34165150999954524 0.18015265057453533
47953000.0 0.9164730569164053 -0.3988014572281542 0.03267289109002818 -0.07005986232607911 0.0010048689010397974 0.0002579993816331154 0.34297567347304564 0.16694061144823566
48952000.0 0.9102423805482801 -0.4096170211146015 0.03479205050595509 -0.07893338165415865 -0.0002469048727225211 -0.0018845977434845016 0.3499141052204549 0.162043005689133
49951000.0 0.9088990501314007 -0.4128753869525738 0.034855244907048194 -0.08463023087384136 0.0008334579940175276 -0.003381616697517961 0.3604209514722879 0.14783203506957032
50950000.0 0.9039303107698837 -0.4211987889019404 0.03497274538508267 -0.09152610995519354 0.0010704316643565007 -0.0023182703226008764 0.3544417525873404 0.13933923499077547
51949000.0 0.8990010892426878 -0.43094624141354426 0.03560791110319358 -0.10117349591522012 -0.00201259120667418 0.003187970056386629 0.3588727389897159 0.13713991896971237
52948000.0 0.8966337798732499 -0.43926310632149457 0.03759600089633072 -0.10847524712529168 0.0027668065138004914 -0.0025661658706309636 0.38103944620204755 0.13314640334247457
53947000.0 0.8918462802021344 -0.4463349277825073 0.04036199759487203 -0.12008548199508359 -0.0010544973356066004 -0.0026624816261522975 0.3711829706135115 0.11972983379061822
54946000.0 0.886136184483775 -0.4579159441868532 0.03873072541299605 -0.12707994209249981 0.0011167550990336202 -0.0038622544323557205 0.3903727032129951 0.11250974426768039
55945000.0 0.8835092957597561 -0.46477360715309535 0.04023457214890095 -0.13883479853222996 0.0015895243349939902 0.0014263453185894056 0.39954148908578974 0.0995993431459754
56944000.0 0.8805428336596112 -0.47212071674594247 0.04066743876272859 -0.1493699548504977 0.0011138146966384237 -0.0029687265392860382 0.40619644927142523 0.09190079377201514
57943000.0 0.8744965494824353 -0.4827298926763439 0.044668957132540564 -0.1579664837708976 -0.0024648453974335078 -0.00013717419205281682 0.41493672293130673 0.08131223824977381
58942000.0 0.87107419734527 -0.4852446276841131 0.0450368907369343 -0.16867747186675355 -1.9085295573173743e-05 -0.0018102308157571744 0.4257961150034442 0.09044537526028447
59941000.0 0.8656241764477325 -0.49599008690616464 0.04595466196180524 -0.17979270214384735 0.00019803015028830632 0.0020733584881965756 0.4260193114898569 0.08531341997832663
60940000.0 0.8583251875863207 -0.502963060835393 0.04610095555786454 -0.18258702888086492 0.0008964297429431035 2.681635556468098e-05 0.40605844458352336 0.07172854390840301
61939000.0 0.8569175397899359 -0.5093166823277672 0.04835625805629574 -0.1886021975361977 -0.001302756205183898 0.0019431330379453822 0.42664014553165674 0.06280484806833612
62938000.0 0.8522248715405061 -0.5197807467661416 0.050053235028102945 -0.2068137666637825 0.00106366875011282 0.0017419683270752746 0.4427765336574614 0.04184844533758661
63937000.0 0.8460327997115556 -0.5272684194006189 0.0489762035588654 -0.22591238744026537 0.0005519155849417383 -0.00048084255529062613 0.4415053107511764 0.033013301180996026
64936000.0 0.8424537089333634 -0.5320490195173937 0.053899485348854026 -0.2398910759732814 0.0036461000054024326 0.0019154432874936246 0.45187429812867946 0.03750643980336326
65935000.0 0.8378089344065225 -0.5446908563704803 0.04940524148869828 -0.25278743551674676 0.001054971626874028 0.0016492849466634826 0.45080333409434026 0.011313770702849096
66934000.0 0.8331372189658863 -0.5509403635311073 0.0527245229908297 -0.2679513673890086 0.002613244770900527 0.0033081686916421075 0.448083609634237 -0.0013818737253398416
67933000.0 0.8301650800217467 -0.5560145182110687 0.05459371892352954 -0.27671361759540974 0.0014267285119515267 0.00185002822410486 0.4450468392247729 -0.0037552013260446636
68932000.0 0.8164103863223697 -0.5634068946161016 0.04837675420263958 -0.29152266982239544 -0.002439553595394079 0.005630714886308826 0.45659468231456063 -0.013904425923980229
69931000.0 0.8160338075554301 -0.5728905220333 0.048260835611951866 -0.3065891770661126 -0.0008050202826227067 -0.0025411930809545067 0.4568334638800252 -0.024204237290559278
70930000.0 0.8112028257387578 -0.5795291709961238 0.04406066647584272 -0.3213641702242404 -0.0019481498884658325 0.002346740727854392 0.4510716453876367 -0.03964566393062494
71929000.0 0.8065524907478449 -0.5877500751768965 0.044930101378401956 -0.33731904749789404 -0.004901218262313096 0.00033849175602012303 0.45901204341260693 -0.039522299427324006
72928000.0 0.7999003135190031 -0.5986908274996373 0.034598691532396184 -0.35349821166944556 0.0002996719840158085 -0.002322944713784 0.46821671105514273 -0.05376939973437474
73927000.0 0.795447542079194 -0.6029878141655673 0.03576441133143442 -0.3730278141884409 0.000670408931539375 -0.0030381126027381267 0.4635786281081414 -0.06324307192146471
74926000.0 0.7908024562305997 -0.6120743442994897 0.029287677060822824 -0.38616962198819244 0.00027719843945382016 -0.0031831495013411428 0.4645422765516996 -0.07001177649977365
75925000.0 0.7842035394048434 -0.61795689680585 0.019838587041154626 -0.40556400229730766 0.0018192237418995778 0.001453504625485897 0.47598404786877363 -0.07692241415515384
76924000.0 0.7793292507809387 -0.6246194640244737 0.004011317779671612 -0.43022022391951836 3.770116318999294e-05 0.0006188870508479569 0.46453061644468074 -0.09296049758109556
77923000.0 0.7728802329001948 -0.6306256253730422 -0.008856014450495584 -0.4534302894878689 0.001367181199744211 0.0013181318625486525 0.4587692507436453 -0.10299926734260953
78922000.0 0.7668917983154484 -0.6398081413654391 -0.02241482502703572 -0.4807255171666753 -6.413506948984055e-05 -0.0011194342254628154 0.45725541350466853 -0.10907024500602623
79921000.0 0.7582361181484442 -0.6455459694337644 -0.033045157935601636 -0.5004904844222926 -0.00664873337981447 3.978301025374864e-05 0.46479602416227955 -0.13054915244434812
80920000.0 0.7539891440787817 -0.6565062230652091 -0.05589500329125397 -0.5276675614999567 -0.0037659471474925303 0.0003425489822038231 0.4699490907680187 -0.14435956079287748
81919000.0 0.7485063743178549 -0.6626449687204599 -0.07324720845224444 -0.5562518150028397 0.002399421069907487 -0.002798381878833554 0.4731990179126546 -0.14406960071957975
82918000.0 0.7376077154801692 -0.6704028142162931 -0.08898687239152672 -0.5838682675150055 -0.0054367564255482885 0.001453595855408029 0.48142112260923103 -0.15627808493409343
83917000.0 0.7290425014497014 -0.6788897158051241 -0.10869313927723247 -0.6140974434045954 0.0018453733510951321 -0.0014678488186689808 0.4795780139017098 -0.1594095652935903
84916000.0 0.7267348888196802 -0.6856807183217617 -0.1298993181199873 -0.6498675297973906 0.002803585553319724 0.000494908066554723 0.4680511293678355 -0.16898085829612108
85915000.0 0.7208947792378836 -0.6895366256846427 -0.14056194773881167 -0.6774926792887667 -8.044264277401637e-05 0.0008982401715218999 0.46932552201621913 -0.1891634747545186
86914000.0 0.7126603750027193 -0.7004440462842008 -0.15923530797197585 -0.7150991519566151 -0.004272942271566618 0.001576604515044629 0.46681218417240805 -0.1754269358826797
87913000.0 0.7073685091704783 -0.7076025392364946 -0.18135761461693967 -0.742454411065389 -0.0005050231865492214 0.0015988078115698181 0.46061729096172566 -0.20191769880840305
88912000.0 0.6989749679619438 -0.7139590406372059 -0.19514521225608622 -0.7760522975641054 -0.0005555047533579392 -0.0019173751338321186 0.46701748318361913 -0.21758358056351132
89911000.0 0.6910435931439342 -0.7233537026985628 -0.2115977934745403 -0.8126505415575047 0.0003390692783094431 -0.0011776302747329968 0.4749039910353628 -0.21043455861783736
90910000.0 0.684190144168993 -0.7265264950069009 -0.22302844721965376 -0.8457653770702547 -0.002089657853374534 0.0006138448837606554 0.46226865328405164 -0.22371880595280597
91909000.0 0.6749223308860887 -0.7317321095703597 -0.24880248365973542 -0.8742572310703225 0.0013402102182605794 0.004141363414996314 0.4606796917009595 -0.23418283165148734
92908000.0 0.6680344024682566 -0.7409239288050287 -0.2607105561730874 -0.9065303549324311 -0.0011968025451374444 0.001977222244274157 0.4584892038202373 -0.23975972299217582
93907000.0 0.6615113785708416 -0.7466469672517961 -0.2820322064884834 -0.9393935792245109 0.00015245168382651498 0.0036734627850663545 0.4618134268565035 -0.265870192424899
94906000.0 0.6487770593977067 -0.7546438365190989 -0.2960347808029526 -0.9711633346744243 0.003246951967665943 0.0034848072796311506 0.4599088437656638 -0.26826266590625353
95905000.0 0.6446155495591516 -0.7601907430405562 -0.31596845150442215 -1.006141925928394 -0.001822793428125709 0.002064410257986945 0.4569484580774384 -0.278361657254823
96904000.0 0.6342905892038418 -0.7690378839045858 -0.3323711133067248 -1.0407981978247502 0.0027664421952174603 0.0028518078086225227 0.4547194411833989 -0.2859805596397374
97903000.0 0.6274121313510096 -0.7742805396357211 -0.3568348892110067 -1.0715902187267148 0.0032328806574836483 -0.004125977222449016 0.4447159322479361 -0.30475862051277425
98902000.0 0.6223656067967405 -0.782540664081123 -0.3699971182957224 -1.1101072696766117 -0.0045404940281835345 -0.005046307780152699 0.44688766867138285 -0.30583210128836436
99901000.0 0.612791324027169 -0.7894011896634241 -0.4010281700481945 -1.1428091615960192 0.0013425384795121209 0.0009597282311249797 0.4604367402950105 -0.318881420706044
100900000.0 0.6050437713572132 -0.7908526417745851 -0.42792898230874443 -1.1726685989588883 -0.0003642994799420552 -0.00012053823230389661 0.4666000574345122 -0.3142715391092708
101899000.0 0.5940293210810319 -0.8003809322497684 -0.4561379614241127 -1.2054404891589858 -0.0038588833075007393 0.0026372747962986626 0.44267530162523977 -0.33002863598179316
102898000.0 0.5861585827639396 -0.8048832144610607 -0.4850484875325653 -1.2439570163664704 -0.0009567881511449443 -0.0038904373593503135 0.44669339296751426 -0.3517263372725589
103897000.0 0.5777729632390106 -0.8109377669377675 -0.5244497976872146 -1.2773930201084707 -0.0012269192839632862 -0.0014200313320272258 0.45698410130419465 -0.34222542661263144
104896000.0 0.5714510688064116 -0.8235781026794058 -0.5663377477825294 -1.3059102965462874 -0.0006917588987448894 0.002426304753553489 0.4359433906900477 -0.352247150954645
105895000.0 0.5584999508898605 -0.8231390718250614 -0.6069349404161736 -1.3464957199898615 0.0013906060284560884 0.000698616785528078 0.4400055466872002 -0.3724448555054803
106894000.0 0.549886119421874 -0.8296748352403803 -0.6618668824712963 -1.374962064018032 -0.00011422197172834491 -0.002995315857898043 0.4354231634361255 -0.3831621716196383
107893000.0 0.5418269152345186 -0.8373668049955443 -0.709271379365695 -1.4145901514084156 3.4746780586514875e-05 0.0006095413094230141 0.42826992942903075 -0.39061495633917165
108892000.0 0.5340810537177789 -0.839210063392776 -0.7699647949017446 -1.4487549535763162 0.0002795922078576841 -0.0018945451817326145 0.42166848834249754 -0.3941986078982941
109891000.0 0.5216661843854182 -0.8499290424492852 -0.8225504933411126 -1.4843965723260386 -0.000306851534787497 -0.0025281089802582793 0.43309715458348846 -0.38760582080857087
110890000.0 0.516969109702437 -0.8571393036382532 -0.8828446523970422 -1.5027242475697085 0.0017714614021533675 -0.001422254739201394 0.4296860778057979 -0.40773061502034635
111889000.0 0.5029677214186888 -0.8561823182832569 -0.9379238482797128 -1.5496031778581814 0.0012383587498949404 0.0027379284818012757 0.415004325916947 -0.4181863134049468
