! Created with skrf 1.9.0 (http://scikit-rf.org).
# Hz S RI R 50.0 
!freq ReS11 ImS11 ReS21 ImS21 ReS12 ImS12 ReS22 ImS22
1000000.0 0.9742352118205947 0.005532864900179109 0.014437211547398377 -0.048484004763175936 -0.009361101585735141 0.011395891341358384 0.33804690080433436 0.2923180586186638
1999000.0 0.9959999392829402 -0.011813214557835842 0.0046042589550825425 -0.024317427492326203 -0.004329869042299561 0.0006282703687624356 0.27736579677300527 -0.07943272878930915
2998000.0 0.99741962486457 -0.021656541165900125 0.012676514197696095 -0.018601504309211373 0.0004258957753815102 -0.001036804450384537 0.19342483993042378 -0.13793925278502103
3997000.0 0.9990441927070878 -0.03246443391164304 0.016912400480263358 -0.0011853088279380204 -0.003395788826852874 -0.0015969043269780376 0.08339664011323648 -0.23261572392549762
4996000.0 0.9971088987460626 -0.035981535843044005 0.008382531307281811 -0.0022720562589954234 0.0007165111428733561 -0.004393914029955334 -0.07651993134161367 -0.17016401490172572
5995000.0 0.9956747937559348 -0.04896742979253249 0.010572276641366085 -0.00017889056684479375 0.004358820240948575 -0.00012787861908077712 -0.1312226118753422 -0.08211729965880087
6994000.0 0.9931120862510757 -0.05819671443368634 0.008965485964591855 0.0018337291526303663 0.0009701272112939124 -0.0007842720061254874 -0.12450697035652607 -0.005531864641397105
7993000.0 0.9956341921110924 -0.06794681225879876 0.0032629052003091373 0.004713882469121985 0.00013858211486673735 0.000166306969388124 -0.14421019907145494 0.06388027121742158
8992000.0 0.9943102267600519 -0.07085796807088297 -0.0015070923163910594 0.006399475906039106 -0.000932103222478238 -0.0018303114943314116 -0.15527184476404765 0.07231397339884933
9991000.0 0.9906271357473841 -0.08471883987486949 0.0021510178787456963 0.004060766685949386 0.0040134494277859365 0.0032939770809470937 -0.1365476308216676 0.10829779232278731
10990000.0 0.9923254485108337 -0.09209162340719483 0.0022327260485722374 -0.0034227121019780506 0.0022315771110277454 0.00442427443358084 -0.13561742730660026 0.12315907050127893
11989000.0 0.9897607805710057 -0.09910674719954114 -0.001817440158368917 -0.002545252230260877 0.0017183014145668264 -0.0008291751463585022 -0.11972104065551256 0.13803409332973182
12988000.0 0.9895759503744475 -0.11228636526982755 0.0018452547822384322 -0.003712186018012325 -0.0026397598396857925 0.0029035243552073126 -0.12438076547013699 0.1647138976712736
13987000.0 0.9882367010973088 -0.1184676760568399 -0.003638448949577983 -0.002665516678491222 0.0003974997404237074 0.0038924132889202666 -0.08972926045117632 0.19508586296583605
14986000.0 0.9883190010610463 -0.12727710876153456 -0.002624827565941148 -0.008330733169534088 -0.0008416414310150226 -3.2260794956495365e-05 -0.08493197153691691 0.20415011240913472
15985000.0 0.98943637422508 -0.13493567935252498 -0.000757250636308189 -0.005092308585014742 -0.004401125470009867 -0.0007537161847216964 -0.07145744631978804 0.23519397404273482
16984000.0 0.9862148580291064 -0.1459159547946338 -0.002443399038946498 -0.002917654093972644 -0.005568632301360585 -0.0010873885288743433 -0.06479349051278073 0.22256281001411757
17983000.0 0.9834264793962555 -0.15095851690874013 -0.0032697596868402367 -0.00553973047745235 0.004290064083321979 -0.0006468468110393271 -0.04549220858195986 0.22552263743035966
18982000.0 0.9811888495733533 -0.16442591500405146 -0.00394280352754861 -0.004972272884320634 0.0011407304603630204 -0.005249973679867355 -0.018935012162786233 0.2372099093764743
19981000.0 0.982686675946055 -0.1682927619539625 -0.007838234486601101 -0.006045831855506498 -0.0011209226904581782 -0.0021184010603556634 -0.007613581374416456 0.24514535969831294
20980000.0 0.9812640270820839 -0.17777925162586114 0.000597198793849562 -0.005405327381493616 0.0012012237075587563 -0.0013261655938074984 -3.0718253500335753e-05 0.25427477549134614
21979000.0 0.978486271303321 -0.18857418652860122 -0.006000126378208469 -0.0023906167594424104 -0.00019411013909799863 0.0002847107249672124 0.014558840346302199 0.2509768904222476
22978000.0 0.9756420653987874 -0.19656192398678918 -0.003852247469019648 -0.00444678643733109 -0.001525368821565124 0.0012026572379098817 0.040670205397863306 0.2512064451340682
23977000.0 0.9770739613020996 -0.2028723914075624 -0.0040033277843756435 -0.0016812315561355597 -0.00243628427561461 0.0038553301894381233 0.048094410881648626 0.2554597049551204
24976000.0 0.9728076014201609 -0.21257608375391948 -0.007595435428785441 -0.004046847702984499 0.0005388064733925501 0.00016821182436227005 0.06210767958162785 0.26402308854961126
25975000.0 0.9665782553202359 -0.2246940509405823 -0.004234956255553595 -0.0009981596820491589 -0.003978562589750808 -0.02557729115997891 0.0799710907117135 0.270967527558892
26974000.0 0.9689979550856955 -0.23049929531289312 -0.00591398723746289 -0.0015026423873716773 -0.00023394245872077505 0.002240585448480749 0.08976599750595006 0.27119556069191425
27973000.0 0.9704676404312822 -0.23685050736010593 -0.001860129444274178 -0.0030532303757732134 0.0006408400769292043 0.0014700311780130283 0.10675417389964441 0.2613212143378422
28972000.0 0.9650895702820954 -0.24816344973166432 -0.0022460763748737103 -0.0001299415392211912 0.003107616463805862 -0.0007288223648076055 0.1173187842189295 0.25639583022816936
29971000.0 0.9637238799879694 -0.2547058447325738 0.001731390034869515 -0.003441754328486352 0.0009754747597291904 -0.00030515727312531514 0.15312231507821827 0.2692528640703509
30970000.0 0.9614671217802907 -0.26068947540229476 0.0010040806390477527 -0.003307378177032898 -0.0024412082363686662 0.0035204523589569834 0.16612790211094655 0.255746883197461
31969000.0 0.9595492590277946 -0.2709948929947025 0.005901716903868149 -0.005894912919034254 -0.0016698659075685982 -0.00030480175645836106 0.15275513188253345 0.24577136382733816
32968000.0 0.9568132699790443 -0.2796165044431545 0.006028804245325943 -0.009717195447810025 0.003546727409238259 0.002962221546332763 0.16269153611658613 0.24520281787537754
33967000.0 0.9548326593810887 -0.2885739910044526 0.009224185875335559 -0.01195025238448377 -0.001444123227716586 -0.003028978311917969 0.1845787715497544 0.24815002929313462
34966000.0 0.9507635927674607 -0.2991969835424652 0.013668987103288862 -0.010469098321733478 -0.003290688148712499 0.0013477471590855265 0.19579896107720599 0.2556587222120278
35965000.0 0.9489105905247961 -0.30688427397780205 0.015127385439541173 -0.013626714288248567 0.002110272889446281 -0.0018820674539899059 0.21013698413517526 0.2522401834969462
36964000.0 0.945423570744939 -0.3165085794491033 0.015870513323109826 -0.014808001555949187 0.0006787208844739852 -0.0010600776950199697 0.2075107440740842 0.2574276539900481
37963000.0 0.9437716838324844 -0.32500970381358923 0.023359260489931227 -0.020663278141997168 4.263277120822043e-07 0.0015102644494705694 0.22610437413627213 0.23586269473031268
38962000.0 0.9403270289654061 -0.3363112843989808 0.021202730607947626 -0.02310190874834374 0.0008374893196401339 -0.00020159335422752868 0.22976393194735592 0.2315051310362058
39961000.0 0.9376447923360932 -0.34107112590925187 0.026019526282888734 -0.02867313792077983 0.0021133609967810287 0.0014596698110479291 0.2527633254816275 0.2281754981006261
40960000.0 0.9341281751558526 -0.3509691981983559 0.02281657186706484 -0.02564002659934395 -0.0002524507983996613 0.0003927378272249485 0.2704054314811064 0.2283927626228919
41959000.0 0.931209821058327 -0.36024328022812435 0.02902569291066951 -0.032707379491263275 0.0015794096858450454 0.002998532316894193 0.2745160632883771 0.2281819430929006
42958000.0 0.9264583095049582 -0.36873454798976335 0.029138263991569206 -0.03967823555902683 -0.001502047666669119 0.000259210129003199 0.29021265005563585 0.2043632997083504
43957000.0 0.9242750194334548 -0.3732840109612073 0.03278381528423742 -0.04362784381996205 0.0026134117750706075 -0.0004177809285155276 0.2895627406845836 0.21031336606177123
44956000.0 0.920727597404652 -0.3813408787718109 0.032921653132169625 -0.051229211987840556 0.0005110071075746049 -0.0015537805631804114 0.3020612799294343 0.20590863870996748
45955000.0 0.916656550433333 -0.39309921476856485 0.032039278510299425 -0.05450939630852158 -0.00026969152049413105 0.0007922258651518289 0.30631374970255143 0.19783963773764512
46954000.0 0.9115677923026031 -0.4011817886900631 0.03541480067019862 -0.06370535314006272 0.004362749013475461 0.0016298214049149356 0.32409147211047235 0.18494773619395002
47953000.0 0.9083665827158042 -0.4098156246828714 0.03704868657857341 -0.06817946147823871 -0.0023367198161171167 0.0005132440780044019 0.340833231059652 0.169701248762164
48952000.0 0.903576420960268 -0.4201526734493455 0.03669345483368673 -0.07919076056698908 0.0012160800438328087 0.003057550299339586 0.33333014885801815 0.1690871381486229
49951000.0 0.90154290535224 -0.4236638167297768 0.03737970012706066 -0.08425865285233927 0.003779539592475879 -0.001916390399189911 0.3518268861177559 0.16376390240124228
50950000.0 0.8974491339176018 -0.4352034159063394 0.03973081915230315 -0.09224526764044312 -0.0003910689040127694 0.0048612500007444845 0.3587518833973381 0.14798779195887315
51949000.0 0.8934611678947212 -0.44254994507422624 0.04099158468415 -0.1008439880431261 0.0026639455478179993 0.0036801334173995185 0.3607181106607802 0.15501795579324718
52948000.0 0.8903876631184355 -0.45147170752494714 0.04150947772801273 -0.10791472732411278 -0.005104428536699358 -0.00015872903428564038 0.3690955907960864 0.1471248166656052
53947000.0 0.8835009208355643 -0.4614504765765333 0.043545547829037634 -0.11602769808609924 -0.0005250595237206271 0.0030709492127761195 0.3652992670060641 0.13737342879113235
54946000.0 0.879129859365794 -0.46791697714603103 0.04252666188305555 -0.1247886307964162 0.000611367468604952 0.0020043830474566413 0.3813274774665131 0.12898151703645752
55945000.0 0.8766023784406045 -0.4775446035683735 0.04460716750175338 -0.13663929043390308 -0.0004497651107697039 0.0020926954888321222 0.3902595688208844 0.10698940142531578
56944000.0 0.872056340372658 -0.48411842227687124 0.04756311900137973 -0.14465494586601796 -5.798099176326222e-06 0.0008438415435857561 0.4015733634281847 0.11650433701448673
57943000.0 0.8687313314175562 -0.49476795072284147 0.051384190883269856 -0.15722892421024726 -0.0018097028210006228 -0.001369712174970489 0.40773181330048974 0.10167741550145054
58942000.0 0.8603074359482699 -0.5011678671983206 0.04797064206675805 -0.1693269928295633 -0.003982014925357511 0.00251656820989021 0.4211491641419126 0.10140418661262621
59941000.0 0.8589629954073262 -0.5071151717163208 0.05128138904699521 -0.17541375345764862 -0.002694512833831948 -0.00037684750846984005 0.41659372731352207 0.09770514469559309
60940000.0 0.8500080968018334 -0.5158610762563163 0.05039561944467082 -0.1809342865324257 -0.0037637676105498007 -0.000626316090450535 0.41369832847729 0.08788112384770838
61939000.0 0.8478067274990941 -0.5229824678402488 0.0482366749709691 -0.1886937857045247 -0.0021843057455664264 -0.0029382707890671846 0.4223114604272525 0.07412805847512233
62938000.0 0.8395261162584753 -0.5351912783827492 0.05465932625652991 -0.20553051318483642 0.0005200519431598688 -0.0019519175109055313 0.44507840438871404 0.07099997736623831
63937000.0 0.8360752204862685 -0.5410303508065303 0.054784088157259006 -0.22446980666688265 0.000539187599352295 0.0006946718219725838 0.4383935276717631 0.04646691746734577
64936000.0 0.8318757844171306 -0.5471407296668596 0.054985336437568665 -0.23905457535259053 0.0021888212018135074 -0.00243144733247333 0.4352944852763126 0.050931737233674855
65935000.0 0.8265085360587981 -0.5605200673971827 0.05616725451625253 -0.2535986137519614 0.0002793540803643195 0.00036353544778027543 0.45249621055617995 0.028383419832177317
66934000.0 0.8218363743905679 -0.5640478501063242 0.059279675775209206 -0.26601478215391733 -0.0010631038459404496 -0.003742699656497516 0.433720435625852 0.020189577126852983
67933000.0 0.8195531377200883 -0.5721698076542994 0.05450423424131787 -0.2797601888779344 -0.0010514019748642726 -0.0070400282381998655 0.44424900007685125 0.012941081644429751
68932000.0 0.8138716415079587 -0.5683302090414873 0.05530427633106359 -0.29439355616077495 -0.0001451040662105253 -0.0014360168384354593 0.45792506881836015 0.005998693582780859
69931000.0 0.804792029708248 -0.5878885543902672 0.05528255883058366 -0.3100400864113914 0.00417947521107272 -0.0028217522423537892 0.4566312514846185 -0.010859853214068129
70930000.0 0.7974863948090685 -0.5957082553804628 0.051121938629680244 -0.326127087184955 0.0006450534496583738 -0.0021822909688702908 0.4562318466404162 -0.019675724842448575
71929000.0 0.794723627067341 -0.6025895537344883 0.04960738933024778 -0.3431475168076803 0.0021944798910998003 -0.004411485436058767 0.4593098974397422 -0.03746740555327422
72928000.0 0.7877885760782702 -0.6136294545616037 0.040052954050349684 -0.35749818048152443 0.006111496779775412 -0.0008959583764856356 0.46344724951278293 -0.03998078718630167
73927000.0 0.7802066562789763 -0.6205287984001866 0.03554706308497208 -0.3785671335226066 0.003152262634200873 0.0007454270695279128 0.46613688431672606 -0.045126478733169356
74926000.0 0.7749702256526826 -0.6285100683336983 0.029194629199526773 -0.39820384786258695 0.0013409106618415176 -0.0015680733630349516 0.46808859392114033 -0.05537178337321104
75925000.0 0.7707937491677166 -0.6315775113325167 0.02316841151468099 -0.413384269007816 -0.003197311849321792 0.004255277355870762 0.47560639594064347 -0.06339028857287123
76924000.0 0.7614894733792773 -0.6437413790432854 0.00582288008392868 -0.4409665070589581 -0.0003568116365839845 0.0006722619798979104 0.4751216467886185 -0.07353807488553933
77923000.0 0.7564279298221704 -0.6476454333614541 -0.002774502881678625 -0.46631217373666056 0.001742379082973302 -0.002350828275760932 0.468181632583567 -0.07906837823293147
78922000.0 0.749042718670079 -0.6594876029534877 -0.01587973874360452 -0.4889046818467634 0.002655812749460595 0.0015141210509079367 0.47282342123602944 -0.09889898498294254
79921000.0 0.7397038205897704 -0.662625036899374 -0.0355348527900555 -0.5128745098154509 0.0011183757895643265 0.0010077658329653617 0.4604008404023524 -0.10257615419193507
80920000.0 0.7348020366342841 -0.6732112075538464 -0.05121668549949889 -0.5435941852176542 -0.0019840030678657077 -0.0012948333395458509 0.4737836587634402 -0.11902368961147201
81919000.0 0.7287020401233417 -0.6806018835244873 -0.06513258869472828 -0.5701079347517655 0.0009703118005788909 0.0035444632164909466 0.46984837219096987 -0.12548902416345367
82918000.0 0.7210410277658674 -0.685467078567849 -0.07949850793415292 -0.6002065751599556 -0.0023698596406761135 0.0025110431390150353 0.4834653862526237 -0.13893984665531114
83917000.0 0.7131812105086086 -0.6941844322854521 -0.1000686268500033 -0.6307865252368307 -0.0030642933925820494 -0.00022587228759409959 0.47525859919634394 -0.15186881965343943
84916000.0 0.7075040688944756 -0.7012435471979483 -0.11268280727690454 -0.660856254448875 0.0014561034433144377 -4.5842834465572324e-05 0.47293483831119487 -0.16355335200344845
85915000.0 0.6987087833981337 -0.7075558491301588 -0.1307805176459596 -0.6907890007276135 9.411269322301039e-05 0.00022516029362281334 0.47098527207930624 -0.16508646214751196
86914000.0 0.6920050966884607 -0.7184049806739888 -0.14392487815192323 -0.7289271047566788 0.003106524731981501 -4.883997615956012e-05 0.4706902332876099 -0.16496054300545748
87913000.0 0.685728631362236 -0.7242174712163981 -0.1650974783146135 -0.7553088204589933 -0.0011794083471260207 0.0013401271493143731 0.47946559707686 -0.17648077954477118
88912000.0 0.6769575410030454 -0.7315089294493335 -0.180692031561404 -0.7929331596081807 -0.0007604118062432065 0.0029584783584136534 0.4780519016318209 -0.1928931960339708
89911000.0 0.6715193003129007 -0.7381404183895314 -0.19546521071123962 -0.8271352310369875 -0.0028042304576565633 -0.0017209757020223329 0.47952081540849406 -0.1974381290429308
90910000.0 0.6629848101228699 -0.7460107252622726 -0.21391496758665265 -0.8607437172564208 -0.00018258248293919472 0.003622180214996592 0.47044879044246335 -0.19541395329203892
91909000.0 0.6550874085594095 -0.7499428720782119 -0.22991711052173178 -0.8924325888364554 -0.00014130518874696393 0.0022468548828813452 0.47541192842311475 -0.21251063160937433
92908000.0 0.6442529646639177 -0.759124993002966 -0.24561912924431986 -0.9232417683744937 -0.0025100355733685686 0.00015027453738182488 0.46620747765280973 -0.23016958875056645
93907000.0 0.6406262326479244 -0.7628728903508941 -0.26623494978478196 -0.9548129218114377 -0.0012110722864216792 0.002372837588526734 0.4674232856521775 -0.23474586173162426
94906000.0 0.6285241500475701 -0.7708967098496265 -0.2813701250800344 -0.9926837832363566 -0.0014637992199218815 0.004066847920915668 0.4687068976842728 -0.24178594200901057
95905000.0 0.618768010885804 -0.7775383923346971 -0.30370942524126465 -1.0300198143495205 -0.001838835667011135 0.008206381621940128 0.47330943096147776 -0.2673755728501055
96904000.0 0.6123147573182899 -0.7855251221974024 -0.32133828147271576 -1.0700906310851253 -0.004323021549034711 0.0062673687189985505 0.46659599957493375 -0.25324545582827035
97903000.0 0.602886257490585 -0.7923912412470219 -0.3447267551487722 -1.0959399446779 -0.002802529321716454 0.002018569021019472 0.45164016027102827 -0.27777953788456033
98902000.0 0.5959660381114694 -0.7975605530852932 -0.36598151228090214 -1.1328702880050232 -0.0029823828527012907 -0.001521479934903287 0.45952215691005965 -0.28117107737768215
99901000.0 0.5881288705339268 -0.8048572369988901 -0.3913624009154639 -1.1678379179880587 0.0008936852474367106 0.0006891302914645279 0.4735502823258494 -0.299956383561191
100900000.0 0.5777626333346051 -0.807968414099996 -0.4249951081148313 -1.1945800074701831 -0.0009732834745902276 -0.0017269770574589503 0.45778010124307944 -0.30536418236898044
101899000.0 0.570193326801833 -0.8151268547898898 -0.4486855473301059 -1.2378925286474118 -0.002992293358410849 -0.0008889630452585318 0.4712682022430464 -0.3087582612912683
102898000.0 0.559503110251427 -0.8205617888958634 -0.4816088058154951 -1.2741581484187798 0.0001520529379991238 -0.0009753866520857688 0.4630833959007151 -0.33135332294555553
103897000.0 0.5479588950863922 -0.8282567823916085 -0.5242392628267757 -1.3105727470307929 0.0005218014339568852 -0.0009786287449515972 0.47991391389845167 -0.3282706434402406
104896000.0 0.5433290507219632 -0.8390395537580873 -0.5663806839293433 -1.343784015624434 -0.0007749355046158149 0.001988558833687058 0.4504054711101146 -0.3261561271079784
105895000.0 0.530255331943138 -0.841144825320154 -0.6121855907710957 -1.383159985311983 -0.0021089098517565524 -0.0023661979921731314 0.43944533042367057 -0.34162589200736965
106894000.0 0.5209583155613119 -0.8482853259537857 -0.6632781091890286 -1.4196866512137905 0.0012977316787588403 -0.003483151767504506 0.44357677675465085 -0.34698624932402533
107893000.0 0.5132816140282155 -0.8552081259632592 -0.7182195956761093 -1.4576564108924455 0.0009784961521466461 0.0016165823080295685 0.4454129850743497 -0.3688406503426068
108892000.0 0.5038533877154634 -0.8586068747993175 -0.775048822310132 -1.4969080031316813 -0.0014695308482286814 -0.0024972862932600044 0.4344138366423842 -0.3614619144192704
109891000.0 0.4906890704568364 -0.8640745613309108 -0.8326867624760484 -1.5329476308071182 0.001037982009387955 0.0010125449787199297 0.44682760658577686 -0.37250797728615986
110890000.0 0.4733074542492687 -0.8683076931578324 -0.8970925289818082 -1.53186838581029 -0.0012315674020414752 -0.003561685568832377 0.43362860329727276 -0.37356905271643753
111889000.0 0.4729708149550916 -0.8701272568962062 -0.9530126933173072 -1.6084389646101256 0.0019779766690467067 -0.0034967976299618625 0.43915143594871464 -0.39025870891651093
