! Created with skrf 1.9.0 (http://scikit-rf.org).
# Hz S RI R 50.0 
!freq ReS11 ImS11 ReS21 ImS21 ReS12 ImS12 ReS22 ImS22
1000000.0 1.0020723329638002 0.006180426936287749 0.0060970091136886275 -0.05500335648557456 -0.010029410191200502 -0.0012198119713888258 0.29540168784512344 0.3071411000293713
1999000.0 0.9935058043019804 -0.00962338238692575 0.006576998411123134 -0.005930545022557689 0.0010911190039126512 -0.008301224867674688 0.26070578313290194 -0.012008569994396702
2998000.0 1.0005370493176664 -0.018652237216690373 0.013263917147103293 -0.014842566231106373 -0.001209792664791776 -5.0833954507823915e-05 0.2020364790471844 -0.1299242403257245
3997000.0 0.9979081375203519 -0.02870292883352728 0.014459361460356682 -0.011170257358662417 0.0014358972071205121 -0.004559487704894435 0.09451131590188068 -0.2276991436583478
4996000.0 0.996490589132281 -0.03994475507259781 0.013377000932399364 -0.0029693535745489333 0.00040844104279516954 -0.003986849269742887 -0.04673046167701821 -0.20790889587639758
5995000.0 0.9958760757347535 -0.04971546766256506 0.006449286197496231 -0.0028668378215875047 0.00309983121595773 -0.0017526879790407703 -0.11053872791034282 -0.11839062713730002
6994000.0 0.9950580889689417 -0.05818746986455031 0.007420519041370646 0.0012788418976385123 0.001095054727130455 0.0004684273513729151 -0.14567387304449714 -0.011716535951625631
7993000.0 0.9950465050723248 -0.07048164352625318 0.006899892529197378 0.006750515667149154 0.001423923650618375 -0.000554548504844833 -0.14942248389083457 0.03565406795659204
8992000.0 0.995496682024832 -0.07191992435278707 0.004020357709197516 0.005102803557016094 0.000883129679354296 -0.0003143652327684766 -0.1497660915416169 0.06574593624428836
9991000.0 0.9946323803098097 -0.08363534241056231 0.003953496327653968 0.0023600903199934085 0.00048337444736045923 0.004394715764377029 -0.15108693317701574 0.09578718100040308
10990000.0 0.992854770753882 -0.09204347817882863 0.0013490156592636236 0.00715720766517652 -0.0006385841410887134 0.0019182581117125482 -0.1258718064042142 0.12222337277926848
11989000.0 0.9905766926635897 -0.09903505021791063 0.00066896188666462 0.0006763425201442773 -0.0005381440797006144 0.005631264861466132 -0.12846601036489486 0.13732871911558311
12988000.0 0.9894672224493994 -0.11235735286250949 -0.003949214215154907 -0.007703546292410945 0.003411701380149445 0.00028422479850704507 -0.10842867807386927 0.17872327498441054
13987000.0 0.9888580731374019 -0.12016684108348995 0.0028075389734154325 -0.004653635168527226 -0.005388873140827307 0.0019200851752122973 -0.08757338896909016 0.18699007911479806
14986000.0 0.986681187701644 -0.12711241389287273 4.623033975675683e-05 -0.0025793064848928645 0.001894274914398509 0.00017627107414582002 -0.08988973181929347 0.19882949873470865
15985000.0 0.9884152025721271 -0.13462644084391814 0.0010787457773925617 -0.004843592214668956 0.0017707428912764843 -0.004289387392098526 -0.0653184446196073 0.21096487882468803
16984000.0 0.9857291010464794 -0.14328075363460274 -0.002703725082628741 -0.004572547922555236 0.00013250526635262455 -0.0020692950292283555 -0.04897536584797503 0.21951261967109545
17983000.0 0.9881391985936793 -0.15120602199198732 -0.002468132063879694 -0.004161407248341475 -0.0020377434926072977 0.0038082707851250035 -0.053345414163827 0.22502285534891728
18982000.0 0.9850231994649904 -0.16114992814380577 -0.004074098795968949 -0.007377273433029601 -0.0010496710477346184 0.0026722836737045168 -0.010003221921605202 0.24106338653151793
19981000.0 0.9836173413181379 -0.1657637568204751 -0.002330367040532018 -0.003339672050666359 -0.001839409854014724 -0.0015032528626793072 -0.0032275728659635896 0.23724312325270194
20980000.0 0.9809684728913272 -0.17664043613583388 -0.008286759800295236 -0.0021020591183910273 0.005693953734202546 -0.0005222518105108717 -0.0017926187463788703 0.257318400832234
21979000.0 0.9776277051171203 -0.18622747732124031 -0.005762456343398806 -0.0037967325460878678 0.0026310515189291446 -0.00011363344077181855 0.011940561235399409 0.24303314233098677
22978000.0 0.9767909637225114 -0.193709516470016 -0.002799006993654336 -0.004240943900297918 -0.0008953118670989159 0.0014223443936968478 0.02978857674971181 0.25287121510428295
23977000.0 0.978768652952046 -0.19952566162886773 -0.00604432182597597 -0.0018672351514018046 -0.00031795371891602583 0.000497698466364393 0.048945701092500245 0.2559049760376175
24976000.0 0.9720134140054443 -0.21307113562019792 -0.0076122234941570785 -0.0034349975649922955 3.722125848366816e-05 0.0005702671289747832 0.07161848141503714 0.2616099438118016
25975000.0 0.9756638351737444 -0.22300378447474947 -0.004900618881478049 -0.0005569171260877469 0.009750804865783317 0.02313802463996044 0.08559009237794298 0.2594373671053289
26974000.0 0.9680774600905903 -0.23053005184043046 -0.007220714492433945 -0.0004815650103468932 -0.0005679572413205445 0.0020177269725350747 0.0869710148176772 0.2649266429334607
27973000.0 0.9695305049877614 -0.23599652483071973 -6.144876204472604e-05 0.0006707124672719754 0.00029561834287218495 0.003211961363040736 0.10259331439491925 0.25660514625288644
28972000.0 0.965181165789604 -0.2479295453430688 -0.002380458568441759 -0.0019394216952308778 -0.0011404001915854385 -0.002043959296544796 0.11613277388494572 0.2617320188012695
29971000.0 0.9637914357962456 -0.25466998092396215 -0.0011432172438927731 -0.0039459275228222596 0.0037856185330616865 -0.0015754106068704393 0.1524802677689057 0.2658725322445379
30970000.0 0.9630287583426681 -0.2597239163688607 0.0020642434984452073 -0.0019375193658197822 0.0024246366536203614 0.004028634018078665 0.16334834028990317 0.26160548491485036
31969000.0 0.9597731458011343 -0.2704953815206364 0.004543000765597163 -0.00604478647674867 0.00023966716962119607 0.0016675055563714818 0.15459785060502193 0.25610398497154885
32968000.0 0.9569629688905755 -0.27928124449045155 0.009653970043184777 -0.010301179491285981 0.0007294478495009801 0.00265993700450582 0.16479485511721792 0.2532650123149567
33967000.0 0.9555826184536191 -0.2894603607859373 0.01334466552173807 -0.009044066341698033 -0.002242977798574663 0.0016687879918075746 0.18843676248826477 0.24437194526569797
34966000.0 0.9519768648624428 -0.29567643304239594 0.014616648352101322 -0.009464571464203419 9.430243934323563e-06 0.00036330136680857555 0.19653002916982973 0.2642146201452635
35965000.0 0.9489545783483374 -0.3049546182905407 0.018472896706237155 -0.0181524504144948 -0.0003526169911732255 -0.001191122841638066 0.2164624810350327 0.2579175851006637
36964000.0 0.9453833407252032 -0.3136037747146139 0.015112476470298397 -0.012988739513312189 -0.0011178683642109118 0.002843787552911859 0.2146857348132628 0.25921768664134276
37963000.0 0.9454593644380571 -0.3228871020672473 0.021565902444242096 -0.019453347309279008 0.0028327623372282336 0.0005046033515170469 0.22618321912381717 0.23995269442076977
38962000.0 0.9405567908142466 -0.33336438611556185 0.025016044640361265 -0.02345003075310249 2.8320124457468924e-05 -0.0007850590276705599 0.2382425295951731 0.24639911515485008
39961000.0 0.9376818956698632 -0.3403919909133761 0.024509407864280706 -0.02747394025076008 0.0009941278283668088 0.00042668727338261757 0.2471529885998638 0.23691348185393674
40960000.0 0.9355064747617786 -0.34890986452060874 0.02367496598810621 -0.02407086747007706 -0.0012254907395223152 0.0011888556867193972 0.2714035021007634 0.2305485815016889
41959000.0 0.9320692232614525 -0.35746406363828054 0.031074577467349436 -0.032953588047975886 -0.00206332193148385 0.0013179914924830718 0.26738330061095544 0.2238115222221399
42958000.0 0.9253810989220395 -0.3680309889232679 0.031054834524768246 -0.039264323501612276 -0.0025522659047004926 0.0012641380613696333 0.2799528124556029 0.2168741767527846
43957000.0 0.9251533780607465 -0.3727259642589841 0.03192697987604764 -0.04293496439086038 -1.7586411245794502e-05 -0.0007830867826338175 0.2857948689391738 0.22201992048697003
44956000.0 0.92177377265529 -0.38216975170836537 0.033570383506337925 -0.04754286030065288 0.0016541195285122063 -0.0006875792532927065 0.3028304471968378 0.2025957610009726
45955000.0 0.917628863151487 -0.3909252421426756 0.03279576180867756 -0.05423814307024611 -0.0026437746279944266 -0.0009722359825931828 0.3072790944015979 0.2047458986371495
46954000.0 0.9135644927590708 -0.3996493917809232 0.03506737971834569 -0.0608590075018428 0.00048438659699934905 -0.0005656804177558122 0.32627716161923503 0.184139365999494
47953000.0 0.909423493717604 -0.40879446253400636 0.03481694575740153 -0.0723444834718319 4.978922281104214e-05 -0.0001479190432582377 0.33495153793205046 0.17622317937761245
48952000.0 0.9041204310500388 -0.41950592309393187 0.039312992843151984 -0.07678266412644381 0.0009946927590404823 -0.002523319614006207 0.3308011997047928 0.18257376831261873
49951000.0 0.9030632006296047 -0.4243022016212199 0.03557447566120858 -0.08464755758088995 -0.0018217773123799577 0.004829368086219734 0.3509291465873498 0.16007134424522818
50950000.0 0.8986565931707741 -0.4328504290487626 0.03799545091654016 -0.0941337369005331 -0.0001204171224317824 -0.001413412753704398 0.3521132256416287 0.16719353363167921
51949000.0 0.8947705221798535 -0.4410889935500456 0.03673474208419682 -0.09840567726735862 0.0007375079669836395 -0.000154041544528283 0.3652528971284904 0.15588452817468573
52948000.0 0.8905278969059132 -0.449659355604141 0.03678408229533139 -0.10909313286330302 0.0017283990669915894 -0.0024028845213664766 0.3706191841383636 0.15039523931831675
53947000.0 0.8856503724278221 -0.45808679840338107 0.03987031521489159 -0.11808343986023266 -0.00020920371136828894 0.000625729474152156 0.38351565652022507 0.141927199214459
54946000.0 0.881483861022955 -0.4634128651138895 0.04215390182598846 -0.1277218622737898 -0.0012636674129468148 -0.001962542581259399 0.38227696254747456 0.13359646265705064
55945000.0 0.8769208723217193 -0.4739707520538738 0.04058892205700661 -0.13689698365417055 0.0010601121542059982 0.0038181839414314126 0.382336494633105 0.1194683337444264
56944000.0 0.8739408658319854 -0.48235382436427293 0.043934858581109106 -0.14820182588692332 0.0024915130547571943 -0.0011518379096793416 0.4002552778818427 0.11436099338069294
57943000.0 0.8686480955543744 -0.4929286498254676 0.04529488238229191 -0.15691484302660583 0.0002166741466682179 -0.003077997138614331 0.41047261623559117 0.10894740204001711
58942000.0 0.8638716479191989 -0.4979523107882596 0.04314348282155617 -0.16711742512038077 0.004654729856035678 0.001768869567670289 0.42127345685017475 0.10797975596612504
59941000.0 0.8602671568942282 -0.5044124148245376 0.0493569580175944 -0.17663156533683166 -0.0008283080201953823 -0.0007433120424492033 0.4279741286930799 0.10664456042203517
60940000.0 0.8519515587487118 -0.5138462354037832 0.048613427998389885 -0.178318150087436 0.0014942904904265328 -0.000862582244525026 0.41366026394693073 0.09024183297454476
61939000.0 0.8490812355330387 -0.5215467571202879 0.048606163787046124 -0.18890213266225148 2.0017637546013075e-05 -0.00021048673123404252 0.4208361496671066 0.08501609847325779
62938000.0 0.8442439282260045 -0.5311496702573815 0.054327015389238856 -0.2023181007693019 0.0022186961042712414 -5.1954721793270536e-05 0.45101331415651064 0.07265002526194081
63937000.0 0.8385146654502419 -0.5389450581969083 0.053599328453830836 -0.22329529956382504 -0.0023275643359567714 0.002688661586976337 0.44043768434376696 0.050952070091315436
64936000.0 0.8322754404657126 -0.5432725088816883 0.05607043377060691 -0.23397696593300799 0.002728740866654796 0.0026428241087798547 0.4404588190103627 0.05533306617427354
65935000.0 0.8285369550856672 -0.5543308677517167 0.05451041758683533 -0.24926721932991677 -0.002648994826086076 0.002560125129650737 0.4481624366935676 0.03793455143393727
66934000.0 0.8237347252745338 -0.5617492396736182 0.054705510907493905 -0.2608788551175431 -0.0021909732577911948 0.00028080173255847065 0.4437674487992473 0.029657230621490425
67933000.0 0.8197800033372626 -0.5693234253904872 0.05677205401122602 -0.27572180138027974 0.0012188828462802433 0.0031952294356342816 0.4531323182539862 0.021295210322292223
68932000.0 0.8177048674200619 -0.5697154913617313 0.05282624405578543 -0.2871433336481427 -0.0028734957625516206 0.00027482701641920324 0.4540852525892965 0.008812904429007389
69931000.0 0.80741204949173 -0.5843928675716057 0.05253019788939948 -0.3038232776472871 7.225990081208099e-05 0.004134068151847358 0.4621257223616907 0.0008442598211432863
70930000.0 0.799651958257224 -0.5915190608335347 0.05283052567707276 -0.3164185205316594 -0.00020559577357625217 -0.003476619804923682 0.45343188275275054 -0.018401871543293515
71929000.0 0.7979113247637865 -0.6002464034200449 0.04871157162320628 -0.33504173270953463 -0.0037626717688234303 0.0002306872574030886 0.4578708731573896 -0.020526168435672704
72928000.0 0.7884241860794466 -0.6114433335845294 0.03928574080758536 -0.34605831369033635 -0.0022564317220350794 0.0016152675871798476 0.471527161054426 -0.026754214662430536
73927000.0 0.784461970719086 -0.6154693544568469 0.03687752093847493 -0.37071457106169275 -0.00266060461714943 -0.0025321751230914374 0.47011674549399307 -0.04059894054893698
74926000.0 0.7772465035184586 -0.6252590069565817 0.029497080783392023 -0.3854370053500344 -0.001112849317470515 -0.0011958198546208412 0.47101349043454727 -0.04004444690284347
75925000.0 0.7708977411375502 -0.6317605158958755 0.01831683237564313 -0.40295103141742 -0.004570391776822604 0.00036494902769608646 0.4813659283586724 -0.05738467630302949
76924000.0 0.7659334488912468 -0.6385961903539354 0.006251978871990959 -0.42743232945113563 0.0015381601765295893 -0.0015615469192881981 0.4723711235794792 -0.06469545960011694
77923000.0 0.7601810831457767 -0.6430034540282918 -0.006394515666506035 -0.44762737066979136 -0.003670655461976735 0.0010962814446392685 0.4730772504724544 -0.07023679952434232
78922000.0 0.7532142928363565 -0.6549612893347417 -0.018730322299060846 -0.47319078252694585 -0.003321379571302302 -0.0007192879249346104 0.46967261541381683 -0.08820078253249737
79921000.0 0.7448256491944275 -0.6586808163496942 -0.03202009340031125 -0.49979971205058266 -0.0033037729205006106 0.002050476174396295 0.47037310333895777 -0.08803143920939911
80920000.0 0.7402481830964516 -0.6701955560964296 -0.05365716343607712 -0.5260266123505484 -0.0031449171845327312 -0.0032786341600475524 0.48250659263620044 -0.09720124910516172
81919000.0 0.7357786101732583 -0.6753309088206376 -0.07002208679216727 -0.5575596496755034 0.0008453304961754448 -0.004042294858856758 0.4752074167540846 -0.10542120748174787
82918000.0 0.7261284809053429 -0.6820139190647792 -0.08094409672747056 -0.5800850066067679 -0.0012015421313185256 -0.0023031374416579084 0.4828240349356351 -0.11805025906990875
83917000.0 0.7168938182400892 -0.6918715657021511 -0.09760202796774545 -0.609645464999604 1.9937577492010737e-05 -0.005639388643736106 0.4829317209486024 -0.1197495349077447
84916000.0 0.7122368121748964 -0.6982181953107074 -0.11711060237870784 -0.6403431512575865 0.0039730837105387265 -0.0009583983595310626 0.4856334910407745 -0.13883771614568544
85915000.0 0.7054405328159682 -0.7034297426391087 -0.13492104704460908 -0.6706803942045617 -0.0009541499297901724 0.00021240784775852531 0.4888192874720354 -0.14928857187786213
86914000.0 0.6977198190535389 -0.7143124667411994 -0.14937947602875004 -0.7077592278673419 -0.001493113637426195 0.0016740971406199573 0.47155547420338606 -0.1504923750786719
87913000.0 0.6906502899016012 -0.7189809976681124 -0.1629531969245108 -0.7363022181503202 -0.0019887329290646447 -0.0024778829053960475 0.47966946959937046 -0.1622994303848864
88912000.0 0.6826253589844273 -0.727995451353497 -0.1844191031359503 -0.76814355980346 -0.0018506615398460376 -0.0016442486361358775 0.47557023486445354 -0.18039930444424804
89911000.0 0.6732652651347373 -0.7347626429616929 -0.19749397843214916 -0.8025495632296125 -0.0007001795671338949 -0.004801308644918403 0.4831093650463195 -0.19093537997066432
90910000.0 0.6671518848307451 -0.7410479746762583 -0.21176425240640795 -0.834474170929667 0.003411482009510249 0.0015697227056037366 0.48541156114807577 -0.18988220584559234
91909000.0 0.659683017526768 -0.7447082543061931 -0.2287852095742808 -0.8690524308976141 0.0004043446624936278 0.0007535336972278775 0.47436748390574524 -0.18676787207100826
92908000.0 0.6523389772557489 -0.7547649569521121 -0.24307551802898714 -0.8996655304433641 -0.0023656218241568158 0.0008859106670951533 0.46890043802465897 -0.20886326993581927
93907000.0 0.6438471060579792 -0.761057230835346 -0.2574064366169402 -0.9284323990674654 -0.0012552212508471722 0.0018809713716911429 0.4701523121875049 -0.22167433010103563
94906000.0 0.6327585288703637 -0.7678915833988631 -0.27573699507844857 -0.9624607898143736 -0.00037316029714337743 -0.0005590036560532196 0.47472713100395897 -0.22047689170693147
95905000.0 0.6259924794376625 -0.7741190609463687 -0.29618768882289626 -0.9976236373180776 0.0012969633525382717 0.00199919053736073 0.47178603165815597 -0.24302076733738093
96904000.0 0.6178533587706789 -0.7820686941348508 -0.30996780155314596 -1.034613819356918 0.0020762737612622178 -0.000979570075693436 0.471649247128685 -0.24171418173732506
97903000.0 0.6085093480131222 -0.7880153338010911 -0.33233930939639916 -1.0624343251979975 -9.083280923020014e-05 -0.0011873479049980887 0.460142931685299 -0.24444687495048537
98902000.0 0.6019340960338486 -0.7937185367351032 -0.3490563643361743 -1.1023930199672038 -0.003315739605762099 0.003592087359597564 0.4621542822645364 -0.2631678902954369
99901000.0 0.5908800370611847 -0.8019313691380162 -0.37551272189646107 -1.1304550780879845 -0.003217026448488029 -0.002704851908151073 0.4720753069271542 -0.2785628376051499
100900000.0 0.5832770634696851 -0.803417154902222 -0.40921554347128425 -1.158279551499767 -0.0003767372845890396 0.0022386282414202847 0.4735137816861465 -0.2855017241949414
101899000.0 0.5753464708441454 -0.8124938702705313 -0.42939270245111727 -1.198469226699512 0.0002488406994538162 -0.00347047334327687 0.46577413649116306 -0.2856710409840511
102898000.0 0.5642505587287765 -0.8175393301360269 -0.46612315567508633 -1.2329426656031088 -0.0013736224790594556 0.00011584313999350706 0.4735238621079747 -0.30782462363226853
103897000.0 0.557234237229559 -0.8263550250129733 -0.5016900881951023 -1.269174693605175 -0.0004792187178062131 0.0022242814412041408 0.482028751471174 -0.3050661274349239
104896000.0 0.5485142691262594 -0.8341880475899217 -0.5371556803356181 -1.3008640482322427 0.0009183704572585359 -3.316997248640459e-06 0.4614874091067651 -0.3079856015724196
105895000.0 0.5378790419648906 -0.8367228576015665 -0.5795544891836667 -1.3393122345693178 -0.0026170673153698416 0.00012033578187260027 0.4515311807792799 -0.3299634372836925
106894000.0 0.5293657473269874 -0.843269484937016 -0.6320709603464766 -1.374167076730731 -0.002275005957888946 0.0012173715017075922 0.4542905303361111 -0.33542293538745216
107893000.0 0.5201324323905817 -0.8506195866787085 -0.6853635412058194 -1.4130186106593992 0.004015044081327746 0.0026732144682376354 0.46682290728991305 -0.35091876632547486
108892000.0 0.5099768755890085 -0.8537613159809203 -0.7456740477032602 -1.444257257972705 0.00270593949319935 0.00198957148281836 0.4445796547093751 -0.34166704581579543
109891000.0 0.4980782076514524 -0.8623636468037812 -0.7975593528361389 -1.481705403757643 -0.0007786732490085924 -0.002504417422032199 0.46458735457263667 -0.3491938468189254
110890000.0 0.4792880351281034 -0.8647405861575146 -0.8610025881319658 -1.4760200020426744 -0.003043919355918106 -0.00259250241324229 0.44336345800611676 -0.361205405366335
111889000.0 0.47548105358190834 -0.8669945368262931 -0.9185318580986979 -1.5429783199247338 -0.0031212188092359394 0.0001830412825916236 0.4435178171539043 -0.38765157808531614
