! Created with skrf 1.9.0 (http://scikit-rf.org).
# Hz S RI R 50.0 
!freq ReS11 ImS11 ReS21 ImS21 ReS12 ImS12 ReS22 ImS22
1000000.0 0.9907629567922475 0.005165336800319257 -0.011789419711283387 -0.06965092388677413 -0.020940921081585885 -0.0018891743257020534 0.27526973628173934 0.3160657312844619
1999000.0 0.9942337499822833 -0.008395593142051136 0.00042032996667554234 -0.02313252705547138 -0.0031308810010300175 -0.002903399331729839 0.2571826086376834 -0.05157754967111371
2998000.0 1.0005159327061288 -0.02060750903299325 0.010837463683905122 -0.01907927869470011 -0.006617317935382418 -0.004509902437688221 0.19845523120694153 -0.14788646941015052
3997000.0 1.0008536896425047 -0.025792208393719155 0.017857754349990467 -0.007077595798397684 0.0024014891776918262 -0.004199893793743961 0.06966643761686452 -0.21099089423353207
4996000.0 0.9971053021480073 -0.03927366116586185 0.014679985481855498 -0.0023018473278242856 0.0016856934491816188 -0.006030621535910389 -0.05155363542286639 -0.19877967621224804
5995000.0 0.9983413870936365 -0.04429204424627261 0.0099892906693744 0.0051125594389551665 -0.0021277881404281676 -0.001396308672877613 -0.12867867422700047 -0.11334929210269239
6994000.0 0.9958802965976642 -0.05746348900439479 0.009213928378572813 0.006138676352319819 -0.004879337321206883 -0.0008389382758216696 -0.13781903987922273 -0.02235113300168965
7993000.0 0.9983352866918894 -0.0675288369518747 0.0022121693560073997 0.0035685673644814116 0.0017594567646070955 -0.0011319568867577652 -0.14627081763615726 0.04215525227370874
8992000.0 0.9958616073832061 -0.07479977127062061 0.0032093949971838107 0.004202001753385109 0.0017763180459035507 6.788931574814553e-05 -0.16297360227276628 0.061609412133927954
9991000.0 0.9955370847440553 -0.08289329939933378 -0.002412508236511446 0.005981941633555482 -0.002245692084615756 -0.002808028236698153 -0.1373062947323151 0.10719629383464067
10990000.0 0.9944494213791744 -0.09262978531026293 -0.003107067374568627 0.005626937734406807 0.004343560079140634 0.001039761411584798 -0.13655644313029228 0.10759747080950952
11989000.0 0.9933254829267321 -0.10035461859513234 0.005668273768106141 0.0015112576564569695 0.0005602324116790337 0.0009987313248062733 -0.11972256716904688 0.14370917331699132
12988000.0 0.9908524971316607 -0.11062467247839627 0.0011093145470161317 -0.002002521409093644 0.0013643163587805486 -0.0011365989824312641 -0.11162039480658456 0.17663041729334783
13987000.0 0.9901604543044888 -0.11633666187633335 -0.0016896549096244943 -0.004615132151399551 0.0050259425129188726 0.0021264829690911535 -0.0945723273397746 0.17980722846286945
14986000.0 0.9890061029142627 -0.12348106141163008 -0.00268897910628667 -0.0008323686044311975 0.0003516095849227512 -0.004287475100897316 -0.08644336099168747 0.19898909370181775
15985000.0 0.9908716309351112 -0.13273472802922642 0.0013212218642343358 -0.001310014729981746 -0.0020186497759447056 -0.003781294671151455 -0.06594500793488656 0.2112268065983997
16984000.0 0.9888017964393225 -0.14361368289744747 0.001582779184957303 -0.002383360926227057 -0.0032155585293848757 -0.0008960650189155779 -0.057649310832742495 0.2152146102358059
17983000.0 0.9889649086777454 -0.14695743131947636 -0.0023590058847989793 -0.0063991390474956705 -0.003551752753192427 -0.003104243163186482 -0.044346343515358044 0.22149906920268958
18982000.0 0.986135183717717 -0.16124896557505283 -0.002423279781723438 -0.006004975278049895 5.842211503658673e-05 0.0002729058032163146 -0.02173124061784335 0.2313914158911246
19981000.0 0.9845169874940528 -0.16176520823908647 -0.004359283200800588 -0.00705378779315892 0.0026956956135193414 -0.003564806437978447 -0.0112575997133029 0.24468940336567896
20980000.0 0.9841282358065454 -0.174231275385037 -0.004124780599604726 -0.0020759724587104903 0.0017341624112545333 -0.004845903670347964 0.007307694238350674 0.25837465257133635
21979000.0 0.9803595028087041 -0.1841183942621447 -0.005927512198339615 -0.0017815512854069237 0.0019518785599000024 -0.0019781963864598205 0.023337265451283288 0.23846550694198174
22978000.0 0.9788526307872657 -0.19451618962659353 -0.0037985733568200713 -0.007323068733239959 0.005892165578843885 4.618830039161134e-05 0.02719853535681416 0.2584884204030891
23977000.0 0.9808202686547575 -0.19803560493004604 -0.006614813416223758 -0.00205334314283954 -0.004194803140567856 0.00022020138125600499 0.047385352109998655 0.25404437027647636
24976000.0 0.9741276417429867 -0.21052335265534586 -0.006584174718503515 -0.001916193475179151 -0.0006324540732678178 -0.001115578066648832 0.061251543433488716 0.24843891503310314
25975000.0 0.9685925305106173 -0.22054988574932163 -0.003723504862392989 -0.00292773205562527 -4.108589082626925e-05 -0.025480456396635816 0.08799839340650331 0.2698382127426067
26974000.0 0.9734840933274717 -0.22498118892563063 -0.0026611662442129905 0.00018428829822136257 -0.0010686747779153987 -0.0011515282499129033 0.09232641655733238 0.2538983326532925
27973000.0 0.9710687442599257 -0.23133028200918912 -0.003146809374629183 -0.002078609937974388 -0.002134078547340135 0.00017712047293189735 0.11295383163054958 0.2537664047209115
28972000.0 0.9696414153634092 -0.24052639949087623 -0.0028263746543704667 -0.001639135989243182 -0.0014617635388944575 -0.0004932820557244626 0.12498957313233844 0.25056602033036285
29971000.0 0.9650467983909763 -0.25161905617684543 -0.0014739357083251325 -0.0014859297171212673 0.0005076607241989719 0.0011816786344987268 0.15742244077230114 0.2662508136124495
30970000.0 0.9645801073728087 -0.25472246873148197 -0.001367389527569516 -0.0011415607545782293 0.004244058378347566 0.002494297103710347 0.17402563858289016 0.2509284847358253
31969000.0 0.961193445000948 -0.2649512293087343 0.005145851964028246 -0.002403758817936326 -0.002085111275955864 -0.0016583128493386616 0.1570821121044197 0.2539978035078542
32968000.0 0.9604781659186992 -0.27611874690873783 0.007232220876485031 -0.0053751886663385194 -0.00153077615842973 -0.002644253492780735 0.16670596922624806 0.24370565696006571
33967000.0 0.9579594906029377 -0.2838560089284 0.010179655335324993 -0.00885859426716166 0.0004873208183618554 0.0016244178469224388 0.19516471337179073 0.2449536142201351
34966000.0 0.9545555531231081 -0.29335133012113146 0.015498272995845061 -0.011438662311488164 0.00027650755483074884 0.00040099498094928865 0.20461162159241061 0.24379015836231815
35965000.0 0.9524937687183037 -0.2994814384111354 0.01697463249635738 -0.01564169169826615 -0.0022115709050880604 0.00025542822512200473 0.2198865033594474 0.2550401970089337
36964000.0 0.9509795539771765 -0.30854081802959316 0.017089039696180905 -0.013982211395639576 -0.0017859540670633665 0.0017885480453540576 0.21228225101551698 0.2528016704865398
37963000.0 0.9450597999079473 -0.3170977888963449 0.024821906692312795 -0.019189540907956014 -0.0006060527372715158 0.0003013003454672814 0.23358117705161166 0.24586450528733025
38962000.0 0.945569049626605 -0.32383406838879514 0.023649691823149743 -0.02509455262004175 -0.0004849358505873827 0.002280798338213857 0.24942995940776583 0.23576210976287154
39961000.0 0.9411638144423734 -0.3336002554574586 0.025968528240794785 -0.029301498020699278 -0.003776045763593209 -0.0032272959311705177 0.25854638147236364 0.21949671410193594
40960000.0 0.9395274115885371 -0.3378407469263345 0.023453075195763833 -0.023122605515638744 0.0015897959517220466 3.240336783548628e-05 0.2759879934791818 0.22594357667421103
41959000.0 0.9370702349220565 -0.35046926069503154 0.029123381278336496 -0.031290652612827353 -0.001273817000739772 0.0026136820378780453 0.2772258273649985 0.21839622654888535
42958000.0 0.9310139091486003 -0.35859775702288194 0.03226291682007833 -0.03957033820781301 0.0006539731095742914 -0.0030326183594342583 0.2823330969543881 0.20391467836853752
43957000.0 0.9308374103214634 -0.36268424360045143 0.030021476662541836 -0.044944876611917144 0.0005033483474279676 0.0035515031540127536 0.2965681719195808 0.20863023449461482
44956000.0 0.9262792704867279 -0.37144188435686026 0.03395007094926477 -0.05250934303930957 0.0008607519388506977 0.00011063310550104304 0.31567594708574614 0.19523629884966884
45955000.0 0.9220795556372369 -0.3831583818224988 0.032202973255380345 -0.057260802245194385 -0.00010746573487871462 6.935932950388018e-05 0.3100602823954187 0.1875830772587793
46954000.0 0.9184877361779832 -0.3918033269583651 0.03429949258632049 -0.06212532647906928 0.000100158973963922 0.00038242906769163663 0.3438300181007341 0.17974390560141074
47953000.0 0.9168171958830489 -0.3973051436341381 0.03955816842007714 -0.07284705961875751 0.0030393986583260187 -0.004599639376273536 0.35017382311288764 0.17020753152109375
48952000.0 0.9114845581807388 -0.40631132349845156 0.039378057445960575 -0.07634004108141826 0.0005528605300307622 -0.0010931349413087594 0.339991916691744 0.16612181737891685
49951000.0 0.9079135831336521 -0.4149291977511501 0.037415550804753214 -0.08476269237835081 0.003109530443087485 0.0014737303736138947 0.35252578717508487 0.15876434272715895
50950000.0 0.9032337553980178 -0.42332003278559094 0.039706327484729506 -0.09416007124304555 0.00013947007207596644 -3.489608720092734e-05 0.3574216311254048 0.150492640609616
51949000.0 0.8999210522838638 -0.43006665287174173 0.042423647997200276 -0.10325926830972436 -0.0019794530131540668 -0.001329151689806429 0.3670263377578232 0.14654574355497435
52948000.0 0.8995997810623705 -0.43762260915717677 0.03903281247402291 -0.11191979220123563 0.004040893566685715 0.0012741553804846567 0.37939080557650945 0.14498258659924385
53947000.0 0.8917091549644239 -0.44755351986732594 0.04077315519990435 -0.11688858433112496 0.0033818242834177796 -0.0007776755981396248 0.3773443466581489 0.13658736772167018
54946000.0 0.8863664686823193 -0.45507604732465895 0.045531264335849135 -0.127645898980222 -0.002083907536593511 0.0028139231667955625 0.39167700831588764 0.12248427930439104
55945000.0 0.8847276619121867 -0.46108132697431536 0.048306209562688565 -0.13726603519114122 0.0020528816612505347 -0.0009699395665201228 0.39665501534019354 0.10440820311024801
56944000.0 0.8804877468658706 -0.4714195638060247 0.04636336438624562 -0.14907737520089429 0.00048754494152805807 -0.0012053546688698736 0.405704189120429 0.1063200054669637
57943000.0 0.8755190546061123 -0.48099329016798065 0.0477438796004497 -0.15726911166337706 -0.000501180581562379 -0.0004723305270197931 0.4054393378393102 0.09447606540506272
58942000.0 0.8713103701494707 -0.48408730559992214 0.04967684628594512 -0.17006762536662462 -0.0019514207848762794 0.0019635533169620953 0.4232726530795698 0.09774139547741352
59941000.0 0.8682367507756201 -0.494661917722189 0.05282484512502499 -0.18036879289521543 0.002170740932365298 0.002172491065471579 0.4246293838793009 0.09494538463967245
60940000.0 0.8604140662120817 -0.5011731814855934 0.05125907910240447 -0.18366961952338073 0.0009478789509322021 0.0003428055652825201 0.4259243836368 0.07326274992178508
61939000.0 0.8590194676400268 -0.507838692709058 0.05370965217303905 -0.194895408277212 0.0033994032114739886 -0.0010631179508503923 0.4307992443871703 0.06654257702052961
62938000.0 0.8526150727508787 -0.5190467658294521 0.056645377349932254 -0.2079371172629932 0.0009222169898734694 -0.0013695977115480724 0.44944994937553145 0.05696977422574374
63937000.0 0.8473725108758473 -0.5267126118833324 0.05819753655783142 -0.22813276239332628 -0.0004713217178366343 5.8822741022568025e-06 0.4411575143109396 0.04906595207099418
64936000.0 0.8420497727463744 -0.5313022239919379 0.05715206885180149 -0.2420370044894147 -5.8620428844159725e-05 0.001826800165622252 0.44344929995965277 0.041379248501439744
65935000.0 0.8390736076034511 -0.5429049911166132 0.057710379843311226 -0.2569983144357774 -0.0024444511732635205 0.0011653494406531455 0.4480520812370456 0.017207207863566772
66934000.0 0.8346296713114756 -0.5483981164943021 0.05784307449742273 -0.26990192020407267 0.004116632457728762 -0.0037393486077756987 0.4385654907231295 0.018476061790693023
67933000.0 0.831245443255676 -0.5569916278685657 0.058854738153142475 -0.2833524903525025 -0.001056461618995271 0.003682259060982251 0.4537746297420748 0.01469662519536226
68932000.0 0.8169427540137025 -0.56222258610848 0.050988966840284165 -0.2979072490869774 -0.004781076513666733 0.0018771455397129874 0.4578226148185384 -0.012358660529208166
69931000.0 0.8179269624801533 -0.5718799378304766 0.057323137379224016 -0.3136655439756854 -0.0018982530698437904 -0.004258410044116069 0.45535413073136166 -0.02117867727045306
70930000.0 0.8105752146437719 -0.5796042330601143 0.05584120378790583 -0.326379847431666 0.0011124712972368932 -0.0018083484293752862 0.45899726339354063 -0.028591062163736553
71929000.0 0.8090381465414619 -0.5865585214535342 0.05364350631969136 -0.3422000009640842 -0.0006936534539483391 -0.003731893930182038 0.4680765345291008 -0.03973194295573116
72928000.0 0.8004126728428346 -0.5960248458936837 0.045983690848774565 -0.35760717545683324 0.0012680354269562742 0.002095518810720586 0.47775274105991933 -0.04468827151382857
73927000.0 0.7957850600154698 -0.6006829830128164 0.03997562064081738 -0.38227738626733 0.002598639650398681 0.00042404065756106526 0.4668977747709479 -0.05137502713553726
74926000.0 0.7895929984181438 -0.611040432407746 0.033663389832510784 -0.3954849403640767 0.0075123346931409525 -0.002680545268304722 0.4691400231282041 -0.05864057772795362
75925000.0 0.7846592184791342 -0.61527781551159 0.025741960292469262 -0.41712238241199795 -4.516818894412616e-05 0.0015288983345476956 0.4787053322795515 -0.06836231039377005
76924000.0 0.7782936002168176 -0.6240330666259156 0.012770903027800823 -0.43852614285246955 -0.0010337730121152795 0.0015824734077064622 0.46812984531926904 -0.08583329388621425
77923000.0 0.7727588171422292 -0.6293578887230562 0.0016620271654048818 -0.4615720029934024 0.006352390170667501 0.0014838978187216665 0.4640159247469273 -0.091721025240966
78922000.0 0.7681452101770898 -0.6404563455810197 -0.011270735324613014 -0.49242923750955575 -0.0002293669464975574 1.8793013163051796e-05 0.46995209737174165 -0.09365441324839453
79921000.0 0.7599619755872823 -0.6433844657671454 -0.030673533806807325 -0.5119893315832789 0.000565409826733203 0.002623590498819229 0.46852916619000123 -0.10336828278201288
80920000.0 0.7534782044142161 -0.6544355152975186 -0.04610065069602402 -0.5401523866509277 0.0005050199464586246 0.00019654565295607008 0.47605965217300317 -0.12623141799456758
81919000.0 0.7490243250311879 -0.6612073247942535 -0.06125188518882428 -0.5690546349190165 -0.0018593343570850634 -0.00044714018876307077 0.47201976956702174 -0.12289084904864027
82918000.0 0.740216612217961 -0.6689639692588568 -0.07770997740773708 -0.5991708282328913 -0.002033163159801706 -0.00035106227232379 0.48721588939176624 -0.13753904261768812
83917000.0 0.7352550181305735 -0.6760163337403986 -0.09394692802038207 -0.6261792162284957 0.001531340362816628 0.0003887458326434357 0.4853045399791596 -0.13741156886018102
84916000.0 0.7280364808192317 -0.6846047651319325 -0.10854521777031571 -0.6623579620659774 -0.0025747948432047084 0.0007371018472710816 0.4703518535667814 -0.15994517275708284
85915000.0 0.7206748513291361 -0.6897643288136373 -0.12540125949955555 -0.6925631183371845 0.0003662748019847444 0.00015503779924920345 0.46537775055768016 -0.16472405427220876
86914000.0 0.7138487277968097 -0.7010397161900858 -0.14396577605760072 -0.7289356025172132 -0.003724484248885378 -0.0004699953375659356 0.4728395089429645 -0.162068639654858
87913000.0 0.7065673262110852 -0.7059739536951188 -0.16348149937386094 -0.7607378092401312 -0.005762352499907163 -0.0022547338648748944 0.46332200205362817 -0.18315970632761394
88912000.0 0.7004244424720526 -0.7124840512662121 -0.17817687381872124 -0.7927180828643859 -0.0021354332255400653 0.0037460968417486955 0.46517762393765827 -0.20476108876374582
89911000.0 0.6944034494223589 -0.7214468419830595 -0.1921901070694131 -0.8308064392604618 0.002796715736891392 -0.0014328098472316689 0.4759207330197549 -0.19908468048029004
90910000.0 0.6852677696392154 -0.7277457260538842 -0.21401063391109892 -0.8675661547887685 -0.0013270047908835031 -0.0030307648647614066 0.470585270722956 -0.20992624432071916
91909000.0 0.6788316108553347 -0.7305986625614306 -0.22587942472780237 -0.8983024894636756 0.000639270489015851 0.00027444804722831376 0.4730457005516296 -0.20903131032364025
92908000.0 0.6696271556186102 -0.739467349798576 -0.24649668893826165 -0.9292115980030995 -0.0005281259904665024 -0.003249542257234821 0.4624620531030677 -0.22238053939294092
93907000.0 0.6640709142891875 -0.7431872133723256 -0.26184074017268877 -0.9622541275997825 0.00047343191076356164 0.004027646945976244 0.48343580131492175 -0.2437652330768264
94906000.0 0.6522462981623779 -0.7533060968606814 -0.2826115827437475 -0.9983169386868451 0.0002856826138538962 0.0004295644091479247 0.46702707038250996 -0.2479601212915698
95905000.0 0.6451328197553053 -0.7594871511530454 -0.3036650174346139 -1.030737916884033 -0.0005662890944227336 -0.0008419572510833792 0.47440823809997973 -0.25141075800146845
96904000.0 0.6372988214489398 -0.7692072467090988 -0.32157762025742365 -1.0742114687181346 -2.6838913574770975e-05 -0.002217668749209206 0.4630811530280321 -0.2631419616086121
97903000.0 0.6285166860163894 -0.7728615244873919 -0.3380130656464042 -1.1044255609923739 0.0025986361413040506 -0.0023276046517629223 0.4513603356587375 -0.2806533470583093
98902000.0 0.6238364024813061 -0.7806711694825048 -0.36196443652087384 -1.1464662595484991 -0.000492808548941276 0.0019366255188204029 0.45786161011794135 -0.28855085888142196
99901000.0 0.6126583764545571 -0.7856218014929742 -0.3873146320096637 -1.1705978651185978 -0.00019200812531597176 -0.0007196391289352226 0.4625451346141128 -0.3089826895552764
100900000.0 0.6053279630449668 -0.7901325660253672 -0.4158764666468921 -1.2052756452253135 -0.0006475734381514034 0.00041160119579122995 0.46775338838183633 -0.30210810942328403
101899000.0 0.5962286477948812 -0.7998280461803572 -0.4439182815969986 -1.246255529204572 -0.0005772174901638126 -0.0001399879412106586 0.46252010439016933 -0.3139333612646271
102898000.0 0.5881192769355467 -0.8046224494990242 -0.4719108647646687 -1.2829588073126363 0.0020836436823025977 0.00011250948721455569 0.4619112104525976 -0.3310492506308028
103897000.0 0.5807719415304792 -0.8099114813014554 -0.5080244259876534 -1.3203853851693887 0.002419050186985329 -0.0011922533765296053 0.4683191467139804 -0.33436178791555904
104896000.0 0.5732130558941098 -0.8203860053276971 -0.5546922511930075 -1.3522053588443708 2.7007869000441797e-05 -0.0006949281018376973 0.4456834347180233 -0.3296965838812187
105895000.0 0.563545739241079 -0.8239404693011662 -0.596347656979971 -1.3985612509430894 -0.0019624393022891783 -0.0010795348513812618 0.44270211564502476 -0.35171661183034714
106894000.0 0.5563196955800357 -0.8285306609454696 -0.6497028316832338 -1.4317704022917876 0.0018806517731504587 0.002734481997425844 0.43692313573224645 -0.36716831904713815
107893000.0 0.5457790284427595 -0.8362280152040337 -0.7012299446251583 -1.464467173606154 0.0013465442138766424 -0.00019002720373497884 0.43983156934486023 -0.37828779192651374
108892000.0 0.5355329355588333 -0.838688239553136 -0.7542693626041391 -1.5019038645152176 -0.00031636449014741763 -0.0005325880344945467 0.4404085615917658 -0.37717449031140987
109891000.0 0.524954637548709 -0.8469574131330948 -0.8091657963267017 -1.5398190508598648 0.0004333842130724667 1.652302383490384e-05 0.4432495557396194 -0.38025019365889884
110890000.0 0.5109821553332278 -0.8490743910918578 -0.8733476057715203 -1.5395708472146235 -0.0016897068168480085 0.0005128909027984125 0.42926807416214097 -0.3841387780856375
111889000.0 0.5068936734527207 -0.8543038919135313 -0.928848185491892 -1.6115951583472878 -0.001893970668043266 0.0015311138398537661 0.4248030128937942 -0.394891375874879
