! Created with skrf 1.9.0 (http://scikit-rf.org).
# Hz S RI R 50.0 
!freq ReS11 ImS11 ReS21 ImS21 ReS12 ImS12 ReS22 ImS22
1000000.0 0.9829562435026524 0.003652581425494958 -0.006628221734431464 -0.05011508324825182 -0.02212399475482677 -0.0032310482013268517 0.28569005834453054 0.30358734368398615
1999000.0 0.996089476831215 -0.009994233221041348 0.00016843134583092434 -0.02364115058847057 -0.00826034620002428 -0.0020705380606848116 0.2477571154679659 -0.05552173532440257
2998000.0 0.9993002527549556 -0.023864626509584336 0.009150149755289324 -0.015194813957159157 0.002271954628528197 -0.011876518311711111 0.1941972059010926 -0.1301329708114306
3997000.0 0.9975408342044245 -0.028775213378023287 0.011731342822172749 -0.008901977490347632 0.0028745100030685123 -0.003800083993013715 0.10761615490847008 -0.22466953934104233
4996000.0 0.9945063409131117 -0.03576619787318008 0.0073580020560017586 -0.004929006358321514 -0.0022410489264002654 -0.010357692398400342 -0.019212537585940676 -0.20691813715657895
5995000.0 0.9962225206718084 -0.04784581892912035 0.007676791403916754 0.0007481063504334388 -0.00502074578948045 -0.0028184794274953187 -0.11813257380999788 -0.12443814813000637
6994000.0 0.9958011629761462 -0.05710585444238289 0.003923936179954122 0.001144533776105822 -0.003334962444895239 -0.0021361720193229686 -0.15171140013372156 -0.02665174965505705
7993000.0 0.9963965746880222 -0.06625681698109537 0.0064880329059343695 0.004985946778507853 -0.0013892059101016955 -0.0006102024094212672 -0.17860595695109735 0.03344544479630622
8992000.0 0.9954185036910371 -0.07048274090149113 0.002279397764457699 0.008192653720961559 -0.0011480506132759787 0.003208853308949577 -0.16565335085969857 0.0678866603774527
9991000.0 0.9928758692131886 -0.08029617002476003 0.00035341179924326975 0.0030068206291748822 -0.0051723961065731575 0.0016418958259301487 -0.15974198304971488 0.08890951592368843
10990000.0 0.9923039999569945 -0.09462297168420088 -0.00012206249290207965 -0.00032831836543137475 0.0003570280326422266 0.0030697153391817333 -0.1343086016294391 0.10069261320148876
11989000.0 0.9912581083015711 -0.1008177710098305 0.0033514394312331086 0.0037887500734775175 9.657815801230025e-05 -0.0019119546527143786 -0.13359433210075689 0.1413975397648512
12988000.0 0.9913066659475108 -0.109282561943936 0.001368616920788411 -0.0016693837656847055 -0.0017561098310187888 -0.00041488999999416803 -0.12196160118277269 0.16812086509096455
13987000.0 0.9889807226637506 -0.11728879540470057 -0.0014731046485763164 -0.000512327956300305 -0.0036428002917783804 0.0011289756245018517 -0.09566122396544786 0.18309485447240845
14986000.0 0.98782634868448 -0.12444721096387852 0.00022308671619058996 -0.005153660893875275 -0.002528383964379538 -0.000552026624169896 -0.08830698468969993 0.20521747835614074
15985000.0 0.9897391905988934 -0.13175606777923823 -0.003691164067754283 0.0015185344484138833 -0.0029222526140665877 0.001338068424775428 -0.07907854102342246 0.22194614702131438
16984000.0 0.9857673058250466 -0.14449970756520286 0.0026769350662705833 -0.005589713618412925 0.0002973757878545744 -0.001941256635543552 -0.06771590226104554 0.22291899708847726
17983000.0 0.9858957697899606 -0.1497118017534389 -0.002046602680291313 -0.00968520657090619 0.0026543843218869148 -0.0015471968200978646 -0.055963847606503754 0.22413661118192188
18982000.0 0.983646197113386 -0.15997207141990116 -0.0044208039976468974 -0.002297481135262968 0.0011148244917182268 -0.0006363916266782564 -0.018879237496670427 0.24074733275943958
19981000.0 0.9820798609470349 -0.1641270598842626 -0.0024671945424055825 -0.003000724074973257 0.002001269680395023 0.0026162232089658563 -0.025185086222120956 0.24347013072201346
20980000.0 0.9822646868274102 -0.17522376075135948 0.0008296676753775423 -0.007123810309464636 -0.00131392495679189 0.0008521486949256156 -0.009546249325582786 0.25879933935632715
21979000.0 0.9786543471179494 -0.18140386371888545 -0.00533852140019657 -0.007859846991853166 -0.001517248487286611 0.0031960145539134347 0.01619297501637726 0.24227929896852304
22978000.0 0.9780724635201118 -0.1914008726226176 -0.0052395929073793006 -0.005957216041729605 0.0060859027065428015 -0.002728972868185942 0.021426239275146478 0.2528227264336301
23977000.0 0.9803832819772049 -0.19574105668613362 -0.005057612118841722 -0.002135090702018383 -0.0022975268775663805 0.0011107521349338378 0.04397788061903637 0.25631426152459363
24976000.0 0.9768029313853726 -0.20693858553189926 -0.007552124656256646 -0.004005001003915035 0.0036598538326685923 0.0019661605840574194 0.05488734625660421 0.2611712005821998
25975000.0 0.9667607126205681 -0.21651345375835546 -0.00035122796775957963 0.001614724139815986 -0.012656737954004058 -0.02136611189368981 0.0691735138493122 0.260015638848395
26974000.0 0.9696881430464693 -0.2250704887809373 0.00030532020963381637 -0.004476103309313823 -0.0035135660886884343 0.001267901441524008 0.08715233993063902 0.26466761293663105
27973000.0 0.9703130954356973 -0.23059909129915365 -0.002461259558229465 -0.0022987697102633178 -0.001745214647494235 0.0001610839826164389 0.10166344631798915 0.2532201222903688
28972000.0 0.9686437885393439 -0.24006789570691675 0.00023951749686263203 -0.0010107228504974346 -0.00039073108987822494 0.0035622695921418658 0.10561240308438362 0.25334663931408624
29971000.0 0.9668810868000931 -0.24843615874962915 0.0007931418207237032 -0.002175370699586645 -0.003826684287014617 -0.000709261887415665 0.1377935363932982 0.27399377188948804
30970000.0 0.9632322352055607 -0.2567907696333717 0.0015792101547308856 -0.0005440444136500732 -0.0034752486736700917 -0.002658121948266156 0.15036303569618534 0.24912597492278418
31969000.0 0.9618044273857355 -0.2636210870135345 0.0059483126335630535 -0.0030968000632094687 -0.000517754055818039 0.001841416636351744 0.14135044071245642 0.25472323111643025
32968000.0 0.9592659259048506 -0.27616282807052345 0.009367198706984823 -0.0073900665523093795 -0.001153079080179828 0.0028186438316416713 0.15395029724204687 0.2526912992983443
33967000.0 0.9570664627975972 -0.28307353507012206 0.010742653917261038 -0.010256317404602693 -0.00472669070849179 -0.0019157226648858585 0.17126911638107523 0.25040768265180224
34966000.0 0.9535648185061305 -0.2915630619872315 0.01178856024634365 -0.00934662306525336 -0.0037145646034766376 -0.0003875288307822406 0.1900618493077209 0.25609367133478556
35965000.0 0.9515271884931387 -0.2974220997628505 0.017636617728304774 -0.015372880830398892 -0.0002366018726450477 0.0004104720866293549 0.20994197564181144 0.248150445600271
36964000.0 0.9497345969186658 -0.30726040445481956 0.017343330752870926 -0.014448444554571322 -0.003696026552035511 -0.00045286064499412096 0.203858802501622 0.2520658966532455
37963000.0 0.947665709397168 -0.316032914850277 0.020941138552589986 -0.026095534630492426 0.0003432354417359362 -0.0011512554832865452 0.22132312283119804 0.22907449168610283
38962000.0 0.9440474420344607 -0.3255575469455311 0.02224508274726609 -0.026165870310526355 -0.0015456205666883873 -0.00256885148317879 0.23673660049700418 0.22703169439116172
39961000.0 0.9408393690325118 -0.33253568785696547 0.024180408987218672 -0.02786437713678227 -0.00524246202643844 0.0001863310579371126 0.24154526766062726 0.2268770580749758
40960000.0 0.9373690564169445 -0.34096199586758524 0.023357349268931783 -0.023487012701259646 -0.0003574103689335038 0.0008466406064410192 0.2548974039497405 0.22873397060708497
41959000.0 0.9344194170133127 -0.35035398097139 0.030173133451519334 -0.030870514546356444 0.0011310491556074497 0.0005323733900221487 0.26355630745174596 0.21485891085175118
42958000.0 0.9294127380546446 -0.3605616946817401 0.0341016639741989 -0.04254986537218214 0.005524489294538511 -0.0004266321446567152 0.27370061522289635 0.20642167800065975
43957000.0 0.9299244996466791 -0.36289058821478604 0.03487977829771691 -0.04464929711050463 0.0024265598288016957 0.00032201680369490886 0.2841169850672165 0.20645531588291718
44956000.0 0.9250565415958846 -0.3722293093116951 0.035341617840258015 -0.05114355354229071 0.0003431835397847287 0.0004466107955903255 0.287412644659447 0.1941270987056224
45955000.0 0.9216253067034315 -0.38362052671983793 0.03701542220714172 -0.05967064198814221 0.0012013457937094566 -6.328771944537043e-05 0.2978426682482736 0.19994883912578443
46954000.0 0.9158190778984698 -0.39196524356401363 0.0391221938732562 -0.06542990245746477 0.001417377163141527 0.00100198413388081 0.3208775884340293 0.17827885768582236
47953000.0 0.9149206201205186 -0.39764793566581697 0.03403791706797814 -0.07337179862974222 -0.0021033354961926434 -0.002454877993171157 0.3329712115732604 0.16932688618006028
48952000.0 0.910868939250599 -0.40887423635940756 0.03723165230480284 -0.0803604378839754 0.0010517031198283774 -0.004286333429130807 0.32558455757079696 0.1677170895061931
49951000.0 0.9054798286192758 -0.4165372549527919 0.03834607627348633 -0.0891701511838349 -0.0005544128885607114 -0.002155772768874718 0.3534486995486825 0.1497767870110223
50950000.0 0.902340607896389 -0.42285237100573886 0.039113018142665865 -0.0977172010248528 -0.0010602299463186387 -0.0007215607974836055 0.34814177651977235 0.13913470736899858
51949000.0 0.8983125507160419 -0.4310848585024051 0.03915466243217067 -0.1047962799510687 -0.0009974679270388432 0.0008640216154175965 0.3427583795020163 0.13833901125189435
52948000.0 0.8974411389658057 -0.4395409611319036 0.04307422740730913 -0.11302726706641818 0.0009823432114308395 8.133590541989485e-06 0.3600441982114615 0.1350913212877342
53947000.0 0.891112239501648 -0.4474168160623353 0.042016872483901874 -0.12174124325252939 -0.0013782111109873236 0.0021848821056640764 0.36034043417269246 0.12748302929502225
54946000.0 0.8848365652932065 -0.45759143847117706 0.04427333672256004 -0.13118468113793175 0.0015663228829767876 -0.0026340931525030177 0.3799099384143286 0.1256090466448219
55945000.0 0.8833762344764982 -0.46368471244060117 0.04764727377044081 -0.14299429709696349 0.0009119295981569419 -0.000741687270953411 0.375833324773129 0.10590921051176681
56944000.0 0.87928825640128 -0.4722217113145019 0.05002035183766245 -0.1515944608232321 0.0013644435610000907 -0.00033442059649697376 0.3928857888717635 0.10279743692185157
57943000.0 0.8747823992212144 -0.4829830881084511 0.05125361952087117 -0.16329955385122694 0.002724561364624803 0.001782746899841318 0.3919295867637715 0.08619230498379389
58942000.0 0.8682268628553081 -0.4875395281835409 0.05064902128422191 -0.17416254396565997 0.0015469902620615875 -0.002647669077280358 0.41472322799344863 0.09516079928722745
59941000.0 0.866735579033076 -0.49532345260364796 0.051099617019583606 -0.18523575235613093 0.0008125156277739794 -6.852913646075061e-05 0.4076458113292118 0.08097266453062203
60940000.0 0.8589471769305017 -0.502619300372679 0.05237444151169537 -0.19035031563501018 0.0014173137478066366 0.0010804265681101633 0.4043541450474551 0.07865989606013772
61939000.0 0.8555575467867258 -0.5103759325490178 0.05608211789652029 -0.19989984133210512 0.00014906474268089025 0.0027721175418114006 0.4084839724842492 0.07291048436114776
62938000.0 0.8504574876828868 -0.5212195943257625 0.05521883690544203 -0.21226952016672151 0.0015382342432884355 0.00021833820557990837 0.4337192598479264 0.051690907439576744
63937000.0 0.8462695509143222 -0.5283220867428045 0.05664949867762217 -0.23822937833538518 -0.002006504397580878 0.00032637359875547394 0.42952139128110417 0.036347063154326446
64936000.0 0.8388159957652545 -0.5331309381402889 0.05946262521176445 -0.25005600020692414 -0.002177302973928515 0.002754524058766241 0.42486330776746134 0.0482397185175392
65935000.0 0.8362709471693305 -0.5455175608268821 0.05710253965385594 -0.2655911158453344 0.0031792309295430475 0.0013347610157390913 0.44040233210599367 0.012589961459911184
66934000.0 0.8316769122292211 -0.5510818705445392 0.05599244482437332 -0.27809781774023234 0.0020409389699902747 -0.001088882592098449 0.4333517750061739 0.006775651174493681
67933000.0 0.8288348398533427 -0.5574829701491191 0.06028524447007784 -0.289303614942629 -0.0012820857267464485 -0.00487904854405785 0.44672025510670266 0.01069354350823438
68932000.0 0.8140967850197722 -0.5497401781482509 0.05353513591143683 -0.3012505558798257 -0.00025570219166024476 0.00037112451310867005 0.4413973727942202 -0.014665748347773034
69931000.0 0.8157749976992323 -0.5730021394975915 0.05471256975320424 -0.3222064677524192 -1.4034496042805904e-05 0.0035725336417631987 0.4479843229311329 -0.016031307157697693
70930000.0 0.8094403056604161 -0.5812618417592644 0.05136370936127178 -0.3366034898486063 -0.0017322719424973704 0.0004952766910701406 0.4434273701181205 -0.0358392189219769
71929000.0 0.8051101183943934 -0.5895017518005913 0.04703601287508593 -0.35591183483083944 -0.003095390784544022 0.0033786408671920044 0.44601012638530513 -0.03331600706753622
72928000.0 0.7980223497798975 -0.5974621268873626 0.04043512910948863 -0.3711491179775846 -0.0006762547559467137 0.002359186575847585 0.45907732886169234 -0.05914919441094381
73927000.0 0.7930422682955787 -0.6030434021665467 0.03246381309992147 -0.39105629066549613 -0.0021668750309509453 -0.004208558191297981 0.4509985395421484 -0.05231561439321175
74926000.0 0.789637294134447 -0.6130647327534252 0.026669768467705603 -0.41345920631300775 -0.001306682268641606 0.0006472974695289841 0.46413707142322785 -0.05314370057381635
75925000.0 0.7814209983449646 -0.617945840129666 0.018646474832013035 -0.43377125455232923 0.0019580297072017217 -0.0035114384636236386 0.47028046185790684 -0.08129989249509394
76924000.0 0.7772878147092998 -0.6247865920155788 0.006123488492835672 -0.4527057797462808 -0.000744144596640395 -0.0026531245808555435 0.46226284777281246 -0.08441536977333909
77923000.0 0.7698889998067592 -0.6339304614628863 -0.0038242020395093104 -0.4831769430655513 0.006335961462806899 -0.0010526139820113856 0.4555888408997397 -0.09660378407511605
78922000.0 0.7643427215869507 -0.6418711733167748 -0.02178629752214284 -0.5051234490754579 -0.004030002643047063 -0.0002449870022792556 0.45894490666106325 -0.10537319444179322
79921000.0 0.7568140324310603 -0.6494418169939767 -0.04121595217604122 -0.5328402147669247 0.002073869245070457 0.0022343280753172514 0.45184159943479285 -0.10725780984715375
80920000.0 0.7505299175709059 -0.6568254110461997 -0.051771481924129815 -0.5602858634314626 0.001160539170127593 -0.000897585844630227 0.46162019395786297 -0.12591518476857735
81919000.0 0.7478577894545989 -0.6621289661282617 -0.07364893999277515 -0.5887582980603676 -0.0017690657970256332 -0.0016901674132150525 0.46331636935482484 -0.14016959129876747
82918000.0 0.7378521819944908 -0.6701459073783625 -0.080500822453567 -0.6162032489043687 -0.00038882827797499385 -0.0011386187807826643 0.4712740004817599 -0.13575205437457744
83917000.0 0.7302978882690228 -0.6780107403026929 -0.10527882397781078 -0.6480984322730994 0.0009823654230784872 0.0010035117558373817 0.46469505775300896 -0.15761918285515775
84916000.0 0.7260245542291617 -0.6846233230458535 -0.11573216419276347 -0.684105231437576 0.0024002079097417296 0.001079012876007157 0.4708615513727376 -0.16531063416749328
85915000.0 0.7188522313936218 -0.6897406313313803 -0.1399331952715625 -0.713899054119762 0.0009306572660358369 0.0017356548886154476 0.4615411229325999 -0.17598079005424042
86914000.0 0.7107130890604972 -0.7036870852076834 -0.15459881412541673 -0.7542152024833595 0.0063499970968928015 -1.8437167732339502e-05 0.44782711683578635 -0.17896334850339318
87913000.0 0.7058916997023834 -0.7078207221756653 -0.17656334080339647 -0.7838936794421445 -0.0018237184487881462 0.003281303823017576 0.45712092415982497 -0.2000296606237875
88912000.0 0.6962885805939807 -0.7137388227695195 -0.19046833481905887 -0.818389390962673 0.0025995569098426633 -0.0015906745616213463 0.46960288654382715 -0.1958619854456332
89911000.0 0.6927906489315969 -0.7216549443064441 -0.20392767107671655 -0.8535956569121158 -0.00016810635447296442 -0.0016617428524840449 0.46921864364553934 -0.20285993981178332
90910000.0 0.6825169104401242 -0.7271308482881657 -0.22491394756603564 -0.8893129834159976 -0.0002853248331647937 0.002103245707848582 0.45319538307239954 -0.2103153863269662
91909000.0 0.6744504170108068 -0.7323649865681378 -0.24605532862476961 -0.9220276180816693 4.217861548270067e-05 -0.0005167973514203424 0.4624983342735564 -0.22362527108130176
92908000.0 0.6658367732601538 -0.7413190362128215 -0.26334876388303174 -0.9550435117157118 0.002196077218027038 0.0014126352001357688 0.4526405243266245 -0.23351318945900779
93907000.0 0.66193780288972 -0.7469478315073483 -0.2809028022196668 -0.9911885528319718 0.001928787256588257 -0.0010868864084267247 0.4631321029605617 -0.2510161346852582
94906000.0 0.6461897919766879 -0.7554505634196884 -0.3037829824690983 -1.0214908606611122 0.0048619987532899376 4.096875341151866e-05 0.454282784776003 -0.25412020995812146
95905000.0 0.6418939997093402 -0.7614341461992268 -0.3268941552684409 -1.0581754436766773 -0.0013104364591200375 -0.004400044141040968 0.45489269155284867 -0.2655582778182689
96904000.0 0.633231388837268 -0.7717455132336206 -0.3478157208087276 -1.0966984631918224 0.00012737764281234697 -0.0023715533909300056 0.451091600762141 -0.27474690454097783
97903000.0 0.6254198030781873 -0.775907283024616 -0.3664040364127008 -1.1289998635856782 0.002739614884172675 0.0029611925789653636 0.4434910060900929 -0.2909966048207387
98902000.0 0.6212738802518796 -0.7833855984875986 -0.3903232864893223 -1.1689360804972078 0.000538188544737291 -0.0011733105831204954 0.4418177489016742 -0.2971412245472802
99901000.0 0.6092662782865386 -0.7888219224310834 -0.4204789416865315 -1.2039839803262227 0.003148597034675913 0.0013906096083840518 0.4592835391171847 -0.3242468745585584
100900000.0 0.6019329901035466 -0.7903721004216961 -0.4471052168419293 -1.2329074074973072 -0.0017927939562395238 0.0002643909302151584 0.4561379118115208 -0.308646871389012
101899000.0 0.5961665878798899 -0.798527526835268 -0.4739182405199949 -1.2743018700286177 0.0009200870547019757 -0.001043659026547389 0.44617930163076314 -0.3220745134053368
102898000.0 0.5825270876427785 -0.806943263777214 -0.5171756455237015 -1.31104966744252 -0.0008725107282499885 -0.002500339286554662 0.4531256921657342 -0.3424661891622651
103897000.0 0.5760330237372973 -0.8146672844039254 -0.5536389813021737 -1.349329837357305 0.001789521664095588 0.0005879050436367744 0.4571935378581449 -0.3298217067943725
104896000.0 0.5682667710664611 -0.8231909116369654 -0.5918591831329956 -1.3827531716984571 -0.0003013030243732258 -0.0012113197945317939 0.4404393638694318 -0.33778428781589337
105895000.0 0.5584670023935108 -0.824283702506368 -0.6428102060390551 -1.4257345098373075 -9.971462500014403e-05 -0.0027594963676578887 0.42299829821157037 -0.36083773147374065
106894000.0 0.5481914569744287 -0.8294481014995772 -0.6986999386935767 -1.4621947894444818 -0.0019247459896724708 0.00024351829164303199 0.43215803387498075 -0.3621443526569358
107893000.0 0.5420300577140765 -0.837075918191101 -0.7486161166799636 -1.5001706983900236 -0.0002952215776910273 -0.0011423037396483568 0.4296970499764493 -0.3796883425936814
108892000.0 0.5331181391235995 -0.8391801889167727 -0.81170253809847 -1.542587862802473 0.002172736138106094 0.0010705620457889472 0.4274584649395461 -0.3698944991920356
109891000.0 0.519874579549489 -0.8490337027864335 -0.8672749227194823 -1.5790201287260137 -0.0018468010316428482 -0.0017919618360955438 0.4315478138699855 -0.38414614158160737
110890000.0 0.5010708624703872 -0.8601453176017307 -0.952092751270316 -1.5825485502753212 -0.0016047906931441172 0.0004831172242365442 0.4308682431087983 -0.38164276840173134
111889000.0 0.4995690829184357 -0.8550357768123117 -0.998679191909679 -1.6450336652320008 -0.0009102871656314683 0.0009722311381104948 0.41576776661573556 -0.40002610563357394
