! Created with skrf 1.9.0 (http://scikit-rf.org).
# Hz S RI R 50.0 
!freq ReS11 ImS11 ReS21 ImS21 ReS12 ImS12 ReS22 ImS22
1000000.0 0.9852867263868103 0.0030871078379177187 0.0006162264708772387 -0.0616000042832352 -0.015880775408216044 0.013302469929821325 0.3025384013924288 0.35518029338198603
1999000.0 0.9954400481998343 -0.012677443772366596 0.005063916606996436 -0.02200123111573045 -0.0006412272318083968 -0.0037042615300115268 0.2577427575106424 -0.0504572222189272
2998000.0 1.0020909159368956 -0.018642477526171028 0.011978455953619965 -0.011050480970853099 -0.007964472048676688 0.0017744062073684747 0.18770160855755705 -0.13635409298919351
3997000.0 0.9988493568630757 -0.029806860925297298 0.010929129429956495 -0.0030295867995089446 -0.0014088918408391527 -1.6713606488835696e-05 0.07812351900619842 -0.240047100995155
4996000.0 0.9947282717469704 -0.03927158449878686 0.014605758463421856 -0.00046005550590101196 -7.324501059453207e-06 -0.002788865266152288 -0.0522817321478609 -0.19498165173641166
5995000.0 0.9961335922688295 -0.050208204238324505 0.007825344624653405 -0.0015207976007372069 4.5514839466011154e-05 0.0014162970596022834 -0.11692020823771253 -0.09889012414361678
6994000.0 0.9941156979963525 -0.059045637649828744 0.006100061205447337 0.0020389288951791294 -0.0002176067421934362 -0.0033179051509041003 -0.12765156827030333 -0.021192911329548075
7993000.0 0.9968147447835874 -0.06936243983829729 0.0036760348712816804 0.0026533414960801934 -0.0015917592788133844 -0.00043158282497279024 -0.15783446703722084 0.03782762847544696
8992000.0 0.9954050936748158 -0.07121206511709413 0.005653434626574493 0.002257719629703504 -0.00043494469852595885 -0.0006182115959153167 -0.14809962212779376 0.07498187734782787
9991000.0 0.9933980235998205 -0.0827778129879038 0.007663591520042985 0.002594802246496879 0.001936409036720787 -0.0025033432861088136 -0.14023563517896498 0.09015841144985995
10990000.0 0.9910979942208344 -0.09452126541915708 -0.001967176869236512 0.008193925881312378 -0.002530755774303642 0.0030936480436094815 -0.13932927948466625 0.12440296629616096
11989000.0 0.991942756048241 -0.09892067494927373 0.0032372369751118885 -0.0009787611482728706 -0.0010726631600603863 -0.005638483936480556 -0.1132254982720376 0.14060743062174488
12988000.0 0.9899947960873713 -0.10830802642890473 0.0012682238739142161 -0.0021840692130594254 -0.0026616979190930896 0.0020787263603696173 -0.1178654285355962 0.1690579107913033
13987000.0 0.9883203395013369 -0.11658961940482605 -0.0010485565853947986 -0.0063295011179495975 0.0005490646797484798 -0.0003243959775115889 -0.09087323332855508 0.19400896107217314
14986000.0 0.9892975748351628 -0.12414239197899174 -0.00020941048170512952 -0.004166864926347868 0.0009057901007615414 -0.000517391310451187 -0.07786285398242694 0.20110758388919908
15985000.0 0.990419380343521 -0.13242586171120807 0.001865184454587553 -0.007851843003789933 -0.0024063008676132435 -0.0005301708222825458 -0.06560751896179913 0.206788879758867
16984000.0 0.9865906332240174 -0.14285861585719137 -0.0052313019188465005 -0.007816626533510023 -0.001888201187780161 0.0028055683485820816 -0.06266119722317276 0.20904761625093612
17983000.0 0.9893222652855093 -0.14697795581429302 -0.0020757461978792888 -0.0007828427312114978 -0.0016219287828856017 0.0007300881088418234 -0.05330139239318035 0.23599551241631317
18982000.0 0.9831169398595224 -0.16020766590038155 -0.005828813823405116 -0.0029731579907703244 -0.002580484640312391 0.0031808559554170053 -0.025778850291360445 0.2432233431175257
19981000.0 0.9839100530564584 -0.1633007682634626 -0.004767125301428021 -0.006456256000987321 -0.001977697726074604 0.00035998312908154393 -0.015230454065141622 0.24450673999229472
20980000.0 0.983347152495291 -0.17322708324163014 -0.0005575251835799314 -0.004618547762769502 -0.0012927704728223598 0.005177800537593028 -0.0017419182687745435 0.2582876495341318
21979000.0 0.9823629401990073 -0.1823615517469672 -0.0010510955848995532 -0.005177848958515946 0.005884822194103005 -0.0005115370276848939 0.022714537138487974 0.2429789351078489
22978000.0 0.977470201657196 -0.1938951471962115 -0.010700005699076903 -0.005830409954867824 0.00020205687101689673 0.0032807689125721523 0.030983616978167462 0.25393051266381955
23977000.0 0.9781877126315144 -0.2003838989458129 -0.009630475965718826 -0.007028031539962814 0.00499033820254389 -0.002129327867058291 0.0397700429968453 0.2567889322581273
24976000.0 0.973771959017576 -0.21190423780583606 -0.006162980227951849 -0.0032176470921893474 0.0005544950304980374 0.0020069292512278503 0.06786244238074393 0.25588202690577977
25975000.0 0.9685134897013405 -0.22163290123880866 -0.0029719769693604776 -0.0009693222301520332 0.008730775634327287 -0.025606881417318997 0.09581364884567786 0.268117666704149
26974000.0 0.971769918365119 -0.2266460412309247 -0.00419433738950106 0.0008986209039731021 0.0046919368315703905 -0.0029351218225234206 0.09071035266365259 0.2637427380036193
27973000.0 0.9691199662329218 -0.23316626926444642 -0.003939057114382562 -0.001088274649641865 -0.0030300671113982357 0.0027804121999125873 0.10813441653878018 0.2586142329123004
28972000.0 0.9677383569846476 -0.2431391916385652 -0.0014625950870696032 0.0013476914456135205 -0.0016727356785671392 0.0002216146222444104 0.12226563958141652 0.259422310073261
29971000.0 0.9660446729433845 -0.25312805696467033 0.0012155100213851848 -0.0009535736096265393 0.0029031462116117005 -0.00043980329886624355 0.14922775793072837 0.26403806348511183
30970000.0 0.963573865837239 -0.25692379786909275 0.00031406828895447344 -0.002527238092933511 0.00035856076852796746 0.0019134902422820537 0.1750509951129853 0.24999043303885374
31969000.0 0.9609509977658757 -0.26567210331867347 0.0023236880233443624 -0.0028110838272392322 -0.0008366863957678213 0.0001611729934016638 0.1520145660392536 0.25031957093263285
32968000.0 0.9598779835965984 -0.2746260224933692 0.010304817088398761 -0.00520498701084305 0.0034112594671630077 -0.0002941753984951017 0.1664098169835901 0.2543095245021076
33967000.0 0.9579424427808815 -0.28437271907128786 0.010156093530725822 -0.009067861301985664 8.86633770508224e-05 0.0018106648709076299 0.18879498553596277 0.2479879239105719
34966000.0 0.9542848754590483 -0.2931312992092597 0.012085357961867386 -0.012251302127673147 0.0004464002073942236 0.002537578178232031 0.19975277739130817 0.25447215541480855
35965000.0 0.951372057951279 -0.3020200157597976 0.015645762746906093 -0.018338745974507787 -0.0006970206015954485 -0.0013183272774362664 0.21478649141541725 0.2486087019906079
36964000.0 0.9477193640703169 -0.30969710336255013 0.016985602853810802 -0.013409045285650073 0.0012253227099488677 -0.0035830503779019857 0.21458966920816427 0.25360856470776105
37963000.0 0.9464752156695851 -0.31786039116601567 0.020718810474423123 -0.021727501476353297 0.001730321258609396 0.000299258710959925 0.23933761020535532 0.24775711389622979
38962000.0 0.9418022314632516 -0.33010561197265315 0.025034048108929008 -0.023220968094587013 -0.001414871389154874 0.001708183963234334 0.24291752335499084 0.23964434271035373
39961000.0 0.9408884579803934 -0.3357378737159056 0.023344590009634413 -0.02589560909135132 -0.0020722727933312024 -0.004529720655561366 0.24419709764981387 0.23531027334013124
40960000.0 0.9367473995480257 -0.34344621158634364 0.02417967158682636 -0.023522957179173326 -0.0005009453456891331 -0.0010113828748018205 0.2705473823244823 0.22994463194293188
41959000.0 0.9341201476958748 -0.3530083806917863 0.026915501452218372 -0.03142380742280654 -0.0009155944488164459 -0.00014066094462041978 0.2732623894070456 0.22476857270657785
42958000.0 0.9284274866767618 -0.36305843990750497 0.030258577750505538 -0.04154090277264821 0.003958539113074533 -0.00020475588162271414 0.2869731120315802 0.2076007935435463
43957000.0 0.9285331986051469 -0.36544450235034964 0.03141757220099085 -0.04621162148264792 0.0002667476986272481 -0.0027100324068211933 0.2902614110149455 0.2109855996237963
44956000.0 0.9252559768284174 -0.37346357451335344 0.03387644878551474 -0.05100244801078079 0.0016290956472774624 0.003058980728743094 0.305384082365265 0.20311323356917207
45955000.0 0.9202543517353744 -0.3858699449725334 0.032082562252237934 -0.059515425799210056 0.001279814862075436 0.0016635909475621801 0.31451725786166257 0.19306436156934928
46954000.0 0.9157760244747881 -0.39433886746065544 0.03679677446775388 -0.06343040757412217 0.0014950584914742034 0.0004684213883405399 0.3205766797399204 0.18942557818818578
47953000.0 0.9135929285525515 -0.4020138403945472 0.034224908621773305 -0.07174315135092177 0.002458238355231028 1.550455964583063e-05 0.34293771971370046 0.18121632857600728
48952000.0 0.9080261988617087 -0.40937125957956133 0.039371083607723574 -0.07830468709166546 -0.0006692668930422733 0.0016887446042923547 0.34469247966624544 0.16420146592078577
49951000.0 0.9062755175714189 -0.41902664063834516 0.03432685729962252 -0.08752733436807814 -0.0006840287319497761 0.000309229268843008 0.36245746012769814 0.14938745575107082
50950000.0 0.901115208895641 -0.42706154554345593 0.03697469651455475 -0.09583813475280378 0.0019491097014219287 -0.004099180000441908 0.3520982632284028 0.1583904362028919
51949000.0 0.8983713354027841 -0.4346477490930077 0.040321134892510366 -0.10208483477196789 -0.004140312166653879 0.0010302046971635585 0.36175698836184056 0.14790771343094714
52948000.0 0.8961450904362911 -0.4418297700381129 0.037083221927672265 -0.1110746060018806 0.0008143925428500339 0.0006812105765548975 0.37229383063347876 0.1513380480819369
53947000.0 0.8889746420251777 -0.45162953703916114 0.04269706978913591 -0.12080047705630825 0.0016198992596050507 -1.8938515972972258e-05 0.38064458337130785 0.14262054214622633
54946000.0 0.885191780184308 -0.4597661918781499 0.04360963686276321 -0.1293353234694139 0.0007866147472598287 0.003807540888677278 0.3925239249162009 0.12847192535873608
55945000.0 0.8825391562631464 -0.4683178855503319 0.04508288261579569 -0.14079529143622094 -0.001676616379142932 -0.0003418586726845524 0.3892582414764736 0.11872025156073157
56944000.0 0.8785504584879344 -0.4749847660079641 0.046444517434937646 -0.15263956761887063 -0.002220344732348443 0.0031018404227865304 0.4014078087309674 0.11474611379459929
57943000.0 0.8740419617348124 -0.4860103380698404 0.04600147838633183 -0.16264721640566693 0.002029164495689966 -0.0019287452744028394 0.40399971282543556 0.11451921642054494
58942000.0 0.8676184478207325 -0.49041371244097864 0.04945781133170008 -0.17201484587258148 -0.0004764196848966743 0.0010699205929731205 0.42606947685718394 0.10144615748960434
59941000.0 0.8653208636233752 -0.4974014204353421 0.050842823157254594 -0.18104436389020823 -0.0014568309635410327 -0.0012958441280370512 0.41858625633555574 0.0976642138913963
60940000.0 0.8569342351879757 -0.5077377269415766 0.051624557350657366 -0.18650063165511988 -0.001950397376326466 -0.00026111619381960645 0.4115262005334301 0.09631006167851353
61939000.0 0.8543416129580877 -0.5126262398445608 0.051484468387836935 -0.1942822564101566 0.00044662287965432766 0.003124893248239574 0.4236923316507444 0.08626289482341573
62938000.0 0.8480370986706025 -0.5250068388424545 0.05550344713557736 -0.20886973966543876 0.0007888143383257954 0.0017627486627368738 0.4432812012696971 0.06705032141559239
63937000.0 0.8444150063650494 -0.5321257631899752 0.055210862543334065 -0.23028012358584288 -0.000344641585234295 0.0021362340970493363 0.42915843408095167 0.04585496789253546
64936000.0 0.8364148790683893 -0.5399732634473782 0.05371342855633732 -0.24559068620819735 -0.004489801873499356 -0.00015487814936423043 0.45016478318717423 0.04892895264007176
65935000.0 0.833407929595814 -0.547965260843987 0.054597708880457764 -0.25942527576983465 -0.0025011772593147427 0.0016512749864534349 0.4448475699470669 0.02549690535096033
66934000.0 0.831251011075409 -0.5521478931555478 0.054350892584663114 -0.2722487940264574 -0.0008190601393844357 -0.0001832738785003166 0.4470865433511643 0.022344381184223105
67933000.0 0.8263610655870149 -0.5619816860636057 0.05647048537419412 -0.28627517262843966 -0.00014817714034566176 -0.0016271041342765934 0.4468993106410378 0.023770894394576917
68932000.0 0.8200352626910068 -0.5681512040824092 0.05344077854390835 -0.2984553333596686 0.0017770279960640214 0.005453520958995637 0.4628097758359882 0.003420583408193591
69931000.0 0.8099226980351362 -0.5789623910561771 0.05442339914318619 -0.3152274095660805 -0.00037806936822466466 0.002166837211683241 0.4597192439339797 -0.006398993984999025
70930000.0 0.8066790242599485 -0.5841539838766978 0.05182456304040024 -0.329576599086937 -0.0002657087470004452 -0.0011831236253192028 0.45922901413468425 -0.018753861317765203
71929000.0 0.8030301677951149 -0.5960124408197781 0.0488894292193824 -0.34720809143993603 0.0008963247527053463 0.0009561631253095361 0.46263833765901374 -0.01913128065928604
72928000.0 0.7965821593932425 -0.6019302334942137 0.04417744386611725 -0.36475511165741886 -0.000885979829540202 -0.000816381270123779 0.4835588946982012 -0.043885184458356624
73927000.0 0.7913929459350431 -0.609108311131324 0.039709464525970496 -0.3814803622008618 -0.0006372253634966889 -0.0009800730097041304 0.4700808167629701 -0.050067122828248815
74926000.0 0.784761157414095 -0.6174328696199206 0.028303668878415556 -0.4006952266502833 0.0016857980171948292 0.0014258610029809996 0.4732764262213755 -0.050443634672106406
75925000.0 0.779775175849972 -0.6214806881200294 0.019619645687626478 -0.42117366216432967 -0.00276726960108654 -0.002149478020148692 0.4711667984313297 -0.06055761535109133
76924000.0 0.7718319292108425 -0.6318041809482341 0.008752055318432506 -0.44453006582740057 0.0002275303508673606 -0.0012032528397781473 0.47358045887629524 -0.0744057074458515
77923000.0 0.7680944608138746 -0.6371156011463252 -0.006081643630237166 -0.46410473213382003 0.0009372184785882727 0.0007386092593033773 0.4741786554839598 -0.08651283150737905
78922000.0 0.7620517917925952 -0.6496397583666622 -0.01985482209156969 -0.4962370397808613 0.005640509336120341 0.0019100008705074652 0.47526401479133346 -0.08940094156899694
79921000.0 0.7536867554812561 -0.6500290715207568 -0.032798899284987276 -0.5167646022797066 0.0021636639914057744 -0.004067004157951406 0.4613867397284222 -0.09772263975035246
80920000.0 0.7491845736877232 -0.661930279882515 -0.050645118700611946 -0.5474006568421717 -0.0016590765910197633 -0.003273776570251892 0.46667243668077446 -0.11837650288984103
81919000.0 0.7443113150446014 -0.6669611988688517 -0.06884197686856222 -0.5746395202619015 0.0012424133564929321 -0.00040760500532251387 0.47545287073947196 -0.10908079718994976
82918000.0 0.7315860233414044 -0.6770767584613357 -0.0796230632049433 -0.6043103705016666 0.006128626160320063 -0.0032646715419840577 0.4867806495559634 -0.12664726928708078
83917000.0 0.7273706523391312 -0.6812322005012289 -0.10310041261612511 -0.633795568226368 0.0006074698469027619 -0.0035925159218805048 0.4829313267055589 -0.1346063671280403
84916000.0 0.7205579560441032 -0.6898182902529797 -0.1196739646132557 -0.6678677943416236 -0.003147580702795632 0.001489475265047578 0.4823132969323935 -0.1628380845447552
85915000.0 0.7157020132316196 -0.6953742434525502 -0.1381933170491507 -0.6970057060569539 0.005916854682306451 0.0023269806030709055 0.4725339121575332 -0.16025981848578472
86914000.0 0.708494609860799 -0.7044112882458615 -0.1548195299542634 -0.7359867746432275 0.0035595213694084903 -0.0006305474346695162 0.47551845954430205 -0.15711147194783076
87913000.0 0.7008516825276181 -0.7118293257826673 -0.17504413983020525 -0.7652237908135786 0.00010916885590258315 0.0025075002324460357 0.47611475870427505 -0.17113979441956198
88912000.0 0.6937456030444336 -0.7181540538147195 -0.19385619197803164 -0.7990241417809455 -0.0012835766889848377 -0.001575969730545203 0.47683842902302087 -0.18213941946722437
89911000.0 0.6870154077027194 -0.7258304099988276 -0.20414927640027117 -0.8397278690178418 0.0009890429485490914 0.0034631129743808993 0.48471914974999697 -0.19006622168507475
90910000.0 0.6773424352547596 -0.7330732841150002 -0.22235959335954866 -0.8684624661900916 0.00026335399554150646 0.0008652233135626455 0.4687166490018751 -0.1991631868153676
91909000.0 0.6682740583791167 -0.7370487634685408 -0.24021758136750573 -0.904275704692958 0.002952428676971644 0.0018807227884500865 0.48513520753214495 -0.20169019535600285
92908000.0 0.66230359879559 -0.7460955414418519 -0.2580662242242818 -0.9377913512784294 0.001326824453347039 0.0012896970872651964 0.46755977958424744 -0.21848078071796134
93907000.0 0.6565314638075385 -0.750323963573556 -0.2734480106077669 -0.9724330612888759 -0.0022310893991377093 0.0012937267323725418 0.46789525713385116 -0.23768446054727102
94906000.0 0.6426140586746304 -0.7607338144408453 -0.2940227961083208 -1.0031155721952705 0.0009116063728682605 -0.000414191875627678 0.4736773728203699 -0.22752384948174614
95905000.0 0.6390297735784186 -0.7645364093523048 -0.31250164328289676 -1.0369288198567388 0.0009751183308843761 0.0053761636838616875 0.4697383783373673 -0.25137058590252837
96904000.0 0.6295159936132211 -0.7742696844499072 -0.3335651290479129 -1.0773261009593378 0.0061187942203516504 -0.005298935240356429 0.46452848275824987 -0.2586155858341069
97903000.0 0.620219074198828 -0.7790427313376006 -0.3526697683679341 -1.1111819068488777 0.0022202806573428367 0.0017734665929555204 0.45589602286482184 -0.2695220952612937
98902000.0 0.613449225556064 -0.7855010192238233 -0.3742383327484294 -1.1440962181152756 0.0008666311535778163 0.002302522804066962 0.4599062392501043 -0.28056714472622385
99901000.0 0.6036974384365549 -0.7919649850657174 -0.40019999701370434 -1.178605641945698 0.0016322860849019058 -0.0018340254270417322 0.47183026892210395 -0.2949667277658534
100900000.0 0.5975109901877478 -0.7949509039493302 -0.4336203396470844 -1.2115597135693918 0.001421788773600123 0.003700217409324033 0.4745587187251208 -0.2959003690196612
101899000.0 0.5883460232223997 -0.8041401573627494 -0.4579482405303884 -1.2491852208824445 0.0022580110136006977 0.002184687524077059 0.46523236633604825 -0.30251056619787847
102898000.0 0.5797410935044944 -0.8091317385112348 -0.4846315704173497 -1.2881358380927117 0.0009013369658032323 0.00040931371555522414 0.4630380261451343 -0.32954002851492553
103897000.0 0.5697918496065433 -0.8159593879096891 -0.5237171997125702 -1.3232535974729955 0.005046697974394529 0.0012175509307450624 0.4704165487485327 -0.3195923404409426
104896000.0 0.561217927774076 -0.8265427602671093 -0.5699953819771736 -1.3555042896109537 -0.002112929829921056 -0.0017811688606726142 0.44901099782862747 -0.32099359538617017
105895000.0 0.5510269529871724 -0.829167288671395 -0.6107414777307606 -1.395115821333572 -0.00044683770622855817 0.0009997601243505367 0.4478741997750282 -0.34620818857571545
106894000.0 0.541013419540863 -0.8357202931900733 -0.6681254732336528 -1.4336392613835278 -0.0015744541949511829 0.0009625164032371716 0.4500489080485539 -0.3517002324783199
107893000.0 0.5334113748494498 -0.84208164677733 -0.720261681894417 -1.4762975223970356 -0.004824181191463005 0.0006714519170682217 0.44629040172646145 -0.3595126395898114
108892000.0 0.5253244975292984 -0.8444332093526344 -0.7727694113336007 -1.5114127697102204 0.0017121419339362245 0.0004167263474777244 0.43831150912892985 -0.35699531186014205
109891000.0 0.5119712296434328 -0.8538370384255952 -0.8280954091495909 -1.5482290469582891 0.0026953634262713087 0.0028488866752503506 0.4632046969023083 -0.35772342382438516
110890000.0 0.49683766610215596 -0.855374579136043 -0.8959085254944367 -1.5442688575654124 0.00041381295277012766 -0.00012064629181896993 0.43362081563871924 -0.37073288808765253
111889000.0 0.4925283023815118 -0.8597527460120067 -0.9578367605381909 -1.6160643659711404 -0.0020777949052090726 0.0007269965134601552 0.43497209341088017 -0.375977957901466
