! Created with skrf 1.9.0 (http://scikit-rf.org).
# Hz S RI R 50.0 
!freq ReS11 ImS11 ReS21 ImS21 ReS12 ImS12 ReS22 ImS22
1000000.0 0.9933630154769917 0.00861687447189206 -0.0007683788980625096 -0.03931425905140668 -0.0020940482656691987 -0.00250389921185894 0.3265116465556813 0.31498610334981103
1999000.0 0.9893784308847272 -0.015841377634695855 0.007835786199959211 -0.027479686198918444 -0.004644076184347098 -0.0063450941061957535 0.2595525184153817 -0.09991809827169922
2998000.0 0.9988997096644344 -0.018957134127253437 0.011370361806466953 -0.022335247516874258 -0.0004660281748506214 -0.00223699024703046 0.1907644882115421 -0.13388149228847285
3997000.0 1.0013224677515102 -0.028367726107600612 0.012929903402503544 -0.004955192661797043 -0.00032620478830271826 -0.005057233288584221 0.10618635586432527 -0.22775828191583916
4996000.0 0.99643417930659 -0.03783740633411097 0.009894512292501377 -0.006036965380051403 -0.003547314999740815 -0.007646248360615409 -0.052182725034948994 -0.20299531110037225
5995000.0 0.9965056061066506 -0.045709344347811175 0.0071403160576138545 0.00460172163520152 -0.004741350903654746 -0.0023181366542143985 -0.11894896329341188 -0.09410322248033035
6994000.0 0.9979112458805436 -0.05778438620034999 0.010607360839931032 0.005878415053558026 0.0018853442873840282 -0.003496148256585869 -0.13894019506049343 -0.021635905101290202
7993000.0 0.9985011216106473 -0.06647668260021301 0.0017787746005068922 0.0071437691544374215 0.003171614041586524 -0.0009167253347607435 -0.14521896291097597 0.039003435602784846
8992000.0 0.9985037362541963 -0.07311046933518102 0.005221640007247886 0.0026527106983627712 -0.0032469941749863666 0.005855591043379363 -0.1421989312313076 0.05594782579005054
9991000.0 0.9955811852058223 -0.08208299442016115 -0.0021341485125728915 0.004103330724775047 0.0016421471620562467 -0.0025150823030570223 -0.13960245402334837 0.09437558643605297
10990000.0 0.9948664097019 -0.09454796302327871 0.0027778988032346056 0.0046900439962422255 -0.00032251192415472924 0.0016516342011556352 -0.12728279955784103 0.11053986760313433
11989000.0 0.9941083274037389 -0.09769347907890627 0.0023587112046585565 0.0014938602449754727 -0.005166451448104941 -0.001722536643695675 -0.11374603870968716 0.13470798025304348
12988000.0 0.9932097985128184 -0.1102775526166891 0.004843140385672031 -0.0030142821851101755 -0.004210769581152011 0.0008444494969771244 -0.11702904792570575 0.16809583778191198
13987000.0 0.9918044788224031 -0.11498696436040727 0.004836385989613207 -0.0033865234601244223 -0.0007935472519323038 -0.0003476126521527788 -0.08990402971163025 0.18184035671879967
14986000.0 0.9914738127886923 -0.12485164959764458 -0.0047503086876123524 -0.004195895822037841 0.0008187519689282971 0.0007690353265332073 -0.08574512158326893 0.20056386702472215
15985000.0 0.9928015410915363 -0.13587072225564445 0.0027879786703695225 -0.0031223313544312668 -0.0004639941874838344 -0.00018407325213407922 -0.061578520253616056 0.23141128510886197
16984000.0 0.9905082085673417 -0.14065966873882377 -0.003984701191563521 -0.004736395995654529 -0.0011638138717559423 -0.0018824181417550258 -0.059218504279567256 0.20952801203156796
17983000.0 0.9895740529566748 -0.15094156187048088 -0.0024587933773868335 -0.0013733628275946056 0.002536699888332231 0.002753046454717981 -0.05179945598653875 0.216864730745916
18982000.0 0.9843793451334846 -0.16090233051317865 -0.0007987386109584844 -0.0014096294437121095 -0.001571239904037439 0.0021834647316731313 -0.01616457051942176 0.22537804823436697
19981000.0 0.9860927150691122 -0.16519986871855127 -0.00199907727567485 -0.003195717986130882 0.0004688268871225388 -0.00025188901345034933 -0.009492718660536184 0.22837633563811818
20980000.0 0.9838474871857257 -0.1739682540704866 -0.00604261268754522 -0.004718266147698489 -0.0024079605660556787 0.0006066755511159291 -0.00411884651801312 0.2593455745000418
21979000.0 0.9817775493981863 -0.18341370364204432 -0.004277534789636519 -0.006662613378596214 0.0021199323616147387 0.0010267896559800146 0.019850090089330998 0.23725493230364136
22978000.0 0.9814569286368476 -0.19261681664830232 -0.0036246400545467024 -0.007341776527345113 -0.0035762579628134113 0.003043199824972667 0.03662790018928918 0.2579324741232353
23977000.0 0.9802497536630265 -0.20041376170456915 -0.007921901084674719 -0.002123741221530888 -0.00019806607627780558 -0.002587671816407157 0.042093998223291566 0.24834534633060376
24976000.0 0.9765262421547785 -0.21019721454878249 -0.007155115525157982 -0.0033284168228818957 0.00029763531027176366 0.0037489759040501224 0.06930425247841 0.2531702240198258
25975000.0 0.9719509605806396 -0.214525051356181 -0.004841138718122082 -0.0030048548144459963 -0.023614923098810102 0.007877797114097643 0.08136727435250567 0.24586826498605727
26974000.0 0.9743606525823449 -0.22595229184123536 -0.003847895764290455 0.0007271779943896641 0.0019942334902323575 0.0020098400607102217 0.08482440935369986 0.2637014522673054
27973000.0 0.9725814282284151 -0.23234750381955052 -0.0062084155576397765 -0.00019232420552076207 -0.00042324456088877344 0.0017057601106058467 0.10565691704547085 0.252770367302907
28972000.0 0.9689319567777176 -0.24205538559780737 -0.002407535368168842 -0.0015563133031353674 -0.00030690127759224275 0.0012269977478008053 0.11763576084567058 0.24925948527440275
29971000.0 0.9681575937929562 -0.24898772914148468 -0.001628641864587879 -0.0030987033279279443 0.0015431534315823955 -0.0003638142487526805 0.1547833076912771 0.2608967696659877
30970000.0 0.9657217611479637 -0.25613382398714024 0.0020783738859641993 -0.0005923085053771172 0.005240030758973257 0.0022294847853964257 0.17386266135059994 0.2507302464404456
31969000.0 0.9638944082972186 -0.26531676764078593 0.0037659919882155352 -0.007552589909004487 -0.001735394563606296 -3.094758929985582e-05 0.14903839248328876 0.25047595815965484
32968000.0 0.9625509078341026 -0.27440782757921633 0.009595727094741416 -0.008321487973412292 -0.0003287761814051124 -0.00021087399545385537 0.17278741854074736 0.23992001959824985
33967000.0 0.9602868671494036 -0.2816246935291431 0.00953162480267087 -0.011111700849915352 -0.0033568566739542115 0.0007339842684649788 0.19074946852399688 0.23357712944081815
34966000.0 0.9552003454870955 -0.29236167421762593 0.014757300315995547 -0.012029568985774916 0.0017446863074567522 0.0037391185248227855 0.20343504699228707 0.25226768731893895
35965000.0 0.9529153534149026 -0.3007010885017736 0.018013798225964696 -0.013303248396321524 -0.003372626320518883 0.0029567834603067 0.21542885855325403 0.25149808072317786
36964000.0 0.9505278771595604 -0.3093834662672513 0.016349781540856145 -0.012776972253483202 0.00020829960001186924 0.001898168375503052 0.2217257719658764 0.2435379481213065
37963000.0 0.9474678991143405 -0.3162274170148092 0.021108627341070666 -0.018791285826834838 0.0011805099194842608 0.0031969085450790215 0.22702724111112965 0.23648817846452494
38962000.0 0.9462393467402798 -0.32473530685856855 0.02366209536389906 -0.02517088775072795 0.0005559855263124123 0.000313973160407239 0.24481609906203594 0.233448285069836
39961000.0 0.9415463109244508 -0.33513511878726954 0.02553793716063965 -0.026688872909495828 -0.000585870158949698 -0.0003679079459012209 0.2524974293086485 0.22426847297273877
40960000.0 0.9388363106182644 -0.34186032270605154 0.023109146567905067 -0.023558089555460168 -0.00045371370829277665 -0.004071529485427831 0.2687487336864705 0.22408636299408885
41959000.0 0.9361745439936541 -0.351332843210358 0.028189897468226564 -0.03241473200337886 -0.00108203762053328 0.00016454653181297385 0.27092246107623025 0.2110041178896718
42958000.0 0.9302558468587937 -0.36060385561586616 0.032108665976864105 -0.04039803938418509 0.0019922674568457837 -0.001593359058528 0.2876105564793668 0.19847667634920982
43957000.0 0.9319265760964421 -0.36322882317646843 0.034378606483414245 -0.04559423464418005 -0.006030604521109172 0.0009324072362319069 0.28947682309816064 0.2079330710324748
44956000.0 0.9281380643203704 -0.37132258019091163 0.03626150460495498 -0.0535397443569245 0.0013958415635896891 0.0011140222187889664 0.30887773169215366 0.18868511021993742
45955000.0 0.9228898393445808 -0.3847838947611163 0.03456180194569164 -0.05858468910583025 -0.00021779549041465188 0.0013973380925474126 0.30680157794220597 0.1919354163180222
46954000.0 0.9199660047639265 -0.39203035556408 0.03562322826093573 -0.06400290908544135 -0.003180438144548701 0.0009822528664756428 0.33605175980846574 0.1741637716479327
47953000.0 0.9159281767522548 -0.4023637001461366 0.03581425002096791 -0.071158199449646 -0.0030857272195959884 -0.0007888320728047329 0.34256694582427083 0.1783023396050403
48952000.0 0.9118060203992192 -0.40909633750956353 0.03544005214036421 -0.07882276026471204 -0.0012570245428356842 0.0041777245391850255 0.34108799440110915 0.155985870326222
49951000.0 0.9077858391785097 -0.41756902832941156 0.03241494037976958 -0.08642943649414812 0.0017519249592544387 0.001955038548556353 0.3541966793763803 0.15139105036542186
50950000.0 0.9048876521442043 -0.42434118583629066 0.0367918791708504 -0.09547922519756612 -0.0027405507490470137 -0.0001692092006508355 0.35211889525171586 0.13601044560147266
51949000.0 0.8995677157662944 -0.43291308542940965 0.03526329652914961 -0.10296022298877011 0.002541117199753487 -0.0008262502702529032 0.36479117539091965 0.14326473011495644
52948000.0 0.8979023794671752 -0.4397353478595791 0.038358611965363575 -0.11017303077387254 0.0011857104182735631 0.0036866315085993515 0.37923665531930445 0.12757315554311216
53947000.0 0.8936110342734075 -0.4465500279171538 0.03838360723345002 -0.1222372761343619 -0.004000537908912945 -0.0008598381660821078 0.38087409030740377 0.13667185896704426
54946000.0 0.8886505378890308 -0.45553660878521735 0.04288812878075006 -0.12600405501766918 -0.0008726734733377935 -0.003351754961424321 0.38847500019058206 0.1259123827108648
55945000.0 0.885610595381328 -0.46401657287356646 0.04352477050074597 -0.13887033464789156 0.0022249598388870946 0.004080502444569726 0.40169670567394256 0.09549271751558845
56944000.0 0.8807759959832022 -0.4734579782502331 0.04332484929924512 -0.15024393883227938 0.0011567560435525024 -6.787068976193523e-05 0.39609359221648965 0.10612761994258241
57943000.0 0.8776180921538627 -0.48371697542386727 0.046219012155236765 -0.16069132228292254 0.001602540319432878 0.0008803662971672467 0.4037474729800543 0.09115472131749591
58942000.0 0.8702687726642638 -0.48931822021199645 0.04608922228737323 -0.17029338941352096 -3.632564967796345e-05 0.003201903616124551 0.41958396872425147 0.08988645311372744
59941000.0 0.8689844600204454 -0.49557692312392315 0.047382665156827035 -0.18270454674220893 -0.002552686279529408 0.0010205467714917863 0.4233987328829999 0.09079040854644357
60940000.0 0.8598088505396493 -0.5054794163827909 0.04604741931819737 -0.1849748926188203 0.0017703050978036198 0.00024345276104311594 0.41114594725864373 0.07075486828446906
61939000.0 0.8588154503869113 -0.5110649558664012 0.047246587894611725 -0.193811928636002 0.002366418590671185 0.00033338515781420686 0.42323795247733675 0.07309346283958386
62938000.0 0.852416998909487 -0.5216240961833951 0.05442040208460086 -0.2097361591409559 -0.0011744586699471923 0.0005663991518309962 0.4506668269668887 0.05685001472652742
63937000.0 0.8474839720851587 -0.5290309825178123 0.0499874552787756 -0.23025437871144255 -0.0034520732746461044 0.0009532023362718547 0.4422337982259633 0.03542657053170651
64936000.0 0.8428982520966545 -0.5323899467471234 0.0541934327882569 -0.2407683600737121 -0.0012241705579756426 -0.0001840188313341982 0.444121059287205 0.04853791986530654
65935000.0 0.8393186722180638 -0.5438427050040354 0.05378055742079335 -0.25562667339764994 -0.0030198110651544793 0.0028934892053143328 0.4508541646436994 0.012822983376812527
66934000.0 0.835032343113833 -0.5502571787362903 0.0534939957054224 -0.2685861456979459 0.000780867558271719 0.0009054517703399578 0.44440448735517385 0.007737561633041829
67933000.0 0.8293041976953742 -0.5577692850389234 0.051144460785399484 -0.28477437373466513 -0.0028092106998390855 -0.0006786116891961076 0.45034402480011093 0.0015911419317747055
68932000.0 0.8256474128213986 -0.55090986074977 0.049076722550822356 -0.29294355717596793 0.000651111220447793 -0.0011708148861745758 0.459334149434213 -0.014273358519915139
69931000.0 0.8176404565483092 -0.5752369702031264 0.04830721796434697 -0.31200278544106796 -0.0008468458731165288 -0.005086805019939874 0.4585780235887374 -0.028073879576706418
70930000.0 0.8116469655183762 -0.5797497358531627 0.0472066038291216 -0.32105436446373126 -0.00015996557533055428 -0.0026748544067319185 0.4531646475237427 -0.03740071368212143
71929000.0 0.8089770501404899 -0.5899205833550744 0.04413879398892686 -0.34478642702322704 0.0009679768166106316 0.0001877409739011369 0.46341970367181473 -0.03918359269665569
72928000.0 0.8020363265994759 -0.5994616115939526 0.03927630566498135 -0.35571310307008785 -0.00016132521148055025 -0.0010235512512740902 0.46768770645458585 -0.0563239255480219
73927000.0 0.7973509962582175 -0.6023316372165985 0.03243159056027122 -0.37543319900000494 0.0010819096786255315 -0.0016475969220611571 0.47109240188551893 -0.05742797160742081
74926000.0 0.7899696010300998 -0.6124322328505781 0.022962245061036626 -0.39124836452832784 0.0005900364036976078 -0.005821290004960463 0.47208900229876805 -0.05157182157063855
75925000.0 0.7863950901338673 -0.6174460843137209 0.017876434870671202 -0.4122465857609067 0.004086372359943195 -0.0020924802121865533 0.47493711178874937 -0.07732288992763384
76924000.0 0.7788957211365733 -0.6256480825385284 0.0010858720134802626 -0.4347635256736475 0.00042391811668316976 -0.00022630343857925466 0.4721911158349447 -0.08992440764636607
77923000.0 0.7733593208366859 -0.634226766962748 -0.0070268064786320915 -0.45948063569991915 0.0018285553710609068 -0.0011390095964320533 0.46483912380022396 -0.10019259937560306
78922000.0 0.7665758420455956 -0.6440439643829342 -0.02107074693604816 -0.48241121148514676 0.0011851590260601008 -0.000317689279051518 0.47546703805742413 -0.09703094389884101
79921000.0 0.7575233664953273 -0.6473366447479907 -0.038541350982840075 -0.5041392593177182 -0.001027318786944435 0.0006552031965848567 0.46752216956569986 -0.1172721360536295
80920000.0 0.7529781680933961 -0.6570782655085414 -0.0515877319999542 -0.5319820768126131 0.0007995109665363304 0.0017446883404863868 0.4623341308733054 -0.13281488904345526
81919000.0 0.7486952747423032 -0.6638838075435692 -0.07414255432657321 -0.5604823578480692 0.001128629599145642 0.0005834210516371067 0.47024084131469157 -0.12481367074423803
82918000.0 0.7391512308977107 -0.6718564338900084 -0.08326073403452917 -0.5881412624268352 0.001682227543402866 0.000510407338992847 0.4785857550477698 -0.14456181181541727
83917000.0 0.7315433463907819 -0.6795255967536298 -0.10470494847965844 -0.6218709445567239 0.002890825526753998 0.00394144960084072 0.4847687308996191 -0.15249000822340034
84916000.0 0.7265019907873045 -0.6879996349883357 -0.12824888059283096 -0.6499411366513783 -0.0022025138805113176 0.002644197611725526 0.4767998039723689 -0.16006006647790272
85915000.0 0.7207887021113406 -0.6944866572646656 -0.14476950624823323 -0.6826313196137742 -0.00047484700246754356 -0.0007827311755057345 0.47534620289220236 -0.1790836745685244
86914000.0 0.7141873299912949 -0.7030752364071041 -0.15976865587177952 -0.7185973527824361 0.0023554460342000683 -0.0004861293333673366 0.4637155124645786 -0.1888700060801431
87913000.0 0.705729895132993 -0.7080163858701115 -0.18195262789087335 -0.7450252957776705 -0.0006477834855194498 0.0023589190555873833 0.46938698789033684 -0.17982739229671543
88912000.0 0.6998507372535876 -0.7150849594388137 -0.19153745155798035 -0.7794135641029569 -0.0016142883541575587 0.0014808180020621305 0.4682908083151193 -0.19959845968236373
89911000.0 0.6921874194081439 -0.7247572408980087 -0.21182106072854645 -0.8171632358450993 -0.001278820978693295 0.0016414810413020076 0.4803499227327096 -0.21106577961545522
90910000.0 0.6848154647805856 -0.7291930868640694 -0.22980922584017377 -0.8502495454769381 0.0016488550939063949 0.0017404219028152148 0.47447904068471175 -0.21763257292031365
91909000.0 0.6755551445633331 -0.7346946687427465 -0.24551046177821995 -0.8841177736989826 -0.0027566551898585484 0.0025367893357600532 0.47275948354419656 -0.226411211612907
92908000.0 0.6680094182074205 -0.7433645559348275 -0.26679248360843233 -0.9168156251608305 0.0018693825418652425 5.6883157027760306e-05 0.46291932353636617 -0.23933044068323855
93907000.0 0.6617145074621174 -0.7505171175917091 -0.27997925778044025 -0.9443392353591552 -0.0005239361048164853 0.00033870893667384836 0.4650995741292847 -0.25072663649831456
94906000.0 0.6507718035296141 -0.7591383333594828 -0.29726418315914116 -0.9792468568551693 0.0021639103421890586 -0.0012717952946002082 0.46286802705333624 -0.24893919615390422
95905000.0 0.6443282686791391 -0.764460464190231 -0.3244226579342358 -1.0137025049169435 0.0037139447211481944 0.0004296391640661508 0.46512579923052577 -0.2652546394526675
96904000.0 0.6365391599004464 -0.773787546189672 -0.3382352588946935 -1.050988542545274 0.005304794751823893 -0.001816142854491814 0.4644278398913197 -0.28801999351413565
97903000.0 0.6268480704836242 -0.7765946142537671 -0.35397311640855017 -1.0816993651015145 0.0014726539591647073 -0.004459995511057888 0.44981204839224226 -0.2793151719799251
98902000.0 0.6226495012350117 -0.7847837247017748 -0.3766745604554138 -1.1179983625796241 -0.0007111837141708141 0.0012067156626244667 0.4517449911503867 -0.28933214846009947
99901000.0 0.6118645474943699 -0.788585061451528 -0.4000382844944209 -1.1488173489757894 -0.0009587997931519019 -0.00035255814546237597 0.4614657848657206 -0.31133778363421377
100900000.0 0.6045546480196503 -0.7924204562918835 -0.43184595758784944 -1.1836594858049476 -0.0015613833294899503 -0.002103312283254885 0.46871480175798425 -0.31367622873111295
101899000.0 0.5949393169695727 -0.8006871404842082 -0.4560048622736729 -1.2181556297644274 -0.00137872823647895 0.001109133927862476 0.4529131388241501 -0.32652958889885636
102898000.0 0.5858090721490996 -0.8067419786553883 -0.48920420326781827 -1.2498877524698364 0.0020510580296260227 0.0012851778193334255 0.45073195079586575 -0.33954705996776535
103897000.0 0.5755769977835751 -0.8151846482309676 -0.5286352897530742 -1.286923946410076 -0.002001951877047534 -0.00018434121660229982 0.46769275404150706 -0.32661094994667644
104896000.0 0.5676723274032113 -0.8230333656715392 -0.5746050210776134 -1.320072427504035 -0.0022840121045549252 0.00044367836495662024 0.4517759366882194 -0.3416738141012302
105895000.0 0.558493669453077 -0.8278729122895839 -0.6160136772092704 -1.356722319583161 -0.0007965490545706448 -0.0010079621859368595 0.4344381333695907 -0.3684303655066256
106894000.0 0.5507988340282275 -0.8330588213584591 -0.6758443095465194 -1.3894633216654508 -1.5050304805699713e-05 0.0032158059455748033 0.43830331350696233 -0.38343297887481914
107893000.0 0.5397361210101431 -0.840154614083577 -0.7236006069183847 -1.4251297630589101 0.0010376053244213208 0.0008404826714909273 0.4422314816240616 -0.3958116581110102
108892000.0 0.5321258950899417 -0.8433340445687749 -0.773723165618649 -1.4575749622812053 0.001562544036184898 0.0013574315322265826 0.4325688965975868 -0.3793663301274195
109891000.0 0.5197583049187192 -0.8516661207263205 -0.824350936755283 -1.4968253432834733 0.00046005759970959426 0.0004159603396159864 0.4416415551216845 -0.37467008899924226
110890000.0 0.5137863317807664 -0.8533086157494626 -0.880623002463938 -1.5048970962930983 0.0007514566903684049 0.005893447835571344 0.43041193825000623 -0.38216273558900643
111889000.0 0.5010100913712484 -0.858148690983779 -0.9500957281247516 -1.5622006117650504 -0.0034543317647064407 0.0010353356311554663 0.4189268705459398 -0.3978569577921007
