! Created with skrf 1.9.0 (http://scikit-rf.org).
# Hz S RI R 50.0 
!freq ReS11 ImS11 ReS21 ImS21 ReS12 ImS12 ReS22 ImS22
1000000.0 0.9790485438490524 -0.007259233653934069 -0.025300060706679218 -0.03721445705862638 -0.015355063313171803 0.009953680178877829 0.3982880963669241 0.3507514682227457
1999000.0 0.9980056062183498 -0.010655369010239437 0.008771439217229907 -0.02593171350737242 -0.005981526151760831 0.0021195628835685098 0.25737218240577403 -0.04647982934272652
2998000.0 0.9991982477760496 -0.02073247696904857 0.008440957962476634 -0.02204742095848406 -0.0013139688216606451 -0.0013805521022053954 0.18905009028147737 -0.15268180017790356
3997000.0 0.9992344040310098 -0.026298128613127286 0.011980132931494898 -0.004995380500753817 -0.0053175549318651184 -0.0039613390488440845 0.08613166151088451 -0.23281559336364135
4996000.0 0.998299730308032 -0.0405456858435077 0.008071011022582808 -0.00396898681952294 0.003317427688613524 -0.006350019178145869 -0.04635110796691687 -0.20308422010911928
5995000.0 0.9969385641389149 -0.04648274185381822 0.009550387851176819 0.0021321923037555075 -0.0010876434980649561 -0.00034174237195001974 -0.12767852973176558 -0.0930019840645599
6994000.0 0.9929744082786625 -0.05832952928491806 0.009079903511633089 0.0034384727032700313 -0.0013947014831030907 0.0010365672330968402 -0.1531753506557895 -0.02873945114447956
7993000.0 0.998983132057761 -0.06794423245247463 0.0016507809080392557 0.0036379711647225974 -0.005209634018831675 -0.0010598683697194344 -0.15515746885129683 0.03874454196785475
8992000.0 0.99740215568155 -0.07134296118754262 0.0012690697706419654 0.0071555058520864035 0.0008202949887784767 0.000966103032634159 -0.14740193740996346 0.06830238033948165
9991000.0 0.9957564314422961 -0.08352015402041497 -0.0008827405498912722 0.0052175181681426526 -0.0014668826063574006 -0.00118474757314211 -0.15940859428426923 0.09527908761188494
10990000.0 0.9944210617138423 -0.09237803994410448 0.006241612615348348 0.001140355822067981 -0.0007019627803953602 0.005733116431943765 -0.1254383928690563 0.11402477276201116
11989000.0 0.9935188225615829 -0.09989761882971032 0.004403533855107481 0.0005045598290066751 -0.0034391888834044183 -0.0007962237907846429 -0.11870987408040712 0.13466676845389097
12988000.0 0.9927290757617188 -0.10678266068179681 -0.0025872729466414977 -0.0069891912385323255 0.004680272618594131 0.001672150342713847 -0.11865694214525034 0.16817035898676888
13987000.0 0.9905107482559413 -0.1174495644540893 0.0004812167249563192 -0.003945780562052496 0.0027344523651636416 0.003917314467904123 -0.08615536988734401 0.19110833259715534
14986000.0 0.9900276254596797 -0.12453309786024053 -0.0018170157914338915 -0.004168133692635095 0.0007884616931602505 -0.0019238710176360241 -0.09784371704635457 0.20857455927824203
15985000.0 0.9902687646304537 -0.13568421649652185 0.001419381555857777 -0.010508495818288685 0.0013035337745987297 0.0010500504512547901 -0.06213795960227206 0.21792871275136375
16984000.0 0.9863046202696772 -0.1449319739039237 0.0008022333345606397 -0.008087422038630094 -0.00041854549513124756 0.0018596603814660187 -0.06105488076498781 0.216092869791169
17983000.0 0.9877027589127537 -0.14937106239541392 -0.008383593284097768 -0.0029651851177507965 0.0009278056640698416 0.0010803824583863438 -0.05458626940660044 0.22486117556356863
18982000.0 0.9861450973374415 -0.1605637154600262 -0.005380080146080946 -0.004011967968646513 -0.00018234957754413372 -0.001898127409635738 -0.022630146189981572 0.23366558703296483
19981000.0 0.9863335140348183 -0.1658318591125565 -0.005224106249524111 -0.0016182417931147148 0.00011194372230077039 0.0032916213297155624 -0.008854553545175876 0.2353188268346511
20980000.0 0.9843065798334291 -0.17598236601892062 -0.004379411469573936 -0.00263392450042978 4.24508238740788e-05 0.0008095774141844448 -0.0069526895279092135 0.24705256396271422
21979000.0 0.9801153471187065 -0.18347185501427046 -0.0009866991124125798 -0.004827550914942713 -0.0014038022215400931 0.0037320994139758788 0.013756604475883992 0.24570558708825505
22978000.0 0.9794614214648699 -0.19419320369677287 -0.003078573171782911 -0.004768052243734176 0.005176326560882742 0.00233385104274027 0.04243238822118923 0.24977228403675272
23977000.0 0.9798302677994195 -0.19975819812242487 -0.006903666596380911 -0.0008361225453576787 0.00018530497446058093 -0.0024013161632040797 0.03627289060422377 0.2563685167698523
24976000.0 0.9741695961418775 -0.21211782085145822 -0.00729002847313473 0.0005190860816867575 -0.0029614001705852845 0.005129586557965218 0.058448387859695666 0.2689293957299807
25975000.0 0.972957258763923 -0.2149338715688912 -0.0059941216393712355 -0.0011740147028557549 -0.021514164273590843 0.012662110365533361 0.09704816967123332 0.2611225673959712
26974000.0 0.9727381987341315 -0.22742998582525828 -0.0030971518048595464 -0.00025488736256678744 0.00047231339946938295 -0.0013451882718826668 0.08002478971060527 0.26645108927818895
27973000.0 0.9718498866832952 -0.23266903759345844 -0.002996532118022445 0.0008403046525278334 -0.001451683163057663 -0.0018903559464013382 0.10641106821453725 0.2535940304708317
28972000.0 0.9688920085665553 -0.24343479276772675 -0.00173461847098699 -0.002926840265287936 0.0014793700466734314 0.0008352665207354173 0.120971723255712 0.2606556683107878
29971000.0 0.9658347861896529 -0.25380063822415344 -0.0003506800525085856 0.00020851773217780693 -0.0007621705219772883 -0.0031034314796387673 0.15368464880851238 0.2599412506136804
30970000.0 0.9647493138606665 -0.2593876278032036 0.0007842346971251569 0.0029977551896734353 0.0013464974796915836 -0.003083701072685907 0.17504988340671715 0.25159593101895494
31969000.0 0.9612429222381375 -0.2672067186132977 0.0039033093288579836 -0.004073810941728917 0.00029056199043844025 -0.003065715661863711 0.15875091116585582 0.24702847881369985
32968000.0 0.9601913425669941 -0.27673404956996767 0.007574207126289687 -0.006833521564768966 0.0027173315096618903 -0.004102038577524427 0.16475747641366886 0.24802614995963498
33967000.0 0.9584216624389085 -0.2849951060243648 0.011006561201164946 -0.011658961887535721 0.0023127268119957334 0.0010254673126848324 0.18602357027825192 0.24198172257617367
34966000.0 0.9537889031189176 -0.2956562018683389 0.010360876131175407 -0.013723960729153219 -0.001938874513898096 0.0018435368999172275 0.20135390815621707 0.24660415501612637
35965000.0 0.9507939277002573 -0.3025139696168062 0.014254771993649388 -0.01113025945829966 0.0010182994719493748 0.001051676545344444 0.22153798888783555 0.25165180630691536
36964000.0 0.9490889687615883 -0.3103612840530608 0.017355966984098914 -0.015445132457407688 -0.0007341952648529547 -0.00042755715718076787 0.2201065904696546 0.2490490383294498
37963000.0 0.947142608500017 -0.31953067162446813 0.019727992523513222 -0.017993283125994724 -0.0018568751873415856 -0.000180982069045945 0.23706155644198013 0.23446912897502276
38962000.0 0.9443730007948826 -0.32827923713611346 0.02312918395208059 -0.025711208282591807 -0.0014166747640626223 0.00015673278250612888 0.2460897082491978 0.22944523377883602
39961000.0 0.9406461195688168 -0.3367597201301355 0.02605894614989893 -0.029336284249486463 -0.0007269488916493329 -0.0005789086460537676 0.2560956853714747 0.22831556196438874
40960000.0 0.9369713149250305 -0.343554460853966 0.02462117852715839 -0.024835851737635146 -0.002748409954464714 0.0012858122416197744 0.2749956324818736 0.22153744450971333
41959000.0 0.9347125080552585 -0.35490941362275585 0.027624871039649265 -0.03088808754411234 0.0033732661896173134 0.0016768633431453784 0.2791474848879205 0.2215527873933167
42958000.0 0.927646515871914 -0.36367444526622805 0.03471615926530625 -0.041756688798393615 -0.0019922769499342977 0.0005676435023361866 0.29151821240271336 0.2019346379141689
43957000.0 0.9286664319146174 -0.36747693780695034 0.0358749223179837 -0.04632311491090205 -0.001059232409060151 -0.00010945441868613136 0.29643008423906086 0.20527299875780863
44956000.0 0.9248366063536732 -0.3752889822499736 0.03564599113226358 -0.05315089661688302 0.0004562770700946241 0.0019337473362791907 0.3142069070058437 0.19386475291764899
45955000.0 0.9195132468620195 -0.3880776636064833 0.03480398968514259 -0.058514894056868015 0.0005135904321104048 -0.00020006569182308027 0.3127295431265175 0.19628676998942038
46954000.0 0.9156465123561495 -0.3948534620691831 0.03575716044955012 -0.0649448620082846 -0.0019610002473135217 -0.0019632506499518364 0.3340325936956318 0.18438209490611862
47953000.0 0.9144149228062239 -0.40304911352127726 0.036281377356789046 -0.07275178723264658 0.00046945376915665053 0.004741800898880678 0.3455061037837995 0.17507731983937383
48952000.0 0.9084007153118295 -0.4113893927338872 0.03781656964198389 -0.07597820076023767 0.0016255345641182333 0.0010677990599625685 0.34133354407985095 0.16440370272864427
49951000.0 0.9040257239183094 -0.4214285866240884 0.03599707433479839 -0.08870423632890934 -0.0029296694051547368 -0.0008530097982961801 0.3633412712165421 0.1568933531630554
50950000.0 0.9018865841355848 -0.42848139245041517 0.03897469269611267 -0.09709995223316839 0.0020511927403375338 0.0030981614893976395 0.3583123971910812 0.14410649147134502
51949000.0 0.8978273887061275 -0.4361292817423935 0.042572730778847996 -0.10565204336898425 0.0009994919949862322 0.001064487090414178 0.3658017758167755 0.13840564668500177
52948000.0 0.8936847008051492 -0.44568871326948717 0.04016836830443766 -0.11416153794864123 0.0002095701236818622 -0.0009759551119052397 0.3794906563666773 0.14279486042357586
53947000.0 0.890642676475257 -0.4514396553039962 0.044331184644486786 -0.12310684576913837 0.0008802500346786823 -0.0012755883851278903 0.37781932917190164 0.1343783517390143
54946000.0 0.884946058563284 -0.46321648097979934 0.04260638232089966 -0.13564731097052876 0.0009828840219273743 0.0020078178292713385 0.3920941133166391 0.11954118681207143
55945000.0 0.8828217135597347 -0.4662881076378141 0.04794937819340598 -0.14097488295478638 0.0009448180230756086 0.00020763538106136593 0.39921766825999044 0.10162063057797974
56944000.0 0.8788561548498324 -0.4762694460203882 0.04700290160099784 -0.1550946847816743 0.001751460231927422 0.0005709942459086086 0.40085468042591604 0.10602541181149314
57943000.0 0.8720018330396945 -0.4870303100828661 0.04822600452861344 -0.16658668978827854 -0.00021364805587566847 -0.0017250720001407325 0.4067804030243153 0.09256510303767625
58942000.0 0.8679741650316078 -0.49167343672267155 0.053401192299903255 -0.17650125179487752 -0.00015967258435134555 0.004717777558717394 0.43065815998290835 0.08674526210287052
59941000.0 0.8626500813470587 -0.501115676758284 0.051339264725728424 -0.18710306034811824 -0.0013297778678324822 -0.001956989329767257 0.4191983533793296 0.08809028249102563
60940000.0 0.8565199155874272 -0.5092252471157594 0.05217257684067878 -0.19396336969142772 0.00170384020276398 -3.480197639790172e-05 0.4226936212713191 0.06865015937657168
61939000.0 0.8542270059884846 -0.5154031581441364 0.05209258059795742 -0.19811582700946767 -0.0012134199669571043 0.0010979844489744925 0.42209513537036963 0.07251369537755863
62938000.0 0.8488604159810822 -0.5249906645954996 0.05863512895464503 -0.2157419087170644 0.0008087366361011972 0.0024512822949411027 0.4473798780775479 0.05455281542980521
63937000.0 0.8439667166443824 -0.532775148535009 0.05638933090159086 -0.23500369164596308 0.0027392661735937463 -0.0009483551526221995 0.4462618219758882 0.04537263111668391
64936000.0 0.83727317196076 -0.5387799494438964 0.0554495288089988 -0.25064257933381956 -0.00042536580103464734 -0.001431809634879984 0.44083221205449113 0.04367689989724735
65935000.0 0.8334350511071128 -0.5517226707795178 0.053808879952622936 -0.26521680022653965 -2.8394901148080093e-05 0.002234131898398356 0.4498509509165289 0.01834131303873167
66934000.0 0.8310438563194729 -0.5536942229738896 0.05705354674457212 -0.2764195619775578 -0.0020935342547317034 0.0018426583256710865 0.43498445288197385 -0.003748144288830063
67933000.0 0.825820426520569 -0.5632130407646696 0.05815991921282191 -0.29057585112780454 0.0005803365604707422 0.0015274999813453317 0.45625195760069764 0.007101634471806981
68932000.0 0.8220747948071931 -0.5679300463399619 0.053199079203184 -0.3084470476729731 -0.00166641060765203 -0.0001291305542069428 0.46165554326953795 -0.00470026185523471
69931000.0 0.8132069293336791 -0.5770723680992608 0.0563564576787497 -0.3230133854546949 0.003338151066945732 -0.0005479640589792998 0.45970759367175884 -0.016838917572429647
70930000.0 0.8064107819118655 -0.5864914645809379 0.049020057891743546 -0.33483786102312285 -0.0022131654910740204 -0.0006679511585011964 0.4648763271922243 -0.031183294331388035
71929000.0 0.8041991221205086 -0.5945560734948414 0.04433870476051612 -0.35438285806676617 0.0006598526646821459 0.000722350204214598 0.4588921483706194 -0.03289951508696483
72928000.0 0.7980616780157495 -0.6013131227702304 0.03791763864802331 -0.3703587015452964 0.00029913729453888915 -0.0035999008945355763 0.4685225001459831 -0.05209743104988241
73927000.0 0.7915856712470671 -0.6075100011006651 0.03582480841918871 -0.3911269269413299 0.002074508471285884 -0.004216528778054658 0.47173330096149846 -0.054280337712824964
74926000.0 0.7858718297860892 -0.618739643082342 0.0320209627439875 -0.40910114217392385 0.0013303378869631438 0.00213136818750549 0.4746485200441233 -0.05227609415367138
75925000.0 0.7821896083314354 -0.6221359016672449 0.020734082519460843 -0.4294925619173169 -0.0010888654877517548 0.0012601489467849159 0.4786720015532657 -0.07575346377552888
76924000.0 0.772526432360409 -0.6312244263663268 0.006013443901046028 -0.4519092216832259 -0.0004892122613060369 -0.003554639499768132 0.4795250850427904 -0.07867847057298837
77923000.0 0.7671442641227206 -0.6392533865069543 -0.005926557598049533 -0.47731986981046265 0.002986739937994405 0.002380427655987297 0.46387500684762106 -0.08967685691481105
78922000.0 0.7616323197701633 -0.6492600990161952 -0.02023786866607995 -0.506238358272528 0.002704215373055983 0.0016929810998140794 0.47153973000519656 -0.11089357386082546
79921000.0 0.753744889487274 -0.6534370199413384 -0.041767711477888055 -0.5279411872437496 0.001669599742002157 -0.001257300595444992 0.46368661711649495 -0.10218750402598632
80920000.0 0.7486265075211286 -0.6621081679195006 -0.0590342493321076 -0.5554016958526815 0.003420979982086635 0.00010536818136196566 0.4723680393753263 -0.11831453559351926
81919000.0 0.7447381717182715 -0.6676751550160649 -0.07324829893122338 -0.5862367985581272 0.0010551171610650042 -0.0030500730674890607 0.47890887184993847 -0.12509659942787885
82918000.0 0.7326188166704348 -0.6766266940887065 -0.08543830341388764 -0.6160233051173928 0.0014734838653123374 -0.001969343569102205 0.4844884997074105 -0.1450124618826344
83917000.0 0.7256999762995148 -0.6843465754899951 -0.1115038466076085 -0.6429769966092931 -0.0036338072630735757 0.002795819353201084 0.4753112199033459 -0.1475899626363295
84916000.0 0.7212905692732461 -0.6906575028937835 -0.12378563683164494 -0.6824066595507285 0.0009456276769878663 0.002132947902437969 0.4781635291060779 -0.15811258817001572
85915000.0 0.7158131113004489 -0.6956448394966869 -0.14482502319403592 -0.710817634872579 0.004571490760637121 0.0016608260900857258 0.4832878983172055 -0.1744863425404362
86914000.0 0.7058169048402966 -0.7073244893757488 -0.15921785507405162 -0.7493911596026592 0.001806187672440249 -0.000343685417621807 0.47133362008876917 -0.17066095620854768
87913000.0 0.6987736247395101 -0.7137362649084089 -0.17875514634609274 -0.7771028349097608 0.0015293787245550792 0.002817918533417579 0.47163990681135753 -0.18147912058408802
88912000.0 0.6927986024266047 -0.7199067930508387 -0.19757786161097396 -0.8141699244329986 0.0010480611529971374 0.0013245827801909211 0.4689852551908773 -0.20345887747539465
89911000.0 0.6860574482333105 -0.7296028354328118 -0.21205155508302942 -0.8526577269296682 0.00427944371546295 -0.0005961402434064183 0.47481925550134163 -0.2023906309149503
90910000.0 0.6768502409281688 -0.7339811138043537 -0.2314276636298001 -0.8850021732786039 0.002137553888440443 0.0027999962433033977 0.4686403442162035 -0.2033828349736485
91909000.0 0.6699623374795406 -0.737216139330217 -0.2497097916677163 -0.9189070800082377 0.00026630568858754516 0.003605121948631823 0.4648891823991226 -0.21489253209284706
92908000.0 0.6617557028498336 -0.7470538931688414 -0.2681809459843503 -0.9513418436944414 0.004152752425989385 0.003409148730128868 0.4639537867837945 -0.23757687209612252
93907000.0 0.6555346289295628 -0.7516790153164983 -0.289178257811007 -0.9850854477406469 0.0004880892944702763 -0.0017598011987814157 0.4603810747019992 -0.25589223851112064
94906000.0 0.642915502146122 -0.7605538649104346 -0.3045244694678247 -1.0218911580889327 0.0035653244928946226 0.0017173324495757083 0.4716111409947995 -0.2457529451269777
95905000.0 0.6353706247500609 -0.7670476142129101 -0.331419627879924 -1.0537150287136143 -0.0008502356264641377 0.0022052315563874775 0.4706120596925777 -0.26618894515345615
96904000.0 0.6265112808202568 -0.775282060877821 -0.3477625231707587 -1.0956406394771543 -0.0030122281848294135 -0.0010702455048465726 0.4739565463958272 -0.27314252859732424
97903000.0 0.6196953183380176 -0.7793434385012445 -0.3699082593003925 -1.1283253334133525 -0.00248285270059652 0.0021237135988500353 0.46276071943561237 -0.27630116016664585
98902000.0 0.6136570793494865 -0.7869155402737056 -0.389444282485314 -1.163173306168732 -0.00036976841810622816 -0.00013893732086166637 0.452385446692857 -0.2916495741219319
99901000.0 0.6048944517135197 -0.7928664367919734 -0.4161282602990321 -1.1971855469431214 0.0027441281781467376 0.0010168814594268439 0.4622326217513626 -0.30697763900463787
100900000.0 0.597805482696602 -0.7977609934785498 -0.4523400735371968 -1.227872332981472 0.0025727915757567913 -0.0005748272135832526 0.4609885908590066 -0.31172834291707807
101899000.0 0.5865627579586224 -0.8076380517292227 -0.4820403378326699 -1.2664572719354434 0.0002682170095193943 -0.00082220148249287 0.45318249507876274 -0.3158881649242136
102898000.0 0.5778467943522895 -0.8117798653439139 -0.5132071174396704 -1.305576792435154 0.0024729970706563217 0.0017207232799393553 0.4616299980352952 -0.33244720684483636
103897000.0 0.5695635572466242 -0.8183630015638362 -0.5535685489719432 -1.3439833679346993 0.0031143656734568476 -0.0024552138979921237 0.47024109952078147 -0.3303862062715188
104896000.0 0.5609369530979343 -0.8301502637295286 -0.5975749967263793 -1.3751063216302468 0.0035896801873323467 -0.0007481934768317663 0.4337354472914752 -0.34022322273011285
105895000.0 0.5516055677992653 -0.8312556308127182 -0.6450098757073714 -1.4151379795867827 0.00011990186238885414 0.0024373764458032916 0.4412160653540941 -0.3571554108276281
106894000.0 0.5402391079550657 -0.8371808114433315 -0.6979133086731473 -1.4558186120464665 -0.002078177372917875 -0.0008614617376228375 0.43876900376105743 -0.36117196221817827
107893000.0 0.5369503830713541 -0.8426048224698967 -0.7442322981131617 -1.494741823389311 -0.00020229107571328507 0.0007246411216124585 0.4287343276023093 -0.37652453734835895
108892000.0 0.5213432863545754 -0.8470756102651116 -0.8091172392803031 -1.5306117802200598 0.0027515261517825746 -0.0019241940868209148 0.4338199488882974 -0.3740282068461616
109891000.0 0.5123633817359172 -0.8538202832365455 -0.866797486114282 -1.5685516018818002 -0.001490061125982134 0.0006929733068927366 0.44503133678541995 -0.38516980353213326
110890000.0 0.5068235453912627 -0.8694368184606808 -0.9413131085162557 -1.5926902169083175 0.0018792147623277785 -0.00031829596857854003 0.43556344501449634 -0.3906577131084242
111889000.0 0.4935175080595651 -0.8606737249078056 -0.9921065383718246 -1.6369715113342307 -0.003607102278937765 -7.776712934128901e-05 0.42138925942648914 -0.4055835046275859
