! Created with skrf 1.9.0 (http://scikit-rf.org).
# Hz S RI R 50.0 
!freq ReS11 ImS11 ReS21 ImS21 ReS12 ImS12 ReS22 ImS22
1000000.0 0.9715033976697847 0.005813029243115518 -0.012215757554289306 -0.024350665904135434 -0.026390241170606323 -0.003534840587584551 0.3844689661280623 0.3388100369667624
1999000.0 0.999417365366639 -0.011099663954191478 0.0034088706116573255 -0.023452711185766542 -0.006990313756301225 -0.0025773270016561435 0.2369320318424486 -0.05487512821760806
2998000.0 0.9997484132442307 -0.02275297754257512 0.013326883672169538 -0.014674697981166801 -0.005080264549977938 -0.0025310468563694067 0.20825874836594727 -0.13436812423357358
3997000.0 0.997231771089198 -0.02699625610174977 0.013567564277229615 -0.007475096741269828 -0.0019284997529166728 0.000497257383986736 0.09963673499093097 -0.23523597025547982
4996000.0 0.999477019975974 -0.03427141507490382 0.012933187764597886 -0.009195165845772197 0.002472377009034885 -0.0006138827148541629 -0.03284429085941079 -0.22683062298585796
5995000.0 0.9983400139875253 -0.04578447075185995 0.01246975312381145 0.002941058220045051 -0.003980295504386821 -0.0018762800116875029 -0.11753303844163789 -0.12272915505158695
6994000.0 0.9963649299736893 -0.05706509254250965 0.0037269457912992255 0.005697305423331014 -0.002272216653230539 -0.004872138028523186 -0.1475679947061737 -0.029822239810059423
7993000.0 0.9993774169105997 -0.06387525151189234 0.0013700112505342981 0.0025925032305301856 0.004509766510885558 -0.0035886034913034212 -0.16085675242941133 0.033473157742033764
8992000.0 0.9969462524377853 -0.07279239833427402 0.002195586306443358 0.001856380307226516 -0.0011282476348305778 0.0011172332081079612 -0.1717156826894185 0.05203894579059936
9991000.0 0.9954831136105058 -0.08230983789525369 0.0029195252295161457 0.00381296648004132 -0.002570660550664168 -0.0010477725000013112 -0.1379647238652416 0.0985304584400054
10990000.0 0.9952991934017718 -0.09164078100814356 0.000453751603321144 0.0021321879807013945 -0.0009755967201594467 0.0019033682880081643 -0.14015219082205238 0.1088738467483308
11989000.0 0.9939799993822661 -0.09844482980852917 0.007391421946201829 -0.0035728934652471743 0.000719501619834967 -0.0005009723437864198 -0.11833701873428577 0.13599453006309223
12988000.0 0.9911503354680764 -0.11087939060763156 0.0004131427946242956 -0.004068686407645473 0.0006713020426375792 -0.003539129550144585 -0.11036579780656926 0.1742537542192979
13987000.0 0.9893898861633039 -0.11990010259280258 -0.0011950967507550704 -0.000973718761394004 0.003116939903595225 0.00029163547444847735 -0.10381045675267266 0.17919434176000504
14986000.0 0.9904074159070066 -0.12365317444532356 -9.435120369718594e-05 -0.0034506004164681094 -0.0010394855350340018 -0.001370628468460755 -0.08329575645468856 0.21041097502183959
15985000.0 0.9898013006201929 -0.13550656965835442 -0.0017636662532617942 -0.003967599096381275 0.000454784943322711 -0.004878825405929993 -0.06037053780991877 0.21622892563295312
16984000.0 0.9878734415463889 -0.14173092582528804 -0.005486870165134255 -0.0017662458473722159 0.002413571202607354 -0.0037043076306436124 -0.06467669164089379 0.22175756453927056
17983000.0 0.9871514640901778 -0.14948652675615365 -0.0029480748400742543 -0.006150665298317017 0.001178009188478708 -0.003261384593812839 -0.0556441134839815 0.22343728823728548
18982000.0 0.9859052208227794 -0.15927542812495163 0.0004424869792943516 -0.01092103477789788 -0.0011885132555075448 0.005156962368767379 -0.012574520131916221 0.2315371555116898
19981000.0 0.9856874769379068 -0.16430864144281454 -0.004673401064236114 -0.006034904302091025 -0.0035251017465532577 0.0022731098218623695 -0.0010872211361696866 0.23848058818998807
20980000.0 0.9844359832368992 -0.17337563497042896 -0.00633465822880374 -0.00857052843521618 0.0016104891373253222 0.0020845631285852538 -0.00514773092961553 0.24901317087666885
21979000.0 0.9805130218517002 -0.18339739155518894 -0.005988387177907875 -0.0026461419236066233 0.0019394681526218008 -0.0022985399641872184 0.014570025022565969 0.2510712560730356
22978000.0 0.9779795345764303 -0.19503038901070927 -0.003408411366848823 -0.0020231749039654823 0.0013086063434438017 -0.0013980633292160422 0.031207071347445686 0.24740858094117396
23977000.0 0.98094334017633 -0.197891059433479 -0.005979954552183981 -0.0006019062450399416 0.0013128922508094294 0.0019294917018646514 0.04742442860936859 0.24949625107869838
24976000.0 0.9758962293344474 -0.21104882000098354 -0.0029357930089507 -0.003836978207599855 0.0002787367769396142 0.000387191336844351 0.06807751609232308 0.26003535423920626
25975000.0 0.9688013616854986 -0.2174234957320017 -0.007627807520029929 -0.004836854851065396 -0.01867832100663238 -0.015375411421265955 0.07656515709980392 0.25128837855048597
26974000.0 0.9722776012960361 -0.22553907599133705 -0.0009936461962244368 0.00016722921289268893 0.0012736483144593304 -0.0025115991488840147 0.09099056297255347 0.2637229826806488
27973000.0 0.9721805745900645 -0.23198095728686882 -0.004241869099333871 -0.0001362916570452858 0.0005969411540220332 0.0024895265838208763 0.10918511478972077 0.2559588242459234
28972000.0 0.9671922476305305 -0.24046886327423514 -0.0020913468351073925 0.0006971496987098921 -0.0022600993156065294 0.002023062155642999 0.11712819979773607 0.25357656551255203
29971000.0 0.965732639510225 -0.2520346713343501 0.002292624591781071 0.0006311300239734111 5.897287067136521e-05 -0.0022280215417724084 0.1470615340236225 0.2745526116914915
30970000.0 0.9640629249081191 -0.25566945093734295 0.004375157623109386 -0.000940635438279798 -0.0004704866140474421 0.003368115219614996 0.16547042372409068 0.2656672476662675
31969000.0 0.961435732158705 -0.2665732295963995 0.004591095929991663 -0.0036065620764536956 -0.0009359172180399325 0.0012225199619087588 0.15039372984824328 0.23758027726924982
32968000.0 0.9611293745615905 -0.2734123793610046 0.008339593909844609 -0.00789510314206741 0.0021564596689147095 0.0015487020509911712 0.16393857093282008 0.23957368737093127
33967000.0 0.9592008267735443 -0.28374602478616157 0.013697443906898036 -0.011707644368846448 0.002039981983122708 0.0024096652683588122 0.1895145906139646 0.2455551737113706
34966000.0 0.955692771935758 -0.29394570237162376 0.012297537321465294 -0.008360716620097118 0.0026548801248156917 -0.0034632058746569797 0.19540816184273826 0.24938042567579796
35965000.0 0.9527532450031247 -0.29812284610377626 0.019728433393968587 -0.016875204534160325 -0.0010404269860943877 0.004038936428158724 0.219285547025779 0.2557696498758304
36964000.0 0.9500369695893022 -0.30802925994712754 0.0170177470158669 -0.014180119136098726 0.0006830679512153909 0.000911935821724538 0.21282838374594618 0.2483882994347525
37963000.0 0.9476763615927554 -0.3164237748389292 0.021865648700207165 -0.023759282375928965 0.002044310925813666 0.0019301855312893817 0.2269023102052373 0.23992495053563365
38962000.0 0.9464946240895535 -0.32579341341036167 0.02343600658660566 -0.02666378191803586 0.0021415697026403494 -0.0013156237766675269 0.2423655887090609 0.24314137833308083
39961000.0 0.9408941545452285 -0.33434887387819895 0.025153063705585534 -0.02902710087819236 0.0017382236040239547 -0.0004439937615304682 0.25071827089395254 0.23035801723609844
40960000.0 0.9383689124154475 -0.3401956245592383 0.024215987364070095 -0.02543924167901232 -0.002512963814227616 0.0009159896988408726 0.2666621219579789 0.22542747167518867
41959000.0 0.9356511033458957 -0.35149766702014984 0.0313961555564895 -0.03094327896591946 -0.001352484816001416 -0.001317948939635226 0.27881149702999763 0.22131598967515112
42958000.0 0.9318763987118164 -0.35895041656598714 0.03649038621835838 -0.037535558834857395 0.0008172641400143154 0.0018802161573520373 0.28814666188375687 0.2038330952084276
43957000.0 0.9284199835502311 -0.36717595906402756 0.030928898453012964 -0.04763322247028026 0.0003274639218990983 0.002566381815219719 0.28602479232349 0.21175114456905403
44956000.0 0.9251428779920129 -0.37466378893303176 0.0368717737414736 -0.05125658649312865 0.000432900411886569 -0.003602628977606276 0.3056145227864451 0.2001997852321861
45955000.0 0.9216611947873132 -0.3848170391708535 0.03667433999866051 -0.05662153045081571 0.0004721182461972593 -4.8416313052359614e-05 0.30880128548965574 0.18713792471045557
46954000.0 0.9197162803019303 -0.3919422777968474 0.038193733515427965 -0.06505851012590494 0.002615932508445655 1.3455806087846248e-05 0.33343158597483813 0.1787545243184186
47953000.0 0.9165324247462798 -0.39939652819936355 0.036834593300568895 -0.07329005421059316 0.0019178807341584466 -0.001496890386382336 0.3430474819663451 0.17670913685078696
48952000.0 0.9114115939363322 -0.4083991848968778 0.039408961159197516 -0.07900422147330395 -0.006248673287270399 -0.0020569404804839 0.34102434170979246 0.1672194965588723
49951000.0 0.9063403136302286 -0.4162954067650266 0.0430583217162049 -0.08610797111930928 0.000244868502633013 0.0009553146389369662 0.3658225248544268 0.1596992053303094
50950000.0 0.9033078003019533 -0.42182240554485273 0.040667807430912535 -0.0935872259209141 0.00394257842060552 -5.380058713139239e-05 0.3576089471173007 0.13911643505946966
51949000.0 0.8992687128718397 -0.430954401874287 0.04315232557644539 -0.09988328178346192 0.0005561501087534626 -0.0009498106237685025 0.35978615211468823 0.14306461013998684
52948000.0 0.8986975535440961 -0.4405412902814636 0.042664127547574614 -0.11141189759937797 0.0008273664201115668 0.0013945901256042117 0.38714671619923025 0.13969398863642168
53947000.0 0.8928758107466752 -0.4476279663967247 0.045262864979127466 -0.1237853527728191 0.00012131091789592777 0.0022527040815926644 0.3748995351208364 0.1306534392971757
54946000.0 0.8868763075022116 -0.45879825814320896 0.04693486071443444 -0.13043212907948196 0.0022355505735073768 0.0002957097453430295 0.3895510663066107 0.12254478197533586
55945000.0 0.8843712687800355 -0.4651929918360661 0.050599098136616096 -0.14269335158486218 -0.0031833410665795783 -0.003032260296730475 0.3924104010829958 0.10259336940778553
56944000.0 0.8792853555901764 -0.47405801509800155 0.05164528121511306 -0.15210437768733645 0.0008472091657384568 -0.0013189438025893096 0.40757527428595064 0.10553370618973863
57943000.0 0.8763529540658437 -0.4822466463388513 0.05074507762305907 -0.16404717115183579 0.00039826953891171395 0.0013518993529416494 0.4037878749719527 0.1096459776644576
58942000.0 0.869473956568059 -0.48806756063672674 0.05360805157949085 -0.17496313459243534 -0.000380212432038326 0.0038762965785150523 0.4271763774547908 0.10016156063960917
59941000.0 0.866243536520299 -0.49694069413342024 0.05598131281234988 -0.18575481164647079 0.001762272269631315 0.00022539030616575636 0.4257136601192341 0.09274650514194722
60940000.0 0.8602808856584865 -0.5020783179063301 0.05638394576175448 -0.1884627679379286 0.0012042559743345278 -0.0006506586769448302 0.4125710323420263 0.08234346120661108
61939000.0 0.8574853849148312 -0.5102840622500999 0.05761020390888889 -0.1961453263729122 0.0004816407940625847 -0.00043330457629681563 0.42423522007879 0.06928532471563251
62938000.0 0.8513971396883631 -0.5205352200797505 0.06171052397892205 -0.2162341438790065 0.0003662139192788082 -0.0026935659606229165 0.4450845892186365 0.06516748533254628
63937000.0 0.8464569974542644 -0.5281416073958871 0.06041670103413403 -0.23246492193299198 -0.002647770622519597 0.002184756257577075 0.43923491715669655 0.04632041511212868
64936000.0 0.8424030688553727 -0.5331775497927966 0.06302938533577668 -0.2492093592099506 0.0034791983935541343 0.002745991728081192 0.43455383965296107 0.045136240374211434
65935000.0 0.8390126601328007 -0.543708684096439 0.061788334562101456 -0.2637860570297108 -0.0004442536359350066 -0.0001343981396431015 0.44258677840189825 0.030312588831235363
66934000.0 0.8330696774197879 -0.5507048319205947 0.05965478476110673 -0.2774330415389379 0.002282158038712734 0.0011541993115744128 0.4378120232601742 0.018029816525544265
67933000.0 0.8297611729628322 -0.5588095804800993 0.05949438745983812 -0.29271925788054776 0.002541668628154037 0.0032036837487426214 0.44788672484418085 0.014244536096447916
68932000.0 0.8230761709658747 -0.5659147600603419 0.05767263413635229 -0.3076909932437647 -0.00015185816461355878 -5.4489612598744775e-05 0.4643967179901511 0.004765775721337209
69931000.0 0.8168387783215344 -0.5736549218408076 0.059692567167023494 -0.32626220225042984 0.0016885225470018377 -0.0024450916759022404 0.46466919357667186 -0.009680900258007477
70930000.0 0.809953525384409 -0.5802239325556707 0.05726532542357126 -0.337713173976279 0.0011595460559105702 -0.0026955695012377697 0.4531777564571512 -0.022458250526541462
71929000.0 0.8070867352917914 -0.5905445895832403 0.049094353884041604 -0.36123630058158396 -0.0007375166501647541 0.0008062361191783457 0.46128505387574964 -0.03896700124216265
72928000.0 0.8000417983842009 -0.6003843088349108 0.045322095258342555 -0.3755072145884866 -0.0012120894643146247 -0.0021059946717400515 0.47684149582280166 -0.0336445155369052
73927000.0 0.7938445070367579 -0.6042763267393212 0.03952360647356969 -0.3959818222237132 0.0016417258956775644 -0.0033533239388943165 0.45664191117721525 -0.044979741687901004
74926000.0 0.7883638441040046 -0.6132393695764785 0.03399471387515637 -0.41696861301989524 -0.0022384335898118024 0.0017649262348614595 0.47520052755085446 -0.049594269595182795
75925000.0 0.7827545132772739 -0.6188073962365496 0.022508398241052666 -0.43502676397515794 0.002381758213759324 -0.0014415379079614917 0.473868302443928 -0.0728170716241042
76924000.0 0.7793910146957934 -0.6266587997542693 0.012000165989617282 -0.4596158698440162 -0.0008782203639363191 0.0005267512986311084 0.47199584117954063 -0.06620304684119814
77923000.0 0.7710964596284618 -0.6343492379891789 0.0029488080416653524 -0.4821478968662452 -0.0017615343942975566 -0.00019354893689033938 0.4721244119807279 -0.08673055754952746
78922000.0 0.7656533939119984 -0.642595700787858 -0.015262141155206603 -0.5151193559432596 -0.0013964659246955722 0.001760940324873089 0.47073120919528105 -0.09433605447838372
79921000.0 0.7549650533682037 -0.6459796561910797 -0.026996474003797184 -0.5371032854992811 0.00021132752420706077 -0.00014414231935664886 0.4587165024325285 -0.10913389107453328
80920000.0 0.7523146359965049 -0.6581525546485755 -0.04691959834557555 -0.5607555305264941 -0.0016218667381004187 -0.0028827880162688876 0.4662470478959002 -0.10971055260255552
81919000.0 0.7483265308346643 -0.6638143674213116 -0.060931823611637154 -0.5905193965665823 0.000295796674621232 0.0009462742943856296 0.47131394686690614 -0.12937349228392644
82918000.0 0.7367138291081976 -0.6722625884375371 -0.07148039851649332 -0.6254110219790848 -0.0038754543562548698 0.0027921460465178314 0.48070933517377457 -0.1337839963851718
83917000.0 0.7294108591067948 -0.6798749074801095 -0.09794208210590227 -0.6557759401828955 -0.0015991974388928863 0.0013633816183073735 0.4853949783023848 -0.13888584627969616
84916000.0 0.7250228680221477 -0.685922169742996 -0.10825460622162235 -0.6905278359550769 -0.0013274709618177165 -0.0024849455136945653 0.46485043292485206 -0.16949669090450603
85915000.0 0.7190152275152282 -0.6929051877401587 -0.13180282245596292 -0.7192990746641079 0.00023213305691464938 -0.002649188837519808 0.4679614137240645 -0.1654164014702742
86914000.0 0.7120883560295466 -0.7029372280453908 -0.146115765342793 -0.7615040616774739 -0.004532193960320275 -0.0015253357612789462 0.4643834235739558 -0.1646274614993865
87913000.0 0.7055836647594371 -0.7081256409745676 -0.16401215663486715 -0.7920562376788531 -0.0012230736467336873 0.0027012627449334798 0.4687823042545174 -0.17730665397222153
88912000.0 0.7007950295401987 -0.7151586688510123 -0.18369752421351498 -0.8263926618404989 -0.0016494750355016362 0.0037129211980537476 0.4625295442595469 -0.20352326203177817
89911000.0 0.6910952644957609 -0.7247317919813744 -0.1981037564686731 -0.8621647989717516 -0.0019490541484137283 -0.0019161851282825562 0.47678740781092843 -0.2033561041078812
90910000.0 0.6826825750940524 -0.7304138761927744 -0.21142820015381245 -0.899743920992923 -0.0006721141581002892 -0.0021306408827029342 0.4715481621033442 -0.20452266659947058
91909000.0 0.674978431411478 -0.7347720440648928 -0.2360991551896615 -0.9326315839213941 0.0009604115223579873 -0.0004920121012444851 0.46782883469670433 -0.220821446864483
92908000.0 0.6680714298191353 -0.7442975744555508 -0.2542991215044217 -0.9657849079852509 0.001448894613568213 -5.951008554874087e-05 0.4664501776118828 -0.22768810266643935
93907000.0 0.6605993094771376 -0.7487085030793553 -0.2738312262010865 -1.0004763831821366 0.0018720862914958928 -0.0008892887751979979 0.46323003116161465 -0.2357615690714021
94906000.0 0.6484258569777693 -0.7569447445703321 -0.29351476766389245 -1.0336460218987982 -8.442230665971016e-05 -0.002393436399093833 0.467594841712837 -0.23056206002841587
95905000.0 0.6417313420549408 -0.764347158812908 -0.3205479534685049 -1.0702540834475491 -0.001554767568942876 -0.003275273639661801 0.46386380170639907 -0.26827109768196516
96904000.0 0.6370370465943361 -0.7717174056533684 -0.33305332874883326 -1.1170057857546314 0.002156008074064285 0.0015768643677468307 0.4523042998379306 -0.26829814132997537
97903000.0 0.6246276363282953 -0.7772339358957038 -0.3597674584675374 -1.1449186632319384 0.0005265804635692463 -0.003624510417258612 0.45159814387335256 -0.27850206993690874
98902000.0 0.6213397184739927 -0.784509044671672 -0.3777254219402606 -1.1895320612896703 0.004733426336655654 -0.00010492224719112115 0.44944918623471863 -0.2864661177922255
99901000.0 0.6107274774766092 -0.7901022762598888 -0.4118681227627896 -1.2189451175310788 -0.0023697503938135992 -3.67873897591357e-05 0.46505825503658477 -0.29977893234736647
100900000.0 0.6035976510559253 -0.7927177672594261 -0.4414280234886784 -1.250560309372914 -0.0007337815612066914 -0.0006831818174147132 0.463093367842585 -0.30519420381162593
101899000.0 0.5941732206979682 -0.8011342886728814 -0.4671862003349313 -1.2968791554931436 -0.001410068104869709 0.0001434590123524739 0.45382106508443165 -0.3096894294606001
102898000.0 0.5838161841191811 -0.8077895889360783 -0.5106221302300913 -1.3323034215178926 -0.0009811696578858138 -0.002106526858728423 0.4525152229012166 -0.33952141628866694
103897000.0 0.575288226885604 -0.8141712182291989 -0.5480324326782494 -1.3733426622958163 0.0022852666654663693 -0.0021294239462606368 0.46709428713665385 -0.33294767476031606
104896000.0 0.5688126365585982 -0.8230977941601205 -0.5931053445298644 -1.4072477424800194 -0.0002873245256454951 0.0025284769607007364 0.4512943919429078 -0.32993740751069905
105895000.0 0.558240044050026 -0.8265684648376233 -0.6410912909739479 -1.4524474005644257 0.001661983060513151 -0.001611892607175596 0.43359959256844216 -0.3519264656849226
106894000.0 0.5496232789901341 -0.8317985633085291 -0.6993591165631168 -1.4906484137046054 0.0005606627733256259 0.00147004325178949 0.4341774908778801 -0.35721182516958805
107893000.0 0.5391834945307409 -0.8377451857334774 -0.7509116728303166 -1.5272494302281392 0.0022916977093474615 -0.0016904688626152209 0.44153940877743153 -0.3835184279750794
108892000.0 0.5302142868888255 -0.8429847308338237 -0.8085313904557369 -1.565202782029125 0.0007612545153762306 -0.002312391459590763 0.4264009627806994 -0.3708484568347193
109891000.0 0.5203013106930646 -0.849855389181053 -0.8630522827207056 -1.605985760768314 -0.0004132584541297069 -0.0014596180373780414 0.45399228315425244 -0.3713285362066711
110890000.0 0.5152412782359337 -0.8645966822275003 -0.934550240315218 -1.6310174476156802 0.0016961021513512643 0.0006183751342757991 0.4331604815653957 -0.37313111504541474
111889000.0 0.4993400796552957 -0.8567162239270615 -0.9896129862274117 -1.675266470502548 0.00229111300908718 -0.0015035151125251413 0.4236033633240035 -0.39248291040705485
