! Created with skrf 1.9.0 (http://scikit-rf.org).
# Hz S RI R 50.0 
!freq ReS11 ImS11 ReS21 ImS21 ReS12 ImS12 ReS22 ImS22
1000000.0 0.9765825602192032 0.005624508901818735 0.0011969882139301604 -0.04316861013193861 -0.0070772943494415656 0.004980299097550518 0.3673206993766086 0.27261283426588545
1999000.0 1.0022209177547994 -0.0055530485217191354 0.004469611221320951 -0.017863922840032694 -0.006761281639975074 0.0022830342798425027 0.2527703395577947 -0.06230775777611609
2998000.0 0.9964878653621863 -0.016673390474451582 0.014159843553954719 -0.018431513027896734 -0.0022149659564846083 -0.006884627673056418 0.18576400990894648 -0.1445859217335797
3997000.0 0.9972106238800904 -0.032529460273434285 0.013889728706070827 -0.0031733812680092574 -0.003728715979852755 -0.008487302089686139 0.09947798924742245 -0.24115252725080388
4996000.0 0.9949049061474463 -0.03754171655626394 0.011312299447931022 0.0020977438531049196 0.0018795155879339695 -0.0038614893603780946 -0.047699806536353376 -0.20325679336544808
5995000.0 0.9970261294770288 -0.04698450091109669 0.008514690479475664 0.00034514310923949875 -0.005452631863304624 -0.002353507589168802 -0.1286574724064944 -0.10169004373571748
6994000.0 0.9914333582893586 -0.058828925891300905 0.004693253349168143 0.003229797692197146 -0.002140155613226239 -0.005410011750983192 -0.1407810654766791 -0.016822171041247783
7993000.0 0.9990395850533506 -0.06830405615832094 0.003758001416857572 0.00641036623247818 0.002517442223140878 -0.005621020766092891 -0.1506348175910462 0.04592329097225332
8992000.0 0.9958564510016443 -0.07230063737630259 0.004733803107091166 0.003548432902422424 0.0003658510722833435 0.0030720998624239296 -0.15722046392289032 0.06457097148960307
9991000.0 0.9953844037258174 -0.08093532872880015 0.0017730040179172132 0.002044115909005509 0.004845131581654078 -0.0007630203664767121 -0.15740337009079636 0.09090270454205307
10990000.0 0.9926097050496913 -0.09416308757238653 -0.002642136840003944 0.002171050942376519 -0.001685792510901547 0.0010165568802030984 -0.1305165855117484 0.11006146044985257
11989000.0 0.989782687443204 -0.0997077915997985 0.0031143622495528934 -0.002298104949531209 -0.004744598099496554 -0.0012071738387049663 -0.128476383496823 0.14354638296236258
12988000.0 0.9874136664199719 -0.10831060326241633 0.0008201514114865465 0.0017276869354638951 0.0013533381266525204 0.001791965447476219 -0.10812235905185211 0.15588178852278536
13987000.0 0.9894363537540655 -0.1139841280523732 0.003191172223082759 -0.002176551940369227 0.0006639620385181219 0.0007995139273107506 -0.0862109423025061 0.18600434848014702
14986000.0 0.9903396376486505 -0.12312299701493423 0.0006718377510831024 -0.0036742570876601164 -0.0019833598629748605 -0.003354272383772723 -0.07676983759266694 0.20368732635342224
15985000.0 0.9901087053935669 -0.13135099517276194 -0.0027782389387247643 -0.005546268765093655 0.0014610970336731035 0.0012930071302942056 -0.07058223823221162 0.21510985197794016
16984000.0 0.9875635060878519 -0.1425665004847539 -0.002907120938321486 -0.008766418824153499 0.0006928275238695543 0.0009299677255576034 -0.05434567944812352 0.213063793580542
17983000.0 0.9859279516259869 -0.14854917183406216 -0.001477254371091881 -0.0022361205511308934 0.002248546010131107 -0.0008019977736175328 -0.04819572200934493 0.22000966515407444
18982000.0 0.9839607816051748 -0.15839877532649538 -0.010457912277490931 -0.00528394063785774 0.002060976692707793 -0.003998269763824753 -0.024730965860902166 0.23398165201089358
19981000.0 0.9849543196610616 -0.1640120855333995 -0.005126483154541058 -0.002483085704422374 0.0006035629849701899 -0.001236468137207698 -0.00535710158254748 0.24027928787310376
20980000.0 0.9808007938631621 -0.17272654081927005 -0.0077199749071496055 -0.0005979354942478648 0.0019258201778861164 0.003056878733241914 -0.0017824255165282828 0.25891604138869345
21979000.0 0.9803327086477315 -0.18402287948350932 -0.002745822820663693 -0.007918210577145727 0.0033119728054747 0.001974676309346938 0.016087218528720432 0.24203933735634628
22978000.0 0.9765419054139681 -0.19302116144986953 -0.0047860853615722555 -0.0017853900525497978 -0.0006902477300483587 -0.0005426199164342276 0.02799617295110407 0.25499394440829737
23977000.0 0.9800241465958791 -0.1985759887449103 -0.008550674275609894 -0.001928239833144005 -0.0010657546011096305 -0.0008370600226618469 0.04025801829847514 0.25838892109090056
24976000.0 0.9755337096026955 -0.20947818177271751 -0.005522717866337544 -0.0023097709572457797 0.0014715232872010058 0.0030653023437379134 0.06011777865692664 0.2490356284244621
25975000.0 0.9744966053444822 -0.2214363835531109 -0.002851038875906865 -0.0038924039333768684 0.018246922596272426 0.021757921114289452 0.07345546417146949 0.2595284913465263
26974000.0 0.9714122473863823 -0.22592507419217076 -0.0066243266794215145 -0.0037506169473973654 -0.0010986823739803121 -0.0015992626883676697 0.09108758812263812 0.26366913325863656
27973000.0 0.9714010347707351 -0.2320095522178882 -0.0011513223334451749 -0.0006427284695976659 -0.00021912252389995638 -0.00021578287547605128 0.10230118844443745 0.25077421837153774
28972000.0 0.9659712898724464 -0.2442111556402822 -0.0024622141529677104 -0.0024429557033694865 0.002745949512765092 0.00027268434264943767 0.10748499146253676 0.26570104228493047
29971000.0 0.9649457408100454 -0.251187496951088 -0.002054380809773158 -0.004262134755839589 -3.2366876150527293e-05 -0.00043221832095197724 0.15050542470802794 0.2676588369668675
30970000.0 0.9638289479293709 -0.2559007078797596 0.00022290093710924036 -0.000607899678151603 0.0030198438654824296 0.0038142214246433227 0.16743086920643674 0.2513817637573917
31969000.0 0.9620301110684 -0.26657903577498704 0.004166565570021923 -0.0065246379768311965 -0.000692620921170086 -0.003454914989774206 0.15791846993002928 0.24487772392555113
32968000.0 0.9597414921632654 -0.2740766409423259 0.006957244109909896 -0.0069582862970435505 0.000691067056318695 0.00433330830977984 0.1680699026080764 0.2425894205469639
33967000.0 0.9584723138546033 -0.28277170762684634 0.011276118252259376 -0.005099747106343898 -0.0008297016247333532 0.0006674204069219296 0.18631106026997715 0.24481691472215916
34966000.0 0.9527635781339531 -0.29411707527341313 0.012614115629369208 -0.011134998804620657 0.0021469721689446547 0.002949757835310737 0.19932004994694802 0.2524848147397109
35965000.0 0.9506935733283806 -0.3002529833275852 0.01702890261567876 -0.01319903929480207 0.0003517761953531013 0.0032155278437345086 0.20143875660351943 0.24487014820722444
36964000.0 0.9490801641295579 -0.3097962809747905 0.016740567224975446 -0.012444985131613373 0.0002790932093375241 0.0007543023800006739 0.21859366078618678 0.24889272846769453
37963000.0 0.9453224794638461 -0.3194325121028327 0.02251844621215739 -0.020680212604327227 6.301423300019962e-05 -0.001734883007458174 0.22856202635948444 0.24508958830486113
38962000.0 0.9421786249906339 -0.32884641861476693 0.02583493857893852 -0.026090506673356766 -0.0010452971747583449 -0.0005998874199941371 0.23800950076313018 0.2319912714812467
39961000.0 0.9406328846826101 -0.33531433234902375 0.026213976658079632 -0.028964974255636 0.0002948512226811742 -0.0015497806582650386 0.24921046539450162 0.21985446818942733
40960000.0 0.9364428795240999 -0.34303559186564303 0.024166077120465142 -0.025192612062819753 0.0022305725982125243 -0.001985182452144746 0.27009294403867323 0.22853243300355017
41959000.0 0.9338781063297114 -0.3527598772168293 0.02910984221325682 -0.032615551738691954 -0.001738351985731518 0.005431487567757408 0.2657801072910673 0.22190829573801144
42958000.0 0.9279043565701642 -0.3622450470801631 0.034058629685834216 -0.040320267000271866 -0.0014454556882002442 0.0005181313814406135 0.2825565539712091 0.1947828535803786
43957000.0 0.9275556954825591 -0.3667840622203559 0.03351819906109616 -0.04315472336779292 0.0028400703955102774 0.0005981870235763217 0.2888050527892825 0.2034016654390513
44956000.0 0.9243642436708416 -0.37513196474818455 0.03608819942924421 -0.05224186023032773 0.004181756384984223 -0.002178273700236883 0.2955317522347885 0.19839179988859312
45955000.0 0.9199632170801788 -0.38612754468632243 0.035560830245431475 -0.05867501593638988 -0.0007589319602771792 0.0006059430688198671 0.29564928744483304 0.19307354577559943
46954000.0 0.9169664023565253 -0.393699722329507 0.03565816094834387 -0.06632443627187497 0.0014894810887934916 -0.0011678880538504345 0.32576746604766965 0.17909828548838866
47953000.0 0.9147789754284451 -0.40120769784624516 0.03698535428434234 -0.07434183794110608 -0.0015069664577285564 -0.0009848640995574196 0.3316840899217214 0.16935488357528833
48952000.0 0.9090516891494484 -0.41039236812900737 0.036558088227434914 -0.0796231935461338 -0.002959782726061305 -0.002488956922288754 0.3440259706614861 0.16756124593539606
49951000.0 0.90503892016142 -0.41915639750939154 0.03850888157274426 -0.08838223171806854 0.0027482603921254083 0.0010507050890234122 0.35667642269644717 0.15675201950043682
50950000.0 0.901738868528704 -0.42770807679721534 0.03797155534646371 -0.09370214605450851 0.002949383549846245 0.000933046799844662 0.353333675681575 0.14921833087911007
51949000.0 0.8974071782319455 -0.4344622499018495 0.04010578780037504 -0.10322130638177998 0.0008628422712165848 -0.004086381377574272 0.3613500608355379 0.139095108595353
52948000.0 0.8944141235268683 -0.4427117697878201 0.042116892144115146 -0.10995177649029128 -0.0005896304135354784 -0.0020314733579178392 0.3751594915411835 0.1434349020272285
53947000.0 0.8900552497885611 -0.4511393423209974 0.04455727086146361 -0.1202636915027481 -0.001729557934108505 0.0013169218303158013 0.37415681128981365 0.13083249602235214
54946000.0 0.8835231260248252 -0.4607524024520338 0.045373372137415185 -0.13062234838407108 0.004100661094386342 -0.0004799905630439121 0.38922164454588803 0.11790102731950375
55945000.0 0.8808266515485351 -0.4677188433127271 0.047306377149728115 -0.14367105169353944 -0.00011758067728644794 0.0005229344588549794 0.3871536645684158 0.10705034016226457
56944000.0 0.878175593462035 -0.47617135322024867 0.05036215941569983 -0.147362286645626 0.0008181921136300786 0.0017566143561643076 0.40173736004943944 0.10584055477966409
57943000.0 0.8714577692343446 -0.48657661902530797 0.05017877153874399 -0.1604214225520474 -0.0006197805055912252 -0.0019623147313002787 0.39562172885764363 0.10108092801779733
58942000.0 0.866168475478728 -0.492561245958161 0.04939339957529866 -0.17146235593996975 0.0014101573892055148 -0.0024789819414164937 0.4266276580186318 0.09047502359738496
59941000.0 0.8649369013332147 -0.4978035559345641 0.054061965587789286 -0.18014326779548182 -0.001600216999427375 -0.0017026330133483398 0.41872192656204904 0.08433296319426951
60940000.0 0.8562248971241377 -0.5078266792388518 0.056985392377121316 -0.18672973693449454 0.0006505098616335934 -0.0009994460678488077 0.41199002995614953 0.07458624876671971
61939000.0 0.8538193460285939 -0.5138855576179432 0.05346082398383774 -0.19682495277585899 -0.0008942275717278386 -0.0011978264863099885 0.42180523476810655 0.06773829150659572
62938000.0 0.8482659805730545 -0.5241593454355598 0.058833633052988235 -0.21028079875544112 -0.0005758333411063458 -0.000293859594021197 0.4431117794587637 0.05432828253615251
63937000.0 0.8435338040082075 -0.531852361642254 0.058521517538890476 -0.2349461939614799 -0.0011432710793464794 0.003226449758128884 0.43929221420572967 0.045029539262880544
64936000.0 0.8376350540697828 -0.5372676114065617 0.05669208640157903 -0.24677110835767607 -0.003194774233913388 0.0008867477070300929 0.4376134003758578 0.0396555489777809
65935000.0 0.8338853994665129 -0.5479424020912912 0.06005016495228591 -0.26027285740294404 0.0016771761077995018 -2.6442558639203897e-06 0.44815756168994847 0.023311887436947787
66934000.0 0.8294216454033606 -0.5524567187340397 0.058233289119975204 -0.2739714261382551 -0.0015539313842166647 -0.0006793634997168165 0.4446171630906856 0.018071050871509373
67933000.0 0.8271109503895709 -0.5616296948948307 0.05821216595758025 -0.28901934090051334 0.001572767224499095 -0.003898705993280516 0.44706647106397196 0.018340363645607302
68932000.0 0.8198988973028225 -0.5656799472198177 0.05748823277497032 -0.30094937089095375 0.0029314715328503504 -0.0003896804169688501 0.4612924913973036 -0.0014097006343991054
69931000.0 0.8124172808863402 -0.5767828990514936 0.05572540815789909 -0.3179617125879869 -0.00019267286845390676 -0.00281260470792871 0.44940831747055493 -0.01083382066885559
70930000.0 0.8073107535744514 -0.5822272892788963 0.05518210696972508 -0.330651653282154 0.001995650195733798 0.0017626429162106694 0.4484684143089612 -0.03214376287082564
71929000.0 0.8031960333117928 -0.5941447672320286 0.0522124211286533 -0.35011781916962487 -0.0017926457126247375 -0.0010008671009065825 0.4551795200163835 -0.03490034573030365
72928000.0 0.7974615226693454 -0.6011200358463268 0.04764156339442494 -0.36535523973008105 -0.00047082634495857227 0.0005358658237077184 0.47307792604235505 -0.05115406828155601
73927000.0 0.7908952793265168 -0.6082559608824487 0.04139117955209744 -0.38976399134097295 -0.0008456235082021815 -0.0016018535852042892 0.4558906191781817 -0.057225213798938135
74926000.0 0.784731352936707 -0.6148204451342889 0.03222032374411762 -0.40605157455184576 0.0003759091328269523 0.002427627153739488 0.4750355582147702 -0.05696452555601291
75925000.0 0.7786250887849218 -0.6216093416967546 0.026374354159260392 -0.4273178050556818 -0.0018866760040214892 -0.0016624965443120493 0.471243829798323 -0.06673976240599865
76924000.0 0.773422691651681 -0.628299410933409 0.011223823220259615 -0.45025946917151044 -0.003593441777134146 0.0015439752097902977 0.4730310780442475 -0.07020112628937722
77923000.0 0.7661978992252544 -0.6378481038019999 0.001279228413252751 -0.47582052077860904 -0.0038808974883494684 -0.0002472614646603679 0.4665838243430358 -0.08938482818928013
78922000.0 0.7593785395405465 -0.6467509358735144 -0.012016891230840319 -0.5031491787278461 -3.322492965263135e-05 -0.004484263130443905 0.4647927196731175 -0.10487276365132545
79921000.0 0.7513335247168721 -0.6493567100334927 -0.03131007777010587 -0.5237745440524194 -0.000978743783866228 0.0026409021296419184 0.4612628832070724 -0.11238683081437364
80920000.0 0.7468554980772422 -0.6609214132904111 -0.04068409088532073 -0.5560823900114757 2.879610545480507e-06 -0.004977951113063698 0.47844560768091515 -0.1190618397423784
81919000.0 0.7421797174921168 -0.6670270917686341 -0.0626666092182359 -0.5785062221360189 0.005368981210817222 0.0008660570443525254 0.4708204618337937 -0.1219518740963548
82918000.0 0.7333038389365327 -0.6734594058961115 -0.07617902004283633 -0.6129306595744033 -0.0050696063545725345 0.00100482056655792 0.4822282763123016 -0.13237361671370373
83917000.0 0.7266890525681986 -0.6810103497580149 -0.0937286852861908 -0.6397535357366321 0.0002623241873675586 -0.0008565606123485658 0.47688539415921083 -0.1370815254351006
84916000.0 0.7202859220016504 -0.6905328358986502 -0.1135967211971373 -0.679066295020788 -0.0009120697351386898 -0.0021579707547703325 0.46991632865342275 -0.17641531601844657
85915000.0 0.7145490255111624 -0.6948973322276091 -0.13120936240815573 -0.7098637573312538 -0.0034512025855548845 -0.005182878385902884 0.46881040506716554 -0.1751065805552725
86914000.0 0.7050706048147373 -0.7060241646963513 -0.14239861323261838 -0.7476010171839168 0.0022646365656594234 0.000666001081667509 0.4740915394292107 -0.1567600292282482
87913000.0 0.6998573249316874 -0.709684755202944 -0.16540706117601164 -0.771363761091429 0.0034210745529823458 0.0025111589325720993 0.460320007709561 -0.18582979976384217
88912000.0 0.6915439878999793 -0.7187444560129791 -0.17978618773469798 -0.8118654553661117 -0.0025294783047951908 -0.0008305298641105248 0.4736792821720834 -0.19858991940413243
89911000.0 0.6850561530229723 -0.7255626431228154 -0.19142713254189536 -0.8488482843398976 -0.002598085319215337 -0.00018276938813967171 0.4740263347168909 -0.20730811376998756
90910000.0 0.6785956698494167 -0.7309739596877727 -0.21066150356296812 -0.8850767392139449 -0.002000331964279665 0.000607344047398224 0.46368211888719846 -0.2035396583992367
91909000.0 0.6670762690602048 -0.7370856246608783 -0.2364050857259612 -0.921982473934782 -0.0002264748534621252 -0.0005034952742641274 0.4715876907860046 -0.21888545851226326
92908000.0 0.6613358158963412 -0.7436845515497285 -0.24919855072834152 -0.9476933761607149 -0.004508967850722305 -0.003034189538106128 0.4620641061479014 -0.22575804486604886
93907000.0 0.6568275491115015 -0.7508258943384798 -0.2680042352424355 -0.9825366483633663 0.0038916738817683853 0.0005688490443147347 0.4643166313807216 -0.24799915383980461
94906000.0 0.6441221136251617 -0.7582357713535114 -0.28482511423793505 -1.0180828792747412 -0.0004151348026020404 0.003293675520291664 0.4685122959656937 -0.2437336738510997
95905000.0 0.6386247287531238 -0.7648585625604247 -0.3091147719167144 -1.055014984274573 0.000635392680934652 8.144287966811797e-05 0.4572009685914297 -0.26417004904996033
96904000.0 0.629706421014988 -0.7739518882814969 -0.32822838195668547 -1.0910577701763076 0.00017835846713114146 -0.0023670448268862986 0.4633477380689592 -0.27373260561244656
97903000.0 0.619696509356716 -0.7802213949816434 -0.3516109356381249 -1.126115393188319 -0.0010701405656143655 0.0018553415403376721 0.45551342238748843 -0.281920643639017
98902000.0 0.6161956443293556 -0.7840245013872528 -0.3667024130530048 -1.1663377612124644 0.0005934594386316013 0.005342650359409557 0.44875405932942714 -0.2858197436083816
99901000.0 0.6048037179661787 -0.7904162750856583 -0.4007966020740456 -1.194902935046148 0.0011155586886519558 8.800842300019664e-05 0.4642339753623354 -0.30846256079511913
100900000.0 0.5978273724718209 -0.7951745515523234 -0.4324848699666553 -1.2306019300529012 -0.0009446088038961862 -0.0014992426423370623 0.4687142181835999 -0.3074536308283523
101899000.0 0.5865197517922346 -0.802844710465589 -0.45713974258714196 -1.269681106983703 0.0010410483337278942 -0.0010553346129315456 0.45725624378728497 -0.31740067788607984
102898000.0 0.5778299427912282 -0.8081865269205407 -0.4897127222086124 -1.3069645466377542 0.0020195823137794627 -0.00024090605366862782 0.4583605696912387 -0.3318047340414587
103897000.0 0.5707568817424261 -0.8150464514514877 -0.5308174369984346 -1.3462396542571506 -0.00045756486880840785 -0.0006501037775250536 0.4611671775724781 -0.3391912952816367
104896000.0 0.5622469343375783 -0.8277286082726601 -0.5734278292916224 -1.3806035213608205 -0.000728964860613091 -0.0023706532420131243 0.44374738576113404 -0.32385835645874467
105895000.0 0.5499249300350987 -0.8275972407698637 -0.617035817207586 -1.4228242278296241 -0.0036919726299984267 -6.354492409705204e-05 0.44140637674288674 -0.3485518033531268
106894000.0 0.5405962439264819 -0.8345724924640039 -0.6707089772907392 -1.464786216801145 -0.0010013335834625438 0.0005768402622174191 0.43275947908919343 -0.3522787437221411
107893000.0 0.5363589891618168 -0.8403194791163144 -0.7196703210917045 -1.5089479192920356 -0.0021829879282324128 0.001843511640915663 0.43110163881954516 -0.3679374580660447
108892000.0 0.5238867139250891 -0.8449014959181761 -0.7826587666176005 -1.5443232112306076 -0.0006612081754742725 -0.0019003009126543572 0.4349814442284828 -0.36416179166258417
109891000.0 0.5129109862374821 -0.8518233049417547 -0.8390025254056301 -1.5822989928780764 -0.0023942514315806037 0.002451597560708982 0.4504205646006102 -0.3709320156226307
110890000.0 0.504641376423424 -0.8705447338887716 -0.9203405034737556 -1.604109701911211 0.0025282130328208225 0.0014505505980747233 0.43020285519441653 -0.3792446214247104
111889000.0 0.49104733443794646 -0.8604117816332989 -0.964081731718683 -1.6557452219971238 9.078288204224003e-05 0.0017335116206394767 0.43142792830068705 -0.388836400990413
