! Created with skrf 1.9.0 (http://scikit-rf.org).
# Hz S RI R 50.0 
!freq ReS11 ImS11 ReS21 ImS21 ReS12 ImS12 ReS22 ImS22
1000000.0 0.974906818687016 0.0065289556287152556 0.0005965340361517477 -0.023092932248489288 -0.01503191411544527 -0.001743378933214804 0.3252072658692231 0.32784764234452624
1999000.0 0.9907190998458066 -0.019028213925764766 0.008488888864565038 -0.038633275564164425 -0.007744474439495447 -0.00506295536085414 0.2785592166714722 -0.07517219824653126
2998000.0 0.9963406363655162 -0.021423165441135435 0.016191144607938218 -0.014903820476134068 -0.006367384414527549 -0.0014403110650938091 0.19777859159362518 -0.14458465656922942
3997000.0 0.9953567242048659 -0.034178984072799484 0.00910785899736357 -0.006518044741350236 -0.0027353652824737965 -0.008814968082184817 0.08579159669525789 -0.2423792638066182
4996000.0 0.9968266343002197 -0.038233464081823605 0.013402153639730003 -0.005041743615374728 -0.0018243892238227978 -0.0011925934479105813 -0.04285585866765073 -0.2000315851881106
5995000.0 0.9954361013404298 -0.04960115435476784 0.007022795326077224 0.0028370723350185996 -0.0002773920499024754 -0.0023014878630900713 -0.12809454383624932 -0.11004020294593786
6994000.0 0.9940783009172347 -0.0604619672625995 0.0033696729351569556 0.0029458130321136657 -0.000841504320951865 -0.0047261088131861015 -0.1438534144390997 -0.013872443024306284
7993000.0 0.9957172475084449 -0.06652069416727525 0.0077981074655663046 0.0036349137906116907 0.010282809804754345 -0.00344041769831047 -0.15073739042066145 0.016242320136578017
8992000.0 0.9927815647535282 -0.07311988047409647 0.005752913901525841 0.003514953357902595 -0.003008186984830157 0.003215415825876717 -0.15960916992643262 0.05709666575768815
9991000.0 0.9936106182890896 -0.081513518859224 0.0045196059782850375 0.0022671788139117183 0.004099808124635004 -0.0026816560694796062 -0.1540798629086378 0.07282985300558686
10990000.0 0.9923196995165051 -0.09412395210823318 0.0030292903137473137 0.0039115694733874665 -0.002457021932536088 -0.0033188331556492302 -0.1395443802487952 0.10320369577190373
11989000.0 0.9898055837925716 -0.09843890165501959 0.00465098273560933 -0.0037550836271332162 -0.003174565338942488 0.0034302253637020657 -0.1350020582077473 0.13317572410042308
12988000.0 0.9903117132323107 -0.11039568231994175 -0.000806685012561042 -0.002990833936956947 0.0038193384061022116 0.002081303957468159 -0.11751743757342345 0.1568547273472385
13987000.0 0.9870166607509745 -0.1202148871354782 0.00031493777830943133 -0.009240892077589562 -0.0035505502014392316 0.0002488972429112684 -0.1001034715743548 0.19226747037045122
14986000.0 0.9862561543850651 -0.1272583579910674 -0.0011998325452643062 -0.004830483192168727 -0.00307941575497612 -0.0013266207168610223 -0.08227482462263937 0.200686252457297
15985000.0 0.9889088574517695 -0.1349184731363195 0.0012307476256771823 -0.0015084625478910564 -0.0022013497643626535 0.0027288069543924295 -0.07638982729234477 0.22153140288531498
16984000.0 0.9857342340716162 -0.14408585900165288 0.0010149594883882384 -0.0021072062063622735 0.0031180221700659273 0.0032573637963048225 -0.0643034759433971 0.22140808668284215
17983000.0 0.9839806433403383 -0.1520709261513656 -0.0033825920193438705 -0.0031365538879271873 -0.0011331509422273457 -0.0012761558557359985 -0.048640126324857424 0.22899668917061206
18982000.0 0.9811138565372249 -0.1628833625593896 -0.0015827898019391932 -0.00874283478121812 -0.0002873817413277939 -0.0013059725292866632 -0.0336965494703223 0.24129505618879582
19981000.0 0.981183491731493 -0.16762752348762744 -0.005805426893459382 -0.004043575210676629 0.001075934032701369 0.005895930245150036 -0.014331791175508337 0.23672553125489362
20980000.0 0.9823618008225043 -0.17686963752370383 -0.0027476289436949197 -0.002745144779837657 0.002998070245557536 -0.0026981807891248823 -0.012720332010015127 0.26257523012798323
21979000.0 0.9787057090444491 -0.18796715186915539 -0.0032562805801816925 -0.0028798224134886476 -0.00191176582778248 0.00019479979178420255 0.005321568909337567 0.24369376599657444
22978000.0 0.9762907321788472 -0.19822092893206417 -0.006514696650214711 -0.0018093192584729832 0.005189152634290606 0.0010719139678648972 0.024957584996626234 0.2491156138313016
23977000.0 0.9764105600684738 -0.20474970086612906 -0.01003196672019533 -0.0014615802471959433 -0.0025096665383576504 0.004504450769311163 0.038465763977852174 0.2570645599772364
24976000.0 0.9741399644475345 -0.21419451810948903 -0.005829750679693487 -0.001427270739002703 -0.003500962191373763 0.003172773319522121 0.05450960778848543 0.25938101472574177
25975000.0 0.967632896303588 -0.21872078262279906 -0.005265793896211458 -0.0026734765928883974 -0.02551730311924431 -0.003285404968448281 0.07385027809160731 0.2597650076589075
26974000.0 0.9700749440965318 -0.2305316784958429 -0.005746582022394275 0.001804862712423005 0.0007334687542254111 -0.0006769248717428127 0.0773964497777037 0.2666052317888143
27973000.0 0.9669390295161021 -0.23956166394158038 -0.005284785886082185 -0.002562524800419801 -0.0009457392293901288 -0.0004054022273909771 0.10302536371101215 0.24829532781994443
28972000.0 0.963238209630922 -0.24801936385696974 -0.0006547536611399051 0.00030849525683369975 0.00010915858213371172 -0.001042663735070995 0.11585960506820954 0.256345182364402
29971000.0 0.9642075306964634 -0.25635701946353756 0.0023613440552449727 -0.001085468580871518 -0.0005576875165873858 3.274198734698458e-06 0.14448200853708115 0.2682119856551731
30970000.0 0.9605184649065023 -0.2617105312948952 0.003381566779126975 -0.003210896355039324 0.002397830852639986 -0.003619191939069797 0.16679413493345657 0.24722300990967624
31969000.0 0.9579916476966736 -0.2704570083033762 0.004938288924671761 -0.0058737890320443254 0.00013112758024821998 -0.0006245094139556638 0.14709108156728548 0.24751989436076885
32968000.0 0.9586173413421358 -0.28035709847288526 0.008684431201499672 -0.006968698364158041 0.0033838098341672468 0.002025107178001458 0.15900239314356748 0.2506058860893303
33967000.0 0.9541040512085011 -0.29129367906208686 0.010551192313485917 -0.010071446254328906 -0.0015799373907997966 -0.0001982522623041942 0.1777461323555385 0.2439665376125328
34966000.0 0.9512136792724717 -0.30084394199306647 0.01192779450909404 -0.013980187383537679 -0.004053834231947144 -0.0025869930811645995 0.1872348335796701 0.2512240316697295
35965000.0 0.9478352211987449 -0.3071226703129 0.016458323893923713 -0.014576938977806686 0.0019656079773497626 -0.0017743805104539934 0.210348420008339 0.24829392946666137
36964000.0 0.9475608839326112 -0.31607249879394556 0.016107413997165778 -0.014098545143875946 0.00015968575752387247 0.0005926485133551143 0.2102373077548705 0.2453888427740427
37963000.0 0.9422772914910321 -0.32474066937377044 0.02387665966635816 -0.022594723585760135 0.0009820723650261324 0.0013508010062003876 0.22570020004296384 0.2352987157393047
38962000.0 0.9402350631895202 -0.33246057455583944 0.020937833065699598 -0.025106213002221114 -0.0021573049280537854 -0.0007300447620905523 0.23338618775438427 0.23582834602836716
39961000.0 0.9368154329849936 -0.34273407511675746 0.02425973479806963 -0.02787167374194326 -0.0019769344893390143 -0.0010858139998811455 0.2456144942651544 0.23108007074361142
40960000.0 0.9324123262496686 -0.34843732882353673 0.021913124979478428 -0.023089369395541286 -0.0021940740508158063 -0.002245217913173846 0.26441132591964045 0.2264759664631496
41959000.0 0.931446683544891 -0.35941595613053096 0.028887953758975484 -0.029850297720279008 -0.0009646546150507892 -0.0022084741796455794 0.2592579104658006 0.22225099186709357
42958000.0 0.9246031761816426 -0.3700032833257274 0.031951273990248566 -0.041525591439015845 -0.0009930880112006563 -0.0018396906280430754 0.28473801793826686 0.20615829725137721
43957000.0 0.923648596926331 -0.37378446259979853 0.03176324996563543 -0.045699999682938294 -0.0017433955825445165 0.002540605520179051 0.2769490285244233 0.20573938710022965
44956000.0 0.919319966175972 -0.38236138615740145 0.030340567742339317 -0.05100238451947634 -0.0023121330519447376 -0.00016986733884653314 0.30733538226809093 0.1947397168944395
45955000.0 0.9161862723082679 -0.3941215471436197 0.031849804170145615 -0.057810626413258785 0.0011294074136391217 -0.0017145345819250745 0.29172784181391687 0.18472710876477846
46954000.0 0.9123139186560162 -0.4015856741499926 0.03429858248041625 -0.06389509570987496 -0.0027523235222287968 0.0008340396482152813 0.33033766983464036 0.17787057129615383
47953000.0 0.9106745524153522 -0.4078584747484084 0.034553896325026943 -0.07308713478040639 -0.0013202004169831291 0.0001443824888882713 0.33801577847157777 0.172861888715394
48952000.0 0.9034669016164847 -0.4219313402290817 0.03535649548356881 -0.07760955964802517 -0.000889917309559664 -0.0015295639157181663 0.3384746934809318 0.17203305831435214
49951000.0 0.9007987877093515 -0.42735379368546933 0.03614801452099415 -0.0863781081049475 -0.0008528640662434213 -0.0015748453749939188 0.3546761552176417 0.1488618314848751
50950000.0 0.8972179324993652 -0.4355176831559937 0.03516683012724925 -0.09637914096448046 -0.0013578514422669422 -0.0009331896761830281 0.3495666585349499 0.15173216496745093
51949000.0 0.8933858656645484 -0.4436362827630372 0.03429598396386669 -0.10262808558377282 -0.0013978922281206398 0.0010166153296896094 0.3566921032590629 0.14843579342808805
52948000.0 0.891234721704347 -0.4510358121796707 0.03647206308387522 -0.10938456865671606 -0.0012591841674244046 -0.0028039242930057344 0.3731250324176234 0.14884458997003377
53947000.0 0.8830188782952996 -0.45978408406893634 0.03854596353372819 -0.1196611820015852 0.0018780216387724018 0.002343913323035351 0.3660185288430407 0.1255953783408299
54946000.0 0.8789324083361034 -0.4682962634374709 0.040650984493851954 -0.13127836571716836 -0.0018546068309307168 0.001403628815486888 0.38885515757768085 0.11800555917602781
55945000.0 0.8758836085650963 -0.4759900519075844 0.04245496322072793 -0.13851287096933135 -0.0014769155685820737 -0.0001280043931123061 0.389445436777282 0.11004505974646031
56944000.0 0.8720648200694809 -0.485531229799056 0.04394881395126344 -0.14845244912535877 -0.0003568512795660746 -0.001833138884344843 0.3934490422641104 0.10535193352541877
57943000.0 0.8672613433978305 -0.49460546927201526 0.045188365680614594 -0.15867577550465933 -0.0026635960731354043 -0.0011549393443733976 0.4018263975927579 0.0931545941775652
58942000.0 0.8600413683230481 -0.5016514300368525 0.04349869056890173 -0.17001406736032443 -0.0019182720824510151 0.002047634287730367 0.4207058659070254 0.09544954053456702
59941000.0 0.8594902546545137 -0.5075736122100115 0.04704495889988626 -0.17715431464550338 -0.0009365504297726153 -0.0011292206816617956 0.42247653921772016 0.0940408978507659
60940000.0 0.8498592871376011 -0.5177365643751352 0.04469408234582873 -0.1833205136193827 0.0003803306477350858 -0.0017267392086905916 0.40877464019995885 0.07800450794155551
61939000.0 0.8473406298903803 -0.5246651291309282 0.045775654144736055 -0.1907583250485061 -0.0005914806941629356 -0.0008152481009174641 0.40750718395685165 0.07428729791099323
62938000.0 0.8420677995494088 -0.5336999504347145 0.0503976535931082 -0.2037216010062484 0.003427042795659088 -0.0020430613144791173 0.43877836299107936 0.06182427212696163
63937000.0 0.8362960409451197 -0.5419362444674823 0.04823896860886069 -0.2265580198234292 -0.0003495832119019105 -0.0014111519548426898 0.43094885667793564 0.03538585565208344
64936000.0 0.8287251466503637 -0.5476185818015431 0.05281565741282943 -0.23871677823950843 -0.0009943127780488784 0.0020203547206492528 0.42936118030403403 0.04429224113337215
65935000.0 0.8267916457788985 -0.5599003490043746 0.04903268292373055 -0.25157284613419806 0.0020422834773245824 0.0011106497129621973 0.43459161668403984 0.02764631054304622
66934000.0 0.8220234986869894 -0.562201256892406 0.050965806066108864 -0.26632209219297187 -0.002625436253762865 0.0008123421353269909 0.4373620098490695 0.00772802361748674
67933000.0 0.818119397633159 -0.5731784415636696 0.05198460425941212 -0.2758932468930733 0.0021930454164546206 0.0005760552940025632 0.439665408379019 0.02116764970293163
68932000.0 0.8100146847324289 -0.5638648959022222 0.05210017308738013 -0.2898198973011947 -0.0026175024567884715 -0.002509291070562823 0.448995252376043 -0.003621658202186338
69931000.0 0.8032492556905022 -0.590279715265275 0.05168036653500452 -0.3040620015654169 -0.002476429401846351 0.0003862597068488043 0.4461009506129802 -0.01206693594229135
70930000.0 0.7976641579459537 -0.5963025661301256 0.0465488025372736 -0.318717593093566 -0.001762995446347948 0.0009399438197341372 0.4429584168212568 -0.028233570370141275
71929000.0 0.7935756329732813 -0.6053146925493019 0.04531191201298045 -0.33826928232101994 -0.0008596310526059914 0.00035561512490966295 0.44578922866244 -0.038327560222205924
72928000.0 0.7879274621283536 -0.6131598636065246 0.04003562855249506 -0.3506186652524458 0.0030702114797583084 0.004109389242851096 0.46088231587566714 -0.050700478549731504
73927000.0 0.7810639785303688 -0.6184441287483549 0.032771005657603165 -0.36714992531378643 -0.002189753105060222 0.001125514728326163 0.4545261154881434 -0.056977219404503544
74926000.0 0.7763727066357273 -0.6279824026325218 0.02563479675276796 -0.3887982298631675 -0.0011053053889541853 0.0014712308282855678 0.4607534127635291 -0.054998662983757746
75925000.0 0.7668159486527344 -0.6343559792670098 0.015090548869447305 -0.4091625384509545 -0.0009902379104279322 0.0025718095302442834 0.4741613441048675 -0.07067852959467617
76924000.0 0.761918085728247 -0.641685435353806 0.0004609087312319142 -0.4306430659125739 0.003948248346184019 -0.0009585552171133171 0.46689505351997934 -0.08231657431268403
77923000.0 0.7558697759229787 -0.6498432223014611 -0.012341477061629575 -0.45548940939107163 0.00077133842059701 0.0039682513966369255 0.46126846798890037 -0.08931821336755916
78922000.0 0.7497363766574462 -0.6558801816311909 -0.026369748686291217 -0.47732088001781553 0.0013793273377070774 -0.0012871623246327195 0.4638042677930212 -0.10452703048484399
79921000.0 0.7421470939785961 -0.6619441204966812 -0.044478245829239205 -0.5026428048555392 6.283774381910949e-05 0.0015657493510063236 0.44682258126870744 -0.1106378130720656
80920000.0 0.7376683503299885 -0.6730603871380588 -0.058644351889252634 -0.5297800236432944 0.0010552691557666415 -0.00450591537072364 0.47232952503575926 -0.11778213208077895
81919000.0 0.7312862076208956 -0.6790561751611192 -0.0783763023965626 -0.5569241415046061 0.0016562129166687331 0.0011048142255097222 0.4615015143501866 -0.1334674075326428
82918000.0 0.7203674104932027 -0.6880232447928758 -0.09409490214313809 -0.5900070780598087 -0.0020481124265866756 0.0014723117708424528 0.4713182638018941 -0.13799010923529295
83917000.0 0.7123016966922515 -0.6938390912267338 -0.11294276388005091 -0.6144621002015788 0.0023398690309419873 -0.003990255756795372 0.47599384570791725 -0.1358873675114337
84916000.0 0.7065442719022348 -0.7020953275297742 -0.13281249863221026 -0.6522151400566144 0.0009004546473661816 0.0014992210359505516 0.4700468199238372 -0.16303999949855175
85915000.0 0.7014890638785785 -0.7079411963113573 -0.1510646594907758 -0.6763570131091537 0.002218413278636645 -0.00040158352604858106 0.4667181702076895 -0.16407054304775792
86914000.0 0.6919385944911267 -0.7175970812633258 -0.1624185307163307 -0.7099783824032591 -0.0011300029449719587 -0.002117827874227436 0.4618146013953345 -0.17895748126040537
87913000.0 0.6839258481496789 -0.7238005279486486 -0.1808563350940264 -0.7412037232949907 0.002123866723892826 -2.886898969056708e-05 0.461747471904697 -0.17762053845943893
88912000.0 0.678449602626052 -0.7301512854926382 -0.1973171560928073 -0.775462965238474 -0.0026926557957021842 0.0008769171860395014 0.4703010531598113 -0.20350929719983893
89911000.0 0.6701556139710421 -0.7392170392889328 -0.21158970840856786 -0.8092834525539103 -0.0007544626448020993 0.0009356249405067296 0.46511367756772604 -0.2060426281705448
90910000.0 0.6643744493239444 -0.7440354701165163 -0.22405434566172097 -0.8452210286925533 0.0023764390104309167 0.005134678407748837 0.45682330800185145 -0.2048905018863625
91909000.0 0.6543199786475749 -0.7498797742936111 -0.2494518643407278 -0.8765522925473045 0.0005233735382447196 -0.0009121921075810748 0.46321786372492696 -0.22162273428309415
92908000.0 0.6463103415231737 -0.7577597609864215 -0.26336073146849387 -0.9079778988611892 -0.0033339815572800448 -0.005642324572214588 0.4482624555409904 -0.23338111586493365
93907000.0 0.6393346751122603 -0.7630909938402501 -0.2777315511809197 -0.9358067139482599 -0.0014053906553017207 -0.0018958527781688642 0.4656404943347977 -0.2525589399360974
94906000.0 0.6263928424259297 -0.7710210071622979 -0.2922613899569182 -0.9683542793494797 0.003506735297463477 0.0009808175222867596 0.46270337827149693 -0.25393089275656094
95905000.0 0.6187034970783086 -0.7783311514208276 -0.31466779219792546 -1.002243257783899 -0.004418986257873095 0.0021330475395613517 0.4661529893958151 -0.25253678603590624
96904000.0 0.611082232029903 -0.788578762387976 -0.3366971222142597 -1.0385339452471622 0.00031060090382498573 0.0015450110770939805 0.45087175224058157 -0.2733500342811532
97903000.0 0.6007158415003369 -0.7891613818957072 -0.3537083869901985 -1.0678079570043444 -0.0038864476498565335 -0.004037239269045696 0.44767018924912944 -0.28213464237071034
98902000.0 0.5980628957665147 -0.8007487760973294 -0.3728062853482253 -1.1104578344673233 0.002301189118205505 0.0027604332980625647 0.44769860989960036 -0.28757656706165313
99901000.0 0.5869149680416436 -0.8046271288955379 -0.39867334826274636 -1.135762668060969 0.00017683096628077854 -0.0011902361916939915 0.4589167109528249 -0.31386408354611295
100900000.0 0.5785845902601235 -0.808542462715178 -0.4254741176939964 -1.1658437334280762 -0.001091829901108463 0.00037843970873242713 0.45611008831784766 -0.31186017904613156
101899000.0 0.5669651057299443 -0.8184311183554993 -0.4536730144303457 -1.202401805902953 0.001175213887287603 0.0007642987970096258 0.450687279975831 -0.3141970537703797
102898000.0 0.5571886419430435 -0.8226838363622242 -0.4853873697459064 -1.2346383531431993 -0.002434278336085931 -0.0010536052329462448 0.4480126758257378 -0.33063692611301354
103897000.0 0.5500759275469254 -0.8281994887527944 -0.519321801956159 -1.2683811957487416 -0.0012994929417120538 0.0010290471998118224 0.45962057391853367 -0.3253625346975244
104896000.0 0.5436787756709 -0.8399350348913847 -0.5687479892896977 -1.3024600278530338 -0.002485869018779492 0.0010684279162733836 0.4438721666957169 -0.33225993194011477
105895000.0 0.5341343804321655 -0.8422593619143374 -0.61009021954618 -1.3419945036139656 0.0005426261278628897 -0.002159539928194088 0.4353343423152739 -0.3490438069281962
106894000.0 0.5218350359690489 -0.8483989495721818 -0.6618615173938982 -1.3704656895847653 -0.0005248646891991535 0.0021663529628278204 0.4348026364706584 -0.3626628759470212
107893000.0 0.5155007814476462 -0.8538246318488745 -0.7064353553876775 -1.4124804916342333 0.004825330325829356 0.0005772697812813029 0.43554717900423 -0.3804322403365114
108892000.0 0.503837831462291 -0.8571483378601257 -0.766632585992901 -1.44710516470602 -0.0011916545252227272 0.0024232624313755614 0.42330481202053116 -0.36700114405443307
109891000.0 0.49088450580943394 -0.8646564943364664 -0.8280293507136745 -1.4770011875271767 0.00031520387980710625 0.0008626613037963088 0.4367019319811213 -0.37226984748829195
110890000.0 0.4784111159196302 -0.8798860622379094 -0.9095752861602462 -1.4921188779740393 -0.0020588390929808607 0.001336825840756284 0.4339074605128993 -0.38305073277079993
111889000.0 0.4718127639047268 -0.8708526966006264 -0.9481591288506808 -1.5456042726639696 0.00012617527949264356 -0.0010453864589103125 0.4238181584755078 -0.391130825267492
