! Created with skrf 1.9.0 (http://scikit-rf.org).
# Hz S RI R 50.0 
!freq ReS11 ImS11 ReS21 ImS21 ReS12 ImS12 ReS22 ImS22
1000000.0 0.9960373249900664 0.019045834978886757 0.01700862760788167 -0.02840484797699867 0.0030297719766736396 0.0026905500958471495 0.3671999517026789 0.26980800290308343
1999000.0 0.9971843314874819 -0.009091691023890031 0.0009332989533129181 -0.016029206250005052 -0.005653193758336312 -0.0028933640882383544 0.25389325710285565 -0.044310844637213145
2998000.0 0.995186528821925 -0.02187671088298872 0.0016866286466017532 -0.01055337371547423 -0.0002328289210976472 -0.001059585298688362 0.18631468588459693 -0.12477718245225757
3997000.0 0.9968646053183868 -0.030756297235315377 0.014662816209057057 -0.00884324208178277 0.0030597606218444534 -0.008636900314187379 0.08239764832163197 -0.22893825533823448
4996000.0 0.99489006272042 -0.0360127477207563 0.014326735214840174 0.0022554235403485657 0.002638609300817476 -0.007105285617773539 -0.03940988975288667 -0.20370429514105817
5995000.0 0.9922813756679837 -0.048454977365115184 0.01445076808864097 0.0011762393718609237 0.0018083039432499036 -0.004833553928469904 -0.11461918669837366 -0.10557422186596196
6994000.0 0.993981399581723 -0.05515896162228797 0.008845829485569336 0.006516621237937045 0.0032147407428722696 -0.0018807320969816646 -0.14169293799558544 -0.009766401665878423
7993000.0 0.9941853180426011 -0.06483672204408572 0.0035499324784712414 0.0037187570731085718 0.0014610653658024089 -0.005037692331559428 -0.15994310339920237 0.03879548668069601
8992000.0 0.9923019582890024 -0.07482324962938401 0.003287586955459623 0.003938169141516363 -0.0012465152236752924 -0.0022898922160542266 -0.15150514390814718 0.06974304328269319
9991000.0 0.9912154588623266 -0.08302104946600734 3.825346924217976e-06 0.005244516763277801 0.0009727040924531041 0.0027332035358759842 -0.1554747290371643 0.08281504165295299
10990000.0 0.9915903243931597 -0.09410516569173073 0.0028728346881957754 0.00017985486871386198 -0.0002427776389571576 0.0020143451510382694 -0.14474838596095455 0.12535884231955294
11989000.0 0.9885018409322565 -0.10138618660123318 0.007850682840035686 -0.0021162566468104073 0.0005485293545325967 -0.006658029033034105 -0.13665737600441719 0.13610122371451092
12988000.0 0.98717982039883 -0.11208087527019771 0.003658148924459166 -0.0029093441244854913 -0.004349109264533877 -0.0011899417927132396 -0.11945919712544925 0.1692771067425925
13987000.0 0.986645250623054 -0.11764266309452104 0.003500512190363938 -0.001759639050718489 -0.0038063165197778745 0.0006107455655721536 -0.09603811878203886 0.18586359351623163
14986000.0 0.9895506319299429 -0.1251958266079616 0.0015320795862461287 -0.002427025235202117 -0.0002014299893659644 0.0023442595425592337 -0.09395512757458535 0.21245947630596143
15985000.0 0.9881271381239778 -0.13476091713815772 -0.0010127748403713371 -0.004937458195793743 -0.000175105228064364 0.0023885858511061577 -0.0856484089209145 0.22130963077906443
16984000.0 0.9863270632646266 -0.1441557914541674 -0.0011798911761924016 -0.010974712728962126 0.0008744069467272689 0.00026147095675064017 -0.062043322484823936 0.2139874103232574
17983000.0 0.9846377187226261 -0.14809113407865737 -0.0033307734115001686 -0.007110769300493691 -0.0022126779095247616 0.001764866863165924 -0.05204659581636511 0.22951722340908953
18982000.0 0.9811638733521637 -0.161866675627132 -0.002841561857934841 -0.003695193669664675 -0.001988480059371204 7.872899427207091e-05 -0.028501631028652705 0.24448029328898177
19981000.0 0.981931018326567 -0.16634812636802107 -0.007130414653251854 -0.003301545261887413 0.003484432790480292 0.0002552841804768253 -0.01616699111221381 0.2473855750766758
20980000.0 0.9792953258999094 -0.17638743782534594 -0.005540179164039828 -0.003666882469938046 -0.0010198817556921831 0.0029883798091667043 0.0013317299219848353 0.25787184815411196
21979000.0 0.9783123892413412 -0.18464567561115153 -0.005785248035332909 -0.00630790074045056 5.9569177000079766e-05 -0.00037115784372201163 0.015499552327740954 0.24628839829705665
22978000.0 0.9778098140174258 -0.1937818011610149 -0.004657692359477016 -0.0041758367526364614 0.0023624137436178546 0.0013597743498336308 0.02275270847823518 0.2612310489080394
23977000.0 0.9762212645225715 -0.20009343023435716 -0.00384667860892305 -0.0019180816511957526 -1.528599397247113e-05 -0.00014009728214095936 0.044667839660553106 0.25678987239824924
24976000.0 0.9760305986160981 -0.2095146001144105 -0.0055988053759979005 -0.000646189382996203 0.0038668658809731245 -0.0016900971102176167 0.07657517009825976 0.260837954053053
25975000.0 0.9749723169554441 -0.21936951253201342 -0.005088833741023656 -0.002729040037489224 -0.00312007276999619 0.027080709634439575 0.07281235189122016 0.2635730268766308
26974000.0 0.968037138049083 -0.23009826585991616 -0.005585914935696787 -0.0024321066931488767 -0.0011376629246613137 -0.0001496230752092274 0.09474196663179181 0.25993679282421805
27973000.0 0.9681270483311629 -0.23864447241574657 -0.0011437470464118517 -0.00489711951420671 0.0008653325365779082 -0.00045710330028522354 0.1077411302886454 0.2666364376714577
28972000.0 0.9641436538315838 -0.24347193152657848 -0.003958826387830141 -0.0005184223482024685 -0.0009749446513315811 0.003876112786520013 0.11854387803059141 0.2614100921033239
29971000.0 0.9630640606298367 -0.2543662090238601 -0.0013798187226573277 -0.0017504014844327287 0.00033867132228662693 0.001050765687780405 0.15161801640416245 0.27527887688972275
30970000.0 0.9626247590724627 -0.26000968653818124 0.0013339371859176538 -0.0032181501756484406 0.002747347272883237 -0.002023130205370144 0.16277724605932645 0.2525322931732524
31969000.0 0.9586082021388675 -0.26985183178382927 0.0048490852920748 -0.006502844049059139 0.0003418201671839399 0.0018742215804067412 0.14526399257282696 0.2474618787910608
32968000.0 0.9569871498458746 -0.276812503053727 0.009785899028757355 -0.007219247088593509 0.0007959146814772599 0.0001572457738031517 0.17202214724144357 0.24518261795739743
33967000.0 0.9539162289667004 -0.2884393793571706 0.008966009459542647 -0.01030464484365627 0.0011992285245281883 -0.0006506170366613101 0.18725497783693434 0.25274804418093766
34966000.0 0.9515541231075935 -0.2959374204150922 0.013373282980591625 -0.010949716384044765 0.0003388404733060253 -8.699041207942816e-05 0.198012030690441 0.2511284051274325
35965000.0 0.948879615942985 -0.303983159265268 0.013455305629255579 -0.010398700540131115 -0.0011420019485672364 -0.0008631284536600766 0.21855333025823256 0.2508959186655612
36964000.0 0.9476132919275945 -0.31246196096668744 0.017009941665412802 -0.014399235629339969 0.0019042305372502203 -0.001331759449564274 0.22053648508509685 0.24272625337262313
37963000.0 0.9443296018713954 -0.3217915416887332 0.02250965418240679 -0.020030191124112036 -0.001232918912849562 0.00023236184793088227 0.2374473404011581 0.231379410519641
38962000.0 0.9401954655562538 -0.3337536534503543 0.024094317850865524 -0.02650226320583703 8.16955956617092e-05 0.004037447780117221 0.2408997152186453 0.23490534925491924
39961000.0 0.9372535262651722 -0.3388585344734585 0.025100036210855662 -0.026802829077986045 0.003012869734172761 -0.0025064352580918096 0.2588448323991102 0.23184011999280138
40960000.0 0.9352887840981506 -0.3478566049253668 0.02308474727474924 -0.025436933515480153 -0.0029900623517450007 -0.0007879786926980674 0.26778264067888397 0.2244715391648654
41959000.0 0.931509466749813 -0.356547329408704 0.02867327407154914 -0.03060357416475775 -0.003890645745974382 0.0001330544928983797 0.2773933381505641 0.22011476723220275
42958000.0 0.9251163923645322 -0.36669547874419295 0.031858187644049 -0.041050092393642226 -0.0018751997669426066 -0.0033577972999808063 0.27475994398780224 0.2023600223483378
43957000.0 0.9250581123872005 -0.3704144490737768 0.030134144008273838 -0.04600132279803064 -0.0011956627545465332 0.0019753902658437386 0.28536434012655953 0.2171173239360076
44956000.0 0.920782827299808 -0.381136001592308 0.03267759434675592 -0.05074252219006132 0.004826987839456309 0.002304845132203227 0.30869720838084175 0.19764553169215626
45955000.0 0.9175565473174532 -0.3907825942539846 0.032126632154207885 -0.05849421573239713 0.0022323000016197065 -0.00028986251332771193 0.30208510705907954 0.19627738091054828
46954000.0 0.9131592774233435 -0.3976336466254803 0.032902483505598566 -0.06540868672878102 -0.00187976084070968 0.0014497240398553227 0.32205820271615015 0.18146572807073824
47953000.0 0.9102016578287314 -0.4064590324630873 0.033277134136934367 -0.06905300982261728 -0.0008625540010103905 -0.006410181182848185 0.3371143522733157 0.1750083744034634
48952000.0 0.9042299133307302 -0.4176390520136977 0.03490961326572814 -0.07829015719678493 -0.0006534602637539249 -0.0018925601063508263 0.3342422992803698 0.16628021125128417
49951000.0 0.902341056629184 -0.4206597409086444 0.035280959771974735 -0.08450169369650705 0.0012459142206275766 0.00189731535360835 0.35106039133121847 0.1505307471560934
50950000.0 0.8981099368502954 -0.4313726144909507 0.03691475323420199 -0.09639888462626511 -0.004279489730118353 -0.0006926717946239349 0.35897576102644 0.14826022324780253
51949000.0 0.8927905569292786 -0.4399497825921825 0.03562844854837412 -0.10384304012655762 0.0004467667648978517 0.0024925291036157846 0.36099203961910226 0.15217057525566663
52948000.0 0.8917108022993774 -0.44791200308386553 0.03459600357668632 -0.11105828479916258 -0.0013484004220364004 0.0025407161067604656 0.3738582618948339 0.13822434291387967
53947000.0 0.8868580267952462 -0.4538596863953026 0.03923850746401147 -0.12002613623793243 -8.452828153863544e-05 0.002125154355531891 0.3755450782507273 0.13610283761426537
54946000.0 0.8808262781372953 -0.4662688095721182 0.04089675093946995 -0.13210054320056736 -0.0012058667620081238 -0.0009731117284798509 0.3879544217479086 0.12732456366014328
55945000.0 0.877866164356357 -0.4738735308151929 0.04164233313949883 -0.1370368528118951 -0.0012121120884303683 0.00038355397070682386 0.39367349093217857 0.1119972694056061
56944000.0 0.8737830668759285 -0.48118166546315616 0.042192452102533244 -0.1504691427204111 0.0016907313473516778 0.0029358004803430324 0.3994372224896767 0.10184926751991147
57943000.0 0.8689584709205742 -0.49146370063452044 0.042399634838888686 -0.1603021937941552 0.0001936324284329052 0.00024066050326585758 0.40268787961640434 0.0984428464373325
58942000.0 0.8619481302575147 -0.4969814736210742 0.04574169194652543 -0.1723782177510522 -0.0012865706960858683 0.0006308423978095669 0.42082606562279473 0.09110176068292675
59941000.0 0.8620913635054646 -0.503657940014142 0.04959120679277675 -0.1803813285388653 -0.0005864083565598795 0.0007931662150575637 0.42335400883123564 0.08949953484310434
60940000.0 0.8509829026329662 -0.5138798557760088 0.049123509956649755 -0.18542588333762614 -0.002290134150138301 -0.002309981360026596 0.40987389923439344 0.07915450675251753
61939000.0 0.8486648021762477 -0.5184983619261977 0.04840446850013022 -0.19058765702316585 -0.000959924497406742 0.0013725325872282282 0.42100384077193526 0.06381521808815677
62938000.0 0.8437549140285728 -0.5291358762970394 0.0523141192991097 -0.2072096916526795 -0.001213949562461903 -0.001960934744706859 0.44072683318522704 0.050317029720871535
63937000.0 0.8389566518688085 -0.5368321185371444 0.05131974136276457 -0.2285931822073199 -0.0017158023161251788 -0.0005537172687170521 0.4317352939570053 0.04580687137830177
64936000.0 0.8307915128642965 -0.5439358932904256 0.05270858253260059 -0.2393835718057821 0.0012154646610467712 -0.004244221875473814 0.431694108460691 0.045018642796281295
65935000.0 0.8287752412169499 -0.5539322191349646 0.05108424916727597 -0.2555223877985365 0.003141260827877302 -0.0004462028298796499 0.44467173769133905 0.01982620539294719
66934000.0 0.8238976937858106 -0.5596668722074075 0.05144994874713792 -0.2694341632259667 0.000498953254134365 -4.249398453636384e-06 0.4359208473723528 0.000651940802418515
67933000.0 0.8187232306782962 -0.5681223044360197 0.05319833714610821 -0.28169549042206726 -0.0012107966238815388 -0.0018796050491518335 0.4474528585981047 0.00503236386050348
68932000.0 0.8059335971100464 -0.5731571135502562 0.042487424252219595 -0.2939765866186828 -0.0009595397318875884 0.0009870828956906788 0.45566540754252227 -0.013382366835020813
69931000.0 0.8055553781600706 -0.5823273757255325 0.04606448421880358 -0.31144373347944504 -0.0015658957602613156 -0.0015809949424952744 0.4436050887750307 -0.018672613155557776
70930000.0 0.8022843347989589 -0.5891314773810614 0.047110636043114565 -0.3224272460317415 0.0038013899491152188 -0.00035737037289316326 0.4438993106889303 -0.03192625676621858
71929000.0 0.7960268330503164 -0.5974104006023694 0.04120516975386153 -0.3412270739342285 -0.0021865929019730984 -0.001469772087243755 0.4479812308425535 -0.038054233142724686
72928000.0 0.7894907044390397 -0.609322657138522 0.03501207163172626 -0.3588391972465625 -6.355465628079201e-05 -0.0017019672672531133 0.45760203766735075 -0.05080271120617999
73927000.0 0.7823716828246214 -0.6139671652150219 0.026775871650661188 -0.3751322432602734 -0.001195567562611749 0.0008954398623467692 0.46033283998763164 -0.05509406183620431
74926000.0 0.7769822042915376 -0.6229670811465587 0.021833740054937968 -0.39001231609074016 0.0012169177077403033 -0.001335460285515105 0.4597641499003843 -0.06210921214873809
75925000.0 0.77134388777904 -0.6287864388668987 0.014447412041335728 -0.41179128933879583 -0.004418890658638355 -0.00010597842774681104 0.47436973926749415 -0.08074544170595407
76924000.0 0.7670970368471268 -0.6357557488268255 0.0010893816693826833 -0.43411725618024954 -0.0001955527446228575 -0.0009934040090111714 0.4659491567959731 -0.08416262642124278
77923000.0 0.7585625322968972 -0.6424985845901289 -0.015670315188733453 -0.45578011194272805 0.002534541009414679 0.0003360425273030499 0.46291825975736745 -0.08560793505984442
78922000.0 0.7529973559647202 -0.6527235665204225 -0.0298941925032234 -0.48506645623855527 0.0006157310875792348 0.0022388943700604757 0.4660740522590884 -0.11744956999832971
79921000.0 0.7451749617457096 -0.658224986621049 -0.04971799105975563 -0.5091396903308483 0.0021364885613076555 0.003013798440075504 0.45664937435513625 -0.1139566343442215
80920000.0 0.7402129156956547 -0.667345289229899 -0.06364763599979016 -0.53505745787872 0.0015901343663854107 0.0014821834099867897 0.4733786767862597 -0.13236243432745481
81919000.0 0.7345581080408546 -0.673744090764023 -0.07969449795112848 -0.5627079898324864 0.0026158668798851657 -0.003271305214072794 0.4668676799076696 -0.1263705492693207
82918000.0 0.7241555916631536 -0.6799353334788447 -0.09102866337544704 -0.5909507140168964 -0.0008023799379028535 -0.004523329998137546 0.4789341408642831 -0.1431174019488581
83917000.0 0.7191980587277965 -0.6878116622827568 -0.11386204870761718 -0.620414719827072 0.0006995048533205908 -0.0008201594678682547 0.47085700933567226 -0.14587562387001704
84916000.0 0.7122937630688491 -0.6961982018464413 -0.12677744182052847 -0.6553532245487487 0.0011336011533272785 0.0033225668997290433 0.4640100825428054 -0.1702364688268025
85915000.0 0.7053632386149391 -0.7016058485614587 -0.14878468913613033 -0.6832002068212985 0.0021778335375800067 0.0018767269718293477 0.4651996440819285 -0.18282339913437526
86914000.0 0.6973973588953543 -0.7123994566925108 -0.1656845283376284 -0.7207822272992985 -0.0010041071517007552 0.0037148632169548847 0.46184168884611715 -0.17235964742875956
87913000.0 0.6908718492116567 -0.7181243381837618 -0.17891136215655248 -0.7468187251001992 -0.0016804508124320255 -0.0005823894321642058 0.4599534899288379 -0.1856082494375786
88912000.0 0.6840273853086024 -0.7246768232956513 -0.1983001037841316 -0.780572281419346 0.004266519670310977 -0.0038770089457530934 0.4644857023571445 -0.21076684231109544
89911000.0 0.6741121277793123 -0.7360949104503088 -0.2160155780802747 -0.8176786129841265 -0.0017622264159624327 0.00035467170185003407 0.47212821569689295 -0.21105882761180145
90910000.0 0.6686985314213527 -0.7382824153614428 -0.22674569120507174 -0.8479473601409078 -0.0005859018787300692 0.0008649945110615301 0.4597121326710509 -0.21199521454984338
91909000.0 0.6595104756408743 -0.7431011107850315 -0.24639653431162828 -0.8793559286530219 0.003707481948204618 -0.001412987867158416 0.46494126788923756 -0.2159288320107999
92908000.0 0.652587931736908 -0.7535373239995115 -0.26254628064243074 -0.9107742407308334 -0.0003825697136707871 -0.0013149221074295054 0.45764173483818227 -0.2392663551009603
93907000.0 0.6457414494432158 -0.7571190796017325 -0.28009112820695403 -0.9404858913608197 -0.0022693319762504644 0.0002879222164112413 0.4590995921269129 -0.24406746519333986
94906000.0 0.6336447127654893 -0.7658553164458287 -0.2966466141118742 -0.9737737223200064 -0.0011756695576523738 0.0014227403912905094 0.4640717323224494 -0.24457504617855197
95905000.0 0.6264272247889937 -0.7726678471511284 -0.3163791762225 -1.0097630422702013 -0.0029174079169954153 0.0021451134712300126 0.4624176061454551 -0.2688748317260409
96904000.0 0.620395863481595 -0.7798728458261168 -0.33364687847629654 -1.0438318360670091 -0.0025363673377061594 -0.0018066494940129829 0.44871055543308574 -0.2732669357897726
97903000.0 0.6096004516351032 -0.7868282066444225 -0.35717458459435236 -1.0746082804649568 0.003606483358650118 0.003388347040590701 0.4411522469769358 -0.2869573145072287
98902000.0 0.604199071390077 -0.7921985549471602 -0.3721712486210613 -1.1089262848092474 0.002762507621896934 0.00411217570897224 0.4498623682305163 -0.29102666602913096
99901000.0 0.5936226672356691 -0.7976888475144993 -0.40220067933727943 -1.1414825443262946 -0.0012102626134456046 -0.00047499600152508165 0.467516004687452 -0.31243766836615955
100900000.0 0.5854751559778401 -0.802054285383305 -0.43519711083252705 -1.1662671167391376 0.004629951575110541 -0.0038536724615788804 0.4625453401402698 -0.31352461858604036
101899000.0 0.5763105063701136 -0.8112078296394971 -0.4619388095994572 -1.204639020738925 -0.0008891543118419805 -0.0021915974745679956 0.44193040128672617 -0.3176977349361389
102898000.0 0.5665929972533397 -0.8162165396164653 -0.49675865695328286 -1.2429221133550448 4.7794094988256915e-05 0.0007585672905024665 0.46076048203597086 -0.33831500170695916
103897000.0 0.5587649215405827 -0.8219892239936888 -0.5333851724723908 -1.275359195012369 -0.0015759990615656374 -0.0030439659939040433 0.459757773919583 -0.33565485674649437
104896000.0 0.5499097873908919 -0.8327009625980409 -0.5780485258335194 -1.3069464586166855 -0.0007822493583944026 0.0024555555011311686 0.4336973038311105 -0.346571060151631
105895000.0 0.539608856710595 -0.8351098039925555 -0.6183308651834676 -1.3488815587524594 0.0018725115782705919 0.0003886648833102587 0.44014040875011956 -0.35078312358247465
106894000.0 0.531681987936046 -0.8416077757443631 -0.6682840990521812 -1.3814719409376415 -0.001748554439799382 9.716076066946367e-05 0.4348023336490093 -0.3616704144070615
107893000.0 0.5250161553736608 -0.8470302594681373 -0.7186886551823416 -1.4185361897890365 -0.0025075100650185944 -0.0007665093035570038 0.43881560673141917 -0.3767447915989503
108892000.0 0.5130650108254445 -0.85184641500137 -0.7811804871589766 -1.4525259905344428 -1.019573694116092e-05 -0.0029297806382917527 0.42208407685199806 -0.37791152111704224
109891000.0 0.501125626502213 -0.8595395805248088 -0.8373160356096968 -1.4914807725917425 -0.001958058223679131 -0.00019873529357334861 0.4478277145952805 -0.380517591132615
110890000.0 0.4811991756397584 -0.8644699832293872 -0.9078289713931466 -1.483448025378463 0.00010671428879358542 -0.0019209967041625238 0.418793013416964 -0.37291604589925953
111889000.0 0.48307093604137435 -0.8652953154600518 -0.9588628283776687 -1.5544035917533057 0.0007900015253452772 -0.00047766900262225025 0.4224272808973321 -0.3979388849442668
