! Created with skrf 1.9.0 (http://scikit-rf.org).
# Hz S RI R 50.0 
!freq ReS11 ImS11 ReS21 ImS21 ReS12 ImS12 ReS22 ImS22
1000000.0 0.9917215419916606 0.0009599814173929822 -0.01696650319414822 -0.04740236313374006 -0.005902003714680657 -0.005095237587070472 0.33218826234623194 0.31061579590450805
1999000.0 0.9947833962921164 -0.011121760478090263 0.008386619055397783 -0.020713052083535122 -0.013751046347917033 0.0009097168958783853 0.24905255075798988 -0.07211801665394625
2998000.0 0.9989274144969693 -0.020406768057683537 0.011018925793488977 -0.022400832414389945 -8.907680934673308e-05 0.0026642342036717974 0.1910607776336771 -0.1489228039858725
3997000.0 1.0009849515533125 -0.029097280338589805 0.0067862214487344925 -0.005879647248205962 -0.0006230116292207037 -0.009953207003776459 0.0911349027669653 -0.2301270422029879
4996000.0 0.9976883464962163 -0.041630899460566397 0.01093594556893093 -0.00368277582507814 -0.0011732893015952146 -0.000152805324142235 -0.03315110987899554 -0.22014583348062886
5995000.0 0.9993617579271297 -0.044949038311813815 0.009817779343306559 -0.0005055671058989496 -0.0037173561366658503 0.000989109891868817 -0.14179625963961842 -0.12435845523812976
6994000.0 0.9949077091164794 -0.05887741269450069 0.007276766801517508 0.00020921976378115217 -0.0027084363590139317 0.00010210896846190947 -0.1539356177353186 -0.0307703820191733
7993000.0 0.9969548896420984 -0.06835586158568453 0.004042664679206811 0.005029625654538685 -0.0005762906738439763 0.0020510584154978264 -0.17372200404534865 0.02968624288972697
8992000.0 0.9946004598884911 -0.0733502955700399 0.006680719200612792 0.005374764811930247 -0.000872543506291509 5.160508288995845e-05 -0.17158793009893977 0.0704978059676424
9991000.0 0.9948568001063723 -0.08204086227453655 0.00190914346926352 0.004974731128560462 -0.0003180657308543585 0.00047889755441647724 -0.15216039511794113 0.09322719903419836
10990000.0 0.9937318129201427 -0.09203448194262066 0.0014670746981552373 0.0019373505761819977 -0.00015410532268726406 -0.0015052361662345397 -0.14574325292973853 0.12679177722336044
11989000.0 0.992233215186327 -0.09671359124241025 0.0016046709897822896 -0.0013102225729436684 -0.0044998862256182505 -0.0073809132155642585 -0.1438997204919265 0.14985879145163764
12988000.0 0.9936870574755866 -0.10858216479012629 0.001618385202846916 -0.0011497790080298676 0.0007928835682137411 -0.001892195699328599 -0.12066474922998544 0.16395155243627532
13987000.0 0.9916636153109841 -0.11600571627876165 0.0024956517997162175 -0.0009723573099294348 -0.004608490231063477 -0.0003429402674541215 -0.09854726555126457 0.19389819787965681
14986000.0 0.9878746143005107 -0.12415457051843534 0.002446780685458631 -0.0030331920416067615 -0.0019038333183111966 -0.004307157133201456 -0.08771526468776601 0.21562160964132315
15985000.0 0.989022283607294 -0.13235489193155334 0.0006501025355364343 -0.0022797097563297614 0.0006718939049033417 0.0002509796826014789 -0.07262271038204014 0.21370975917895355
16984000.0 0.9885020844299596 -0.14287594465698303 -0.0036850527626015894 -0.005183638298573927 0.0026152450497276126 0.003284629057028391 -0.0715499439020197 0.22343620367706268
17983000.0 0.9888071213730162 -0.14821199744625735 -0.003691156559995044 -0.003758712685508904 -0.000928347938804276 0.0031176179347607454 -0.055802462296279255 0.2284024825843019
18982000.0 0.982957028494949 -0.16237753740705663 -0.004944121358666832 -0.0050154370652690326 -0.0038188180298178165 0.00309590845789057 -0.02155252498903298 0.23977625386296514
19981000.0 0.984047225931048 -0.16436658654181815 -0.004757954278051905 -0.005867929338298781 0.00040742437571661676 -0.0008245907568369446 -0.031377595170513986 0.26016109794186243
20980000.0 0.9820181815735739 -0.1755332185995894 -0.004079292522429771 -0.004263300559712927 0.004939280151247436 0.00021720891091781217 -0.004336473210818222 0.2565793829140992
21979000.0 0.9802035081761825 -0.18545455131676983 -0.006234838915157888 0.0009378403225138074 0.0023729978393139924 -0.0002608464832945277 0.011674089803700504 0.23606914869379933
22978000.0 0.9767712574013773 -0.1939048388038124 -0.003892916229982536 -0.006040460158972871 -0.0023028217667084116 -0.0014760229707135152 0.025094197723210303 0.25730722563346026
23977000.0 0.9800064001055471 -0.20113288550897432 -0.001702249533414889 -0.004804152684760216 0.0004956818494338533 0.004823036331697163 0.03349803423167097 0.26251771239787575
24976000.0 0.9739967107422797 -0.21034009853382651 -0.007563750840696194 0.00045910485228499177 0.004905905194441465 -0.001722740540752511 0.05949512545535952 0.2535157251857585
25975000.0 0.9719863586460564 -0.2153104601522641 -0.0025322766870255354 -0.007213351931560457 -0.02644170077096962 0.006832599481025115 0.08484120652038407 0.2639370436036888
26974000.0 0.9719094949580284 -0.22588663134508452 -0.003249894404970077 0.0015940266141266863 -0.0006755314968779195 0.0021626255380962 0.0854811760294876 0.2672209757497636
27973000.0 0.9689075377080031 -0.23461874718916706 -0.0028615445532590203 -0.0016458507811808558 -0.0017547409537938866 0.0031830158117072747 0.11656955337193192 0.2541661399944302
28972000.0 0.9681572605532233 -0.2426036836552124 -0.005152011954196791 -0.0033464818279520616 5.9049766157381546e-05 -0.0013627368489450772 0.11711608472517283 0.2454409406917398
29971000.0 0.9666997352807916 -0.2508125670955258 -0.00044669378204991215 -0.0014472485924947192 -0.0032634391769395528 -4.666242737303961e-05 0.14957055288703583 0.27220206529904656
30970000.0 0.9638582856949066 -0.2579966638181117 0.0030120064245362237 0.0008977005378707943 -0.0010442829593276706 -0.0009818543581503534 0.17088855263551886 0.2474160028840849
31969000.0 0.9619214248805975 -0.2671792201738021 0.007100255533049841 -0.0027558185060513538 7.074144824994166e-05 -0.0009260658994307646 0.15811499727256206 0.24830311543655204
32968000.0 0.9593287024549179 -0.27739955241521863 0.007895117855653694 -0.010082834004159652 0.0018925985524810016 0.0039967665795799 0.16336600384887864 0.2399902350085273
33967000.0 0.9568787526495528 -0.2872657267284699 0.01018238567927474 -0.00908088681252006 -0.002091368329268069 -0.001258252391745983 0.18901229843224776 0.24367132431075864
34966000.0 0.9533217811985221 -0.2948537667547714 0.012885517987164986 -0.012589058184488924 0.00031171009400621626 -0.001493893273007023 0.19856993184540425 0.24977999851051225
35965000.0 0.9514298337814004 -0.30122887294496975 0.016201184472281957 -0.010395853682843464 0.0006382439317919597 -0.001286325064048641 0.2151240053773952 0.24210586258574254
36964000.0 0.9481926530695038 -0.311158918167253 0.013554844253657288 -0.013202612348663958 -0.00011742384155984769 -0.0002868151466473272 0.22025554612347883 0.24973991329150427
37963000.0 0.9456071510361941 -0.3189850670269888 0.022110357894830884 -0.01917475412756288 -7.439121909738336e-05 -0.0014330289571733033 0.2390952960994554 0.2413593563301695
38962000.0 0.9433093771277551 -0.33026565242369205 0.02427252818881209 -0.022389032050611806 2.1639582215284553e-05 -0.003669565785793778 0.2414008500814837 0.2292100719556997
39961000.0 0.9401002259656374 -0.33636108097750766 0.028272558325801708 -0.029785374479501525 0.003447938035592982 0.002029704407767597 0.25391253529667124 0.22604419480981294
40960000.0 0.9369704774773994 -0.34453308657337123 0.023314577014927097 -0.02454711042047583 0.0004995435413817356 -0.0001881877427166663 0.27386944101429544 0.21653343743754067
41959000.0 0.9334349712515727 -0.35240049399167395 0.02811723342581488 -0.03243690534188239 0.0014897571436562848 -0.0014169729228976356 0.2690300265900704 0.20648675176375364
42958000.0 0.9280944670146684 -0.36284548943284184 0.030495854820136035 -0.0415498516400382 0.0011570433481973876 0.0017194650926355495 0.2899745235122634 0.19449311941257924
43957000.0 0.9284135396344436 -0.3659363302986509 0.03375650245517539 -0.04348915741565636 -0.0011153090662940593 -0.0018590226381467961 0.29912024910465057 0.20826173477759133
44956000.0 0.9249728281977446 -0.3738827306333709 0.03300801078882908 -0.052801103924487634 0.001092097410703055 -0.002199791728581523 0.31475074708631434 0.19056968873513697
45955000.0 0.9199302532705915 -0.38561844510150867 0.03626468737672564 -0.05875882499751297 0.0001709647237994788 -0.0013415832208030062 0.31309378400602955 0.19291817613119225
46954000.0 0.9164130898511704 -0.39465262645449434 0.0356542353697766 -0.06313481229406302 0.0028183443099061784 -0.0022841969541437246 0.3303550071453413 0.17917341655502783
47953000.0 0.9151613735297117 -0.40123409277279953 0.03554516479393256 -0.0717428051206682 -0.002455781589021161 -0.0004843933134857474 0.33579078969294957 0.16084199135295904
48952000.0 0.9081433065826428 -0.4127513166473781 0.03680061683947524 -0.07819041726480382 0.0007988389046478899 -0.0024363416351000445 0.34084224717461475 0.15419545883701896
49951000.0 0.9061322317867093 -0.41561664911578966 0.03683775233064156 -0.08537345692653141 0.0004142354017497383 -0.0004914340910063454 0.3563608160691061 0.1460078230457559
50950000.0 0.9020902816394085 -0.4273875166224822 0.03939771261246383 -0.0947602194085984 -6.375255609390651e-05 0.0018022424358477783 0.3532871473047787 0.1365751518441461
51949000.0 0.8985249145222259 -0.4341604725246489 0.040636559299011464 -0.10416305701556539 -0.0017566544756960384 -0.0005837751660880044 0.36564424492895525 0.1376461810706501
52948000.0 0.8945152586264444 -0.44393144871755275 0.041258616865389744 -0.11120215785048858 7.160867355679977e-05 0.0014580834374052247 0.37792042761787825 0.13134215721968356
53947000.0 0.8896871266965383 -0.4485565346647598 0.04185552516619791 -0.12134414215322376 0.0007651625400917109 -0.001317382729645945 0.3788055078161357 0.11172539405041089
54946000.0 0.8846458151771608 -0.46074082371170066 0.04200712742315739 -0.13126929024678477 -0.000869036237033784 -0.0008369030956127244 0.3875513207352975 0.12189928786226162
55945000.0 0.8821617349965307 -0.46661894641442786 0.043684980537929734 -0.14144565240575863 0.00017115131836770915 -0.0009553418728638429 0.391750500668697 0.08410907652319814
56944000.0 0.878433428964848 -0.47278184973839626 0.045283125742179665 -0.149792824508579 0.0011575801696161892 0.0005021882239831541 0.4019032740837289 0.09666849794255138
57943000.0 0.8747219984958774 -0.4860347921819777 0.04709362599379883 -0.16099314316257754 -0.0007399069918728306 0.0021330892925467745 0.4012133289702628 0.09226622331823099
58942000.0 0.8657542402764546 -0.49202937924816925 0.04746774474888933 -0.17319874850201514 0.0006308985018207018 0.0002223882415965241 0.42638737931669696 0.07744133903025674
59941000.0 0.8653108462853568 -0.4981649285577213 0.050784345553091324 -0.18064079483811016 0.0035537147975161793 -0.0005309991082012661 0.41684769920093423 0.0779131192235138
60940000.0 0.8585479625096135 -0.505398779073111 0.05022295641197147 -0.18633510371586245 -0.0013561159959258006 0.0030024977074752574 0.4151268274517167 0.058548793030793155
61939000.0 0.8546365251604732 -0.5133747188308283 0.0515897006025855 -0.19626146206419537 0.0009645253390791078 -0.0003105896692105716 0.4242118917357793 0.05114504208612498
62938000.0 0.8492846776517804 -0.5238652939744256 0.05590442798767696 -0.2148428978222474 0.0019315248108628335 -0.0031025823416988138 0.44338927094590025 0.04923191739180044
63937000.0 0.8464285493057213 -0.5297495448022698 0.056472563801064815 -0.23293724801391183 -0.001030575825136896 -0.0012811774175122688 0.437794472424787 0.019798424904182106
64936000.0 0.8375610308249108 -0.5374499861833776 0.05516069874865978 -0.2470259452790326 0.00282777893508041 -0.0011186830575795371 0.4316847153696963 0.0243610901476648
65935000.0 0.836169519570579 -0.5450855765190519 0.055623231536858504 -0.2624531668248776 0.002040385179943431 -0.0014765957258394099 0.44433020204837237 0.011836992983972009
66934000.0 0.8306846880280672 -0.5517024639175655 0.05619820607285318 -0.2724463358355791 -0.0023350197152572165 -0.0028974012171358162 0.4442005771901188 -0.003621813663803822
67933000.0 0.8282787103819026 -0.5603649883674855 0.05829965264147511 -0.2886307211247156 0.0028261991305071226 -0.004432695071727897 0.45370012159255374 -0.008147992483549657
68932000.0 0.8152778305731615 -0.5664616788105964 0.05046682763973928 -0.3002363544206311 0.003718941441117354 -0.0014746043260956412 0.4603045247585685 -0.019342709631239165
69931000.0 0.814495504787464 -0.5760197284173643 0.0529742422619667 -0.31807035444483106 0.0011917664593645504 0.0012353489987989967 0.44620012513166707 -0.023329322401747354
70930000.0 0.807701341100827 -0.5831022860698845 0.04780204687640619 -0.33381554836717214 -0.001961906739032905 0.0004651646881463302 0.44923468349835805 -0.05162464374976386
71929000.0 0.8047303532099305 -0.5917692840285144 0.04598421268566613 -0.34937640565430206 0.0015473439725605667 0.0017453009155674226 0.4501825740673628 -0.04865941359380971
72928000.0 0.7980970933498466 -0.599886165954447 0.042141443509317866 -0.3638239652741295 0.003361352579005703 -0.00036132358977474676 0.46142515770135384 -0.0625433645583662
73927000.0 0.7912063695451518 -0.6058816561682493 0.036409782424927754 -0.38404299411396564 0.001192091936270185 0.0018117811256273756 0.46170219205751367 -0.06268767139220258
74926000.0 0.7856038931333124 -0.6169631223394013 0.028593272771430513 -0.40233125533403263 -0.002085853414950336 -0.0012349356868841474 0.45786148029649804 -0.07083581523459416
75925000.0 0.7799156597499707 -0.621050701755314 0.021310151949739134 -0.42484441806493894 0.0034909224837444794 0.00016746909763677375 0.4723034562611462 -0.08576275879876717
76924000.0 0.7745761174950703 -0.6283138616704735 0.007596553188408014 -0.44505073531710476 0.005710119815445042 -0.001015428656559329 0.46601347501454354 -0.0824810442336263
77923000.0 0.7679586157463586 -0.6353447126355397 -0.0037907746172671977 -0.4668939150115485 -0.0006335042291554189 0.0032790857619528955 0.45651514892544803 -0.10897180499365872
78922000.0 0.7614719704306954 -0.6466720238454686 -0.020950822489281953 -0.49545790748900415 -0.0009470876664576339 -0.00015975656433037049 0.4585864762010676 -0.11511530820654405
79921000.0 0.7536712291106203 -0.6501393844022118 -0.03635873868402204 -0.518537306976795 -0.00010425142391315485 0.00012079103126606578 0.45287086373278335 -0.1203714647535817
80920000.0 0.749208879520876 -0.6618033026149638 -0.052507464343912645 -0.5458004074663307 0.00027457727492229486 -2.883422258786409e-05 0.47528781191080594 -0.13753632500920732
81919000.0 0.7453498551381658 -0.6660154296189505 -0.07079242979677201 -0.5782791848583771 -0.00013456739853105577 0.00338289085780848 0.46394693508807194 -0.15206418935234012
82918000.0 0.7337583438953693 -0.674569077578364 -0.08777664955184955 -0.606210204621674 -0.0011683484853902938 -0.0019355394675609709 0.4655098865925158 -0.15555048585466755
83917000.0 0.7248232105784564 -0.6821566405890501 -0.10756855039927354 -0.6333971592018699 0.0030868234605869213 0.00101436624500778 0.46753093753036956 -0.16236497540101955
84916000.0 0.721635962327412 -0.6902494543205304 -0.11974587034513078 -0.671198379810535 -0.003960329593312269 -0.004956966382106608 0.46727986201423016 -0.16526982560032566
85915000.0 0.7154444203514361 -0.6950612531842051 -0.14068386978356018 -0.7008893228090455 0.0014846773279307912 0.0017023712542299009 0.46973025593551376 -0.19789376773096404
86914000.0 0.7081236724496209 -0.7071683093623908 -0.1616010793173184 -0.7359250880446173 0.0018559318667998024 -0.0007417067865814634 0.4515773371409062 -0.1816028660091254
87913000.0 0.7005956726195142 -0.7108637834858452 -0.17880208373479572 -0.7656751749182517 -0.0010900488555964777 -0.0031603297117409773 0.45723926653362207 -0.20716190284363425
88912000.0 0.6948994074792361 -0.7169191419448965 -0.19599920437362833 -0.8007798760638934 0.0017149373472841404 -0.001059687676530229 0.4513581329963142 -0.21623521091413755
89911000.0 0.6889542253514049 -0.7269813344642663 -0.2139562569424572 -0.8366778698956805 0.0006525527922593853 0.00400103557039368 0.45857928553326216 -0.21453247543857504
90910000.0 0.6817659426272408 -0.7317458382495863 -0.22484547969265947 -0.8726763139731579 0.0025555278853378674 -0.0003318318439655365 0.45708996904359744 -0.22235990583224113
91909000.0 0.6706815758515078 -0.7379320423713407 -0.2497219310254239 -0.9041711552786527 0.0014957429429953769 0.0009934048820997052 0.46818499580561695 -0.23595609285520563
92908000.0 0.6622052573266026 -0.7464363903166885 -0.2680323266867362 -0.9343937140541425 0.00036724649359535946 0.0005499084554386426 0.4550281569145176 -0.24743600453445966
93907000.0 0.6568465919768711 -0.7511132919189819 -0.28347165563034676 -0.9706240036719626 -0.0009202881008638062 -0.0026265222882565623 0.46635647567278493 -0.2542086256582555
94906000.0 0.6437866437922618 -0.7602605046671144 -0.30747973902741643 -1.0000852124357362 -0.003666385604125961 -2.5250530032305305e-05 0.45881264132651284 -0.2656244861905406
95905000.0 0.6379804929766264 -0.7654942962029834 -0.3230168882416638 -1.0402956028104091 0.00016321695909042125 0.000915449309964935 0.46196871594866346 -0.2780268918049891
96904000.0 0.6300536031019873 -0.7738549109724661 -0.3421158244060838 -1.0746020763831352 0.000437801747412087 -0.0013277089352278695 0.446318194902564 -0.2854272632194004
97903000.0 0.6215888651729635 -0.7796908005369739 -0.363885731276657 -1.105493691220919 0.0014166899754937175 -0.0007339216293389987 0.4456977525560875 -0.3009698129322152
98902000.0 0.617133096551348 -0.7862584942993904 -0.3847307530599688 -1.1436349806428228 -0.00320737815567345 -0.002839830815155857 0.43618279039254765 -0.3000653284442754
99901000.0 0.6058816025897961 -0.7904748048914781 -0.4130215893031566 -1.1738732777201697 -0.0016355425681871618 -0.0024195842576045464 0.4603058563064533 -0.3266928591383393
100900000.0 0.6000678456829018 -0.7955725525453232 -0.44291282932622833 -1.2053538057741533 0.00025846535674210427 -0.0001478955444297656 0.45771938667393386 -0.3200818525984218
101899000.0 0.5878769913075417 -0.8039872715790918 -0.47133721048181615 -1.2406080399563029 -0.00041291054899481624 0.000548151702682569 0.44039749080286883 -0.33281221602509886
102898000.0 0.5797228328403006 -0.8075542735993766 -0.5021712386011872 -1.2803804744648168 -0.0006550541824050072 -0.001862836055791735 0.445362940476881 -0.3456353698477432
103897000.0 0.5720813099828543 -0.814235124245019 -0.5395961727957944 -1.3138011777392846 -0.0006080470967519443 0.0035475525074021856 0.45183814050030496 -0.3459898745674889
104896000.0 0.5641426068528489 -0.8249301455312881 -0.5839081984493806 -1.3499465888443878 -0.000666687824871981 0.0003259180917400365 0.43623025882774513 -0.3473619332858431
105895000.0 0.551455667711895 -0.8274697293396466 -0.6312473288362163 -1.3810411527605333 -0.0006265972491953897 0.001828079694835477 0.4260362615848276 -0.3662728744840714
106894000.0 0.5431799848796763 -0.8336606000982141 -0.6831722387520643 -1.4214991274701831 -0.0017823492251968242 -0.0032269930960478178 0.419808756558769 -0.3729165601264983
107893000.0 0.5355594175251313 -0.8415912901076996 -0.7334981862860062 -1.464998714871839 0.0009193621249241003 0.0014865224021705973 0.4258045371913646 -0.39313363895404296
108892000.0 0.5273277884347658 -0.8432213036021439 -0.788759027726783 -1.4976150982907792 0.0038209896364600083 0.0003076591694551874 0.42639667666573106 -0.37104564108667276
109891000.0 0.5132818822071299 -0.8527135145685836 -0.8455045776990081 -1.5339022198350918 -0.0036555412793603964 0.001573001690079244 0.4340872006903812 -0.37485537290639004
110890000.0 0.5087171045886558 -0.8652212702678631 -0.9180708502968763 -1.5557090131304026 0.0014851506168043554 0.00023352678813338132 0.4157033920415912 -0.3978805945219183
111889000.0 0.49542477705758187 -0.8592204806168469 -0.9711105732610333 -1.600018855826589 -0.0009194859306538807 -0.0021218772752045695 0.4111764075869871 -0.40376328642517745
