! Created with skrf 1.9.0 (http://scikit-rf.org).
# Hz S RI R 50.0 
!freq ReS11 ImS11 ReS21 ImS21 ReS12 ImS12 ReS22 ImS22
1000000.0 0.986690124746448 0.010606447542840222 0.007097083504877189 -0.029699795070356968 -0.005015236513294337 0.00827536422783428 0.3747537251078494 0.26557272589403913
1999000.0 0.9948590983744157 -0.016519324037165536 0.0009070148770228872 -0.03089490531996263 -0.006179171541315718 -0.01001358635476291 0.23188601399858075 -0.056556227864754276
2998000.0 0.9972907863382398 -0.02193368407873213 0.009770294177411485 -0.011581336985294021 -0.004673521396926486 -0.004314194726640223 0.17709326512423085 -0.13287482267396966
3997000.0 0.9958627072249031 -0.03238652616717546 0.010822879682169002 -0.008013543228540882 -0.0005021397549416231 -0.0007372882847707312 0.0625911394758109 -0.22318169602294805
4996000.0 0.9936352389177183 -0.03918939738103884 0.010045396214401456 -0.0050762719573806195 0.001053689019787406 -0.005146187964316836 -0.05892696009600377 -0.18826294699843085
5995000.0 0.993992270540645 -0.04938895842739706 0.009364050740671823 0.0031911180685495633 -0.0008011502056994063 -0.0014171714476226222 -0.1239295436090958 -0.08492121675883607
6994000.0 0.992200303701105 -0.05996052185559188 0.006429528810411893 0.005210553746559325 -0.0006847641992000111 4.649486186244104e-05 -0.13477586420204377 -0.007186973909417924
7993000.0 0.9934281762649533 -0.06616947332190926 0.005414905411036657 0.007201337107407619 0.0014819779976407855 0.002805947357936105 -0.1637393657193962 0.059899208163796486
8992000.0 0.994041130117893 -0.07093145961583071 -0.0002802431756972171 0.0036298276434426112 0.002903520951499017 0.001668335537416333 -0.148764149894831 0.07325259725278181
9991000.0 0.9922628155534489 -0.08239544673938166 0.0009003935312016345 0.0058212484940615835 -0.0007280357896255997 0.0022173885136142083 -0.13712040583455512 0.1047845589424649
10990000.0 0.9907304132103992 -0.09366233642693068 0.0026072984540903023 0.0028629976326043863 -0.0033928946799570247 0.004314317184540252 -0.139716590011816 0.11344550112045045
11989000.0 0.9888064862881393 -0.10112403930077202 0.0009290777283619485 -0.0015589661714055254 0.0009305670893732865 0.005248515385780567 -0.12229657081358447 0.14575304464483035
12988000.0 0.9862975655682378 -0.11218492532496319 -0.002046344293079445 0.0009590140249262183 0.0021339435242074827 -0.0003112610513732003 -0.1047419048577452 0.1649259798417795
13987000.0 0.9851207815523926 -0.11814459342095743 -0.0020793632211210103 -0.0034903199697806013 -0.004065330765829193 -0.00017802460432936283 -0.10798962538892024 0.19421442715040682
14986000.0 0.9873055385043281 -0.12731336681071137 0.000515621828361509 -0.004303618086844734 0.003552080178367063 0.0005358686309981348 -0.08772215966144478 0.2029237801051715
15985000.0 0.9875548784300844 -0.13520282645322698 -0.0031140191430584717 -0.006315627116000863 0.0026243166917692884 0.0012642309288263345 -0.07209420715114376 0.2128676523572522
16984000.0 0.9839368806005336 -0.1472064503718883 -0.002375894146597454 -0.0017187651283011166 0.00046048101576444395 0.0003133555371340132 -0.06061023487421625 0.2127159322108533
17983000.0 0.9837616784986524 -0.15068399630522866 -0.003070132463977775 -0.007279619888217361 0.0001384444235346314 -0.004983026007067835 -0.05971284351199736 0.2148166144887348
18982000.0 0.9810779069872375 -0.16397770328779904 -0.003265857952731947 -0.005569925339461696 0.0016889142393716663 0.0008286322646672803 -0.027300205886509693 0.22188236818538373
19981000.0 0.9814275092617122 -0.16630118361981616 -0.0044311982165341855 -0.004996264061674908 -0.0005404840806218284 0.0025361818614924635 -0.011145762427933747 0.2363581428504382
20980000.0 0.9789595988808286 -0.17868428182715781 -0.0015749789285677042 -0.005404441021444098 -0.0006385956859990664 -0.0014683790629464114 -0.01252905782427032 0.2613575900186457
21979000.0 0.9757748831734054 -0.18450563649094 -0.009911606209032918 -0.0062179824640039094 -0.002625079313078411 -0.0011992908626966932 0.01402459078366372 0.24750377282924554
22978000.0 0.9747194258875335 -0.195779179244058 -0.005428856635465901 -0.0036512377062795916 0.0002586496877600229 -0.0031053214732601592 0.023315788280706105 0.24249864732212276
23977000.0 0.9757204678308199 -0.2028207636707985 -0.008062323034637497 -0.004765799450160867 -0.002792218305588578 0.00013214345883186867 0.0397516070906934 0.25102762935156586
24976000.0 0.9705654882022003 -0.2128696043117114 -0.00603474563636949 -0.001539516886987404 -0.0016475347520027593 0.0019197758852124397 0.060039169907668444 0.26943843835260056
25975000.0 0.9711153963601462 -0.21773558550745975 -0.005153125780848724 -0.0002573838786272892 -0.012012054161303307 0.02323014427496988 0.07656252536889463 0.2620173221722132
26974000.0 0.9671589181926887 -0.22952599766768905 -0.002131108549887752 -0.004683527644275768 -0.0010572047240244371 0.0017432613030754782 0.08281013881657472 0.2674994778122373
27973000.0 0.9690449533567348 -0.23496973877042893 7.159526601265679e-05 -0.0033219307945661397 -0.0014244475513133564 -0.001766041410063021 0.09654632217769156 0.26331665644991276
28972000.0 0.9639116854792463 -0.2474746214575516 -0.0011137028304062336 0.0021152332514512776 -0.00039814473799143203 -0.0006262497302855579 0.11535176539079149 0.2531140109263567
29971000.0 0.9628244981298412 -0.2533083225419558 -0.0005699822240339396 -0.0027743445900755234 -0.0005358721824141173 -8.515922242494358e-05 0.15288332549572936 0.26328936568605815
30970000.0 0.960514308644389 -0.26009119108188083 -0.001218438278276819 0.000501971274841321 0.004903110711919755 -0.0006855495629797698 0.16164148888478774 0.25461177379121536
31969000.0 0.9560698004061919 -0.27021270522916635 0.008683181074926433 -0.00396675263067152 -0.0036162088923603506 -0.0011826830796176665 0.15817644101889125 0.2513548949903248
32968000.0 0.9550613406932869 -0.2817835992213553 0.009457216275964232 -0.008753291031711286 -0.00011983338059973283 0.0008772942436810636 0.16477501614661963 0.25009006280114615
33967000.0 0.9536752424773296 -0.289708261744132 0.013932615024117594 -0.007755416360108122 0.0012458360970101154 -0.003564453720331715 0.18309918591859412 0.2538028794910493
34966000.0 0.950663627699102 -0.2991388029176144 0.0123108137428771 -0.012451135479071307 -7.911074565957019e-05 0.0025809815858892126 0.19163595199519412 0.2538913002524814
35965000.0 0.9487143399377487 -0.3064866426069528 0.014937464409046922 -0.0169950856828807 0.0005519969283781329 0.0019594302532228865 0.2056854051728253 0.24328408938500418
36964000.0 0.9458495289879016 -0.3144077482861461 0.017001505394996536 -0.01683106930155965 0.006057110216156865 -0.0010344284349959312 0.20492576347082958 0.24467970433997502
37963000.0 0.9429681898769016 -0.32261098197407934 0.022556398547905282 -0.022633518290315728 0.00042943450741847206 -0.002619366530320309 0.22426634464036962 0.23547736815169087
38962000.0 0.940098465560461 -0.33243497987406023 0.023930796189249946 -0.0232847543501876 0.00024335514210373959 -0.0014912225388209732 0.23579480892263388 0.23749587655818064
39961000.0 0.9360439247695314 -0.34199503717897994 0.024848090662222308 -0.02461426086097205 0.002285702294509737 0.0018694495665229703 0.24149405900584034 0.21822638491915614
40960000.0 0.9333965431304136 -0.3493905156528921 0.019605614850724217 -0.02396038389352437 0.004829869724177908 0.0007507438705215076 0.2601265938853404 0.23146507814703104
41959000.0 0.9307082806229474 -0.35748796206288835 0.031152783635206238 -0.03408483776634453 0.002862105465175063 0.0013782510962139804 0.26742703780294824 0.21474182889446689
42958000.0 0.9263678083790885 -0.3667313668830693 0.029923902733693906 -0.0406870359440747 -0.001984062001209381 0.0012182234040425534 0.27817955628281854 0.20787579942430576
43957000.0 0.9262556829717716 -0.37085867614968493 0.032451421337558704 -0.04415523031411159 0.0018381356523489907 0.0008763869118988201 0.2796364491787646 0.2087718467003925
44956000.0 0.9198438985337793 -0.38175525095429697 0.03638611826040757 -0.05360434202748537 0.0001621387200068113 -4.5801409456946306e-05 0.2971344951858965 0.1929831632413109
45955000.0 0.9171837816205342 -0.3907204192171897 0.03395868803443821 -0.05836340020689081 -0.001704263600016085 -0.0035398319911628872 0.2981135215026467 0.20596605167427715
46954000.0 0.9134852525106475 -0.3990543102881595 0.035592920306826606 -0.06612067195236215 -0.0021289875695730148 0.0010107604380384047 0.3188907994948565 0.17820251771378323
47953000.0 0.9085833951209367 -0.4079859705130949 0.036079619178707036 -0.07007118049133663 -1.36377342955387e-05 0.0011251365474454086 0.33596307248515184 0.17030395553931393
48952000.0 0.9023075003017484 -0.41987587322827924 0.03365177316778058 -0.08016905627549974 0.0018724888121099818 0.003540362653602445 0.32778408959842925 0.16802651583642655
49951000.0 0.9007053357814382 -0.4225967051076553 0.03791856067182956 -0.08717342075275457 3.099489927903229e-05 0.000831800873855211 0.34746653510859166 0.15060506035200102
50950000.0 0.8983730972992086 -0.4331062729285121 0.03956153639813937 -0.0938785126769097 0.0007093167984464495 0.0013899910590855177 0.3451277071985454 0.14150737724187767
51949000.0 0.8932033033135294 -0.4413495027150242 0.03910027677475828 -0.10460003501193152 -0.0017690946988605592 -0.0006101362460626869 0.3507039070966951 0.14564096736534213
52948000.0 0.8912297463814033 -0.4478885466608177 0.04170859522987535 -0.11003856588446806 -0.002694044609961041 -0.0006138263769087012 0.37189352348030613 0.14330841342504283
53947000.0 0.8839496498554237 -0.45777015549451666 0.04238120987279469 -0.11989993869505576 -0.0006764575667134595 0.005039307694536731 0.3667572365307083 0.12243219450927968
54946000.0 0.8799323178487561 -0.46639484529132147 0.04142573730259318 -0.1298548512720897 0.000618267304241929 0.0035377089396570515 0.3789790028228613 0.12672498787685763
55945000.0 0.8768582478212796 -0.4746045904969684 0.04360302253374324 -0.1394332828628871 -0.0011884799484135524 -0.0006796401974897599 0.38468970841759687 0.10401562471414703
56944000.0 0.8719401467388639 -0.48309040912546425 0.04706258156539692 -0.14866206185200836 0.00024949618484114314 0.00035619483559803917 0.3973217231910073 0.10944282582398268
57943000.0 0.8669392786697969 -0.4932842125554925 0.048562764702321855 -0.15830129121620243 -0.001202733894243775 -0.00017080100250186917 0.3930736551565356 0.09930468052534552
58942000.0 0.8623461458066592 -0.4970137942435804 0.04872877553804277 -0.1690141655773653 -0.0014336060846792456 -0.0007100884146327435 0.41733535422717144 0.09304475258009613
59941000.0 0.858520340125081 -0.5071975446554479 0.05103638282039087 -0.1811510533268314 0.00034489111860252727 -0.0042360815892058005 0.4182353065680552 0.09305087594625269
60940000.0 0.8508016475288102 -0.5147534670094629 0.04934890635536598 -0.18272660668203008 0.0008088972985894012 0.0016036143164476207 0.41249849572727393 0.0863701403726204
61939000.0 0.8474121778331624 -0.5216646740168025 0.048662449639616946 -0.19141245272009275 0.00031915277821597084 -0.0020102506492009967 0.40999378998029945 0.06579873991954654
62938000.0 0.842309642533047 -0.531038365010336 0.054219921899399205 -0.2086913444759582 0.003836328613724504 -0.001914063798105649 0.433272429558701 0.058704540842344645
63937000.0 0.837177834457099 -0.5392306398765948 0.05379607948692342 -0.2304079547811807 0.0011396497968727067 0.0007794896641931813 0.43235974319951564 0.045025730351643804
64936000.0 0.8289581716647154 -0.546208621396891 0.055098532319133905 -0.24287973222942533 -0.0007828178056398505 -0.0032561398025381543 0.4322302371298063 0.04792236893008812
65935000.0 0.8263569064987093 -0.5546480635248655 0.052632967630494625 -0.2551485384014718 -0.0011974396279002032 0.0007155824870098646 0.43918305700490007 0.018807321227837216
66934000.0 0.820619477998233 -0.5615718040303549 0.05569490100762576 -0.2661917078606334 -0.0018275724155518982 -0.0006292779882840333 0.42127771492821164 0.013920060367124771
67933000.0 0.8180673424139963 -0.5685866529955671 0.05382443142055628 -0.28350532022608294 0.000150106521688533 -0.0003017565182105765 0.44672987938920944 0.010337766241426644
68932000.0 0.8134572301216875 -0.5663418767747551 0.05374505943239934 -0.29818325895557557 0.001318061032090235 -0.002161786760942259 0.4407229106414815 0.0011685363112579712
69931000.0 0.8053159815545776 -0.5853341471277642 0.050494366664000645 -0.3118688457137254 0.0012161329665595778 -0.0006289785257884412 0.4473523945176133 -0.021695129278195894
70930000.0 0.7995929327707303 -0.5922786475579738 0.04882473368416055 -0.32756915999805414 -0.00018729121941264262 -0.002349150509697479 0.4462627051008947 -0.029132151504512198
71929000.0 0.7942625197310217 -0.6006510746852355 0.04694656118906895 -0.3439571069281183 -3.160408619182369e-05 0.0015912117982102632 0.4453498659247991 -0.03689824582894854
72928000.0 0.7883082344781737 -0.6118914766712351 0.04317722541796412 -0.356628627014793 -0.001059694577055043 -0.001059585538717915 0.46238408782461465 -0.0459624648970122
73927000.0 0.7816176360594245 -0.6160491564436048 0.032536681719304725 -0.38175299364280074 0.00022302053001325368 0.0033993468794128096 0.45240010970476974 -0.04888171094307497
74926000.0 0.7758874047336028 -0.6260556094251968 0.026553791862145213 -0.3989608619429655 0.0010062364050613276 0.00021866957322466243 0.4594771438063485 -0.05170650874087401
75925000.0 0.7693065207621111 -0.6299852385325355 0.01503080626042041 -0.4173265415168938 -4.223755507611937e-05 0.0029072376263749393 0.46659284904076653 -0.06922438535675465
76924000.0 0.7627161490801483 -0.6389528861984654 0.0007557499234046128 -0.44405711111420487 -0.0033601955403686702 -0.0007019624145825032 0.4618707455100531 -0.07728157262237738
77923000.0 0.7564667606808773 -0.6459692540260569 -0.006653888026016383 -0.46407989017226037 -0.0012794509000887276 -0.00011288275888976468 0.4560104442803902 -0.08577815649220455
78922000.0 0.751599836791334 -0.6557087688854252 -0.02427983401513468 -0.48979318870054483 0.004080988759026115 -0.0034233421440899667 0.45734740752328257 -0.09149415868093709
79921000.0 0.7428590216487772 -0.6589107230627087 -0.03855754174165903 -0.5172740689413015 0.005562866282088531 -0.0028789958715848356 0.460621174724719 -0.10907192526136072
80920000.0 0.7383403572637827 -0.6700220032451097 -0.05681115289458445 -0.542594391456259 -0.0013219205166912107 -0.0031624272741125354 0.45675643743272126 -0.1222044893151172
81919000.0 0.7314309318227046 -0.6757318065134793 -0.07046556732727266 -0.5727398762223961 -0.002300932289970963 0.0011521041144657808 0.46392040213002633 -0.12259024839486506
82918000.0 0.7228749637697929 -0.6827253417581778 -0.0864476873456116 -0.6018747134957536 -0.0018286237701464376 -0.001320115830885846 0.4808496997879632 -0.14681018599479276
83917000.0 0.7148499031337081 -0.6927691959366613 -0.1102334537009073 -0.6271587723385282 0.0029379957562023122 -0.0010061872602240614 0.47387153249165287 -0.14886496746720632
84916000.0 0.7090401683195967 -0.7000057299432041 -0.12544045795605543 -0.6619646763670818 -0.0018892609062298759 0.0024995386575709265 0.46671441992992957 -0.1627237712888603
85915000.0 0.7027060761384644 -0.7050997341597024 -0.14673217635124192 -0.6920765606486236 -0.0017947507258980829 -0.0010179217549641543 0.4583425829056848 -0.16094137680952483
86914000.0 0.6936397649670125 -0.7155495793678505 -0.15503657606909457 -0.7290303491150227 0.0016272666764583573 -0.0011981075912405248 0.4567804641205261 -0.1677400441690558
87913000.0 0.6866616568048806 -0.7199386526267195 -0.17328340286818794 -0.762748894598623 9.602479996295883e-05 -0.002696013747084401 0.4613438185237609 -0.17381645316228028
88912000.0 0.6804082816127309 -0.7265614862465604 -0.1891310253402474 -0.7912076857600328 -0.0035193510837068505 0.004260038381295575 0.4751318698626252 -0.2006092427203827
89911000.0 0.6731469803084315 -0.7351344234074747 -0.20624589229743526 -0.8313532041920779 0.0034878420600967367 -9.52249210876746e-05 0.4596830029810961 -0.20686447945522593
90910000.0 0.6664573473424764 -0.7408514990355554 -0.22145733001398088 -0.8625962522803347 0.0025303178420825268 0.001874173191793871 0.46910312554925493 -0.20127392214820072
91909000.0 0.6572979248950153 -0.7465453144951797 -0.24064169020160606 -0.8909064329826755 -0.0028909886056918375 -0.00015757074138610656 0.4588935723258125 -0.2120812368693993
92908000.0 0.6476003031472658 -0.7543739637378595 -0.2555122557302562 -0.9260468342085276 0.0022908689229354335 0.0016202147762653715 0.4570319424516008 -0.22555586370767808
93907000.0 0.6429301793430461 -0.7608051963150085 -0.2743118646738517 -0.9568140714497015 0.003891739265008333 -0.0012045864975967486 0.4670194081398747 -0.2500811437947314
94906000.0 0.6295445542388876 -0.7675541696050907 -0.29227108777158894 -0.9895694137339797 -0.001634459736531841 0.0016238393862252096 0.4681621966948142 -0.2450475429705145
95905000.0 0.624991785970821 -0.7733066432056583 -0.3110883597131448 -1.02507754603834 0.0021539678181063102 -0.0019002973036507584 0.46450456616460606 -0.2584539082123371
96904000.0 0.6143217253779968 -0.7834356435046859 -0.333376933546838 -1.063382118564586 -0.0018183798497705525 -0.0027479414063164486 0.4544996351397614 -0.2790416184780037
97903000.0 0.6065095998486763 -0.7865214311005128 -0.3499201224008476 -1.095870334441067 0.0018168508593279726 -0.001506726166049826 0.44378881218872657 -0.29066287531282553
98902000.0 0.6016863032134052 -0.7948535709716515 -0.37248156458645865 -1.135229746634673 -0.00213562237226648 4.168492441987755e-05 0.44663079969216457 -0.2923680227236515
99901000.0 0.5910243219452461 -0.8005740254555865 -0.3980133239723351 -1.1642232606748986 -0.002359988032901387 -0.0021283169759841324 0.4562366153242559 -0.30407443552273
100900000.0 0.5834214945337478 -0.8041561844467828 -0.42842058103899877 -1.1889170545968324 -0.0004693933556667297 0.0033998473367104617 0.4582326191083161 -0.3102211707961482
101899000.0 0.5734830759831763 -0.8110126286993776 -0.45408458601294505 -1.2307322338000464 0.002792103759004987 0.002335710837036602 0.4564679855208745 -0.3141632395499427
102898000.0 0.5626821486896542 -0.8183325803797585 -0.491816402029125 -1.2672498776843997 0.00048204279269501034 0.003686565993104124 0.45046637673115225 -0.3313082865726537
103897000.0 0.5553700278794119 -0.8243701500801817 -0.5280102938661966 -1.3034901669289003 0.0006879848981795416 -0.00032770861478741413 0.4598469447960915 -0.33091034059046925
104896000.0 0.5452821771968509 -0.8343019675611836 -0.5759944479613779 -1.3335116917813907 -0.00024175056714416504 0.005272638189998862 0.43630228905612367 -0.33433082269570463
105895000.0 0.5351233139921624 -0.835764189598385 -0.6207562211191742 -1.3730320790902313 0.001853606605391016 -0.0009038020795233848 0.42840573510719915 -0.3480043978863778
106894000.0 0.5254910667251926 -0.8423607263144569 -0.6738906783036022 -1.4086495106063506 -0.0024772685637526343 0.0002826828209211873 0.4261384688414507 -0.36270531758917457
107893000.0 0.5179127118122788 -0.8494794592497522 -0.722065236712846 -1.453034976697678 0.0022434434437547117 0.0022478385222195123 0.4385400361602178 -0.37087114614997335
108892000.0 0.5082149950638096 -0.8531982094058167 -0.783075718846615 -1.4874123205341743 -0.003077388000865284 0.00018080427360649286 0.4327770728168703 -0.3604485762824724
109891000.0 0.4954830982021239 -0.8607085888150672 -0.8382440888518026 -1.5222402770932753 -0.0025405880929332174 -0.0015831180954514917 0.44813998440335073 -0.37006209800378714
110890000.0 0.49074536790372403 -0.8686468736109275 -0.9057996036876099 -1.541054622801985 0.0018039650372634135 0.001388697141759574 0.4324860522103921 -0.37424897110409
111889000.0 0.47905731650212335 -0.8672672500923717 -0.9593384344933623 -1.5941600151188793 -0.0023327878232088295 0.005108216018023182 0.41851662018650543 -0.3990120940593961
