! Created with skrf 1.9.0 (http://scikit-rf.org).
# Hz S RI R 50.0 
!freq ReS11 ImS11 ReS21 ImS21 ReS12 ImS12 ReS22 ImS22
1000000.0 0.9854709664725028 0.00632481606957233 -0.0019617694668623157 -0.05951226823728437 -0.02798677450743856 -0.00397218131788911 0.271890138517973 0.3458109468317587
1999000.0 0.9931385523203833 -0.011801564353228494 0.007666402901654648 -0.02474926666553983 0.0029800548904383496 -0.004855884763292315 0.26924207141110706 -0.045797907579564465
2998000.0 0.997322390754591 -0.022747277563411297 0.012261271726860357 -0.025039313347016826 -0.002094478801488407 -0.0007340378755109888 0.17706555726479858 -0.1351364567964779
3997000.0 0.9946652354058277 -0.030658822145657693 0.010510591116602718 -0.004091517475520791 -0.0009045251071882965 -0.002558550170294693 0.12234188880562963 -0.2039907555956175
4996000.0 0.9934180463142467 -0.04039547470936962 0.01111195507970614 0.0026561683168603795 -0.002781193638828054 -0.007580603883671958 -0.026463097281622716 -0.21815018673398695
5995000.0 0.9981051728349005 -0.04816430196289865 0.013798632298411972 -0.000269668071612031 0.006630127428339843 -0.0056087059470234036 -0.12894556486966616 -0.11942368979998365
6994000.0 0.9990991612104541 -0.05558616478771573 0.008074889577035569 0.0020705469844662597 0.0025400614703116157 0.005989140258629648 -0.1606986149810926 -0.022317853610250137
7993000.0 0.994344951671747 -0.06646590071812213 0.004838245316432198 0.0032904160289121344 4.354216644249889e-05 0.0032628457207728246 -0.1726166132519354 0.027058691513666515
8992000.0 0.9962881197346884 -0.07055977742934762 0.003436936000061577 0.006336410601616717 9.603694205756148e-05 0.0011254871912572942 -0.17014340946904125 0.06666744082188965
9991000.0 0.9930233225938946 -0.08469317367617066 0.0002941601220930048 0.0030481350124315736 -0.0022795971578678307 -0.00198507371176511 -0.15152683338619347 0.09255661035843289
10990000.0 0.9924745373112922 -0.09147723599746731 -0.0016766633704340579 0.0022412332681906863 0.00038054457057837943 -0.0028248286317446437 -0.13109131540215108 0.11971263605456922
11989000.0 0.9923575459389542 -0.09987648578127035 0.0026559471369994384 0.0015831769697555878 0.0020938679365383782 -0.0026485057630363036 -0.1296264916222395 0.13497756009688971
12988000.0 0.9907418771895787 -0.10903379969014015 0.003645454609869706 -0.0006682680855283372 -0.002076255414686006 0.0008722121795733195 -0.12490726980716872 0.16984332883666395
13987000.0 0.9883632290345228 -0.11532201793435393 0.00227129313773062 -0.007024369640451575 -3.335783562138563e-05 0.0008683371212667961 -0.09654387319602903 0.19654754577696734
14986000.0 0.9893296351236751 -0.12359893808223459 -0.004685068403084103 -0.0038585481887651687 0.003060966192962465 0.0008373247492489837 -0.09520392526613593 0.20307984903955884
15985000.0 0.9892747892292207 -0.13165638644775565 -0.0017439006045285547 -0.005671077249229192 0.0005477567374992843 -0.0015008632722180726 -0.07462808290575455 0.21804463131676008
16984000.0 0.989920655646405 -0.14214533073439972 0.00025953174725575003 -0.002045936960247646 0.0010541292429647286 0.00046196752674902193 -0.07447050388245233 0.22468031068238634
17983000.0 0.9878490134671832 -0.14632046202740295 -0.004385685093603182 -0.004268047702667679 0.00047349414069210974 0.005291662730098286 -0.06076752828667775 0.2320620577947585
18982000.0 0.9830120174794268 -0.15959528342663246 -0.0027595794426794754 -0.005305586426450975 -0.000426539106579723 0.0027934865965137854 -0.02108932340907102 0.24409305593235875
19981000.0 0.9843342473974387 -0.16430668931457956 -0.00271012522953582 -0.007672847246696197 -0.00040165883818504844 0.000120720420811216 -0.02264295652970091 0.23762433320012513
20980000.0 0.98225738528746 -0.17280250411739556 -0.0043049753947626505 -0.005323280563833562 0.0007679492336859624 -5.7510164466407795e-05 -0.006930972046587505 0.26421252298687875
21979000.0 0.9802747877704563 -0.18189259073031744 -0.007226409260156965 -0.005269315426572759 -0.0035219947460413885 -0.0024381910444747465 0.014276139126631567 0.2408772315051737
22978000.0 0.9793179982908301 -0.188658951191407 -0.0038209986311415344 -0.0013493295123188104 0.0010028123358493935 0.00035734872840585745 0.022381295429722687 0.26191851397686167
23977000.0 0.9774156755482729 -0.19936246429685092 -0.005257670620241213 -0.005483156732134544 -0.0023500058906665423 -0.0021488749556064332 0.040268984105850995 0.25233794920606517
24976000.0 0.9745286164455431 -0.20816928271417803 -0.008609174736288694 -0.003820567101380172 0.00024659480630481284 -0.0004824719295477115 0.06667561013281426 0.25751286491897246
25975000.0 0.9691138347058295 -0.22186766681461825 -0.005326271122578856 -0.0011140243191167644 0.01080791868325719 -0.019604253433020604 0.0644907466350334 0.2629297376845493
26974000.0 0.9721857483494438 -0.2251550863610053 -0.005776280095554713 -0.00111276616588681 -0.0011074978971746632 0.0015504455277931242 0.08914769346811796 0.26041005668092865
27973000.0 0.9703734394220196 -0.2330453479503076 -0.0014437038241601648 -0.0021461290942311273 0.0002892635978360443 -0.0010070940944261104 0.11403358932737495 0.2620906053621831
28972000.0 0.9685202267259735 -0.2405731010891888 -0.0012514963498375 -0.0002727240883098037 0.0009636269481097469 0.00031396692767502593 0.12074319353897074 0.25721020518247456
29971000.0 0.9661939191993448 -0.25090451866837726 -0.0017861466525260679 -0.00197783175871203 -0.002606365389290074 -0.0006819398909228004 0.14359532005241962 0.2633402730101174
30970000.0 0.9636924536429397 -0.25660355587881184 0.0035674354834029196 -0.001361410050189794 8.474497285925645e-06 0.004380571458202771 0.16845156868239733 0.25371066405147336
31969000.0 0.9616222264181893 -0.26398318618147776 0.00693979615676111 -0.004905869915102085 0.0006350646696878784 -0.0008680122728298408 0.15451100372124488 0.2541949118079539
32968000.0 0.9606379757271051 -0.27514887329576687 0.0067126729728805585 -0.012849122785686923 -0.0020525274622978304 -0.003401455168631983 0.16466310848473859 0.24734132319760727
33967000.0 0.9570826297974285 -0.2830790693375942 0.010601193203843664 -0.01184119609603603 -0.005259774323951581 0.000495664838152448 0.1829655186574196 0.23859350397573995
34966000.0 0.9533447981360568 -0.2928071717238514 0.016783585780488816 -0.011484950599762006 -0.0003696733002038828 0.0008348196562787498 0.19052163437855893 0.25666120079537286
35965000.0 0.9526964585792795 -0.3003816482868076 0.01741421095163475 -0.015402509797496132 -0.0010855104479293234 -0.0024048929549433757 0.21428575859664972 0.24129457821231368
36964000.0 0.9493916664460995 -0.3086328896791427 0.016792889792117443 -0.01492935797580719 -0.0014250107130802615 -0.003988203124128269 0.21131123192711646 0.2540635844812168
37963000.0 0.9477054800950966 -0.3159015592581376 0.024553869588533585 -0.01919578678640929 0.0004040545971405125 -0.0007333647973591439 0.2266131535192906 0.23059027574692398
38962000.0 0.9441067536904996 -0.32514434950185805 0.027021626873298503 -0.02513217757955391 -0.0031430310869502054 0.002118916066333117 0.24588620485881488 0.2396399690559338
39961000.0 0.9414650396591039 -0.33515789995117523 0.028628782649092105 -0.026355192978254643 -0.0029753448264101413 0.0017679078783846198 0.25063462706727846 0.22822709051040857
40960000.0 0.9368173175775558 -0.34235410514961384 0.024133747275915895 -0.022476117264158903 0.0025297861350494777 0.00033937617290615176 0.26914812423320034 0.22921983211264632
41959000.0 0.9346424298536862 -0.3510494507931855 0.03207410147910165 -0.03290851804196429 -0.00016652984534501917 -0.0016856720898874027 0.270243063670723 0.2143765797746143
42958000.0 0.9294042371934265 -0.3584996234571316 0.03226178203014911 -0.04032917274330269 -0.000625327238945833 -0.0006240591992049961 0.28086990548089286 0.1999802311758698
43957000.0 0.9274319824159294 -0.3678884720524133 0.030288316486462623 -0.047187557311073824 -0.00011998553048993682 -0.00022024063885452304 0.29320770686498493 0.2030234101156245
44956000.0 0.9244683735938407 -0.374689650426535 0.03446782428457157 -0.05395833545605256 0.0012544606170239584 0.0008739625317168178 0.3050231373684293 0.19045907600300993
45955000.0 0.9205169921896239 -0.3840682765813494 0.034135215482519694 -0.0589432128002194 -0.0014476152348693867 -0.0014234155452200355 0.3046093357344098 0.18276651037988778
46954000.0 0.9180892065051558 -0.3924728104158725 0.03654790181006071 -0.06438485888259879 -0.0024984045798832526 0.00013530078731251676 0.3251393794079916 0.1788307034018099
47953000.0 0.9136154470109845 -0.40087596961144845 0.038577040696907546 -0.07255311594927635 -0.00020314992024346204 -0.0018327431482414755 0.33956224339648 0.1627720180269007
48952000.0 0.9091157790556185 -0.41159173858217313 0.036513635774380576 -0.082049069220899 -0.0007044138047200061 0.0009301916209302711 0.3395702873335147 0.1636577364784026
49951000.0 0.9072634762497769 -0.41425926414284403 0.0375762580977427 -0.08719209042230738 -3.4582802873156544e-05 0.0014580422312876421 0.35314468871975996 0.15340332660351233
50950000.0 0.9034254102298684 -0.425127415817886 0.03751153671691186 -0.09499520355921016 -0.0004871010807709221 -0.001020949806308224 0.36003989802834113 0.1474312016628153
51949000.0 0.8986967475273538 -0.433633348802598 0.037673996301796554 -0.10659055363709405 0.0015740247697546318 -0.0011731579448219574 0.3579614842994054 0.1391055994853067
52948000.0 0.8961326857211698 -0.440912395456471 0.040449988015553294 -0.11134323652787177 -0.00044342695549694596 -0.000624691271032107 0.3732859161989139 0.137284002464007
53947000.0 0.8907516604608094 -0.448630675508609 0.039742911583693155 -0.1253689355815895 -0.00012438302352273163 -6.153712305514122e-05 0.37199414488558796 0.11974402182505911
54946000.0 0.8855943106959684 -0.4579313324319844 0.044925415842056435 -0.1333699321948853 -0.00044709344184140317 0.002655765818231421 0.3838174545147704 0.11617518924263545
55945000.0 0.8837289668689317 -0.46669131531749203 0.045897605778432445 -0.1424738849451632 0.0016453459831346996 7.221299228555485e-06 0.3927533582434902 0.1131547287438779
56944000.0 0.8796835384619434 -0.47382542016978635 0.049856571371931 -0.15184357366723014 0.001787727269582352 0.0032032881459668327 0.39306702702751317 0.10600462271954096
57943000.0 0.8745193117549384 -0.4844258372152221 0.047001091633703404 -0.16397817585120958 0.0015144022714338426 -0.0022340216522621303 0.41057112745996704 0.08813097216309075
58942000.0 0.8689354143955875 -0.4888866420297944 0.04804926078823854 -0.17321499953212435 0.003250206256666629 -3.1610645517973633e-06 0.41988415114234484 0.09118311797631438
59941000.0 0.8665718458413739 -0.49568528743051676 0.05326820139872159 -0.18468194961096016 0.0013789986152957202 -1.137591252147302e-05 0.4144192501863572 0.08682344354272911
60940000.0 0.8578112335015 -0.504672053286721 0.04947650500994131 -0.19265455456181474 -0.0006660788168456053 -0.0012171215193847978 0.40274958233147623 0.06787037709539741
61939000.0 0.8559890825587912 -0.5114736879304338 0.05295278672754152 -0.1964007897927794 0.00015505790574180312 -0.0005165336781846525 0.41901102304663024 0.05806064941435215
62938000.0 0.8497900506355465 -0.5221617417599984 0.05480812989279755 -0.21466556015799143 -0.002752638230336748 -0.002487636056678825 0.4397764780685076 0.050191176707658845
63937000.0 0.8447581297726393 -0.5287410451327121 0.0536135196262344 -0.23537618057681065 0.0014133765775727477 0.001505191567365678 0.43405916338497813 0.038287976056365934
64936000.0 0.8374812510689094 -0.5352330044084114 0.05481390632305399 -0.25160264654780057 0.0012392697586736195 3.5817064820967244e-05 0.43078744517802914 0.036098971037226826
65935000.0 0.8354210882217113 -0.5477868866671156 0.0520917020191256 -0.2635082040353025 0.0012861943685891647 0.0032348993789621215 0.43786258409608225 0.015470467506259761
66934000.0 0.834232811320845 -0.5493412830479059 0.05662921711858455 -0.2779067462998626 -0.0003659175345156852 0.0032340816699233128 0.4401256326739533 0.002103126663411177
67933000.0 0.828077202196128 -0.558530576077114 0.05311908806395528 -0.29087171524968486 -5.6792271265644754e-05 0.0025735780126753976 0.44313891546694373 -0.003970461109355297
68932000.0 0.8223565889805854 -0.5541767601128872 0.05455140080965797 -0.30443409774646474 -0.001895222824379381 0.0021535406269098897 0.4448636546417711 -0.01630964519470084
69931000.0 0.8121722126549914 -0.5741538295275015 0.04909130046059935 -0.3221522635088836 0.0019665732003840805 0.002425049671477085 0.44213799465060455 -0.02507100203785235
70930000.0 0.8086534323098535 -0.5814697704253363 0.0479311343908464 -0.3353285473273885 -0.0018162854327890983 0.0018104688767107038 0.4511347085363649 -0.03422003744152043
71929000.0 0.8035078147248824 -0.5908514732350628 0.04196346095730837 -0.3543080928654812 -0.0007928068574325645 0.004944190762403581 0.444152760051844 -0.050608294538930086
72928000.0 0.797875536650232 -0.5995943670016457 0.04153353673916 -0.37018909834805624 -0.00249085885385896 -0.002201381436882857 0.47638005066024525 -0.061294087135972584
73927000.0 0.7932678249483207 -0.604077249445599 0.03171867262182693 -0.39099640019876686 0.0001322087013220122 -0.0009641644292026889 0.46282063818807784 -0.05809396161762755
74926000.0 0.7859693630103751 -0.6144677071897799 0.026207980213646887 -0.408431292681393 0.0010254989375897078 -0.0002587794679865091 0.4614098222126155 -0.07397763936976211
75925000.0 0.7800554530303678 -0.6194813745622927 0.014686721894685997 -0.4276911766253755 -0.001491067035801537 0.0007453821369036272 0.47191998684126324 -0.08071487298349612
76924000.0 0.7758909410432285 -0.6285732629758072 0.0026829938806069977 -0.452516457182318 -0.0010181570165684816 0.000998082733711674 0.4661638270698749 -0.09056784151434613
77923000.0 0.7681408142245146 -0.634392519002628 -0.008776811242156842 -0.47487499830990215 0.00022028056678330806 0.00044050434333797956 0.464048907502141 -0.09397157187186671
78922000.0 0.7619319648122839 -0.6435029308886578 -0.025072560194894795 -0.5016434290172287 -0.0016016505587795639 -0.00012632097969379793 0.45061543434742046 -0.11083603060776584
79921000.0 0.7558518497570835 -0.6484289687813117 -0.04450330760161325 -0.5278153466785104 3.6489953408410376e-05 -0.0011822141129000036 0.4582929574994065 -0.1180282779949245
80920000.0 0.7511904717416796 -0.6586532289221035 -0.057663963651956036 -0.5565302650374335 0.0007695337976507924 -0.004667412871851938 0.46165933965169825 -0.13583175940978556
81919000.0 0.7450681975392726 -0.6635651102526258 -0.07660799474353999 -0.5841016662323212 -0.005417074620044776 -0.0004439843561045399 0.46570330984361835 -0.13174069320334844
82918000.0 0.736077864596093 -0.6743386872163392 -0.09512153734240064 -0.6161703074496679 0.0028575539310214657 -0.0016128123530664584 0.4728323356226815 -0.1460374574093918
83917000.0 0.7304999260489732 -0.6807462961393509 -0.11387390449060573 -0.6432585594464052 0.0021679634746821445 0.0024661053422439447 0.4734529253625188 -0.15835170926034609
84916000.0 0.7237244703568722 -0.687581419423667 -0.12821776766145535 -0.6813276709931229 0.0029235912905638544 -0.0005953337306487656 0.47461182569365823 -0.17547355832926104
85915000.0 0.7183368716258927 -0.6924195229510255 -0.1468583569741087 -0.7113997085266941 0.002179265187487108 0.002767165679392324 0.4655955981025118 -0.1905086337034737
86914000.0 0.7094466407325987 -0.7022689397169941 -0.1639056893162577 -0.7453953373947025 0.0007354366275225646 -0.0022777986989519585 0.4516363844623434 -0.18157355024832872
87913000.0 0.704129299001909 -0.7078146582687309 -0.18240370032189748 -0.7755216157960263 0.00010715651577080285 -0.002137859196608858 0.46276498575784425 -0.19126156221662055
88912000.0 0.6944830294193741 -0.7176166728125042 -0.19693323247669633 -0.8104003421909934 -0.0011771289367353455 0.003231982972452719 0.45242619483424573 -0.21192210334414183
89911000.0 0.687847321812366 -0.7247264698219291 -0.2123910437412132 -0.8428794794153658 0.0005138615450324682 -5.543022765499613e-05 0.4632652048183108 -0.22431944332725276
90910000.0 0.6833663345032873 -0.7275684002975535 -0.23466342312501337 -0.8844994720859085 0.0024086704818421464 0.0033880142860387 0.4573232782870523 -0.2237533188352372
91909000.0 0.6736332701028245 -0.7335194842644435 -0.2511394571455271 -0.9138432314104263 -0.0033131967271018306 -0.0005050073708835525 0.4654217871396151 -0.2392193156284978
92908000.0 0.6647639410431602 -0.7436893450606683 -0.27140698099924493 -0.9471816077536954 -0.00114718695897903 0.0015287048264293682 0.4499940346229667 -0.2447354124227718
93907000.0 0.6587956077503295 -0.7476964961225069 -0.29660061843843716 -0.9799401202762017 -0.005282989261190138 5.717910019116718e-05 0.4600592973728176 -0.2568099657856552
94906000.0 0.6478519308926284 -0.7561274527933058 -0.30721624502237277 -1.0131326442102009 -0.0015925093848705688 -0.0008038890170260836 0.4535293999340629 -0.2544382528482084
95905000.0 0.6397911587450095 -0.7649385755220599 -0.3375116315374228 -1.0447861481882057 0.0018349502254635002 0.0017262823330415713 0.4583964539959052 -0.27695351883119296
96904000.0 0.6315731533407688 -0.7709385857039441 -0.3488954896214083 -1.0859305989508896 -0.0010498779321290942 -0.0018101415361590752 0.4436340776313456 -0.27902456906191114
97903000.0 0.6219054938357891 -0.777513829179818 -0.37944347742809026 -1.1202510461223762 0.00390775760788781 0.0002495208280032604 0.44699813386983156 -0.29383628908779824
98902000.0 0.6196683909693663 -0.7831268763127955 -0.3912573449038418 -1.1563401513580664 0.0032002748529419475 5.418130791516602e-05 0.4481267691406822 -0.2983277946563708
99901000.0 0.6082623556967599 -0.7881719582522766 -0.4261011229725096 -1.1885708463623723 -0.001677377405234248 0.002487505194770379 0.4526817415917385 -0.32723681944651417
100900000.0 0.596666828181019 -0.7939958921659497 -0.4614633774511047 -1.2155401338793461 -0.002778062698708959 -0.002862624112687849 0.45760814028805186 -0.32245939444697636
101899000.0 0.5906066633075878 -0.8010062207958673 -0.4815072193702799 -1.2602690747258305 -0.0002012714772764649 0.0023865302098885132 0.44532398512664545 -0.33316885965366455
102898000.0 0.5824849810685715 -0.8067612526885174 -0.5198472500483111 -1.2939263358372488 0.002007860079624096 -0.0008242787508797732 0.443235874450308 -0.34694888997267426
103897000.0 0.5731453773060772 -0.8162689779102685 -0.5631478157007362 -1.3271941556560178 -0.0004943853562968992 -0.0031966625225725957 0.44331615168479427 -0.3459018028449468
104896000.0 0.5670903961758245 -0.8245383444244098 -0.6010379398617984 -1.3638573339050846 -0.0009429878913842089 0.001987996269630998 0.4369532723683897 -0.34967399025314394
105895000.0 0.5543158521882093 -0.8249687075961484 -0.6519802208239011 -1.4035411370011273 0.0014298401446689816 0.0005231777162618704 0.4303435116251753 -0.377716032836988
106894000.0 0.5481512347131557 -0.8321399291630242 -0.709975627722128 -1.4375362384543806 -0.0011503328223001997 0.0027848587536216008 0.4229093207173865 -0.3722873964766451
107893000.0 0.5409157344229304 -0.8378967309607442 -0.7586190906674667 -1.4797117826708235 -0.002487680933878602 0.001950102685146833 0.42588681353608987 -0.38052917686305715
108892000.0 0.5297963703832291 -0.8426490229334846 -0.8153640917936817 -1.518019561405407 -6.967079169169597e-05 0.0018344213325718528 0.4166864785880539 -0.3908309583015237
109891000.0 0.5171014945791059 -0.8503066771565744 -0.8745728396351344 -1.550511294854874 -0.0010053444566892056 0.002562205231320139 0.43227224440793355 -0.3925922504132345
110890000.0 0.5107941052000067 -0.8519750906880579 -0.9286417296504278 -1.5635056412280264 3.525966541855647e-05 -0.00038739475724212463 0.4193310190399845 -0.39424816112809985
111889000.0 0.49646047469999155 -0.8576768296221247 -1.0064098659250988 -1.6203399984474323 0.0012879357232676127 -0.0014167131182180573 0.4182872270399978 -0.4098613989779829
