! Created with skrf 1.9.0 (http://scikit-rf.org).
# Hz S RI R 50.0 
!freq ReS11 ImS11 ReS21 ImS21 ReS12 ImS12 ReS22 ImS22
1000000.0 0.9853394420762045 0.005766833748993642 0.014484586636527616 -0.042136952445791874 -0.00981988367079359 -0.0030008966117781198 0.31395219539948555 0.29375871055994796
1999000.0 0.9942115804939261 -0.014164539295707452 0.006288600490206316 -0.026423081690298295 -0.002710530911818729 0.004335426431099383 0.26420602194424664 -0.07360047011267164
2998000.0 1.0006120452515406 -0.019086258436078172 0.007296985540797757 -0.015338479487220644 -0.004820536363471154 -0.004877700463430725 0.18868280103252955 -0.16022973390890616
3997000.0 1.0012756470447506 -0.026365974017201164 0.008843688047581844 -0.006664766415866203 -0.0054871155462109245 -0.0011964025547157528 0.08452295204794955 -0.24234596244903694
4996000.0 0.9959778382829019 -0.03494062353933685 0.01067092268105764 0.0006367574051855539 0.0013856909160782176 -0.00019993274927912648 -0.03688281204203936 -0.21088217094757347
5995000.0 0.9988054928026366 -0.044898580395956636 0.009854275490342625 -0.0015436745422635688 0.0012720600005161453 -0.0008331351873320829 -0.11662798372104273 -0.11789660904014243
6994000.0 0.9975279368033497 -0.05890779145284829 0.0014938686306783507 0.010613056034581896 0.002110410444326844 -0.004702117310209963 -0.13191128950414313 -0.024365799958222946
7993000.0 0.9997802362875153 -0.06839711183697772 0.004308505992482195 0.004552039094158245 -0.0016976705159109382 -0.006895279227152929 -0.15428081188735654 0.04545648278758603
8992000.0 0.9989180542328097 -0.07275898320089155 -0.000174684744026196 0.004874990030501447 0.005432422555946559 -0.0010142223473396032 -0.14660610167440422 0.07155518769959487
9991000.0 0.9970362619913689 -0.08196839778773535 0.0007741762145719263 0.004714670578767098 -0.002436287314317644 -0.005971818498664785 -0.14760026678563015 0.07483204504101705
10990000.0 0.9967782597884519 -0.09409603244614187 0.0020954562653808647 0.0007859772240498304 -0.0012928759429687942 0.003834102659892214 -0.13857635480563663 0.10614805478096297
11989000.0 0.9921846958116951 -0.10038127864325092 0.0003268620481334279 0.0012164320754448317 0.0026446186388759917 0.003304480148754066 -0.12354591841680868 0.14100213688645732
12988000.0 0.993132958386704 -0.10658917728396891 0.002616713593656974 -0.003288968908483448 -0.0038666578399444897 0.0014706194582201786 -0.10063497713673542 0.17272117191105654
13987000.0 0.9921479571133242 -0.11888314603785326 0.001456264885025326 -0.008194122273016323 0.0022823748153205565 -0.0026487177180836876 -0.10193815410364257 0.19262389454632056
14986000.0 0.9922816139542282 -0.12295217538698548 -0.003348838742268679 -0.004837151747545278 0.00035097957682641564 -0.0007951765416979743 -0.08482078044748848 0.21024206433128206
15985000.0 0.9930537181313539 -0.13133186471870978 -0.003387374084698745 -0.005986574161539414 0.0031184444061948435 -0.0026191205572046678 -0.07000583107495242 0.21934984119361753
16984000.0 0.9903957304715701 -0.1425614964591948 -0.0007799256868506023 -0.0014925440077436967 -0.0004467356986633907 0.004498346694044462 -0.039788174084302574 0.20744068136466684
17983000.0 0.9904756977004817 -0.1501286450506492 -0.0018632524533059717 -0.0027974628779930716 -0.0022388567210323675 -0.000650921560060962 -0.05666230944342875 0.22658349574445427
18982000.0 0.9854698376463457 -0.16160377764546577 -0.0012622277696715334 -0.0018454219443720798 -0.0004080237794221758 -0.0023487114655406363 -0.018255202198112778 0.24243833577426657
19981000.0 0.9864676788576882 -0.1656055411939015 -0.0029797981049863986 -0.005386069663819757 0.003007971706316771 -0.002897943574139733 -0.004088394632800487 0.23950214303634573
20980000.0 0.9838904138078441 -0.17536170923844624 -0.001920848184179438 -0.009451293345094869 0.0024888672122544224 -0.0026403368901647566 -0.012379826659438969 0.2634518834395849
21979000.0 0.982650760533048 -0.1864058692982127 -0.002097360026682185 -0.010147633329568806 0.0021510024519518453 0.002429998990575336 0.013911092935425633 0.24841484215300413
22978000.0 0.9821224049611966 -0.19171560953463143 -0.007383869898391487 -0.0026649327068667427 -0.001901652199372869 0.0009188975349544317 0.0318984754339042 0.25340980060714424
23977000.0 0.9813788557592827 -0.19590574379685963 -0.009460778878044904 -0.006534415222936128 -0.0010235881913335458 0.003800473707487465 0.04005603171032298 0.2506083873779599
24976000.0 0.9760056419381445 -0.20928209028703398 -0.011390009115397441 0.0006058303430533781 -0.0018150429836470275 -0.0009206424413949726 0.06793209301224196 0.25343494341731193
25975000.0 0.9737811404360036 -0.22431392972385006 -0.0030447162750414933 -0.0041981805601233315 0.020814514549546276 -0.011910890315451918 0.0783919052039415 0.25508648831378006
26974000.0 0.9736503868797026 -0.22420916142969127 -0.003903159869544336 -0.0008332568385525797 0.0014130762038202377 0.00019058263577248082 0.08844800217844585 0.2553711979104175
27973000.0 0.9735702765061507 -0.230819492012129 -0.0024735619193249217 0.0016860805300357425 0.0056149434085427 -0.0014487059564186543 0.10452638477338527 0.2587468179035371
28972000.0 0.9692563765584767 -0.2420683781284378 0.00018264028331426108 0.0011654675394050607 -4.507507988550622e-05 0.0030256388190250017 0.11119946999559943 0.2553310466134069
29971000.0 0.9671105508219736 -0.25197445159543247 -0.00252234647019512 -0.0014533909695241044 0.00030069513862857636 0.0003093414576000785 0.15603744301534284 0.2708338997138904
30970000.0 0.9666326743294549 -0.25517144299408945 0.0006823756565334719 -0.001990079768519723 0.0034265614359020586 -0.0006812140696211603 0.17086986543252708 0.2503324806893227
31969000.0 0.9634103887033547 -0.26528594503940656 0.0008554725244207298 -0.007400584913518811 0.000630501791995587 -0.0023757629412999846 0.15680643381433337 0.2494799381401861
32968000.0 0.961675229769978 -0.2716913613217394 0.00823186852570151 -0.008011649528159907 -0.0008821383856650526 -0.0005766676669280625 0.1645273658480797 0.24065313794773618
33967000.0 0.9613432610144408 -0.2817611669767871 0.009248279869323623 -0.00828011952153249 0.00442373804003365 -0.0010172296490759782 0.19333132973695397 0.2405974073325421
34966000.0 0.9566544356847767 -0.2921752561471303 0.014125486514513839 -0.014869140321427048 -0.00041268187547716567 0.002708542634299237 0.1931392302247583 0.2514206843145325
35965000.0 0.9533069812873702 -0.2985950940550794 0.01646587805894858 -0.012315836827346967 0.002275835372168146 0.0011264412807546946 0.22170089456995698 0.24953871597786348
36964000.0 0.9532803754702079 -0.30764188507480483 0.014972881913205506 -0.013797292906697439 0.0016267533124053523 0.0013901424649215683 0.2177901475538436 0.24690124196624655
37963000.0 0.9491924521087458 -0.31649475756446016 0.02042598374670454 -0.022010578069404766 0.0003019884848087927 -0.00017605365699095715 0.2337199019347848 0.24147869858766954
38962000.0 0.9453855449792695 -0.3282185801112571 0.022308828999074073 -0.021540710229471818 0.00033618519636512037 0.0015939494697743543 0.24761597569583718 0.2315725026103025
39961000.0 0.9436739701515853 -0.3318297370826566 0.025527662280647956 -0.026743448332912933 -0.00034922953185374865 0.001616183745478902 0.2540020870738134 0.22448530242122072
40960000.0 0.9403031290748787 -0.3403972254381518 0.021636055519417337 -0.02320853726628825 -0.0010383223883325516 -0.0002658504852513641 0.27341791069114774 0.23269441591556844
41959000.0 0.9360279390493161 -0.34896957428992265 0.029347180170685435 -0.03127816158471159 3.650960067636038e-06 0.0015115166314470857 0.2742795320606985 0.22117869613180258
42958000.0 0.9323121356878693 -0.3583070323202209 0.031429592110011485 -0.041445310148294265 -0.0016574596183606914 -0.0015411456751402936 0.2941214039815229 0.19564011913955118
43957000.0 0.9322637692490661 -0.36277387177486214 0.03191171423581735 -0.04541234256423613 -0.00014706002166070092 -0.00045120603377299173 0.2955621807827192 0.21037282734222892
44956000.0 0.9274964322776412 -0.37317152078534477 0.0357161684771685 -0.050168023163271194 0.002699903818761828 -0.001732670876547332 0.30631036902233216 0.20481783763725922
45955000.0 0.9229093969865522 -0.38367427748536737 0.03316300053654574 -0.05597801149865067 0.0029872614333884204 -0.0002407519580712915 0.3097251622420663 0.18631643110344742
46954000.0 0.9189878296350084 -0.38954650806128 0.03612334678246854 -0.06380324120014218 -0.00131160224623229 0.0018427237693909556 0.3273083236627547 0.1774058213646819
47953000.0 0.9185998400440808 -0.39640354073089357 0.037266899075941044 -0.07218595715119129 0.00013758015289301674 -0.00026930409074118084 0.3355038882771227 0.1750357751887653
48952000.0 0.9128761994421873 -0.40648942346878814 0.03631998800324157 -0.07695362280662546 -0.0011765276786322282 -0.001229815128875987 0.3407457758192543 0.1635211941044172
49951000.0 0.9097382234233681 -0.41561014401418805 0.0406228298707399 -0.0839007514042212 0.0019984183178453864 -0.001435487724851737 0.35772967946000306 0.15429741827212623
50950000.0 0.9061380637036025 -0.4205232942804547 0.038509649795569034 -0.09225721038679106 -0.002398406632517102 -0.002592038247807693 0.3627778252630458 0.14544876012333355
51949000.0 0.9004762652449161 -0.4298558672747965 0.03864337534459957 -0.1011821376248614 -0.0001398810585837009 -0.00244627670430667 0.36542375701206103 0.13632549409846342
52948000.0 0.9010407081457491 -0.43807605611150097 0.038380568600018775 -0.11018506681120294 -0.002028197582681343 0.0032589577110643145 0.38098517501923945 0.13842909050325902
53947000.0 0.8919747821088514 -0.44673444281347613 0.04020180596680131 -0.11850811786391537 0.0005762777186845839 0.0016422700307369344 0.37975273110835406 0.1314076154746983
54946000.0 0.8896187752714627 -0.45374631094092954 0.04194353239390534 -0.12926308844430964 -0.002623371577114659 0.000676919691298717 0.39842896665511396 0.12076717954451906
55945000.0 0.8855529953901458 -0.46358582905060924 0.04438458759690377 -0.13927640681038828 0.0007715520631572455 -0.0017125281985493836 0.39407079210098556 0.09899049953678284
56944000.0 0.8828191499013646 -0.4717628419528523 0.04835889884676895 -0.14743611985608537 0.0011255271438162702 0.0003416407111993376 0.3974659784925271 0.10447338479927781
57943000.0 0.8782388859447471 -0.48191512718686197 0.0476790520782355 -0.160107623462254 -0.001419827332539373 -0.0017874775993768784 0.4099319939363484 0.09853700303124535
58942000.0 0.8721444225889091 -0.48546115003371615 0.04650042189415929 -0.1702650117219483 0.0023884514052640885 0.0013573940371137637 0.4237325595441711 0.0930131873555329
59941000.0 0.8704615706423604 -0.49338762318772755 0.05150132484849111 -0.17936811196324778 -0.002632293674939184 -0.00032975022210631535 0.43469214777292514 0.08641977882476569
60940000.0 0.8624430205958015 -0.5020440029993287 0.04975900576869131 -0.18433221215349568 0.0017047542663379742 -0.0021325069148779977 0.41875296229059117 0.07991977184717637
61939000.0 0.8589904131877487 -0.507402618358972 0.054021156186523436 -0.18946086623490677 0.0012664204077249565 0.0008562392234730636 0.41428946064877464 0.06832268345313589
62938000.0 0.8544025788305162 -0.5184861028154599 0.05199518561180496 -0.20789169162427815 -0.0004686001261784365 -0.0021095881676304862 0.4426815378107349 0.05524444159128512
63937000.0 0.8500029649690777 -0.5251990676112982 0.054984380161240576 -0.22830743460361552 0.0008000468335819333 -0.0006678831177717568 0.43158152188086435 0.03617198716530512
64936000.0 0.8426080971817465 -0.5342568594728164 0.05557528591389925 -0.24392073615203028 -0.0031004909772759967 9.180459590965038e-05 0.43926318564259864 0.043542095302430174
65935000.0 0.8397471379637748 -0.5433939265456036 0.054530616948683754 -0.25443233814127464 0.002109736769107003 0.000118111017754518 0.4445349017120267 0.005352111797111312
66934000.0 0.8362040568453514 -0.5466765325751385 0.05732861414428181 -0.26697619960308455 -0.00017704682823712915 0.0039182815398815 0.44210504032141096 0.008856970114749528
67933000.0 0.8316797956554315 -0.5553437264780612 0.0572840854237238 -0.28337006344470744 -0.0006760601866658651 -0.0023849318533847703 0.451966605439494 0.01924151277528956
68932000.0 0.8295333487552529 -0.5520886851293877 0.054085043854604296 -0.29029239373172616 -0.0009639826371697723 -0.002967955135650674 0.45522832086023507 -0.013287565270239606
69931000.0 0.8194695013830355 -0.5717758526101281 0.05338527932017382 -0.3107556254206784 0.001983763501883089 0.0035448985612985522 0.45497185844775645 -0.012827812051735466
70930000.0 0.812141736719195 -0.5809059509970007 0.05282418741977216 -0.3249809497247504 -0.0007214099416891648 -0.000887538349711175 0.4587013984957824 -0.029216180434365798
71929000.0 0.8112616943911957 -0.5866624635525323 0.050221345762613376 -0.3387222233516455 -0.0012199763110758148 0.0017046196474621094 0.4595188565160698 -0.03321241452836124
72928000.0 0.802798869577984 -0.5973541656976297 0.04581551236063704 -0.35226445350953633 -0.0013082525762230066 -0.0011925174772748058 0.46829357527374194 -0.045037193954510224
73927000.0 0.7964711275637626 -0.6029172113626452 0.03950403393091377 -0.3740968852915314 -0.0014806199970497837 -0.0008174679202178508 0.46448801492930053 -0.05673966703636784
74926000.0 0.7915932415581759 -0.6119987164891927 0.03560133604034995 -0.38814056690186616 0.0005272603527976037 -0.0005875272903250932 0.4691950062041514 -0.05976913871494517
75925000.0 0.7873276423613783 -0.6175790480041187 0.030767910250562063 -0.4086329352949973 -0.00274452426729855 -0.003003654196526184 0.47344958733959214 -0.07563990418403421
76924000.0 0.7819867170976916 -0.6247225502763405 0.019036792612966293 -0.42999390866035925 -0.00022560799076399072 0.0025929348338909705 0.4687623592686153 -0.07797118710088739
77923000.0 0.7750660261577031 -0.6307758712895624 0.0006065333562167111 -0.4550851344400274 -0.0038421775861599184 0.005069401848276613 0.4669849065536098 -0.08328534435371165
78922000.0 0.7696453459669281 -0.6422375265409578 -0.01194500727405436 -0.48153397317002755 0.00029645022393490255 -0.0013896792059338537 0.47203234122608523 -0.10058249830174555
79921000.0 0.7599935411756609 -0.6443024464933214 -0.026852181674240628 -0.5071852671697922 0.00011523267187278016 -0.001994812887412426 0.4753268426985419 -0.11146704800180005
80920000.0 0.7576857461351254 -0.6565324954278031 -0.04430689220267792 -0.5307719547995922 -0.004234905861022701 0.0007856857593055746 0.47482310869942 -0.1271321134136405
81919000.0 0.7503753402310321 -0.6621062485561985 -0.05813673904666929 -0.5601995858805855 -0.00016349759712248 0.0006970890481281249 0.4676306569455645 -0.1366444818558721
82918000.0 0.7427041125324046 -0.6691096544868063 -0.07716849357797226 -0.5903618155605141 -0.0010249035527923145 -0.00013511315664542514 0.4818777118020895 -0.1358658402924827
83917000.0 0.7361835643685992 -0.6762565812874167 -0.09598971274033595 -0.6199195050859649 -0.002596458494896628 -0.0009568152425876888 0.4702572719183125 -0.14767959948464887
84916000.0 0.7292949957074019 -0.6840823770805243 -0.1085283695326061 -0.6558843126982029 -0.00011268227945347829 -0.0010215634085915413 0.469637238713868 -0.1645937656207348
85915000.0 0.722912580811875 -0.6910179486771051 -0.13395546562269264 -0.681284356232996 -0.0026399720658599364 0.0018427879227624704 0.471514172226229 -0.17559889767824294
86914000.0 0.7151417785362527 -0.7012896877589212 -0.14573863255868183 -0.7190866541557599 -0.005004329833477879 0.00294916885287419 0.4680996192552502 -0.17276862497018902
87913000.0 0.7095994363567358 -0.7069035450379372 -0.1684879237177901 -0.748700258979031 0.0018395784821835818 -0.0010662617472680662 0.4648480842992363 -0.18657488391884397
88912000.0 0.7022678073056019 -0.7133830518726823 -0.18213408847943705 -0.7841082611978811 -0.0018937963809463618 0.0003527506628533272 0.4718208894786901 -0.20036823366127104
89911000.0 0.6947895103788997 -0.7234832599013253 -0.19873770684099967 -0.8175886392456667 0.003559705408491633 0.0004857083404476545 0.4755674530942739 -0.21111615974487974
90910000.0 0.687953678608096 -0.7289062698966092 -0.21439419697979437 -0.8559816703215022 -0.0003054230474920247 0.002979885877709664 0.4680500935267993 -0.20938010277854582
91909000.0 0.6793173831928456 -0.7319949255152146 -0.23266365858672258 -0.8844623426455426 0.0020319568719499833 0.0015571335516696182 0.4658038891976794 -0.21983234033534735
92908000.0 0.670280910005971 -0.7415491526713299 -0.2511305133750701 -0.9159473870545042 0.0012126835103393806 -0.00299810957438716 0.4543264286936402 -0.22579904015624747
93907000.0 0.6653738902427535 -0.7457983822034104 -0.26549533838281547 -0.9507111343604819 -0.0015865036776673588 -0.0004300603251556054 0.47251996583830647 -0.24759456419955114
94906000.0 0.6531960449451538 -0.7541430813579134 -0.28123538473078447 -0.9857655513520077 0.0025095277105435495 0.002536062710209283 0.47093580710770727 -0.24313483184811738
95905000.0 0.647541019476144 -0.7601135823979178 -0.30506733551010673 -1.0197390783537543 -0.000856551041476257 -0.005026261898095436 0.4755103655988022 -0.2668820715842364
96904000.0 0.6382441728817397 -0.7691239600444807 -0.31965004412481846 -1.055894194077703 -0.001986079766021643 -0.0020057117156758635 0.4572863212596087 -0.26120258676715646
97903000.0 0.6298384396506662 -0.7736551045591402 -0.34006676432384103 -1.088048893878999 -0.003855358617988513 -0.000619151087007611 0.4508072949309969 -0.28949201929759166
98902000.0 0.6257159974844616 -0.7801239468366711 -0.3513594259427119 -1.1262067469275827 -0.0016773312421923816 -0.0002743731425073575 0.44748662156464597 -0.2856948656183015
99901000.0 0.6147412159135025 -0.7858133342271487 -0.3863910881157486 -1.1514933078697105 0.0009566940022437026 0.0021880618331690093 0.4637777475642662 -0.3121628251365235
100900000.0 0.6059475188287873 -0.7915907328987856 -0.40856925207335143 -1.1837801895386753 0.0010662100169278924 -4.485370248511801e-05 0.46814106420124263 -0.3140393061553411
101899000.0 0.5974681601009498 -0.8006445914902478 -0.43715701107929045 -1.2224606763790897 0.003666984740186079 -0.0005644873406538301 0.45602481028010033 -0.31536810598885623
102898000.0 0.5906050305315017 -0.8046246989869772 -0.4646267862880207 -1.2617511254556764 0.0012909622949375198 -0.003172492121511045 0.4508574234066024 -0.319273050482122
103897000.0 0.5817850218058612 -0.8125582471308463 -0.5016100072175322 -1.2990955341402832 0.001293228809354289 -0.0013699213704647752 0.461293511916962 -0.3329082812251982
104896000.0 0.5745079690219522 -0.821861264285081 -0.5439095195037057 -1.3314463828022698 -0.0020280532581930678 0.0019011114967651117 0.4395764879394637 -0.33641489118617585
105895000.0 0.564025692823963 -0.8259704679608398 -0.5876527425647855 -1.3739619544427297 -0.001867107405773717 0.001148878235064509 0.4408457470135534 -0.3675506249825486
106894000.0 0.5533885213051248 -0.8312998737162945 -0.6397877603244335 -1.4004455567382992 0.0009616086383450784 -0.00048684277805583626 0.42851657776270186 -0.3713286637569773
107893000.0 0.5463512218096499 -0.8375430208127239 -0.6862268719989619 -1.4372381553210034 0.004655761365308592 0.0004064451848442603 0.4356453878117654 -0.3805377270749071
108892000.0 0.5389738258629142 -0.8397247601343507 -0.7465960112495708 -1.4778125992933713 -0.00173449610532731 -0.00213104350551658 0.4339239172667295 -0.3722104938390325
109891000.0 0.5250752570376157 -0.8506573525838014 -0.795716874804562 -1.510806411633291 -4.196875881850825e-05 0.0017102586035428193 0.44390740757362973 -0.3760310896112971
110890000.0 0.5052703528440555 -0.8579812774908575 -0.8688204411395679 -1.5101826186120826 -0.0011932142214315746 -0.0007653946946787919 0.4295114494263604 -0.38625036385959177
111889000.0 0.505865723931281 -0.8558970299431358 -0.9145619580028361 -1.582315802067975 0.0028815556224720275 0.0023636707615697756 0.41872119042600475 -0.40472132030352614
