! Created with skrf 1.9.0 (http://scikit-rf.org).
# Hz S RI R 50.0 
!freq ReS11 ImS11 ReS21 ImS21 ReS12 ImS12 ReS22 ImS22
1000000.0 0.9732242341721957 0.007660172360993777 -0.0017726634349251992 -0.02759354733735732 -0.008693066543338731 0.013601957520268352 0.39047565457250216 0.3454127538180603
1999000.0 0.9962714512914023 -0.010923351624985572 0.01210907185451016 -0.026062458387349226 -0.00958013242448082 -0.003615112206586576 0.2699053832890863 -0.034814734604350986
2998000.0 1.0010398265384521 -0.016929412920292458 0.012688797415146813 -0.011545220598038116 -0.001992339835156279 -0.0035641186122868374 0.20377556061237007 -0.13332461093929462
3997000.0 0.9983036544241352 -0.031118654560678777 0.011992641183337538 -0.00911707247477042 -0.0053744730423971685 0.0009631148971239731 0.1016815617941464 -0.23323566495736278
4996000.0 0.9962497587135746 -0.03639365186381526 0.012884063599939953 -0.005044966699355144 -0.004649870005979242 0.005200771781994918 -0.03744524592249625 -0.2198757170918239
5995000.0 0.9953830961829604 -0.048527861224592475 0.0049146632662595965 0.0008863048625132047 -0.0021791089034059784 -0.0025168438976020725 -0.12426954991458372 -0.10796775958139902
6994000.0 0.9944839203614899 -0.06042109580015749 0.0024033552740287604 0.006523831080837251 0.00389908464942599 -0.0025342139783393596 -0.14932344400608405 -0.015972641764025207
7993000.0 0.9950707893089324 -0.07113281265624354 0.005662161413564287 0.00720836976082274 0.0038946509538942747 0.00016197831066663132 -0.16506911007705724 0.03582693677567715
8992000.0 0.9942601156339709 -0.07100841046864005 0.00421465624184109 0.002194319465326309 0.0034477005901976834 0.00019547097491583315 -0.153667166255037 0.049374783797367774
9991000.0 0.9946639676363874 -0.08331946996668714 0.00556218528169078 0.00449319833752556 0.0007604256835669728 -0.0030319213456439964 -0.15094515874869677 0.10345854541955793
10990000.0 0.9928745294814859 -0.09352334931939577 0.007559912511655657 0.005746662093616803 0.001652683382578997 -0.0015526113215313243 -0.137162007289119 0.10849225702058032
11989000.0 0.9919317584738867 -0.10057753608486837 0.003210770299168568 -0.0017748425861684135 -0.0013871186043796732 0.0033203159059619295 -0.1275410160510093 0.14295591197875027
12988000.0 0.9915576110475532 -0.11125918370035413 0.0015560286528519965 -0.0029875059834590456 0.0009091759064870608 0.00042008358037946613 -0.1099765583218852 0.16893072354273805
13987000.0 0.9888403764864133 -0.11767871089627226 0.0009954458959128803 -0.006625861296513397 0.0007834177150351282 0.0034392541126468308 -0.09040497479803261 0.1839515861769533
14986000.0 0.9871500751954309 -0.1295821253169404 -0.0009691193232202937 -0.002491681298212321 -0.0023697024023470164 -0.0027716686501836367 -0.0970410834577271 0.20122930798410166
15985000.0 0.9859441483292861 -0.13778149598272907 0.0023976688368556286 -0.003854963283582786 -0.0015118062667255963 0.00040513907025269033 -0.054492523058298145 0.2211879668336206
16984000.0 0.9877111705634146 -0.14595340876200621 -0.0016941319491885123 -0.005186826296430094 -0.0018273957801010952 -0.0003224897562291083 -0.05761686144816872 0.21883188886392343
17983000.0 0.9848749190987601 -0.15254757682838072 -0.0028574081459418615 -0.003003084908690577 -0.0046752771477035675 0.00238996769648897 -0.05367010362551704 0.21696762532653635
18982000.0 0.9808751433308878 -0.16380102589913906 -0.004818603250110578 -0.003267879842806918 -0.003495963669739268 0.0016388267757036286 -0.03909582141930288 0.23731825296120815
19981000.0 0.981201421144634 -0.1677320631267335 -0.004791181070236651 -0.0044921954715602015 -0.0016595198345496092 -0.0012008194384404496 -0.02751582911707873 0.23645298438693838
20980000.0 0.9812633005200175 -0.1769709246671943 -0.00539542543508789 -0.004164579804122697 -0.0007920781260997752 0.0008998581022329401 -0.005403411908723827 0.25730696313614165
21979000.0 0.9797986033305522 -0.18573549058674635 -0.003873126675071171 -0.006431765136185566 0.002533587275886269 -0.00028004710009424123 0.025926748086889315 0.24234265456483098
22978000.0 0.9764516151948013 -0.19516617826217672 -0.007495684782493504 -0.010000293799168869 0.0015003078440249268 0.0003106781438696266 0.028180689640042635 0.2541105858650159
23977000.0 0.977572328466846 -0.20466368233008245 -0.003958189102158924 -0.003075027752273194 0.003497071033306023 -0.0019309628607800681 0.04196531547419906 0.2598028770086293
24976000.0 0.9729450480560496 -0.21533396526375323 -0.0073916317682310466 -0.0028263926825332617 0.0024084195884260307 0.002031130581372302 0.05997021534661999 0.258681246345459
25975000.0 0.9658909947540456 -0.2278641181187601 -0.007826652674447213 -0.004842401024705438 0.009505861014683975 -0.027154889629096474 0.06685689909423485 0.25530211417047316
26974000.0 0.9714767066540154 -0.23147945839246278 -0.00468583952506113 0.0007432165612631927 -0.0023788736368638196 -0.002019537111526873 0.07988595943702782 0.26646396673251255
27973000.0 0.9681998208533351 -0.24109049820465742 -0.003077505450470839 -0.001866288162294955 -0.0029322340872588743 -0.0007345918814158766 0.10358950928528302 0.2428346819999859
28972000.0 0.9658661812796425 -0.24586808911544536 0.0007792601045731266 -0.001738516082442058 -0.0016027275047486706 -0.0025486974747156834 0.11199026177087495 0.25568817669671573
29971000.0 0.9631377304780295 -0.258125425664793 -0.0013913603272300255 -0.0029766990762773375 -0.0006654459511455155 -0.0011060874622831776 0.16150893032889674 0.2687794354726857
30970000.0 0.961565273714917 -0.2608293546278042 -0.00013346896904830138 -0.0038943980729346586 -0.0012186575150405427 0.004366187736176173 0.1610176978531407 0.24639745575811997
31969000.0 0.9597974260511861 -0.2722900910986622 0.003721008318396887 -0.002490321845549521 -1.2209771230492583e-05 0.0018764897215582366 0.14595288066585257 0.2510249248467956
32968000.0 0.9581014908355083 -0.2803939258378761 0.007606220418857893 -0.006701730432198035 0.0032933984760691883 0.001976261068362464 0.17116883981908776 0.24245440252548
33967000.0 0.955419938198062 -0.28959724443891266 0.011637774168456651 -0.010368831311869392 0.00048028746043291806 -0.0012799167896046593 0.1836465097383678 0.2548919252367865
34966000.0 0.9508600079290839 -0.30153406486681167 0.015289325547182625 -0.013306430446677602 -0.002815934287377184 -0.0019354745939106383 0.1981967743403284 0.25187851830811014
35965000.0 0.9494156288606121 -0.3081644896937485 0.01461971339406351 -0.013997423870321279 0.003143313089498701 -0.0012028726590483842 0.2086648634184384 0.24922151084239189
36964000.0 0.94605434923404 -0.31575295818306626 0.016698432021840286 -0.016355864524138702 0.0037334361098766184 -0.0012336126519979203 0.21448612388116556 0.25160399735980604
37963000.0 0.9415464473054821 -0.32647692274711415 0.019641579072102056 -0.019149361553962123 -0.0018719725958932245 0.003137225133206857 0.23134001452653277 0.2359026284738337
38962000.0 0.9399308665961511 -0.3340435023598099 0.024654494150354773 -0.025385776289885687 -0.0013106317884850741 0.0025276065621081967 0.2353195591202383 0.23438052174286297
39961000.0 0.9369945101678853 -0.34437663420627834 0.02680497189171851 -0.027523417174002588 -8.940278776279817e-05 0.004215912085654092 0.2493131788100444 0.22280438704754185
40960000.0 0.9344121261438666 -0.35103003269848376 0.02144213967964885 -0.02517233468986197 0.0009953349284320089 0.0018326373784093915 0.2670651322986616 0.2294647007609196
41959000.0 0.931887995659132 -0.36037972146391045 0.028962214650904143 -0.03226782038199905 0.0017564483561802971 -0.0004859521326710405 0.26970617891807264 0.22273351787598697
42958000.0 0.9253997307242615 -0.3683905189720065 0.03232374580401369 -0.03946729378368256 -0.00111390081056836 0.0005414191889979067 0.28510361477782215 0.20125869288460357
43957000.0 0.9241673888206591 -0.376189120365548 0.031678184078390084 -0.0450308313596988 0.0014438152381327759 0.0019529838859129365 0.2882945724141436 0.2154817091461503
44956000.0 0.9217493523324259 -0.383261446101422 0.03296171575681752 -0.05375269209794769 -0.0006385547291088237 -0.002252840348635863 0.31271166604211925 0.19234090619304597
45955000.0 0.9173162200119513 -0.3940688291491542 0.0316057346725719 -0.0599190771550012 0.0005545276804484225 0.0030083904931069855 0.3100797682817517 0.19635142099902192
46954000.0 0.9133981408536582 -0.4016295857218203 0.035375546455134875 -0.06709675999070742 0.0003521714643465533 0.0007011879906850975 0.33518260329701643 0.18280734440671384
47953000.0 0.9103937497266625 -0.4103168341301963 0.036033402846367066 -0.07275866441140481 0.00019368785618553363 -0.003117909531395113 0.3379925549902837 0.16597762559797058
48952000.0 0.9032578471368229 -0.4209734022224585 0.036511808094053314 -0.07981992193101307 -2.7036313162753426e-05 0.0014986181303430221 0.341226105558767 0.16889294293781856
49951000.0 0.8995208811914214 -0.4245932995392282 0.035891349818696995 -0.08835630976569765 -0.004353706821627525 -0.00014608736428229686 0.35432097302596327 0.15052268416067585
50950000.0 0.8975155261669381 -0.43586637070813816 0.03654659636323733 -0.09338421901323911 0.000900139966615485 0.0003756717482184061 0.35169852067692725 0.14854154671895992
51949000.0 0.8943552386917267 -0.4445011647978715 0.039149304419487704 -0.1046091372123405 -0.00515968952152886 0.0010078225936767289 0.3595451059425988 0.14519222137127524
52948000.0 0.8903272098694879 -0.45327813781828574 0.042700552998172554 -0.11473910978341367 -0.0005946761126941777 0.003818018662099485 0.377828590783957 0.13943576625532353
53947000.0 0.8854249569484706 -0.4588058455935353 0.04264490491549366 -0.12248258759966049 -3.206921043017624e-05 -0.0007179528279077081 0.36624077160031093 0.13640651302488785
54946000.0 0.8801766260041038 -0.47008698742363847 0.04201417901880753 -0.131157438891645 -0.0006238014531391275 0.0019890524748134505 0.3844328521077703 0.1305632481569191
55945000.0 0.8755904361198799 -0.4765236125108583 0.043630796960594465 -0.14246171377529254 -0.0017563354023360305 0.0002580467573621759 0.3860292955245859 0.10638735547306315
56944000.0 0.870722391982232 -0.48392097179781374 0.04417902767106447 -0.15209418756918136 0.0020698085632517888 -0.0006234597411104961 0.3962574112925857 0.10472513428331595
57943000.0 0.8663791398418068 -0.49605869151439225 0.0483210727812377 -0.16471240931098766 -0.0013077015772719133 -0.0037401614277061024 0.4081797619033226 0.09602669574736433
58942000.0 0.8606950312939018 -0.5011348240743096 0.04468910430775536 -0.17863141521336767 0.003107644663410948 -0.0008772002415489049 0.42181792372566673 0.09242700611822058
59941000.0 0.8592174423437053 -0.5084706202607396 0.05166532705049175 -0.1827767562995244 0.0001941155043857852 -0.000651375582951228 0.42068120261956027 0.09026827081522319
60940000.0 0.8506540975996612 -0.5155047632349348 0.050041022285909335 -0.18943969142666783 0.001002411393381548 -0.0016103141736468272 0.41007996742171254 0.07331278616760635
61939000.0 0.8474411474735539 -0.5230262770279389 0.05061001697386581 -0.1966827192189111 -0.0018296579269046597 -0.0007901641331083962 0.4210525167722161 0.06262489162579586
62938000.0 0.8407919542637088 -0.5335646403945948 0.055880903279605515 -0.2137669449866966 0.0028699359430137163 -0.002199320603276832 0.45010918130311345 0.050216589266904116
63937000.0 0.8363920887097208 -0.5413392756015311 0.054496622344633844 -0.2332272747265773 0.002909914634870351 0.0004923814213679805 0.44806630455941393 0.04354695881494541
64936000.0 0.8301246416717842 -0.5489269925493662 0.05477277628145955 -0.2491482363702805 0.0022627664104486874 0.0003384066299205179 0.4342778637356187 0.047780336211431386
65935000.0 0.8262747004201418 -0.5600224943933991 0.05119991798468806 -0.2610674534036198 -0.0035650518943410444 -0.00024929240392826337 0.4469494719617404 0.023852310880380336
66934000.0 0.8222851797263958 -0.5636611825869587 0.054578226083218724 -0.2761985477950582 -0.004632033987470293 0.001006079953989769 0.438642989510679 0.019638507304984183
67933000.0 0.8194158708926571 -0.5727846115401742 0.056080531535321505 -0.2881892043442221 -0.001622586846634989 -0.0012915389045348661 0.45147971378425444 0.011179083369296692
68932000.0 0.8039118558908037 -0.5647115606114361 0.0494168440397516 -0.29686333660753883 -0.0009445518267072281 0.0016020379657464548 0.44737871836345794 -0.008195605756122177
69931000.0 0.8040540486188642 -0.5889075263779645 0.04922120731685461 -0.3190606902557587 -0.001710822636260614 0.0005461378362266096 0.4515045821019463 -0.023095813737491325
70930000.0 0.7976067515369973 -0.5969976751174151 0.046243235249806856 -0.3310078695588385 -0.0007477014351445396 -0.002026200230856713 0.44568577549978305 -0.024888600104403892
71929000.0 0.7948975475312666 -0.6031871026213821 0.04815570608860709 -0.35239926021397616 -0.0012946161519478765 0.001246233064926329 0.45577535324819096 -0.036931383568676965
72928000.0 0.7887419486725324 -0.6132212123583595 0.03881735141897227 -0.3672983462126451 -0.0010460803335701036 0.003428922281691707 0.4695874804994447 -0.043576698241992354
73927000.0 0.7806399546884281 -0.6201218813467632 0.030071549517915488 -0.3870282430130386 -0.0029218963927012593 -0.0030205792411422297 0.4584886194877168 -0.05250564387194627
74926000.0 0.7779352488783821 -0.6275042585748161 0.02811707329653678 -0.40368831989194687 0.0038823354159603194 -0.0019229631086633506 0.4710403438436436 -0.0472428646133143
75925000.0 0.768208925506248 -0.6338856171877824 0.01563757736191309 -0.4253591914949766 0.003556473908727101 0.00039180426336458664 0.4752822188721614 -0.06927662454937397
76924000.0 0.7634576180091267 -0.6403694287595484 0.00022920346911319055 -0.44876566235545445 -0.001706221987898404 -0.0026698385137891804 0.47915712041596364 -0.07741101609384633
77923000.0 0.7564234553879401 -0.6489738086771831 -0.013541770131079866 -0.4727369107912 0.003007369918202 -0.002318177815007662 0.47047883297422605 -0.08683984034537569
78922000.0 0.7509804411855434 -0.6576086041634237 -0.0289951987010947 -0.4978705667954715 0.0018764508396868199 -0.0008376770787353738 0.4650489367164244 -0.10651555865188465
79921000.0 0.741753306451249 -0.6633659476251698 -0.04567546410180329 -0.5263965293459816 -0.0002967374762999784 -0.00014791214875093856 0.4665182020171737 -0.11458766728868983
80920000.0 0.735650909038161 -0.6740204786097582 -0.06128056915897881 -0.5506131958095007 -0.0012119151634723743 -0.0021781517166271336 0.47694688955140596 -0.12838830150850575
81919000.0 0.7305299927488077 -0.6787567021786429 -0.07598760599388962 -0.5788508072451116 -0.0021163518543295882 -0.0019476516628945 0.46513842513009995 -0.1287358348576277
82918000.0 0.722555146265317 -0.6857084210001408 -0.09592094606363477 -0.610382869715605 0.0037761413436862125 0.0029094018616725482 0.48277902766012 -0.13847219199373234
83917000.0 0.7139768785199495 -0.6954237520245549 -0.11687675022265306 -0.64269661199931 -0.0008257126298753773 -0.0011012969965946008 0.46838397025169576 -0.1475619069687655
84916000.0 0.7093840579247304 -0.7019667921399436 -0.12767263671082638 -0.6768053818087629 1.5594811725981399e-06 0.0002530067859114303 0.47291547018623364 -0.16782601743333356
85915000.0 0.7022891751250724 -0.7075020710521952 -0.1479445398186704 -0.7058300710304442 -0.00460796672684151 0.0001897117469149829 0.47223522310453836 -0.1604443815326884
86914000.0 0.6947904139873412 -0.7185017925769559 -0.1710063439255603 -0.7423012705830517 0.0018549708353786435 0.003209709444902242 0.4678469323157964 -0.17118594777813567
87913000.0 0.6876028911589912 -0.7237781738065858 -0.18353404438957116 -0.7722267186843557 0.00025427020145189354 -0.0038631806465759034 0.45474018396760674 -0.1780958496908537
88912000.0 0.6786556100277328 -0.7298967546488243 -0.19960399777589755 -0.8050574843275973 0.00031184261332339766 -0.0030161945734336368 0.4622395212061929 -0.2054026536271368
89911000.0 0.6696856771572569 -0.7409446600201842 -0.21954243634460427 -0.8404907022304741 -0.0005476048131971568 0.00018226644833404477 0.4690181793586529 -0.20499207271525038
90910000.0 0.6654408188982031 -0.7441359983767005 -0.22639764233312487 -0.8744888020569517 -0.0032645415391259628 0.00013206692774911843 0.4569045298324653 -0.2010553825904042
91909000.0 0.6542408042240843 -0.7512714209479975 -0.2506447396541826 -0.9050873594210047 -0.002106528417105628 -0.0012204490796634889 0.46795488393362616 -0.2195325860724699
92908000.0 0.6462923063405258 -0.7584317697156705 -0.2704454423134853 -0.939001282497454 0.0030277509476729337 -0.00116274588413189 0.46256808010640654 -0.23347455993035526
93907000.0 0.6408523201909765 -0.7643469752951483 -0.2860689826394269 -0.9729637552281397 0.002065782512068405 0.0014230389653246847 0.4595332378798924 -0.24457201683680446
94906000.0 0.6282112273813601 -0.7721340377790665 -0.3079897970726178 -1.0030985619669524 -0.00313895458689872 0.006146240583567119 0.46805063245936457 -0.24841095528858795
95905000.0 0.6201810141168831 -0.777682638197584 -0.33097644848218627 -1.0399602246317494 -0.00015518732846470635 -0.0045365158366425865 0.4617176059005782 -0.26322895883895137
96904000.0 0.6120980352081624 -0.7875540414976658 -0.3474785617789644 -1.0752159559051484 -0.0015323362732184605 0.00036094348169617846 0.4548255969734143 -0.2615133499131111
97903000.0 0.6022811470122996 -0.7902498150145616 -0.3632089625841658 -1.108536020785763 0.005851377420630713 0.0021019555814367377 0.45066570857482613 -0.27416363566080365
98902000.0 0.5993559277427519 -0.798165708674975 -0.38620148386601466 -1.1494709507959253 0.0031461785569497037 0.0009466074628899139 0.45158682030530145 -0.2866571042614282
99901000.0 0.5873930824156413 -0.8045083532861866 -0.4155033648882824 -1.1801128890455839 0.002935967471283508 -0.0004665496352523714 0.4675329957499145 -0.3111420386722283
100900000.0 0.5788401136938455 -0.8083788785630759 -0.45220554998977414 -1.2083577809467054 0.0024043953297015383 -0.0002815134179580638 0.4631096492459563 -0.3095118196584539
101899000.0 0.5725169181782654 -0.8145639586046399 -0.47397598417381215 -1.2523139506734986 0.003716752873292473 0.004353629074217526 0.45398890262100744 -0.3119015205188544
102898000.0 0.5617930910443685 -0.819650786169216 -0.5090732781482626 -1.2893712021386168 0.0004224354958879155 -0.0002016435255988422 0.46274856540517184 -0.3277739445722546
103897000.0 0.5510703848296389 -0.8285582082990389 -0.551427259068587 -1.3175178287693512 -0.0006026279284698814 0.002566888576051578 0.4654810734598918 -0.3362377361267275
104896000.0 0.5447435858762983 -0.8392469068317334 -0.596081426238514 -1.3483346782447818 -0.0008108834028640458 0.0014897003458214759 0.44756695849104766 -0.3273771296105958
105895000.0 0.5298839703006386 -0.8413054102835852 -0.6465114137058351 -1.3924389882677384 0.0021814131085152086 0.00395235568567633 0.4429810829854587 -0.35677533143006146
106894000.0 0.5211386814920007 -0.8476099074679218 -0.7037167121777108 -1.4257882861851519 0.0009441923526788811 0.00038090405964588984 0.4392643889672647 -0.3623846715994145
107893000.0 0.5141617495105636 -0.8550560255598673 -0.7587022914946089 -1.469967532704321 0.0020224786517896304 0.0010077214741083958 0.44688051069112195 -0.3763665996889761
108892000.0 0.504704811004141 -0.8559751560864802 -0.8170042740340623 -1.4978819495577997 -0.0012309129987392918 0.005500861310530893 0.42953898029275456 -0.37223833852796606
109891000.0 0.4922093315591812 -0.8655653055010143 -0.8724918732376662 -1.534776279831764 -0.0012750608511394675 0.0007765048996674117 0.44488876955604034 -0.36969690898885327
110890000.0 0.48597622473409585 -0.8680396121947405 -0.9323157039393715 -1.5482998783142865 -0.0017356151534265339 0.0012041789267364666 0.43492476879437963 -0.3744807434557288
111889000.0 0.4732643475827457 -0.8711530344532343 -0.9966090732047992 -1.6060179192356079 0.0021812596738640185 -0.0002605509717399574 0.43006616401698405 -0.394942395384082
