! Created with skrf 1.9.0 (http://scikit-rf.org).
# Hz S RI R 50.0 
!freq ReS11 ImS11 ReS21 ImS21 ReS12 ImS12 ReS22 ImS22
1000000.0 0.9709687513666609 0.00774406418600398 0.010544367198100422 -0.03520805852417347 -0.003909490950334093 0.01526722266321402 0.37267801779529325 0.31092827738430473
1999000.0 0.999230945987013 -0.014961587228273945 0.011965886236726054 -0.027446453702796105 -0.0025542005422661967 -0.000931211584665947 0.26496542250356464 -0.07142231185384205
2998000.0 0.9981457294000649 -0.02131356872446619 0.013852474981999909 -0.013995272727712976 -0.005611411190130362 -0.0006262879064613631 0.20481398637654147 -0.14979671146106607
3997000.0 0.9991046089095728 -0.030173893352691744 0.009400495179714523 -0.010304008160214354 -0.0030248639149445594 -0.0009871665856111985 0.08063351743598728 -0.2323877632318456
4996000.0 0.9976222017516418 -0.03784014678164297 0.01035992423294813 0.002375891061407087 -0.006104347678943259 -0.006020470874705737 -0.029391158894478485 -0.2094272087911442
5995000.0 1.0011558196945474 -0.04554357768367233 0.012867344472282476 0.00036126495230730645 0.0009126300976735773 -0.006171914148156981 -0.12602405919570872 -0.10095998013488564
6994000.0 0.9989989289930664 -0.05521205572260562 0.007092369047014154 0.004499348834470998 0.009344081732473702 0.0004579507414288696 -0.1369830386853545 -0.027017476132434635
7993000.0 0.9989972867365331 -0.06503156839785577 0.006274304071224739 0.006965236914191265 0.0009078983552267199 -0.005260205105739948 -0.15610006624540113 0.04533765593567206
8992000.0 0.9957751794043334 -0.07213505547067721 0.0021885998410579293 0.006071597708191906 -0.0014604706125462064 0.0008647286188451894 -0.14760003966621088 0.05849763630936696
9991000.0 0.9940988497827022 -0.08298925191853752 0.004159349596335211 0.0029856184254465792 0.0015113661442828226 0.0014610604750371129 -0.14253259423966502 0.1014009186561493
10990000.0 0.9946520808394266 -0.09120482420792707 -0.0028639030565221126 -0.002946363395754723 -0.0032234221927028234 2.0041785678205875e-05 -0.11090179945498667 0.10577253494951286
11989000.0 0.9918331434275597 -0.10042687383168847 0.00175524616725544 -0.000926538329026969 -0.00039032074248746294 0.0034474854272063334 -0.12408399693862497 0.1391917135922082
12988000.0 0.9915995070471791 -0.108905296665458 0.0019454253375447178 -0.004711334254098198 -0.0026571701877993016 -1.3555184354127675e-05 -0.10687058780276935 0.17192515742523132
13987000.0 0.9882182913886787 -0.11994107434003001 0.0001855494610920175 -0.002657084097549316 0.0016762088484017122 0.0038790434706432214 -0.1074241144476334 0.18173771728549296
14986000.0 0.9897380007583528 -0.12526885769359744 -0.00448327543800844 -0.0019199955307891282 -0.0017555788125913551 -0.00016849397164387745 -0.08280966287698499 0.20884087802046825
15985000.0 0.9906080489809613 -0.13394143161894784 0.0025282401630641062 -0.005313894942174674 0.002383974398621063 0.003978605785299586 -0.060702775804148845 0.2201258746196849
16984000.0 0.9875173815598025 -0.14248916014655824 -0.002290745499634225 -0.007325582404505838 0.002053047672618986 -0.0001499864925743851 -0.05813719659548069 0.2264108626375034
17983000.0 0.9865480667374401 -0.14933475839743202 -0.003393834795356212 -0.008313062516283002 0.0006367738020518677 -0.004669807477104426 -0.05410430997980237 0.2218950142478408
18982000.0 0.9843771657848129 -0.16206551805198718 -0.004861916974060178 -0.006214069131981518 0.0035963867397093927 0.0014437130276278758 -0.007145273938474418 0.2335646214006748
19981000.0 0.9840641185465226 -0.16512340860779037 -0.0020430291082172633 -0.001389321124858099 0.0012886870291057358 -0.000496258736845642 -0.01657379383545704 0.24665883943736897
20980000.0 0.9834618254631923 -0.17550039604686232 -0.007315619346024256 -0.004813685684314635 0.004754319254171385 4.021755727218322e-05 -0.00045694156578090817 0.25264809226646767
21979000.0 0.9816535493355227 -0.18314798013074088 -0.0098960986747598 -0.007347166436356082 0.0038505969967877703 0.0011330028920214644 0.017027569608357003 0.2520980882155248
22978000.0 0.9770827082303822 -0.19275051719303313 -0.005648036185926032 -0.002943305152285459 -0.00028098782645531267 0.0008758909401026586 0.031308050247945945 0.2566371653370417
23977000.0 0.9791313524881335 -0.1997694847361791 -0.005596763685475614 -0.005181922181144891 0.001316845497410331 0.0018702592830273927 0.040120671111102416 0.25982748085334384
24976000.0 0.9746129182964013 -0.21071906588102615 -0.007316234167228123 -0.0018914695427851367 -0.0019106962709975754 0.0006245074605158528 0.058291199618765895 0.26032731505743917
25975000.0 0.9773477655453792 -0.21680512200696378 -0.004228671864171504 -0.001900774960263392 -0.008642781055859399 0.023152216660624052 0.0725829610050729 0.2549376933729025
26974000.0 0.9710160930383194 -0.2264883314446858 -0.0018894447779835275 -0.0030824419610839034 0.0022546526485017343 0.0010427448743240684 0.08353416953095165 0.26732957825737175
27973000.0 0.970534018958341 -0.23554222904729935 -0.0034947710454583587 -0.0016359801390071608 -0.0006927750234458623 0.001987547593645391 0.11604479594036862 0.2534578133480169
28972000.0 0.9674653828028604 -0.244682403255965 5.93149866594756e-06 0.0002493240553773861 -0.004113387356912404 -0.002109771565879394 0.1121730822514013 0.26341568941166044
29971000.0 0.9667473063820615 -0.2517346527695952 -0.0010764117674436542 0.0005337488548604377 -0.0008701476861894719 -5.010632073170196e-05 0.14927769726007736 0.271506594536355
30970000.0 0.9636335695044163 -0.25736637607927215 0.0022271120781669285 -0.0023417125103400256 -0.0019116638920825227 -0.0005404387014351402 0.16543403290380504 0.24920191679476053
31969000.0 0.9622657797447696 -0.2664535675520049 0.004951865136654112 -0.004509274075113371 -0.00047670329739744595 -0.003231999345026296 0.15406819785984383 0.2555436786406974
32968000.0 0.9597147785778893 -0.2749057189750565 0.007052874032163746 -0.00807260629240831 0.001100127184449119 -0.000703265007342221 0.16386674889223393 0.24914128469703598
33967000.0 0.9574318962667768 -0.28405036482990786 0.009872980150796776 -0.00787988183524175 -0.000802179620888645 0.001622383656968952 0.19407186364643678 0.24493291451497254
34966000.0 0.9533138040125501 -0.2938815726566079 0.01267474038322593 -0.010497944545377528 -0.0011591600665739347 -0.0002929385708921094 0.1958103733777709 0.25467126491745773
35965000.0 0.9515221648023271 -0.3020864456722499 0.01572543231502689 -0.014627248108427913 0.002216060604411061 -0.0006411825484885602 0.21475573263597755 0.26033697355539903
36964000.0 0.9479772162270408 -0.3098470542387492 0.016899805816991933 -0.0157982585533332 0.00018311656329412563 -0.0001864911777654602 0.21860653301216623 0.25334720254504617
37963000.0 0.946653090468493 -0.3175754866979681 0.021469222999983596 -0.019472539245742337 -0.0007783245944277583 0.0006647094274409425 0.231491034761797 0.23933668618687037
38962000.0 0.9438040732654618 -0.32868235184220473 0.023373307802687354 -0.023714654680615413 -0.0024958968090027876 -0.0015670787316563585 0.24430919657945213 0.2355170300693829
39961000.0 0.9420039470641584 -0.33655535650104623 0.026515722263955203 -0.02970646863817358 -0.0015757191808943017 0.0026514800696708606 0.2510576715995505 0.22995801203483274
40960000.0 0.9378192580975279 -0.34416823391969553 0.023297309237928124 -0.025484758714815193 0.0001442928932273465 -0.0006299147991507118 0.26697320379737793 0.22472160122730456
41959000.0 0.9361042504394828 -0.35160553134035627 0.02746367887882087 -0.031251691156975944 0.0003197929474647497 -0.002389238079285488 0.2662724394324895 0.2164300773175281
42958000.0 0.9295543133531646 -0.36054750190720575 0.03414235771099328 -0.03883047841869294 -0.0017685223490813205 -0.0002755737076643713 0.28706775997253475 0.20595111425129792
43957000.0 0.9285082829154494 -0.3661679435769928 0.030744199861634236 -0.046620448319572065 -0.002596277923948018 0.0009674325889281223 0.29417914987091603 0.20985322413111776
44956000.0 0.9250352258862924 -0.3759538606458191 0.03435233463402712 -0.049774213249350524 -0.00324704991952609 0.0007179909123307994 0.3048333769761173 0.2026914746636778
45955000.0 0.9214968065942887 -0.3859593537168496 0.037409870683836874 -0.058223047400824034 0.0007892300640368347 0.0005389470291015749 0.3101457604280141 0.19541597956290285
46954000.0 0.9186948649563376 -0.39380163916349664 0.03901910409129313 -0.06617554530551926 -0.00198562570765414 0.0028123699231258673 0.32542855205281024 0.19153250107700096
47953000.0 0.9145380183388785 -0.4032202260276597 0.039864869081419944 -0.0694772822960948 0.003463170545447141 0.003229134721213619 0.3377179953603993 0.1733111921018182
48952000.0 0.910254930969544 -0.41032511396651156 0.03885160534161225 -0.07974194769122213 0.00047216894283057037 -0.0014374215553327636 0.3364305647439655 0.1577308236175049
49951000.0 0.9070929789873408 -0.41840928350225687 0.04200787532245921 -0.08774585737111879 0.001392510319404311 -0.0018238653373954185 0.3596660875116225 0.1458031337903336
50950000.0 0.9023309059741177 -0.42601477450192726 0.044521839803561246 -0.09532228184236899 -0.002474306206005661 -0.0036544965129853215 0.3475427087929908 0.1507337682731722
51949000.0 0.8977924431953526 -0.43276553103651827 0.04294162677527593 -0.1054787922396389 0.0009547868380363105 -0.0006321422267635856 0.3555090697258196 0.14923863105336488
52948000.0 0.8966805709777977 -0.4406093661747678 0.0465210886611028 -0.10994602759875327 0.002880548823276637 -0.0012314717438981632 0.37725777457428783 0.1465587359397448
53947000.0 0.8917425076478748 -0.4477562008938347 0.04946684633075601 -0.12048760235849733 0.0017473710992067305 0.0021149651848333256 0.3705276675870149 0.12644929559521717
54946000.0 0.8855523527014119 -0.45991947742838 0.048476244509726846 -0.13487576802021622 0.00034720323106692853 -0.001530155031550949 0.38536635278399795 0.1107524434988647
55945000.0 0.8836000535218541 -0.4679128497414626 0.05314135807934777 -0.14214937053410592 0.00037871365772596113 -0.0015060475556328968 0.3809381651860015 0.09448355973778008
56944000.0 0.8787151782995645 -0.4752841259646325 0.05517870055323547 -0.155982925454347 -0.0004381916998771995 -0.002628207818620653 0.4011213324154747 0.10085533257356415
57943000.0 0.8749314461377234 -0.4860184310901715 0.0536333391869727 -0.16652163056520658 0.0005975313915891388 -0.007860581268110237 0.40570722324996616 0.09822219506202304
58942000.0 0.8707496664335518 -0.48912482377288746 0.05487431140127144 -0.17573143072918485 0.00035152106417786624 -0.001086279632295138 0.43039141284565574 0.08632306469078993
59941000.0 0.86521988738803 -0.49854006383864946 0.05866281949972479 -0.18737896183828298 -0.00018287005585704592 -0.0009925370871659359 0.42103413396389855 0.0841438904811868
60940000.0 0.8584978971007733 -0.50561066454887 0.05760852507896656 -0.1927557525705422 -0.00044914784019747247 -0.00016403560360466195 0.40862298608647546 0.08158973912651102
61939000.0 0.8562148731585116 -0.5114637579214719 0.059388091917084856 -0.19933821933703 0.0025556835358971144 0.00037206848978840344 0.42440337786892857 0.06924748402832746
62938000.0 0.8495030558821475 -0.5234189410327956 0.061819297898617245 -0.22097301411614045 -7.282762599038915e-05 -0.0011433632538159532 0.4464392406358963 0.05332952662769704
63937000.0 0.8443908497817684 -0.5312057129416279 0.06351535430405802 -0.23864054342016147 0.0013279381547460622 4.798866623811776e-05 0.4445082096744751 0.04104230982879631
64936000.0 0.8404385551837649 -0.5346324676716014 0.06335327111354926 -0.2554609987783324 0.0009410517441295815 0.003487749120302473 0.4346752837244702 0.036560398005237096
65935000.0 0.8357212583171347 -0.5470338349332928 0.060641248409468725 -0.2723766948319021 0.0021432404897901458 0.00014969288926043654 0.43814146545501986 0.018728236181371156
66934000.0 0.8311597487628154 -0.5513918672364814 0.06457069036454409 -0.28211929730533536 -0.00045209147388115356 0.0028875638318785206 0.4400233225850072 0.011813035938770028
67933000.0 0.8277040087693328 -0.5604213448800609 0.06573322479391651 -0.2993143019295978 0.0009437824145445606 -0.00011975578101051843 0.45240745153703743 0.010564847732130367
68932000.0 0.8171430519082324 -0.5503703670439567 0.05947312049930492 -0.3111426180346163 -0.0010232243268451624 0.0051206331760390985 0.4576675048530118 -0.013818067305468407
69931000.0 0.8151678066145592 -0.5756690515671382 0.06102123650239869 -0.32946875461040054 -0.0010352672554391864 0.00129122985941753 0.45076722988353457 -0.017783299139492774
70930000.0 0.8098518034458867 -0.5811086961665992 0.057831968788816586 -0.34715719052362914 -0.0006628498208963676 0.0007152251694995453 0.4432850921025257 -0.03276797789329185
71929000.0 0.8040328115907515 -0.5921898178434606 0.052644265610242165 -0.36850327614065825 0.0034784978782851075 0.001610731139596551 0.45837617050609164 -0.03698631359598351
72928000.0 0.7994735453232363 -0.5985951566729346 0.0493190366241024 -0.38383021042704607 -0.000408822312975376 0.0007168064846654666 0.45762634610392 -0.05167685960335875
73927000.0 0.7922649293387439 -0.6080643236104838 0.040191114769410785 -0.4056750828043941 -0.0037940636015072475 0.00557645522052476 0.46128129877676244 -0.05248833348005266
74926000.0 0.7875530540688087 -0.6149606297307918 0.03296104847065769 -0.4244544120410046 0.0004199092156570696 -0.00047053224080318307 0.45944689222036905 -0.05000758700841881
75925000.0 0.78064790295667 -0.6201494554592091 0.022133878223312958 -0.4457824748189986 -0.0012161532069172585 0.0005734244217025186 0.4679923231079954 -0.07827749988969772
76924000.0 0.7745877284411016 -0.6282770216659641 0.015663501100558634 -0.471616438875314 -0.000981364651017557 0.002532607509671048 0.46852105336616184 -0.08675228478064481
77923000.0 0.7690745505646523 -0.6352614571172863 0.004160839413600626 -0.4986449502271774 0.0001399769570378337 3.0658510057053577e-05 0.4655142171753871 -0.0941155182559527
78922000.0 0.7628832374905606 -0.6448881140143001 -0.010120084349052746 -0.5258965012151897 -0.005848072400958451 0.004460477352845551 0.4547290111577548 -0.09706344480024666
79921000.0 0.7551488215043662 -0.6479677581180773 -0.03181724941429757 -0.5512564126958238 -0.0017379755719984181 0.0013230935652238547 0.45240048924557025 -0.11252239360842196
80920000.0 0.7502318167887874 -0.6605919152508569 -0.041188723472344056 -0.5776353853762066 -0.005240475329746068 0.0019720706125346626 0.4675097536406888 -0.12119482389864036
81919000.0 0.7447836678422229 -0.6653302654445273 -0.05732724366366618 -0.6084450391045413 -0.0011572540225015776 0.00590936471445687 0.47774745404727736 -0.13418605951567625
82918000.0 0.7365124211223171 -0.6739630589086785 -0.07085374957119081 -0.640549103763094 0.0007489443426781742 0.0012758138425986595 0.4771904767387538 -0.14967040882833477
83917000.0 0.7293905715725714 -0.6808929612193371 -0.09634554742084807 -0.6703426836418648 -0.0009442275364450348 0.0032263778892559908 0.47029132567959325 -0.14928009014108604
84916000.0 0.7234303556726946 -0.6904802822270006 -0.11304008172476522 -0.7088693664312619 0.001961212140494355 -0.0017106362762661007 0.4721752585594566 -0.1700351065642338
85915000.0 0.7174092966634524 -0.6941129356854333 -0.13173781199453563 -0.7358343978130489 -0.0032048008222580263 0.0021835221733827845 0.4701106816329106 -0.17476842844072313
86914000.0 0.7094067849737878 -0.7061766101890898 -0.14283700875052788 -0.7761790533370516 -0.0013836201485066446 0.00043827878005608554 0.46358489289530774 -0.17502364068961107
87913000.0 0.7023497544314488 -0.7091295856894448 -0.16098651352815804 -0.8045902259424037 0.002273721876933132 0.0013613282911023618 0.4637404236528355 -0.19028212721979076
88912000.0 0.6960458772118584 -0.7158121527163215 -0.1813618140113774 -0.8445349822502929 -0.00022008729779521367 0.00026637207567836556 0.47077996251431814 -0.2123330193281705
89911000.0 0.6885407945987342 -0.726064298471109 -0.19720236473386177 -0.8850329517161342 -0.0035136853105082124 0.0028427889422922 0.4669110086979812 -0.2044988781720666
90910000.0 0.6817711558970386 -0.7303662941865647 -0.21401160903651403 -0.9224961921003263 -0.0007435712837676382 0.006786377155560774 0.47364175694648214 -0.20999087376752726
91909000.0 0.673160172471658 -0.7345205834760028 -0.23832376210856718 -0.9531642097899077 0.0008214289820535662 0.0001745316193887003 0.4718542341395381 -0.22810182496768847
92908000.0 0.6659800694846817 -0.7441736472532324 -0.2580088188532788 -0.9869513960874344 -0.00234434742827545 -0.0001062802312158003 0.4651366437970341 -0.2327608808911648
93907000.0 0.6593587968029249 -0.7487267597252012 -0.2758275281591497 -1.0261955464362595 -0.0037787216039136553 -0.001548933091232869 0.4679192020520447 -0.2457137990406273
94906000.0 0.6452850271132512 -0.7581876338502566 -0.2968055116742081 -1.0583764708405095 -0.0020427439565364404 -0.002803031037722174 0.46473611771894846 -0.2454740760600182
95905000.0 0.6413599775974791 -0.7639170490132821 -0.3225167143327642 -1.100109208244799 -0.004444458221878552 0.003459428015507208 0.46720723864375674 -0.2561270565322526
96904000.0 0.632229780796277 -0.7729793650611195 -0.3409107418548864 -1.1390975169742714 -0.0012549809617520876 0.0009031751979210927 0.4552380495524506 -0.26910188793964357
97903000.0 0.6223182649099191 -0.7773618915598499 -0.3725376226667582 -1.1734636793875646 0.00032676726229301657 -5.96573128607625e-05 0.4511600964295813 -0.28107893400724804
98902000.0 0.6175819878314751 -0.7855020066136836 -0.39724502869033906 -1.2167249393337887 -0.002212814495653269 -0.0043984226369832595 0.4515224191727895 -0.2944755218390006
99901000.0 0.605843910230019 -0.7903154333569609 -0.425636134906285 -1.2465557772590998 -0.0015904999428001147 -0.0021509757951573586 0.45705092372775785 -0.31554542562617394
100900000.0 0.6003943147504804 -0.7950284956108813 -0.46050926473918685 -1.2821382756997677 0.0006302918642801248 0.0004923869146131778 0.45766996850018904 -0.31667110607542953
101899000.0 0.5920715621254085 -0.8019788011028586 -0.48439707437532475 -1.3295394438532564 0.003828265255987499 -0.000537696601156236 0.445200063317816 -0.31921377812809487
102898000.0 0.5837173780454703 -0.8066317934619993 -0.5209749437560368 -1.3717941170814936 -0.0013051920216229672 -0.0016035517703809105 0.4563737854773154 -0.3331273653155882
103897000.0 0.5750432101771158 -0.8142271093068552 -0.5643397080902911 -1.405395404965295 -0.001583122201011445 0.0007425903398736599 0.45678708403713314 -0.3238204493185275
104896000.0 0.5670072629797643 -0.8255036246281395 -0.615335322717466 -1.4449694327096307 -0.0004679824205448756 0.0004363352747108114 0.4427616406238306 -0.3349624985473656
105895000.0 0.5549275732078621 -0.8269014316825392 -0.6664492830804355 -1.4914131465514757 -3.435447129797629e-05 -0.0007190182477993495 0.44286800435988183 -0.35369769459850275
106894000.0 0.5474827589921225 -0.8330113729135836 -0.7216770702194669 -1.5305194087836478 -0.0012945511804028369 0.0004194738751026359 0.42748744899063706 -0.3665016671783056
107893000.0 0.5372462714109121 -0.8397917573994594 -0.7780550283701811 -1.5640560776445571 -0.0017364019683143714 -0.002063397099841419 0.4235083714769786 -0.38088852400921375
108892000.0 0.5301692984209634 -0.8426956563836221 -0.8374828271490978 -1.6088084015911759 0.002122868989507047 9.548753229070156e-05 0.4335044967433839 -0.3693666882154716
109891000.0 0.517899702185497 -0.8521209678215727 -0.896376880374939 -1.644048290783848 0.0029511474357418388 6.877619339838239e-05 0.44178138869450306 -0.37575286717223655
110890000.0 0.49721366323652894 -0.8577617471558822 -0.97360834317927 -1.6395258317549366 -0.0021640135338103755 0.0007559830418432226 0.42013564770659984 -0.3918373550992246
111889000.0 0.497619869953725 -0.8581716635797513 -1.0254444609942006 -1.7195733189126639 -0.0024002046254024776 -0.0005450284356999667 0.4249032650114207 -0.4073042047028662
