! Created with skrf 1.9.0 (http://scikit-rf.org).
# Hz S RI R 50.0 
!freq ReS11 ImS11 ReS21 ImS21 ReS12 ImS12 ReS22 ImS22
1000000.0 1.0027290023736237 0.0015976939480447487 -0.01184537915770749 -0.05898086711324402 -0.006513549708222661 0.014478635810759675 0.3588282592332286 0.352956839253259
1999000.0 0.9986609931973771 -0.008534549122148672 -0.0005485508850028844 -0.021695851316038545 -0.0037208185975481714 0.005435362194025313 0.2586561782766199 -0.07188474161582148
2998000.0 1.0017412038226512 -0.01875557163366886 0.01401919057788415 -0.015312157217745783 0.0015993207336157168 -0.0018216197115553192 0.19747834547444884 -0.1394628652963728
3997000.0 1.0029072798693115 -0.026842417430227326 0.01111880803807109 -0.0072240838251037545 -0.0014193249246955474 -0.001794613635114249 0.08608626701040226 -0.23771877018069842
4996000.0 0.9974704336288751 -0.03672088298480513 0.0143160715574523 -0.003729556518985239 -0.0013690722931408844 -0.0011441533619904107 -0.03941760875110632 -0.19822853479452623
5995000.0 0.998883830243224 -0.04437737325344782 0.01006416434511953 0.005038515404216283 -0.0008162258734885443 -0.002225026955478037 -0.12355320379293001 -0.11242287220358099
6994000.0 1.0002225457048894 -0.05732459807307988 0.0028424637089352004 0.0036772463044493424 -0.0001855262690939178 0.0005156193542731802 -0.12955598430017667 -0.01957029814546461
7993000.0 0.9992177896725987 -0.06848024603793558 0.005240605387049419 0.0016572496887701064 -0.0017478268612281102 0.0042356348432873074 -0.15305096485920044 0.02838693854711682
8992000.0 0.9994196488202332 -0.06918173331307727 0.004671495404204046 0.005866998547613634 0.00046553418678106656 -0.0014415161541956757 -0.1498908300654709 0.06747175120481254
9991000.0 0.9977947199113334 -0.08107960598216833 0.002162214739349175 0.007843635133848411 0.0023467548181276784 -0.0013555904493963236 -0.1465354714881819 0.08502878990075202
10990000.0 0.9958878624394764 -0.09096223641561639 0.003108657906159953 0.00364918190531374 0.0034514083985610696 -0.001459852746013142 -0.13801427544238176 0.1163755850688381
11989000.0 0.996406513653415 -0.0995590894245572 0.0044625974173504775 -0.0010978017862787656 0.003974969400970457 -0.0004607233328946578 -0.12778485736617887 0.12957655201812293
12988000.0 0.9936436706845356 -0.10945069837402635 0.0016906069193150463 -0.004667020551579357 -0.004984963746168256 0.0014916549783003284 -0.11381039235020998 0.1631171180382098
13987000.0 0.9921720300342123 -0.11779878194102975 0.0024939400501729067 -0.003599018566184893 0.0029386109216271218 0.0022267555799848804 -0.10064541793080642 0.1896366461807773
14986000.0 0.990538551785962 -0.12295844256808555 -0.00013891448347476282 -0.0034861439748783956 0.00042967980884284907 -0.00046465408084915463 -0.08939545164394723 0.20310182790072245
15985000.0 0.9934790661927129 -0.13318924137052227 -0.0008562723851952588 -0.0038805123261101775 0.001092966369885336 -0.002267784619777564 -0.06171359811425416 0.21955346379921298
16984000.0 0.9895887851453408 -0.14264018724948616 -0.0014304492788776281 -0.0023376368216980314 0.0024013911427500615 0.0009237352904038873 -0.05851033976665059 0.21692668698203343
17983000.0 0.9895011022818038 -0.1461831210335012 -0.00023895649973936224 -0.004797795054601782 -4.025019305925872e-05 -0.0012516204405015054 -0.04824565398714088 0.2211950537349176
18982000.0 0.9877323189625974 -0.1598229364696131 -0.004351640656133576 -0.013381256661819373 -0.00011208156393798095 0.000534211485962457 -0.013147579190249939 0.2252633880751919
19981000.0 0.9874810091771434 -0.16661442853333674 -0.007909824351966157 -0.002387747980429084 -0.0007223491640408367 0.0022318553714847887 -0.01202635001983322 0.24739707185615367
20980000.0 0.9839928704200961 -0.1738206305115131 -0.0049010255254903585 -0.009074642407439094 -0.005689944200321591 0.003490169977698321 0.0016036067945692516 0.24998443720329633
21979000.0 0.9837636513449987 -0.18121210784424935 -0.00573690102816242 -0.0076744272201949345 -0.0004186096751359467 -0.0016604078933450592 0.010988987009554077 0.23648676684648523
22978000.0 0.979502469074348 -0.19327622382035456 -0.0023338829039016872 -0.007678526681849549 -0.0017475232481436965 0.004959218148831255 0.028722745490355334 0.25146011110221095
23977000.0 0.9820923758796147 -0.19998501309881572 -0.004841813512386312 -0.001950548923681056 -0.0010955511520951131 -0.0004177939066801599 0.0402818133709069 0.25428358595786604
24976000.0 0.9782078052511595 -0.21062851323054443 -0.005643253363536054 -0.0025968917605936176 0.0003636878337439947 -0.0026802127390368846 0.06970240725711431 0.2461939587028962
25975000.0 0.9764980547515749 -0.22509296669463089 -0.004233358398775951 -0.004321092825109537 0.028085113382443846 -0.004600567511261362 0.07600089926376041 0.2566394941102981
26974000.0 0.9736312422108201 -0.22659523235941095 -0.002271519030740865 -0.002734225703738095 -0.0034956703382857815 -0.001686991161366582 0.0855614389939882 0.2630537292791874
27973000.0 0.9729460076960037 -0.23039625631812669 -0.0027516375137665613 0.0022442335527597342 -0.002743124006070255 -0.002903946564697959 0.10209695145956264 0.24429676175230755
28972000.0 0.9682641550728059 -0.2438534250531356 -0.0013917624663241325 0.0003844084072082299 -0.0015358170305548578 -0.0027789507018221213 0.11579454985665308 0.25876410662898186
29971000.0 0.9686126128651545 -0.250000435734697 -0.0005634793820238325 -0.0020830686437220544 -0.00020744432818839377 -0.002284723452849921 0.14497262248228485 0.26467681407446497
30970000.0 0.9662727711003091 -0.2554450388011669 -0.0005577213010982685 -0.001423673192134436 0.0005299540208395925 0.001772489126247309 0.1677372829647049 0.2475033382252016
31969000.0 0.9646460348173395 -0.2648891281030314 0.0036038606007724803 -0.0037097771414466153 0.0014204162314353098 -0.0016003618965956144 0.14770818758190615 0.25890274194235263
32968000.0 0.9618487478053535 -0.27419847549771925 0.008918154448460927 -0.007793180104161367 -0.0011855545376240333 0.00303696859126318 0.16223383562809707 0.2506933511491591
33967000.0 0.9595825780246053 -0.2851135458947056 0.010729074437711664 -0.00802351656123686 -0.002347726369812638 -0.0032603973759936645 0.17884489205290302 0.24934702202269324
34966000.0 0.9558962104343115 -0.29248098882375634 0.01197108149540263 -0.011827974383233535 -0.0029410946391867612 -0.00017178475356243044 0.19322153715119889 0.2617883972045512
35965000.0 0.9543210753276515 -0.2976365580476881 0.01726860811561602 -0.016553831153218897 0.0014381352041622874 -0.0016837339624326331 0.21184469069122958 0.24576696968457185
36964000.0 0.9525784934945173 -0.3085454461918305 0.015456515815443139 -0.010310705059158473 0.0004692440631346316 0.0014713706848560977 0.20380414625978405 0.2510067315597742
37963000.0 0.9477424226893906 -0.3175372203614005 0.02063944204207675 -0.020961041678355465 0.00021156575913178376 0.0023120674652077075 0.23234323803988596 0.2301359010261999
38962000.0 0.9466366834963662 -0.3263650112803158 0.02305818269944764 -0.024006418470877606 -2.533115666162959e-05 0.0022342569911515424 0.23779395387849278 0.22815533749582373
39961000.0 0.9431920314115024 -0.33204527606012324 0.028170735661534423 -0.028361588995293487 -0.0026424070100276986 0.0028994042374695665 0.24930890422184782 0.22283934989516893
40960000.0 0.9402216762010477 -0.3415887951714636 0.0243625866089915 -0.023619124245606315 -0.0013800025304804488 0.0003125183751982567 0.26874113619545364 0.22687970781314187
41959000.0 0.9359014297305361 -0.3507752532182656 0.02989354143806371 -0.03328306031918892 0.003365390868440211 0.002004769430488016 0.2721446300641653 0.20949260442134615
42958000.0 0.9333607851637 -0.3584967670741277 0.03445855694609839 -0.03879425171971351 -0.0011663297237297786 -0.0013331887209410446 0.2720328772945861 0.2049205013946352
43957000.0 0.9314928405635237 -0.36348425122403555 0.035644025696817586 -0.04682067420418685 0.0005080543877165316 -0.0003413245486204885 0.2917513207592813 0.20680498221081367
44956000.0 0.9285025614953525 -0.37294680764094135 0.034127841170114075 -0.052219027230957366 -0.0013014241361971877 -0.00026054792578795186 0.2959294550556078 0.194236710182424
45955000.0 0.9243029095172203 -0.3838898669722884 0.03188932873337098 -0.0559644369711248 -0.0026130610463464643 -0.0014698605655186214 0.3081788905383244 0.19190071743369652
46954000.0 0.9194299456112083 -0.3918646733840274 0.03523546026249112 -0.06557671641779886 0.0008995148254785953 0.0016490268492175052 0.32514243549975674 0.17537721926831468
47953000.0 0.9175376143683455 -0.39801029199160837 0.03968658465962152 -0.07303864560316474 -0.0015975829575423555 0.0002404233335477664 0.3330412251835111 0.1770217103557241
48952000.0 0.9119412817079252 -0.41154482630438516 0.03516801704092361 -0.07740874449582104 0.0003936520362861049 -0.00048703726260708555 0.33052295997894465 0.17181028894614234
49951000.0 0.9089106734947803 -0.4151919919895674 0.0391566945937874 -0.08567879097343087 -0.0005962565970396153 0.0004650836707773536 0.3485816624287608 0.1498708915980733
50950000.0 0.9059646092747712 -0.423372512341804 0.038553160219796406 -0.09720407586838481 -0.0015531893958807396 -0.003879287300397281 0.3511920050030887 0.1419476748767323
51949000.0 0.9015480342007237 -0.43167920824822054 0.03866862715663576 -0.10467535931207063 0.0001813037514804111 0.0008625905707293173 0.3581004406759049 0.14025062312062175
52948000.0 0.899790904641164 -0.438086458030873 0.039674381857451056 -0.11198133865724752 0.0021890237554636326 -0.0003978125871762931 0.3700382514713478 0.14223159610307268
53947000.0 0.893526769783389 -0.44769911646714555 0.04121588731562835 -0.12169346501265148 -0.000788398664392204 -0.00353974184266672 0.3711536982295342 0.13386258809144494
54946000.0 0.8889237858673883 -0.4549802046674004 0.043320075172819036 -0.13122268663471004 -0.0007435601201021585 -0.0004967430815579254 0.38883664962401565 0.12777773380041796
55945000.0 0.8859961422758377 -0.4647530303347506 0.04351163437598439 -0.14235379432646203 -0.0011715907029747022 -0.0027407497457453576 0.3876304793243434 0.10524896320600867
56944000.0 0.8820084795308211 -0.47005816997551403 0.04876529385856636 -0.15137219416107328 -0.0012504769486235351 -0.0006716440360229314 0.3979356642274958 0.09830886013387441
57943000.0 0.8784080172003105 -0.48175157713827876 0.04590152750783776 -0.16423595748963507 0.00039842707191057816 -0.0002756609597200208 0.3949364141673787 0.08902396762699787
58942000.0 0.8711192754981806 -0.4874551534044182 0.048358548062332 -0.17402168620121208 0.002067508552388187 0.0026706543778260983 0.42207663688940483 0.095783199615692
59941000.0 0.871052157244887 -0.4946370900600038 0.05002976837107106 -0.18420427020443086 -2.6006510301898027e-06 -0.0004811181020747184 0.41287845069268125 0.08817386234083875
60940000.0 0.861689834790921 -0.502734042957104 0.051437325093958604 -0.18694078427870794 0.000556664243011445 -0.003598568055849645 0.40551995292902293 0.07214164417230197
61939000.0 0.8595621844085614 -0.5097517166266167 0.05041725481639865 -0.193359488274091 0.0012992151097700208 -7.379976715041996e-07 0.42189716577436337 0.07336747982287087
62938000.0 0.8541833569119053 -0.5195694175206128 0.052503023604404425 -0.2119775703869524 0.0016843208737908457 0.000917980744730761 0.4441847955704373 0.04939632363181351
63937000.0 0.8492798630657936 -0.5271994297378809 0.05617568936210393 -0.23276493026238382 -0.0014543042585556654 -0.0013050694478252323 0.428595869893941 0.04267169091032154
64936000.0 0.8416342430592336 -0.5332562066118975 0.055270116057426884 -0.24456632686502155 0.0018504920784639882 -0.0006411559671764974 0.43041347950618686 0.03953525284119512
65935000.0 0.8397788771961405 -0.5451328896335181 0.053161598179258085 -0.2611003108780936 -0.0009903960166117605 0.001013237951559039 0.444706906632103 0.022514157581818024
66934000.0 0.8361138241332048 -0.5482883011868376 0.05636498009564229 -0.27245898752806424 0.0017349499276664623 -0.0003868455727278489 0.43839036288546884 0.018726597349199785
67933000.0 0.8333943215046987 -0.5549057605978899 0.05584169005699021 -0.2860827078548772 -0.00012323871661156858 0.0014039474867788943 0.43631224570598803 0.0182025410574906
68932000.0 0.8250209153214323 -0.5636907120861456 0.05003794845406504 -0.30350764260788937 0.0010709118589616318 0.0010437875685484772 0.4483174066733585 -0.008588746577032957
69931000.0 0.819349258620482 -0.573101370877846 0.05243840469066441 -0.3157748442320067 0.001377674023988969 -0.003985619199525469 0.45200744921926667 -0.02465500741395235
70930000.0 0.8148971430706857 -0.5794557989918079 0.05024825087243616 -0.3328893000150511 0.004361685281287717 -0.0017470759767674931 0.44579566214713834 -0.038197146434707174
71929000.0 0.8110714663818621 -0.5881659456124402 0.04624180145590819 -0.35118916275756906 0.0047914594888773835 0.0003453756778976266 0.4511505211858918 -0.0396632669372833
72928000.0 0.8030893691856664 -0.599075442833345 0.04018238364214804 -0.36466242715569863 0.0013068040746008582 0.0028570487410974625 0.46459463981605353 -0.051620890402544216
73927000.0 0.7973265777502656 -0.6048822380745278 0.033832684818258775 -0.3846770859737154 -5.053148047265868e-05 -3.4363512084932675e-05 0.46063647111368683 -0.05855085214187403
74926000.0 0.7936034671297166 -0.6136457678397957 0.02922195702785985 -0.40112834863332064 -0.002361645886252036 -0.0026274904629605862 0.46719048991899453 -0.05985521834401634
75925000.0 0.785871039396419 -0.6184981811840614 0.018842662364379047 -0.42193971962920773 0.0014649618195481258 -0.002282324605323757 0.46817183460490674 -0.07396073204529416
76924000.0 0.7807342140465288 -0.6258089577076608 0.008227081581313031 -0.4450540437518734 -0.0005711299698800309 0.0026240574649252324 0.4739081387283605 -0.08892624414097922
77923000.0 0.774090477438361 -0.63390352243638 -0.0020519809487196615 -0.470151196238004 -0.003293656313825139 0.004996179499937907 0.46609997585860485 -0.09895384149495139
78922000.0 0.768048359585623 -0.643273228958608 -0.018487808571209713 -0.499080757158723 -0.0050732763991592714 0.0012716654400955999 0.46039879913340676 -0.10268665974466702
79921000.0 0.7599786945852482 -0.6474487561695537 -0.03589493494507726 -0.5222335251929912 0.0013098696165941902 -0.0004603684443838313 0.46386710035492285 -0.11059293392579791
80920000.0 0.7574435463588108 -0.6589028262630144 -0.05470213739503959 -0.5495811379365783 -0.0009414295116455402 0.0017774635236571916 0.4774826132571497 -0.12079911684744729
81919000.0 0.7516939502883039 -0.6619829419592056 -0.06808804781683327 -0.5746998442617612 -0.0017228556470523272 -0.000755382739109061 0.4725543823184499 -0.1299879391006271
82918000.0 0.7401551349705588 -0.6720319719557352 -0.086117715559495 -0.6026872599713834 -0.0020825239631188917 -0.001610238965071826 0.4791819704441717 -0.14606249006244204
83917000.0 0.733266685304707 -0.6805319967674172 -0.11025457384182927 -0.6320569431498688 -0.001826896765122285 -0.0034589362374270118 0.47179947938763506 -0.14563875722676473
84916000.0 0.7295995793522315 -0.6877158638086275 -0.12327756536946177 -0.6671456866004442 -0.0009047088819064894 -0.0007648164511884597 0.46055276055872707 -0.16718652354402186
85915000.0 0.7221343001366078 -0.6931335689621528 -0.14058654819970257 -0.6999468566243389 -0.0013904423872399868 0.003058273678313693 0.46564346200915774 -0.17785431483415323
86914000.0 0.7143916446049016 -0.7027341769714235 -0.15695295991600625 -0.7385822427317114 -0.0009813077703923927 -0.0012387595845310385 0.4601805028495406 -0.17415185320617182
87913000.0 0.7074805063942764 -0.7080524165774016 -0.17807093361522697 -0.7662468081071538 -0.000965859373899086 -0.00282177852515949 0.45447345811285866 -0.19079857051859622
88912000.0 0.7003489101000498 -0.7174059008027968 -0.19351671938664683 -0.8008679572163127 -0.001312039274890349 0.003188900236201378 0.46392607686983994 -0.2005386152070453
89911000.0 0.6937477780679177 -0.7238009575441493 -0.2096902007089889 -0.8388111805183714 -0.0005416365826454757 -0.00013702761335358948 0.476134143874512 -0.19979579285331683
90910000.0 0.68825769881951 -0.7276288992726117 -0.22607610103527542 -0.8711547315366472 -0.0005837048954278062 0.003713189253060314 0.4693496668103782 -0.2037465896401385
91909000.0 0.6780983355933112 -0.7334347543071442 -0.24524751746498422 -0.9042113086116885 -0.002360139505092698 -0.0007301832475494043 0.45796569247801794 -0.22247209357833964
92908000.0 0.6692810228551626 -0.743321816961501 -0.26491743288847935 -0.9396599755958417 -0.0010411441789175656 0.0025264838583587005 0.4609868702908151 -0.23496889308476396
93907000.0 0.663843608699602 -0.7471942218785487 -0.28588490076586914 -0.9695989100587361 -0.0011600763518068741 0.002446763236845456 0.4592319220442657 -0.25692750329330144
94906000.0 0.6544053952420675 -0.7575384542180505 -0.29653973999675226 -1.0024377857521427 2.7559553421883504e-05 -0.00017049517236375448 0.46726466617398676 -0.25451466828124597
95905000.0 0.645872042878645 -0.7622760990145014 -0.32140580277588326 -1.0357813736822024 -0.0021317959686088478 0.0011747200774325198 0.45392266050948615 -0.2682345367322967
96904000.0 0.6406661626206519 -0.76933885002704 -0.33642048557168847 -1.0833681708134633 -0.0022461119886674256 0.0015641343443785324 0.45957508747460646 -0.2794850461808427
97903000.0 0.6274712339054368 -0.777614215817965 -0.363852129473805 -1.1072167509757869 0.0010370255006951603 0.001470952472348428 0.44465892773524474 -0.28789399494665113
98902000.0 0.6248431542486423 -0.7816589001537737 -0.37754354847955307 -1.147642609657496 -0.0013449243622235014 0.004772665986168916 0.4460899833587828 -0.2935662687792331
99901000.0 0.6142820457731846 -0.7869595439733298 -0.40380159754047124 -1.1805040827916535 0.0012318543783428459 0.0014120077366493288 0.4635652681136298 -0.31272326914180615
100900000.0 0.6068779253738793 -0.7932549575413294 -0.43744024474745546 -1.2085321031215042 -0.0023409473633094263 -0.0014477192651597354 0.46506981618885146 -0.30677298179935586
101899000.0 0.6000654163265355 -0.8007536790635815 -0.464061023401433 -1.2482441653200766 -0.0027755905552633046 0.004547218004839128 0.4437494088107308 -0.3126014076377886
102898000.0 0.5879387465277581 -0.807820559686598 -0.5021444103190806 -1.285858594237447 -0.000535722171053262 -0.0015517580272719647 0.451580749303604 -0.33826127340178275
103897000.0 0.58006736995867 -0.8150690163619468 -0.5377922619992531 -1.3190238657290196 -0.00034044588215285655 -0.0013248412863362778 0.45455500584601966 -0.31801858005519906
104896000.0 0.5720696015164866 -0.8235116024044642 -0.5841796440387077 -1.3519883815106581 0.00015206418279185713 -0.00011340525683073363 0.43937897728590747 -0.3404923308904182
105895000.0 0.5624033841158512 -0.8273603742366674 -0.6252345204683465 -1.3952533575342927 0.0021832864456917864 0.0014276776090065039 0.43529172516541187 -0.36061276318583013
106894000.0 0.5534409652236955 -0.8331156346133857 -0.6807054276315629 -1.4339481243733785 -0.0014000745859753727 0.0009098852710676705 0.4361657317119336 -0.37701863580092904
107893000.0 0.5456743573082895 -0.8384249139166757 -0.7315060826005045 -1.4600682663216347 0.0004837742857788545 -0.0026976551387195803 0.43134941838582713 -0.3764873863865941
108892000.0 0.5349241019338041 -0.8441341186022 -0.7919121727851961 -1.4962573309172553 -0.0006337290730450822 0.0007893242552838603 0.4283419710540336 -0.3755318906052394
109891000.0 0.5242086392821221 -0.849665064991486 -0.8448464935701866 -1.5337208106859477 -0.0011298371743009422 0.000647158277926399 0.4293237030626333 -0.38496233587013146
110890000.0 0.5065170870498154 -0.8534061762001548 -0.9055288515091846 -1.533205407499092 -0.0035207333316690952 -0.0016915667580601817 0.42453032750956454 -0.3759170615582936
111889000.0 0.5026361117696075 -0.8565907555986877 -0.9677114260140494 -1.6026214503000562 0.001058227000363142 0.00044258303270508097 0.4185570572062358 -0.4008850765304887
