! Created with skrf 1.9.0 (http://scikit-rf.org).
# Hz S RI R 50.0 
!freq ReS11 ImS11 ReS21 ImS21 ReS12 ImS12 ReS22 ImS22
1000000.0 0.9908891628557663 0.014870127267736566 0.005593858316720598 -0.03751442100846761 -0.02417251687576425 0.01458923805895608 0.31144537862994726 0.3220983886874456
1999000.0 0.9895309850833968 -0.014698720288935646 -0.0007103900335613386 -0.025207991626140028 -0.005505006160114856 0.0003372494762241851 0.22596158651011974 -0.06868369011140618
2998000.0 0.9985675652390915 -0.02378534431709652 0.00988948770742706 -0.013394538596616498 -0.0026713584802486342 0.000601041555002404 0.19186933142933368 -0.13587739699398316
3997000.0 0.9954126186374258 -0.03255074599978658 0.00925245776021715 -0.004937306575087014 -0.0016414530309120249 -0.0047063498204351255 0.08915809804434491 -0.21778312913739434
4996000.0 0.9964282292424911 -0.03860605829806468 0.01239333722748489 -0.003940195165970483 -0.0029703404474479885 -0.0011484465853728166 -0.04455626372648197 -0.19394108771040805
5995000.0 0.997533111114731 -0.04685166690317156 0.0117868461396841 -0.0028368569001297975 -0.005637511977458151 -0.0010521734817110157 -0.12899414492627342 -0.11349005321498253
6994000.0 0.9942815959183837 -0.058243071505131895 0.007919730918055447 0.0028631095154912664 0.002017763462744568 0.003679752761316044 -0.13034578108692096 -0.012004804281639813
7993000.0 0.9938999793845273 -0.06936809669866999 0.0005229809020946797 0.00478837565027309 0.0031565193977722305 -0.0015199419000368518 -0.15585676479541716 0.044102797904396265
8992000.0 0.9949867607281877 -0.07177042826177266 0.0010526136926349225 0.0025066577907200405 6.51462532180556e-05 -0.003808541193712319 -0.1457379814360657 0.0622504690741441
9991000.0 0.9934037800737534 -0.08145500465003938 0.003477866112942104 0.004577385578760978 0.002985507775350429 0.004956519295415093 -0.14099790556545141 0.08672195695391133
10990000.0 0.9923875369863181 -0.09424292301933909 0.0015923026731297493 0.0030740752039668546 -3.8915455593991464e-05 7.003516733928803e-05 -0.11695231715447221 0.12845193541632507
11989000.0 0.9883152195191143 -0.10141032056395892 0.006377591599343919 -0.0013349597486358455 -0.004582832388077419 -0.0008626659704014187 -0.1149125395657303 0.13510824725217355
12988000.0 0.9913540736283709 -0.10952559622953166 0.000935450856858549 -0.0020461083582820356 0.003142551334302697 0.0007651603733782469 -0.11909346818014657 0.17354062035680415
13987000.0 0.98790004941199 -0.11762010208203177 0.0017256460400961618 -0.004292991067461058 -0.0010088625898438896 0.003327053630242453 -0.08802046482585885 0.18334722996361233
14986000.0 0.9870216723530847 -0.12603503782012312 -0.0059042493789629195 -0.0042501892185543904 -0.00018493701413791418 -0.0023137629464797713 -0.09239548278800168 0.2105101096422262
15985000.0 0.9883143079212796 -0.1356159448961738 0.00525469741362166 0.001846248600643432 -0.0011394959262116399 0.0021983577566326816 -0.06016368963745352 0.2200911550578491
16984000.0 0.9868953282699904 -0.14660097833530325 -0.004308960108142078 -0.006391279389640247 0.0014061376758455583 0.0012920012202268431 -0.058456027450760825 0.22086043316467052
17983000.0 0.9860716935550365 -0.1504568037893341 -0.00223393018286772 -0.004380612743095719 0.006736312111408443 -0.003110324752528572 -0.05009008193479707 0.2283513948662791
18982000.0 0.9818397514944855 -0.1648277703126717 -0.0033658186237571393 -0.005380442546712081 -4.498321465797339e-05 0.004654171362585184 -0.010202988669004327 0.23734147952521945
19981000.0 0.9798924188819985 -0.1706477958093392 -0.0024916497368471634 -0.0021648134692322718 -0.0002922893750394174 0.0016102261765243001 -0.01473824088536766 0.23974377924393547
20980000.0 0.9785943427451366 -0.1793622950684292 -0.009042112055300257 -0.003200375316286165 0.00035726654248829844 0.0064506899213645705 -0.00018291014981073293 0.26111212566576303
21979000.0 0.98038432186561 -0.18656287127161267 -0.003828821913736004 -0.004214988897292016 0.00019499950150389945 -0.0034915893535641092 0.014424180224519422 0.2445080174839684
22978000.0 0.9744683236974959 -0.19823752191548488 -0.00875120767936927 -0.0028447400304154893 0.00026196951400582816 -0.005098423637013361 0.035127864527196094 0.2539286488228711
23977000.0 0.9770441938863993 -0.20425116582745953 -0.008374825940711044 -0.003448029498843268 0.0015843758134801733 0.001744299008128778 0.04216797183677238 0.2584108853388595
24976000.0 0.9724104497380048 -0.2160130592471927 -0.003476162474236524 -0.0015026986014533342 0.002482781186005138 0.002394885053654751 0.07314909306935469 0.2574209381572736
25975000.0 0.9725840979650899 -0.2280480268088993 -0.0058664164003981245 -0.002513472681797021 0.02611577186422075 0.012760376161617489 0.09464763863172344 0.2611662571743117
26974000.0 0.968931747945408 -0.23015054523823367 -0.001756357560681752 -0.002264384519099185 0.002346257852036949 0.0023761601481918186 0.09267836164533748 0.28107333735519285
27973000.0 0.9686420224975356 -0.24014146727477872 -0.0009417091329035249 -0.0026762223650336103 0.0017931219619429463 0.00021605350283408878 0.11450666214796391 0.25356684782859934
28972000.0 0.9641658789596795 -0.24796772456492902 -0.0035093344014010975 -0.0013717126081445783 -0.002476631782865982 -0.0018040062949718513 0.12190054323719533 0.2512682845873643
29971000.0 0.9638048681716521 -0.25744685931008043 0.0011325630665586252 -0.0030477737861703785 0.002758340982081904 -0.0012572716640278819 0.15487946797146537 0.2703201216352121
30970000.0 0.9604532580051552 -0.26177641801599066 0.0014416903012799307 0.00042616523662938834 -0.0020111972366368813 0.0010041731124881673 0.17767746352623798 0.26346720677321944
31969000.0 0.9600215569435184 -0.27137114912927435 0.005484102460586363 -0.004793064976139027 0.0021710075052007423 0.0008602776441859043 0.15862822868388954 0.2563237633630789
32968000.0 0.9584002319095614 -0.28014288247374614 0.007359752522577648 -0.00508231681430939 0.0009816988200359415 0.0006003051205920538 0.1682863401080029 0.24825631362576375
33967000.0 0.9558948098292858 -0.2881940983546225 0.011723946619045052 -0.00929117687335044 -0.0003381602861013351 0.00029762033836729513 0.19197357810768165 0.24684600898238934
34966000.0 0.9513516781063219 -0.3010654579560488 0.0131889968304126 -0.013875034044548012 -0.00048092860338728213 -0.0020286700990106692 0.18970635199362812 0.25882863696714414
35965000.0 0.9487187986854035 -0.30802636762122293 0.018362351769665348 -0.015546692239414399 -0.0011793925911185203 0.001679890537688317 0.2205858575098967 0.2528800008138713
36964000.0 0.9473123382968432 -0.3164939119723592 0.01669422886902514 -0.014691652643545846 0.0034561714853335404 0.0028547681393884428 0.2184129052522852 0.25006435842049995
37963000.0 0.9438270576726727 -0.32526011694787493 0.02255804897562974 -0.020220067910447035 -0.0009579746328629108 0.0011476748629255463 0.23399487863771445 0.24311345329150608
38962000.0 0.9395069572736131 -0.3356349661156854 0.02537020491322211 -0.024728611353270948 0.0016911498685966326 0.0004560067811399218 0.24596854854341724 0.2431010587254704
39961000.0 0.9377220835849208 -0.3405910560571942 0.02823433804374198 -0.029965407731611198 -0.0029548928367213517 -8.371824842202613e-05 0.2479825342656971 0.23837491128716198
40960000.0 0.9321062140936269 -0.3503469993050396 0.02198403663538161 -0.024553655015581672 0.0019614062265153145 -0.00018882287225586346 0.2708937082676894 0.23089022348938898
41959000.0 0.9289162176393427 -0.36111837185556933 0.030034597089880807 -0.03136278705964321 0.00017159880295987743 0.0002637163224389745 0.27575528709947966 0.21331084823253488
42958000.0 0.9260975221128627 -0.368865458102837 0.03176206000034188 -0.04078539769003953 0.00020121936083214464 0.0005673300647165662 0.2868312883105668 0.20582508688471501
43957000.0 0.9243282330207697 -0.37574238874220944 0.033642880950217245 -0.04569705319349936 0.000309069567241036 -0.00010388673840023436 0.28243394611960376 0.2134148457167607
44956000.0 0.9202043375668572 -0.38281669181625483 0.031592653661890645 -0.053596210436931344 0.0020436761362806195 -0.002568402302871791 0.3093926027117722 0.19879927894546173
45955000.0 0.9154982651460313 -0.3942680604355458 0.03321928561995026 -0.055971370819644636 -0.0016496781632118385 -0.00206729458566553 0.31930633615554416 0.19474143644310174
46954000.0 0.9126688758567948 -0.4017256719557448 0.03523738367660063 -0.06552461222836835 -0.0001063770969556197 -0.0018236388130732726 0.33491663439503316 0.18301641268067662
47953000.0 0.9087183216461111 -0.41154493255739993 0.035368778954700475 -0.0697454913359533 0.002176606538239643 -0.0004120515324670403 0.3423861785600096 0.17132900644103796
48952000.0 0.9025026749157646 -0.4221217814788637 0.03582528087553269 -0.08303461943905802 2.0707222452729767e-05 0.000616591650087076 0.3401129090471341 0.1548941556143934
49951000.0 0.9002201247260535 -0.42513077835674107 0.035859306111763474 -0.08669592732154634 0.00023975143254564136 0.0014369904997766384 0.3655579805680973 0.15448412701625563
50950000.0 0.8980723938608829 -0.4358165774210331 0.03839986554541619 -0.09670573625666659 0.001885614716484926 -0.0016305564082776996 0.3565191956770051 0.1439383923066439
51949000.0 0.8929794026540546 -0.443534533949283 0.03940682864002124 -0.10137812002175815 0.003882828484883638 0.0007895422182836284 0.36077490019780856 0.14864276481975597
52948000.0 0.891170638936052 -0.4500508536024668 0.041272914599755996 -0.10941982106748871 -0.0031297299309937707 0.0008233180328656286 0.38080631090734474 0.14379891957222302
53947000.0 0.8830416274691225 -0.4614771899354109 0.04144246060289586 -0.12049200377447221 -0.002495655655780863 -0.002769623133039763 0.38291205076804874 0.1334474444364044
54946000.0 0.8790846233991723 -0.46873587073333284 0.04046238435969615 -0.12978727207846005 0.0004331008951615028 -0.000650918345014415 0.39004680472643033 0.1339738252335206
55945000.0 0.8751937676889807 -0.4761214009298115 0.04461541854189635 -0.1415117511962219 0.0024959948515230275 -0.0011962303933484302 0.39849901277830857 0.10917430217190988
56944000.0 0.8727183026839351 -0.4851971557464774 0.04636779982790748 -0.15012342408884463 0.0005688007455606767 0.00037702073573958535 0.3873748637412403 0.1081222009353097
57943000.0 0.8662103637307818 -0.4958707430524479 0.04510237023775804 -0.16295288098311178 -0.003230971506626104 -0.0017703773090418447 0.4067863088461755 0.10113914905546674
58942000.0 0.8601974977790622 -0.4994009179633534 0.04503702229075372 -0.1735163182370527 0.002390944182403651 0.0020433235207450965 0.42285899816555156 0.09575138441357424
59941000.0 0.8577762469192883 -0.5103670225779287 0.049688485475315784 -0.18029746139438385 -0.0031425928010258854 -0.0019277341509503535 0.4243044384748049 0.10160986540228498
60940000.0 0.8499745341812026 -0.5178049976926136 0.04791975212321088 -0.1850538859069434 0.0006587937870014344 0.0005784789634941868 0.41771967085104367 0.08523608809122915
61939000.0 0.8478790278909408 -0.5234911186569579 0.04956123834588165 -0.19344688964993134 0.00019530602270397492 -0.001576895727026906 0.4313761022289915 0.07171727065862633
62938000.0 0.8421168162304365 -0.5337207197626052 0.05473568861523756 -0.20928074560832335 -0.0021054186152451057 -0.0001246574796269419 0.4480281316974524 0.05515910534970832
63937000.0 0.834240810041834 -0.5426748234640562 0.05376075753812904 -0.2275358481675723 0.002726508712001148 0.0025412240055890075 0.44823475125820617 0.04846580739969225
64936000.0 0.8301071333090465 -0.5465196505592795 0.054677833941058115 -0.2434595775835366 0.0020328538604489537 0.0015756655245507485 0.44249163627593074 0.04357357140388444
65935000.0 0.8256096726276972 -0.5600528923419523 0.05551977755663111 -0.2565448268173658 0.001811704798726529 -0.00012169236876347992 0.4470124111967326 0.02346313290991104
66934000.0 0.8220995604232513 -0.5636846447756911 0.053534169368925 -0.2700965642825159 -0.004855888195447496 -0.0010610286669914554 0.4442111974856999 0.026971158531684834
67933000.0 0.8176292682387509 -0.5716832110875433 0.05787839115085328 -0.2820740505397099 0.0020261699324009537 -0.0014499831809832535 0.4560872409430477 0.011607544710589397
68932000.0 0.8041289961033615 -0.5650451998298897 0.05230439693623815 -0.2926626447169103 0.0025411736738958916 0.0007377305196746693 0.4563084249605119 -0.009824535263661359
69931000.0 0.8030563413641738 -0.5879664964985568 0.05255944939489702 -0.3087497157509708 -0.002323465892644259 -0.00073035614080722 0.4628774126964374 -0.004913728247674535
70930000.0 0.7996954011173489 -0.5932774094104397 0.05360523351893128 -0.3241632017878353 0.0018591749488480124 -0.0016412635184442476 0.45630433630167505 -0.021883951463294048
71929000.0 0.7942003880802816 -0.6036585373463462 0.04669665315949838 -0.34324023247135743 0.000953936525335175 -0.002372167966762146 0.4649650297262023 -0.029865351621432144
72928000.0 0.7870921705575873 -0.6128855262379311 0.04002337819558077 -0.357948214112284 0.0012534638336199136 0.0007907872909366146 0.47455576037809083 -0.03651438834667904
73927000.0 0.7807551764754436 -0.6196725819590528 0.03545198400859205 -0.3788451652956734 -0.0001493662472046929 0.002278167650551861 0.4682813853390852 -0.04912339790361806
74926000.0 0.7751049529185098 -0.6285672834002695 0.02617589580902341 -0.3974045136254495 -0.0003457054745735893 0.002636406402973345 0.47015373880740746 -0.0424773618581246
75925000.0 0.76775896220823 -0.6347491998592371 0.01634782950133606 -0.41748380989543205 -0.00020892073423779586 0.006057740916226985 0.47212343884421043 -0.06941628748296129
76924000.0 0.7627334064360953 -0.6418679021818977 0.006724052232617268 -0.4401089306084722 0.0011840489465385063 0.0018156663464968044 0.4772788987655007 -0.0754699881621224
77923000.0 0.7559835516700127 -0.6496879191160886 -0.00837792511058349 -0.4615263218412699 -0.00025121372948263995 0.001844675075255364 0.47602927845188614 -0.07955559412496808
78922000.0 0.7485456060673182 -0.6577900482238319 -0.020948380825844184 -0.49097543617360884 -0.0009650352096288796 -0.0017975497003077676 0.4776026571488894 -0.10095655079944263
79921000.0 0.7403019483928664 -0.6629332123869838 -0.042129887745694074 -0.5131672700824021 -4.5888729092565007e-05 -0.0005691377685223756 0.4648090312893929 -0.0954307029043387
80920000.0 0.7344262112422597 -0.6747475083950588 -0.05454860834541277 -0.5451440355810369 0.001218728050892676 -0.001116021492520345 0.4794101127114236 -0.1118110134111132
81919000.0 0.7304697162747104 -0.6791511850637854 -0.07129308570201441 -0.5709042993813283 -0.0003504065701603421 0.000933847284521653 0.47920177888490334 -0.1201302637454203
82918000.0 0.7227006348355484 -0.6856350856339657 -0.08488848590099327 -0.5997664450462671 0.0005440000369212139 0.006085051464714964 0.4842933397464688 -0.1304747327156155
83917000.0 0.7154229107144924 -0.6937598887812725 -0.10566308498383811 -0.6278395379296354 1.9917772436933084e-05 0.0015019654069126061 0.4822470134341834 -0.14315893311914046
84916000.0 0.7079421826592524 -0.701868016035532 -0.12118117223769849 -0.6636562789118304 -0.0030587786727181046 -0.000527039770713625 0.4737397531461672 -0.15183008039913756
85915000.0 0.7015783849575337 -0.7084471357789364 -0.14003436102317718 -0.6956149832959541 -0.0003487062849126227 0.002524710446068277 0.4748930177333012 -0.1737020578264934
86914000.0 0.6931774469936975 -0.7193668604803114 -0.15796600244962175 -0.7292423799643615 -0.0007929210746870479 0.0026291611225571815 0.4664512381813336 -0.16181278737819446
87913000.0 0.6862057759304429 -0.7236758310581464 -0.1759308921129524 -0.7581395621416552 -0.006978834756030508 -0.0028801673065501935 0.4737011063135237 -0.168322496438663
88912000.0 0.6776787122553634 -0.7321020230547873 -0.19041719937447926 -0.7958282824048036 -0.002559015568593029 0.00015394527767845472 0.4772136920004029 -0.1874855424195278
89911000.0 0.6718323659967481 -0.7391652353866567 -0.2053080210097184 -0.8328025134922884 0.0013301663071674864 -0.001551202557171826 0.4791884444039971 -0.19784701351973286
90910000.0 0.6634732508622717 -0.7470945165909392 -0.22450425173959795 -0.8615812798679201 0.0018828860007901488 -0.0014572269740944545 0.4812612083313756 -0.1967130931596174
91909000.0 0.6537123923457476 -0.750070270713084 -0.23874795357561607 -0.8950796317068418 -0.0005433519213019727 0.0016487349142959445 0.48292270941902754 -0.2081261087355104
92908000.0 0.6466828545576192 -0.7588194114189549 -0.2571922602706758 -0.9293578861175392 0.00036692246589435233 -0.0021782371206730475 0.4763924164374607 -0.21631177478324418
93907000.0 0.640903914322558 -0.7639588695807014 -0.2750392683541335 -0.9623017951932871 -0.0037268330208573637 -0.002643694676101455 0.46660395313025405 -0.2414346380186979
94906000.0 0.6248858192487856 -0.7717176836607893 -0.2908685478071131 -0.9943676260727624 -0.00026634538402477804 0.0017969347337260008 0.46934492546081447 -0.23635572971515312
95905000.0 0.6202605698021533 -0.779325767192198 -0.3097025325118951 -1.0303846571138948 -0.003094777168164138 -0.0028307378228140372 0.48095522678693414 -0.2471579361386737
96904000.0 0.6129264618865089 -0.7889508769348609 -0.3337951682212623 -1.0660950940080998 0.00037301728994589803 -0.0008905001453629402 0.46264605275774084 -0.26802876212765236
97903000.0 0.6015343560903168 -0.7911593205499181 -0.3494747240049191 -1.0976818863362399 -0.0017857311990163182 0.0021752306400379118 0.45582033928166543 -0.2797360931327014
98902000.0 0.6007243784909204 -0.8006113144383468 -0.3685634093361619 -1.1380451124074586 -0.0010016289596839457 -0.0014745006873930092 0.4571236834784495 -0.2767337936141777
99901000.0 0.5889997224736851 -0.8036612324424527 -0.39615228914375183 -1.1704616433472586 0.0009509737752700746 0.00014164214448751273 0.4684322275536985 -0.29983448052897455
100900000.0 0.5798082734212648 -0.8064070218892267 -0.42738449478359275 -1.1960250096664256 0.0008420707316893806 0.0019041454931365174 0.4794105420942275 -0.3042854865893524
101899000.0 0.5704345442533363 -0.8140274207804603 -0.4515780874859636 -1.2339926732081998 -0.001963479570184421 0.00037115048252346416 0.4598269095351282 -0.30841331177070325
102898000.0 0.5598119989437522 -0.820301777788882 -0.4816294167965454 -1.271099374777684 -0.001153913561650542 0.0013555650946966587 0.45879316547672894 -0.32127150530640414
103897000.0 0.5521494413336552 -0.8283971894767224 -0.5210756076768938 -1.3046253446488596 -0.0006382003185390131 0.001735544610661939 0.48133939832756173 -0.32426887831190476
104896000.0 0.5441335160469328 -0.8389630780042721 -0.5674787080598063 -1.3399680711792252 0.001204285197295539 -0.0005218507874008088 0.4583554838599076 -0.3172590483020934
105895000.0 0.5316974506769169 -0.8403815569809153 -0.6123852460624677 -1.381562405027732 0.001468493532304805 -0.001785684277687116 0.4572457865484071 -0.3438612183261272
106894000.0 0.5244741904243779 -0.8465581212909681 -0.6647000733719105 -1.4197003209834027 0.003917750559122696 -0.0010137122227209274 0.4444997048266415 -0.3542664936725298
107893000.0 0.5156158811784524 -0.8526064651722788 -0.7158101216535442 -1.4582742781391773 0.0006663713253763821 0.002295229283277843 0.44862314377705764 -0.36475696339287267
108892000.0 0.5043609579098878 -0.8567007524271356 -0.7799464392790929 -1.4928252525851322 -0.0003142918296995321 0.004159457983053215 0.4444302750795559 -0.3645037222755212
109891000.0 0.491518005944329 -0.8651594004699427 -0.834965197482218 -1.5321471722368842 0.0016030080212143755 -0.0010178900440236027 0.46332640623503596 -0.3603031266466146
110890000.0 0.4859124521957597 -0.8736690993883803 -0.8986257668068514 -1.5500286165844803 0.004183453083917161 0.003015290101393893 0.44415203050542 -0.37261724612115377
111889000.0 0.47146180781024316 -0.8705598368735473 -0.9551696031509498 -1.5961538419013557 0.00030962510480516656 -0.000635203393705819 0.44754272771152326 -0.3911808209224084
