! Created with skrf 1.9.0 (http://scikit-rf.org).
# Hz S RI R 50.0 
!freq ReS11 ImS11 ReS21 ImS21 ReS12 ImS12 ReS22 ImS22
1000000.0 0.9752714897620416 -0.0013319412464435276 -0.018755212309707104 -0.047273165030361684 -0.020516791020303356 0.0051016942720629255 0.3963267652104451 0.31245283328500123
1999000.0 1.0000521859012925 -0.012167483741787792 0.0066047272703286175 -0.023376546773956532 -0.003464597018393062 -0.001130676982980507 0.26470152882473114 -0.06664714154418067
2998000.0 0.9953628993133858 -0.022557484697783355 0.011560513463894972 -0.020607663363445723 0.00018781395642861578 -6.012709584471893e-05 0.19147359416875923 -0.1407807555637392
3997000.0 1.0008680771328708 -0.024144949810459997 0.012795426252082453 -0.009282598365092569 0.0036814585252106327 -0.002499198391735629 0.08421548959791321 -0.2337349316256211
4996000.0 0.9985101503935536 -0.036182550133080034 0.00874810173668795 0.004680599703003589 0.0037871337960087674 0.005453965116539363 -0.03381719713159159 -0.2077084791051224
5995000.0 0.9985830599669904 -0.050097785011436434 0.00826183262201596 0.0023882391447869935 0.001129168046334104 0.0006031677128411492 -0.11763220834839147 -0.12087962394084711
6994000.0 0.9967595845966705 -0.05734144452560286 0.006992603431729672 0.002735912533152771 0.004037311454889197 0.00148282542695372 -0.1480839688523454 -0.03570712230000622
7993000.0 0.9979975837648769 -0.062290016308534514 0.006095498638416126 0.0026474896140244153 0.001445414075009266 -0.0010089418160950157 -0.17242721568272773 0.040918646063403626
8992000.0 0.9947745193909041 -0.07374877308461217 0.008160746527904139 0.006436289758820726 -6.532298008467125e-05 -0.010322187434663345 -0.16422930469816943 0.055243699380525035
9991000.0 0.9954128888123546 -0.08122699670757905 -0.0001700625290621492 0.0004564883853275849 -0.0023649891842716453 -0.0018040037056165205 -0.1450531361818354 0.0843891144755881
10990000.0 0.9952433608807384 -0.0927263517011871 0.0017464296583450144 0.007357509230531275 0.0016771072974172793 0.0012824208599167863 -0.14730329444671153 0.13097077273248947
11989000.0 0.9937870704455805 -0.10031189901597419 -0.0012788656722064822 -0.0006426235798979544 -0.0006624995988381325 -0.0031757001318865594 -0.13948751540757878 0.14643036407255317
12988000.0 0.9924298318883494 -0.10667196694100274 -0.0008256392581780493 -0.0033227916397788474 -0.001365779912629374 0.0034412500726855202 -0.11630904379529651 0.16484038265978335
13987000.0 0.9890095004535021 -0.11760547479906816 0.0018667884174019158 -0.0036698289235676984 0.0014510013466292263 0.0008522178090747529 -0.10047028565021475 0.19410497057861312
14986000.0 0.9900550445171531 -0.12542682052152157 8.49260664523263e-05 -0.0032644998181596174 0.0018894838720149396 -0.0008713494117926699 -0.08954997058411945 0.212366624497903
15985000.0 0.9902531901378926 -0.13454132261029203 -0.0017266252992907574 -0.011327794924695146 -0.002321008022744059 -0.003600916637310244 -0.0664383222075165 0.2185859289664827
16984000.0 0.9873269410978367 -0.14646633407165208 -0.0038103806377260646 -0.00816210842805597 0.0007851120096519842 -0.00364066401764791 -0.07357966143193659 0.22220557741830332
17983000.0 0.9883304135254517 -0.14869136122051493 -0.006084414540595743 -0.005789580926136805 -0.00019483574509691318 -0.002408076425346283 -0.05314909441951764 0.23043516229359443
18982000.0 0.9839428744732606 -0.16069136520142427 -0.0022069219587445075 -0.006915392582002219 -0.0011164782758667547 0.001771630466411548 -0.024027269008442032 0.24402193388840268
19981000.0 0.9850266622803135 -0.1623876177604228 -0.003258673558609288 -0.003811506709166426 -0.0016565020756323485 0.0019442827561663252 -0.004651334476737644 0.2518415265356188
20980000.0 0.9825929337004067 -0.17691216058266962 -0.00644716625990079 -0.005580526380745535 0.003780852264379101 -0.0010374691335839487 -0.00268475759756372 0.26808476773836354
21979000.0 0.9794189226866483 -0.1847901338203022 -0.0002571493163561432 -0.006660869811813362 0.0034638982457313957 0.003347823821562144 0.014232240727563036 0.25738415990329067
22978000.0 0.9789180312131344 -0.19223847173706107 -0.00939055422634792 -0.0014929594482835811 -0.00045112399193837145 -0.000705022739637232 0.027378573909390795 0.25549330041724777
23977000.0 0.9803985148462779 -0.20030269816258697 -0.007723930722089705 -0.0017283556248812902 0.0003177970118059806 -0.0014427346139298072 0.04204894579494293 0.26205714812754866
24976000.0 0.9741732047171167 -0.2104553672496441 -0.008956718636642632 -0.000984771606474594 0.0004717067700882171 0.0009143388952122413 0.06436381362462273 0.2620550917026892
25975000.0 0.970028653405488 -0.21778441128174322 -0.008495656632553012 -0.0037261775577470822 -0.027883923013342138 -0.001265948050590044 0.08324181508879396 0.2718115093035669
26974000.0 0.9726230595900006 -0.2277297123297399 -0.0021907846390015707 0.0007944658062489267 0.0019933134621458303 -0.0010152166703360438 0.09432168327319213 0.27465899768533275
27973000.0 0.9717203528149188 -0.23386446595891727 -0.00669055005586965 0.0002641783109636912 0.0020626220415131532 0.0037058753662345574 0.10676006812467059 0.2543763117902602
28972000.0 0.9687652259345393 -0.2428377415436102 -0.00327173106021042 -0.0007616515520357073 -0.0011379219425299019 -0.0033568529819920584 0.12210558814937866 0.25896334434567053
29971000.0 0.9657238971713552 -0.2535323834467105 -0.0008712909232303136 -2.0385547415966254e-05 0.0018304391719869797 0.0009033140643096509 0.14726586785666 0.26792363954758586
30970000.0 0.9636572259831067 -0.2568605753566392 0.0009525262941019559 0.0003827699515667267 -0.0026156701165020173 0.0005686397569976291 0.1720238758607469 0.26038332667021197
31969000.0 0.9623890634528882 -0.26693938863770666 0.0032145056875510615 -0.003081821383808912 -0.0011392938389028437 0.001084681574674347 0.15382226382554176 0.2579970352089059
32968000.0 0.9604800650935584 -0.2759016077986382 0.006440172589066499 -0.005910076720511884 -0.0022638364401328793 -0.0011341052870110834 0.1676698058885059 0.25289634441468456
33967000.0 0.9582293455215068 -0.2833289754162548 0.015935924556980074 -0.008319210337083648 -0.0008422971999069398 -0.0018429497737458634 0.18693485901562987 0.2524884593596439
34966000.0 0.9557847099868767 -0.2919960964127807 0.01579370165128585 -0.010811919589516501 0.0036988753774933885 0.004797611918212346 0.20341389271571636 0.2517538609897354
35965000.0 0.9519568806272176 -0.3011896986892107 0.013718659116047461 -0.014343812352289332 -0.0027374869989360536 0.001462479824803091 0.22264810657379877 0.25136168784264307
36964000.0 0.9499825947675123 -0.31093841710664216 0.019530375146525628 -0.011264440625524827 -0.0012978275649694509 -0.0009895139778444092 0.21549271842533893 0.25368619918051827
37963000.0 0.9467345671864547 -0.3192887474908511 0.02416787928194095 -0.021828426255310517 0.0034359028174594033 0.0023504709627592793 0.2356729496969422 0.23182224093288062
38962000.0 0.9431511864847532 -0.33068413625906284 0.025477797068837283 -0.024560369897848575 -0.0005511861041801082 0.0032575039508156785 0.2399285357153611 0.23090352387627758
39961000.0 0.9405016910939933 -0.3368376843248671 0.028257679868911843 -0.02653124188209241 0.00041942906547894065 0.0014556704559121416 0.257346138446408 0.2257194573618371
40960000.0 0.9366771400958823 -0.34369781764625573 0.023993058504576403 -0.021248729192024023 -0.0006639652113575115 -0.00031874293549030214 0.2739725191950202 0.21889528266715635
41959000.0 0.9341910344210143 -0.3540945404738621 0.03106007451524782 -0.031284729260571416 -0.002099992252114404 0.00010756689938578863 0.2800267762222639 0.21706258698026737
42958000.0 0.9289935220651206 -0.36449668082582337 0.0350082798643423 -0.042350940567948255 -0.003288805305934464 -0.001620048431330779 0.28935909489361744 0.20378612504129545
43957000.0 0.9292936688290534 -0.36723126759473723 0.03530434123500803 -0.04657534194702291 3.549746003279333e-05 -0.0025369079537602584 0.29536642843768757 0.19963061802480195
44956000.0 0.9257229096630994 -0.3749928075655387 0.03382126668203875 -0.05264149821606919 0.0013037189755465476 0.001035509611061076 0.31096451616471527 0.1913665202156441
45955000.0 0.9216388173410096 -0.38769312214077933 0.037496544766473 -0.059229052571486286 -0.0021019228997973395 0.0004919454447360433 0.31312211403086 0.19014625127476248
46954000.0 0.9174493053536692 -0.39558691036872023 0.03723082283746984 -0.06427805780431559 0.001369345910790515 -0.0005987850544538462 0.3283132352073105 0.17060070022045395
47953000.0 0.9152362932048099 -0.40272327511297257 0.042686161663805705 -0.07579973777040026 0.00029422413526952897 0.002262327466049267 0.34269860613433334 0.1687530525341248
48952000.0 0.907408703811419 -0.41478973656695073 0.038172036927509125 -0.08028232923286967 -0.0018628370006972344 0.00052840784573408 0.3449489712545606 0.16384855649171992
49951000.0 0.906691588834478 -0.4174454962097567 0.04069573741585578 -0.08840685734392846 0.002529119910888021 0.0001603694869573957 0.36389492907069304 0.14780746586568388
50950000.0 0.9008802942538843 -0.42739105595465465 0.04279488674857214 -0.09595421946260042 -0.0027642157469225767 -0.0023873461064883874 0.36208217859688796 0.13880156186272305
51949000.0 0.8977524526307121 -0.4336701882946772 0.043032786910021756 -0.10329273762233558 0.0023509247554775866 -0.0010426958189628697 0.36706734039266453 0.14407822804662673
52948000.0 0.8945640588649366 -0.4449232569332493 0.04845212476164139 -0.11417438153597478 0.0007043313160506427 -0.002440838127270911 0.38127084844809184 0.1413443880338805
53947000.0 0.8907288905192949 -0.4499631309599332 0.048718647051181764 -0.12396504996386028 0.0006651601345444597 0.0005152117440876094 0.37960389125397936 0.12081644161635051
54946000.0 0.8855619629736518 -0.46196126675215154 0.049135194068722764 -0.13276713298097897 6.545060885421823e-05 -0.0035307485285758977 0.38848973014642857 0.12818639854818886
55945000.0 0.8820692900608944 -0.4668215838588334 0.04714047956965528 -0.14389008363852915 0.0011169642359936697 -0.003459325130929453 0.3929808211110443 0.10439227306045878
56944000.0 0.8792595841205963 -0.47550597118551097 0.053072418864092405 -0.15589349611922343 -0.0010357661019421958 -0.0003409806940172255 0.4062103501640552 0.09292298109593582
57943000.0 0.8740841059895262 -0.48645780299784536 0.051317266607846954 -0.16806309535501587 -0.0012347095995630727 -1.8741783503347565e-05 0.4032866124089516 0.09588027148377316
58942000.0 0.865826390525275 -0.4935636919091335 0.05092007366535509 -0.17868266929762608 -0.0032893367896813467 -0.0009534852201360094 0.42050861514249177 0.08966994516644748
59941000.0 0.8669285681698313 -0.4994299553971566 0.056495189164226876 -0.1891522608933296 -1.9699817929273782e-05 0.0003825683675712825 0.4271166976856274 0.080650263560477
60940000.0 0.8576068645077204 -0.5089264042729916 0.0554346685303981 -0.19096659859275103 0.0021240772102813004 -0.0008439669209629068 0.4257985777418616 0.0712307335619103
61939000.0 0.8546361252706158 -0.5139545479781537 0.05767979507416657 -0.2004695556868727 0.0008777647206367478 -0.0016662320033745278 0.4235026827490175 0.06355390612853823
62938000.0 0.8492961973018298 -0.5249562459887978 0.059792443164162414 -0.2201509312459759 0.0017882129515492398 0.00046255482368207524 0.4406130885564317 0.044857175490795896
63937000.0 0.8448597647129212 -0.5322377007261204 0.062075824305830994 -0.23899730376577807 0.003352150054340761 0.0022239632962760946 0.4383018673828846 0.031139295045427753
64936000.0 0.838744240851216 -0.5379813373230687 0.06046393810978038 -0.2546382401057363 -0.0021631195441849434 0.0027821881459680477 0.44031042417589794 0.035125370042902386
65935000.0 0.8337173928303349 -0.5505459515473609 0.0586917228300544 -0.2698857571158583 -0.0007455007436355849 -0.0008498541743356858 0.43668609956084775 0.008657701056479306
66934000.0 0.8293265364910075 -0.5540006550328522 0.058983010304572744 -0.2815753180434156 -0.004916197879829054 -0.0006673018061629408 0.4460757784788036 0.0066397365376479524
67933000.0 0.8272849642968239 -0.5621605132819298 0.059458608362581954 -0.29735483722472905 -0.0016946743292177255 0.0013800494744357723 0.44690284956649523 0.009850966204212335
68932000.0 0.8106275268182158 -0.5572108118249168 0.05437069338236082 -0.312543130985743 -0.0002045279881652697 0.0007344442870457005 0.4548623889373068 -0.015317809599817211
69931000.0 0.8120351679473592 -0.5785548117756035 0.0550832755766146 -0.3306542723596819 -0.0021926659103161127 0.0017765232962833933 0.4545078840878563 -0.02176987377615647
70930000.0 0.8071708435332207 -0.5846822298444421 0.05266589120233847 -0.3457742402242733 0.0013134806959456096 0.0029284049538747603 0.4545157647110471 -0.04121847736079127
71929000.0 0.8039329241518198 -0.5951484987149882 0.05127928904783382 -0.3665220544483493 -0.0014525744285690276 -0.0020252309838552644 0.45681203923269603 -0.0362399716103053
72928000.0 0.7946004505593685 -0.60371880697544 0.0439835783700374 -0.38156448240737345 -0.0003777639069122357 0.0017008897066710129 0.48062172954597976 -0.0512219391788428
73927000.0 0.7913398648462369 -0.6096326949583165 0.042135461375146635 -0.40425172357820993 -0.0015842149824166966 0.0017930765472746737 0.457902236653921 -0.05648633810485968
74926000.0 0.7861818405414546 -0.6184322291406318 0.02961516081794603 -0.42115124072490073 0.002871370198158896 0.004494832408146598 0.4673015928249445 -0.06720193546081685
75925000.0 0.7770480036691184 -0.6241947560808546 0.017867841105088007 -0.44623718560788195 -0.0009480987721844524 0.0009727232129867847 0.47943411522840484 -0.0804809615011937
76924000.0 0.7722753439660384 -0.6318722717322998 0.005243637630318178 -0.4668240119638684 -0.0019749351530093232 -0.0011057622031291545 0.466087016972255 -0.09332630271742723
77923000.0 0.7669101898608472 -0.6373467186701435 -0.005544658640650703 -0.49145614868527043 0.0003701428449154715 -0.0006991166738405552 0.4664566290006746 -0.09222791847009809
78922000.0 0.7606018436146559 -0.6491240663255264 -0.016405198415627792 -0.5232218349163517 -0.0013235885811983187 -0.0021778192601364836 0.47627566697068296 -0.1104006701593387
79921000.0 0.7531817328913161 -0.6515148982884692 -0.03964980597513469 -0.5436014150288556 -0.003546642923178269 -0.0035490381184723136 0.4694168722067655 -0.12244430183808955
80920000.0 0.7477213004138401 -0.6633986287259237 -0.05133325082897372 -0.574714403768837 -0.006160787653786414 -0.0026445163936441936 0.4740915619175934 -0.1297208204859063
81919000.0 0.7416753118040122 -0.6683144242438742 -0.06692846585799075 -0.6093250262494524 0.0012469148802876872 -0.000687402274623923 0.46981027626001676 -0.1332852439000157
82918000.0 0.7334098354282791 -0.6763441231688677 -0.08503640639547808 -0.6364337965565178 0.0008363135752457614 -0.0028115008129423777 0.4756335138567872 -0.14330211584008604
83917000.0 0.7280462694259375 -0.6817763030209946 -0.10260247201077698 -0.6643573502613467 0.000449499152488525 0.001242229641636802 0.48081737026875454 -0.15836211228964897
84916000.0 0.7206838422627682 -0.6912639716355637 -0.1217026977611832 -0.7035690392332867 0.001912064160250188 4.0345047325581416e-05 0.46796772073844645 -0.18811987381418113
85915000.0 0.7141014564186405 -0.6971882233004058 -0.14502992218792785 -0.7342453400398015 0.0007756612671087728 -0.002589797658164092 0.47206229893054275 -0.18389291149038586
86914000.0 0.7087718304098807 -0.7082001621903425 -0.15870916158488557 -0.769364233500637 -0.0013585356895130891 0.00023670626074355462 0.4704918083923948 -0.1771972789566873
87913000.0 0.6997864147018722 -0.7129341848050907 -0.17336564376421992 -0.8000558593274707 0.001282924437608696 0.00098898625365139 0.4615894114056362 -0.18500442030178194
88912000.0 0.6953523990432293 -0.7187771754868302 -0.1932820645994614 -0.8359271149234062 0.0051636445178394755 0.0030433647412997224 0.4603793522359611 -0.20930382292685643
89911000.0 0.6852555807300368 -0.7302491314232014 -0.20577722194399473 -0.8763961058899177 -0.004048149934495158 0.001518053584642797 0.48259228296354834 -0.2083216366535903
90910000.0 0.680701218123181 -0.7333019380955007 -0.2270631858076012 -0.9096250379644916 0.0010949288001524241 -0.003665132784836829 0.46011845818820807 -0.21695318543065054
91909000.0 0.6704277339787186 -0.7397966298065709 -0.25027834967159895 -0.9486374050450788 -0.00018070842429912312 0.0010046180174953705 0.4731911686315447 -0.2234799734810997
92908000.0 0.6627955121165137 -0.7453924189171823 -0.2680509444686703 -0.9807591840331926 0.004340047304950582 -0.0008454248047527318 0.4565555183725917 -0.24091955642399415
93907000.0 0.6563226342686084 -0.7518726220974631 -0.29383540617154147 -1.0105052760277926 0.001912341549230813 -0.00021949368326786502 0.45791129402576086 -0.2692169842276917
94906000.0 0.6434044374307402 -0.7610158630570277 -0.31077379928042376 -1.0506137987908835 0.0029279227266822403 -0.0005385330010339542 0.46001369185305313 -0.25617724862431535
95905000.0 0.6373879721952619 -0.7665652603123965 -0.33416512289691225 -1.0852581061334172 -0.0016835764751158173 0.0007156722948337456 0.4645122604453668 -0.26817542499068725
96904000.0 0.6275361003438175 -0.7750557293861354 -0.35269116854147226 -1.1281788877983185 0.002630722373016913 -0.0011516992004461323 0.44351570687527614 -0.28038641390039587
97903000.0 0.6190875925862606 -0.7790841965087909 -0.37757920354293173 -1.1571626162851467 -0.002878626569499702 0.00040425399964178193 0.4470023959888708 -0.2924172968981294
98902000.0 0.6145285913311672 -0.7863029752846742 -0.40219067307413287 -1.1988034197099107 0.00040406299098464537 -0.0022696948812165356 0.4443398961913962 -0.2977130969534584
99901000.0 0.6034879214670554 -0.7932845882786158 -0.43568673588179113 -1.2289961372846825 0.0006944329753476073 -0.0005470233892347469 0.46260545017958843 -0.32438724511629674
100900000.0 0.5963337217417245 -0.7980133596642751 -0.4642004982912044 -1.2614464168208643 -0.0014027942221303703 -0.004618845074221222 0.4558099590105325 -0.31484074908883164
101899000.0 0.5852652821362321 -0.8067552853443208 -0.4959041301377488 -1.3052941202488895 0.0008214496530563789 0.00010774170270398911 0.4464729113484537 -0.321891152194396
102898000.0 0.5771172460467401 -0.8121823231303588 -0.5337378473800285 -1.3370257821187044 -0.0016099402688511497 -0.00043253647055073707 0.4445088069565974 -0.35233017827887303
103897000.0 0.5692359070516376 -0.8177144405800227 -0.5722505008531462 -1.3793456011490826 -0.0023599544918515357 0.0006538487996056589 0.4552490777059573 -0.3408662922875702
104896000.0 0.5606520831015597 -0.8277792297598932 -0.6146204092324297 -1.4120489305459498 0.00011809572698017407 -0.0005326384344370149 0.43221532304364074 -0.3477100591962811
105895000.0 0.5521061199279255 -0.8317716081053328 -0.6656613754404734 -1.462739903579135 0.0016560345299232047 0.0025492782341482523 0.43911629883672115 -0.36653498035786347
106894000.0 0.5426209467783085 -0.8382133582074507 -0.7210341242612389 -1.5003904957349699 0.0015746337044882886 -0.0016138020166022499 0.4294196516831554 -0.3792418364768285
107893000.0 0.532398026586568 -0.8443021013024473 -0.776266149248423 -1.540397210480474 0.0027686046326100633 -0.003394108877097212 0.43960564727875634 -0.3862224798359433
108892000.0 0.5241672339323827 -0.8491015759799735 -0.8424752187095816 -1.577041545160191 0.00048613213889992326 0.002006729815901629 0.423813003684736 -0.38538907902627695
109891000.0 0.511131796698089 -0.8549835855595027 -0.9001933681238905 -1.6118128162059533 -0.0015711929812954396 -0.0017996192432089486 0.44126589685608403 -0.3818759080968527
110890000.0 0.49332112032368347 -0.862156775446082 -0.974939543909248 -1.6109658876965791 0.003610423203468913 0.0015884090462954658 0.4256154133141677 -0.39995970930758784
111889000.0 0.493607115289761 -0.8615893528586114 -1.028550646952717 -1.6819186564020112 0.0011281227042087996 -0.0036641772481076328 0.4131268951239052 -0.412358844776345
