! Created with skrf 1.9.0 (http://scikit-rf.org).
# Hz S RI R 50.0 
!freq ReS11 ImS11 ReS21 ImS21 ReS12 ImS12 ReS22 ImS22
1000000.0 0.9864501992936752 0.0034063747758460053 -0.02346416255754892 -0.04975129320975404 -0.0266009827433853 0.0014547394654086452 0.37499379320189236 0.34075696940496514
1999000.0 0.9956315071433112 -0.01201674590305912 0.004590966725475298 -0.031688577209448496 -0.00855505927263777 0.001506266933632449 0.22773450336548498 -0.050653706498990946
2998000.0 1.0017475261939242 -0.02114718125054066 0.008610342921619454 -0.011912219835539375 0.0020178781781677512 -0.001971556341820948 0.20976502130575472 -0.1447296660729799
3997000.0 1.002858757109143 -0.03094547598511145 0.011535937730021689 -0.008942520318297413 0.0016721123698290135 0.00416892447814359 0.08630177524181618 -0.22798335731169292
4996000.0 0.9956899990443094 -0.037002179819347406 0.010337529923095364 -0.0006925615096812343 0.0028401453898667167 -0.002213433000481116 -0.04708352633005429 -0.1915943048119309
5995000.0 0.995541112649921 -0.04638336025556278 0.012196280339385478 0.0037458679500910353 0.0028095581850462134 0.0004281063115218316 -0.11836226389429802 -0.10275915843766216
6994000.0 0.9931260671923782 -0.058296882409009286 0.008479549038937308 0.005102573364838315 -0.003666398380291611 -0.0013750583611960077 -0.14777265289844274 -0.021876800521245462
7993000.0 0.9962587589107171 -0.0659375013936496 0.005070962120290951 0.011141164997462084 0.001587060405796142 6.62337609255651e-05 -0.1507285482387091 0.034393642580295945
8992000.0 0.995115355752268 -0.0742013027154995 0.00158313243156791 0.001525386654824893 0.0013990410589465201 0.0016586387851132024 -0.15185247015957676 0.06078797603140647
9991000.0 0.9935394932912649 -0.08243500320238152 -0.0015023308725821206 -0.0007674582858127493 0.003063506830964042 0.00276240786321221 -0.147677126360587 0.10009647919322245
10990000.0 0.9896380884946535 -0.09508030106519605 0.0011689522940409383 0.00022894309733518481 -0.002090187948440806 0.0010661388065316894 -0.13839612830663675 0.11125831528354606
11989000.0 0.990702289826499 -0.09841385592248515 -0.0010128228592425693 -4.754644423830707e-05 -0.00582130624762668 0.0010724294761626928 -0.12024474842071242 0.1296650271825043
12988000.0 0.9900790390571449 -0.11096600479732709 0.0012780536465148448 -0.002037493767826078 0.004978656398446327 0.005922584653671862 -0.10233236152359572 0.17042820720175433
13987000.0 0.9871519802753165 -0.11695961546842308 0.0015108004110143951 -0.004501717704152353 -0.0010078898197411058 0.005542123140317097 -0.08641220647425218 0.19562420687466367
14986000.0 0.9858208477929744 -0.12677137834992983 -0.005652063824281319 -0.00374468874534993 0.0005072975198613718 0.0014044290391356557 -0.09130174753505457 0.1943162597615937
15985000.0 0.9868305982553163 -0.1364503372661813 -0.0014637947837895142 -0.006078881973336101 -0.00037312889437910314 0.0004939072444542882 -0.0663172668658964 0.22052363341983888
16984000.0 0.9854918010512533 -0.14651130478142982 -0.0017745692826252309 -0.005471163835790605 -0.0017147285243890643 -0.0016925663094385702 -0.05999034705208453 0.2118682075574588
17983000.0 0.9860253424190802 -0.1503639405985879 -0.005663450627940715 -0.008668586602778904 -0.0004703742148421451 -0.0008024664951614089 -0.0574849586938914 0.22979619912907956
18982000.0 0.9809598643849425 -0.16228324055759707 -0.004405037851020064 -0.004694050605189565 0.0013506042510536987 0.004291458985931903 -0.02684948413394099 0.24650950054263884
19981000.0 0.9842185934714424 -0.1661220888566466 -0.003493767565149006 -0.005394818086674728 0.004913193354982059 -0.0004953005902723503 -0.026891195887128985 0.24547452191266217
20980000.0 0.9813838222512737 -0.1779067903158293 -0.005836854794775923 -0.010279534035431826 0.0015369876260206623 0.003728805438469453 -0.00785686926085802 0.2660826726181692
21979000.0 0.980493707855366 -0.18520786695234095 -0.007702430473231064 -0.007760902761376506 -0.0019030937938595157 0.00112614874074138 0.01900739896869924 0.24895254045420925
22978000.0 0.9767291964352728 -0.1960196960739055 -0.007181408263650977 -0.0014933251607287203 -0.00011043590284793745 0.0003820645884299681 0.02391123033786443 0.25627470895695037
23977000.0 0.9754745950348247 -0.20321623373058745 -0.008476851659066996 0.0007494735315520587 0.001265433819898295 -0.0018316110302292923 0.04147122614736411 0.25816195752946286
24976000.0 0.9727469602860787 -0.21253017457338635 -0.004484528649375216 -0.0012356560265028868 0.00310810124023539 -0.0025791415730911766 0.0713563617289468 0.27239378169820194
25975000.0 0.9715688437255875 -0.22693118132756704 -0.006838124732510408 -0.0001227041362818397 0.026162068572642385 0.005263828741178577 0.07877948561105917 0.2632859217050295
26974000.0 0.9680213763287172 -0.23158892228182268 -0.005530645017006777 0.000677878227924536 0.0004977444106872877 0.002239384683379469 0.08933267461678425 0.26716399384095857
27973000.0 0.9682345800460223 -0.23489939605733956 -0.0035132949682691486 -0.0006482932561454602 -0.00045107409742435915 0.0019896481441234277 0.1061385424965205 0.25455178615109797
28972000.0 0.9649978453641309 -0.24417489014963162 -0.0007812770134874577 0.002289722328435725 -0.0001885265390901567 -0.0014454963966000357 0.1174188411787464 0.2571316553465176
29971000.0 0.963436943976556 -0.2566215588880141 0.0020487806936001214 -0.0015761190661023694 -0.002165168894669305 -0.0009079582482501608 0.15461705963514985 0.278953193792042
30970000.0 0.961355726146756 -0.2612598367025505 0.0008754649105824973 -0.002863488090533603 -0.00045877057618764816 -0.002726994968640106 0.17020962124627423 0.25040837601845484
31969000.0 0.9596351424837279 -0.2699169741517477 0.0030191604777210987 -0.0028025003403865816 0.0031100783769545818 -3.0499730876733555e-05 0.15763268837891456 0.25242785634401765
32968000.0 0.9586419236465865 -0.27807053233338525 0.009245530735695314 -0.005092001065996872 -0.001449125735337947 0.0032785573481763676 0.1669077762746053 0.24801675620624167
33967000.0 0.9551992127997854 -0.2873982480090484 0.010570617880476446 -0.00922797354359838 0.0030700024900796423 -0.0006531866045019576 0.1910941019678529 0.24737766180093915
34966000.0 0.9497612533126065 -0.29672004094780485 0.014764432077800472 -0.009503688984810917 -0.0032723893666961068 -0.0022948382503423315 0.1962038181400458 0.25698696607467825
35965000.0 0.9491801400360866 -0.30575528546547653 0.01404124153030634 -0.01444491258843751 -8.842968132622004e-05 5.30510492603414e-05 0.20396564712507384 0.25702507895115967
36964000.0 0.947351489103518 -0.3148516917635149 0.01558206879573781 -0.014704310502192685 -0.0007898660882880378 0.000688976854689295 0.21213088815559675 0.249809536527967
37963000.0 0.9420261938955159 -0.3240109721779926 0.0219137306236262 -0.02008633372905936 -0.003830943423996978 -0.002860514175202479 0.22901266741949142 0.23640627561553737
38962000.0 0.9393223693711912 -0.3339775620290851 0.023834561555802863 -0.02282859151158136 0.001333668628932013 0.0024284593612005547 0.2443039522585038 0.24086899035549322
39961000.0 0.9379551535971878 -0.3401563511349977 0.02717850233848242 -0.027559273349765698 -0.0011303992693360277 -0.0008229554398559954 0.259085337539529 0.23483857130596827
40960000.0 0.9341454193705354 -0.3463816777747436 0.023042654437102548 -0.023432603549377054 0.00048400465808199554 6.017060726651007e-05 0.27462377331760174 0.23507098642495733
41959000.0 0.930320447366556 -0.35823500648274353 0.028856717382603144 -0.031860115517690295 -0.001458098026786906 0.0009152793253805811 0.26951712424002844 0.21662619740554256
42958000.0 0.9277913810153751 -0.3651499921807244 0.0319961203470875 -0.03895608065789849 -0.00011810234625439281 -0.0044298707805719584 0.2882090460039835 0.2025883969492669
43957000.0 0.9246901108329627 -0.3739397358502077 0.032823974292674654 -0.04770168043721136 -0.0010298166130371079 -0.0017146987298102192 0.28232949630720106 0.2127852774228568
44956000.0 0.9212084373454644 -0.3778076631045582 0.03412160147704806 -0.05315103019454573 0.002242128466484797 -0.00375694734936205 0.30944009786547466 0.1938392074529956
45955000.0 0.9162732940956804 -0.39170696494197166 0.035209201589702935 -0.06043220680444873 0.0022775659522847966 0.002637839967149836 0.3131824428113052 0.19224188042084775
46954000.0 0.913479134615214 -0.3991288728213479 0.03459946003572062 -0.0666897672517049 0.00050744297076653 -0.0020445905872923894 0.3352545858739628 0.18252210326554347
47953000.0 0.9116775118293744 -0.4058256534542893 0.03530730449249885 -0.07272395071799916 -0.0003242223421164434 0.0029372654332811884 0.3345961563788548 0.17111636021578108
48952000.0 0.9047186892588003 -0.4170492155175913 0.03688569786085385 -0.07730964051007999 -0.000882783851915405 0.0017848382648916398 0.3400632351853552 0.16966801809200757
49951000.0 0.9010193604705031 -0.42413252426844783 0.03900040727696657 -0.08538827524245196 -0.0010580049216488982 -0.001130603158480777 0.35474683143112085 0.1515476283634287
50950000.0 0.898722072531989 -0.43263020540503905 0.03954430059334273 -0.09521649251869842 0.0011153197287528142 7.062355294161051e-05 0.3507004545249445 0.15191676359440162
51949000.0 0.8929209422986228 -0.44237371424457317 0.039891308248802215 -0.10178905207049059 -0.00200258827921962 0.0013757909894792164 0.36398436577884136 0.15238414059400876
52948000.0 0.8923031499131155 -0.4479622952750958 0.04315760627847058 -0.11143435498782463 0.002268143687668496 0.0009956465220220252 0.3782614199506634 0.1461135778663566
53947000.0 0.8845809735194525 -0.45672958140717973 0.043527783012733766 -0.11811577494562853 -0.001775546764914817 0.0007275521766282661 0.3810250891575483 0.14248327493949028
54946000.0 0.8819336781324932 -0.46539818034527375 0.04438719361174515 -0.12655216891240328 0.002396859910452009 0.00124804987919874 0.383936249689513 0.12647307419507092
55945000.0 0.8776167514365993 -0.47179366586874616 0.049107456224637316 -0.138998110779051 0.0003997778431413271 0.0010730853923888205 0.3906736629632096 0.11205970374384591
56944000.0 0.8725588120829367 -0.48228260333689665 0.04831253495919912 -0.14753524598270124 -0.0013406919068407598 0.002903022348283197 0.3995602129521481 0.10654943781003301
57943000.0 0.8685576698718549 -0.492038047671899 0.049117330699808566 -0.15957232873116078 0.00423589341000911 0.00207193835128881 0.4094061141565834 0.09851463608244516
58942000.0 0.8630966336133215 -0.49638181951936156 0.05096257441915168 -0.17116946117629286 -0.002780249985400455 0.0005332554318680412 0.4203999751280431 0.0939903887119887
59941000.0 0.8598789368599639 -0.5069327977726222 0.05398847353752421 -0.18077977343535437 -0.001568888596405652 -0.0006452892920793772 0.42144461605213895 0.09434939775406721
60940000.0 0.8518925327549904 -0.5125686204648969 0.05083985268485264 -0.18460625285420992 0.00024475156912700136 0.001276986334317588 0.40693427234198626 0.07895721637404755
61939000.0 0.8484659422993832 -0.5203916816956433 0.05470620430900721 -0.1915305778072816 -0.0006798803228176469 -0.00014130790040412552 0.4153640587704028 0.07174825194760746
62938000.0 0.8440080969267602 -0.5299567894593565 0.05688617611116243 -0.20871547408960797 0.001485603318681464 -0.002932224592697943 0.4405305120529143 0.06042429660035025
63937000.0 0.83960763751819 -0.5361984216977177 0.06040526276922437 -0.22872714762360621 6.840124558375945e-05 0.0028901097381149026 0.4327566656277656 0.04971420350139651
64936000.0 0.8324477285602361 -0.5450532216076734 0.05744601610141323 -0.24259159571328137 -0.0011384770661541932 -0.004327582492470935 0.4421258547379232 0.05037860534255461
65935000.0 0.8286852149212555 -0.5553254385240357 0.057680163235094416 -0.25699219128878775 -0.0017712111406823494 -0.0033756838290371232 0.4403974375739637 0.021990023317867133
66934000.0 0.8235683044620233 -0.5592076645491799 0.05761878759768382 -0.26860251209959485 -0.0014146762446735541 -0.0017696727152093211 0.4439221280797001 0.018920326246215466
67933000.0 0.8203529158075391 -0.5673250269563901 0.059016051365459864 -0.28464744552029514 0.0005491801796712921 -0.002240827701515939 0.4479697651645097 0.007663716115829135
68932000.0 0.8169124574849107 -0.5720858214009187 0.05431626558886486 -0.299384971324163 -0.00291871020511629 -0.0023389145286115158 0.4621167653351761 0.005333307416022488
69931000.0 0.8041793176186199 -0.5856798480052483 0.056071643693727795 -0.3148814897656635 -0.005401459387088879 -0.0030105659331975164 0.4517036952680571 -0.00793435450570624
70930000.0 0.7993128199460663 -0.5918271812741177 0.05140370518538282 -0.3280274949038636 -0.0028368467826159387 0.00026915086268967703 0.45360270487322896 -0.019835749865591203
71929000.0 0.7970574524899487 -0.5985888099415431 0.050824245108538356 -0.34662521588966555 -0.0030970090445000737 0.002378376082516123 0.4550873501741375 -0.027623833460292214
72928000.0 0.7904107611801091 -0.6084614524049 0.04021260512739016 -0.3595439927367423 -0.0010636699416513471 0.0026663295733941857 0.46943345766729566 -0.03023317898629461
73927000.0 0.7832485596957643 -0.6158768280001373 0.034564706621592695 -0.3831515760297558 -0.003443450652359343 0.0027102248051528895 0.47028284084015964 -0.04494372317019455
74926000.0 0.7780757259523968 -0.6234020333016653 0.03148795714753744 -0.4019391178971323 0.00031232343643999253 0.0009888899312619753 0.45775435137536297 -0.050986937285257036
75925000.0 0.7706385656837991 -0.6299336989690398 0.017984553100902197 -0.42039773210074627 -0.0002442241610535872 -0.0007740348634109909 0.47802367767308374 -0.06698463279484143
76924000.0 0.7666145526771486 -0.6357213827720563 0.010927796576120594 -0.4448977873806532 -0.00021219079858114374 -6.871758695950032e-05 0.47303918304493103 -0.06543337569332823
77923000.0 0.7579626760300942 -0.6433780830035312 -0.008280392912322717 -0.4672674594428522 -0.002001009445440199 -0.0003782531412164439 0.4641282594158874 -0.07056187654519079
78922000.0 0.7534138470322003 -0.6534671955883787 -0.02069604380513707 -0.4978828408698736 -0.0007597815438410853 0.00347840653188187 0.4742020348656821 -0.08932959448719333
79921000.0 0.7456401451271604 -0.6573224355578831 -0.03617822476244605 -0.5176020614296739 0.00037662888638402087 0.0002273293342952737 0.4711467685944609 -0.09615800054076352
80920000.0 0.7405496462169351 -0.6692444041700852 -0.047419183817775094 -0.5474203173726255 -0.004173440521755036 -0.0017105001954612704 0.4802238894116123 -0.11394597839495485
81919000.0 0.7337765458564368 -0.6754889324622547 -0.06458452914141814 -0.5777612420581544 0.00018250746699922664 -0.0006870348128803417 0.4787388906984953 -0.11542749099661731
82918000.0 0.7261121494957802 -0.6816664736948839 -0.07956397305702446 -0.6077698262676267 0.0011035055308280836 -0.0006145735298211512 0.47966240851597536 -0.13461955067765438
83917000.0 0.717902649134763 -0.6878416287019051 -0.09879618029295095 -0.6378299512327112 0.00033463006104415783 0.0018453346044472758 0.4775350632372683 -0.13737348107614578
84916000.0 0.7120775274632744 -0.6966983609839983 -0.11568967271111573 -0.6671447724189967 0.003594840653756482 0.0010701229357530232 0.4751686897018799 -0.14661125703368938
85915000.0 0.7060352348378885 -0.7010734144562948 -0.13493739936596474 -0.6999363820122155 -0.000692200216497644 -0.00042546817415479456 0.47377265014852155 -0.14585124235414187
86914000.0 0.6964981498812144 -0.7125184237000792 -0.1455315986478803 -0.738855804281182 0.004442987468795693 -0.0010416158786829438 0.46633209600210423 -0.1598491216375124
87913000.0 0.6895878657528712 -0.7183828405581525 -0.1632369157747607 -0.765303462875573 0.0026626324922091947 -0.0005968045333673762 0.4764516200976034 -0.1683364937093826
88912000.0 0.6831898153551976 -0.7253287968941609 -0.18065920700544885 -0.798106598652813 -0.003010769599748038 0.0023551450881491437 0.47633741502703425 -0.18612557195442803
89911000.0 0.6750689182660784 -0.7333552015306545 -0.19378033743610637 -0.8350379428529873 0.0012630242078606297 -0.0030702902845584534 0.46834038520580673 -0.19297780119816008
90910000.0 0.6671644765302059 -0.7389393397033184 -0.21202740514455826 -0.8704119425861903 0.000464909438038635 0.0018657297075684893 0.4786804941963248 -0.19400084915268342
91909000.0 0.6595473938000913 -0.7443456536928976 -0.2345011280908013 -0.9048144662355602 0.0015816065374753047 -0.000282431219307247 0.4706508580763049 -0.20079957383679337
92908000.0 0.6506971242174527 -0.7526822263884918 -0.24673563197856718 -0.9348549122918149 0.0030399162437391276 0.0030571099294678613 0.4665982549520369 -0.23082855696103552
93907000.0 0.6459201567547207 -0.7575019656119427 -0.26660187494060106 -0.9644891471049096 0.002481001746335129 -0.002662424484860001 0.46562260477680956 -0.23563934334032377
94906000.0 0.6340836661051639 -0.7665432524643571 -0.28189183081614716 -1.0030625442474266 -0.001559331708334995 -0.0010877236467067661 0.47096563698039984 -0.22871169320488685
95905000.0 0.6258769998830525 -0.7731740146657733 -0.30624065970862796 -1.0329769575775756 0.0007075589038322732 0.0012783514505032144 0.46033935924689984 -0.25683519905603613
96904000.0 0.6182875900527458 -0.7810496415387231 -0.3232002828370181 -1.0789109757450202 0.0006858159965799402 0.0019791270263032797 0.4642366118540067 -0.25073139346183254
97903000.0 0.6072470979081066 -0.7856323863252981 -0.343271360344232 -1.1084959468267894 -0.0026800021382836297 -0.0012274815363565246 0.46025700878657594 -0.267269574865591
98902000.0 0.6044502879159908 -0.7943211936957719 -0.365693568478654 -1.1480247812122122 -0.0028623705164053026 0.0034088945122596036 0.4560530632756392 -0.2658678460079477
99901000.0 0.5935896536397864 -0.7993274307752728 -0.3967884538718511 -1.1826337481545104 0.0006150410881479701 0.0014245091022432115 0.47601753182594714 -0.29861092828349967
100900000.0 0.5854694513357784 -0.8027176890741742 -0.4287920335422232 -1.2044835889586563 0.0027053844166708947 -0.0010623769728934657 0.47891594968862206 -0.303520770725572
101899000.0 0.5772504492264418 -0.8096413669278957 -0.45207708269214913 -1.2489121379366748 0.0009998572340545117 0.0032688825799665647 0.4602745616197029 -0.30755021003210237
102898000.0 0.5655465840284603 -0.8172857469690388 -0.4866596292944052 -1.2841408987003848 -0.0006936564787069907 0.0021346835910759274 0.4560510052912645 -0.31512055761379176
103897000.0 0.5592095216974996 -0.8247014267332473 -0.5269783131417408 -1.3212532045290508 0.00035490102332474445 -0.0018671696340697192 0.4675175992177274 -0.3214785522794522
104896000.0 0.5511548408292021 -0.8327807306101271 -0.571999755524575 -1.355098607548479 -0.0026626840233241215 0.0008796979696091544 0.45136826565649824 -0.3180550531877223
105895000.0 0.5390272789944534 -0.8357789970589329 -0.6168533685829778 -1.3930872964433467 0.000998787004442408 -0.0018361647915459446 0.44739378587157463 -0.3350836353636202
106894000.0 0.5295412395172285 -0.8417564404924723 -0.6713410777015137 -1.4322648856990698 0.00044369388383521394 -0.002740645090603893 0.44428047846722907 -0.3459918862617013
107893000.0 0.5220917938058721 -0.8481133967728411 -0.7205872245147404 -1.4709392806758348 0.0003827497364313874 -0.0003546037341902979 0.4450761896044925 -0.36083002653347157
108892000.0 0.5119509042574193 -0.8507052929416923 -0.7782647553169785 -1.5119646742078348 0.0026116886626201454 0.0017924334754856027 0.43690535302191186 -0.36392934955125367
109891000.0 0.4998810402544305 -0.8588611985735229 -0.8372641815570184 -1.5506316839216385 -0.004601070033662817 0.00045854436833315306 0.4501153501421847 -0.35723281446191146
110890000.0 0.48576305764488087 -0.8587954984031391 -0.8931168339782776 -1.5492751186811908 -0.0009982018926189165 0.004074944896843761 0.43269328237953764 -0.36925925321056174
111889000.0 0.4776977074927927 -0.8667478924682368 -0.9615836326584464 -1.6154008033622451 -0.0017596279385816874 -0.001780531755589538 0.43687027205607076 -0.38272822869975864
