! Created with skrf 1.9.0 (http://scikit-rf.org).
# Hz S RI R 50.0 
!freq ReS11 ImS11 ReS21 ImS21 ReS12 ImS12 ReS22 ImS22
1000000.0 0.9790376063763138 0.01311554212749793 0.01129254061545157 -0.02606088993450486 -0.02104535036766249 -0.003724324115222559 0.3239869064179815 0.30016854496383544
1999000.0 0.9917857598399233 -0.017475124273828746 0.00015371782102872585 -0.026810318436209984 -0.008490641773941857 0.002193516143134913 0.24278959819483933 -0.07204684850032274
2998000.0 0.9990866073173514 -0.020695339760304476 0.009094147957174547 -0.020100607660842446 0.0002379152643903246 -0.006916424217346641 0.1942458558878584 -0.12632902019485998
3997000.0 0.998889610083191 -0.03200309124898415 0.009832126870278048 -0.004669151461503089 0.004117369707611762 -0.007316407345291885 0.07579523428998197 -0.24600485662743884
4996000.0 0.9953818669312912 -0.03498168449370892 0.006833622695963156 -0.00333108200933529 0.0040474278590000735 0.0034862448361797655 -0.06648699593454452 -0.18017749122154486
5995000.0 0.9915859819059127 -0.04936464266382279 0.014724398916758374 -0.00035731788794543377 -0.0019289080941041628 -0.0037153350608255297 -0.1240001808852616 -0.09042317210445781
6994000.0 0.990813335151916 -0.05864213198398314 0.007868124076270104 0.006281065884300111 -0.001084868256546263 -0.002145374543159835 -0.13504451310477097 -0.006922981480239597
7993000.0 0.9923386502245197 -0.06764855115867692 0.0033308179670090273 0.0054013326390391705 0.0005718380938999407 0.00030206388597427944 -0.14885419623148088 0.038004771190993665
8992000.0 0.9936157683244518 -0.07321029182437097 0.0010130577297817985 0.0036427108112269016 -0.0020760342930266637 -0.001755072467557189 -0.1592100456846652 0.07057439255598888
9991000.0 0.9931620646454841 -0.08405223752595495 0.005091039094379063 0.007620374389858021 0.001816244618677725 -0.0029191186140210545 -0.13602192205786243 0.10585937166677686
10990000.0 0.9894615192735257 -0.09328880439756022 0.0015992972414046386 -0.00010020900546614001 0.004466141453065131 0.0011296855975506102 -0.13837562527440106 0.10998045471772945
11989000.0 0.9892478970741937 -0.10132366274116604 0.0021564748331736514 -0.005594711470879322 -0.003380447408626006 0.004767495783020026 -0.12572412509658545 0.14222626188471008
12988000.0 0.9889764166627716 -0.11171216554101866 0.0015954628172789806 -0.0029733681344025027 -0.0025206189915947573 -0.00039210457725947075 -0.10501546264597375 0.16661592988142548
13987000.0 0.9867014730137496 -0.11770457466681959 -0.0013408556408055574 -0.004760258551057907 0.000612606832010547 -0.0045832590837841585 -0.07983782702683406 0.18654336354811266
14986000.0 0.985494362786812 -0.125320905137233 -0.0016636307486597754 -0.003240805451830411 -0.0014935713267743265 -0.002135805587790606 -0.08423047876057707 0.20782079750114996
15985000.0 0.9866445404251828 -0.13470606220649434 0.0026119380873025713 -0.005012116353108553 0.00033869609758746164 -0.0007606039396683563 -0.06419187591520538 0.21540235920371642
16984000.0 0.9835223990531861 -0.14491865360492923 -0.0007342977284439787 -0.006018503132312719 -0.001259841888898617 0.0028950742991806556 -0.05589493364504968 0.2272098807594104
17983000.0 0.9859607246627178 -0.14894911850886683 -0.008301867529081061 0.0017405481874655257 -0.00124605465888097 0.002853135002603457 -0.04213601312361911 0.2280796927554187
18982000.0 0.9814162483907715 -0.16255521599623735 -0.005674218668124019 -0.005633339047413433 0.00025819471321430505 -0.00038829062615286346 -0.014515151701790938 0.2506715169846068
19981000.0 0.981782602873342 -0.16486869713576832 -0.0059258718767302345 -0.003504318880806608 0.0015268853333960115 -0.001129623682320865 -0.006843241551861983 0.2369467646705117
20980000.0 0.9798548457307733 -0.17707831231385313 -0.009584518067203198 -0.0056859677817461705 0.0006855950087440324 -0.00023532760288004885 0.0027129697391389063 0.26019304924191294
21979000.0 0.9773292992483978 -0.18491803395189893 -0.0032617501697566687 -0.002953443318059845 -5.805981487850804e-05 0.001603196766266862 0.018352393045964997 0.242414473531855
22978000.0 0.9755669039293379 -0.19322961791538604 -0.005060955316967165 -0.003370794501250674 -0.001107602875089919 0.0004927453390226491 0.035820654371730154 0.25591623532949426
23977000.0 0.9763825888938129 -0.20349893525523788 -0.005277519195470258 -0.0031740230546016776 0.0017360352657187265 0.003237423593334816 0.046810769558186305 0.2559024081996306
24976000.0 0.9715956117928278 -0.21116657102136363 -0.003359929191647749 -0.004721801451894531 -0.003432727820562728 0.0006196735026154213 0.06603023476323401 0.243194149448033
25975000.0 0.965633974984993 -0.2221166618259018 -0.0043185254181208384 5.597473826608576e-06 -0.022152503335540516 -0.019736930115366633 0.07664203781750428 0.25820314094152735
26974000.0 0.9696901873536932 -0.22861082913974018 -0.00545310116805965 -0.005085521145232461 -0.004493500018300034 0.0025548673938851686 0.10135083359481577 0.2647278597685479
27973000.0 0.9692281742738413 -0.23371961153869017 -0.001258809916022355 -0.003737288837195192 0.0009654290473690404 -0.0006932366034032733 0.11049167118760249 0.254159057747645
28972000.0 0.9632775049284563 -0.2475323711675054 -0.0010250943376816958 -0.0015189971026150528 -0.00047381719982261215 -0.003087499521817171 0.1259277584598967 0.26697736790085025
29971000.0 0.9634765673512014 -0.25320089009548513 0.003850816438250568 0.0002711105412248057 0.0003485240845320696 -0.000404079523700574 0.14786262685977736 0.2735940901465641
30970000.0 0.9609290230284919 -0.2606757738216347 0.001147515565098326 -0.00044136708311004545 0.0006157483777139701 -0.002930906238711606 0.16651592073263294 0.253393685469002
31969000.0 0.957174687690962 -0.26951459844080694 0.00405871525190346 -0.004940576337813861 -0.0006099738438232915 0.0008994503053217775 0.15467580702177713 0.2554389339982493
32968000.0 0.9575124426783154 -0.2774139192492076 0.009683048884365938 -0.007221449314436788 0.00010315340188914496 0.0023710904933626417 0.16542562036512154 0.2479662402683371
33967000.0 0.9564216879098278 -0.28559012533474604 0.009815981226850122 -0.010214334819958959 -0.0004664071113358665 -0.0011416240150554527 0.18631403927957424 0.23940249467440655
34966000.0 0.9524518537629636 -0.29603262897777693 0.014153106278386474 -0.01577267358416757 0.000704102314829844 0.004874760449986363 0.20211131461618065 0.24584943019889074
35965000.0 0.9480660268895821 -0.3047871032012381 0.018675706835454355 -0.015216014537196114 -0.0037524900429798504 0.0034952018734169107 0.2105157580155739 0.2550647564465313
36964000.0 0.946884069364681 -0.3146235519209935 0.0167169102197671 -0.014742738907144982 9.033223651071398e-05 0.0012200533323141953 0.21536501368388772 0.25283758145287427
37963000.0 0.9440555493810445 -0.32196734052983417 0.02242826499331414 -0.020508678804098512 0.0021112112881370307 0.0014096614489099075 0.23234863797732336 0.24140585214133217
38962000.0 0.9399154958453897 -0.33291766722977484 0.025602680694095787 -0.025101917208177046 -0.002691374941073641 0.0017668468074682807 0.24403672063812387 0.23216248633487344
39961000.0 0.9376098748051795 -0.3387474456889903 0.030712307426129456 -0.02772564850572324 0.00014586855781781948 -0.00420702063644806 0.253571134307903 0.23480242271919474
40960000.0 0.9336619353471644 -0.34753927364513404 0.02476338831468898 -0.025498720480367738 -0.00074191828328396 0.000989802826683164 0.2700811796186294 0.22927152580468788
41959000.0 0.9302373436612793 -0.3571790634093872 0.030194609990084897 -0.03324407394945249 -0.0018311638310815452 -0.0007830638769345442 0.2714582633771393 0.21277600327402446
42958000.0 0.925239555787775 -0.3660619357139455 0.034168129066772426 -0.040786625519848796 -0.0007815029607572528 0.002766969145448436 0.28540965178043565 0.19872654234543116
43957000.0 0.9250162825008095 -0.3703859664368813 0.03535000348028668 -0.04966260685942411 0.0013450571147643829 0.0011943762669367275 0.2904127543725883 0.20258470371113094
44956000.0 0.9207396315804455 -0.3785095221749455 0.034594668655651264 -0.05616889078187053 0.003537909873037787 -0.0019267984222439442 0.3020607356856245 0.19345064108981205
45955000.0 0.9166145235676929 -0.39141944372983234 0.037055902878260605 -0.06040646654727387 0.0016522596430445023 -0.0012584706369504432 0.3138317004738192 0.19552518203472163
46954000.0 0.9138554008510036 -0.3992424145308857 0.03873842389201312 -0.0677523370453205 -0.004080126183810335 0.0014059367291188148 0.3188005685894363 0.18306399366082926
47953000.0 0.9093268141832647 -0.4087428285564342 0.04038919323581744 -0.07526344969624896 -0.00042364413939468843 7.711421623497022e-05 0.3354476917800791 0.17709714983425634
48952000.0 0.9046553214876385 -0.4194421640179936 0.040975483224439904 -0.08460613107608482 -0.003961894180831657 -0.0009810087023330936 0.33977922459028903 0.16743552554288446
49951000.0 0.9009195503594187 -0.4236232513143994 0.039387883930109356 -0.09315452410102384 -0.004076185385891471 0.0019447533635771927 0.35028334637264513 0.15535096967506032
50950000.0 0.8977913590493906 -0.43350973619660316 0.045984412303557286 -0.10184966481406038 0.00471041403858337 0.001520374674255236 0.3609507915487485 0.1472457320275597
51949000.0 0.8944231469567883 -0.4398710056788415 0.04367950502898051 -0.10919900472652334 0.0010580273897059962 -0.0015849293550227771 0.364694848736949 0.14572786971864332
52948000.0 0.8903914274701642 -0.4502119730967219 0.04794933779630429 -0.11538535056122119 0.0018615450022403928 -0.005470502439039199 0.3703092226590133 0.14703390076331832
53947000.0 0.884039704396278 -0.4563884293350801 0.048644601591514916 -0.12742873537300284 0.0020759826596146703 0.000154168524943325 0.37058175154665146 0.13190772462072067
54946000.0 0.8791194862638849 -0.46637622233141696 0.04923006284174925 -0.138477338064708 0.00017703469986220125 -0.004054209230643962 0.38520611661108073 0.12556608025820687
55945000.0 0.8777797009873303 -0.4735513056054147 0.05236347090826324 -0.14865352223273914 0.0030670545619910328 0.0012761555664847427 0.392019766092116 0.09716665080207643
56944000.0 0.8713424436698464 -0.48184904493986563 0.05672864280026297 -0.15994737839005105 0.0006897633826486959 -0.00011240919418370023 0.39778791367874106 0.10307657022754717
57943000.0 0.8679531904019722 -0.49155040172401243 0.0547767868385251 -0.172497633923068 0.0032905800777478025 0.0002686423780633183 0.4017016093221245 0.08990834216370178
58942000.0 0.8613317111767038 -0.49881047239548937 0.059001753215493696 -0.1815841365418741 -0.0030578910314308714 -0.0026686438015393965 0.4189768930319829 0.08867323191649425
59941000.0 0.8600936534040475 -0.5056312345564484 0.05952567836488733 -0.19273325196086427 0.002026446278496187 -0.0009011700908091412 0.42531495679371784 0.08833416624114318
60940000.0 0.8507407618059971 -0.5141233631063188 0.05578997078115071 -0.1980168259487015 0.0010729258093262757 -0.0006430873941406072 0.41245409402854777 0.08159991457826327
61939000.0 0.8478767221664091 -0.5198948199091291 0.05874411731979672 -0.20741542421123835 0.0030669001268627174 0.0026678690342573884 0.4238310366181612 0.07537520179087379
62938000.0 0.8418743649917713 -0.5305768604469122 0.06108879033653052 -0.22738036809634515 0.003656538349071059 0.0006996918363263159 0.44369211769875766 0.05444857092892157
63937000.0 0.8366355707319343 -0.5384349062199167 0.06180994500113253 -0.24851641045139652 0.0038807223680317362 0.0006488421839701504 0.43237017879505746 0.038110124441938883
64936000.0 0.8321412514289729 -0.5440920656536198 0.06203690431799981 -0.26131334603804557 7.288204956115578e-05 0.0037258119914922927 0.4342066801648728 0.039490876328588845
65935000.0 0.8268197277829965 -0.5572514963468932 0.05674233609669701 -0.2773037414880829 -0.001402780820702973 -0.0025842681055896458 0.44486181699078825 0.016693941773722125
66934000.0 0.8230547874903794 -0.5604772535849838 0.06129108602855164 -0.29394777095001196 -0.003616354514229487 -0.0002931003329936191 0.434412394019712 0.008641188607619373
67933000.0 0.8190727539591638 -0.569122646115713 0.062197086952068964 -0.30421445421571724 0.002660230532684838 0.001265954033988337 0.4412984879597465 0.020735913434463325
68932000.0 0.8145789496539866 -0.5683511896649885 0.05636627492261617 -0.3171125372081622 -0.0039136917646202685 0.0021986227724745083 0.44996069588965365 -0.01553517480779138
69931000.0 0.8060166549014411 -0.5849689473728423 0.05544737577881708 -0.3406409077600672 2.7026346117748715e-05 0.001851641266352509 0.44892253065156074 -0.02852777949102494
70930000.0 0.8000340177327668 -0.591127275743022 0.05525899514775838 -0.3523529446934565 -0.0006456846781131188 0.0017152610573746372 0.45231278773286476 -0.028245106750097566
71929000.0 0.7943151440271048 -0.6014508344513287 0.04491302639176738 -0.37352453763283394 -0.0008897944599882421 -0.0013048043931498823 0.4513085118682504 -0.044484297684860896
72928000.0 0.7874290778046268 -0.6099911491880476 0.04011770513842196 -0.39095028796817155 -0.001800883504584733 0.0028091927860000297 0.472605353137856 -0.0503666101485143
73927000.0 0.7830679012724481 -0.6154924277737003 0.034428615595286725 -0.4132046336227988 -0.0010344354837963196 0.0006019665892423549 0.45758503471967776 -0.05290663646161326
74926000.0 0.7767578649954875 -0.6258805553407552 0.02674767068644118 -0.43562603893418683 -0.0021475925100190468 0.001130870567045624 0.46297697464862114 -0.06536009802448284
75925000.0 0.7715664849739682 -0.6290442886076588 0.017611541027771606 -0.45388853106752663 -0.0014398549274720666 -0.0016869857214376206 0.47084827024870657 -0.08267869620283722
76924000.0 0.7636976567726873 -0.6372385222786728 0.0029216408681851038 -0.4824503931100868 -0.0023462204114015625 0.0025070154074561812 0.4731844708660422 -0.08219492133473723
77923000.0 0.757183359273016 -0.6442631431100421 -0.01149865434245237 -0.5054901249649917 0.0005401294503704872 0.00041348595617804896 0.46366963971556446 -0.09932183742782197
78922000.0 0.7511118182330516 -0.6538391638772024 -0.02462996631420271 -0.5364751677462446 0.0007892739213442856 -0.0031830510508607645 0.4645660165635758 -0.1110777161596843
79921000.0 0.7413934002628739 -0.6585570735848595 -0.04491986374027635 -0.5618668421206621 -0.00026908238912347007 -0.002642836940412254 0.46801661387800847 -0.11853513405806351
80920000.0 0.7365790666881082 -0.6704467249281448 -0.06055934593108462 -0.592095332194402 -0.0010490911955075787 0.002338815634334925 0.4683560851095358 -0.12315706465269959
81919000.0 0.731455641935302 -0.6736382415132142 -0.07566687586502018 -0.6207810082604232 -0.004208667608578387 0.0015934038255894464 0.47005371655230943 -0.13719317221844965
82918000.0 0.7229382691727485 -0.6828538774573303 -0.09380590584622142 -0.6515899066010536 -0.0003387751926029131 -0.0007861724296525916 0.4665282552093096 -0.14662789452337266
83917000.0 0.7170290365049815 -0.6893644605944943 -0.10787536086048609 -0.6870778557690678 -0.0036862982806867735 -0.0004347305975840067 0.4707095857138497 -0.1542359458300691
84916000.0 0.7110000115837884 -0.6969689982494579 -0.12616170257595724 -0.7229525970989632 -0.0033686350424761468 0.0021614825980103866 0.47224592014855193 -0.1669039508700961
85915000.0 0.7042240159545622 -0.7032735097171147 -0.14357912071588677 -0.7561425579105124 -0.0009870893190368772 0.0005611728752312553 0.47054160751988156 -0.17836518372598895
86914000.0 0.6966670423351534 -0.7142547590187899 -0.16540951806567666 -0.7913107112072226 0.0029472031337817494 -0.0033182826511656657 0.45902437620803244 -0.17181779643513853
87913000.0 0.6872567631395812 -0.7208726892696834 -0.1809682149130521 -0.8242712670645408 -0.0007283769878397449 -0.00112094078452276 0.46426875458879685 -0.18988094459573224
88912000.0 0.6816158956829801 -0.726773269761821 -0.20512641832179182 -0.8584710302528986 0.0005800614094672985 -0.0004565990791480103 0.46539876303669964 -0.2153349488329982
89911000.0 0.6753438153778547 -0.7340622966995936 -0.21360516672685945 -0.8977577502553741 -0.00293449220380082 0.006695301076600828 0.47665187337156867 -0.20875976905614277
90910000.0 0.6670459819859504 -0.7396208791687799 -0.23638271957927873 -0.9357696162273619 0.001825344233154838 0.0014232699165612887 0.47037661441567197 -0.21368459139313317
91909000.0 0.6583459088063454 -0.7447077349127961 -0.2570455649747973 -0.9657580621795437 -0.0011951508303553785 -0.0004846564522110991 0.4761323400617678 -0.22163828887018847
92908000.0 0.6509737516126718 -0.753016183398022 -0.27567254273291725 -1.004041683397242 -0.0008874997568965955 -0.0012388838567067065 0.46071772665839417 -0.23679076561116405
93907000.0 0.6446657362221662 -0.7595580478397502 -0.2972304296302842 -1.0360897015344748 0.0013279043241612607 -0.00493027530696713 0.46825252264412764 -0.24694120977959652
94906000.0 0.6289119189026176 -0.7674177345241816 -0.31734729516280835 -1.0720708519933975 -0.0025231063215467894 -0.003634227833071371 0.4554899045363483 -0.25161135386438427
95905000.0 0.6260772159908997 -0.7748139715280592 -0.3458961629808477 -1.1082209001724912 8.167003043912664e-05 -0.009138118410913545 0.4641155017610729 -0.2679215718042642
96904000.0 0.6157206639972091 -0.7830812838855465 -0.3682712069388946 -1.149695566586551 -0.0018267358479246007 -0.0035198711327131264 0.4518639911986104 -0.27946126835048557
97903000.0 0.6072569519421264 -0.7867949321945065 -0.3864062603603469 -1.184718359026875 -0.0028068387538874675 9.906350012213345e-05 0.45484273288071636 -0.289789350650781
98902000.0 0.6056376852093456 -0.7950826742718431 -0.41572841478990097 -1.2273554397472952 -0.0017715542806471059 0.000910032479212097 0.449879535763945 -0.2887533505482098
99901000.0 0.5920720589785803 -0.7989916057549445 -0.449196026476756 -1.25738238532377 0.0009782335370762622 -0.0007962444165250172 0.45647667762623795 -0.31596510766904573
100900000.0 0.5837932308344602 -0.8038437662611203 -0.4809145638392608 -1.2914501287278939 -0.0013279998183564792 -0.0025951626562597495 0.4632457874285219 -0.3088941171449025
101899000.0 0.5746523556107104 -0.8116418585084568 -0.5106913637951411 -1.3360460802311644 0.0008400895413438502 0.00125421686036693 0.4540592088249622 -0.3293870474779622
102898000.0 0.5625879212886437 -0.8168881544741133 -0.5569821669597865 -1.3723363809900182 6.976996764455276e-05 -0.001612141988301241 0.45334066641381593 -0.3392255532613622
103897000.0 0.555556568594473 -0.8249401391692215 -0.5998271864483625 -1.4105177732781113 -0.0006324452860333113 -5.0209609951611036e-05 0.45631060472212825 -0.33347391990098063
104896000.0 0.549439054515707 -0.834221153230896 -0.6478169684039818 -1.4513136949318965 -0.0025613481335090573 -8.686701598228988e-05 0.4376743090961738 -0.34451927699504276
105895000.0 0.5353753363024661 -0.8372967765470145 -0.7018786058544461 -1.4932944942283886 0.0011568140738288928 -0.00030452103961368807 0.4375364330414096 -0.3493127129226764
106894000.0 0.5255847675630374 -0.843807921585658 -0.7624238633497306 -1.5334290728334556 -0.001746091433500021 -0.0029031595010019415 0.43542101758791113 -0.370751716085992
107893000.0 0.519710374754065 -0.8487760945166807 -0.8131998483371483 -1.5767851668393 -0.0012230115404049855 0.0020087611063091164 0.4369567989902774 -0.3748653941472463
108892000.0 0.5107462834959845 -0.8526840548831902 -0.8775817574201127 -1.6126038051373395 -0.0012098832560190067 0.0005012838554610021 0.43763752355604313 -0.3681523108711037
109891000.0 0.4985813654084715 -0.8612747348369301 -0.9398270904413385 -1.6539865919869388 0.002534464653325047 0.00043344697769156224 0.44225481474754347 -0.3689867807843744
110890000.0 0.49276671330236826 -0.8691778696366937 -1.0110299236952385 -1.6776761516731409 -0.0003247569537019601 -0.001113856843900159 0.43389990971570513 -0.38649524739342256
111889000.0 0.47699271065319293 -0.8665979843091717 -1.0756927793683038 -1.7241070305856578 -0.0019864203476070235 0.00019507745061331973 0.42855784238490996 -0.3989562840041383
