! Created with skrf 1.9.0 (http://scikit-rf.org).
# Hz S RI R 50.0 
!freq ReS11 ImS11 ReS21 ImS21 ReS12 ImS12 ReS22 ImS22
1000000.0 0.9893377531482133 -0.000560738665894972 -0.006331466063638371 -0.050096580773452956 -0.018547706477264808 0.009953544025930109 0.34580710480315857 0.3212979785443059
1999000.0 1.000018710242854 -0.010295667635413428 0.0021686570981035904 -0.01857728598397637 -0.002796171116084356 0.002715398478340806 0.23856434514527486 -0.0415643194440396
2998000.0 0.9971531936495763 -0.01988564325589036 0.011459864507991606 -0.017481873203649387 -0.007800232246692706 -0.003279089364633917 0.18967732194685194 -0.1399982620037487
3997000.0 0.9950022165975124 -0.029797998251511255 0.012190680084519723 -0.009146976650374384 0.0037713312059564474 -0.00036536089986216423 0.10526007037615737 -0.2136998079419034
4996000.0 0.9958375253318935 -0.03836438179940455 0.012784059211667803 -0.0003584689937784821 -2.2493644873609193e-05 -0.00023068541711183208 -0.05487026860052676 -0.19805500121195135
5995000.0 0.9962899423854656 -0.0473136114459217 0.012312193984062664 0.005376281828030516 0.0013002158117262923 0.0011751606994521806 -0.11776422415731357 -0.10426398815327372
6994000.0 0.9927713677318356 -0.05965771876312786 0.0038076625476625462 0.005100918781987022 -0.0005553704354150438 -0.0005296284380024404 -0.15500330754424904 -0.01777894129561563
7993000.0 0.9970253678351518 -0.06563000835799324 0.004331559673899192 0.006478964401094539 -0.0015237675023226374 0.000503145795326197 -0.15866052891195132 0.030849311833975566
8992000.0 0.9936297151365547 -0.0724906593859469 0.00317690430846952 0.007743201424251329 0.0019631445418217836 0.0027191615224026943 -0.15924539937647936 0.0577513987009457
9991000.0 0.9923127408921255 -0.08539414183401166 0.0030140687667539866 0.009017991583178491 -0.0006659111867354241 -0.0008330334802243058 -0.14010951042956488 0.09230307933946544
10990000.0 0.9920273396119894 -0.09312732997009275 0.0031317818372266783 0.0012015444016003293 -0.001399466185788288 0.0018843031642851904 -0.1447077142950336 0.12028199725439769
11989000.0 0.9895503802511774 -0.09944232387545315 0.0025380045664481063 0.0028398789933179484 0.002723545658887985 0.0033023089074846424 -0.1271210272419718 0.13171575426632098
12988000.0 0.989636102573281 -0.1095978281744957 -0.0012510367534111922 -0.005744184644848596 0.0008264324001042267 0.003152515400910671 -0.11749185690119557 0.17029692164836388
13987000.0 0.9882193733747131 -0.12013733492919366 0.001598010554032755 -0.005113109757711048 0.001035266837538376 0.00328249636118508 -0.10107664762733756 0.19931889954898666
14986000.0 0.9857987106384386 -0.12709891452562508 -0.002015239966161817 0.0022561817729926195 -0.00042619003761886837 -0.0021563383310274913 -0.10087588718135743 0.20253826535591749
15985000.0 0.9882072890272213 -0.1326205891649935 -0.0018787827799350964 -0.0036043510649102083 0.000929907564844995 -0.0034034045144344873 -0.08183926451261211 0.22060276334686904
16984000.0 0.985399536838679 -0.14662753005870652 -0.0026839704113518384 -0.0028885455938565075 -0.0009143797673750935 -0.00443043400458861 -0.07270719283332887 0.21824366702137574
17983000.0 0.9870830236385414 -0.14894688045942686 -0.005979906129451481 -0.0034730298501234624 0.001170542625086852 0.0016155474606011368 -0.07010586087831745 0.22463549610902991
18982000.0 0.9822205781295645 -0.16172856330538513 0.00017130207460123369 -0.003973506021624677 -0.0009948375736510812 -6.094856815044315e-05 -0.024194865940873528 0.23549978562857157
19981000.0 0.9830562915480995 -0.168631561757276 0.001124693768454661 -0.003367087593781791 0.001973931337216334 -0.002142644160133767 -0.019212744229140682 0.24135144583454565
20980000.0 0.9801775281436292 -0.17648358459427596 -0.0065196391934771395 -0.001034414592596584 0.0013748338225255028 -0.00048584408171749305 -0.020845393769460475 0.2617273374015144
21979000.0 0.9781502786685295 -0.1851649059667575 -0.007011392297941603 -0.0044171894338329186 -0.0006110399890090303 0.00032914574216271446 0.011560966843104942 0.25363974575042975
22978000.0 0.975697438429601 -0.19402183110906626 -0.003228307923784997 -0.0050955706082171995 -0.001487273014411062 -0.0022900790531343307 0.03175658943255934 0.2514191660382554
23977000.0 0.9762774811039654 -0.2036465440372034 -0.0056008636429611715 -0.003756926556715703 0.001940464475875292 -0.002507760006632618 0.039158639395925524 0.24830235242747875
24976000.0 0.970748932017568 -0.2116484489708135 -0.00568586036663536 -0.002063967509222275 0.0022828324607083485 0.00485565476414214 0.07164036164499615 0.2638869931098048
25975000.0 0.9672554188291443 -0.21854938613424804 -0.009977901246832795 -0.00035483673465054274 -0.027912985398160724 -0.0008830496850197262 0.06372985990986076 0.2529451809025614
26974000.0 0.9676667582668441 -0.2307577117006861 -0.0074340030090966685 0.0011498236936338026 0.0025554885753311784 -0.0017367707935855626 0.08810813849896623 0.26386063909976604
27973000.0 0.9675496035384503 -0.23767332489277754 -0.00010522078337326494 -0.0018604125825223063 -2.3213406138737627e-05 -0.0029036618182158263 0.10519229019063506 0.26189950257006833
28972000.0 0.9644543422279307 -0.24784993686238782 -0.00025125598773654184 -0.0007470583890048588 -0.0006146958422323881 0.0012728969149712066 0.11852433531880756 0.2613145563382087
29971000.0 0.962394257725999 -0.2560307540277606 -0.0017613184330713704 -0.0010121134261153796 0.0025216145926883382 0.0006687364763987587 0.15225976145455553 0.25944136050329725
30970000.0 0.9617714441853151 -0.25992857733172275 0.00015781695957022948 -0.0006814062867929885 0.0031944638612803485 7.716229509689366e-06 0.16347510545339952 0.2526195643947632
31969000.0 0.9596464561572251 -0.27016972106229653 0.00369196493079702 -0.0036340202915730885 0.0005193071223771553 -0.000877229774270321 0.14497668920715182 0.25470763746604247
32968000.0 0.9580498709665944 -0.27745417884380785 0.009972222252095124 -0.010464587817645702 9.652845864173767e-05 0.00511638538127468 0.16402775117420249 0.24627148963031412
33967000.0 0.9551851048814399 -0.28617553750911806 0.009273898737027943 -0.008625796967489528 -0.002608573583447162 -6.349185230028515e-05 0.1924785513783963 0.24010719573405967
34966000.0 0.9511307311591105 -0.29663496199661965 0.012936635457345089 -0.013481217263057583 -0.0016199113543249688 0.0026929735862479317 0.19427541990445316 0.2463988190108638
35965000.0 0.9480648160352964 -0.30625402124047263 0.0161386786541949 -0.015260274423044754 0.001126682974239795 -0.0015446854568351995 0.20982494454033032 0.24573886245493876
36964000.0 0.9462953236650914 -0.3146630424415617 0.020351332796727063 -0.012921765779368603 -0.0011703501678405608 -0.002613767737947573 0.21313113878520482 0.24395227465248553
37963000.0 0.9425999694014018 -0.3219385842633286 0.019303103928080725 -0.01984782589584347 0.0028748813272365505 3.0222799652903352e-05 0.22803991983118777 0.23126246942464632
38962000.0 0.9396591221030048 -0.33324812827772987 0.026139374464084587 -0.022788687153198685 -0.00031502340781188934 0.00309774474382761 0.23783729384618335 0.23538343642007656
39961000.0 0.9371950677594904 -0.33940665818496296 0.027650370270673585 -0.027053566058371125 -0.0018035507651487945 -0.00048756340840468886 0.2477270703420421 0.22097981889925813
40960000.0 0.9324644130462909 -0.3477041412857146 0.02672027702276365 -0.025723544665476585 0.001258414994705716 -0.0017307180212847535 0.258417984161014 0.22580002300079133
41959000.0 0.9318438413559945 -0.3576175530408207 0.03009588405779744 -0.03017597561819028 0.00020702552270195312 0.00031662032198831317 0.26811295315012584 0.20648268304658973
42958000.0 0.9263633231208668 -0.36610750962178373 0.03272914997445449 -0.04124151044141892 0.0001169453204125682 -0.0017506077106918504 0.2741466965212755 0.20308710731228527
43957000.0 0.9234117191286042 -0.37306165632634486 0.03092468289021269 -0.045051757883902664 -0.0009817452705651185 -0.002471588861951563 0.28355265833638554 0.21346965425645156
44956000.0 0.9198408698333043 -0.38053001798584835 0.035474877963364994 -0.051638313945019165 0.0007427368895113715 -0.0019270644298349166 0.30031911612384654 0.18908245939692972
45955000.0 0.9157335330242659 -0.3918058536965673 0.034896206591962915 -0.05903703482172054 7.404808576330797e-05 -0.0017447400734666896 0.3096923402707092 0.19422679761209904
46954000.0 0.9124734565503778 -0.39963899989366136 0.03921115975636652 -0.06593851988459175 0.004066350401002266 0.0011579820258038184 0.3260933152113164 0.17599556974109612
47953000.0 0.9102871911609998 -0.4069413830089261 0.03964530647476894 -0.07049067500465324 -0.004804265606019733 0.0022587283066397897 0.3364625393157513 0.17513066859118792
48952000.0 0.9055307344053032 -0.4164522367239636 0.037838695346675624 -0.0788219384046819 0.00041626336320859595 -0.0041896121788163486 0.32619535341672184 0.160043723195694
49951000.0 0.900122348441758 -0.42565288160153986 0.0396677442693363 -0.08799449638399288 0.0007507944276873743 -0.00023078307744197403 0.3467305640292351 0.15369239570313326
50950000.0 0.8971664408664477 -0.43419298597862094 0.0410077785711311 -0.0954033011334046 4.1984822826666364e-05 -0.0006017458440855859 0.34827522099871994 0.13790638878345254
51949000.0 0.8941202045293233 -0.4409017291556487 0.04283595145454799 -0.10339988883467723 0.0007164946824464055 -0.002341084562088056 0.3571744042187233 0.14917588179058988
52948000.0 0.8908408915147638 -0.4496611926753086 0.04375942544017438 -0.11315806505236742 0.0015353716077663438 0.0013455663186052898 0.37404522142417096 0.13977887890072271
53947000.0 0.8864289230194012 -0.4564734903186212 0.04678898153375383 -0.11935987640712453 0.0024642856703499753 -0.00015535576756842216 0.3612827390724156 0.13507996168689437
54946000.0 0.8789869459252554 -0.46835324283172447 0.045489909417724836 -0.130689035129873 -0.0003057777698277685 -0.0022381064808929796 0.38738335362247883 0.11346616482022971
55945000.0 0.8760979709037385 -0.47608859016295707 0.048458447691961004 -0.14083441139837052 -0.001175942853095794 0.0015305181188907644 0.3801728570804526 0.1101873111293935
56944000.0 0.8722614014489897 -0.4825531341388681 0.05061030064991997 -0.15090773113026618 -0.0024811514461214484 -0.0035048574837801103 0.3988350633843963 0.09719948147086276
57943000.0 0.8674458926052079 -0.49254274689853483 0.053205089729015366 -0.16083315788657332 0.0022280400719349174 -0.00034429592118009146 0.3891037655091398 0.10193479019558728
58942000.0 0.8605636396237198 -0.5004071749631258 0.052309892506104294 -0.17400607605543494 -0.0016077813251767364 0.0011753134502816415 0.41418306852964093 0.0886584829929476
59941000.0 0.8591082087689689 -0.5071832457906844 0.05605859130602331 -0.18391621942796196 0.0033005684146086927 0.0022364420078525315 0.41194955601345573 0.08292279935070145
60940000.0 0.8503428069175645 -0.5146692393805536 0.05592764243723711 -0.18812416750290897 -0.001117531999954455 -0.0012140700602015504 0.41231299020349055 0.08104474649510808
61939000.0 0.847807838452718 -0.5207078340750501 0.055439105534348304 -0.19659738648769312 5.1730002907042385e-05 0.002138588430526135 0.4128224003417334 0.06572051317739075
62938000.0 0.8418588355334878 -0.5315379508879869 0.06027165196881362 -0.2148707361617915 -0.0013546839426826847 0.0014454116307258968 0.4351242951284035 0.05931240032590186
63937000.0 0.836008911832186 -0.5409850941783555 0.05931648731368776 -0.23505370436937412 0.003330714544909669 0.003915988223874936 0.42612892963559024 0.04127669706536795
64936000.0 0.8308243474023803 -0.544681991737756 0.05752091916006145 -0.25031636571191596 -0.002156447020667299 0.0025471812812313003 0.43665590063444193 0.04461183784977248
65935000.0 0.8265126781112736 -0.5558106568349783 0.05813352225976427 -0.2616332185462762 0.001987238860754775 -0.0003505062640339902 0.4331825515739222 0.023480884950918903
66934000.0 0.8220006799665945 -0.5609318273725037 0.05854868751264091 -0.27399615573244296 0.003486633515994011 -0.0016153755565029581 0.4338787047909358 0.016411567173943428
67933000.0 0.8194992607242394 -0.5701086161859202 0.06104284399028937 -0.2902489172827819 0.001473520454939659 0.0013476076914571318 0.43439236147307636 0.005456264906888707
68932000.0 0.8021724158069474 -0.5752992888944377 0.05267029569352337 -0.3019938381957434 0.0003987300816981474 0.0006005559261092915 0.44909253200290894 -0.0066724347712252465
69931000.0 0.8056174206769371 -0.5850372777027452 0.05259935470319617 -0.3242331113451668 -0.0019525175966348888 0.00014248823450417798 0.442993420910293 -0.02171876930113652
70930000.0 0.7961362108543161 -0.593613733170428 0.05656450753608697 -0.3365038395043955 -0.002368700988710733 -0.00011654983926580906 0.4441678783298577 -0.033289626555471186
71929000.0 0.7943572455756612 -0.6022757789704384 0.046083568010495256 -0.3547687168574366 0.001382091695729618 0.0004458595593011652 0.44970966612250235 -0.03816195079693205
72928000.0 0.7894503918225053 -0.610656703574351 0.044283518364068596 -0.3724876097033957 -0.0019310225148126805 -0.0009520959796341498 0.4654825658450734 -0.049599304458600536
73927000.0 0.7805551659056732 -0.6161383426106243 0.03583675400627724 -0.39290094482364274 0.0018990856236112642 -0.002861205691293972 0.45510425999467213 -0.06153726953247041
74926000.0 0.7757435688834812 -0.6260265018966207 0.027064264206957917 -0.41491478023658795 0.0018602481868232469 -0.0010701932819452862 0.45797238632326515 -0.05932193973045724
75925000.0 0.7684663339459028 -0.6317633563896725 0.01640700497990912 -0.4321470230655642 -0.00011176440665282262 -0.0021552874685901047 0.4669391508864341 -0.07826363665493678
76924000.0 0.7631256843553492 -0.6394105387504806 0.008615674468611282 -0.456305327532674 0.002114793702185989 -0.0030090333942471427 0.4615685029067092 -0.08807354952231207
77923000.0 0.7575753354362011 -0.6451145447118112 -0.0043099170226596 -0.4859530449091844 0.0009961772386643916 -0.0004391413687003167 0.459044486424284 -0.091819383293863
78922000.0 0.7516335622019178 -0.6555138648149678 -0.01632236192021713 -0.5078940634989795 0.0008024301925261562 -0.0030706255313174284 0.4546227444576392 -0.1077054309067286
79921000.0 0.742068918821991 -0.6584701444396408 -0.034526102469853354 -0.5344144338253329 0.0008529450137860824 0.0011853743394107446 0.45673132807499867 -0.11697745105296115
80920000.0 0.7377657325281206 -0.6699605344468028 -0.04827538590045025 -0.562985249697683 1.7393595588360153e-05 -0.0017625578520699707 0.4678219706410296 -0.12777348130791308
81919000.0 0.7317330480741476 -0.6755581120385701 -0.06608401319336944 -0.5931191328175635 -0.0017707160929881628 -0.0012718371092764733 0.47138939217927844 -0.125762467751116
82918000.0 0.7243628244971656 -0.6836915976538607 -0.07792221590200404 -0.6245919497199123 0.002853178603916812 -0.0018519582370699703 0.46839099728031325 -0.14849460097509798
83917000.0 0.7170099314830096 -0.689919520949893 -0.09997340128635368 -0.655409920252385 0.0038107931733793623 0.0026243372023665805 0.4711444209938484 -0.1496486962969318
84916000.0 0.7106533244874854 -0.697709314436811 -0.11442857514003883 -0.6919364170380257 0.0012195041158327186 0.0014748713116970779 0.4653313792798408 -0.1603524510742537
85915000.0 0.7041839775233383 -0.7046764369867994 -0.13910738834075886 -0.7199395116910957 -0.002965630636506974 0.0006335391240264788 0.46554136219247755 -0.17708751919029322
86914000.0 0.6949354531320361 -0.7134156304043049 -0.14768612680975243 -0.7570286898638214 -0.0008033292596329518 -0.0018659836142510934 0.45718503395780474 -0.16620517992529862
87913000.0 0.6890309697200714 -0.720031632785406 -0.1655548156397299 -0.7912003718265653 0.0010978074966989306 0.0005272007864520192 0.4568086688260413 -0.1736595480340199
88912000.0 0.6817193092533168 -0.7262141153703779 -0.18240763490100262 -0.8203553949324783 -0.00433419048862784 -0.0006020323408364068 0.4615194844575753 -0.1998913314554034
89911000.0 0.6741732539346766 -0.7367615089750075 -0.20102261491428808 -0.8585434389534533 -0.001205215056154378 0.005601957855462659 0.4691895001388319 -0.20850361727431252
90910000.0 0.6670340611211174 -0.7415298154938001 -0.2165730806371725 -0.894130479288859 0.0032891466461324966 0.0027406091937259773 0.46338025333173866 -0.21673418277284673
91909000.0 0.6571724172294989 -0.7464324791022543 -0.24006382952418298 -0.925963604888542 0.0023512726173795487 0.0005668445591916065 0.47051512016554486 -0.22228153504194367
92908000.0 0.64872994147392 -0.753765385681277 -0.25445875422803127 -0.9627715122409463 0.0032077912442274505 -0.00065088623321031 0.45487536276520735 -0.22992296114833985
93907000.0 0.6438682233778699 -0.7588433792010216 -0.27875406546513715 -0.992654581283267 0.001377341456562592 0.0034382368167760113 0.4685024902706151 -0.25128952303713764
94906000.0 0.6306470368360475 -0.7682472945021758 -0.2912876898935799 -1.0280144528757666 0.0005507784344662387 -0.0002576229593047157 0.45806650208194294 -0.2546497565842414
95905000.0 0.6238730779054884 -0.7744677587315901 -0.31835918934615215 -1.061401881771396 0.0012143962729698854 0.003369403389829845 0.45647416957265247 -0.271351678855977
96904000.0 0.6152628626569623 -0.7811534740056911 -0.33469639482442265 -1.1032331329925393 -0.0002917380660956786 0.0029362814965892426 0.4531941882803969 -0.2712701968257334
97903000.0 0.606273486604868 -0.7888727040612934 -0.36245549023661455 -1.1352594090331667 -0.0017790089335511976 0.00035030226092052383 0.4521743181537394 -0.2860524432603239
98902000.0 0.6010282158541793 -0.7956741987969335 -0.3845411531478568 -1.1759428544468973 0.0020506615874951156 -0.004316056425716885 0.4381267233498038 -0.2841670426259253
99901000.0 0.5917218775872612 -0.8003425754041867 -0.41212976566488485 -1.2092381703709187 -0.0003412146812430699 -0.0022011955080374367 0.4722820650080894 -0.30835321074977445
100900000.0 0.5820268620930082 -0.8030706314286225 -0.4464595781223048 -1.2352447217972047 0.001031378219073525 -0.0009016832296126639 0.459316804089231 -0.30824595133311167
101899000.0 0.5742219403676362 -0.8111278043104101 -0.47625780389397937 -1.278165198685242 0.00029748838977793274 0.00021161112795014533 0.4488494010472895 -0.31910573078603505
102898000.0 0.5637606518406445 -0.8165786838738883 -0.5117574538057509 -1.3174210193401559 -0.003006145932551055 0.0006550760364314596 0.45226056387374614 -0.3390225052302593
103897000.0 0.5563837135745388 -0.8263926350149823 -0.5538081127798511 -1.3576840886849266 0.00033803173888020515 0.002788720597222609 0.45656059648957453 -0.33575759175048286
104896000.0 0.5484915507025185 -0.834807025677759 -0.6017586565994124 -1.390196203019081 0.0034608965511609534 -0.000559012740991847 0.44195320647950564 -0.339524520826528
105895000.0 0.5338980608357571 -0.8364698096822253 -0.6507565494992585 -1.4327280018830577 -0.0014473173113188924 -0.0016594674055722372 0.43005233107892465 -0.355677470719728
106894000.0 0.5259644310860597 -0.8430994354465655 -0.7025031502053282 -1.4742021715109463 -0.00046014800928046394 -0.0020489676690517173 0.42446600946849705 -0.3668740921868015
107893000.0 0.5172665252092316 -0.8498528918059686 -0.7545450799433977 -1.5119048451255823 0.0010562057603466268 -0.003238337642179951 0.42610490952588925 -0.37297943018876223
108892000.0 0.509002878864447 -0.8513056988730341 -0.8180862066783331 -1.5539212929047133 0.0011664725014003876 0.0022545228888562483 0.4349124716314094 -0.36269443912398014
109891000.0 0.49650272683920954 -0.8607843149164772 -0.8746727793853107 -1.5912562209469523 -0.0019801707078662004 -0.0020503265503350123 0.4438318492668342 -0.36677014772386
110890000.0 0.48137047253832904 -0.8753552846663039 -0.9652391230042476 -1.6012339285757065 0.0018975587220721824 0.001336717935687176 0.4338532323384415 -0.3882865693138076
111889000.0 0.4744231681308946 -0.8667768228567518 -1.007684678498536 -1.6597629242814478 -0.0018192402260265984 -0.0019848298801173597 0.4219035209624208 -0.39255729405210665
