! Created with skrf 1.9.0 (http://scikit-rf.org).
# Hz S RI R 50.0 
!freq ReS11 ImS11 ReS21 ImS21 ReS12 ImS12 ReS22 ImS22
1000000.0 0.9709415478886848 -0.0075735466265407945 -0.004161068116213798 -0.03965458936748467 -0.0038351489643504546 0.010942516881213464 0.38351289939252736 0.32940854895484595
1999000.0 0.9950689494590023 -0.014320728457642602 0.008197804329832142 -0.02067549465020572 -0.0025439111365042344 0.002003393874421536 0.26929145436710106 -0.06857088059702543
2998000.0 0.9976291880550886 -0.02059845274370673 0.009055507229033965 -0.017705326167879926 -0.007214653691632666 -0.002324854065164339 0.17569177797634822 -0.14393460254403578
3997000.0 0.9987733787944945 -0.033750068632217245 0.01021397602469545 -0.0049543972764955506 0.0034364205912167404 -0.0013931910602503832 0.09716808720053101 -0.2400237681425529
4996000.0 0.9988317468043723 -0.03695511579763372 0.00794817216890828 -0.0012330834294125696 0.004400451564303218 -0.007324452973452785 -0.06482927628491039 -0.20169533113551427
5995000.0 0.994254536797629 -0.04703537560530483 0.01057412591981522 0.0022473702597462426 -0.007072802610194278 -0.0031727834269343063 -0.13321947054851094 -0.11662564827590209
6994000.0 0.9986249715700393 -0.05795365215780787 0.005157032244690173 0.0020637548980743403 0.0073849261096023 -0.0005232648293075181 -0.13505068894008504 -0.013319123912945279
7993000.0 0.993865339770615 -0.06662871277940127 0.0031813700161285796 0.010730558296606846 -0.0029983369588591434 0.0012154765027919308 -0.16034892731236072 0.03441268803239961
8992000.0 0.9915302783572773 -0.07270759131033229 0.004375344788079341 0.0014452938171620835 0.004109478333934101 0.0013736333464670282 -0.1606536905861893 0.061030130449450555
9991000.0 0.9923877530796938 -0.08568062119053883 0.0014253125208437175 0.005175389727211481 -0.0008422773746327469 -0.002092489946044608 -0.1451209518299234 0.08614666271526165
10990000.0 0.9950240295933606 -0.0934092823695323 0.002408465423795354 0.0018787183246517462 0.0024509118340716443 -0.003850241053870208 -0.12127737834251497 0.11688706733581129
11989000.0 0.9901588037867703 -0.10297961532532497 0.006493477545916407 -0.003282282727185372 0.002678687245912457 0.0032516084963885084 -0.12775636811990473 0.13577320444701668
12988000.0 0.9904129400469964 -0.1121681354595166 0.0015332758121314946 -0.003908286031808893 -0.0024105560783702486 -0.004491035262234338 -0.1109314621416001 0.16995475122551515
13987000.0 0.986939429136881 -0.12112357260239433 0.0020206282098024293 -0.001941746733910123 0.0016018629344253814 0.0015359742246255654 -0.10236821249079303 0.18216948821204898
14986000.0 0.986791183540735 -0.12725413868034005 0.002861669597679666 -0.004633711633854214 0.0012461887768268174 0.0008111389690274294 -0.09784001995010189 0.2083102797282306
15985000.0 0.9892968762302183 -0.13598806250966383 0.0010833039229432662 -0.0028228805047921758 0.0029694079711146287 -0.0009728391816127183 -0.06392259873089652 0.20653729341670668
16984000.0 0.9853769288312909 -0.147107202736688 -0.0008750207096805802 0.0007550622341019936 -0.00014882779120207679 0.0011824700909058594 -0.06657518371660376 0.2282965275139122
17983000.0 0.9847806996821377 -0.15047329075805888 -0.0027247211551996533 -0.004775229091562776 -6.093858871049869e-05 -0.0036047982001003844 -0.05168960610234011 0.22388621669766748
18982000.0 0.9811084553650931 -0.16358375304143485 -0.00797103993793195 -0.005636605032392621 -1.8691863947376663e-05 0.002195902272175875 -0.013511866753444261 0.23504623929412968
19981000.0 0.982062088135499 -0.1671357701359686 -0.004148553394577922 -0.00666258549486879 0.004562589930060541 0.0030563917219018476 -0.022163954362333458 0.24142696477084824
20980000.0 0.9805938411859241 -0.17914551180042101 -0.003999281796668441 -0.004927492043964805 -0.002975524362405776 0.00036295676063919844 -0.010911666745579697 0.24940871259434047
21979000.0 0.9766247859468681 -0.19099357038977566 -0.006749595484008364 -0.005618563440840897 -0.0006140409667877526 0.0024380337241981217 0.0091744619640885 0.23975539525238945
22978000.0 0.9739178048732497 -0.19686150809863903 -0.01017834770991211 -0.0013791583181516586 0.0005551369625879375 -0.00041667245601988 0.02222690669558287 0.24899373365977678
23977000.0 0.9784521037410092 -0.20145236414793807 -0.0020852591437119958 -0.0028503719894893568 -0.0005040076700993599 -0.0005934276313764086 0.039882379151017174 0.2582830733096045
24976000.0 0.973371409311287 -0.21553719193531104 -0.008858622700570909 -0.003347903280731061 -0.0009907102000540381 0.0009890824133553724 0.06336524762850006 0.24945644723572266
25975000.0 0.9742528621722182 -0.22104876498917803 -0.0038738601266078976 -0.0011921188464148382 0.004189242046543266 0.02807215762415803 0.06975886106140758 0.25943731863713293
26974000.0 0.9684977819833875 -0.22973562531366076 -0.006531429009992423 -0.0016721258306208334 -0.006455957654578846 -0.0010325948917851602 0.08326902348989798 0.26299519749052225
27973000.0 0.9703857655684102 -0.23606310815587112 -0.0016957337013521236 0.0013803559637276999 0.002192643643927291 -0.0006315326823255091 0.09823916767130333 0.2557134510643692
28972000.0 0.965464109406998 -0.2466640383658553 -0.0009479120380435002 -0.0028030839259344732 -0.0017357083127023337 0.0011780523888673278 0.11899095127356953 0.24985777949868002
29971000.0 0.9640985111209026 -0.2572413676597502 0.002651252965921196 -0.002251220006395212 -0.0002829810053985038 -0.0018984142126808499 0.149826127914146 0.26666700731109194
30970000.0 0.9616109812600777 -0.26072928055366223 -0.00038840059838557764 -0.0038526880428166937 -0.00026950835754616494 0.003498525576558898 0.16219477129727947 0.25986902426765524
31969000.0 0.960233339541907 -0.2717640716801922 0.0034732583525774684 -0.0039499639573483255 0.00255692662580369 0.0004836356034455651 0.1430559638513004 0.24841543275645223
32968000.0 0.9573811538547725 -0.2807935689714144 0.0062360610510166035 -0.008637166341861994 -0.0006069944680319213 -0.0033043955960900995 0.15360936832107058 0.24671094921385572
33967000.0 0.9566267102142373 -0.2887849924453932 0.0075110886548338885 -0.010227445009293653 -0.00014901201611181017 -0.004516356498836013 0.1815159824227598 0.2484605703750604
34966000.0 0.9516658829775678 -0.3006325730996663 0.015165840766313816 -0.013151848077392544 0.00032588204309643305 0.0013377422278960526 0.19159171377211376 0.24821117173460275
35965000.0 0.9497985876407666 -0.3069016268458103 0.016230569592702318 -0.01658471458983985 0.0014213404912916544 -0.0015132909470471296 0.21315373268148266 0.25432682510689086
36964000.0 0.9465756819826425 -0.3164229015875674 0.016371000792153766 -0.013700238375783862 -0.0010935072548973407 -0.002346738108074031 0.2056844138404406 0.25120719846993705
37963000.0 0.9430859550081787 -0.324825853386567 0.021339523967330944 -0.02348919268233177 0.0018361432149229396 0.0018430504432305841 0.22873948046442416 0.2390115323951238
38962000.0 0.9398802043566177 -0.3350237193447094 0.02380217824376551 -0.02247308183365192 0.002942422751154111 0.0009420566484913078 0.2411710201744605 0.22924935574175553
39961000.0 0.9376450461216489 -0.3430081390572694 0.022978867166747293 -0.02719754185497254 -0.0011659812993575775 -0.0007347232828578493 0.2494232625041204 0.2266277215320329
40960000.0 0.9335177044793935 -0.34945968882336553 0.020986213291589614 -0.02580970531098539 0.002367581316907791 0.0010961996414491158 0.2633054148881108 0.22387492017552976
41959000.0 0.932136283812823 -0.3587924174625495 0.026605987578133063 -0.030634769102479448 -0.0007837310771700667 0.006283216541502755 0.2707388577818916 0.20958691255886341
42958000.0 0.9271097410481351 -0.36754025742857055 0.03342462471288119 -0.03904106328499586 -0.00036149072786225816 -0.0032594399326794803 0.27382839311748425 0.20154581047418596
43957000.0 0.9242270511930853 -0.3749941934216237 0.030414655409748165 -0.044610753327042986 0.0017420770523159154 0.00233879437916083 0.27986168955395974 0.20539607422977457
44956000.0 0.9200007073876936 -0.38134959101871774 0.031103281920514727 -0.05147097035196618 0.0025913928549145364 -0.0011707068935894627 0.30338566605731837 0.20020205905274122
45955000.0 0.9163247763464121 -0.39267766292685646 0.03460039551155823 -0.05598847191032937 -0.0018277751402259131 -0.002865643876438966 0.29816324583316106 0.1996167727001766
46954000.0 0.9117610938891564 -0.40049461513364815 0.03255051046042248 -0.06387187690467477 -0.001605758516340955 -0.0031430682437386718 0.3255000041527996 0.17383689074971231
47953000.0 0.9114506117613954 -0.4076990824919502 0.03344466347298704 -0.07172634491787969 -0.0014571185967886915 -0.0007907583672605399 0.33478145364229134 0.17533110800469598
48952000.0 0.9036611212378026 -0.4210950862373453 0.037923373122931744 -0.07888880068259942 0.0011079315179453608 -0.0012266418729781274 0.3291133616873642 0.1693346678587766
49951000.0 0.8999561554873263 -0.4245247336050884 0.034325269827557355 -0.08435597348466427 -0.003101258318927135 -0.0006911674582800041 0.3562155866976054 0.16105631985948504
50950000.0 0.8971775890547102 -0.4319625259996259 0.037508382067764454 -0.09338165024558415 0.0018892526181025998 0.0009696000195552145 0.35630191314957166 0.14521885718444108
51949000.0 0.8938153512582883 -0.44245697655819893 0.03934484962316987 -0.10292153200871114 -0.0009758642578591038 -0.0008660220369003901 0.35641236500259904 0.1523820803547915
52948000.0 0.8918628253630153 -0.44862269991664455 0.04069165096873811 -0.11077852627512426 0.0011799557198887399 0.002319946259205554 0.3700813145749075 0.1416571899746298
53947000.0 0.8846683108653597 -0.45925017284333314 0.044760483019407715 -0.11936908603771461 0.00043076452024892547 0.0028833017331482517 0.362942096751999 0.13475825204885453
54946000.0 0.8787631199813667 -0.4674397358821929 0.04243251254445351 -0.1273155458606874 -0.0031302067676649437 -0.0024584501912921857 0.3854256093988032 0.12993804182209762
55945000.0 0.8772619495534888 -0.4746361168575481 0.04701023982908543 -0.1401697330732347 0.000437533132085005 0.004215964787299923 0.3825647127926616 0.10878344621709844
56944000.0 0.8725592945246484 -0.48384652685396845 0.048000997213088266 -0.14895254992778437 0.0009521047498177481 0.0009575824161702652 0.3994536896574828 0.1145298921923156
57943000.0 0.8682705950086927 -0.49504918898756994 0.04491381118009727 -0.15992271551373985 -0.001219427859324969 0.0008238519827360518 0.38776300849095907 0.1056968643652707
58942000.0 0.8634573878577247 -0.4982454346553659 0.04927805899203459 -0.1700083937640361 -0.00023248395992508887 0.0009485667647912558 0.416198012749752 0.09147704304904733
59941000.0 0.8583732695829823 -0.5092440595602671 0.05115389497556201 -0.18081320120920147 0.0015511305730897898 -0.0019298903235225936 0.41788360540168557 0.09946674981810946
60940000.0 0.8519576341665451 -0.5142812987202077 0.04935877480649341 -0.1849423081000177 -0.0007839562235424679 -0.0014222546857149152 0.4071703223638386 0.08150766841186036
61939000.0 0.8486707891238192 -0.5221023709656508 0.049847150820629155 -0.19101051223729928 -0.00048081348500265264 -0.0009767285970854974 0.4141703935996648 0.07452168113548424
62938000.0 0.8420125934689259 -0.5335522335139583 0.05144355567382662 -0.21023520932480338 0.0031848377226410926 0.00039945106101160803 0.43932932749729187 0.06073321431323494
63937000.0 0.836764688796229 -0.5401652904331691 0.054554765770129736 -0.22814140632953125 0.002182121345821141 -0.0022218876281692853 0.4332451708837678 0.04794382678869996
64936000.0 0.8327146732377796 -0.5457237658188416 0.05343431789312828 -0.24490191307798334 -0.003806190508584647 0.0011765544877990752 0.4250204325514286 0.039541111719406406
65935000.0 0.827666313032172 -0.5566760535470613 0.05439187604749993 -0.25756077163658564 0.0008750679728993616 -0.000956847654454356 0.4306637974741357 0.01196478070491156
66934000.0 0.8234406933155849 -0.5606720167593072 0.05405913765461371 -0.270431361443527 0.001788714950412145 -0.0012602154021325387 0.4292795800662538 0.018190887766000436
67933000.0 0.8194822865744044 -0.570531134680471 0.05426212991724325 -0.2821161177512802 -0.0012795289941357564 -0.0035716987082851683 0.43884787293270006 0.00559911630926824
68932000.0 0.8033935129756462 -0.5642242140999004 0.051156201898380264 -0.2922107485396322 -0.0028641942867380123 -0.0007256099010806904 0.4462095151928382 -0.0016569022488653533
69931000.0 0.8041550274192797 -0.5885338737560459 0.052582378717503764 -0.3120604851262315 0.0017810989369476465 0.0030811687486737827 0.4459536601152949 -0.010748846188408255
70930000.0 0.7971674394757763 -0.5939180496673213 0.05092111862099728 -0.3243324625768231 0.005284539271905382 0.0002950584116979818 0.43715006890272273 -0.027238810626655018
71929000.0 0.7957399547656931 -0.602382387111785 0.04458155074123258 -0.3463316689659739 0.0009908076417500652 -8.67221112155045e-05 0.44951727882027553 -0.035474153132311094
72928000.0 0.7881616458123613 -0.6118833672288779 0.039901996020493165 -0.35945959971088914 -0.0013913236648745147 -0.00015052667116627222 0.45279908255732165 -0.03848977572470178
73927000.0 0.7829765137396767 -0.6183018822258767 0.03412915018157785 -0.37706159742712825 0.00018572160694067 -0.0021162150429525637 0.45632430411146413 -0.051553318973544295
74926000.0 0.7780650500987749 -0.6277248864134597 0.02565445845393385 -0.3982141596833768 -0.0034955404424290657 -0.00110497863644453 0.4609799503768813 -0.058975006086375605
75925000.0 0.7711014980976536 -0.6330582262261146 0.016260288630422965 -0.4199236186166067 -0.0005065320367947463 0.002510315887672419 0.4578874889605974 -0.06330963950299251
76924000.0 0.7639591411268322 -0.6396212205248925 0.003827958750066836 -0.4395725493724759 -0.0020613683018623984 -0.001730954002212922 0.4577712586939585 -0.08456115199516173
77923000.0 0.7560620155128825 -0.6479510666683077 -0.010391544715514263 -0.46403166443792976 0.004623452825421332 0.00011146257467195318 0.46062884042357727 -0.0926495612295632
78922000.0 0.7526415831453224 -0.6550137260565636 -0.02525076832759714 -0.4923371648818176 0.0016900850700915225 0.0038100839625858293 0.4690233761761358 -0.10230816575591109
79921000.0 0.7451081765776609 -0.6614475695511423 -0.038403634677316084 -0.5191026552957143 -0.001574074049496859 0.0018604100920766255 0.45564923667836893 -0.11287900656641019
80920000.0 0.7388200849051949 -0.6714439056292644 -0.055386359371918964 -0.5441693493661001 -0.0009667063498610944 -2.9246206716928406e-05 0.46138288524590765 -0.1141385764943719
81919000.0 0.7338225038580815 -0.677496852745056 -0.07506533235628947 -0.5747202973083861 0.0018627650273879829 0.0009131796422179195 0.4639171650971331 -0.13444499459719342
82918000.0 0.7211273014053315 -0.6855335380226587 -0.0852987882634047 -0.6002786383412247 -0.0010022338080133194 0.0034185390873990485 0.4712368245142453 -0.14823802281037876
83917000.0 0.7163860200511057 -0.6905459269884492 -0.10905701618674943 -0.6296715180031911 -0.003864000862233624 0.001583520070052101 0.47372393560176435 -0.1465043994935832
84916000.0 0.7095434165024096 -0.7013445141926242 -0.12457369372937693 -0.6645989893278649 0.003599841620202089 8.57561616491783e-05 0.4601241070512773 -0.15757980451588535
85915000.0 0.7039571117635339 -0.7069258797904795 -0.1461550553979709 -0.6932103707761563 -0.001176362573472773 0.0028462042231248118 0.452038340587182 -0.1684951704120532
86914000.0 0.6952329921845414 -0.7171360131147574 -0.16027446508115503 -0.7313963338354588 -0.002287703719027378 -0.00016460347520117893 0.46614269694929583 -0.17685062842364152
87913000.0 0.6884825878462477 -0.7223605194980784 -0.17578243549990388 -0.7621378774911546 0.0031393823812943186 0.0032926898767601568 0.46086175875470337 -0.17786353067315847
88912000.0 0.6805361952853421 -0.729373346501331 -0.1979048715035015 -0.7914494159889074 -0.001893314812548459 0.0006932267126478852 0.4587972825098563 -0.20091979708722357
89911000.0 0.6724385512832795 -0.7385865995785764 -0.20736702442776286 -0.8274678317843998 -0.0015964133902992331 1.9610803510023183e-05 0.4629979774706394 -0.19637584307418587
90910000.0 0.6659077795448173 -0.7431679360055108 -0.22053301913530524 -0.8650635824973024 -0.0024683718705611644 0.0009110105943524353 0.4616240971221645 -0.208911551478482
91909000.0 0.6565554437159674 -0.7477121742548593 -0.24344357827973068 -0.8954256745338279 -0.0026972563000319505 0.0032743736826663437 0.4641561195791427 -0.21652198640145653
92908000.0 0.6478106681551787 -0.7561527024942389 -0.261432666426802 -0.9302862770002429 -0.004460088059624417 0.0020865143346250246 0.4553524246307335 -0.23559293125200537
93907000.0 0.6434915068633388 -0.7625032883074995 -0.27739842010975496 -0.9595007468192049 7.308636741472738e-05 -0.0003871753297930532 0.46474121563509985 -0.24535988973344774
94906000.0 0.631590818532358 -0.770123852550761 -0.29351854254870297 -0.995830590826113 -0.0006405463009605057 -0.004068522209491526 0.4570394447947419 -0.2480328253975955
95905000.0 0.6236539339267169 -0.77554274380896 -0.3139989512954786 -1.0283169536448087 -0.001671115239046613 0.0034343780158023057 0.4496818968972384 -0.2664670960792372
96904000.0 0.6150957685038406 -0.784485646951982 -0.33280588830103625 -1.064606427074418 0.0008046700906833867 -9.615015278505798e-05 0.45560040912039984 -0.2677798952242761
97903000.0 0.6062340407945287 -0.7910615980806663 -0.35953693541635734 -1.096348881643254 -7.880857061430848e-06 0.0018415621588295566 0.4512855699371017 -0.27505405853312764
98902000.0 0.6001498277338725 -0.797573529813398 -0.3779220583277629 -1.1330906992179872 0.0006792556047930616 0.0011897369505559673 0.4552627972346631 -0.28650628113720306
99901000.0 0.5900675299428668 -0.8030898786039605 -0.40394281013174416 -1.1650754565944943 0.0011735798563877878 -0.001053028294055207 0.45069119041468836 -0.3064443390170409
100900000.0 0.5807229842343775 -0.8060133899185044 -0.43621664878994654 -1.1877880180063562 0.003631620500956547 -0.0024408245331100967 0.45955830509598844 -0.30656852495209364
101899000.0 0.572212034607561 -0.8137702281665725 -0.46192833556295365 -1.2311580189533102 0.00029428031835209155 -0.0009774528572931748 0.45001184543114087 -0.31847282237682223
102898000.0 0.5636774507959162 -0.8189319723360529 -0.496182001199575 -1.27083778694788 -0.0005713582573260926 0.006022335706799256 0.4530665446605974 -0.3341644088982351
103897000.0 0.5545591400243958 -0.8280332633580626 -0.5386205484610983 -1.3058558493740668 0.0014137274160865032 0.00019779844056662526 0.4589428433828491 -0.3262629797658105
104896000.0 0.545270885257186 -0.837001647077737 -0.5778642851391559 -1.3367892838744677 0.002977832547581596 -0.0010533261670839192 0.45059171433392303 -0.32981771398549276
105895000.0 0.5329514324502219 -0.8398142107795369 -0.6272380650938754 -1.3740634760495207 0.0010555678805492523 0.0007010732066458963 0.44749610888624886 -0.35631829191842856
106894000.0 0.5243515829831094 -0.8461538782757586 -0.6832651396451933 -1.4090971215479204 -0.0015287837601393823 0.0008607299627839685 0.4297383566308426 -0.3689736248490165
107893000.0 0.5185008976840999 -0.8518631101009025 -0.7320562467537888 -1.4512824872221657 0.0012637857372531612 0.002121495371268927 0.435411331651654 -0.3837666378078393
108892000.0 0.5080579679080838 -0.8554632852262617 -0.7918060985835508 -1.4838602210635934 -0.002019233821214141 -0.001412464318191769 0.43118425645298936 -0.3706426031625112
109891000.0 0.4954591116101519 -0.8634657942197126 -0.8477247389938821 -1.5209193407270993 0.00020045487901162404 -0.0017157779472596081 0.44037384346690883 -0.36528078145336695
110890000.0 0.47912745755783415 -0.8645875637933764 -0.9104601195801326 -1.5154385342712287 0.00047438546722381846 -0.000685828788018438 0.4188366970294543 -0.38412230079293386
111889000.0 0.4728341272198807 -0.8704414120538003 -0.9756151635166476 -1.5836429721740901 -0.0019273275601296885 -0.0015544710638878238 0.4141992925105705 -0.38851438903693486
