! Created with skrf 1.9.0 (http://scikit-rf.org).
# Hz S RI R 50.0 
!freq ReS11 ImS11 ReS21 ImS21 ReS12 ImS12 ReS22 ImS22
1000000.0 0.9786970584586266 0.00034856748686352686 0.00706140695240024 -0.052048989031033006 -0.0037547867289670933 0.006675649536365177 0.3209932782821233 0.27914952790519876
1999000.0 0.9991644783874297 -0.014100399241707922 0.007755394600606841 -0.027729021488946886 0.0012595903016074058 -0.002626439454279608 0.2575849809693765 -0.06934640882854663
2998000.0 0.9982611714810224 -0.022660278093982928 0.011032656126685358 -0.015540576113204814 -0.005388377629374931 -0.0011795882046510113 0.1798263764945617 -0.13021959741466005
3997000.0 0.9985816714005279 -0.02843216501232579 0.017410373749735572 -0.006815965820345535 -0.0006340679370861627 -0.003157635838012879 0.08744184153987984 -0.2227322079429792
4996000.0 0.9984847475620137 -0.0382012766267264 0.009372439903278667 -0.002306882665899973 -0.0032163959258132532 -0.0007228502262660683 -0.04460708153200673 -0.23215826324048194
5995000.0 0.9970377788684665 -0.05043808647564828 0.013521808483454778 0.0008865640862150837 -0.0026067677088605448 -0.0007360794225801624 -0.11764510232076388 -0.13340784180076143
6994000.0 0.9944995297030302 -0.06019036959266461 0.000975578773770908 0.002257068188083083 0.00289564205276013 -0.0009828757567379007 -0.16124743403356445 -0.030304561205225924
7993000.0 0.9942767773761094 -0.06717438167440418 0.00928401630089144 0.0031502306978667496 0.0028972991834020825 0.0010572990587613452 -0.16718839176213512 0.028707405041745477
8992000.0 0.9932274972622255 -0.07309951216373506 0.001789417051710643 0.008670347823014207 0.00032983204604963157 0.004397075674295669 -0.16870657586991664 0.06413985453287269
9991000.0 0.9928094261473764 -0.08423657881180299 0.005091977410319199 0.0060258593544986585 0.0034471937512485953 -0.00537032999035931 -0.16365632400794766 0.09764967563062177
10990000.0 0.9934547819760954 -0.09342013805293098 0.0018815878958808553 0.0031006052113377244 0.002545450796246461 -0.001997455764613639 -0.14008188941964658 0.11346267510781645
11989000.0 0.9889203846508997 -0.10154169996566208 0.002128592574689476 -0.0013961527409194268 -0.0009656948734175463 0.0003407198583691141 -0.12392368848860828 0.14299448970984294
12988000.0 0.9891918523314016 -0.1081369056389652 0.0055114467236977325 -0.0050340440525229345 -0.004920510036683269 0.0023875411566922178 -0.13071332507672373 0.1799665573832726
13987000.0 0.9903879539441908 -0.11528687479604731 -0.0018275906065993576 -0.006530424205238875 -0.0019159445602602836 0.0036870928083937663 -0.11005792868537356 0.19000680838192413
14986000.0 0.9872618169365108 -0.12276528530989292 0.0030130969452665394 -0.003146154968167565 -0.0040357886301283395 -0.0003362353705409682 -0.09691162268669756 0.2097832023623225
15985000.0 0.9896546913923217 -0.1350225224144794 0.0015917982343869172 -0.004639803026843132 0.0032172311792261375 -0.002749346384036612 -0.0656133890844264 0.21747673584424076
16984000.0 0.9871448200793342 -0.14190049220682371 -0.0019650255934197357 -0.0016243476853510814 -0.0002827869968984724 -0.0010880133594589469 -0.07174514581198321 0.222573377214588
17983000.0 0.9882401234902122 -0.14684652851548816 -0.001925765709372043 -0.002920240786494633 -0.0029350503915410277 0.00044411018153591006 -0.052045777455349045 0.23853246361172367
18982000.0 0.982564951499549 -0.1584823714761009 -0.0017743579934214938 -0.004397468498634328 -0.0022830706659569787 0.0007473070661694279 -0.03622171133492417 0.23967299714638157
19981000.0 0.983818447229303 -0.16637777482381164 -0.005768938449285105 -0.005295599916360749 0.0040147511696316095 -0.003131465853692423 -0.023569183701460845 0.23863516829364612
20980000.0 0.9822004287426643 -0.17459480932354907 -0.0043390322185873735 -0.005151753878880544 0.002007006829915244 0.006215218949246564 -0.00761613957880933 0.2557943701216244
21979000.0 0.9787171808254236 -0.18449022823481762 -0.0069842175818656625 -0.008111499964892965 0.0018375561871035084 -0.001592220392545459 0.008798500577452472 0.2482248963154755
22978000.0 0.9775214534031368 -0.19462228284967517 -0.006644223996352621 -0.0018339680849982097 -0.0008285046920913751 0.00013027994224582581 0.03167685707687491 0.2555139697695044
23977000.0 0.9780955230843201 -0.20145200619107814 -0.0033775086997612693 -0.0025668949837180603 -0.0035584736590283687 -0.001511924301842276 0.03491304364860696 0.2570786966817758
24976000.0 0.9738849711239312 -0.21040049106392203 -0.004992156451146205 -0.0024177686753242807 0.00032727463371168183 -0.004785419271414981 0.05017896914358005 0.26580395385121275
25975000.0 0.9681739085242337 -0.21519684207001955 -0.00459169230776673 -0.0011105441021390557 -0.02717383102209301 -0.004375823356265153 0.08726876943370614 0.26302897171674194
26974000.0 0.9718199575794516 -0.22490743113172793 0.0022659913570685472 -0.002016558009800522 -0.005067471650475478 -0.0016336449712613006 0.08942197715235868 0.27008958184854714
27973000.0 0.9708216935491931 -0.23363782853013437 0.0003708348680971284 -0.002889977667883852 0.005207447800948585 -0.0020135822922581923 0.10077184063691039 0.25738661485720105
28972000.0 0.9657746807786407 -0.24285259652701807 -0.002685178914749052 -0.002247731510186905 -0.00108347401521953 0.003159879699046163 0.10999886053525913 0.25797204394845696
29971000.0 0.9650053087587483 -0.2532836593158601 0.0026814714466289243 -0.003416566970661307 -0.0019916604983297587 0.0003934226715859877 0.14320318780314922 0.27064479881944153
30970000.0 0.9635505640717854 -0.25873104274119135 0.00043559716675570335 -0.0031502987676108444 0.0034546588319274243 -0.00039923114214931164 0.15695979148488717 0.2639427538596594
31969000.0 0.9625103275165188 -0.26628684206705305 0.006867353534659481 -0.0004884198321003487 0.0005807418179407053 0.0021200211765498773 0.1452947976680292 0.25483752987856095
32968000.0 0.9599280436561353 -0.2749477428539918 0.007044117653837451 -0.007445668457022214 -0.00045777262697280094 -0.0004975163137460126 0.15469507202772625 0.2520493619816098
33967000.0 0.9585843795213779 -0.2835667964812081 0.010914108217337142 -0.008986381459806495 0.0008863486905627018 0.000447121319585394 0.18752489426084076 0.2429882827081596
34966000.0 0.9550340925146147 -0.29359717773811517 0.016344624273001374 -0.011857197191343925 -0.0018775703051822383 -0.00023398582496996916 0.1911496963575008 0.2540392619801814
35965000.0 0.9511734459661929 -0.30200309596723984 0.01808294344857323 -0.013386498550618174 -0.002611470912521902 -0.0003225690908193526 0.2007604459284853 0.25173101219276844
36964000.0 0.9483161980372098 -0.3105077026568767 0.015530488143730507 -0.014971454271961898 -0.00048245628074517773 0.0003364139979274499 0.2159597131939263 0.2600414396076077
37963000.0 0.9461465923793787 -0.3182482271276462 0.022003785991630172 -0.01943148114103863 0.0028219318450338248 0.0011022987793171115 0.23700815712955933 0.23849543665246534
38962000.0 0.9424669342933908 -0.32882083061086237 0.026822019928593573 -0.023774780320964674 0.0022490686313147833 0.00042051250620742315 0.24064901475723907 0.2325455844568332
39961000.0 0.9396682559303656 -0.3367510192913822 0.028241309823986056 -0.026592025281381427 -0.0005685754870200991 0.003058066729410733 0.24862503965789878 0.23362964679832104
40960000.0 0.9378557579694308 -0.34464024743576377 0.02311771975927179 -0.024298732762672512 0.0016937208140185992 -0.00015730491241272172 0.26559725200852957 0.22608478818248168
41959000.0 0.9340559074661801 -0.35255538820521637 0.02910430981115688 -0.028878727593441466 0.001015781343393018 -0.0018322863745047267 0.2633879494974122 0.22172720435153792
42958000.0 0.9292430994274443 -0.36281441564452305 0.030432327308718983 -0.0362317833107204 -0.0008989972382256365 0.0010648119915772354 0.27718879809267016 0.20326857139494273
43957000.0 0.9275783638255132 -0.3670684126137576 0.03335642224368649 -0.044486200014733746 0.0012437393573307815 -0.0028660763158587415 0.28755074015478344 0.2202281976074732
44956000.0 0.925020702088826 -0.373356510061222 0.03414302431212744 -0.0507927381430798 0.002539690945934597 0.00014887034356672265 0.2973889243388045 0.2000629781484041
45955000.0 0.9203952310668726 -0.38737057884325493 0.03544485829340717 -0.058011796186726416 -0.00037827836896566175 0.0018249252985253063 0.30572886855277864 0.19740861378986937
46954000.0 0.9170729120703012 -0.39528472979979584 0.037021687948171705 -0.06439038837930858 0.00046045456945156864 0.0014943706217241325 0.3372923354003613 0.17708412799618764
47953000.0 0.913686316595803 -0.4017277850268687 0.03844153775263032 -0.06938840542347906 -0.003362862418000493 -0.006070990304554924 0.33988838305449665 0.17516068534519885
48952000.0 0.9087598051027764 -0.41217509657251705 0.03760283306558659 -0.0752151391926627 -0.0026599730738495865 -0.0011063762222970003 0.33863830295395564 0.16998920756467142
49951000.0 0.90495884243748 -0.41913278484057553 0.03821281941615354 -0.08463074643761828 -0.004653076262242549 -0.002308246005683733 0.3526022759181333 0.15066559353532769
50950000.0 0.9011389338921648 -0.42661709630615213 0.038103833703238645 -0.09605334002488375 -0.001374407052121598 0.0007944954666191738 0.3549162873919434 0.14209066329607808
51949000.0 0.897491494505368 -0.43378985807706566 0.04329538545642038 -0.0998540155786936 -0.0030682447010801114 0.0014127679006453323 0.3512613813611796 0.14438974545387892
52948000.0 0.896114134684095 -0.4417871233335981 0.04217674434617206 -0.10744063498215024 -0.0032574062465324924 0.0012390098760910267 0.3773715806348996 0.13701557162278116
53947000.0 0.8890259844007223 -0.4517663213967224 0.044812988044932216 -0.11772751035541679 0.0010839046162651196 -9.998529658112349e-06 0.36868301930248754 0.13012268880945252
54946000.0 0.8839466160220568 -0.45983456737848044 0.04441064189738166 -0.12571552867626387 0.0023376696538071006 0.0016031408136746408 0.39204111121613033 0.12422961797583418
55945000.0 0.8819531633110367 -0.4666329053545796 0.04427836345765437 -0.13636518339191958 0.0010287644958002693 -0.00037074365714981247 0.3845384414516138 0.10383756198608367
56944000.0 0.878827750393827 -0.476509106586354 0.050262642232812786 -0.14838321003663543 -0.001980768832959901 0.0009526850288393704 0.40208584516310036 0.11221192013848293
57943000.0 0.8729889818322123 -0.48617853237628383 0.04993694404925301 -0.15879826290945934 0.0018881426826016165 0.0020744934548554187 0.40416607089029555 0.10305322537597073
58942000.0 0.8674349655759866 -0.48985121776023666 0.0514969649054613 -0.16697679540512714 0.0009181832684359007 -0.0005684194958939803 0.41966703265668587 0.08840934589245726
59941000.0 0.8643012092763179 -0.5013696778630459 0.05351095328059542 -0.17759676445220485 -0.0020495007508545765 0.00010684496032348712 0.41761005149505054 0.09013590155732205
60940000.0 0.8578597324785194 -0.5061825726838914 0.053842735677098824 -0.18377861399130768 0.0007246107275877928 -0.0029479363593857806 0.39962735026540097 0.07404995288387768
61939000.0 0.8543104723401398 -0.5134770690059756 0.05500009238584531 -0.1907306927890697 -0.00029797823567080884 0.0006765222283905474 0.4207998219132423 0.07783866397256319
62938000.0 0.8492700504148156 -0.5240964109230443 0.05753633975904479 -0.20597431351693288 0.0020301986283426396 0.0006231314534475554 0.4436716583770241 0.05940087597116063
63937000.0 0.8441646233058577 -0.5312811488852954 0.05852261815909758 -0.22614645642683517 -0.0026512303749350223 -0.0024196333019533976 0.4333829197024473 0.04552224806478788
64936000.0 0.8371306339305457 -0.5367136706848847 0.059244278818914226 -0.23968648916431806 -0.0010546369309232645 -0.0027760516486608744 0.43422340861952347 0.04619743549865433
65935000.0 0.833805004784213 -0.5481512481950566 0.05962227514257129 -0.25188167806266404 -0.003304211863992299 -0.0027007900018240108 0.4429613540949407 0.027082601770861626
66934000.0 0.829922752081521 -0.5545134892844665 0.06089227461013316 -0.2654636279240795 -0.0017973695504215073 -0.001267295611338408 0.43366846031529765 0.018756817374200003
67933000.0 0.8268908743543465 -0.562792381240635 0.061439061895022185 -0.27902912368320915 -0.002108132604961972 -0.0008150384049063268 0.4480255806662003 0.016103354191042252
68932000.0 0.8084658056895284 -0.5596459665965455 0.05734127712498922 -0.2925047304440822 0.0010995372167548203 -0.0009826690533292798 0.4501650297264669 -0.006633712916549713
69931000.0 0.8128872290281713 -0.5762980395419556 0.06130299746068874 -0.3075414274278098 -0.0018293686329992256 -0.0026528402972471874 0.4509810854677393 -0.009054048594394157
70930000.0 0.8072724245860436 -0.5827525652907677 0.05584450770019457 -0.32440915657712704 -0.000963078021876237 -0.002856019498809305 0.45291992878400245 -0.03040132287802855
71929000.0 0.8031476613965246 -0.591512785249223 0.053174271963340285 -0.33965067588304415 0.00030102327987006867 0.0015625690739100996 0.4467070048185111 -0.04485037872833043
72928000.0 0.7978472404832404 -0.5992524644907838 0.0527395975001235 -0.35315838971595304 -0.0014608427495609025 -0.0013409839502601596 0.4623099819880039 -0.0420386644681002
73927000.0 0.7916445217840071 -0.6082838309361598 0.04318645450461444 -0.37723749478148494 -0.001184996649506914 0.0025271860266227702 0.4638080556395806 -0.06371774217313181
74926000.0 0.7853585900956488 -0.6165118592014065 0.04134549514408493 -0.3937184536523281 0.0019609298063396393 0.0018936747123803458 0.47216741332607326 -0.053594848192014787
75925000.0 0.7791361163609788 -0.6225672956708627 0.031130917195381802 -0.41516507844178396 0.00035610124677797154 -0.0006351302474045573 0.47750493185175114 -0.06047228074535067
76924000.0 0.7741973385915635 -0.6293368805081583 0.017929453673716927 -0.43694888688290767 0.004909283517413703 0.0032733535062761145 0.4759749676937259 -0.07948176305264372
77923000.0 0.7665123760835935 -0.6370915614663906 0.006650553450168044 -0.4585643991703853 0.0018712056438030015 0.00038554527954028274 0.4573354226941219 -0.08747136851100967
78922000.0 0.7611831011405441 -0.6468919409507775 -0.00648478009671531 -0.4827109766797283 0.00028952276873073934 -0.0017195119292655364 0.4649836753963759 -0.10417582684518384
79921000.0 0.7529136692554009 -0.6514349615190828 -0.026867082882988884 -0.5076763718368215 -0.0040634178682784445 0.0016247438182850438 0.4642978401001118 -0.12132591805286687
80920000.0 0.7476572587558216 -0.6615576646670571 -0.0366159668625768 -0.5367956823044674 0.0024863194195769178 -0.002928690307805641 0.4719185209211526 -0.1227936156507807
81919000.0 0.7425916954871962 -0.6659948301101528 -0.054957512314787065 -0.5621085873570871 -0.0051959777536349635 -0.002523584990332317 0.46775930946367333 -0.12319091855355019
82918000.0 0.7354571823208456 -0.673161583349557 -0.06895337456276471 -0.5928373012837561 0.0021060822443297995 0.005046844114545124 0.4823590325979698 -0.14018902225620491
83917000.0 0.7279688427243232 -0.6809196460850646 -0.0905056560591334 -0.6218291383799136 -0.000696192859705304 -0.0027254387426972836 0.4834685622542492 -0.13652373171653762
84916000.0 0.7201776379806761 -0.6904775225114677 -0.10354685836471281 -0.6580439081427607 -0.001942031961242158 -0.0018688825879423076 0.466394699976119 -0.1632319067682112
85915000.0 0.7150241316005914 -0.6949497078305883 -0.12634761083751384 -0.6846427286911416 -0.00395559312583889 0.00019221371762994903 0.4657752443151693 -0.163618048525046
86914000.0 0.7051496736887951 -0.7061977881773532 -0.1397317258870983 -0.7240639084429031 0.00017079989328632307 0.0009106168242589089 0.4630272323940709 -0.1723467748421394
87913000.0 0.7001724363587636 -0.7111703321240511 -0.15755879541491996 -0.7551728442074699 -0.0003772728623455495 -0.00024137186589699318 0.4618612717204569 -0.18309262508020993
88912000.0 0.6917277482122272 -0.7177306310045863 -0.17417484696210017 -0.7849940627945722 -0.0022977302171716596 -0.001249664715312183 0.465696659105313 -0.19356571777861376
89911000.0 0.6853079325964235 -0.725680711096427 -0.18860231696549878 -0.8251527265714181 0.000908703111427603 -0.0012638915151142497 0.47041759305456055 -0.20487444727382154
90910000.0 0.6781405118964197 -0.7328237491995343 -0.21024622506801235 -0.856871933776367 -0.0034920247432199208 0.004628904115245837 0.4685846919460594 -0.21421460642733178
91909000.0 0.669765090597545 -0.7368374155950973 -0.22401404945127587 -0.8905826961323925 -0.0007548938594380465 -0.0017282143751360046 0.4692025752680858 -0.22108189425368222
92908000.0 0.6630115473794236 -0.746458669246692 -0.24230199901080923 -0.9232184618113775 0.0004519904699501958 -0.0026753817336490878 0.4605043774614122 -0.22944362696722947
93907000.0 0.6572727589694167 -0.7518736482134023 -0.2586583128490373 -0.9531712251820705 -0.00302658529347496 -0.0009188624927213477 0.45706044388626743 -0.2507794279351641
94906000.0 0.64222194264602 -0.7590901268123385 -0.2724222101395633 -0.9896874136168833 -0.0023873242459191138 0.0036629989057801716 0.4650357198724579 -0.24553377153398845
95905000.0 0.6372959694006354 -0.7649403463190476 -0.29652995260849474 -1.020618159232435 -0.0005968684154622999 0.002770093609559887 0.46380350444606605 -0.2704156146999429
96904000.0 0.6283207907422033 -0.7742923802008467 -0.314379020456206 -1.059949189205311 0.002418675958320892 -0.0008764132200283801 0.4514101642647283 -0.2623606605867026
97903000.0 0.6194501837018134 -0.7778165586729237 -0.3333728531242059 -1.090597834217924 0.00028109347368842757 0.0013970699232485728 0.44783671069486813 -0.2776103309370907
98902000.0 0.6156934407303505 -0.7869170655689341 -0.3535892949795024 -1.134209295276625 -0.001022593332641772 0.0037434966611942628 0.4545500717606972 -0.2921684761509103
99901000.0 0.6050853900658968 -0.7916819033202677 -0.37897015382845567 -1.163092319176873 -0.0010637545394988667 0.0009807202314343034 0.46400467346213636 -0.3041176647504979
100900000.0 0.5957288823309826 -0.7953173525635401 -0.4081052768454464 -1.1954829033687189 -0.0026817088105454876 -0.001498306747579649 0.46444223836822224 -0.31325984900002024
101899000.0 0.5880749676109089 -0.8028257168523119 -0.42825829622684386 -1.235919444152361 -0.003020091980477352 0.003914358216522395 0.464273708951701 -0.3195818151275683
102898000.0 0.5777766188182052 -0.808493377949382 -0.4601251331077937 -1.2685982018131412 0.0021313673516016557 -0.0017514193178752324 0.4468342338198903 -0.32356047098276947
103897000.0 0.5696894442747708 -0.8153149197971927 -0.49971786686249803 -1.305866422551478 -0.0014944290597990334 -0.0013240543393034055 0.4588653647564644 -0.3220445666502028
104896000.0 0.5608179729505784 -0.8263707889347276 -0.5449884512666582 -1.3379063328988952 0.0012112968860908857 -0.0019677258437969768 0.4435126599076522 -0.3214245409822331
105895000.0 0.5528872832251658 -0.8286986764589982 -0.5836544455428317 -1.3805328616802608 6.25286795986979e-05 0.0004875336376883583 0.43803125708861107 -0.35338649396570193
106894000.0 0.54266081853842 -0.836330920361798 -0.6331976177389551 -1.41473235167989 0.0027849229727722976 -0.0017123931210516782 0.43210072717339204 -0.358790317334827
107893000.0 0.5360092223969494 -0.8425048395465854 -0.678324276280706 -1.4569038427464103 0.002784230178464912 0.002219345398045389 0.4268778865650742 -0.3773432013058346
108892000.0 0.5240626405978066 -0.845410379800635 -0.7411667096959366 -1.4913233029626738 -0.0005079295359826217 -0.0008565736260015707 0.429957649605693 -0.3720414647261083
109891000.0 0.5119760371580493 -0.8534498913116925 -0.7946379603880622 -1.5322984282832444 0.0021360605680882257 0.0027548310782439293 0.43837600097960555 -0.3771596932138015
110890000.0 0.49723516545437974 -0.853443438730743 -0.8538516531175528 -1.535811877792792 0.0011005746234300042 0.00011253081629075647 0.4338987453629523 -0.3800676553621157
111889000.0 0.49535810982795825 -0.8598466758583605 -0.9175049786329591 -1.5980914678089404 0.0024357398915013243 0.002042601604192339 0.42527233730859076 -0.386084346205707
