! Created with skrf 1.9.0 (http://scikit-rf.org).
# Hz S RI R 50.0 
!freq ReS11 ImS11 ReS21 ImS21 ReS12 ImS12 ReS22 ImS22
1000000.0 0.9804925165532546 0.008178113093209554 -0.0025345217639828783 -0.042000328914758474 -0.002852854502212898 0.0035838665416842177 0.3610662553965851 0.3132725596663199
1999000.0 0.996295815205182 -0.009623378390759064 0.008825857728576383 -0.015821244731430855 -0.005375700246953959 -0.0015704856209781562 0.23675591647050082 -0.0390773337648981
2998000.0 0.9977790822803948 -0.02057292371670109 0.010495884114764386 -0.019528893597166138 -0.004110365064252337 7.309463861683113e-05 0.21281107887779827 -0.1361295057100683
3997000.0 0.9950087462260286 -0.031144282788283264 0.011284799858965952 -0.0014166006323173943 -0.004149417243198022 -0.005028068510586439 0.07744494648461028 -0.23175689628797638
4996000.0 0.9931869558821225 -0.037719995267934 0.010157447697161716 -0.0012557086357209422 -0.003691736158219179 0.0009364657466202886 -0.04598773419746631 -0.1821693379211584
5995000.0 0.9950644167069368 -0.04904425262804656 0.008623533427509414 0.008365427949287933 -0.008212772224254856 -0.0038047816096995557 -0.12284866921724293 -0.0839579344538825
6994000.0 0.9922679958930554 -0.05788506001370007 0.010654272786317252 0.00464243010988207 3.9728240671085715e-06 -0.005024979247693106 -0.14185431528754652 -0.01259727132125631
7993000.0 0.9916863839031116 -0.06834368962398922 0.004973087188706134 0.005717132400227138 -0.002334277742121687 -3.934187289502319e-05 -0.15268796857151237 0.04779663939143476
8992000.0 0.9884578371327404 -0.07420196652485038 0.0032404604370152115 0.002231643639257663 0.0021089764288527843 0.0013693511197071984 -0.15431415814785562 0.06423698084560486
9991000.0 0.9885756439818217 -0.08391113991459367 0.005835027829993586 0.004428084566818969 -0.0031824569904517256 -0.002438687118189815 -0.1385018767944613 0.09504978671108033
10990000.0 0.9862264465496566 -0.09220342268070739 0.004647860415615751 0.001370170740437913 0.0012558669033806214 0.000937363587245189 -0.1287023450269881 0.10948807046228419
11989000.0 0.985647898314297 -0.10028090585255674 0.0010982948157554548 -0.0056930531799189 -0.00023857910101913598 0.003311547619850559 -0.12288543035051251 0.14180153475040155
12988000.0 0.9855649704662092 -0.11039794339542845 0.0007369261940320368 -0.0020174067463827063 -0.003357956618066495 0.0026080739275149835 -0.10952097957441508 0.16793192426117365
13987000.0 0.9836019573415037 -0.11867941957628063 -0.001716181543981685 -0.006993244104841231 0.0031035022073647054 -0.004388522534633086 -0.08220293950863898 0.19028020412651714
14986000.0 0.9839763153148667 -0.12590686407173324 -0.0006109855979733995 -0.007582856884927612 -0.0033833247710372783 -0.0023704176835919757 -0.08156988539901554 0.19813943022145158
15985000.0 0.9841438399094765 -0.13376375549912847 -0.0014381850140024158 -0.0008408524241594784 -0.00017920263141812086 -0.0006163232016351657 -0.059807073664370644 0.2113153411390298
16984000.0 0.9799463234774933 -0.14714626027508768 -0.00214457910016544 -0.004222791338206707 0.0010747150566502062 0.0018814693682091515 -0.06276316659639421 0.2134094607536256
17983000.0 0.9836168804870095 -0.14715652277083832 -0.003666111587589224 -0.0022805986600548593 -0.0010302783335142444 -0.0008141993826158991 -0.05319933714966893 0.22125871146936985
18982000.0 0.9779767135933334 -0.15851413663829197 -0.003966918823747771 -0.007579992489989393 0.0034733929923243295 0.0010257298576117585 -0.020970731053804963 0.23071958368304799
19981000.0 0.9779261250603069 -0.16490551937862138 -0.0022301483668189207 -0.004538663556574215 -0.004056123573468919 -0.003307093772234124 -0.0138912072933927 0.24960440533654069
20980000.0 0.9771020887531136 -0.1765818981501293 -0.0016207743153687387 -0.0032997938159135026 0.005833350896010374 -0.0006212317937444635 0.005586972873446588 0.25455474114249255
21979000.0 0.9746525355376968 -0.18486932012353705 -0.007520073804423759 -0.0017551742031546563 -0.0022349708251612234 -0.004144498765011055 0.011913417122786442 0.24454290024441214
22978000.0 0.9730563694143953 -0.19188462815732757 -0.006816219103371701 -0.004423353894651738 -0.001291020643125911 -0.0011606366991538564 0.02635614958095999 0.25708588828036844
23977000.0 0.9738306191818392 -0.2005018514077006 -0.01018630305999369 -0.0034409314416830776 -0.002320780266440613 0.0027253844993871657 0.04051704615572459 0.24032352820865227
24976000.0 0.9711833237348789 -0.2117093081191124 -0.007482601895943396 -0.0016960713159016305 0.003025341629708277 -0.0003734219704169381 0.0666860911270707 0.24966232977019587
25975000.0 0.9697878723164627 -0.21854335831799657 -0.0063313620445221855 -0.0018293233290164583 -0.009084862718622511 0.0249251204582823 0.06104047929030805 0.25423234137941514
26974000.0 0.9646632196719379 -0.23013760775060305 -0.0013169821691258407 -0.000989053464878717 -0.0007961848655718953 -0.0029909268769982094 0.07670294136325326 0.26683464608454677
27973000.0 0.965405417667386 -0.23569171243058215 -0.0037364230563581334 -0.001880661858818684 -0.0008246673545329126 0.00016739974217927386 0.09879619138533403 0.25596039758086103
28972000.0 0.9624829788226473 -0.24417981747409678 -0.0028276956717886983 -0.004049482305708652 -0.0009957976297709206 -0.0004390877576505828 0.11357744006245855 0.2620222153823195
29971000.0 0.9613167160554185 -0.2559688755326045 0.0012317885519226436 0.0030582633517001632 -0.0001047480257602913 0.0008315342348827746 0.14076720457251962 0.27730111638945565
30970000.0 0.958617911851646 -0.25871505402312756 0.0011284000454416811 0.0006102051544130153 0.000918855472700269 0.00437917111937736 0.1582449229248012 0.25995417022722245
31969000.0 0.9567934283486568 -0.26835448710394955 0.0009814489670454728 -0.0029763232664034283 0.00017426780134426674 -0.0007454859869968282 0.1564568287177302 0.2552175255102808
32968000.0 0.9561440639428231 -0.27693851559308713 0.008168887560410681 -0.0027367469707423858 0.005644574111041114 -0.0009897583189670187 0.1651723222510556 0.24640513486977791
33967000.0 0.9526804009051622 -0.28826189413999836 0.009079908870585959 -0.011454085960488266 0.0031712035014603876 -0.0005707281929267018 0.18459899520363784 0.24797756189382797
34966000.0 0.9487367650705173 -0.29804372967323123 0.012838882240336672 -0.012754647047204698 0.0012303099352805834 0.0019260856728738434 0.19466632921116336 0.25819970215213456
35965000.0 0.9474698959476762 -0.30458082935388403 0.015122230712795675 -0.013081264236646975 -0.0008404400940427886 -0.001565018154135711 0.21346278053528073 0.2527058875929617
36964000.0 0.9450761533662797 -0.31333729971293917 0.015760221095798794 -0.013103741600838239 0.0014144019665809425 -0.001921327887199882 0.20445534093557272 0.25316482069971474
37963000.0 0.9421688788888463 -0.3218353274476476 0.023907382044153172 -0.018907107176004016 -0.0002237449354062149 0.002162361124502813 0.2286077633739828 0.23506482799675726
38962000.0 0.938780759759243 -0.331375208473504 0.02550034486257902 -0.027927089673282106 0.00025096906375985355 -0.0012603334390392498 0.23571080920691537 0.23772510144286643
39961000.0 0.9350265860965938 -0.3415522008383916 0.022587658051642034 -0.022942079826207794 -0.00032609472596346347 0.00019397980335285854 0.24147101081653002 0.23093560652321082
40960000.0 0.9311203532455127 -0.34747976380927803 0.022124990465601856 -0.021272341804724437 -0.0003158609882212529 -0.0011017959462481669 0.27073880884662077 0.22981486161106493
41959000.0 0.9295779768504081 -0.35666386596304095 0.02604217892478646 -0.029883773728051954 -0.00019436546348672334 0.003933334196571232 0.26648318592244646 0.2195669466782804
42958000.0 0.9242845000183277 -0.366539170957034 0.03301361223309256 -0.03656497381337777 0.0022896175466485488 -0.0011931230544160486 0.27264971460479553 0.2089951921239423
43957000.0 0.9227843918009611 -0.3712698289284093 0.033594931643000966 -0.04431751879598057 -0.002921460627181765 7.401237682122556e-05 0.28547461414362274 0.21782818231934475
44956000.0 0.9193686917940126 -0.3794285222304273 0.0363487930000892 -0.047866165009917666 0.00023749437496618786 0.0012603455104170521 0.30448833166487527 0.2060808852585336
45955000.0 0.9136850484355397 -0.3918175108725305 0.03616858301091495 -0.05774794639632266 -0.0007625952275537657 -0.00200129801651034 0.2996089837158126 0.19089960877062556
46954000.0 0.9109867648651571 -0.40001241231056206 0.036631818566573694 -0.061586408945445315 0.0028389171786963683 -0.0004353145803193985 0.3212135423108161 0.19161029261534343
47953000.0 0.9091002889566075 -0.40668438464860285 0.03676173421106684 -0.0718151821205299 -0.0014048397029497823 0.0009543787188616306 0.3341206084746721 0.1865841575764536
48952000.0 0.9019250828161768 -0.4200143718446223 0.03553085250673236 -0.07718432667837967 0.0002930601948829559 0.00017473815394516417 0.3322233787101117 0.1730747073128761
49951000.0 0.8983728434291003 -0.4225996079140552 0.03718497934963974 -0.08501101086475131 0.0017770508965469806 -0.00030719811882004176 0.3500006379222678 0.1668107308388929
50950000.0 0.8955822466501143 -0.43525753550068935 0.039238349310152354 -0.09376636118936506 0.001001330097323251 0.0020577886332163974 0.35218802233023927 0.13687474265223262
51949000.0 0.8915883088630354 -0.4418902216113777 0.04085377031767677 -0.09902396151573878 -0.00015289360252799893 -0.004086991755251045 0.354370725111236 0.14650841399092682
52948000.0 0.8877637500900665 -0.45202946053440146 0.03922346014160935 -0.11070432590359594 -8.962994938124852e-05 0.0030586674690144277 0.36696330090496804 0.1473566028175524
53947000.0 0.8840183117124601 -0.4563840301216198 0.041862472970271916 -0.1157770940562219 0.0015760194633729805 -0.0006146661342473189 0.36560081592470656 0.12741242014493262
54946000.0 0.8768270994995643 -0.4683862340037134 0.04609005465740794 -0.12540185569455162 0.000908104976885858 0.0009500113347645572 0.38637170654892367 0.12345554807489399
55945000.0 0.8747101381018985 -0.47638803817870734 0.04793624827679454 -0.13967144765826517 0.0022308821489350995 0.004537256552815006 0.38854252038152925 0.11429938436762883
56944000.0 0.868433172969437 -0.48480097481568246 0.04846137451648338 -0.14709962528049872 -0.001881479359942746 0.0013867447458741043 0.3894558972653943 0.103793189999617
57943000.0 0.8655650513638514 -0.4944854553750729 0.049302583367885136 -0.16014330548109945 -0.0008157357081985064 0.004114559792256504 0.39675328286068584 0.09839829762124254
58942000.0 0.8585948434101143 -0.5024573367785181 0.05229442774364782 -0.16640582435952894 0.0006236214796234451 0.004739390733921108 0.41933084331691123 0.10410814015094123
59941000.0 0.8563864299570241 -0.5071210437099442 0.05523349254874255 -0.1786764607263867 0.0020182689683727996 -0.002920051705193488 0.41594427952370483 0.08914672327991711
60940000.0 0.8484988624502037 -0.5135391779657227 0.052622915946938936 -0.1813600694947248 0.0008866037153095032 0.0007349419176311726 0.40205900256722826 0.08342192542093194
61939000.0 0.8450160524801317 -0.5215707309885165 0.05218331106211165 -0.19101602006050408 0.001988436791301601 0.0008597537291470111 0.4195089847603006 0.07033974899117805
62938000.0 0.8386347843052241 -0.5332029682084771 0.057121682005284724 -0.20445346378180324 0.0011085491496971426 0.0009249967964889078 0.4324151551938541 0.06225680740798641
63937000.0 0.8351628347571847 -0.5391081808657177 0.05798628095937068 -0.22720095339822177 -0.0006102003181855677 -0.004809117483922308 0.4403642336083242 0.04728405136188357
64936000.0 0.8268301414978034 -0.5471646572794356 0.0574909659320684 -0.23707402000716515 0.002158249320191544 -0.0029016764083013703 0.4382308269529664 0.051426114385195655
65935000.0 0.8234088982097822 -0.5563579340253471 0.05622326310981002 -0.25398649465823 2.5524794698204586e-05 0.00269434609789307 0.428853070125461 0.03461245023581167
66934000.0 0.8186570221027059 -0.5632948872721372 0.0546254535897637 -0.2671112697728656 0.0003490831663697088 0.0022182099656076967 0.43622840645926325 0.021356292637531797
67933000.0 0.8161958750646752 -0.5714733110910859 0.05975880586534186 -0.28065467514837233 0.0018850206278066461 -0.0012439962369490663 0.44598714790082183 0.027435333717490556
68932000.0 0.7980647533870774 -0.5711294934025237 0.055965808100540845 -0.2904009848892793 0.0028166852910666445 -0.00016010027353135383 0.4552946279121601 -0.004918273837203003
69931000.0 0.8006494533542466 -0.5865910594379579 0.054081765196202815 -0.3103521108617642 -0.00012379958217766153 -0.002826201138495566 0.4452318346193624 -0.02305409288253925
70930000.0 0.7949862282352657 -0.5929443872390279 0.05575258410590481 -0.3225366756439863 0.00306576180988599 0.003179081793166791 0.45935394216719866 -0.02322348255847783
71929000.0 0.790435403450572 -0.6013602030064271 0.05044475043589072 -0.34088999705831896 0.0012993294292737523 -0.004058483556958085 0.45039711806570637 -0.029317534077001613
72928000.0 0.784693108088022 -0.6116625527030078 0.045384850758574166 -0.35419104920157424 -0.004765282081006228 0.004591285849622191 0.45696626498987564 -0.03935914962804462
73927000.0 0.7758411000704746 -0.6177085048001493 0.03761319514869866 -0.37787099822567 7.040665219287649e-05 -0.0024622506672170876 0.4571397704376247 -0.0573877203850773
74926000.0 0.7725990661628271 -0.6269607008260784 0.03346881130780347 -0.39763359747694177 -0.0022772097230829512 0.0007435629259158026 0.4573504812368627 -0.044581011054708665
75925000.0 0.7639154193647113 -0.6321853107411127 0.024034054731513772 -0.41503134343878484 -0.0040569702373942085 -0.0008646173033328566 0.4771315754267848 -0.06516252472391139
76924000.0 0.758775372823651 -0.6396140665794721 0.012325075533004595 -0.4388936395204945 0.0025597573643926005 -0.0019680375285898 0.46918120878682995 -0.0760003342843245
77923000.0 0.753913967321561 -0.6447779714967505 -0.002865372681312871 -0.4604288774123612 -0.00035097511353074335 -0.002434083991978519 0.468905555773249 -0.08393289971149857
78922000.0 0.7460892912236335 -0.6557634090382111 -0.015336695573058771 -0.48803714860536934 0.0001369249184316156 0.001374198365416542 0.46156572454858663 -0.1012932016175728
79921000.0 0.7370133806284297 -0.6601820228154153 -0.032936808161068386 -0.5112302705184533 0.0028279070972300185 0.0005589841858452628 0.4594605337201749 -0.10654403830610126
80920000.0 0.7348865588340611 -0.6717241352631542 -0.050794675622610724 -0.5404396241287215 0.001624220898943402 0.00010975872124094365 0.4645923920700596 -0.1210184130437183
81919000.0 0.7271353631732486 -0.6761569029470215 -0.06413991397092782 -0.5720655828030575 6.35455888874043e-05 0.0008519125293214984 0.46850261508096314 -0.12819025995487693
82918000.0 0.7184587145312753 -0.6821849505449877 -0.07732665141826656 -0.5981394256069715 0.0003249650682163324 -0.0002113277765561225 0.48163454050557397 -0.13720615006982975
83917000.0 0.7107545171267257 -0.6907702143324906 -0.09804675557544586 -0.6268825952234827 0.00038720037969478915 -0.0016405350035233052 0.48656853647549686 -0.14228093960925722
84916000.0 0.7039722655448252 -0.699582496596853 -0.11501732871241903 -0.6607583684584399 -0.002219381590315881 -0.003091104200244138 0.47171799060170194 -0.15414738944494855
85915000.0 0.7003774363018492 -0.7050677730688371 -0.1355389779447418 -0.6922915081601787 -0.005554375007172846 0.0010642636379176171 0.4733359906317206 -0.16144620030427392
86914000.0 0.6897791368830407 -0.7158783631832208 -0.14876647064715642 -0.726866834844725 0.002073320539054562 -0.0022025080022634426 0.4678004868488604 -0.16041832223586308
87913000.0 0.6827474606773946 -0.7209767820384854 -0.16334903180230537 -0.7576339208425461 0.0021433954620682007 0.0005348895299091617 0.4603536977087303 -0.18226974037919436
88912000.0 0.67750685657159 -0.7264809025593743 -0.17820752894622768 -0.7900558270317861 -0.0004587066053320332 0.0009851408835393862 0.4678848764923256 -0.19793689822708962
89911000.0 0.6674403740440723 -0.7367482282109058 -0.19660797179710032 -0.8271185546871928 0.0026187164833624517 0.004190142504111978 0.47255817480220197 -0.19215592838528694
90910000.0 0.6631609996058168 -0.74016010074295 -0.2041612118936948 -0.8609264708667621 0.0005876944444589099 0.0001373504130173011 0.468759045022159 -0.20150950990440505
91909000.0 0.652280316890922 -0.7459357917989178 -0.23200618681865962 -0.8904470014609883 0.0005942304809749121 -0.0033543634425639277 0.47356700208955105 -0.203630709491263
92908000.0 0.6455970831552297 -0.7543252434801977 -0.24456208159926013 -0.9274815130927607 0.0018282519121300945 -6.896760657478032e-05 0.4622066496996423 -0.22927205340911508
93907000.0 0.6403626521035626 -0.7575737434104297 -0.2620627200458517 -0.9576476336143528 0.0007252460128203711 0.0033327424512836503 0.47669494853184313 -0.24409029025592852
94906000.0 0.6242688340661685 -0.7683224837720594 -0.2746529669190822 -0.9931592443186267 -0.0008366055045984519 0.0013877689550082066 0.47047759377020076 -0.2360550729325721
95905000.0 0.6199440474619776 -0.7728630105351538 -0.2978545727768782 -1.0292677886715893 0.001300621208070232 -0.0019547939497854836 0.47465745532885345 -0.2597779458320846
96904000.0 0.6101444954155679 -0.782378614725046 -0.31854463870370187 -1.0646479110777083 -0.0010663389505484726 1.6753466721305535e-05 0.4665235461939007 -0.25312725892654747
97903000.0 0.6012953031034316 -0.7852586851036749 -0.3370384713576489 -1.0966646331262349 -0.00028523975922318 -0.001439482224142522 0.4537148854392297 -0.28323464599315284
98902000.0 0.5974425990217134 -0.7942219447107843 -0.3539821976228112 -1.1368400642879037 0.0005708765426234864 0.0026960264350453346 0.460604891257425 -0.2811658492771405
99901000.0 0.5867674260733466 -0.7988129727772701 -0.38385721890024893 -1.165657237379053 0.0006807027146775209 -0.0007590504817946258 0.46012949356517646 -0.31104924103982995
100900000.0 0.5778080435612596 -0.8035763222394682 -0.41595043721808256 -1.192735329349343 -0.00038378216489223473 0.001449004807014673 0.4665958684643858 -0.299257750243775
101899000.0 0.569070946968549 -0.8109186416881282 -0.4400021871078854 -1.2331698248401464 -0.001992330951051323 0.0005591935250724322 0.4617616987828738 -0.3074952640776024
102898000.0 0.5604306571047549 -0.8178294276761706 -0.47494566200956945 -1.2693417178294788 -0.0011902088617607757 8.212431751386873e-05 0.4541898593649546 -0.3342038179704756
103897000.0 0.5507818058588647 -0.8265457850886714 -0.5128422112310465 -1.3077202674209996 0.0038854256517995706 -0.003640076686010596 0.47568254715317815 -0.32442401628557727
104896000.0 0.5448660455892523 -0.8348102927377757 -0.5555645249001143 -1.34402003226459 0.0038012826580784364 0.0005518765106564934 0.44809913449191446 -0.3319012172207224
105895000.0 0.5325868182976099 -0.8360710227639926 -0.5963977569354404 -1.383201116537785 0.0024061648838723834 -0.00019315087452144601 0.4440087879558134 -0.35688306951018217
106894000.0 0.5232426681641169 -0.8433720644925915 -0.6487078606748705 -1.413642988480342 0.0005336938300604395 -0.0012209560544493069 0.44108238014546514 -0.35957220540833146
107893000.0 0.5157743705059977 -0.849997958485867 -0.6999854082135313 -1.4596149367614513 0.0018592549453431073 0.001383301909352112 0.44490830909151746 -0.356626752555563
108892000.0 0.5055858635724035 -0.8515268944741246 -0.7578292717996451 -1.4954356440665106 0.0024773862567945555 -0.0011133412777066434 0.45047210889364064 -0.3664199404684685
109891000.0 0.4929041903750848 -0.8595367507632714 -0.8129078904839573 -1.536403357028981 -0.0016983221885824447 -0.0009097117993351162 0.454734477184443 -0.35492963614326617
110890000.0 0.48044188212323347 -0.8752748244836503 -0.8948193305896591 -1.54707293674315 0.002317890652619088 -0.00046413886187439337 0.4459993485606289 -0.388611046920304
111889000.0 0.4723836505165702 -0.8653493720166664 -0.9388521622684979 -1.6009588937270582 -0.0001334721206527416 0.0018012965678112143 0.4292141492179544 -0.3976394915600154
