! Created with skrf 1.9.0 (http://scikit-rf.org).
# Hz S RI R 50.0 
!freq ReS11 ImS11 ReS21 ImS21 ReS12 ImS12 ReS22 ImS22
1000000.0 0.9873755936790325 0.013801492383727338 -0.006761690096128053 -0.053451696495142455 -0.01609519963773313 0.003684696491655088 0.27299400846354693 0.29396784190792863
1999000.0 0.9979417155810714 -0.011893279680065073 0.0036313063678913614 -0.0169204286211228 0.0003977681712313786 0.001832800243122868 0.2371144054079303 -0.04118680805468765
2998000.0 1.0032190813864086 -0.01792319199279429 0.009202225271006845 -0.011029869667704285 -0.001186644073371005 -0.0026415355759166806 0.19136530532811655 -0.16607710175300125
3997000.0 0.9991673623416749 -0.02804696719112445 0.009996530461782002 -0.004702996205948347 -0.000310588098398147 -0.004645338556161695 0.09691618053754435 -0.21758486569213425
4996000.0 0.9990741311860402 -0.03664645244575624 0.012777862107550223 -0.0017996723668579804 -0.001066331975334807 -0.0035178342447702918 -0.04988104923586306 -0.19487573305986408
5995000.0 0.9968624511395824 -0.0472435407571643 0.006987841959073215 0.0017156975366059769 0.00554154276361964 -4.222459983428697e-05 -0.10811111432307538 -0.10110618201585363
6994000.0 0.9942793606880521 -0.060833593670916945 0.006462140524273245 0.0048667540368345615 -0.0010663505230081869 -0.004018241632241665 -0.12919126485076896 -0.026264200783927747
7993000.0 0.9979588363488 -0.06364811184190003 0.005845604623404856 0.0033683986850323658 -0.001429754691233311 0.0006395715950582388 -0.1588329384287345 0.028666429032124664
8992000.0 0.9952027588963686 -0.07403929910058944 0.001827348511989444 0.0073683671060982 0.002927230801702348 -0.0011466211361060076 -0.15285214648215503 0.07005860383306121
9991000.0 0.993251678697234 -0.08391210050413896 -0.0022535707211319166 0.006248724370450098 -0.0007296930975159133 -0.001710971705195218 -0.14552845481537313 0.09253556561744194
10990000.0 0.9929430129962079 -0.09355393831909237 -0.0007002466138721687 0.00400812882141537 -0.0012581701707475195 -0.0005887983971701666 -0.1346948045879525 0.11600873599006799
11989000.0 0.9915755373010422 -0.09684631953331779 0.002010612974281137 0.0007687592864820306 -0.0025517521215637235 0.0036161453899138285 -0.12167661473262391 0.13654244937091398
12988000.0 0.9918479225738721 -0.10839951536282033 0.0015617561340372822 -0.005061029169674575 -0.0015633432953309225 0.0011187274232554827 -0.10784890570932283 0.15816885722954943
13987000.0 0.9891708975822475 -0.11780556469594637 0.004329895656918944 -0.004094490674539931 -0.004377944284605516 0.00219700551191614 -0.10486338608273692 0.1761559606407426
14986000.0 0.9893443212636853 -0.12427880594975857 -0.0024726955043794883 -0.0028474896231630888 0.0005478864881491781 -0.0019610511441807326 -0.09132581973307331 0.2085183231375415
15985000.0 0.990487673383351 -0.13398807618454733 -0.003461595941651117 -0.0009772011266103381 -0.0020465328179963558 2.1212864622866424e-06 -0.06811652869788064 0.21576850069486697
16984000.0 0.9857990893544478 -0.14524432545866153 -0.0010736036539749096 -0.0045731152985543375 -0.0006966077760676479 0.003053296415801631 -0.056813942530165994 0.22761256462994087
17983000.0 0.9883532600051013 -0.14691980285614542 -0.0020332586457686964 -0.00945754913078472 -0.0012778627584885765 0.00042167813388053034 -0.05102728092122793 0.23157983973221005
18982000.0 0.9849781396754843 -0.1579182510744788 -0.002790350882875245 -0.007300330237587704 -0.0026994253035474815 0.0007549461258550743 -0.01826905396894086 0.24179803948469045
19981000.0 0.9832446501370661 -0.16480932020319292 -0.0013746048230508854 -0.005264912527302353 -0.0019042987669996762 -0.0019782765572344814 -0.002280142888099601 0.23702668060620824
20980000.0 0.9825804801690599 -0.1747620394443249 -0.003407734997084644 -0.0021840780700662973 -0.002155513093024452 -6.536092144548479e-05 0.007797949863313078 0.2620707135708591
21979000.0 0.9795446309014185 -0.18381260712259043 -0.0033956702746195 -0.004638384499700895 0.003245590874406667 -0.000584047457161803 0.015036964579206965 0.2437495328543907
22978000.0 0.9768447342997028 -0.19275417892990857 -0.012878165280428781 -0.004847970238363545 -0.00036205605472239353 0.0016695556161514522 0.028091304386775682 0.25843537307382963
23977000.0 0.979548362545662 -0.1978085524038637 -0.008134640497160766 -0.002905282402323743 -0.00032500910189405306 0.0006990607084009379 0.040454794365081585 0.2625836467302733
24976000.0 0.975355372460185 -0.2097930497825267 -0.001873203304786211 -0.002336095339950409 -0.005640832071265062 0.00230476689361148 0.06322784325271112 0.2643081127754133
25975000.0 0.9778015476251458 -0.2187775585266223 -0.0065987877884652124 -0.00372973969601129 0.007327928512108547 0.023612530475447282 0.09329928547209079 0.26594716423108805
26974000.0 0.9699055670285619 -0.22734809186576377 -0.0027445705745786043 0.0003959196733344673 -0.001509995615018778 0.0010265255495232753 0.09243139371515757 0.26375112484060337
27973000.0 0.9710101731807999 -0.23151673154308514 -0.0027345240882398958 0.00015369883160183293 -0.0034868744189118744 -0.002216084692591414 0.1027777571391423 0.24768541467443633
28972000.0 0.9680741210486966 -0.24106026607633518 -0.003516508406614222 -0.0007544605829415517 0.0010868612669819719 -0.003009672859902608 0.11201519812365347 0.2616974142293321
29971000.0 0.9647510411237274 -0.2511234498422718 0.001144941007677894 -0.002767055599646947 -0.00033144442944754254 0.0006543429350426219 0.14798534637500135 0.27562083252045894
30970000.0 0.965559903682242 -0.2562171256125155 0.0043582779689759765 -0.0009258693495513472 -0.00023416362440057805 -0.0012523121254769455 0.17580025782420555 0.24885724753348626
31969000.0 0.9612141438051623 -0.2657839745035593 0.0045913317063302934 -0.004412646156689447 -0.0012448297326467653 -0.001788296110469008 0.1455778290377188 0.248370751604662
32968000.0 0.9594310862981065 -0.2756679916889795 0.006441836998833217 -0.005748718829040384 -0.0033211894549808442 0.0008153101141584366 0.16372731873120647 0.2449729352358948
33967000.0 0.9570334610322283 -0.285077330439785 0.010726685270430285 -0.010141926267190765 0.00249314689892273 0.00036388437660330434 0.1851269463037734 0.2529228573641374
34966000.0 0.9542433034541313 -0.29422002174893963 0.015182861135047281 -0.011602992369810073 0.001794863686511962 0.0005664891907756846 0.19588701413183748 0.24908114406055165
35965000.0 0.9515388872302473 -0.2976078284347083 0.0187201575969637 -0.014307978354569954 0.00279088459621485 0.0001555889583561856 0.21074437517987024 0.25030125637328726
36964000.0 0.9497722011578887 -0.3095643634217268 0.01761845875105737 -0.01618194144369859 0.004782714600533667 0.0007401471261871476 0.2180073160696201 0.24869871848507938
37963000.0 0.9468359523355517 -0.31691922643132403 0.024961915329241503 -0.02194868034292217 -0.0026503267066388795 0.00043237215331322 0.23063364954457521 0.24194806218225853
38962000.0 0.9433649661468935 -0.3260664906191231 0.025676009488256903 -0.02570089672207842 -0.0019631947815873328 -0.0025040155398176472 0.2511081794454654 0.23227435941270827
39961000.0 0.9404908937820255 -0.3339663862877323 0.027345298183250707 -0.029563657524722908 -0.0015264204465196222 0.0037841515278126533 0.2526254319956185 0.2232111247273019
40960000.0 0.9368549085906532 -0.3428000646945664 0.026696098892312416 -0.025492891073039866 0.0006510913580346362 0.0023662981530689687 0.2683766422873342 0.22632704770878856
41959000.0 0.934553703267776 -0.3510866474725091 0.03179654622372222 -0.0334512316775137 0.0021413017789099834 -0.00265900316587569 0.2694410176096013 0.2206195146706259
42958000.0 0.9308765986212447 -0.36053108028066305 0.03159696431545678 -0.04261723650470254 -0.005370328757336205 -0.004234645440769249 0.2838816564565384 0.19953391171550747
43957000.0 0.929175627208101 -0.3649901165119847 0.036501731416748624 -0.04744725040705253 0.0016692633810578032 0.0010878591029905812 0.28948994774506065 0.20085787458688803
44956000.0 0.9254461451895892 -0.37281180998961094 0.037671532445987164 -0.05456315945233503 0.0005912993955481541 0.00394552621494084 0.30014339366875376 0.19391310183173163
45955000.0 0.9204135321901499 -0.38638210372020587 0.03703596071058769 -0.05860845896254059 0.00040867982510064054 0.0030905366155183646 0.29943162461314343 0.19650572023870844
46954000.0 0.9182907316828623 -0.39260685370272536 0.03810507087265965 -0.06711620392863102 -0.002384820107921676 -0.0009595870112884219 0.32580846793872575 0.1736117420551395
47953000.0 0.9158500586571298 -0.39945045889913794 0.03925183123667007 -0.07669040615271229 -0.00043220568990602935 0.0012574410708485917 0.3371082263428654 0.17743025725610448
48952000.0 0.9088322641202413 -0.4114654560361974 0.04241547263834928 -0.08347395200944689 -0.0029363544118659285 1.5677343253814338e-05 0.33930429412259666 0.16342978558073928
49951000.0 0.9055771687534526 -0.41818760730858706 0.04347625230013592 -0.09084110972778198 0.0007573427898660376 -0.0007705298720529443 0.3528657825615792 0.14729259764904798
50950000.0 0.9014555312604053 -0.42517298824010474 0.0477902704416201 -0.09915780506146157 0.0014952299590095656 -0.0014298293655818702 0.35833379524889236 0.1308966705746363
51949000.0 0.8982023953985897 -0.4327553727364172 0.047876782566883484 -0.1074294419961463 -0.00019735549221719525 -0.003598238746861679 0.3607736499887102 0.13760197781217984
52948000.0 0.897361943115666 -0.4397157124332453 0.04621318231846561 -0.11600069534968427 0.0009207346339605755 0.0007118552009323842 0.3734231599688449 0.14504945139807482
53947000.0 0.8896895628460005 -0.44941432955001837 0.04899785142667065 -0.12772626504368595 -0.0021967310963515413 -0.0006747010133734454 0.3690636468820102 0.13182135259187291
54946000.0 0.8861903619856434 -0.45663700486136066 0.05017620319160697 -0.1353018181697296 0.0010139023775817015 -0.0003336131563700284 0.3921013024374949 0.1183262595234894
55945000.0 0.8832889359805848 -0.46663823220058437 0.05222169286753644 -0.15044070341237006 -0.0017283020099166347 0.0025604559695917672 0.39012677355236985 0.10290009127098926
56944000.0 0.8790737143782765 -0.475471950031945 0.05486437469028958 -0.15848380739915835 -0.0017497435773765966 0.003569588098076492 0.39819145825227126 0.10105984963347074
57943000.0 0.8731887069489634 -0.48507432457077865 0.05717111722027412 -0.16970233690139824 0.0001722737228308193 0.002723571360762007 0.40415741949974293 0.0905601735052931
58942000.0 0.8698266258836647 -0.4884503312649497 0.058163603033673746 -0.18291049303334467 -0.0008754480925645726 0.001997205244091115 0.42020200342260605 0.08934662295374211
59941000.0 0.8650946529108808 -0.49846035608662254 0.05763691004056305 -0.19182320328329946 -0.002336947509743836 0.0021114720768227275 0.41659117525835937 0.08798888399234825
60940000.0 0.8588935103127936 -0.5048611112242326 0.05945751189342384 -0.19876905189453756 -0.0008806820520825666 0.0023323479187215275 0.40912779606197036 0.06915848642621404
61939000.0 0.8557764025505286 -0.5123190903281625 0.06117154528417009 -0.20799721401871404 -0.0005599830982351166 -0.0006833850259516958 0.4155623751162219 0.059918730492263046
62938000.0 0.8489587612905921 -0.5224397202213319 0.06396281467486699 -0.22801962469995565 -0.0007239160876917051 -0.0013956680450673562 0.4493994174269199 0.04304188736225401
63937000.0 0.8453975876333338 -0.5294662869161167 0.06374555755305525 -0.25007666745342344 0.0016650197551256664 0.0007916238486871562 0.4334647436032195 0.03799635616154728
64936000.0 0.8376054734636426 -0.5381435897097978 0.06281478587237102 -0.2622945009298674 0.0019656586500584753 0.0011742103218547746 0.43357901739967736 0.04139893469571752
65935000.0 0.8358621144937951 -0.5476859518994089 0.062056101483468795 -0.27980378239493725 -9.994496205470623e-06 -0.003639779961020391 0.4472378753189741 0.016785080205295858
66934000.0 0.8319820896969135 -0.552777226174846 0.063533034055774 -0.29302981358985963 -0.0007001565086196425 0.00019121066042078455 0.44350413585840465 0.006327094181355877
67933000.0 0.8280382449790393 -0.5605021356971197 0.059499513028206115 -0.30910762053117735 -0.00024347464269007632 -0.0023422903570206534 0.45053384680911235 0.010932634468564458
68932000.0 0.8182527897854022 -0.552121217078647 0.06020075861749657 -0.31983808693105625 0.002158866669061725 -0.005160574888131585 0.44383417441507483 -0.007132690146710174
69931000.0 0.8115659650925054 -0.5773736675502877 0.05782720955140157 -0.34345129785711725 0.0019002916638740455 -0.0024806050246483848 0.4438312104381048 -0.022845623926842928
70930000.0 0.8083946684289264 -0.5809684908088271 0.05868501618144323 -0.35865580233357963 -0.0007488427731579063 -0.0015737038684765874 0.4421179027407501 -0.03129776933537983
71929000.0 0.8062099645403906 -0.5906404960454218 0.05063879809416427 -0.37906959357872333 -0.00028779730163571354 0.0020167055704837533 0.4481195248363623 -0.05250504934235228
72928000.0 0.7986821812554726 -0.601704328252673 0.04671836022191439 -0.3945364334889434 0.004391488106496391 -0.001303262999321604 0.47516898821439163 -0.04691072995511098
73927000.0 0.7918170042300302 -0.6047609754458206 0.03854415674981451 -0.41702210680065355 0.0011547702484654941 0.0007043409032300632 0.45149894295816734 -0.06240629183237492
74926000.0 0.7875627353489946 -0.615785694136044 0.032021966319746784 -0.43960743339381547 -0.0021255065240994944 0.0022162591494927857 0.4552736929156523 -0.06056694120520147
75925000.0 0.7798058354615413 -0.6206549763130299 0.02371623166933841 -0.4604945516661827 5.797474394831705e-05 0.0030330652524514085 0.47033113591377307 -0.07828076478330993
76924000.0 0.774904748718492 -0.6270155371659707 0.005494518702563326 -0.48543162100365606 0.0002310400444989333 0.0036247415450300635 0.4718752839972401 -0.08933930060462743
77923000.0 0.7668598039332786 -0.6357004324683234 -0.005395105870750457 -0.5077512386331355 -0.0004268011388184222 0.0023867713927033943 0.4571378054068988 -0.09937980604108854
78922000.0 0.7628252417628959 -0.6437744935692773 -0.017934772694342446 -0.5413639462952925 0.0025421241461347165 0.0026640588214487376 0.46683445094783904 -0.10808344681878752
79921000.0 0.7551713246967618 -0.6498987057109268 -0.03743297262450394 -0.5674815110325474 0.0023830086029235456 0.0029523143531291467 0.4623430667514475 -0.12266593527490238
80920000.0 0.7509166057910661 -0.660884411442897 -0.05287376866899379 -0.5932878548424683 0.0011709420986065007 0.00047529337700730033 0.46849973294594455 -0.13017973741937974
81919000.0 0.7434235339983013 -0.6648169176807073 -0.06542900072797159 -0.6244988489162643 0.0067925809496756084 0.001509092805398003 0.4593134482757268 -0.12983183120121672
82918000.0 0.7355887596313592 -0.6721597892532686 -0.08155931961553249 -0.6548425023101748 -1.276475353420307e-05 0.0010523215524365975 0.47119248593192253 -0.14516174912935906
83917000.0 0.7266050058286294 -0.6814324364144823 -0.10578317128327029 -0.6881794025058104 -0.0012490694744838138 0.0015396598459441388 0.4763207055398871 -0.14499472300392233
84916000.0 0.7212981182101471 -0.6886737619798657 -0.12354376386218525 -0.7252362549430114 -0.0015871804784442372 0.0024520368175958373 0.4731644790633263 -0.16549952580817576
85915000.0 0.7144586188228524 -0.6963027149622081 -0.14217354087856074 -0.7596475284064658 0.00029141425487980784 0.0017999364069327135 0.4679881196037384 -0.17032789531593773
86914000.0 0.7076833255964579 -0.7049778955547029 -0.15762770560058542 -0.7985430486574253 -0.0031929551109597227 -0.0007577858731938626 0.46750079398717537 -0.16594099973894533
87913000.0 0.7000592987386545 -0.7107987599521706 -0.17506052859723029 -0.8323768819815086 0.0006117888502855938 0.004485756838159112 0.4581236030640445 -0.18295774359566694
88912000.0 0.6931629420978203 -0.7167411167243679 -0.19638544272583072 -0.868067119111408 0.004145022809783483 0.0029667340720015054 0.4561345996017045 -0.20162187232339823
89911000.0 0.6856267439165765 -0.7270112058698637 -0.21425087560880704 -0.905610445974349 -0.002691800529926019 -0.003271567377816022 0.46094329932234435 -0.20940972502448796
90910000.0 0.6793167357385566 -0.7296551776801917 -0.23310830665663376 -0.943829653821428 0.0006945861199917493 0.003086297608899506 0.46700892599845756 -0.21313189424102436
91909000.0 0.6691540482498246 -0.7361069997893454 -0.25705954195409497 -0.9806876137687021 0.002668770095359313 0.00176728577695172 0.470998034290091 -0.22645909193465877
92908000.0 0.6631503330093094 -0.7457805633929072 -0.2753998923758657 -1.0131123166892018 6.666812975617081e-05 -0.0006225327094224162 0.456478551384894 -0.2401802830761689
93907000.0 0.658088069036798 -0.7491437092957658 -0.2949787541539953 -1.052897057028253 0.0008767104378755676 -0.0014963207903591496 0.45745444530464735 -0.2558431226220814
94906000.0 0.6463572620157932 -0.7601764871162796 -0.31691893232484514 -1.0889947967047777 0.0004941457512481157 -0.0032280173771329725 0.4558079799767045 -0.26239209726391555
95905000.0 0.6406198712415444 -0.7638602988423127 -0.3398886310082554 -1.127736179758517 0.0019231228854916886 0.00200055400241986 0.45736944862794016 -0.2783322131316711
96904000.0 0.6312613836960164 -0.775002166844836 -0.36739193504931356 -1.1686677049344354 0.0030863663268324137 -0.0010518748474485896 0.4561843836471578 -0.26843098572531215
97903000.0 0.6218673722086437 -0.7775019657256927 -0.3848562331957978 -1.207038602926328 0.002737102188389739 -0.0038095392184373305 0.45011497216921326 -0.2828632958764859
98902000.0 0.6174691806248553 -0.7863996944960431 -0.41664796837152157 -1.2466575819289287 0.004021392975717688 0.0030023438723185006 0.4425462449613284 -0.3057474775932386
99901000.0 0.6066897859662584 -0.7912067151523776 -0.4458282629229063 -1.2812495973162856 -0.0007854129517625455 -0.0011170749195164328 0.4625361844660298 -0.32174494985252977
100900000.0 0.5963235578394279 -0.7963822028063702 -0.48466761976163386 -1.3126420261513008 0.0009187279671840401 -0.001110990105958591 0.45773999473016164 -0.3195603209042569
101899000.0 0.5880069246909755 -0.8028627595445323 -0.5146046764784677 -1.3555159575565652 0.0005150936075150577 0.0012608012517530763 0.4543327707498862 -0.3249444866323036
102898000.0 0.5775169400198892 -0.8104376011674579 -0.553851539543809 -1.3940441648434074 -0.0003903853708778972 -0.0013591679371562318 0.4466055246730197 -0.3361052917517616
103897000.0 0.5689129889842194 -0.8166217201575289 -0.5948262493491278 -1.4359177607405829 -0.0031919447173035004 -0.001704063308970144 0.448671916243431 -0.3298660921032163
104896000.0 0.5636162806764411 -0.8266409812206598 -0.6439745670577923 -1.4770932151708398 -0.0033396094900444927 0.0029821307357667543 0.43459323351388357 -0.3232842296137365
105895000.0 0.5506717834833952 -0.8261419885832075 -0.6977121879643574 -1.5199219420226782 -0.0020399934586671957 -0.0005407130540971373 0.4240454724323321 -0.36062232685129225
106894000.0 0.5424606442298767 -0.8343710042293578 -0.7563986722552016 -1.5581328783423987 0.001514846019072938 0.0014659461479191083 0.4310202520397984 -0.36558422147645914
107893000.0 0.5336057770543241 -0.8404438699968315 -0.8076414734900036 -1.6034041778550085 -0.002319645055609884 0.0037607606236085573 0.43678545873966756 -0.3662563464946077
108892000.0 0.5267122388215038 -0.8446033096345522 -0.8687046860084922 -1.647781977631412 0.00495553537817467 -0.002200105090730719 0.4221199412943789 -0.3782584352445165
109891000.0 0.5135032274178195 -0.8513277341755542 -0.932843788581057 -1.6855951836386283 -0.003010214327750576 -0.0019141211355358755 0.4320703239978603 -0.37307504894509375
110890000.0 0.4938279596399146 -0.8600545509320202 -1.0110752233786673 -1.6810994999611946 -0.001425060355771381 0.0019604435918966767 0.4230071209820058 -0.3803421282102665
111889000.0 0.4934600201157519 -0.8600413254009145 -1.065595235336356 -1.7603598475676658 0.0025838467073557823 0.00019281408880754408 0.42224983266031607 -0.4030712509164292
