! Created with skrf 1.9.0 (http://scikit-rf.org).
# Hz S RI R 50.0 
!freq ReS11 ImS11 ReS21 ImS21 ReS12 ImS12 ReS22 ImS22
1000000.0 0.9796284238377074 -0.0031908371279778967 -0.010944073322217007 -0.06624487163862525 -0.010791350979375076 0.002047527937377311 0.3223859010069017 0.35858514283356496
1999000.0 0.9953029104755379 -0.01859659076748627 0.0034868942385122914 -0.02508138641940532 -0.0008308472610659672 -0.0014888051713650044 0.25046455903708353 -0.03998813946408708
2998000.0 0.9985321768640638 -0.02750692551638707 0.009820073947789913 -0.01680269689283354 -0.007024914167459623 -0.002079631443315156 0.1873648901229317 -0.13646742116058957
3997000.0 0.9996837984120075 -0.03149814159964102 0.0100260904898401 -0.004346040588448054 0.0018219614280558646 -0.011301881826385226 0.09348825543573315 -0.22436776290517566
4996000.0 0.9943747338122717 -0.039972846971586595 0.016011398872457953 -0.001580134354873703 -0.0011903712967794595 -0.005565198919913248 -0.041675936985073665 -0.1814171532302725
5995000.0 0.9895387962437472 -0.05137768625615355 0.007122802209808253 0.0028130980903713016 0.001169544286555151 0.0019574223577925646 -0.12754805918094833 -0.08633324875077562
6994000.0 0.9927986056425996 -0.05794477017772982 0.00746973805629835 0.007471784449533334 -0.0009533464323480893 -0.0035960580356104058 -0.13350967524798676 -0.01877723490126034
7993000.0 0.9925359045157088 -0.0696372694355094 0.002605933965921057 0.009122005799042168 -0.0005019137328464947 -0.0043049026499102265 -0.16442086859851196 0.0429626300703398
8992000.0 0.9907230332461981 -0.07102411467531808 0.002859094768190548 0.004455925922881286 0.0020617022089797943 -0.003290742378854327 -0.1557096948136377 0.06479812762182104
9991000.0 0.988071118726849 -0.08359096167189942 0.0005352179020870347 0.0053634120523656905 0.004531067495930457 0.0041592236462857455 -0.1604721197595066 0.09284319017639675
10990000.0 0.9884971207833151 -0.09418073968225264 -0.0019236558751466106 0.0008277619952153689 -0.00045490625290451437 -0.0032922234762561876 -0.13801438017869094 0.1187474085775844
11989000.0 0.9852498403902474 -0.10016156646634523 0.005358820751162489 5.566412148358483e-05 0.0008075679002530766 -0.0019226080177240593 -0.12451228138505284 0.13353370065002104
12988000.0 0.9841590983899493 -0.10964736781283013 0.003502360743660643 -0.004132755521327734 0.0026643090510651366 0.003939837005843312 -0.11041500852912528 0.16369130387871308
13987000.0 0.9844841326370173 -0.11775997912253423 0.00473219656575942 -0.004974720740816991 0.002882744578109497 0.004688976511807273 -0.08726827097436762 0.18734390570975173
14986000.0 0.9836119262591605 -0.12283983022515091 -0.002920265562738437 -0.0073406355387176095 -0.002242145793231322 -0.0030222073601086814 -0.08296160446068161 0.20001303039582052
15985000.0 0.9844680595280182 -0.13667623273319449 0.0006881819700800478 -0.007825727947116851 -0.00018373194372190105 0.00043787641498734795 -0.07028489747242997 0.21829094795831552
16984000.0 0.9827240938684013 -0.14272700472065372 -0.002850399064834409 -0.004236855998696572 0.005474298317415626 0.0015640126421932903 -0.06652003903475237 0.21845223603336042
17983000.0 0.9806601991369619 -0.15054498634512692 -0.0016589249485143192 -0.007459778921294971 0.0031698015980720345 0.0006636047009967413 -0.04712252273654888 0.22048189260470671
18982000.0 0.9790580663561594 -0.1608852547716477 -0.0051876761565145405 -0.004866476436121982 0.003932193827081008 0.0024155287618171746 -0.02399383993710371 0.23755347573075553
19981000.0 0.9794926017413976 -0.1640063771164633 -0.0026169720474855046 -0.006214018947700394 -0.0035488079261615994 0.00031347725600688463 -0.009089619780115691 0.2342443809479942
20980000.0 0.9783511211876219 -0.17503156819249252 -0.00859776474723749 -0.005087528748897666 -0.004353530898734319 0.0010116936278664372 -0.0030639263163026137 0.25315993240922596
21979000.0 0.9745871439484296 -0.18625598660833184 -0.006216862434484053 -0.0006636207583138299 -0.0019516284388652954 -0.0004976292240626641 0.01317558151916393 0.247506162137414
22978000.0 0.9723466011842777 -0.19367637090100365 -0.00900745781468163 -0.0013801030123620748 0.0010156441646284517 -0.0013366698904460946 0.0248916385136352 0.2558296696116315
23977000.0 0.9741553734011276 -0.20123437014265175 -0.006760423345049459 -0.003297706822173596 -0.0009313527558899842 -0.004204453937468709 0.040986798547158115 0.25169714537518034
24976000.0 0.9706713302727076 -0.21123190609283501 -0.0063111696380815175 -0.003721911081737177 0.00024585677355760645 -0.00199819826435838 0.05981623094291562 0.2593849967937117
25975000.0 0.9677531470647874 -0.21707432559195036 -0.0034424422506806698 -0.0010547908634272497 -0.022727520241974743 0.012518232714749646 0.07870378546425497 0.25796975010812123
26974000.0 0.9679447511683029 -0.2271746698440036 0.0006921133356406455 -0.0008647972217192763 0.0018059678736577864 -0.0016770627324629137 0.08136431062470108 0.26418480635950126
27973000.0 0.9653719502819437 -0.23465823048390308 -0.004477429375330134 -0.001238607232915587 0.003930278395115375 0.0015294083803514733 0.10897371550654655 0.25763233740099134
28972000.0 0.9639461797008043 -0.24277336086610604 -0.002393625342630515 -0.003950314154851099 -0.00037794253863792255 -0.0002139741090971579 0.12147864208420425 0.2531590329622425
29971000.0 0.9626732182124146 -0.2550221718312993 0.002850335374139223 -0.003924715827704041 -0.0011010146827096273 0.0014962929200052438 0.1407807550359701 0.26738494846101973
30970000.0 0.9595002895016191 -0.25914323001828365 0.0016868584954931854 -0.001800750022957786 0.00026439625550956123 -0.006175799147666491 0.16244986563373698 0.24666503835886594
31969000.0 0.957984176007183 -0.2683222068667418 0.005516308798310853 -0.008321639256257044 -0.0019158569649194923 0.0013989186068065116 0.1493273321793914 0.24578582740708568
32968000.0 0.9569160950119417 -0.2760539727573151 0.005728682687329177 -0.006841911973015653 -0.0009679774697684215 0.0028561308425822727 0.15887411464038373 0.24768286288969252
33967000.0 0.9547023096203976 -0.284591686905079 0.010755919661728126 -0.007215358840788885 -0.0006870439231454299 0.0001030407747978279 0.17651106985249496 0.24299075043615886
34966000.0 0.9507332108417873 -0.2964091333064245 0.013376992354101487 -0.010792441972431928 -0.0014573343415040566 -0.0033231894956010162 0.18548993708698652 0.24788410708527847
35965000.0 0.9471199157439325 -0.30071353846012033 0.01425127148660594 -0.012274128364370827 -0.0021369590384767794 8.766348440141784e-05 0.2099011013614385 0.24870281946181297
36964000.0 0.9457464005623831 -0.3111196828172343 0.01766513871047913 -0.012569781928877354 -0.0011180741842379252 0.0026618960301898905 0.2084036949919283 0.2503011747289879
37963000.0 0.9423793848786068 -0.32106706692655135 0.023450723703660956 -0.018522082942923946 0.001244430036183672 0.004292716634899618 0.21995945002327347 0.2349575424527995
38962000.0 0.9385791159439838 -0.33076328709639113 0.028299942884228425 -0.02483008406508945 0.0022415802360233436 -0.0006358580381740332 0.23119508101322167 0.23262143267611834
39961000.0 0.935993742628572 -0.33938075587186534 0.026706746160409665 -0.02776346009872407 0.0008080800767197472 -0.002451041084316745 0.25327778881483487 0.2259223706122701
40960000.0 0.9329417514091327 -0.34661400822624 0.023806921472526776 -0.023755335680662217 -0.00015873125511405606 0.0002001159235915934 0.2695326200761931 0.2234616653564153
41959000.0 0.9295537955361279 -0.3563888109430182 0.029206411129866498 -0.029954227133464992 -3.109888377156302e-05 -0.0009851784348124013 0.2659821443475996 0.20740174933749406
42958000.0 0.9237369434857072 -0.36686264868978313 0.035868483946071374 -0.03594288659888657 0.001965902953065141 0.0009043309309819932 0.27650575202848965 0.20208456947565143
43957000.0 0.9241118083024442 -0.370373539671757 0.03516260134355582 -0.0471582629854426 -0.0010209433181111046 -0.004118585193692646 0.28294212722664547 0.20541960601038253
44956000.0 0.9198707090712435 -0.37826766752230845 0.03691407227995013 -0.048970949326316085 0.0010941448405831196 -0.0014827995746645398 0.29869327950924535 0.204366647085604
45955000.0 0.9163465007796953 -0.39063404333187346 0.03210519221395229 -0.05910258473963027 0.0010454003521565014 0.002526795679316209 0.3074279564381944 0.1913047403130295
46954000.0 0.9113508930749348 -0.3990885126153331 0.03677822048342544 -0.06750529169126333 0.0021640383845349764 0.0005479217336292198 0.32562412002942664 0.18324129212615142
47953000.0 0.9102656515485663 -0.40508464903630215 0.04100372062459606 -0.07260612987950861 -0.0018788026579125512 -0.0006914471725336167 0.3320625615462673 0.17501278463109904
48952000.0 0.9042121264411851 -0.41534889904357536 0.040912048987327 -0.07802615528756082 0.0009559884433167299 -0.001067602332984457 0.3285335570172728 0.16835347697798927
49951000.0 0.8999240224991036 -0.4231636544482912 0.03871721104737771 -0.08577439106127666 -0.0005428836675638186 -0.0027445116241707665 0.3532533521241712 0.15861122040712097
50950000.0 0.8965648526028857 -0.4327461630588603 0.04351647667098425 -0.09359228464154341 0.0008899438971210037 0.0017979037959893961 0.35427422881813064 0.1472169726095426
51949000.0 0.8919263386075891 -0.43944120448367174 0.04561706120770097 -0.10237678886843865 -0.002530162812416904 0.0012644384882874236 0.3566967762060875 0.14513347860912149
52948000.0 0.8907392387443286 -0.44764318110094564 0.048935999686020984 -0.10995160504681026 0.0023552069708990173 0.0017042967313905982 0.3676423017810776 0.14662978935438423
53947000.0 0.8834230027574443 -0.45756930023770226 0.05067600692559085 -0.11868770097376337 0.001649172162925421 0.0006261138868072556 0.36432643001920684 0.13336810730628212
54946000.0 0.8782893270670075 -0.4650390350940264 0.05142892682305613 -0.13145222956720337 0.0007603572837305925 -2.5194279089412408e-05 0.3754389479297111 0.13569962933785668
55945000.0 0.8767839043622969 -0.47245482073020123 0.05169454138560556 -0.14119003268000865 0.0014603883323184505 -0.0005447629501243037 0.38236467905066857 0.10480195076161136
56944000.0 0.8708854641197834 -0.481050886001543 0.057291355055859215 -0.15210306247549218 0.0009833860014040565 -0.0019804780524122303 0.3932854964222016 0.0979777730499752
57943000.0 0.8671114807716551 -0.49116831547951834 0.058004709261860556 -0.16108458401872922 0.0006956907274096416 -0.004851898014917176 0.39891261438903663 0.09418072352697103
58942000.0 0.8603161296646092 -0.4968424482106044 0.05590246752341164 -0.1738755579148602 -0.00041942833712298655 -0.00013881186187155023 0.41624159887398365 0.08462219428778538
59941000.0 0.8593081291199556 -0.5031392817882158 0.06255804509095925 -0.17976181664326693 2.1472126057687987e-05 -0.0009756347117829566 0.4139742003632077 0.0903143080097654
60940000.0 0.8505045854435987 -0.5116304199208762 0.061962708156964356 -0.18601937649937134 -0.00221318812357809 0.002092761003591402 0.4073569964501586 0.08046756049654742
61939000.0 0.8474081865866618 -0.5180143182711318 0.060384514878489996 -0.1961158173557131 0.00034411256735432697 0.000665973146058318 0.4237260529970319 0.07399301514309621
62938000.0 0.8411778617833435 -0.529533074893913 0.06542572379635338 -0.21471932230324142 -0.00016369968798487 0.0009281969886093664 0.4332586825542856 0.05711036932400993
63937000.0 0.8372203706134623 -0.534623413848343 0.06562490264031681 -0.23423219196730613 0.0022282690028791272 0.00016583318803454773 0.42717848025969796 0.045726610939527235
64936000.0 0.8291254110125018 -0.5436247878108117 0.06506496068933748 -0.2499771549152741 1.5825525091219202e-05 0.0007704068819636005 0.43387661771094976 0.04590371885094274
65935000.0 0.8269287791159785 -0.5540558585691132 0.06301200741298246 -0.2633412072025118 0.0017981315687587295 0.0024590138900448025 0.435849791121248 0.022174366468546185
66934000.0 0.822407843375054 -0.5592785028554135 0.05958645033547565 -0.2779703779926521 0.004219713845663355 -0.0005411369672254709 0.43447647252021837 0.01772626880348847
67933000.0 0.8179571885015354 -0.566451468901497 0.06538748723452226 -0.29321736214336824 5.140448079099231e-05 -0.003351806584152881 0.4400054330589963 0.013781738128954701
68932000.0 0.8009506173122011 -0.5635021193848377 0.057250897833833525 -0.30492487881678326 -0.0013184389152087615 -0.001351977071019751 0.44576794663156827 -0.010140250779704926
69931000.0 0.8037914557634257 -0.5821177003130147 0.0628903716710271 -0.324747806767544 -0.0017934922162617846 0.0008219331635463995 0.4459586587456172 -0.015506351624421426
70930000.0 0.7983858268771222 -0.5894915398525529 0.05988063272851718 -0.3422467965012857 0.0012933436814513144 -0.003324241821731681 0.4380124628433687 -0.037724488779790226
71929000.0 0.7938995494884135 -0.5968080969851984 0.05657994628418901 -0.35882616020830793 -0.0018577123052338808 0.0009865097014133313 0.438431518964115 -0.03580170566479872
72928000.0 0.7873208866558722 -0.6083456101653164 0.04755881332423258 -0.3769821447999239 -0.000769736365155076 0.0011400341638472295 0.45703946291667114 -0.04182599782432927
73927000.0 0.7819671050524469 -0.6143117835927417 0.04387009885675715 -0.40025924419086534 -0.0007910860863556969 -0.0028427016324571296 0.44911580400516343 -0.04700844878535822
74926000.0 0.774551960348513 -0.622595363004155 0.03466387152229707 -0.41831424561442954 -0.0009545813563778095 -0.0012546077095873043 0.45680798858455857 -0.042866356651571985
75925000.0 0.7672522715563571 -0.6277816455118851 0.02590789603361768 -0.4383185866174982 -0.0011025884104157273 0.00011700157074979543 0.4685064332747869 -0.07211474180178155
76924000.0 0.7629900237536725 -0.6367215507993822 0.013977224700052526 -0.4652765663744245 -0.0055883768092764696 0.0012049989377758584 0.46571428608799104 -0.07696783415526791
77923000.0 0.7561268921920561 -0.6420650534151372 0.001845584673355955 -0.4891604394842795 -0.0002416135717369663 0.003987038113423736 0.45495244756626674 -0.08981119107585292
78922000.0 0.7508045231785149 -0.6512220884580643 -0.008524435665387674 -0.5170649125771315 0.0019082897635529117 0.0021657748865750504 0.46693032895803044 -0.09763757806882274
79921000.0 0.7416597486721097 -0.6562871708281545 -0.023678832072718883 -0.5423335247132727 -0.0033598774665978617 -0.003776780738174766 0.46212079298785463 -0.09912415113521221
80920000.0 0.7369608544727286 -0.6662899704144029 -0.03858503251829718 -0.575934402269531 -0.0024129074463439355 -0.0022998462230066578 0.46363536917616477 -0.13004169870807367
81919000.0 0.7310082283428552 -0.6745433542560775 -0.060379926114261656 -0.605475296081051 -0.0020807980519035674 0.002566070083550782 0.4585777287608554 -0.12457380360467192
82918000.0 0.7208877627061793 -0.678329835765374 -0.07149949587489955 -0.6330412524398669 -0.0008300132251460073 0.0012930839326291714 0.4744033086483049 -0.14481918467019883
83917000.0 0.7147745185257907 -0.6882207063894722 -0.08735052688538082 -0.6666037905329119 -0.0002653955084602063 -0.002580885209928979 0.46627772061765893 -0.15090643929468492
84916000.0 0.7097356580483094 -0.695834878706675 -0.10807776821643295 -0.6997549526694006 -0.0038974200004872847 -0.004195157780143876 0.46223746714640834 -0.16580669178315163
85915000.0 0.7034530716570929 -0.7005603858920377 -0.12593186735637577 -0.7298165021127819 -0.0012829988999374733 0.0026391828571281743 0.45626312991308354 -0.16702204579011914
86914000.0 0.696603735477616 -0.7112391658363814 -0.13612757026759742 -0.7684490490377618 -0.0013597567066966842 0.0019377876803183026 0.46084876470489183 -0.166357439614149
87913000.0 0.6883974306115134 -0.7176050332721102 -0.1577659379490602 -0.7956342681176152 -0.003416205774474139 -0.0018112059769528008 0.45711862862894365 -0.1775863342416692
88912000.0 0.6811960646273524 -0.722827872458034 -0.17263357159104953 -0.8303791635058757 -0.00014420882782675712 -0.004878259122802092 0.460648341258035 -0.19666109933899215
89911000.0 0.6736841478448657 -0.7327269938575602 -0.19322728960088104 -0.8722188884984647 0.00032428526064998695 -0.0019002179014560858 0.46907953900277105 -0.2015922815460646
90910000.0 0.6665755553870731 -0.7375034508193266 -0.20495522680373288 -0.9076939816870169 -0.0020582364820144958 -0.0035793582555263435 0.45298716134948247 -0.20662731386856376
91909000.0 0.6580038137285652 -0.7421091491517023 -0.22525670671374523 -0.9404014151129708 0.0023511481758964597 -0.003335750975759244 0.4669132673834516 -0.22278560005374984
92908000.0 0.6505266302123581 -0.7500128028937599 -0.24457141255659304 -0.9725069207414787 0.002504514495451573 0.001577462987481149 0.4476370795518235 -0.2298196067926198
93907000.0 0.6446188217011094 -0.755364039729635 -0.2613449399129305 -1.0096699232283326 0.0006713667802813001 -0.0034341910481233747 0.4576591933787875 -0.25589504890458026
94906000.0 0.6327284674209664 -0.7644341217129929 -0.28365550749008833 -1.0440725719673614 0.002073070404024797 -0.0008932734207153292 0.4574881888467154 -0.2400595150577292
95905000.0 0.6266781014356658 -0.7709982705856021 -0.30402321160461643 -1.0821259036589108 -0.0013191029732123436 0.0018952001711065656 0.4610330146067369 -0.2687394091617831
96904000.0 0.6172974978284136 -0.7792741845870296 -0.3285227033659677 -1.117819337940222 -0.003977431931243887 -0.004520229558476153 0.44502097541677377 -0.26834753904797265
97903000.0 0.6080448928643863 -0.7819075393206905 -0.3485242365923418 -1.1545624398029435 -0.004057584292507336 -0.0006581907967441797 0.4515661894725833 -0.2795637492848651
98902000.0 0.6025809678898706 -0.7901279738541769 -0.3751154137131899 -1.1980394378278132 -0.004419083497892994 -0.0036256145853013413 0.44974345605699234 -0.28075232371952363
99901000.0 0.5918473468637668 -0.7956361854436487 -0.4090456184046811 -1.2263177974358572 0.002560365548055705 0.002233751295921148 0.45657777468448996 -0.31440797428207684
100900000.0 0.5871899998027628 -0.7993167389168273 -0.4375664646023164 -1.2660551018812056 -0.0016896888036568196 -0.001470039771365655 0.46627930147846985 -0.3106028864414338
101899000.0 0.5767055353794801 -0.8075556339873231 -0.4676862549253769 -1.3043052443867866 -0.0008638542881902348 0.0027024257549735464 0.4521457725503971 -0.3118402380351268
102898000.0 0.5661225235787649 -0.8154875015368482 -0.5079946248515913 -1.3458055013551888 0.0013157882236236257 -0.002971982533693189 0.45838716319151906 -0.3412735071848263
103897000.0 0.5581924811521889 -0.8223246908351733 -0.5456072263523568 -1.3820229482885182 0.0013021590247693302 0.0028009564841160574 0.45477406096384626 -0.3314170452623882
104896000.0 0.5488102429508238 -0.8303575744474533 -0.5966163085382035 -1.4158851780943422 0.001913604926528848 -0.00015631518830082304 0.43593881546836233 -0.3406592885406784
105895000.0 0.5405615271620978 -0.8330657599590686 -0.641165747230065 -1.4665866918729737 0.001007010469368951 -2.518436583129797e-05 0.4393026433477498 -0.34706447246539035
106894000.0 0.529921122489626 -0.8402105721516094 -0.6970718556171369 -1.5053722923816824 -0.0009095517858511295 3.584749197671907e-05 0.4286755223228556 -0.3564178051532035
107893000.0 0.5209201667376269 -0.8468148364111502 -0.7520566783886867 -1.5465522167243417 -0.0015181412805732612 0.00019405107247417696 0.4324553697974304 -0.3619807052017659
108892000.0 0.5122095009065972 -0.8479157243777323 -0.8120202447974599 -1.5893016279294103 0.0012207984236350144 -0.001422372740757592 0.42384711171494194 -0.37298072999674065
109891000.0 0.49965029550842033 -0.8564126498478103 -0.8687567200811898 -1.625363474461566 0.00035426298913919806 -0.0009472391356036556 0.4390366959321671 -0.3724295669075776
110890000.0 0.49277683274127354 -0.859355299168789 -0.9314711978625544 -1.6398294326095315 0.0018007557954671939 0.002284216418641481 0.43242108959554404 -0.38062441405800873
111889000.0 0.48112084758237367 -0.8622987287347804 -0.9953972064436079 -1.7014649929411603 0.0032262340792512997 -0.0007704681600024217 0.4102064385956619 -0.3962065805721347
