! Created with skrf 1.9.0 (http://scikit-rf.org).
# Hz S RI R 50.0 
!freq ReS11 ImS11 ReS21 ImS21 ReS12 ImS12 ReS22 ImS22
1000000.0 0.9836853445353518 0.004729967317747518 -0.008195425738980888 -0.06386512356370846 -0.01367336288833112 0.0068608219066602525 0.3425417833094138 0.3194110708776491
1999000.0 0.9993949896739026 -0.0132565238395995 0.008454783178917138 -0.02295581256197218 -0.012194391055669706 0.0024730113828089623 0.2720798969900395 -0.05195929201258894
2998000.0 1.0017196029030206 -0.019258481769462443 0.01180681556026864 -0.011726848590554851 -0.0011270808511848792 -0.010173728006733438 0.17922184172602765 -0.1364601544090094
3997000.0 0.9990097843802124 -0.0320339196179876 0.016004292416998005 -0.005119575107733081 -0.010076454292427822 -0.005409441973162566 0.09259368244338322 -0.2355340167376549
4996000.0 0.9957421475504336 -0.04303126258734031 0.007992602651360379 0.0013967236838999396 -0.0031616785479612886 -0.0035325498660827696 -0.04111504995024563 -0.19497079267118142
5995000.0 0.9948612296251084 -0.05164544857794693 0.009692193080025554 0.0009610115034591279 -0.0013668736059036135 -0.0007910241077293744 -0.125526377816098 -0.08870399287636506
6994000.0 0.995161768920132 -0.05866517809948159 0.005800245873331936 0.003580933287035077 0.0024293575910697457 0.004713821250695852 -0.14282473229996456 -0.015103061997272488
7993000.0 0.9932585661496295 -0.06486408860896835 -0.00036451460956068055 0.004724042493187569 0.003574287823187246 -0.0031003955345754483 -0.15887373085199255 0.03551461287707693
8992000.0 0.9942973571769966 -0.07380916359368928 0.003447493420997936 0.0044843440610055725 -0.001703754517584093 0.001554804916062396 -0.15015357582745542 0.0608079762385544
9991000.0 0.9933429136245331 -0.0849700990279131 0.0036500557297878483 0.002017407470602529 -0.00031219115446874944 -0.001974499656642277 -0.1519457607375996 0.10217259493069622
10990000.0 0.9928078210083585 -0.09230723132363507 0.0005559958097233136 0.0028079369061108045 0.002923264478753083 -0.003326037147396353 -0.1491401714341051 0.12306676523580906
11989000.0 0.9900409902893201 -0.101203341703436 0.0018637942253243464 -0.001148259455936514 0.0005018184110277047 0.0011608762780600823 -0.12717469143321397 0.1403976760094939
12988000.0 0.9904213203507094 -0.11218898661079606 -9.21234993104069e-06 -0.0008957249661821412 0.0032753040603287547 0.0024790995077434816 -0.1099012818187007 0.16968564436512165
13987000.0 0.9863003920825285 -0.12005487402788209 0.004120888087744311 -0.005916569096130547 0.0037145255399930535 -0.0010348795927736297 -0.09599287141556546 0.18851036209618482
14986000.0 0.9881998423508348 -0.1277477107183736 -0.0023470478717455274 -0.001375594596759812 0.001249789429715416 -0.00037690208113993573 -0.07625094405571937 0.19727231166175238
15985000.0 0.9890998840479536 -0.13362087618828425 0.0021546226808489585 -0.003045825033003578 0.0015840771574103293 8.678888758044135e-05 -0.06521597391598977 0.2224645013387056
16984000.0 0.9840705316553257 -0.146053949007224 -0.0029633521828152185 -0.002769264572843172 0.0015687374476838153 -0.0013050084722845549 -0.062106446573265764 0.22805006333040578
17983000.0 0.9833815933358789 -0.15259316373346524 -0.0026851157303903624 -0.0011995962057751888 0.0009026870842898854 -0.00015947934021128042 -0.05960512938384113 0.22771599181117158
18982000.0 0.9827404303951529 -0.1626950981583328 -0.002008634671445465 -0.00846327151733106 0.006156554208355167 -0.00098908421081538 -0.015202674278178833 0.23761203482347354
19981000.0 0.982226296622023 -0.16828562907207917 -0.004066784106111785 -0.003974842262942841 0.0005094472489825274 0.001514957990827843 -0.015382712494943239 0.23715590666120445
20980000.0 0.9815300958292936 -0.176994103600481 -0.005789913171067853 -0.007778055348562067 -0.0027442210216688423 0.00016696588691051152 -8.609643507486986e-05 0.2549418575890714
21979000.0 0.9777169924382437 -0.18496713579042948 -0.0016473227281672289 -0.005041718796329649 0.0005965901184369771 0.00010679410905716534 0.020506314187004708 0.24559822514876578
22978000.0 0.9759621639281827 -0.19444453953150503 -0.005365810567758965 -0.0036046334066207357 0.0004295484573101456 0.0032509021675261895 0.03025116972870318 0.2520745105318172
23977000.0 0.9780183722764302 -0.19982799903607615 -0.003246265451309279 -0.005632412822586405 0.0008415916512434559 -0.0008141108014160684 0.03314111014708728 0.25530951257260004
24976000.0 0.9726058978444793 -0.21316048829493303 -0.0057791150772760575 -0.002046596319184746 0.004039601330980161 -0.0007909195562301593 0.07538186391998593 0.25258938464224645
25975000.0 0.9724867240087943 -0.21904061634236477 -0.00638782323820629 -0.0031715052605398144 -0.016111987297756345 0.0224942258239073 0.06909243714763723 0.2711900516987299
26974000.0 0.9702081602956876 -0.22722229464922092 -0.005794395306108271 -0.0005871327276105844 0.00011001090210975708 0.0005734848145661726 0.09415885520995042 0.2692634806644815
27973000.0 0.9677720750334975 -0.23775768385135004 -0.004774082836619598 -0.002194004877933085 -0.0030220673771091133 0.00040254292660764124 0.11340741305197063 0.2604306045568756
28972000.0 0.9642958064221963 -0.24510110358292178 -0.00013395937181923521 -0.0005331872610648119 -0.0010050663779246265 0.00097460833075727 0.12430365328640948 0.2535440156987581
29971000.0 0.9655799245733034 -0.2545248709851625 0.0012623970371528183 -0.002132611564769306 8.776347676151868e-05 0.0020651258561520482 0.16035380154884266 0.26906872166573803
30970000.0 0.9606617817896003 -0.25968341948963647 0.004301708159070808 0.00044081721742649297 -0.0033877850004266742 0.0004188444515008405 0.17863184219938824 0.25497829015516765
31969000.0 0.959921168301856 -0.26774200789192565 0.004611400942457477 -0.006894903045699939 -0.0011433779341950673 0.000661203395348829 0.16525224705506927 0.2461911546852371
32968000.0 0.9581897823502142 -0.2804849511554033 0.008528415653141722 -0.009858232579506696 0.0010174816966157533 0.0011285844251769238 0.1676873171891877 0.2528487129488556
33967000.0 0.9560695199813328 -0.2872577403233269 0.008995442416354464 -0.010318811376517693 0.00025020777199051314 -0.0029828881340538977 0.19459638028223925 0.24530460256189673
34966000.0 0.9524511089591832 -0.29477015464327844 0.01447820361835509 -0.012432488825872699 -0.0037445676739583772 0.0010620155460942865 0.2033147402462465 0.24736461855447583
35965000.0 0.949844609860206 -0.3041177874188106 0.0189619592741415 -0.014305160717230658 0.0009600946854302255 0.0015194344290915078 0.21379591876463655 0.24127369283779143
36964000.0 0.9472936826068155 -0.3131934627657769 0.015054203358140826 -0.01735211035297268 -0.0027055394457982176 0.0022539780318871516 0.22320844797218325 0.2569958886282992
37963000.0 0.9421159132151541 -0.32274141775076876 0.02232654067053727 -0.021286032109974023 -0.003160470115848644 0.001886916521875745 0.22851663060019894 0.2348896486100063
38962000.0 0.941367801446403 -0.32987400751796975 0.025255346953222933 -0.024965367977306745 0.00016780437795453057 0.0020936039698482363 0.2484216258490006 0.23059760733264162
39961000.0 0.9387658264568222 -0.3395731337530102 0.02889901029872426 -0.03020326147544713 0.0017081131133723745 -0.0003878507047322897 0.2528592284576525 0.22185390932728835
40960000.0 0.9348263162049745 -0.34567952145251113 0.023988283027648275 -0.02711262489017693 0.0020779109826146347 0.0003958204906639921 0.2810385214809988 0.22115058987887454
41959000.0 0.9325014102692589 -0.3562956906711663 0.02931967607130111 -0.03445778296225648 0.0029913066363360993 0.00021167451448101215 0.2705592509467994 0.21543728616956456
42958000.0 0.9265482223381052 -0.36683271185527766 0.033381960999585104 -0.041565412178783685 0.0033815145788266133 0.0014336561837424865 0.29097761266902894 0.2035419464347155
43957000.0 0.9265967183744793 -0.3696123564258179 0.03632745445661614 -0.04789941065965718 0.00017706188318785526 0.0028047561489532333 0.2969471418684943 0.20750811310436107
44956000.0 0.9223920555526104 -0.37894149904494495 0.036027494034466735 -0.05322819190510292 -0.001042487925374422 -0.0019576381223169246 0.31356252273770807 0.19101188554475956
45955000.0 0.9176777283822934 -0.390672579938897 0.03723138699937102 -0.05999647190921368 -0.0028506581515379934 0.002348002829655448 0.3061168781815022 0.19083972869507895
46954000.0 0.9138419609220085 -0.3978653258016063 0.03472414771800377 -0.06801518262504523 0.0018332603841235424 0.00010362527854626244 0.3340806095470859 0.1758922537511176
47953000.0 0.9106495122518089 -0.40492054248400716 0.039207905250451154 -0.07664664655339883 -0.0020704828767138233 0.0011663564009919314 0.34347835129156634 0.17610496799076214
48952000.0 0.9061505787951541 -0.41442706366163773 0.0385731321095871 -0.08349594051543069 0.0015310433496651505 -0.000595446214796194 0.3381356595421792 0.16835379507446646
49951000.0 0.903142608765783 -0.423417495823845 0.03929538779862337 -0.09110125439013342 -0.003535004361777351 -0.0026247163875579207 0.3637614100631392 0.1538496355500287
50950000.0 0.8991911141313015 -0.43115404485207925 0.040260435219213006 -0.09984692129880397 0.0030645557319460065 -0.002143085109975075 0.36477333160672193 0.1512021233764012
51949000.0 0.8955421602771368 -0.438329665616142 0.04043864228693966 -0.10657197699784374 0.0006441920063961565 -0.0018160135824481858 0.36631740166307275 0.14082163552102012
52948000.0 0.892885245021392 -0.44811763453259534 0.04294003897895073 -0.11686450587708908 0.0022318943376090925 0.0037374105801140545 0.37946651877123766 0.1369291596031975
53947000.0 0.8864946268142028 -0.455300194102251 0.045792471570706386 -0.12497407992174236 0.002971780839456985 -0.0010490815789233631 0.3765454869566721 0.12639066625966758
54946000.0 0.8815444825067387 -0.463692033585791 0.04509828447977816 -0.1355913463101204 -0.0009496371119475521 8.65949474502562e-05 0.39573807078829953 0.1184006760512577
55945000.0 0.8789938956793384 -0.4718822420206764 0.049163840968683876 -0.14693677691390253 0.0031676705243947334 -0.0015524639130687686 0.3927004824566324 0.10227126916108031
56944000.0 0.8744241594042107 -0.4810442013944661 0.04667949419835947 -0.15668205001653931 0.00030382307679491824 0.0019090758817299194 0.39773767486712336 0.0999619232697352
57943000.0 0.8706227516333191 -0.48967102394610595 0.04962947478885603 -0.16650362521825854 0.0009916404934119769 0.0026859641436224814 0.4060402086674244 0.08467508077896634
58942000.0 0.8634874688033651 -0.49559896074906934 0.051664950181032065 -0.17711964474061448 0.0009906006333611779 0.0001724564045938369 0.43504463385243763 0.0852102936068082
59941000.0 0.8611914182071584 -0.5050452094400492 0.0522344115613149 -0.1880090507120686 0.0028364864219098326 0.0020370636545825353 0.4223116052958511 0.08764189245840867
60940000.0 0.8533288425418546 -0.5114542443182759 0.051766740109816245 -0.19095207967121683 -0.00022825484656564612 0.0014434304850997478 0.4200439257819181 0.07054099995721969
61939000.0 0.850362215677797 -0.5173551421727128 0.05428596300248003 -0.19923771555642614 0.0011269071014371912 -0.0022138165341778955 0.4254767392351573 0.06947453262065147
62938000.0 0.8448085584136158 -0.528687467432422 0.05762878529796952 -0.2179489716173961 0.0022093764184124695 -0.0011287542118472423 0.44351811940193886 0.047872307017497076
63937000.0 0.841649086827442 -0.535552444362392 0.05811620419889705 -0.24077980767654106 -0.000574554332094092 0.0001153897342570465 0.4353069669812581 0.030269666682452373
64936000.0 0.8334227402406353 -0.5416366576578717 0.05719471840522163 -0.25220280129988126 0.0022540710040709353 -0.0015968866852430843 0.4420512675371513 0.0313130879155588
65935000.0 0.8304925159525058 -0.5535302981444439 0.05547066597389327 -0.2679379687309224 -0.00402759041684532 0.00018941180434373678 0.44178034515092984 0.015298967028373706
66934000.0 0.8265112227373685 -0.5584059251746707 0.05740096512084159 -0.28128238978861786 1.6534718887750362e-05 0.0007832648631694538 0.44510137565348196 0.0066259628453463676
67933000.0 0.8235495019725549 -0.5659885963036329 0.0563827475245125 -0.2961879000820207 0.0030463549054749696 -0.0016958601681414025 0.44832285319284426 0.006944942657605451
68932000.0 0.809060305885184 -0.5589539805073154 0.05376719629984001 -0.30593262824598244 0.0025148705535469333 0.0022005500609171657 0.4559681369761686 -0.010335766569149986
69931000.0 0.8072348251408911 -0.5839591066588095 0.052227888982049595 -0.32703077648202883 -0.001436706520268219 -0.0001636232863401339 0.45319838353087694 -0.026415264185886717
70930000.0 0.8014248881893179 -0.589210023706097 0.048934721938868 -0.3425445782754789 -0.00037747906645767954 -0.0020177744834186102 0.4582635301333224 -0.0361192914623961
71929000.0 0.7992102341519238 -0.5976919648513161 0.04681091229408467 -0.36082942863520084 0.0009240259861756508 6.58217790188483e-05 0.4466597908846496 -0.0438405514408876
72928000.0 0.792915169317109 -0.6055692871462524 0.038964822680478704 -0.3763274956603301 0.003244161696483251 0.001687389170307466 0.47742208205818526 -0.04958947405485781
73927000.0 0.785419007205994 -0.6139675038774861 0.032402600211937034 -0.39795029423576694 0.0029681787355840712 0.0006203202748641579 0.4632634838266547 -0.0618194870011137
74926000.0 0.7813267389555623 -0.6226486811574136 0.0249114463290297 -0.41654419447016167 -0.001774621649780444 0.0006342961909317564 0.47228405255110345 -0.05952959086325528
75925000.0 0.7735846381403005 -0.6264204921602904 0.01442822781624924 -0.43767766922099466 0.0038457345986748874 -0.0006128382008359967 0.46933264532434826 -0.07404434555622434
76924000.0 0.7683671196970712 -0.6348037958057801 0.0028062520930978298 -0.46669348814526 -0.0014544260330115722 0.0015775830568937475 0.4686696940737813 -0.08279125305120243
77923000.0 0.7622263642338781 -0.6400915973575997 -0.013187696928456075 -0.4861878480272138 0.006531396777127372 0.0011658794122164514 0.4677482935921448 -0.09121162118193457
78922000.0 0.7557976818710076 -0.6522178671842799 -0.024047535548367988 -0.5150843782469529 0.004985087583018614 0.0047678858274327034 0.46553225015734545 -0.11422364648985235
79921000.0 0.747048103630085 -0.6551195506643759 -0.04560434203314007 -0.5427383772981363 0.0007638940830826124 -0.0003608422107117941 0.46325263891085317 -0.1273280457210064
80920000.0 0.7422067695920779 -0.6647705232910769 -0.0628622002792571 -0.5680633134308627 -0.0031784439985642035 -0.000569543487927127 0.4701495774583645 -0.14439806769386251
81919000.0 0.7370244615145928 -0.6724253468379404 -0.07699553156621083 -0.5963701658532531 0.0028247158190939045 -0.0017626599899755629 0.4701420582102074 -0.1404884944715047
82918000.0 0.7268583752188919 -0.6800874717410641 -0.09066584227889746 -0.6277650486414945 0.002642167295600258 -0.0024863733200105767 0.47061744419115975 -0.1476591255696059
83917000.0 0.7212012691835815 -0.686773835288584 -0.11272850789678458 -0.6574085586280153 -0.0005662335410725985 0.0036932369881345806 0.48095040606540057 -0.15662426543331742
84916000.0 0.7140623214049052 -0.6954059705595269 -0.12921560253989045 -0.6949015648717832 -0.0008229158310029596 0.0010954437343166962 0.473154724552428 -0.17985630643020542
85915000.0 0.708061338842227 -0.7005687853215794 -0.14701638436189035 -0.7271419242686787 -0.002870604111921867 0.0018777518093766469 0.4738655187166525 -0.17342074701833657
86914000.0 0.7003168174759714 -0.7107994624437523 -0.16658264845325269 -0.7631489643492286 -0.0037832607934537047 0.0035041556220459227 0.4636662863139083 -0.1901628767448283
87913000.0 0.6941252021754104 -0.7153189418671545 -0.18129764376132795 -0.791775945222252 0.0013679697011933732 0.004312407934694597 0.46635449333126117 -0.1968050686485048
88912000.0 0.6861792183088832 -0.7238645230193355 -0.2021115641193027 -0.8247059564318965 0.00412148457519168 0.003621773193693534 0.4687855327903305 -0.20557359320809182
89911000.0 0.6794314595968693 -0.730701830252989 -0.214075829258403 -0.8654330400512376 -0.0002038578114874675 0.003547669706585513 0.4692089076620746 -0.21277273385131548
90910000.0 0.6730805745091106 -0.737152360771154 -0.23275941803942668 -0.8986956399103911 0.0015269597821036083 0.0021338879537450184 0.46796427700899734 -0.22403248346042676
91909000.0 0.6615463710431216 -0.7421894776838838 -0.25252675931886975 -0.9301817734404979 0.00042851039978911555 -0.0013374340200912986 0.4696415281035829 -0.2290395422858934
92908000.0 0.6555975664928348 -0.7496513734548033 -0.27087961290076973 -0.9668497306571116 -0.0029593295947666068 -0.0020306149311325656 0.45104858855783936 -0.24543213340754907
93907000.0 0.648594861181859 -0.7564918105607521 -0.2882501682417608 -0.9993159012767668 0.0013053389884184765 1.2360317133013759e-05 0.4620850514031516 -0.2568698836332253
94906000.0 0.6373189773202007 -0.7647066998944978 -0.30839663249357885 -1.0348015938872632 0.0025939870130427026 0.000776601080157502 0.46497585368734934 -0.2623842755992072
95905000.0 0.6301505214923412 -0.7702822447829953 -0.33181627282427395 -1.0690222115059196 -0.0012067741586212716 0.002701351185441079 0.46382964799414395 -0.27994373898093966
96904000.0 0.6218216898360981 -0.7788426481718754 -0.3487843338582002 -1.108595678915939 0.0038927229411856927 0.00010807051304869728 0.45610504509089267 -0.2877165550131495
97903000.0 0.6119615468251173 -0.7849754080844888 -0.3784322682959564 -1.1420589113563175 0.0002886302855235153 0.002455395033419188 0.4513678083038962 -0.2887699625081133
98902000.0 0.6077602575210315 -0.7915036511115848 -0.39526448308373846 -1.1816106247391924 0.0028886999694506077 0.0002608017007710249 0.45957650322855303 -0.2991067740878093
99901000.0 0.5970546300402824 -0.7974483162114406 -0.4292349577063885 -1.2105486489946593 -0.002330271109107333 0.0022765172708678664 0.46834704092565316 -0.3095976324912459
100900000.0 0.5878724497694807 -0.8003802891238823 -0.46159244424532986 -1.2435742672171304 0.002343239779575503 0.001674674208290958 0.4632105337338933 -0.3165290603782877
101899000.0 0.5780271248438317 -0.8096258432249884 -0.49796173994588244 -1.2811514967036761 0.000965231471094842 0.0008543057458849771 0.4503742376143685 -0.3197191176490332
102898000.0 0.5697763909632183 -0.8162127333182997 -0.5281200156787864 -1.318712905539124 -0.00160368871781424 0.003360319356140919 0.4529151532927663 -0.3414367483192019
103897000.0 0.5616502690063829 -0.8238316666662296 -0.5742979417137449 -1.3561243097711788 -0.0033250615502563945 0.001628838688730883 0.4600957465397612 -0.34247077543057575
104896000.0 0.5526963079717181 -0.830366329639173 -0.6195086428067743 -1.3854281645714108 -0.0007518784790856783 0.001584239396456169 0.4392825232136663 -0.34269838233793104
105895000.0 0.5438482026814105 -0.833557930692402 -0.6667126680631473 -1.4320827876743438 -0.002828844805306536 0.0013805483754980225 0.44212224721360144 -0.3572743916638794
106894000.0 0.5320121364192058 -0.8415236390753813 -0.7228372305615999 -1.4649852672006762 -0.0007542320638132533 0.0016081217860348764 0.4300963470158685 -0.3727768166512043
107893000.0 0.5246443142648696 -0.8468400196462994 -0.7747115103047939 -1.5088056762887874 -0.002367943287554719 -0.0010016906731089925 0.44682073492843827 -0.3808972154151436
108892000.0 0.5145687509319643 -0.8497863104671186 -0.8374884336776975 -1.5473929479793027 -0.0033402343904831004 -0.00014866226682649092 0.43147683501298567 -0.3823713515094675
109891000.0 0.5017470705253688 -0.8585740069511834 -0.9005273815959858 -1.5838415095885945 -0.0021352270632977615 0.0010241338444562887 0.44559555588595073 -0.3847307587647374
110890000.0 0.4880010008030967 -0.8602906035568306 -0.9670404436300845 -1.5804850263396137 -0.0016352186330344173 -0.0024404967585876956 0.4236828026636681 -0.3863495199518945
111889000.0 0.4855687308851942 -0.8652391646079954 -1.0305012506426274 -1.652719705159947 0.0007053935671688361 0.0013862189613667911 0.4215109352275916 -0.4047688641985214
