! Created with skrf 1.9.0 (http://scikit-rf.org).
# Hz S RI R 50.0 
!freq ReS11 ImS11 ReS21 ImS21 ReS12 ImS12 ReS22 ImS22
1000000.0 0.9736141204791373 0.006139098645203757 -0.007882021782502371 -0.04919853571519236 -0.021265565882639555 -0.0026696071983751766 0.32591751238587124 0.3320786178982403
1999000.0 0.9943712596497272 -0.01162876351358423 -0.0010625242893238377 -0.026283420492473893 -0.007783699960222607 -0.0033726198354143886 0.23893967521652604 -0.0516329051696789
2998000.0 0.9958612636045188 -0.02191680896597866 0.012676012688698573 -0.015004837501484406 -0.003747740072126538 0.0039438980988581555 0.16985066187624795 -0.1295403258533824
3997000.0 0.9961831805396073 -0.030053146637786153 0.0097960876888386 -0.010247480157198882 -0.001020252918129725 -0.0019107449266576061 0.08256222470433192 -0.23837742127576053
4996000.0 0.9955943701903364 -0.04140611529650306 0.015767919650608784 -0.0012111738182628328 0.0007746586495833285 0.001028638764637389 -0.05129735722009288 -0.18144246951991197
5995000.0 0.9968877679604252 -0.049457940293964824 0.010919758273150091 0.003512233003997622 -0.005621340170452301 -0.0011325413731335817 -0.11840044117559441 -0.09037445747214533
6994000.0 0.9938446564650852 -0.05887175050732444 0.007646989282560726 0.0051088364543799385 -0.0004581415448767589 -0.005367793084928566 -0.1359458902209716 -0.014590670089736933
7993000.0 0.9963475875783522 -0.06596534399249063 0.005855184823739025 0.006273858420609776 -0.00012144288742467726 0.0003160470532689036 -0.1558463573213225 0.045382533790376496
8992000.0 0.9960530415246511 -0.0744642940441369 0.002228002723696376 0.00609255581019998 0.0008706485946028286 -0.0009943646626223801 -0.15777310288044893 0.05577851928372851
9991000.0 0.9926124666261904 -0.0821286798111357 -0.0015450776120876043 0.006228677312393512 0.00031039162521239583 0.00279293220032621 -0.1514733749384027 0.10642122517040513
10990000.0 0.9927191251499944 -0.09516810659790281 -0.0029146484177543187 0.003619907910124544 -0.003658425429321809 -0.003037549088276852 -0.128730821874963 0.11042570382115095
11989000.0 0.9923124246986244 -0.09917991053503268 0.006278969575618347 0.0010587914499088844 3.3394219980168364e-05 0.0012922716518496279 -0.11378779177384596 0.13942379806988428
12988000.0 0.9891167639721606 -0.10966483061693581 -0.0011367786628330297 -0.004052888200077513 -0.00046245059066078785 -0.001541134920796193 -0.10922251353106976 0.1730229617650654
13987000.0 0.9910279465643607 -0.11477920812772228 0.0012109792317109894 -0.008370485151134591 -0.00012532592823445184 -0.0007491885379483412 -0.09094312934052526 0.1918380074689124
14986000.0 0.9882620390920931 -0.1242636302766754 0.00017838856022253728 -0.00029113936769823866 -0.0002117334518291258 0.0025253456684336353 -0.0842733814228275 0.1963007771429411
15985000.0 0.9889321829258478 -0.1348433506648264 0.0020689967811262575 -0.005111090580667612 0.003709842149171943 -0.0008782660798569512 -0.056047231379753384 0.2244807909681904
16984000.0 0.9872058377071984 -0.14542397810137328 -0.002333865748987931 -0.005206751866922506 0.0029896325768671897 -0.004169419927176255 -0.05383319399029242 0.22064473843362672
17983000.0 0.9877338556862917 -0.14578916485490892 9.383288858212068e-05 -0.004125373482876295 0.004466024683254271 0.0015751937896537008 -0.04513307551951142 0.2295452602738512
18982000.0 0.9837824796727688 -0.15955581180859102 -0.002375378176447591 -0.008523811758870355 0.0006111033730089904 -0.0036435129591675715 -0.013754409356472918 0.2414018514485079
19981000.0 0.983522141039269 -0.16507063189293242 -0.004115998896562546 -0.004007927571101543 -0.0032063983043174003 0.0008885477963095178 -0.006146215254705854 0.23450846266912187
20980000.0 0.9809870245507163 -0.17553365929397202 -0.001195955673347388 -0.0010411189805148095 -0.0015688871622306076 -0.0009852807149584282 -0.001321875145794252 0.24472389520587753
21979000.0 0.9809694906193058 -0.18453904004058214 -0.004901723500414184 -0.005304531050223697 0.00104223024007694 -0.0013147502988663526 0.010735331497396639 0.23874352971421237
22978000.0 0.9771661105283387 -0.1934850245494943 -0.006522082027407337 -0.0027803877588333265 -0.004698429264521658 0.0013375223494156907 0.03590577074511144 0.2611693382408423
23977000.0 0.9784848025435342 -0.20185313397948726 -0.006822518501232125 -0.001827678852218123 0.0031060181902055365 0.0013685565783745745 0.05454063842947372 0.25050953278002297
24976000.0 0.9745862290016394 -0.2111097226121151 -0.0063589654879036145 -0.0008422796160276823 0.0016843695792182038 0.004234122818436457 0.06595270855353064 0.2546243199449987
25975000.0 0.966378941951653 -0.2208639728258181 -0.006143457152869449 0.002501082544470936 -0.005028348035093499 -0.022416394557530236 0.08476944616669826 0.27574222541896126
26974000.0 0.9717343592668672 -0.22488239258379242 -0.004019655215208245 -3.2488387437897944e-05 -0.0008624425114335954 0.0014597721819835838 0.09576113339092915 0.2648356585199294
27973000.0 0.9703485538255965 -0.23275685929006137 -0.0025675070659245966 -0.001868806459381835 0.0031096766747970577 -0.002038597853114516 0.10845625180765334 0.2517938521267644
28972000.0 0.9675991242279829 -0.24280752879851283 -0.003751693232900703 -0.0031781095428583127 -8.52834199819711e-05 -0.0002142799052884538 0.1251106303065089 0.2552822736272694
29971000.0 0.9657445168885633 -0.2528126218005649 0.002337869738191767 -0.005472614193212158 0.0004002592418989074 0.0018474268582475766 0.1580137687879959 0.26075678001427643
30970000.0 0.963009039866867 -0.258718333080002 0.002963786055937197 -0.0011800647937855924 -0.0016618563590621188 -0.0020746729566475768 0.16805869843291554 0.24585102678458423
31969000.0 0.9608565922270329 -0.26727327026632003 0.002742252020162719 -0.00467257000381091 0.0007264956155028505 -0.00016936651978515248 0.15285358638344773 0.255588589234179
32968000.0 0.959610868351758 -0.2745545001473929 0.00986524342246233 -0.009336446894941551 0.0002927501422934734 -0.0017847807799156038 0.1769501053713933 0.24365687540895045
33967000.0 0.9572365023800448 -0.28524852392995587 0.009452600231708873 -0.007042889619729774 -0.0003173833328402907 0.0015746194217763191 0.19096582796634062 0.24321700794584655
34966000.0 0.9542222115952157 -0.2945527981505781 0.01380576307871771 -0.011248565729652597 -0.0008841697282799502 -0.001385042626202298 0.2065097060027548 0.247619632029966
35965000.0 0.952012149448484 -0.30025156364701483 0.016419646994090528 -0.015938684614467218 -0.0027171357556277113 -0.002517120207775033 0.22581439136217607 0.2470609369036918
36964000.0 0.9497007478026175 -0.3085671195107299 0.018801632729507148 -0.016143405529030288 -0.004481151636160639 0.0033056288527048565 0.21655783708811496 0.24967387625804477
37963000.0 0.9450787796866976 -0.32235092527074055 0.023187168281021193 -0.020143126675806925 -0.0005733463551997265 -0.004384310644970335 0.22899660068214114 0.2333534459591801
38962000.0 0.9433384898259589 -0.32876285687844864 0.02612530093704056 -0.026579870853694298 0.001677043185286428 0.0005553148269480585 0.249448737592373 0.23176464014075018
39961000.0 0.9406711957653815 -0.3341483511052051 0.024473110703097673 -0.03136492798993688 0.0029671247984873377 0.0010830821691185189 0.2591798768612272 0.22351783876952444
40960000.0 0.938228473779726 -0.34465424474822015 0.02446657797861419 -0.023736317654311744 0.0020156178495355083 0.0011994293566666826 0.2809810313535696 0.22307401385299083
41959000.0 0.9343735404942333 -0.3537978242234845 0.02837413813022994 -0.032909449173552444 0.0009394664810046122 0.002485364924687884 0.28220370170350517 0.21078932750459423
42958000.0 0.9288166690606695 -0.36434005064094 0.03397947287093954 -0.040051146583625845 0.0014562811353628483 -0.0006173575271771563 0.2859821147451986 0.20020593327587496
43957000.0 0.9290790630588225 -0.36671194268354623 0.03597649735431096 -0.047897739107971016 -0.0022847602846503092 0.0018843225130228212 0.29413970452215593 0.20832378042033228
44956000.0 0.9246804674152697 -0.3748446382031876 0.03675456059020229 -0.05757541157752283 0.0006016117995129364 -0.0014932091260392187 0.32606406717556385 0.18504033935585337
45955000.0 0.9197127860726412 -0.38686191605726744 0.03774684060823069 -0.055569172254918704 0.0009718609612285257 -0.0018000075826087418 0.31830394503652176 0.18851193691431573
46954000.0 0.9168660283979829 -0.3950918538134002 0.04048210113840185 -0.0665829963088941 -0.0020491775165319944 0.0009451739304169195 0.3350367609696528 0.17991470673339566
47953000.0 0.9133730027713897 -0.40363518232356166 0.03980785840749873 -0.07315976198552407 -0.002945850008006401 0.0021026912535198053 0.350280774438299 0.17240549908545696
48952000.0 0.9070181026866697 -0.4145197962747663 0.04305867697633105 -0.08064523191024985 -0.001718108724379617 0.0009660547388272804 0.35241514248204875 0.14862522596907057
49951000.0 0.9046707781289625 -0.41702313488047354 0.041545086915630254 -0.09275696946630332 0.0002841075786245605 -0.0005210454623812486 0.359596282754417 0.14792806374114878
50950000.0 0.9029075506573904 -0.4275141513422357 0.046963459022770354 -0.09754318927816831 -0.0029490803354308257 0.0012979595302147172 0.35551091448941025 0.14819012069940163
51949000.0 0.89859418717137 -0.43613033706315923 0.04488342286273936 -0.1073488958503278 0.001564258462560176 0.0013307479532987737 0.37204555664942335 0.13898731576090215
52948000.0 0.8966149977710431 -0.44299175114671413 0.04961040507752548 -0.1174781667589933 -0.0006248704498254094 0.00015268369280637206 0.3758549866310726 0.1410170261867561
53947000.0 0.8889267159642384 -0.4527198929868603 0.04882896466038379 -0.12777896675308104 -0.0013647150492098299 -0.000998281005299215 0.3721684660617488 0.11615282296011974
54946000.0 0.8850183313765412 -0.45909858083039495 0.050476856867034535 -0.1370327937956273 -0.0011033417935618862 0.0017588147423704525 0.39305319543682554 0.11581830603950583
55945000.0 0.8821257561059336 -0.4686549765024746 0.05386853894203739 -0.14804772999695132 -0.0020719095278811193 -0.0011894761433401831 0.39234329268020646 0.10274552877251562
56944000.0 0.8777059022746991 -0.47693103880556614 0.05306206603070866 -0.15955817933456973 -0.00028435587443592246 -0.00130334080828837 0.4067168645914948 0.10412003377844094
57943000.0 0.8715403573850525 -0.4867687757253281 0.05240285950143504 -0.1703990625121889 -0.005880233771580367 -0.00333374636888677 0.4181857044588298 0.08612997823796477
58942000.0 0.8669138137817827 -0.4905382591035327 0.05694046878210298 -0.18165046125095402 -0.0013722603300525941 0.001256059325137131 0.42121240764804757 0.08971188404010352
59941000.0 0.8656791126914453 -0.498846008475313 0.058852466974213674 -0.1936323396355554 0.00294873041415305 0.001589022826723638 0.42413985948745203 0.08039155686963938
60940000.0 0.8571867165495661 -0.5064308538941655 0.0600333727045976 -0.1975159577375987 -0.0018311446743416466 0.00011550627440197991 0.4208671672730368 0.06521830345853567
61939000.0 0.8546585101552434 -0.5132033197059619 0.058328681923839464 -0.20791989704457717 -0.0028478444947427775 0.0017788387545146565 0.42595182708723855 0.057343747775439664
62938000.0 0.8476023499885231 -0.5239416198117239 0.06102550802212693 -0.22594088032226775 0.002331862182572086 0.001329973106754474 0.4388716401494003 0.04572395798118647
63937000.0 0.8435065429275755 -0.5309304777919329 0.0633134818699063 -0.2454521901322517 -0.0016172345894800602 0.0017935720367716656 0.4416665378783457 0.03439465147091699
64936000.0 0.8374838626180139 -0.5379009463455254 0.06289677382479804 -0.26098007929825257 -0.0016880436163473661 0.0013889384622109457 0.4345745262711607 0.03761521060736252
65935000.0 0.8331973008830985 -0.5484228158083135 0.060152364629977965 -0.27736739449629294 -0.00016799007408152937 -0.002071099254702942 0.44967426927753695 0.0037055363610680224
66934000.0 0.8287952062713985 -0.5538697420933464 0.06094881974418018 -0.290040257564 0.004240885116888612 -0.001314299797402657 0.4462742080600548 -0.0008462498336517215
67933000.0 0.8262693169145714 -0.5606928357305162 0.0610815770928735 -0.3072183526477664 -0.0017714042104356952 0.0002468489309672846 0.45495758959309307 0.005931917197894307
68932000.0 0.8177843734616126 -0.553898793841436 0.059785880045683575 -0.3176654486683327 0.0010806271140817495 0.004221071340360329 0.4490973263462922 -0.014234784479294249
69931000.0 0.8129458020521974 -0.5776319192969771 0.05879676157553878 -0.3426790678962303 0.0027954728801188634 5.308129279650577e-05 0.4544958243260935 -0.028119283762300558
70930000.0 0.8063903351364825 -0.5855910547135018 0.05189883498214759 -0.3559148780861174 -0.001617838671192457 -0.003756008741748909 0.4572897939689532 -0.03141380639658849
71929000.0 0.8030414837330936 -0.5940099843409633 0.04967952881588332 -0.37942213845777606 0.0009609631931045176 -0.0010014316658136838 0.46307249982494614 -0.049704636595847417
72928000.0 0.7954606107727906 -0.6023747711101277 0.04247593898304135 -0.39375259148830877 -0.0045550790835704996 0.002099113277652861 0.46930540186773584 -0.05607096991896079
73927000.0 0.791081314176555 -0.6066310193344012 0.039097870310175795 -0.41537057620660695 -0.0003964022671386596 0.0032247501110610616 0.4591629016176998 -0.06495393719132456
74926000.0 0.7839208217375645 -0.6174074540587452 0.03011732926054623 -0.43632969761788426 -0.001121594764328316 0.002750825017200533 0.47008465604185384 -0.07301166264379938
75925000.0 0.7787764485009114 -0.6209451615733125 0.0161907432875451 -0.46052405661312285 0.0009477150163896444 0.002447049650867259 0.47365401707875243 -0.07551282750739029
76924000.0 0.7742519857055778 -0.6299706617739985 0.009664328225186623 -0.4859074662569056 0.0036569764815136676 -0.0014287439681958116 0.47054866200897144 -0.09141683065260318
77923000.0 0.7681256221020353 -0.635504980776989 -0.005210399974633207 -0.5116835763058107 -0.0007484604687604976 0.00478593385699926 0.47414653393270917 -0.09474297933144303
78922000.0 0.7597870308014686 -0.6463726186921042 -0.019886665656556137 -0.5430068080740372 -0.0019022046977172284 0.003665310043772901 0.4648584913409457 -0.10916060216131056
79921000.0 0.7514582590875922 -0.6506853007668493 -0.03906909990025273 -0.560965559161366 0.003566781758992002 0.0007962804035551312 0.4629463379115485 -0.1249971847054418
80920000.0 0.7463330148354173 -0.6623107297633618 -0.04991501185197537 -0.5948716258037335 -0.0001139585450758005 -0.0022166921866630935 0.46810583844966636 -0.13662549944770513
81919000.0 0.7399471807210769 -0.666839409681169 -0.07109264693984489 -0.6244369733416548 -0.002966476946723623 0.003930103592802267 0.46906726074376204 -0.14288355025804597
82918000.0 0.7340049274997269 -0.6740022473338799 -0.08282071310659132 -0.6569794326929237 -0.0011159388606949057 -0.0020653779928117167 0.4811671920055426 -0.15160249596065803
83917000.0 0.7256058897742379 -0.6832294431228328 -0.10576575278315817 -0.6878012377323931 -0.0004921052741212943 -0.003345097632431377 0.4732887026703986 -0.1610656272597324
84916000.0 0.7195732616901667 -0.6900932266625828 -0.12393611000972064 -0.7230697013432789 -0.004331063102206184 -0.0003895438265581678 0.4723930315975925 -0.17777790785988
85915000.0 0.7135105693319693 -0.6960634448996507 -0.14292817798438162 -0.7555592878511023 0.0009769352759539255 -0.002137353303566312 0.47603460558502836 -0.18092445232059276
86914000.0 0.7063147252563452 -0.7053582455370132 -0.15954598797331293 -0.797676614159911 -0.0008375266494206774 0.0006798763592824608 0.4655387551238209 -0.17904572054858822
87913000.0 0.6987376198432367 -0.7118276034278302 -0.18109788631775497 -0.8287713282439504 0.001048550327193606 0.003924861223348181 0.46392824093759116 -0.17925836970850872
88912000.0 0.690435467023512 -0.7191625941079144 -0.19968892007697145 -0.8647653222687025 -0.0021570006911241137 0.001846566863720373 0.47067786720706783 -0.21101495804422446
89911000.0 0.6855250553796571 -0.7281292744909504 -0.21173960947595344 -0.9006268386051854 -0.0013606193611857074 -0.0010641916920191576 0.4731695734668788 -0.2148957150484206
90910000.0 0.6764364295853491 -0.7323462437261661 -0.2392180652546691 -0.9374179192765694 -0.0027415210918803395 0.00027009099161436425 0.467214011478608 -0.23036817136068777
91909000.0 0.6686906510439824 -0.738445442226015 -0.25888376067788615 -0.9738418805685424 0.0016634770659227074 0.0012212348897935978 0.4742893910201739 -0.22864349365488745
92908000.0 0.6606009055173179 -0.747127487467634 -0.2763192734324426 -1.0101920857954525 0.0015927272305882932 -0.0019742773587676445 0.46351619702064123 -0.2439312009512561
93907000.0 0.6547024485955261 -0.7513224190579053 -0.2937853471000786 -1.0500241254934508 -0.004548500495882765 -0.004908748235951222 0.46373690259619077 -0.25577255081515504
94906000.0 0.6427903982865484 -0.7611268492246351 -0.3227471396135921 -1.0834712290352913 -0.0029080115116375945 -0.0008780385971694143 0.46485932376410866 -0.25412002807644973
95905000.0 0.6355936390037634 -0.7667815133999736 -0.3476840116957831 -1.1176405418917688 0.0019531363361450617 0.0024997160147764473 0.46511614942586466 -0.2720126441790101
96904000.0 0.6278093271034624 -0.7755077262199892 -0.3688115835449938 -1.163365549321035 -0.002943478495827155 -0.003916780602625466 0.45792437219876575 -0.28097897157325896
97903000.0 0.6177106630356196 -0.7810739032742646 -0.4000499456711283 -1.1944537277892047 0.0031332840885066743 0.0025587093319114815 0.4504642778431349 -0.2934256420905695
98902000.0 0.6136825387701732 -0.7873118038449536 -0.41956105898695234 -1.239905956045759 0.0014992367373663777 -0.0015598432218114164 0.4489156300225261 -0.29960361537618074
99901000.0 0.6034502661840984 -0.793678217647014 -0.4536153430863196 -1.2755720856669295 0.0012216167255563088 -0.0008797504783090952 0.4619901571858748 -0.3200341713135813
100900000.0 0.5942953316262757 -0.7969324740379294 -0.48770352508008463 -1.306496889546033 -0.001268639767861059 0.00112498996777813 0.4510333613594264 -0.32138057331272696
101899000.0 0.5836569536962355 -0.8056687184438964 -0.5232783499798034 -1.347196759939473 0.0038750852414934037 -0.0017947881926455862 0.45397218387658844 -0.3329492341053226
102898000.0 0.5762785100264822 -0.8097564725808973 -0.5578997272809657 -1.3892455986987413 -0.0003739414309734167 -0.0011912023681564577 0.4461415201585311 -0.3446677016818301
103897000.0 0.5690624653948461 -0.8168805131301271 -0.6024739658451774 -1.4276125179749526 -0.002632723225477732 0.001495599768664775 0.4578876260308361 -0.35459251054815755
104896000.0 0.5591475954708883 -0.8286249584215551 -0.6543135149030697 -1.4656583559039913 0.001028953472911906 0.001321263888699955 0.4344099840410898 -0.3362408151450685
105895000.0 0.5503119477216925 -0.8306748829372158 -0.6983872453410592 -1.5133860670592045 0.0022704164605722417 -0.0026405972630377797 0.4399883685313918 -0.36550275971883467
106894000.0 0.5413070526658496 -0.8365600577927511 -0.7573586928702574 -1.5587112592019263 0.00022511153195218646 -0.0008404008247396832 0.42297505305351774 -0.37583845719986386
107893000.0 0.5346513738027644 -0.8419592433632501 -0.816274853352117 -1.5974910043283437 -0.001931782871529333 0.0028994790701893135 0.4207361598491119 -0.38930399718012465
108892000.0 0.5204874608920708 -0.8476243003212715 -0.8831714159649152 -1.6348990771673115 0.00195777384759412 0.000789470298030594 0.42246369266000194 -0.38268847136159645
109891000.0 0.5107166159242257 -0.8512379991000796 -0.9426805794650803 -1.6720840902297291 -0.0035255537710361506 0.0023520733327923224 0.4480662193632082 -0.39222651811747944
110890000.0 0.4955375634131376 -0.8561236365423925 -1.0080765605262336 -1.6693297072231115 -0.0008927461341280896 -0.0017805483407645384 0.4275480538256818 -0.392244328717283
111889000.0 0.491960456274416 -0.8605584871606744 -1.0739371861665734 -1.7529497492993409 -0.0053629034170751795 0.0036512337634179706 0.4191372554853707 -0.4125282712362767
