! Created with skrf 1.9.0 (http://scikit-rf.org).
# Hz S RI R 50.0 
!freq ReS11 ImS11 ReS21 ImS21 ReS12 ImS12 ReS22 ImS22
1000000.0 0.9784806457387899 -0.0062088761238401685 -0.0013710951571711356 -0.03720089393687175 -0.0038428574468572204 -0.000493619436341405 0.37435418540391563 0.3144803895882392
1999000.0 0.9953389644470231 -0.016828283002661336 0.012604805203338083 -0.021706512568487393 0.002759029507372762 -0.00891569970568471 0.26220897655531206 -0.051450857384263214
2998000.0 0.9972748678044185 -0.022906659417721246 0.011391125690567706 -0.016334302353993833 -0.0018112820185931127 -0.007088857987653671 0.1758327432930129 -0.12893417289087258
3997000.0 0.9994627667748429 -0.03363871126806397 0.009433253046392148 -0.008185743341024886 -0.0048248597448300274 -0.0006099287847238558 0.09771912347066361 -0.20597159182636132
4996000.0 0.9972373019133215 -0.0378983850589809 0.011524782287150852 0.00036827090624017494 -0.001254797835608182 -0.0010198530479696678 -0.010668184811949066 -0.20712649670263847
5995000.0 0.9965709743423964 -0.049223621217934305 0.008456282791900754 0.002176444410823116 0.0015269808258911422 0.0007701213875986082 -0.140429200510714 -0.1251272474120712
6994000.0 0.9953418521283134 -0.06102302866474884 0.006215566935931504 0.0008358764908472152 -0.0019451690804232486 -0.003677511476999817 -0.1570484937635637 -0.051965137883834174
7993000.0 0.9979018278330061 -0.06897451515005708 0.009662888418344095 0.003458638905397836 0.008742056167549597 0.0029289812427545606 -0.17856302057568596 0.02733420413506041
8992000.0 0.9930919665648833 -0.07370622146320392 0.0022532721392573706 0.0017649373732080444 -0.0026511270256502437 -0.003437481268438694 -0.1821450840703038 0.0471268474288485
9991000.0 0.9903427299133453 -0.08583632494482105 0.000631932591890006 0.004358392441526023 -0.00040760143062511733 0.001541649110887869 -0.15791609818775493 0.08464459982654148
10990000.0 0.9901166395809186 -0.09368177689385167 0.0010452332878057163 0.0048201209866831 -0.0007948209654827221 0.001168323229816609 -0.14639273102702033 0.11240513476905972
11989000.0 0.9886548903600135 -0.10097056072058662 0.0036868051124262793 0.00039071045694152043 -0.0007427156481839231 0.0026986111317755168 -0.14659689361561237 0.12326040903409671
12988000.0 0.9898278679775487 -0.11299490427457441 0.004341049947675477 -0.007188184038175897 0.0010556540612432113 0.0014752079603841332 -0.13731244251111174 0.1637463146474834
13987000.0 0.9873368124630297 -0.11623385926804648 -0.0005281087160168885 -0.0052550291266659985 -0.0038966521786613128 0.0005348024717248845 -0.10150913208865396 0.1921029550868445
14986000.0 0.9871955493958664 -0.12826888310885587 -0.0017163348029849655 -0.00508428082054508 1.4329487493861887e-05 -0.0028833884695304802 -0.10284506399358533 0.21167580824731802
15985000.0 0.9871942898521652 -0.13737143358165627 0.00021386057857549997 -0.004737820019399254 -0.001487812280402461 0.00035376850746304215 -0.08096566588715907 0.2169548252989293
16984000.0 0.98637309017215 -0.14613425639542457 0.0015211282501468512 -0.0013610646477684955 -0.004493230374216101 0.004025526931101298 -0.0694399174180462 0.22247654962908994
17983000.0 0.9851698224807062 -0.15281824266537686 -0.003097500004180714 -0.007257188485157353 0.00026667313261437536 0.003611504584048819 -0.06528894507717238 0.22839608960137642
18982000.0 0.9826731473551519 -0.16430445268500748 -0.0035206191979349545 -0.002860921237666608 -0.002168008771737323 0.0017749926571594661 -0.03213413291707733 0.23593969285806407
19981000.0 0.9821025228706032 -0.16893934465125676 -0.0040122066966829005 -0.0035801607668221954 0.0019363986148247638 -0.0020340841838539367 -0.01585359702760438 0.24337451484928807
20980000.0 0.9801508699295505 -0.18136747140086984 -0.0006910140353583994 -0.0035703440547603673 0.00047521503952706426 -0.0010204221999428917 -0.010824184011629401 0.2584669263178546
21979000.0 0.9764646466959959 -0.1909264628616577 -0.003169234158038055 -0.0047479838033027055 -0.0029609531215199028 0.0036563561354388805 0.002759129397943618 0.24761238111276626
22978000.0 0.9759588434298476 -0.1958033485594007 -0.0022710574753259717 -0.005281088093713835 -0.003029887115598625 3.4140840052424696e-07 0.02138827849970484 0.26110611403025225
23977000.0 0.9762490999072192 -0.20700438568142537 -0.0046967119407665065 -0.0050169774145855306 0.002058511081168988 -0.002566502433196681 0.028301315599710584 0.2530977097899852
24976000.0 0.9766795718065916 -0.21227861219796232 -0.0063493560453629855 -0.004311303618421291 0.001254023582451272 0.0013575541092553467 0.04556436647972166 0.2569445347303414
25975000.0 0.9740217923454331 -0.2234727624592983 -0.007643137278879249 -0.0037786547882422794 -0.0007099115349642855 0.02430373741863069 0.07142531636133323 0.2561499714188808
26974000.0 0.9700566796025237 -0.23147904242182837 -0.005640307560622533 0.0033481294677751468 0.00243098812334566 -0.0010027746723727854 0.07854431922196661 0.26928156491062993
27973000.0 0.96977984054529 -0.2371246319975048 -0.00022305545107634584 -0.00405185872823438 0.0011781090750330192 -0.000988707781007535 0.09361421449087019 0.25301945395249226
28972000.0 0.9648431473303312 -0.24862681754328247 -0.002032927925800124 -0.001634820194700936 -0.002161920154429914 0.0005479928684478806 0.1019648877127784 0.25766728887020274
29971000.0 0.9639730923475278 -0.25785416463370253 0.0029895981180144285 -0.002913153442742862 -0.0014943377545276761 0.0008482835604496783 0.136054655872478 0.2683001903398907
30970000.0 0.9612710452921478 -0.2633234425643523 0.0025247559380735924 -4.991912261983118e-05 0.001052452479683833 -0.003697228590605178 0.16290970521040013 0.24674974705814903
31969000.0 0.957788071139822 -0.27304269845989154 0.0060289102365402 -0.002839793480350427 -0.0003229834660005979 0.0016767953082729688 0.14474861972829317 0.25562051714749734
32968000.0 0.9563765309246395 -0.28236456794284975 0.007157513242576189 -0.005931342111120085 0.0008305160642439765 -0.0031706313719796716 0.15578054444909933 0.25266622756344426
33967000.0 0.9552069744599443 -0.2907396526173878 0.011180167178373297 -0.010745404946935433 0.0002400802803423416 -0.0013471954460562666 0.17981077911296964 0.24430711618941195
34966000.0 0.9514125353350884 -0.29962976356039667 0.013048420888335155 -0.010664788057943709 -0.0020127835273555062 0.003217442244470959 0.18218364333230683 0.24870960487919805
35965000.0 0.9478671637338416 -0.30775686639807526 0.01846019523363112 -0.013818300421405768 -0.001717412226264948 -0.0014337725213141989 0.20564243850191635 0.2561212932030165
36964000.0 0.9471886971103634 -0.3165814211547679 0.01760545464209413 -0.013786495794985986 0.0009302788783172976 -0.00042334134362912254 0.20468340900010426 0.2605523237933141
37963000.0 0.9430114733419521 -0.3249129308313855 0.02306480980794393 -0.01789485657621691 0.0006664138785678112 0.0037988086883964304 0.2150198205500361 0.23903596257180693
38962000.0 0.9414889920891595 -0.3342418932568723 0.027023338730389583 -0.021772363117324365 -0.0004420490459239442 0.0009230142954790737 0.22754730999580802 0.2312250933174677
39961000.0 0.9372275296981362 -0.3443525738961877 0.027197237859683122 -0.02856116470128308 -0.0015790023504086794 -0.002650579749979967 0.2379282170333251 0.22993896806836148
40960000.0 0.932530901724074 -0.3484265187879436 0.02412557515427727 -0.023699938919864733 -0.001121981554756545 -0.0020705750493247247 0.25941753146207097 0.22495289951926697
41959000.0 0.9284969939684126 -0.3612802499384954 0.026560827008314955 -0.03262983844787417 6.428352312509162e-05 -0.0007022554242980725 0.25719837510368393 0.22897476901183825
42958000.0 0.9259627107405848 -0.36878941933703596 0.03291093628707348 -0.04016467268829898 -0.001453128966785552 0.0008601582850788305 0.2717965916506398 0.2056080976131421
43957000.0 0.9245460652521064 -0.3727232898503229 0.03367135946169414 -0.04660647188386373 -0.0007227182244025794 -0.0006344627834919734 0.2790380864133887 0.21590089516431896
44956000.0 0.9198477381163267 -0.382595671835526 0.032850172104246574 -0.0536147473496927 -0.0028248219869387694 0.002916991127276068 0.29306560677670074 0.2046707221016338
45955000.0 0.9155023952741482 -0.3949702462671044 0.03462083371524546 -0.059856848842562066 0.0021494599429308136 -0.0005035170482325924 0.2931909071383832 0.19952332804053755
46954000.0 0.9116631237682191 -0.40301147743727217 0.035557355990898785 -0.06944478337489789 -0.0005787119274800483 0.00048692907916587545 0.32266845259270704 0.1818075278486234
47953000.0 0.9099884835078944 -0.40862620220930834 0.03722171021238111 -0.07295035469252718 -0.0019467011524664552 -0.0007474699242182085 0.32374612400945285 0.17400194552606577
48952000.0 0.9029392347679777 -0.42218805738274834 0.03936481306450917 -0.0819664988638422 0.001929207189217633 0.0019302619764091607 0.32544515334705615 0.16746909031493284
49951000.0 0.8994061532433976 -0.4259185476284334 0.03802815584969551 -0.08833205103761188 -0.0016150938537538879 -0.0006266963591943195 0.3456986242603507 0.16001176919370927
50950000.0 0.8959913186132344 -0.437153211931146 0.03896562142229926 -0.09647746907161305 -0.000190190733706465 -0.0024842809256348597 0.35066802878782605 0.15461606953696766
51949000.0 0.891340554221347 -0.4441882837596935 0.042378692431112794 -0.10613990903085957 -0.0009647097874340667 -0.0020815758689101188 0.3509677553225579 0.14571524464120122
52948000.0 0.889033026400964 -0.4523644271694481 0.041569686320493696 -0.11535173721286454 0.0012052116175629702 -0.000746154327864718 0.36524541974158675 0.1465707852124431
53947000.0 0.8841173800178718 -0.4593249338043105 0.047616320574575294 -0.122497797617342 -0.0008985938637251953 -0.003382866894407083 0.3673507867749777 0.14245277329980238
54946000.0 0.8778312536934886 -0.47014630626212334 0.044236560563648886 -0.13423082209410261 -0.0010141973328612445 0.002480554923878554 0.38185861840645674 0.13324558777952872
55945000.0 0.8759534341321786 -0.47977016783043425 0.04831228124213334 -0.14594123523114025 0.0001395520024486921 0.0035114298638357507 0.38115055680525484 0.11785068729712281
56944000.0 0.8707064555275453 -0.485957702273211 0.05067810662181147 -0.15609132364416772 -0.0015653708155767385 -4.795593670878339e-05 0.3924455716352964 0.1074079267980507
57943000.0 0.8663082175314379 -0.4960995696979617 0.04965615372871975 -0.16578427500857779 -0.001839227979342965 0.0008868731864827091 0.39525454607805927 0.08826924949486846
58942000.0 0.8609234336885774 -0.501093868658228 0.05095414856498748 -0.17673870207743742 0.0023051823232632723 0.001614635744715985 0.410838917081836 0.09578069023046494
59941000.0 0.8570445972258458 -0.5119298100638286 0.05470607164194993 -0.18721772242633936 -0.002486638460710417 -0.00024755441859350256 0.4095713045083306 0.08820747387032614
60940000.0 0.8489219771469739 -0.5176320130409948 0.051155576342372854 -0.19286332933030495 0.0007287897749982689 -0.0029823039602171627 0.41012022461995506 0.08000351273861414
61939000.0 0.8464867624219331 -0.524079843434599 0.051475255038553 -0.20149551419703102 0.0009469495194055829 0.0009612472531157297 0.41804298073657736 0.07603310673968003
62938000.0 0.8402341971207388 -0.5353315441750726 0.05866535025505585 -0.21741797585494538 0.002064873064464835 -0.0023913821394640385 0.43858871917584064 0.06004475943149084
63937000.0 0.835928817850821 -0.5430806308528495 0.056713478794643335 -0.23873992275815442 -0.0009420546047787673 -0.00032582659302322236 0.42736600440902917 0.039166054327972266
64936000.0 0.8289348548750732 -0.5482009557883326 0.05682120359550837 -0.25446378512267276 -0.0013291515792819614 0.0005966434760024351 0.4260659726746037 0.05780472779456609
65935000.0 0.8260212979763752 -0.5592917323243964 0.059018204306984796 -0.26500109590676985 -5.433189568974681e-05 -0.0005843437744418679 0.43502006208645344 0.029952526814181837
66934000.0 0.8207024530432684 -0.5661762239875159 0.054662654939725955 -0.27968631837354946 -0.0004356920030235938 -0.00019677060258404633 0.4308406733235026 0.014827063972373308
67933000.0 0.8168277829531997 -0.5724326657806666 0.05899721350946293 -0.295543840943791 -0.0022914445013748285 -0.00022836069115962903 0.4374017396653918 0.01053774087215864
68932000.0 0.8083127813289523 -0.579180987009461 0.05378037558302272 -0.30900815971167983 -0.004073640349543973 -0.0020493443891077124 0.45138392856479675 -0.003967016719210251
69931000.0 0.8047995067008016 -0.5885379303172791 0.05602362076729822 -0.32747064779781704 -0.0033220068091337164 -0.0028240286912439862 0.445236985660721 -0.008445772597278077
70930000.0 0.7980396440058004 -0.5959255048368843 0.050466110608953375 -0.3401384429943415 -0.0012950603377722485 -0.001060764603165674 0.4404320173275843 -0.02963819251092199
71929000.0 0.7947993949460357 -0.6034492916181239 0.04624577950944719 -0.3581628750269402 -0.0012105055617281314 -0.000668294613090859 0.4403012400137801 -0.02981469136663314
72928000.0 0.7873748966420653 -0.6157053946676908 0.037745660230550156 -0.3740963879987449 5.1629127770249394e-06 -0.003980502762726419 0.45862215325561917 -0.04546909155095787
73927000.0 0.7792485740157116 -0.6193283116752215 0.029925373163197745 -0.4017412539544918 0.0006838423128805938 -5.914050857170717e-05 0.4493804448555651 -0.038235853008719546
74926000.0 0.7752721289477986 -0.6287226416161166 0.025857218883453124 -0.4151881886269223 0.002528644295181296 0.0019355453314627085 0.4694012163283296 -0.05256174474249003
75925000.0 0.7691842465754242 -0.6338650791250431 0.013375817393570294 -0.4359434784263481 0.0003046192605229213 -0.0016278218968128757 0.4647915158445644 -0.060470759090671546
76924000.0 0.7620915978167132 -0.6425186169397499 0.0014165996089056591 -0.4599987613231127 0.0042225225416175766 -0.0001953680614953293 0.46805206972841934 -0.08001200114322138
77923000.0 0.7553414337921603 -0.6489131929509552 -0.012775672972360964 -0.4813147683531675 0.001086840330346344 0.0011411774625940743 0.45551419809961086 -0.07912655550236294
78922000.0 0.7510399831009947 -0.6594884934581174 -0.023174155736587706 -0.5125763503534927 0.0016495402255824578 0.0007281644976990946 0.4518285292299159 -0.09891189434507382
79921000.0 0.7398030199885127 -0.6636876038286962 -0.04564332349204785 -0.5363482134155854 -0.0025209826042675077 0.00047239756658625355 0.45940267792521594 -0.10072442751954608
80920000.0 0.7360132855479123 -0.6737820079298403 -0.061664459025664926 -0.566891497366182 -0.002096869178141832 -0.0006931930790478206 0.45315507742750527 -0.12420488880342712
81919000.0 0.7322187772196721 -0.6794098331080646 -0.07858379199080953 -0.5961428910775882 0.0003915071682831632 0.0014328261039005742 0.4696271341684745 -0.11989427316475831
82918000.0 0.7200336488806026 -0.6871117541533437 -0.09165015803804862 -0.6249808066465727 0.003559348931178415 0.002892799982891848 0.4754972432038084 -0.13025584778649407
83917000.0 0.7117803983073631 -0.6958560513140714 -0.11409055675504684 -0.6525317162164024 -0.00010931707328343406 -0.0029008600108067512 0.47217465992736424 -0.14245874826235821
84916000.0 0.7076965783275658 -0.7014219851932612 -0.13113437400117853 -0.6907110071428709 -0.00148905652152528 0.0023148484354063082 0.45731666432845675 -0.1628970186697522
85915000.0 0.7001164101612326 -0.7084686228676249 -0.1456876967570807 -0.7210138422482725 0.0017789941903301376 -0.0017897145719001166 0.4542196988740911 -0.1638358702474219
86914000.0 0.6938597812287043 -0.7191797001433332 -0.1677126009011675 -0.7613633727202574 -0.00031927357231084175 -0.003332092668924422 0.4620131981356835 -0.15799942592755725
87913000.0 0.6844456603560072 -0.7230742571519396 -0.18255226985118783 -0.785124340199805 -0.0007390895214432536 -0.0037270333089057285 0.4470378352253913 -0.1863101928693003
88912000.0 0.6791041861986166 -0.731082253454777 -0.20178227253807987 -0.8229795636450326 -0.0033936042031578683 0.0013260105240944537 0.45934876800560714 -0.19307563111830267
89911000.0 0.6687654006806959 -0.7393666621726925 -0.2133959537672137 -0.860900198302789 -0.0011308264586513067 0.00441225472582841 0.4652201610101536 -0.19470080118912383
90910000.0 0.6629124155989127 -0.7431114839765393 -0.23686423621781671 -0.8947044611719281 0.004737216595180947 0.004700963074907336 0.45368006525436616 -0.19840939842858768
91909000.0 0.6554721287766588 -0.7479198247840442 -0.25367684690053005 -0.9265374018136587 -0.0001935698664614476 0.0025550000773864054 0.46050030401004916 -0.2180197862962266
92908000.0 0.6463793595764943 -0.7588893456482844 -0.2721961456233425 -0.9604714480049868 0.00024353842521238525 0.0038596622007328663 0.4575713492738114 -0.23416874361396683
93907000.0 0.6414952755077703 -0.762930522874272 -0.29003425672208266 -0.9932130928827254 -0.000611087507095749 -7.477680431417093e-05 0.45576099737962267 -0.23537388422153277
94906000.0 0.6264706807059484 -0.7712638387956651 -0.3128586417108038 -1.022907282064152 -0.0005203313943306075 -8.498968335019171e-05 0.45068502471872685 -0.23741820291266758
95905000.0 0.6199973007600985 -0.7783623288643868 -0.3339899683684788 -1.0628834175135213 0.0034355841837313667 -0.001822174222157386 0.46250000954328363 -0.25637527482669337
96904000.0 0.6128387098207808 -0.7859552428492355 -0.3513050618672575 -1.1061094507879599 0.0002075663800274456 0.0022733817401013635 0.45599345926867213 -0.26278445284337093
97903000.0 0.602741248143507 -0.7924304112516173 -0.37569165591386783 -1.1317175215188178 -0.0033449012687340796 -0.0032702407120762753 0.44606784970467744 -0.26797838693418036
98902000.0 0.5962690722136144 -0.7984169375392256 -0.3994064500747793 -1.1703565168027488 0.000432613669733718 0.0010804827478625124 0.4446809726655232 -0.2836195886028399
99901000.0 0.5871618833268575 -0.8050326814099276 -0.42987813004740544 -1.2014526262187561 0.0014586284955454502 -0.0008168287480027965 0.45753123043219296 -0.3106665026281455
100900000.0 0.5771607880152826 -0.8087013971909398 -0.4641460727304652 -1.2310048151383837 0.003158936584802214 -0.0017979168266630487 0.45677424544481643 -0.29538919725054036
101899000.0 0.5686193920188459 -0.8177238660141442 -0.49017101679788977 -1.2757279191176787 0.0015702014232314414 -0.0019800789210993475 0.4513769088251907 -0.30790269939124504
102898000.0 0.5590039139027524 -0.8232866105424066 -0.5269556763146969 -1.3134395299745325 0.0010677178566882485 0.0046303547415947575 0.4460932716880465 -0.3318355306166818
103897000.0 0.5504744735909648 -0.8297480884592324 -0.5641529725978998 -1.3485671607294734 0.0014399548879650882 0.001078814588463398 0.452920548055214 -0.3281733734390477
104896000.0 0.5416809642393156 -0.8392832070891002 -0.6145501896965473 -1.3799749161125854 0.002768935184539835 -0.0010942046383640269 0.43396076945054646 -0.33769481911911187
105895000.0 0.532380521262912 -0.8410561046623645 -0.6612472527000028 -1.424899155521435 0.00024620758483632707 -0.0028424564681835806 0.43408673224289135 -0.3561819429669173
106894000.0 0.5238060032685171 -0.8472645793044001 -0.7128148495594878 -1.460065126648974 -0.0017841969347702942 0.0010302614345671136 0.42226733418759144 -0.35418459270852676
107893000.0 0.5145578292914228 -0.8538962644606772 -0.765345949954216 -1.5009419654395961 -0.0008610380781349555 0.00058940579909487 0.42733098602628183 -0.3644856954145192
108892000.0 0.5025881172653445 -0.8586160229169242 -0.8286978171031462 -1.5317284511715776 -0.0015125043471714427 -0.0005831307911639452 0.43033976108791633 -0.3586831909036094
109891000.0 0.4908629668352547 -0.8647721579547364 -0.8951089559919169 -1.5661922131727832 0.0009222224761570222 -0.0013147515011799039 0.4317471345042371 -0.3779509633965499
110890000.0 0.47198422176111965 -0.8717738300250532 -0.9698109443815768 -1.5672291134858725 -0.00025064550724706545 -0.0034197682110887074 0.42125000430850434 -0.37370774329024153
111889000.0 0.4680020103340074 -0.8725577353753319 -1.0236553189803081 -1.6401926217134755 -0.00020328949085987109 -0.0010935350855162053 0.418721456964979 -0.3931275560236464
