! Created with skrf 1.9.0 (http://scikit-rf.org).
# Hz S RI R 50.0 
!freq ReS11 ImS11 ReS21 ImS21 ReS12 ImS12 ReS22 ImS22
1000000.0 0.9734372444983075 0.010511593209512934 0.013125571404224367 -0.04958530698546301 -0.025592401919649396 0.009596109373236945 0.3362710674621682 0.2898834767365223
1999000.0 0.9934840988208432 -0.015091364490233019 0.004570247385737773 -0.02323740249504572 -0.005152551203301274 -0.0050482940827133475 0.28064861415952375 -0.045611533170337136
2998000.0 0.9981711831147629 -0.023456704238115262 0.013540590264424262 -0.008948401989371002 -0.004423117483323656 -0.003210578852047805 0.17801004363758344 -0.1260463515304812
3997000.0 0.9949767542206944 -0.03454301486975052 0.015475656016133911 -0.0050472631544925695 -0.003818538654895861 -0.0012285547852522126 0.0958422592288848 -0.2264724000215992
4996000.0 0.9953998997225068 -0.03641679349947851 0.008545396636740334 0.0005705606805835565 0.006278176631807946 -0.00040284979548416063 -0.04331363953708765 -0.2114587342479408
5995000.0 0.9929115755221494 -0.050741171386586126 0.01107319786535611 0.0012768824003301482 0.002102917634339454 -0.007648288358788792 -0.11846753186946252 -0.11207785296283063
6994000.0 0.989053637815523 -0.060214428166097525 0.0068811304610355934 0.007415420073381419 -0.002758035441827695 -0.004645460553499761 -0.15272167366176398 -0.023013136622148274
7993000.0 0.9910624891837269 -0.07050250232293365 0.006603787412542517 0.006797808325044551 -0.002304233268541869 -0.004718450941691018 -0.17292329289311456 0.03610575639828256
8992000.0 0.9910529768339599 -0.0718918320653103 0.0028037049766281574 0.008013234233948893 0.0021142299410329374 0.0036161042261721194 -0.1579652585078077 0.07660225015005422
9991000.0 0.9881844518015933 -0.08246946773336518 0.0008416221771652322 0.0009373008984678581 -0.000598558487731191 0.002344097627012354 -0.15750506883962517 0.08025828213228174
10990000.0 0.988293847281525 -0.09234364826278815 0.0007443567031405051 -0.00034861922518673313 0.0035719622214423078 -0.004009350294884313 -0.14597404072287565 0.11806050172702233
11989000.0 0.9880750290185334 -0.09818189547989228 -0.0027376028477615775 0.0015873686735058442 0.0016068498333227084 0.0010471810058202853 -0.1353570220082861 0.144507581040056
12988000.0 0.986027587804903 -0.10993245956333556 0.001036084119180126 -0.007006610465266621 0.0015546120069297046 0.0014050684527132464 -0.12820454052017505 0.165450735758445
13987000.0 0.984736555775977 -0.11946536575286701 -0.0008494995713593265 -0.006289967559666849 -0.0032831730176174976 -0.001014170700209987 -0.11109398827569066 0.1975170293164635
14986000.0 0.9819357335474548 -0.12632974354688606 0.0030674683691660856 -0.0035551825780774683 -0.0010351572819760875 0.0016383535846916193 -0.09536158276913195 0.2171391296046293
15985000.0 0.984560978008051 -0.1317979343458397 -0.0021619732950633173 -0.0024707130410942225 0.0021873221317811917 0.0002658277295922728 -0.07227115840847573 0.21790864474888788
16984000.0 0.9833699683969441 -0.1448602592983776 -0.005681978038866386 -0.00720406615079568 -0.00037306311818073573 -0.003569137364001877 -0.07192520806079496 0.21979166699086058
17983000.0 0.9808021202808235 -0.14974516237141455 -0.002491226834102579 -0.004502444905775886 -0.002617359107947089 -0.002673623787679639 -0.05578192405644246 0.22708411462013647
18982000.0 0.9783286338129373 -0.16140581040257343 -0.0006345517895456565 -0.0024966469162629712 -0.0021867164616595743 0.000995042046904065 -0.03417778612292887 0.24038179398975984
19981000.0 0.9791108209597978 -0.16630894968530904 -0.0018669969400808826 -0.00428535156049403 0.00042110347575712156 0.0028545278635188115 -0.007004878936533081 0.23329531197473755
20980000.0 0.97674223926291 -0.17543396594638194 -0.004021674048293759 -0.0058296199497892215 0.0010096329629052366 0.004389761861458454 -0.018063055547814507 0.2700827580629992
21979000.0 0.9746999347540768 -0.18663769884832612 -0.005093729251947847 -0.0028103766395006255 -0.0033802843247253624 0.0003161814834869409 0.02452340632458068 0.24164106341739502
22978000.0 0.974781873690213 -0.19445448710173188 -0.0023484586566856545 -0.004455478220756803 0.0009239621960462684 0.0014787027062710602 0.02776818516566165 0.2615817113638022
23977000.0 0.9739326916002792 -0.2009196626346845 -0.005872499152951354 0.001598775913718253 0.0035848129176680827 0.0031225986441616293 0.04477670052895236 0.25545289132084714
24976000.0 0.9700448606959376 -0.21343313958099153 -0.0044844492630681685 -0.002682074913097574 -0.0006076154206300164 0.0026177997586854513 0.056848142219323924 0.25519097119902484
25975000.0 0.9684918599007593 -0.21647508661961104 -0.005927974729674223 -0.006450803338193145 -0.02355136142375137 0.009611354504846643 0.06671907356851277 0.25606713190520836
26974000.0 0.9680203597129694 -0.22798439346844185 -0.005048423531425017 -0.004884531477568158 -0.00127968696707366 -0.0032313389323934774 0.09592788618843247 0.26545185799202675
27973000.0 0.9675505357785441 -0.23383835108179418 -0.0045074116556623346 0.0023984674325492395 -0.003921099014745227 0.000321670494108505 0.11360755075771238 0.2539215698435913
28972000.0 0.9624856490319567 -0.24658968922794228 0.0022302345753896073 -0.0013223334216213157 -0.001488350099731388 -0.002941780930512938 0.12049145027189889 0.25710888781093216
29971000.0 0.9609655972091339 -0.25382671271064533 -0.0017480263806194537 -0.0016853636868220617 9.298291080816366e-05 -0.0006362518837820844 0.1537682146765467 0.2618434583108531
30970000.0 0.957778991690276 -0.25811183104375196 0.0013771252064697758 -0.0019429780499803848 -0.0018008111878808086 0.004409009914992629 0.16888154340772443 0.25565275770314877
31969000.0 0.9582098256483417 -0.2686894836553427 0.00392976487082224 -0.007434974617202903 -0.0020026205386454742 -0.00019324100655996763 0.15100993937769203 0.24613985144048858
32968000.0 0.9563760575830116 -0.27636921167520834 0.009654269267650551 -0.007803219467213393 0.0017653664520350509 0.0019408513969980227 0.17398806739051204 0.24201094238012183
33967000.0 0.9542044164517174 -0.2859949268676589 0.012862961785462522 -0.009012177965160854 -0.0017269962031978836 0.0007578546806143604 0.19265598386038754 0.25716235714385977
34966000.0 0.9495119213400695 -0.2942452735713691 0.014027237125514513 -0.012614781015324336 0.002177960923624509 -0.0017696727503311663 0.20099451619116718 0.2475284853730549
35965000.0 0.9465455415295848 -0.30250970528474785 0.014408782394288574 -0.015801334290307247 0.0018296283868821186 -0.00014572520982704634 0.20705230619293874 0.253961318875898
36964000.0 0.9448350161326443 -0.3142499868633663 0.018397434466069642 -0.01738611563163759 0.0022106384724973525 0.0015973341131130248 0.21598693324315413 0.2572574359823585
37963000.0 0.9416248453542444 -0.32105811672124923 0.024638812843724135 -0.02309498455188777 0.0016053681522820037 0.0002367979817031091 0.22754127671998248 0.23642256700586
38962000.0 0.9393437145263022 -0.32901001843246175 0.024225960494459638 -0.025831927010791917 -0.0003653568509489229 0.005049982016093194 0.23278083960290238 0.2435560014694112
39961000.0 0.935908556297452 -0.33968399058127424 0.02769586355463929 -0.028137019117397688 0.0030021204162874915 0.0038681919190507877 0.256299122623247 0.23088697271295708
40960000.0 0.9316413399523152 -0.3489833893781398 0.026105162470545094 -0.026836399322495628 0.00040037592692295995 -0.00048148084498615375 0.2719054327443559 0.2251833134162133
41959000.0 0.9300264318983519 -0.3567777477876394 0.030412142707028654 -0.03346238108872893 0.0033701417164391143 -0.0017412538462891678 0.26782944396424857 0.21591667623831526
42958000.0 0.9240936137106366 -0.3651651566130273 0.03342743986969452 -0.042241293679028784 0.0002836559648653757 0.001932179324198531 0.2861622881640159 0.19487950550207866
43957000.0 0.9237978740717323 -0.36960338040330193 0.03565917270109745 -0.05099023656792843 0.0013383357259392783 -0.0005885195532483053 0.2886136335050626 0.20268039124445514
44956000.0 0.9193554241617747 -0.3801087015964292 0.03844981637828141 -0.05446292066586627 -0.0003667536643539217 -3.9130472048404305e-05 0.31103695231107326 0.18240294141553512
45955000.0 0.916219651751807 -0.39154307321263854 0.03824743651058979 -0.058154496979755596 0.003965274006208078 -0.001762142757182442 0.3065908212829323 0.1850072324939137
46954000.0 0.9120293733383863 -0.39902783698507865 0.03522238787974023 -0.06996252718655273 -0.0014357332083202337 -0.0017435224289714451 0.3343451270017311 0.1843567011941695
47953000.0 0.9074807878773562 -0.4068804108057955 0.03894908974156119 -0.07479806235668014 -0.003638580905522858 -0.002107471309997946 0.33102074587574426 0.16854242845012626
48952000.0 0.9033878704204862 -0.41947899868067146 0.040395119717894855 -0.08127891361095411 -0.002046972358258414 -0.0015917364419796344 0.3372803973601044 0.1665278017557732
49951000.0 0.9008070946170439 -0.4211721202069294 0.03904261271369846 -0.09125415045431168 -0.0019525106724275821 0.0027046139105159524 0.35000435701608945 0.15406229363395121
50950000.0 0.8970054427778188 -0.4328510453631473 0.043599788051465804 -0.09992539722966959 0.00270245931458711 -0.0006027241634963435 0.3583092159837737 0.14816890673178848
51949000.0 0.8928744058771757 -0.4393250431633512 0.04559973286387266 -0.106372882807337 -0.00020572612526483788 -0.0019831126727595477 0.3617399373615244 0.14044461354811874
52948000.0 0.8884600736762872 -0.44911692856663316 0.04778859862513758 -0.11756208463061336 0.0009877725047245443 -0.0012426975684108343 0.3770034007927398 0.13574878897326778
53947000.0 0.8844518139416946 -0.4550615718737916 0.0498797042682601 -0.12789940624303506 0.0008892855239255644 0.00044161053450572743 0.36960773793169044 0.1187407831581839
54946000.0 0.8783556810577959 -0.46651229072286576 0.04779239399258636 -0.13899873814156513 -0.002094919990654542 -0.0007700332504119379 0.3923506875520794 0.1256064667539478
55945000.0 0.8747523139067273 -0.47374163548798043 0.05182019194130013 -0.14740873983647243 0.00033087031198899625 0.003736024535488131 0.3783621639066438 0.09876690665142854
56944000.0 0.8698773837408135 -0.4811905676021066 0.05384285413544267 -0.15794310331112735 0.0031131911799604874 -0.0017073713650568895 0.39130155536707917 0.10374805540440116
57943000.0 0.8662008031579188 -0.4927773556542311 0.05393762019409683 -0.1695447617783792 0.0037767139390375566 0.0029162097650168146 0.3933956498695667 0.09037210129565043
58942000.0 0.8579591475488073 -0.4976925101529296 0.053091875392603856 -0.18232528300413034 0.002490484236096422 -0.0005991621950283757 0.41617994218497717 0.09189737380534373
59941000.0 0.8581325544460147 -0.5044112366561214 0.058284264362857455 -0.19072063164755026 -0.002670266983003206 0.001295775989584217 0.416237705870921 0.07757850735269828
60940000.0 0.8489232949442593 -0.512128905985575 0.05546235988798263 -0.1946825518953763 0.0010920143728634835 -0.0019175256757247275 0.4076928014907702 0.07208924290799185
61939000.0 0.8459261378005231 -0.5209777278606932 0.0579029586809081 -0.2061458262614042 0.0016376596631527316 0.001216527271820275 0.41743890626582475 0.06337096998501714
62938000.0 0.840532221426609 -0.5299976613011138 0.061433515473256955 -0.22201864247672332 0.0007923327630572032 0.0014329845442677105 0.44287680043126587 0.04566362676271711
63937000.0 0.8355549520555231 -0.5371332487088212 0.06298664642697882 -0.24519547101888478 -0.002728149506853447 7.036209584212337e-05 0.42788327224340866 0.03724246575514377
64936000.0 0.827901379897294 -0.5441319454086083 0.06129573523894823 -0.2599355856683666 -0.0033678682561093685 0.001456600786623034 0.4356239223285602 0.029956282422608026
65935000.0 0.8255398546781636 -0.5558574817000815 0.05967413165899934 -0.27340556325448906 -0.00360986158029669 0.006141214649790209 0.4410297200241091 0.021373063154373467
66934000.0 0.8211675733899337 -0.5588204871744482 0.059192098751357704 -0.2880060101495271 -0.0012786057047693914 -0.00012901528487918658 0.43871291842440974 -0.0009116606974099651
67933000.0 0.8184465561169489 -0.5688237309732304 0.06045259668889688 -0.3011326661370691 -0.004191214761120519 0.0017273936080307458 0.4385907302177793 -0.005044984424667117
68932000.0 0.8115533862937854 -0.5629152983532157 0.05911492474508044 -0.31783812425563973 -0.005569808770876921 -0.00016330756542953375 0.4567994477328797 -0.010494683483845663
69931000.0 0.801600091124429 -0.5851794334854113 0.05696696010291778 -0.33600052834433547 -0.003668502477170859 -0.0030225330116793216 0.44624273023393257 -0.01935623622003287
70930000.0 0.7983441921081738 -0.5903046668697 0.053827164066312 -0.3490251134786555 0.0007260829123121726 0.003438740664087403 0.4493319684512868 -0.03564765769558744
71929000.0 0.792536300018189 -0.6008254034064132 0.04900128722809433 -0.37132884814336714 0.002120242452464037 -0.0064726246175079005 0.44288613041756475 -0.0470921933229468
72928000.0 0.7851100755827329 -0.60770448662115 0.04142117338938555 -0.3917042208845042 0.0026067494364620043 -0.0008175170867358206 0.4657351503403069 -0.06102158160603344
73927000.0 0.7811009001838862 -0.6150712868025322 0.033576968989070616 -0.4120294148753983 0.0032004906688703734 -0.0005996511402996487 0.4664354575709616 -0.06428441758947265
74926000.0 0.7760861842024299 -0.6250683866930977 0.023199750294358324 -0.4307048859410924 0.0012391650315035422 -0.0034436544286578505 0.46542385236946027 -0.06781215991384476
75925000.0 0.7707014691952284 -0.6276189782195217 0.01602222723997646 -0.45086206860386974 -0.0013963299669865303 -0.0024931606096068896 0.46351664641596807 -0.0803114687158344
76924000.0 0.7605566866098741 -0.6377710355989913 0.007328891648268836 -0.47647363929204717 -0.004582375735535977 0.0026772462203112947 0.46814451283830305 -0.0891490918876233
77923000.0 0.7541376536869789 -0.6439909566240027 -0.012171752271646968 -0.5047882969321275 -0.0025826572764680034 0.0005490189894774806 0.45535311307848236 -0.09295197316751751
78922000.0 0.7487362256265522 -0.6537926905736288 -0.024269630629232337 -0.5358009072000631 -0.0027724601763480634 -0.001020548350633162 0.4670273009649645 -0.10150832030124679
79921000.0 0.7397687099287501 -0.656939279309247 -0.04211778937453105 -0.5547430453318117 -0.002828983739105727 0.0055992859188360245 0.4601660891821365 -0.11375713039549651
80920000.0 0.7376247357611347 -0.6673930241913804 -0.05619689989352814 -0.5881358264715361 -1.8426056491348434e-06 0.0008952960411803639 0.46102614367481465 -0.13031320429384396
81919000.0 0.7305663945735535 -0.6734597782687538 -0.07486468792436606 -0.6154484615416528 -0.001282730882981734 0.0019448511250594223 0.4582675333869575 -0.1426574723925593
82918000.0 0.7198362440619468 -0.6826969245600784 -0.08699971073771744 -0.65182790060303 -0.0002941010075986808 0.004238475471227649 0.46970124183875567 -0.154686833464037
83917000.0 0.7139321358424161 -0.6877974790099816 -0.11194002167382296 -0.677997858991947 -0.00017931302679811964 -0.0013535095490688261 0.4664097105349079 -0.16041410691938365
84916000.0 0.7084019752115592 -0.6961783959419895 -0.12450225292452376 -0.7136445972679384 0.0023586601194453514 -0.0021259676807369485 0.4648892814469563 -0.16988807352410767
85915000.0 0.7014023459608827 -0.7027289773978089 -0.14938020297163293 -0.747842069451267 -0.0004027284337341077 0.0004573270495849467 0.4563903292025405 -0.1861402193519624
86914000.0 0.6936170886939076 -0.7126438686481404 -0.1662421810430276 -0.7851037234219803 -2.243228712830713e-05 0.002197660383583003 0.4532740536066021 -0.18136384064095903
87913000.0 0.6857702337140417 -0.7203894395754207 -0.18210022337743573 -0.8163157452817433 0.00046414120958177565 0.0011789569140765776 0.4593681430247229 -0.18396398090663754
88912000.0 0.679686521190185 -0.7243116607216704 -0.20207693676736735 -0.8524841995179251 -0.0003841195314572608 -3.0395833061367467e-05 0.4648398842375721 -0.22120150757623816
89911000.0 0.6717590586595799 -0.7326801790234231 -0.20898563723588234 -0.8926390319312236 0.0004618859334429099 -0.004384376851332632 0.467194296863331 -0.22137535876058503
90910000.0 0.6641298052809526 -0.7388435565682926 -0.22821817420133836 -0.9270613561961298 -0.0003748191349765445 -0.002303881531099078 0.4604294313124548 -0.2170166618172196
91909000.0 0.6555607698514366 -0.7425390207772192 -0.2496229738188101 -0.9606784608633909 0.0019870811213138252 0.001229369183532023 0.46276151365322266 -0.2333342121408222
92908000.0 0.6501310519119669 -0.7524022475590032 -0.2735027852303751 -0.9915930088742192 0.00034768134852098103 0.002669985310651471 0.45251861702631263 -0.2331948515074751
93907000.0 0.6436700921072782 -0.7563901908675229 -0.2910993239876419 -1.0259372700720732 -0.006701835109618631 -0.0028604030651086638 0.44860949101226333 -0.26679177685737987
94906000.0 0.6270313352979171 -0.7649025943082629 -0.31979701522861465 -1.0606692524302141 0.0009739798081660338 -0.0015296700825700477 0.4441131224055501 -0.26526011103668207
95905000.0 0.623965093405211 -0.770507844824974 -0.3369180324271404 -1.100299502836125 0.0032291570436037173 0.0010241627858834255 0.44946679218925956 -0.27707608259843897
96904000.0 0.6151154955319379 -0.779740424845024 -0.355856174447392 -1.1444086824158 0.003872343959826609 -0.0004113913997878128 0.4507737312569266 -0.2754663499208353
97903000.0 0.6054258236500684 -0.784715516608813 -0.38793435848455154 -1.174082534793521 0.000856679796090418 0.000786666487888279 0.44801189528527335 -0.29587906876779446
98902000.0 0.6011395407146091 -0.7893766332533722 -0.4069093300620767 -1.2156239825247905 -0.0028018638252059937 -0.00027292981280623555 0.4371143534756805 -0.30415448629033537
99901000.0 0.5880297400349659 -0.7984182406373307 -0.4405548922539214 -1.2468374413531762 0.0002636163804820898 0.0006608437069319204 0.4449303489351558 -0.31308625933030104
100900000.0 0.5804087259101668 -0.8004765188069772 -0.4785353533009933 -1.2768587003463203 0.0015477704452783278 0.001565942901424866 0.4549573057646166 -0.3219362110223098
101899000.0 0.5720968813358094 -0.8089779605692857 -0.5068756264706559 -1.320939325031237 -0.0020638805645636802 -0.001813256391196873 0.4383006463378192 -0.3277117300934618
102898000.0 0.562130685224086 -0.8151144069776337 -0.5508169053472769 -1.3595431865003955 -0.0004146367336709835 -0.0015412181661707267 0.4462631519207464 -0.3454912450508129
103897000.0 0.5551113225513952 -0.8219612163838638 -0.5904334185853458 -1.3977026131411583 -0.0002760947090797432 0.001049675224464297 0.45377155714105577 -0.3474170291087954
104896000.0 0.5451863150487484 -0.831205695052414 -0.6405996551692545 -1.4313151147154957 -0.0013371495633930546 -1.0093710009875535e-05 0.42857482290982346 -0.33671376771348904
105895000.0 0.534707751488308 -0.8326686197307532 -0.692350954777858 -1.4760256181513884 -0.0030843795586342235 -0.0006879816309178279 0.42553941184745836 -0.36203149637361554
106894000.0 0.5241447096985887 -0.8406674487952903 -0.7502129524745402 -1.5158773435853685 -0.0005738548979657286 0.0015509917635789505 0.4230784295458963 -0.3707123025716547
107893000.0 0.5183695739665144 -0.8477551350424097 -0.80640362341454 -1.5563824711644307 -0.003626403750327675 -0.0009988997232206918 0.4220532830854001 -0.3986412770472159
108892000.0 0.5099190597125168 -0.8481996559477625 -0.8641630866890276 -1.5980021416769417 0.0005598076830441631 -0.0009906247374302372 0.4245858221696744 -0.3809697399394099
109891000.0 0.49570416943857587 -0.8591250454754603 -0.9308984745990289 -1.6354801115235862 -0.0021035458795943354 -0.002008082153060898 0.43483848373564876 -0.38684354052185227
110890000.0 0.4769689173572648 -0.8704202219526146 -1.020047648938092 -1.6458819787566394 0.003648450836776823 -0.005049926312395311 0.4190148870726099 -0.39713308471660735
111889000.0 0.4737435828831643 -0.8655821744184791 -1.0660435643712063 -1.7099384226815697 0.0006876683420649614 0.0015719159984864419 0.41802644679946277 -0.409161145199805
