! Created with skrf 1.9.0 (http://scikit-rf.org).
# Hz S RI R 50.0 
!freq ReS11 ImS11 ReS21 ImS21 ReS12 ImS12 ReS22 ImS22
1000000.0 0.9767806029229538 0.0044014072787345515 -0.0053366880034896 -0.028503591155287965 -0.010167456290110467 0.002563723500359025 0.35039536483058764 0.2971968469470014
1999000.0 1.0007056327518091 -0.014189673174939422 0.0019103561691502116 -0.016814517118665342 0.0016184836079732342 -0.0014008353187016456 0.2652682794860595 -0.060446196238190315
2998000.0 1.0009900603230375 -0.018309089827781844 0.00423979004019782 -0.0164007789039161 -0.0021827306833450072 -0.002227031767574104 0.17496850079497248 -0.1387466666466612
3997000.0 0.9999651244020179 -0.032378174171294904 0.012263179042472495 -0.010133499481534669 -0.007720630922799963 -0.00033745382484864114 0.0929845953405919 -0.2257649048606899
4996000.0 0.9986257596978433 -0.03562095268048461 0.013926363580476036 0.002469343190889173 -0.0025130317932819187 -0.0006293927728209651 -0.043704773755818715 -0.19476021646104397
5995000.0 0.9976325028911005 -0.04803441580417475 0.01062229009018005 -0.001083762639355459 -0.008963712527653264 -0.005785035345232726 -0.1156302101184135 -0.1047365010680209
6994000.0 0.9951782949756194 -0.05595574753695207 0.008707805769709588 0.005313479823911292 0.0023053397699287132 -0.003073554468247639 -0.1476064453626339 -0.038562808360618234
7993000.0 0.9982510182268054 -0.06675589317915095 0.005761540782786528 0.002409142885153889 0.0044841234217337265 0.0038452718337796377 -0.1507700044897694 0.036873199784734065
8992000.0 0.9941140071132674 -0.07198848429549516 0.0009457882162874633 0.002372578637781428 0.003339599692403934 0.00391446664536761 -0.15576900610598993 0.0629009176444356
9991000.0 0.9940465287420405 -0.08212986635390192 -0.0020807180562691257 0.006118009855763199 0.003052248124180107 0.0004743374263791709 -0.12924473466431144 0.091668364987883
10990000.0 0.9945355634595079 -0.09328500706050923 0.0009279744132136695 -0.001034780761039142 -0.004683142860625802 -0.0018386040767847712 -0.13640544069388477 0.11056896576393886
11989000.0 0.9921567435850425 -0.10009254923182014 -0.0008371798845076298 0.004993615353078348 0.0005032938681684456 2.817535985224092e-05 -0.13550749451940142 0.14130356870608182
12988000.0 0.9903071358209093 -0.10878859785008305 0.003220008783426871 -0.004593747239580537 -0.003648628542598576 0.003393831553647734 -0.10777575078968482 0.17277348517269583
13987000.0 0.9897430950705156 -0.11404447508860918 0.0005013272325160314 -0.005787701409405794 0.002188838139521697 0.0017176648928633306 -0.10361492590474054 0.1920324618983862
14986000.0 0.9886904769069074 -0.12742641528973545 -7.5555814095557e-05 -0.005666659358376181 -0.002051085344365921 -0.0018824480556783848 -0.09133348630595559 0.20369785801645
15985000.0 0.9908808080456412 -0.13216054967658475 -0.0004200899797855367 -0.0029122507225484186 0.0038889738998463983 0.0028056000369285523 -0.07119949167814386 0.21923305346143387
16984000.0 0.9859003101570103 -0.1442227529702259 -0.006433620080232552 -0.0024048120349059493 -0.0016464636439746877 -0.00043222356561112296 -0.05864936612153454 0.21515455976237688
17983000.0 0.9862717712874928 -0.15114420633101242 0.0015216155330938493 -0.0071746024655828505 -0.003655066971026263 -0.0014603057316236558 -0.04030935634332289 0.2302590667947454
18982000.0 0.9828954095399759 -0.16060930294737996 -0.0030358676401174484 -0.0014109552454588045 -0.0009014350563684637 -0.0005485868625349906 -0.016684055529448728 0.2355031417931622
19981000.0 0.9838024243959328 -0.16608300496644698 -0.0036413294177218996 0.00015181233380094406 -0.0008073176725552462 -0.001114211061823109 -0.009905867632864733 0.24795918262544778
20980000.0 0.9820519779230878 -0.1766958001265197 -0.010956953876010636 -0.006264134907668856 -0.0034201231207727487 0.002132343468406456 0.0021988400114489022 0.26067037117688624
21979000.0 0.9812380138895028 -0.18333679827897065 -0.006856234482669865 -0.0016063003308063792 -0.0008201046740077212 0.002914231846438387 0.021316714286035064 0.23606739009148967
22978000.0 0.9776032925267594 -0.1917541297230369 -0.008570012025460465 -0.003915059578865051 -0.001293934673669194 -0.004086784486057051 0.02412994027091939 0.25978535245945233
23977000.0 0.9823285960725341 -0.19769370669842817 -0.00845281232600244 -0.007866263123172347 0.002452622217235412 0.0006122123670690177 0.04156271400287038 0.25250563102844975
24976000.0 0.9754497965939942 -0.20971802256776856 -0.006506292901575763 -0.0005068043444178727 0.0020743929571830602 0.001129368986642239 0.06692211599729629 0.2599604776045859
25975000.0 0.9669144890180854 -0.21690814581498516 -0.008521078601898534 -0.0019789164096714446 -0.01765369616464105 -0.018529215545363433 0.08216668299794344 0.2618421187511197
26974000.0 0.970828578257195 -0.2251632924992733 -0.006534408382048302 -0.004600828585930679 0.0006168247354288748 0.0012211227911422744 0.08887669029535562 0.26956729027903853
27973000.0 0.9716334712272043 -0.23206702650521757 -0.00679991446381623 -0.0028813188926744703 -0.0005296345914742519 0.00224534025074818 0.11125258229980427 0.2561787016998589
28972000.0 0.9673971695394199 -0.24244740617527547 -0.001754782062196949 -0.0051103068098884066 0.003398594858905467 0.0009562570700064537 0.11857120534896998 0.2560148323107323
29971000.0 0.9652540756928911 -0.2502963294022956 0.002392898100733982 0.0011560294524378268 -0.0003638291012010424 0.0006021805102004229 0.1518647308515878 0.26863182042411654
30970000.0 0.9652276773737934 -0.2565159996327559 -0.0029148000833030424 -0.0015950897768077443 0.001999043992697387 -0.0020920783203935 0.1721130715004992 0.24143639791809365
31969000.0 0.9612350960869344 -0.26409377599394906 0.00671294931732485 -0.001617363842500457 0.0007691972261901813 -0.0007899299585572958 0.14740964615836757 0.24938552548908058
32968000.0 0.9610380410762405 -0.2734729697435238 0.006675848567198951 -0.008486240465643646 0.00015921353616709096 -0.0019449583120018717 0.16886085031288173 0.25001273865467444
33967000.0 0.9573919526198093 -0.28422559469342124 0.012197965087734247 -0.0102043944126252 0.0003130629552138337 -0.0006765183639508844 0.18752199618091445 0.2397799358439423
34966000.0 0.9540054511657601 -0.29345677127306913 0.01324105214898726 -0.010411682711636956 -0.0009203468102022221 -0.0012298277465399758 0.19216355493251525 0.2555462021879766
35965000.0 0.9524240839072801 -0.30034097842015917 0.014804665288849366 -0.014198454680884773 0.00319140359219201 1.892901111245979e-05 0.20979338901370578 0.24877330273794235
36964000.0 0.9496579439658661 -0.3086375029715666 0.014678391059398846 -0.012081405385027028 -0.00021494400447139562 -0.0028855001066605077 0.22113122175122657 0.2523488935894308
37963000.0 0.9448429754100919 -0.31933197423716375 0.02207679241957733 -0.019860372212848705 0.00042202890825010736 -0.0009511835881696144 0.23827907054218753 0.23396209306328067
38962000.0 0.9433537276396626 -0.32648109247145274 0.02519912880740216 -0.02566037368878237 0.0016283897816189467 0.003040731350369348 0.24376604986974587 0.23181861464494297
39961000.0 0.9417624500354993 -0.33225808839384735 0.02347312966209906 -0.026627909035188725 -0.0009518454676638754 -0.002034697966526663 0.2545854928078378 0.22772134363688953
40960000.0 0.9373028371055827 -0.34038395520915127 0.01979704059056139 -0.022495252707752912 0.0010210406197704311 -0.0005350003895464132 0.274954980857846 0.22622175453846505
41959000.0 0.9349391488966716 -0.35179131453372686 0.027062854964456703 -0.028135276102835408 -0.0007038901631952609 0.004841510170174277 0.27435861647969984 0.22408919121935578
42958000.0 0.9298272414091049 -0.35887438796121146 0.02966465312396781 -0.039468473466738825 0.0002927329881474162 0.0014783084870132095 0.2838413671324392 0.2042154341997388
43957000.0 0.9279632406992302 -0.3672981554962977 0.03112600298097343 -0.045797798948294804 -0.0005079387538138352 0.0005148530039982752 0.2913482078007396 0.2039664579564421
44956000.0 0.925051218615371 -0.37527474929072585 0.03342799158635575 -0.05250914599993537 -0.001512355517033035 -0.0027827982441599574 0.30517335093003134 0.19607954198777583
45955000.0 0.9211818959109273 -0.38208671582240283 0.033658172828442204 -0.057701892057546215 0.0009104926043786348 -0.00372510809730883 0.3071330043406579 0.1920620991598327
46954000.0 0.9180721892651673 -0.3909732903548053 0.03439358532504179 -0.06329032304838608 0.002143435956464935 0.002614407578216 0.32917147321752 0.17133256599901697
47953000.0 0.9162327594969455 -0.40016942000184397 0.03696056653113813 -0.06831595158246216 -0.00021611274627587987 0.003088533893418673 0.3450485511947678 0.16441179750672313
48952000.0 0.9088707252539097 -0.41188321522663723 0.036963980260960594 -0.07818860273439676 0.0030533033032572503 0.00023594790458777385 0.34470470177744394 0.16357845017459802
49951000.0 0.9060040448937904 -0.4147222950916562 0.03732915155688872 -0.08724720019881918 -0.0018017036883147387 0.00500754759918596 0.36101350818040645 0.16185246207974602
50950000.0 0.9036594427876944 -0.4255146195909532 0.03986473294746204 -0.09170875351386876 -0.0008963333818204797 0.0017552410964509298 0.3568559776011126 0.14814573347671625
51949000.0 0.8999133710418868 -0.431587483894085 0.04141873251144639 -0.10180170286471271 -0.00025030491970380944 0.0032300975790432508 0.3584397517504605 0.1490062716970942
52948000.0 0.8954114795789259 -0.44105708374345265 0.04266046041875558 -0.11081647221180517 0.0009972183846158674 -0.0039090816990706555 0.3848144985288229 0.1416127480631972
53947000.0 0.8906871559470201 -0.44705497497624236 0.04241248021671152 -0.11834484508362439 0.0014289972830888423 -0.0024791242005846956 0.37221343736835627 0.13839935995673072
54946000.0 0.8864807415455296 -0.4589449400231883 0.04489914994156403 -0.12892641514276643 0.004471023944506668 -0.0016651153026286316 0.3888181794268271 0.12314211088091558
55945000.0 0.8835980028026051 -0.4660868714298306 0.04798710771490998 -0.13706479776732472 -9.732101704356151e-05 -0.001408844243230105 0.3977410927480236 0.10438840755011097
56944000.0 0.8798846167309072 -0.47394580509305545 0.04896370020932038 -0.14887786024598082 0.0014768272526314412 -0.0014980049171765323 0.40671432772521154 0.10806168334737898
57943000.0 0.875485910962657 -0.4834419129439301 0.04960982021163452 -0.15955006200819635 0.0024060141945608355 -0.0021854311816142304 0.4064574433972041 0.10001027915978755
58942000.0 0.8690782223927999 -0.4867487716230737 0.05180697050534299 -0.1718143823674506 0.0005126037806428792 0.0023748476259953244 0.4192915406721631 0.09438314592004098
59941000.0 0.8653079641687657 -0.49826520663809754 0.05338605613192495 -0.18066893846945292 -0.0001508244903595556 -0.0012432623810892777 0.4241094829250284 0.09204426291907078
60940000.0 0.8576748191549785 -0.5052068580418074 0.055133062525955616 -0.18249093123801816 -0.0005707573857632234 -0.0013473064429374378 0.4196326564912259 0.07105392821425742
61939000.0 0.8562034745346861 -0.5114944021929576 0.056675440653526386 -0.19216153375576656 0.00312767760933798 0.0014742872413969605 0.4167033772959323 0.07053476613255251
62938000.0 0.8496945688014601 -0.5208499745476627 0.0561291203539521 -0.20734956729566992 -0.002737725442175857 0.0007111135131320515 0.4422528964985374 0.0496516708973019
63937000.0 0.8448167864517256 -0.5286046472075131 0.05789069348585721 -0.2313007922683719 0.001825643947308769 -0.001096584418754369 0.44063568359170213 0.040022639441738235
64936000.0 0.83850301957578 -0.5355439499315618 0.06057932103389388 -0.24474825398740319 0.0025156060541693345 0.0002352820011990563 0.44361070764218 0.0500958745528441
65935000.0 0.8364526580500667 -0.5437806100055222 0.05845155458424502 -0.2568670997513793 0.001358827910819764 -0.003306454096698939 0.43923313247395496 0.023920522787599437
66934000.0 0.8328803296343148 -0.5494415740624612 0.05673435082479738 -0.2692882321173705 -9.276995224208804e-06 0.0028493379229190437 0.4485832158251168 0.01722182296534329
67933000.0 0.8286679774379888 -0.558215856180056 0.0579375928794405 -0.2866210939606089 -8.336252258418057e-05 -0.0007712029057779814 0.4480811357616666 0.021473964770088894
68932000.0 0.8246052477317494 -0.5573231330756514 0.05676855306291801 -0.2980301146034619 -0.0011892361794125946 0.0021156073522220838 0.4482918995198185 0.0006524087698443145
69931000.0 0.8150197934982022 -0.575287191491474 0.054936151412274425 -0.31708251552276995 -0.001998320909571678 0.002013547116153139 0.45840557763562545 -0.02140960669789547
70930000.0 0.8068688831362428 -0.5824413815857113 0.050869257494180586 -0.32931599992469357 -0.0013083519893112242 -0.0006985138986228992 0.4468715065415842 -0.03434165159241528
71929000.0 0.8057076336263442 -0.5886595549426141 0.04904818728894045 -0.34747098806477217 0.003750866697375064 0.002597099991186838 0.457912468235554 -0.04741832515676593
72928000.0 0.7975949253377316 -0.5994805808368594 0.04470263681700093 -0.3616391305319397 -0.00010913053535713055 -0.002539107726298486 0.46024656053340834 -0.04177865079400839
73927000.0 0.7926072999813973 -0.603867431028698 0.04038162846553983 -0.3852889999886204 -0.0018602036269531076 0.0019029672096939826 0.45996608371963615 -0.05024980238946934
74926000.0 0.7891952450341588 -0.6148014888079516 0.033175169734354866 -0.39977913162127016 0.0008320672815168792 -0.0005413049213494281 0.4624653829568871 -0.0516985343268042
75925000.0 0.7822766723879494 -0.6192582455289852 0.02882240003576481 -0.4216583440396056 0.0025516022398122482 -0.0015876540689914527 0.47144853576829726 -0.07421965575188645
76924000.0 0.7758267466820382 -0.627305745289938 0.011145288902156417 -0.4446438279640543 -0.00012211079512143555 0.004179974689890336 0.4681544670716182 -0.07449980811310317
77923000.0 0.7688862457608537 -0.6351877936876463 0.0007566148504606377 -0.47068169510400343 -0.0036801265287570183 0.0020843399010811114 0.46828325077878163 -0.09222529554334143
78922000.0 0.7642826667862138 -0.6446094051223218 -0.011427706539400834 -0.4960545898962526 0.0036001582145347567 0.0004848051080732482 0.47136463538307083 -0.10301622361640296
79921000.0 0.754288286276214 -0.6477688784531812 -0.025946318238407855 -0.5200133969008022 -0.0026412196155682723 0.0022587201289529847 0.4776395610773993 -0.11412712444808784
80920000.0 0.7499697155745826 -0.6594823419303808 -0.043219348318071386 -0.5467590065746711 0.00012031840492990185 -0.0025256690125226963 0.47234465384133323 -0.11993973623245581
81919000.0 0.7462439196211119 -0.6639500123002628 -0.05839931696878848 -0.5731011428999849 -0.003923247608682918 8.714721820094905e-07 0.47264423008174306 -0.11844438291635564
82918000.0 0.733811180865756 -0.6718746178450297 -0.07430953577165383 -0.6058003272848251 -0.002040167748370392 0.0006065234782218118 0.4754799879722147 -0.12671866795363107
83917000.0 0.7305964296429921 -0.6802741912184471 -0.09499678399129129 -0.6317860448722431 0.0032734927327476623 -0.00377187943933104 0.479536862769895 -0.14641414319254445
84916000.0 0.726548398180281 -0.6875611303089114 -0.1101066334062596 -0.6693279102875807 0.002400582986653589 0.0024172138678216566 0.47411100245947824 -0.1614401140945728
85915000.0 0.7172394898971586 -0.6918121932700115 -0.12595512779157678 -0.7016306252666054 0.0014858595029113549 0.0024833377873555627 0.4714885542822109 -0.16818100406071615
86914000.0 0.7103100866416953 -0.7034723270869063 -0.14625721893686855 -0.7378865093724459 -0.0008666420667749647 -0.002344572227890627 0.46675815022499806 -0.16967697220170508
87913000.0 0.7018044803514677 -0.708144646514825 -0.1609723590919313 -0.7664503130734428 0.0020294267207358794 -0.0020960846986138744 0.46321799320606794 -0.18286047036782768
88912000.0 0.6970955062393878 -0.7152259915571103 -0.17915913820053503 -0.8042945955812718 0.00021846457057738853 -0.0032862592586949874 0.47180354934230745 -0.20209316737584393
89911000.0 0.6880323246458417 -0.7246410534791959 -0.1925868413624608 -0.8365657682926253 0.002455626056670754 -0.00010886618685635573 0.47162583270297165 -0.212802601469598
90910000.0 0.6808717327598832 -0.7301502779363671 -0.214222921842787 -0.8705339867978384 0.001100280010407311 -0.005392665480652687 0.46242125183014926 -0.20073944550296471
91909000.0 0.6725907949773621 -0.7349213767755841 -0.22906449295604958 -0.9024584202115841 0.0002712173313779882 0.002453372507231872 0.47257826081750026 -0.21088715894218568
92908000.0 0.6646531781166956 -0.7433049031611296 -0.24911330968682846 -0.9409823215517251 0.0002052518626642123 0.0016205850196607616 0.4601375561152735 -0.2199487738298704
93907000.0 0.6598553706546355 -0.7490892116665636 -0.2683240499481334 -0.9729540652797704 0.0011835200431823895 -0.002072393336166075 0.4720842905034063 -0.2407577591706974
94906000.0 0.6467465580644232 -0.7563284401328709 -0.2869373150186722 -1.0068463633617968 0.0025650006718720576 0.0006937850227879629 0.46816225702079023 -0.24243311330385447
95905000.0 0.6412415401099925 -0.7622511568914573 -0.3084209019973866 -1.0406024603618418 -0.0005387357842829098 -0.004750030865749094 0.47401482960758223 -0.26732594555167055
96904000.0 0.6339052398102927 -0.771243199719813 -0.325332965963107 -1.0795644083433131 -0.0015751337267010627 0.0018313846975468648 0.4647989949555356 -0.27443970846858873
97903000.0 0.6225822805313651 -0.7763553798849884 -0.351155763259649 -1.1100236734820268 -0.0014489514495006077 -0.00036658302717813894 0.45230324488649615 -0.2746042833135462
98902000.0 0.619510883269623 -0.7837212510468831 -0.36540261400918334 -1.150946900078477 -0.001720970958407413 -0.0009306759211923723 0.45387658753009175 -0.2960093319137743
99901000.0 0.6089273278370346 -0.7885547846524353 -0.40053599900054015 -1.1870936404532875 -0.0004474643878713305 -3.0661478369046764e-05 0.46218875284666205 -0.31591272924028746
100900000.0 0.5999998806261851 -0.7930731514668516 -0.4259040134051299 -1.2122291411814035 -0.0023011911350996625 -0.002115670877792367 0.47793949446512357 -0.300400274284865
101899000.0 0.589714517100652 -0.8003862811653787 -0.4524038138211906 -1.2499241075221494 -0.0009257036351866437 0.0027659997764826797 0.44956428232394147 -0.32508029212420647
102898000.0 0.5798683769649277 -0.8077824005547908 -0.4908096058838791 -1.290708561702878 -0.0032939615387275797 0.0018671562863037034 0.45488449769021416 -0.32735103474270794
103897000.0 0.5733624906621826 -0.8146213159939154 -0.5253193419951063 -1.3269372002076165 -0.0014722714588486043 8.094145788038742e-05 0.46854607462222914 -0.3321019809051137
104896000.0 0.5646029812149767 -0.8221589630315786 -0.5651818227472112 -1.3599480901847465 -0.0013342699028892372 -0.001623964506614583 0.4492604585325047 -0.32996872654717396
105895000.0 0.5566891768437935 -0.8272390018676463 -0.6143173996368078 -1.4043297663367642 -0.00022684075045328674 -0.00032332394541510485 0.4422319009388077 -0.3476983381798777
106894000.0 0.5454545143266702 -0.8334638113923459 -0.6670788166093731 -1.4423906712077135 -0.0017015953366667084 -0.000788903264692897 0.44533986476230825 -0.3618766598144858
107893000.0 0.5370283132905741 -0.8403139826935412 -0.7160148595316963 -1.4837739659913856 0.0033945864140988895 -0.0015865224079776637 0.43706976465647585 -0.3720159223596925
108892000.0 0.5284350881137427 -0.8426984150662803 -0.7721756216693899 -1.5234086619169167 -0.0036743436692457704 -0.002837074464086822 0.4304284513388605 -0.37010528531085607
109891000.0 0.51716722568854 -0.8502472682241435 -0.8271311839674116 -1.558453698238311 -0.001439421834361129 0.00023418457157644432 0.4468462969366332 -0.36874433633483544
110890000.0 0.5044930929440404 -0.8506308252566185 -0.8817005863356108 -1.559825224906765 -0.0018574198099940093 -0.0008556488800190288 0.4296997939503645 -0.3767552272444463
111889000.0 0.49751317660599775 -0.8573189487800963 -0.9523324646877542 -1.6291758162033179 -0.0015757769528265812 -0.001433519985190501 0.4318482018897372 -0.3877700107661766
