! Created with skrf 1.9.0 (http://scikit-rf.org).
# Hz S RI R 50.0 
!freq ReS11 ImS11 ReS21 ImS21 ReS12 ImS12 ReS22 ImS22
1000000.0 0.9821209019129807 0.005045198562564086 -0.007433264868093645 -0.03966803522509862 -0.010645172473803019 0.00486175711925087 0.33012164648214004 0.35325802739063256
1999000.0 0.994118721752843 -0.01173807625565193 0.014271915101031334 -0.016770884706805232 -6.108009750344787e-05 0.0014671840685800876 0.2580649439712712 -0.034578405340105325
2998000.0 0.9995900493707157 -0.025567270701820827 0.010860926189791427 -0.01499501408801948 -0.0015172200436911608 -0.006139033186220921 0.1872691443180781 -0.12382363166768624
3997000.0 0.9959240871889313 -0.033169495125701845 0.008473213481272137 -0.007112754820720881 0.002996591276529492 0.0020369323837151174 0.10620067674049527 -0.18745129482844558
4996000.0 0.993385795091809 -0.04155859904778563 0.013728527367872516 -0.0009272097463224443 -0.0005920725582887259 -0.0013049374894214063 -0.03210372310559937 -0.17989256454620076
5995000.0 0.9932737550758951 -0.052072380089550674 0.011037848278862086 0.0037902789932168935 -0.001553404680744322 -0.0038588014619622022 -0.1120047594539027 -0.11576541390533439
6994000.0 0.9904532171276603 -0.06047114378509493 0.002802315348144407 0.00031281220630002815 -0.002189384357131282 0.00186905103452229 -0.14249428970805056 -0.03364316393694502
7993000.0 0.9909597882683338 -0.06972510231523014 0.001559974899582616 0.005589197528382067 0.0030622879865466776 -0.0021399000567203824 -0.163587951086203 0.04241504293783117
8992000.0 0.9901577824250481 -0.07402796433187368 -0.0024726814530634405 0.004398000659217331 -0.0013266478907296398 -0.004660492646129012 -0.17965691757615507 0.0682279411622879
9991000.0 0.9885294882947098 -0.0826842652622566 0.003169792401822447 0.0011231062294585858 -0.0010016309465628094 -0.008646931153107888 -0.1504061542985279 0.08423457907016224
10990000.0 0.9874595146104012 -0.09245849160780722 0.004772302757057323 0.0013095614882024727 0.0028824218455302604 -0.0015821129577277117 -0.13941995397565332 0.11706157634948672
11989000.0 0.9849682057073829 -0.10280866334885781 0.002100898592570311 -0.0021932938585917045 -0.004097405675353491 0.00027468613275883014 -0.12323938435028817 0.1274599401889156
12988000.0 0.9854223441390464 -0.10964941167879914 -0.0029727877337225148 -0.0013298048258030026 0.0010805667227674308 0.0008806276315632247 -0.11273130947795809 0.1709690088682298
13987000.0 0.9834645340357681 -0.11922121274257262 2.9767102935786398e-05 -0.003563830224392263 -0.003486341053639844 0.002708407560358194 -0.08191884229047333 0.18464430464368123
14986000.0 0.9841221840502776 -0.12504061508210632 -0.001031956755486317 -0.0008193291539071178 -0.0034428685949444517 -0.0006521952897455004 -0.09018373981578605 0.1965943775438113
15985000.0 0.9846533770558096 -0.1332902410890977 -0.0010749648742663033 -0.0043559887887015545 0.002798974322471961 0.005649540967277131 -0.07023557165238566 0.2056963746438488
16984000.0 0.981119213233922 -0.14397149262701248 -0.0018883017015033114 -0.0052242182606204056 0.004995704168748102 -0.004633453123832465 -0.06818793000048164 0.2172418804135368
17983000.0 0.9806109821591598 -0.14827150494227884 -0.0051152318854670205 -0.0019476676762480575 0.0009203871378919834 0.002789846927145466 -0.06005513780709486 0.2218410350097133
18982000.0 0.9792715734430648 -0.15837870041878774 -0.00010291997259312857 -0.0051574738149107865 -0.003074236873866054 0.001660585170463192 -0.03629743991445307 0.24579975021365802
19981000.0 0.9782838554298151 -0.1655347649449399 -0.005955403322612333 -0.0033074027928297425 0.00013521722009512017 -0.0014832954134085183 -0.023347668418074497 0.24244607133752374
20980000.0 0.9771273573531797 -0.17563674922120293 -0.005157302781191575 -0.004374201846144465 0.0012044665740550634 0.0006292342022395624 0.0021620938606373512 0.2785549635862558
21979000.0 0.976079758846087 -0.18361884236364384 -0.008819818701731893 -0.004818892645264092 0.0010722987002555178 -0.0005596394308403648 0.018359528417030122 0.24078230070813816
22978000.0 0.9726216349018469 -0.19249091678793132 -0.006293319227954605 -0.00524343477193689 -0.0007560013462556899 -0.001282997458927953 0.023494957416784767 0.25273445362503205
23977000.0 0.9746109713782549 -0.20160229470453567 -0.007493214713668781 -0.0040477602440556785 0.0006302846395075435 -0.0018657550788755328 0.04027346729826323 0.26496894361578627
24976000.0 0.9703234383513152 -0.21109797995263116 -0.0034036781698347516 -0.0042887051135267334 0.0017462357174251515 -0.0030601603601263555 0.060702637444832765 0.258499485210863
25975000.0 0.9669166109209599 -0.2261287033331356 -0.005552615921786475 0.0032996864737158487 0.02578939568452643 -0.009010791106697 0.06688230552447284 0.25023334649446916
26974000.0 0.9673571058389887 -0.22690365145544816 -0.0038503037228727276 -0.0019240299259971024 0.001275332071924223 0.0014622811656181134 0.08792055576690255 0.2623416971263413
27973000.0 0.9671841558863107 -0.2330180598075707 -0.004375706275331077 -6.893265098512905e-05 0.00159128109868883 0.0002781270594973992 0.10528011659504695 0.24620482323206694
28972000.0 0.9627349307764741 -0.24466700656773796 -0.00114715491551335 -0.0027550343236724946 0.0012386002147067067 0.0007253074048963657 0.10864592986357756 0.2541844290138139
29971000.0 0.9619247743404591 -0.25202191238076316 -0.0014540162638120627 -0.004424430337565505 0.0010923549350235586 -0.0003125733444004413 0.15099699704099195 0.2778202137329152
30970000.0 0.960339490176127 -0.257698518203455 0.002738372462141997 0.0020935885799942583 0.002866409375640169 -0.0007269795019243222 0.17544555560384004 0.2530947372010328
31969000.0 0.9576216123721947 -0.2673114088599254 0.006760279038072213 -0.004092352576379682 0.0014087433215136964 8.30849504726839e-05 0.1486394341964878 0.24819722894252458
32968000.0 0.956457626893405 -0.2758158614718091 0.008388989764541966 -0.0075117223929342695 0.0013407335985498802 -0.0002994577705511889 0.16177231381481882 0.24516282587700725
33967000.0 0.9526349994816291 -0.28783356749975614 0.006512123372757088 -0.011891536585861846 -0.001553901092782369 0.00036390779569934963 0.17754635936730173 0.24752812584717912
34966000.0 0.9508841031237162 -0.29613742846794283 0.014610552816460263 -0.011591418965658391 0.0008296547022747475 -0.00017902938492158236 0.18957615220690358 0.24193239951570136
35965000.0 0.9471331019589395 -0.3029036478463688 0.014195141362346453 -0.016016109613542263 -0.0011806475938281795 -0.000655085786278202 0.2063354064969754 0.24560608729167918
36964000.0 0.945777197904461 -0.3113664205802965 0.018694215014150316 -0.014221128170954542 -0.0032684718092863287 0.0019421357624019374 0.211193803592153 0.24593660888586533
37963000.0 0.9413283573684809 -0.3236935762398717 0.022059534293571385 -0.022787850019928342 -0.0015780754412966327 -0.0020001271245539466 0.22504504053767307 0.23822224751143015
38962000.0 0.9392591173291237 -0.33122191452274935 0.02417412431542555 -0.023912429300310567 -0.00038243159750600504 0.001460701184759568 0.23753679821878634 0.23738221789335356
39961000.0 0.9377122105665517 -0.3350108866580174 0.024085305562665235 -0.0292242652885072 -0.002441777856117437 -0.0004895442422453076 0.24873196721131147 0.22128175147804455
40960000.0 0.932461239565441 -0.34412244197826025 0.025196617032476245 -0.02426455781358333 0.0023392904318060583 0.002124531823287339 0.2646494604480631 0.2302071282053383
41959000.0 0.9311136601141506 -0.35567605327155477 0.02832811155084742 -0.03238920628932956 -0.0029846608409103926 0.0006235352612483671 0.2631016120205282 0.21868904979033468
42958000.0 0.926305317399769 -0.3630795255834638 0.03127302143662936 -0.04105906789887126 0.0019636795465969564 0.001016843653638932 0.2779307426550924 0.20423062113255402
43957000.0 0.9241527842302396 -0.3688751875858502 0.035334940524905746 -0.04468346203050267 0.00013822924454264107 -0.0003138315058804178 0.2834418506634647 0.20495079742823677
44956000.0 0.9196605859728406 -0.37935402532870444 0.03501422729020412 -0.053383220305634665 0.0007637285369561308 -0.0008734406604050718 0.29859714621075106 0.18784757291696727
45955000.0 0.9152433127622355 -0.38853459383304456 0.03486385123856994 -0.057715107361113564 -0.00026537149637436905 -0.0017175901312338833 0.3026531260836531 0.19817119726588012
46954000.0 0.9136848465816211 -0.39678731509477416 0.03664502128342118 -0.06647956641463308 0.002011999196735807 -0.0016065861104635718 0.3275578761554589 0.1786450854026638
47953000.0 0.9089948881733715 -0.40699515091912336 0.03684540932481483 -0.07161559049911442 0.0009106952693883703 0.0027354772904401243 0.33606421555184124 0.17318489671886975
48952000.0 0.9029948412052112 -0.4170812762121735 0.039513787062878385 -0.08400976238032996 -0.002595972575182837 -0.005809515813499313 0.3390799629229873 0.1668294866657137
49951000.0 0.8997425764759758 -0.4219894592597935 0.03929934717036191 -0.08846702268745889 -0.0033946033654422194 -0.003427013715690143 0.3482005706428079 0.1538599085565273
50950000.0 0.8964621661225278 -0.42931476108783573 0.04067332894241319 -0.09933898920359646 -0.00041994146767000294 0.001485476717127254 0.3474593919710108 0.13598742369842703
51949000.0 0.8920569657804287 -0.4385363279497092 0.040482346490604434 -0.10439352857004426 -0.0007823626736873835 0.0038169086620653803 0.35962018147115754 0.14395937399020506
52948000.0 0.8912203862475132 -0.44654655806627086 0.04410737522250041 -0.11440628011355651 -0.0014717204288001886 0.0009376421560233888 0.369679498627122 0.14073122834253848
53947000.0 0.8838806470163182 -0.45470964383660784 0.041386847016835177 -0.12396906433463585 -5.035052313868277e-05 -0.0006937589683035896 0.37030280564042234 0.12927529794911177
54946000.0 0.8782315405565359 -0.4633645268918347 0.044029816526562675 -0.1324452866805279 0.0016117334926771846 -0.002376248724477849 0.38195392132617473 0.1273311734083933
55945000.0 0.8756749015240807 -0.47089978449112885 0.0470458560892027 -0.14416263934336118 0.0003270890107565985 0.00019294802536504443 0.3863998163520247 0.09985790500947632
56944000.0 0.8722061648258687 -0.4799893966492903 0.047093339202901895 -0.15227873974445816 -0.0002384984058747558 0.004624997117829113 0.3974386119994596 0.10938877939525153
57943000.0 0.8691278384208442 -0.48931291853262077 0.04779981172439044 -0.1671653535012648 0.002331561715250169 0.0024321281535272126 0.40190991349950517 0.10055554440934762
58942000.0 0.8621239970445372 -0.4935252371023703 0.050440336548615614 -0.17646071211029493 0.002307666056583401 -0.00217708485516592 0.4141245288239041 0.09389141511011215
59941000.0 0.8575093371792731 -0.5041244384022299 0.05081853621147062 -0.18413902114710357 0.0016134956173023192 -0.0024261922734083153 0.4165965030650083 0.09337843407605732
60940000.0 0.850298574908815 -0.5094199338522574 0.05527097749861703 -0.19101396895082665 -0.001239955213025419 -0.0012131312304079422 0.4042411953912739 0.07149039987854282
61939000.0 0.8473706843048737 -0.5172707736666455 0.05509736255998689 -0.19730337129593947 0.0013971367156216323 -5.2595560630135056e-05 0.4191450201836288 0.05822657967522575
62938000.0 0.8418439239882688 -0.528594856828019 0.055916712627265545 -0.21394081830443157 -0.002447636056869828 -7.215272975238414e-05 0.4306186209542285 0.05451965876744363
63937000.0 0.8367382337814432 -0.5358634497652464 0.0581855602248725 -0.2373565707592856 0.002446555446434953 0.0019047078100379257 0.4255501083078014 0.040641840640263306
64936000.0 0.8294861566041395 -0.5425365655825356 0.05715192742139152 -0.24880058365080257 -0.0035007438372084486 0.002299620598696025 0.42093261355502876 0.04836807718963868
65935000.0 0.8269796208456028 -0.5515987244420195 0.0567671551613635 -0.267342508340323 0.004348853112188529 -0.0008353422825453894 0.4322546045264578 0.02287317099682366
66934000.0 0.8223699635173558 -0.5585116846785417 0.05350276073757894 -0.27951660776744086 0.0017718920181217048 -0.0005501547810767369 0.431571780464032 0.0034284727015597544
67933000.0 0.8184559007758191 -0.5647916414805045 0.05947666129210288 -0.2936027270203641 0.0010635748224477033 -0.0030718570173188945 0.4392069664972943 0.012938036546732812
68932000.0 0.8140764517951388 -0.5622230986162319 0.05816057836455915 -0.30359603537528285 -0.002165251120134916 -0.0024121687384497984 0.44546570605411495 -0.0015360908042430202
69931000.0 0.8045475553416158 -0.5816415549278006 0.05353007700867875 -0.32341205376492216 -0.0031743500881604198 0.001418365723040406 0.44315881592359696 -0.017717728250413074
70930000.0 0.7976061213285931 -0.5892405632448922 0.049789031828789375 -0.3362294807067962 -0.0009483510083187272 0.002325252128699349 0.4489709235590189 -0.029367023540044924
71929000.0 0.7949797205349519 -0.596765347596666 0.047606443161297876 -0.3577525733494731 0.005367187157929045 0.002539854377294405 0.4488603473291719 -0.03927808646847726
72928000.0 0.7871409625110882 -0.6073738837109458 0.041043437343064954 -0.3737993603236478 0.004238496993647261 -0.0025288600978589405 0.46029205671977025 -0.05752845835483344
73927000.0 0.7823241288847067 -0.6130732974268125 0.034734713322366564 -0.39636449240821636 -0.004202842971799632 2.1907664947125393e-05 0.4499089673188076 -0.05426830289187365
74926000.0 0.7786038070974312 -0.6205179340828001 0.03137677800199005 -0.412379020646296 0.0004668684143190427 -0.00043678872484442945 0.45729598434690577 -0.05830325841798648
75925000.0 0.7701673213025304 -0.6252412128760266 0.01818107741474561 -0.4361983158821788 0.0013178965435599278 0.002208126199421762 0.4620232747117473 -0.07418233558356906
76924000.0 0.7637273907511469 -0.6349259445198666 0.008799009804435421 -0.45722777829268146 0.002359007350643375 0.0003770880950209451 0.45940090994302196 -0.07996987790114099
77923000.0 0.7577910697954797 -0.6403125526578584 -0.0054587670757724705 -0.4840056465946471 -0.0024035008603766456 0.0007631523606677276 0.45759958244587473 -0.09719446399029692
78922000.0 0.7523877448387771 -0.6523615454227962 -0.0209356130479769 -0.5079003110763621 0.0040666570081984 0.0008539775323829313 0.4546936668474619 -0.10352814590153421
79921000.0 0.7416304837372835 -0.6557219057897965 -0.03874899714513302 -0.5345257115027644 -0.004500408874558879 0.001259571301194052 0.44877904792148077 -0.10600300398898725
80920000.0 0.7377766136601565 -0.6661176975258594 -0.05468815094207194 -0.565317434621945 -0.00042562454264640447 0.0009226160016534718 0.4594811117994243 -0.11826716641809296
81919000.0 0.7340615902585503 -0.6716259802636345 -0.07315719920073567 -0.5908966970580424 0.001139641999147943 0.0021315310246811047 0.4637789485173887 -0.1305767836183191
82918000.0 0.7241108364528784 -0.6790243900277166 -0.09015608884379486 -0.6228214814643035 -0.0005514060716399862 -0.0010443895330615673 0.4624455762021356 -0.1376575633631322
83917000.0 0.7141353008248872 -0.6864212006987749 -0.10688074588424197 -0.6551753661945999 -0.0026258139221090678 8.2127131979596e-05 0.465283666791286 -0.15769556861958903
84916000.0 0.7104289931707347 -0.6933753489939025 -0.1270419509572535 -0.6891253326398434 -0.00494014190980633 -0.002198763908602981 0.46971700160801627 -0.16423331667288096
85915000.0 0.704382272420947 -0.6998891035814909 -0.1436678621283388 -0.7182139784886344 -0.003560414345293871 0.003145835552524259 0.4590480273607059 -0.1689950187261288
86914000.0 0.6965539240571849 -0.7093643613606041 -0.15745180964285269 -0.7546791029206991 -0.00028311067553616536 -0.0019736322699293444 0.4569218899148378 -0.1786848581347979
87913000.0 0.6880191525701757 -0.7160124144465774 -0.17608895694505028 -0.7897885797173851 -0.0014771044407359262 -0.0032628017832620794 0.46059339739750144 -0.18429018440445288
88912000.0 0.6818641786307621 -0.7217395541780955 -0.19304057071892675 -0.8202874177899544 0.0009352687401204953 -0.0018773164044492928 0.4602480039911394 -0.1965082756734997
89911000.0 0.6736345786843356 -0.7296015113510784 -0.20747531643089526 -0.8561145616124631 -0.00018104658828248544 -0.0035155664482036564 0.4708537057095099 -0.20757658447094227
90910000.0 0.6683749485025757 -0.7368559406527024 -0.2241829481301946 -0.8913610203636092 0.0002928581502896361 0.0015326044398989366 0.4619086245036455 -0.2021403860566962
91909000.0 0.6595593305398563 -0.7402664358126853 -0.24649088726060334 -0.9270918060464566 0.00021358822903148666 -0.0004133650160998064 0.4687664927074625 -0.22361792084433774
92908000.0 0.652217997007453 -0.7492884270490143 -0.2623750795386293 -0.9609666802330338 -0.001839527668741109 -0.00012421919027243993 0.4498917511657241 -0.23139271229241026
93907000.0 0.6455187063800887 -0.7553802744005014 -0.28123472943290495 -0.9949721177509452 -0.00015630550311828174 0.0001911418666879154 0.454543529281292 -0.24800566127108314
94906000.0 0.6323760354603218 -0.7614182325052937 -0.2988312046059674 -1.0267690542311578 0.002230440175821099 -0.001855754515711371 0.4640465368301013 -0.2504039646191519
95905000.0 0.626374484625343 -0.7682037677975396 -0.3225253337978573 -1.060643789159952 -0.0003566095925439401 0.0010969516732448358 0.44442705588946746 -0.27899483402281866
96904000.0 0.6195702781851931 -0.7764994841617878 -0.34381552835538753 -1.101109601112762 -0.005287099852355428 0.002668410730626604 0.44894220042365635 -0.2715234936202861
97903000.0 0.6102650451850474 -0.7805334735751517 -0.3637203863783162 -1.1352508212099246 -0.0014805669546320975 -0.005150228084284368 0.4386590386715388 -0.2814574642050933
98902000.0 0.6054560275124666 -0.7894579580584538 -0.3841958723546415 -1.173296905623916 0.0035047020707057084 0.0028040913885412364 0.45016576767076283 -0.29226879878357315
99901000.0 0.594802845153544 -0.7942629928646112 -0.4128279198867747 -1.203037333598155 -0.0010515498128013169 0.0005057626245606881 0.45778372064424655 -0.30883684564039693
100900000.0 0.5862349555236468 -0.7969677571321112 -0.4462351500906833 -1.2358428422354297 -0.00438107065194223 0.0010743561599350947 0.4690546528324032 -0.309545662783819
101899000.0 0.5781097492631202 -0.8043182417699679 -0.46952214638310763 -1.2781813818937435 0.00250428028611683 0.002908273628575312 0.45374105200815873 -0.31587732082492
102898000.0 0.565550738968934 -0.81283307723769 -0.514115661370983 -1.3134909230208167 0.0008673626910484217 0.0005012129372345054 0.44918543405312833 -0.34286792804008764
103897000.0 0.5598817220884293 -0.8200772667409424 -0.5569725399570492 -1.3490787739527272 0.0024682260833347085 0.003005250536718395 0.4469144762083161 -0.33152543101162907
104896000.0 0.5528767408932351 -0.8292893612269934 -0.6017676943186655 -1.3854632037248036 -0.0020790280206600138 0.00023797293394734178 0.4342432382985725 -0.3308767736257249
105895000.0 0.5373139473911156 -0.8310066471328478 -0.6478172304795357 -1.422769478513587 -0.002886480481570773 -0.0007708978345117849 0.42623684076291274 -0.3562240589087875
106894000.0 0.5303287765673241 -0.8367552460956581 -0.7032100794416599 -1.4664303467538626 0.0005133146441289926 -0.001137721186336409 0.438387986634661 -0.35769673517158124
107893000.0 0.5222155021272702 -0.8447110920758428 -0.7555758208740241 -1.5048682259704818 0.0013644062398076439 -0.0035543254405772926 0.424798040720277 -0.3688205934613927
108892000.0 0.5148037217087659 -0.8466584080175448 -0.8163238315615828 -1.5492458962426257 0.0001610505433440337 0.0045721200306300565 0.4242988283305942 -0.36985634012043783
109891000.0 0.5009683060683527 -0.8555081095425136 -0.8729326525817283 -1.5817427169285867 0.0015641179653045 -0.0014390172295048144 0.43565980180101865 -0.36189703852987953
110890000.0 0.4975275266025833 -0.8646588319381904 -0.9393550125865813 -1.610521712374119 0.0008280116513476698 0.002022268575395589 0.42106604516817536 -0.38059641312081766
111889000.0 0.4818171119099477 -0.8611106336265724 -1.0040658699201892 -1.6526322634093205 -0.0008759666459060378 -0.0021741012040059514 0.4235812619367075 -0.39733815142534007
