! Created with skrf 1.9.0 (http://scikit-rf.org).
# Hz S RI R 50.0 
!freq ReS11 ImS11 ReS21 ImS21 ReS12 ImS12 ReS22 ImS22
1000000.0 0.9857644404257853 0.0010765883342962852 -0.006780861408918058 -0.04624501005231965 -0.007494367812861881 0.004638878769200574 0.34719225311151247 0.307005201616115
1999000.0 0.9974699036219398 -0.014351387237764785 0.0036051412207600254 -0.014838169606500556 -0.0039633989608745136 -0.008719964922397268 0.2414600376646029 -0.023416800482101565
2998000.0 1.0012159204531772 -0.020601820097921195 0.010504004184070331 -0.01881771730234656 0.0024462044537073456 -0.005460769334192971 0.1971874036803598 -0.1479576126659214
3997000.0 1.000062638214644 -0.02783291553549131 0.012563064178701382 -0.009562449793093303 0.0014189431373897092 -0.004143131087795153 0.07953472166037724 -0.2245243519693272
4996000.0 0.9971175840504218 -0.038400600941780445 0.014694280234837648 -0.004136073500611377 -0.00804958648481896 0.0020800000745240226 -0.043451502374076564 -0.20845328698949708
5995000.0 0.9977031280022887 -0.048156556475818776 0.009392701233526484 0.00012272327198267736 -0.0005046738884114501 -0.0006457286376487164 -0.12199124835800015 -0.1065600570760767
6994000.0 0.9983937524846681 -0.056526087135351406 0.005388562535004236 0.006000728806640799 -0.00023833844370595796 -0.001387383611037633 -0.14051716984365123 -0.021644825487179904
7993000.0 0.9943928235693164 -0.06630017069240832 0.0010536260646756591 0.0016341582246637205 -0.0047140939548764365 0.003448969001179547 -0.15568784294874227 0.043792246745945375
8992000.0 0.996814249116524 -0.06874819134981143 0.0009784409160297008 0.003361043351630407 0.0026299905257070504 0.0015356210578105374 -0.14942128896882914 0.06336602898228402
9991000.0 0.9932907919723727 -0.08228140824570761 0.0057617933075741964 0.0027952148487715924 -0.00129913817186333 0.0003590899850783993 -0.153024212622025 0.08727045926485824
10990000.0 0.9938433929205601 -0.09145541121852313 0.002926409486235977 0.007891800770582599 0.004666146308093792 0.004403186429333042 -0.13631754457571324 0.11982414670611445
11989000.0 0.9907095927205929 -0.0999873333797678 0.0038903733491754593 -0.0012602104507681718 -0.0036005278253110375 0.0035349435153706446 -0.11670634303962724 0.1304874253992194
12988000.0 0.9880462673683387 -0.1089936413580782 0.001011529240130503 -0.002252532678226224 0.0022218376668224652 0.004505458268532614 -0.10354680248710982 0.16227929757888243
13987000.0 0.9895179681966377 -0.11655133744834457 0.0013259953446437096 -0.003166115434611191 0.01044315962647774 0.0011461369263771812 -0.09978541163501786 0.19079967057054908
14986000.0 0.9892299661556168 -0.1235472070779315 -0.0011806395703750948 0.002502251993018391 -0.002743001128172422 0.00252433438231642 -0.08797201550188519 0.20063027700311353
15985000.0 0.9908204164561808 -0.13235239038113528 -0.0007718575398882499 -0.0025063555402619277 -0.0026412919954282984 0.005070385640095474 -0.06258238970365496 0.2049077008807377
16984000.0 0.9881943312790089 -0.14413853247495054 -0.0011355174955940944 -0.002602827874543324 0.0033810335416765273 -0.0011808544004483698 -0.0644295005936552 0.21796466198368528
17983000.0 0.9859913984345241 -0.14896924861571811 -0.000796600422834926 -0.006745997232673552 -0.003892498400798537 0.0017791885098214953 -0.053964508783703145 0.22389331399401732
18982000.0 0.9828984825600403 -0.15987215672270827 -0.0032986786718434274 -0.003669210802941865 0.0016000588305632591 -0.0026945203263728664 -0.025779731505817194 0.23901081036115912
19981000.0 0.9836219562142035 -0.16505893014721584 -0.006487514160849727 -0.0032353453895487354 -0.0025750074205837304 -0.0016335004105719477 -0.02900855852361139 0.23737212799573207
20980000.0 0.9820429336671505 -0.17512771109797745 -0.003776847885546507 -0.004045749070128161 -0.0009436552405428907 -0.0007529808567327188 0.004036170061966859 0.2505737252538352
21979000.0 0.9795103104871554 -0.18182090054049438 -0.001493240080179418 -0.005473758803221583 0.0011364929128358666 -0.0002329745298049712 0.01720400277907976 0.23776392730020554
22978000.0 0.9770515997143578 -0.1914688806375968 -0.005125906583259503 -0.004291072582897764 -0.003824785835125417 0.0026773468922468686 0.03859417730977827 0.2549522946361169
23977000.0 0.9797323065136977 -0.2002993132548133 -0.0021602542742202614 -0.0018375818580985965 -0.00022870478099715083 -0.0016794745666457844 0.04351772405866226 0.24383368568892227
24976000.0 0.9756900976200762 -0.20813254742861817 -0.002076134284792274 -0.004982392786072779 -0.006083737076388586 0.0009746765558762835 0.062308942066446896 0.25254162678766473
25975000.0 0.9736260426806926 -0.21356172796391745 -0.0050577553193004365 -0.0014254533439534752 -0.022237502950510527 0.016007830869172613 0.07875153847832442 0.26343713847517203
26974000.0 0.9710665588442828 -0.22489875093322106 -0.005446993644612072 -0.0021566743766168535 -0.0015884626324299772 0.002103324649067192 0.09017268426662045 0.26504006897713106
27973000.0 0.9708678780411603 -0.23146410936871964 -0.0033505957795965592 -0.0021390627803432338 0.0002579561010385116 -0.002324852877264712 0.10055939482537003 0.2586140295292491
28972000.0 0.9672882768639169 -0.2424530969767851 -0.0005423674481120208 -0.0027302608379472563 -0.0003776087154600804 -0.00011334179129336217 0.1093251570323445 0.252274270384146
29971000.0 0.9667960450731186 -0.25160636582562174 -0.0005712994972921194 -0.002710304037014071 -0.0005886009284553221 0.0006445299017163849 0.14547316522378623 0.2684543779672311
30970000.0 0.9641503927911733 -0.2573907418393796 0.00276283136171238 -0.0007390689021346494 0.0027913063976431813 -0.001943417695446927 0.16995126568231805 0.2521405513458281
31969000.0 0.962008350259293 -0.2650100461423932 0.009509247934722765 -0.003106576338297651 0.0011321832244299793 -0.0023854010383412123 0.1505747683587945 0.2424237548481901
32968000.0 0.9610498137873577 -0.2719700454595783 0.00749390575338604 -0.00975087197396046 0.0019697657952165337 0.0007124131343932233 0.15919981060614005 0.2365653995578583
33967000.0 0.9579312736851963 -0.28436704004834595 0.01231855115705271 -0.008971364113732947 -0.0017070639188640434 -0.00156010574661224 0.17910718243831594 0.24268175918063517
34966000.0 0.9536133645471352 -0.29282217448494674 0.013122279434496047 -0.013565328565611748 -0.000310179629603068 0.0006009653666720768 0.20201429814396352 0.2468423462503989
35965000.0 0.9522269767005546 -0.2973065945042617 0.01825381168109878 -0.014333371006186292 0.0016910451236981925 0.0005930196242432156 0.21394071118528876 0.25218713472049453
36964000.0 0.9511110894109049 -0.3079843978379449 0.0151064579377967 -0.01541852849897094 0.0008810712038087704 -0.0016954843882737358 0.20957446071379646 0.25314607821280066
37963000.0 0.9448775944117419 -0.3189796696463268 0.022364099894154478 -0.018905330153538173 0.002654078450480687 -0.0013046237019516535 0.2250411774872575 0.2284939035579476
38962000.0 0.9432489685999124 -0.3266406592085585 0.022505033042892923 -0.021711884039352685 -0.00024523842244969176 0.0014980299176262759 0.24074894769543265 0.2309039516087627
39961000.0 0.940026390223036 -0.33401823649203394 0.026956292034035944 -0.028055759164131885 0.0009227833772038603 -0.0020388299896218023 0.2588465910459153 0.22542787033086367
40960000.0 0.9388699327592966 -0.34167703726846194 0.023511510517840412 -0.026289569041341842 -0.000705267398158548 0.0008241117003262799 0.26321828242015133 0.22740198281410268
41959000.0 0.9344919606729689 -0.34958489487904154 0.03058307586717661 -0.03087017418613831 0.003895734904035931 0.0005670074493489103 0.2670190651146211 0.22158507984815617
42958000.0 0.9311556449086457 -0.3591069092342337 0.03368936345741996 -0.042984316823858636 0.0009562457421360376 -0.001413624328979485 0.27588191825192004 0.20771896520693744
43957000.0 0.9279720479769408 -0.36721276561481675 0.03096270653763938 -0.04808808470592299 -0.002500976941686659 0.001678893898122108 0.2786585166915071 0.21038654927606248
44956000.0 0.9254571931899929 -0.37458769059981173 0.034433493499363796 -0.050500267578293796 0.0027052889406608124 -0.0023193555950820266 0.29937061699631085 0.19709457888092244
45955000.0 0.920825139919659 -0.3844234807148758 0.033972754004817 -0.058460020531797545 0.0011277744470451494 -0.0013304232079650474 0.3039750648342199 0.19379037201840502
46954000.0 0.9175246577039867 -0.39162071848943586 0.0354818960005106 -0.06518459816136746 -0.00048627740100348684 -0.0007333930889081885 0.31993806975998457 0.18633746188637226
47953000.0 0.9141437857969812 -0.39945419075128363 0.03637648484942116 -0.0730431949450449 0.005801880520427131 -0.0018191339954187573 0.33274416311510724 0.16788575259928082
48952000.0 0.9100891745480683 -0.4071462615306883 0.038290438325143915 -0.07905342583998716 -0.0058078905641522835 -0.00012472060357403367 0.32963092471156 0.1585233060650763
49951000.0 0.9045239265577228 -0.41491547560629655 0.0375208977775594 -0.08690085557729531 0.0013257126101098393 -0.0024442017692072313 0.3471575656057285 0.15492940059170268
50950000.0 0.9042487852787009 -0.423920527865771 0.036218694501564834 -0.09396034975010639 0.00043220850592070036 -0.0004205428334757305 0.33775048230093674 0.15587489561338796
51949000.0 0.8999141248509203 -0.4324402865862548 0.03915964566694878 -0.10208748598006036 0.002783829694234249 0.0011853310788550384 0.3556022049951873 0.14749101844709317
52948000.0 0.8974695467164632 -0.4391282590605463 0.040497586253095144 -0.1163911091141979 -0.0009848834667245585 0.0019904340012893203 0.3620656758454487 0.14216157546812194
53947000.0 0.8903691713737532 -0.44762819902595086 0.04241788108412408 -0.12163297343887926 -0.0015866077146106763 -0.002918549691822616 0.36315667081612346 0.12671084980280792
54946000.0 0.8862314698632112 -0.45821881494553696 0.04292440431461613 -0.1307554380263986 0.000640928091942689 0.0006796072145252021 0.383162845909659 0.12614734844383726
55945000.0 0.8835232108147031 -0.4659042292700052 0.04661773037415575 -0.14166317456121938 -0.0011004386285422797 -0.0012629282660990633 0.3884003893596477 0.10187375663788018
56944000.0 0.8788671595518792 -0.4716734983600539 0.046662915082624185 -0.1508831215259076 -0.0013356936730849788 -0.001162279846758412 0.3976116617187855 0.1058857075696058
57943000.0 0.8747830358079791 -0.4816794667697346 0.04657151964943328 -0.16306598837029887 -0.001632526220369159 -0.0023982147887766825 0.4064866621869816 0.10048662527588795
58942000.0 0.8687802168007384 -0.4878711550990302 0.047645498765477946 -0.17303575503715654 0.00503995738328928 -0.0037327230072867553 0.4164645917580589 0.0952573539313545
59941000.0 0.8677638949333835 -0.4942265002759806 0.05064568289313648 -0.18175017581718556 -0.0005478432480475019 -0.0008630198673366466 0.41958641678551817 0.08844174092779639
60940000.0 0.8584239295313425 -0.5038991965244324 0.050965237301207805 -0.18473404209260288 -0.00188379045617362 -0.0025908327717027945 0.4091795710510747 0.0801031875911844
61939000.0 0.856813591645631 -0.5105899426245232 0.05080165752167422 -0.19583485200497516 0.000716146464850787 0.0008246512653447641 0.4224897062722974 0.06249225401149996
62938000.0 0.849546820281113 -0.5212875272584705 0.05302231595001112 -0.21273419606705735 0.0019257634102188231 -0.0006009641247714947 0.43748190205806065 0.057408884253845605
63937000.0 0.8462858636629466 -0.5275931156225038 0.05574200164041895 -0.23191397625654114 -0.0013340879414538182 0.0020789070172971937 0.4446886870371841 0.041643587411572834
64936000.0 0.8375857055518641 -0.5352021781048598 0.053159798746144654 -0.2480475093445395 -0.0003115974152576904 0.0012896951064141969 0.4399630338517508 0.043805936720987926
65935000.0 0.8356078252942952 -0.5442167586209914 0.05589044250012656 -0.2602159525613102 0.0026008060094137968 -0.0028195219303628555 0.4408199189852026 0.016022067993923868
66934000.0 0.8322679119740007 -0.5489256587502874 0.05325936445677334 -0.2765158465918736 0.0029612975383389115 0.0026020851504952535 0.4322488669036895 0.015149080647647094
67933000.0 0.8282669837069273 -0.5581239103935868 0.05508181627085019 -0.2908337563790598 0.0018807875298700821 0.0004124023631372586 0.4417754428115787 -0.001898645159983364
68932000.0 0.8112047575839555 -0.5559206860004007 0.04816566311851457 -0.3001964063761653 0.0008382650182729073 0.0019664954939282017 0.4522397188506525 -0.019014325774077644
69931000.0 0.8128378236251614 -0.5755206020163925 0.051224491618100616 -0.316415187430814 -0.0018398283812061829 0.003928669107294255 0.4438651602535119 -0.012687081877413107
70930000.0 0.8107426279667137 -0.5788116683754976 0.05190959240413305 -0.33011048448409924 -0.003437069503947239 0.0005094697465403403 0.4476634456839949 -0.02873899463747703
71929000.0 0.8044584686608856 -0.591126736915852 0.04541306680081669 -0.34845520066722285 -0.001294816968675515 -0.0008203026285042309 0.44869029566742097 -0.03695692619039556
72928000.0 0.7996665838842628 -0.5981873759549537 0.04334903069612933 -0.36705812543501337 0.003555039530911477 -0.0011493233436055776 0.46127001034185705 -0.045372401856559365
73927000.0 0.7941073733787268 -0.6063619120975025 0.03479419154518892 -0.38605509286882445 -0.000683897566347077 0.0024878059245740103 0.454763081414515 -0.060426377849952334
74926000.0 0.7879431094024424 -0.6129436208471466 0.02563968141970404 -0.4052847978558431 -0.0031650370420426826 0.0008389264991628929 0.46898508677815626 -0.06027761200292584
75925000.0 0.7819022807378152 -0.6198827676601462 0.0200696854528857 -0.4244977432752813 0.0018659302549623997 0.00015398658581072493 0.47321032914601363 -0.0717702917335677
76924000.0 0.776852031753249 -0.6262082027974792 0.008795127859020598 -0.4465484946832802 0.0006282107531238318 -0.00504800777270802 0.4707712790011321 -0.08187037310674873
77923000.0 0.7725605335981522 -0.6316200389471016 -0.0033844863141775003 -0.47429819407873475 -0.0004021260188480743 0.0030917131779952356 0.46517483894799605 -0.08803274788228473
78922000.0 0.7640205981853492 -0.6421925555100287 -0.020988989579929524 -0.495742058651577 -0.003080876089887882 -0.00035693421094951577 0.46223655506508826 -0.11309596938246573
79921000.0 0.7563645580263 -0.6469235734077713 -0.03905168608411859 -0.5202166698173728 0.001113734551856692 -0.0005314477963041839 0.4654128759000081 -0.10988731153087526
80920000.0 0.7514977934981817 -0.6587923775404236 -0.051459358601062086 -0.5466191359694402 -0.0011357980203292736 0.0025333411405582752 0.46596107799946895 -0.1324235023497446
81919000.0 0.7469484407166102 -0.6623850400877307 -0.06675023422348024 -0.5787103784891978 -0.0015623603411263442 -0.0059052180106220955 0.4744838792307524 -0.13167320070210467
82918000.0 0.7356293304089034 -0.6721097991341507 -0.08221220379046311 -0.6079202386472385 0.003945109441053292 -0.0009309008176020592 0.4741367556602927 -0.13550433924023228
83917000.0 0.7289290720436523 -0.6798111797327107 -0.10318299272130688 -0.6334635583978566 -0.0011238975760549932 0.00013846449414456734 0.47227958940783904 -0.14449872460946833
84916000.0 0.7239189294059438 -0.6875392450447843 -0.11593636851181559 -0.6724732232448312 -3.716171075023217e-05 0.001108208408390031 0.46563126105795716 -0.15822112189773072
85915000.0 0.7173541923416403 -0.6924735731527036 -0.14228155688560326 -0.7009235707865793 0.0003464149503133127 -0.0023579139524546747 0.46736811101868336 -0.17606938940323397
86914000.0 0.7112915304880921 -0.7021450373761161 -0.15937490070682817 -0.735791410095068 -4.094877294941277e-05 -0.0029890120912351523 0.46065919746752104 -0.1677940661333991
87913000.0 0.7030477187249919 -0.707900879522398 -0.17200973244791307 -0.7706086630347453 -0.0004711343716766949 -0.0003435947037321819 0.4575706494727857 -0.17530970578679633
88912000.0 0.6986854203662498 -0.7129590945437451 -0.19178623483910237 -0.8026197632074858 -0.0010845076153722473 -0.0009799582777693149 0.47026423499419656 -0.2076181652344589
89911000.0 0.6903801395273835 -0.7241829374654931 -0.2083857567119895 -0.8389401605892828 0.0023204287238323988 0.0009333944726307012 0.47527284861680863 -0.21264025331217062
90910000.0 0.6852356333480353 -0.7272156229895758 -0.22064248126755495 -0.873486146819225 0.00253639347323395 0.00021967690432867458 0.46032258382332847 -0.20886501173536645
91909000.0 0.6743301032779607 -0.7329150907452613 -0.24328479151679372 -0.9076080976619977 -0.0019272896037431193 -0.003592552273398912 0.4712315145909128 -0.22723360013289057
92908000.0 0.6668882766369023 -0.742294903851739 -0.2625216292438563 -0.9405519744166992 -0.0010901121329174944 -0.000987291431893375 0.46312923425245955 -0.22936694042021505
93907000.0 0.6607249092003497 -0.7465475392412662 -0.27611757078717575 -0.972074227833754 -0.0007842599772917502 3.392317283721191e-05 0.46364796331472596 -0.24056562493237998
94906000.0 0.6465604117460049 -0.7566063925535103 -0.29764360428922393 -1.0052345361206607 -0.00020874026306685976 -0.002219902160409503 0.4616481012822783 -0.2506079723860901
95905000.0 0.6434035628777547 -0.7618813643121948 -0.3186280807171244 -1.0429009998075185 -6.946957821686608e-05 0.002035327675121542 0.46484362685141317 -0.263344991645226
96904000.0 0.6328610236925895 -0.7704717292410979 -0.33551858384944044 -1.078950248532186 0.0010471181667856702 -0.0009173478744061148 0.45718275915616924 -0.27560408737961806
97903000.0 0.6246206904119732 -0.7741758711883691 -0.3552075076985091 -1.1117522182463202 -0.0008400614868566296 0.001181599088356211 0.44670915019180085 -0.2864534784147665
98902000.0 0.6200245738287733 -0.7839096628550052 -0.3807346035988537 -1.1523435103398743 -0.001028159252048351 -0.0022378888996166402 0.4514084616665047 -0.30323310230889994
99901000.0 0.6105050416307944 -0.7892601442663768 -0.406890561578614 -1.1834030898925523 0.0002000849771834808 -0.00041674296510617423 0.4573222793486112 -0.3121815632438772
100900000.0 0.6020460257687595 -0.7917063222692124 -0.4347429028846022 -1.2089654019501423 0.00012625478542253033 0.0023470526248644086 0.4657646764469329 -0.3110740353007366
101899000.0 0.5922370387301583 -0.8003633545722423 -0.4637734295505335 -1.249584491316588 0.0008391897751722019 0.001360773629567912 0.4500844153082638 -0.3204260040284157
102898000.0 0.5845553740826228 -0.805773081262414 -0.4955822156653212 -1.291382924271593 0.0017598502419893852 0.00035674004218044076 0.4570215511148331 -0.33313233309691215
103897000.0 0.5757961545752891 -0.8142044215731759 -0.5351799810520625 -1.325340280238292 0.0008421061594701332 -0.00018513372711492267 0.4546546004881518 -0.3286612874601435
104896000.0 0.5671385482916311 -0.8218503052926739 -0.5784876415491081 -1.355250328269634 -0.0001199259432070392 -0.0015948918249467272 0.43074442409386643 -0.335412250558985
105895000.0 0.5560842569602071 -0.8241168217103776 -0.6223612893851874 -1.394846605591743 0.0007502224725364017 -0.0020308125984547093 0.43839068995838487 -0.3450169931435425
106894000.0 0.5483800866769458 -0.8316992764895165 -0.6759392889336858 -1.4321737631044718 0.0020735855879043907 0.0006696118693237168 0.4287985871194558 -0.3645874512011605
107893000.0 0.5397917286194904 -0.8381008264134945 -0.7279344432140945 -1.47407256537919 0.0018212590743193655 0.0015531919272290106 0.42373492879578745 -0.36573306054611593
108892000.0 0.5304721875564019 -0.8418388926054233 -0.7861594732577629 -1.5135141544125303 0.0013278709634498976 -0.0020994458763508622 0.41983920654973145 -0.3731930028814741
109891000.0 0.5198748133605404 -0.8506718633235398 -0.8440033435539283 -1.5518402035579535 -1.707195652165307e-05 0.0010675183371329099 0.44394314535390844 -0.3754866001154749
110890000.0 0.5118835161008255 -0.8665061372398096 -0.9207366694639298 -1.5762056618361926 0.00047369557328505636 -0.0029537620324004 0.43327823602530163 -0.38603152894913006
111889000.0 0.5007860595925305 -0.8570460148018813 -0.9624028480553993 -1.6189856062531425 0.001515863495764094 -0.0026511144713138777 0.41813523268606484 -0.3958193823950141
