! Created with skrf 1.9.0 (http://scikit-rf.org).
# Hz S RI R 50.0 
!freq ReS11 ImS11 ReS21 ImS21 ReS12 ImS12 ReS22 ImS22
1000000.0 0.9758845185824575 -0.0001923982565833473 -0.00280492122294436 -0.04574337136047119 -0.00456932026478274 0.01390846813913904 0.3481182413657923 0.3227409727047187
1999000.0 0.998301989003884 -0.012640266842481424 0.00295028238004989 -0.029650089664924575 -0.01043168099789546 -0.0018669423994989137 0.2437739171193237 -0.07839365076682615
2998000.0 0.9955485999516904 -0.022440109730549128 0.01116234243057292 -0.01434324585275702 -0.005241863259310758 0.0008447950385933843 0.1937492899662076 -0.15558015942462078
3997000.0 1.0018760530563373 -0.02941904601622946 0.013379790496261075 -0.010045651423683875 -0.006657553034102024 -0.004869941457822561 0.08168272718405371 -0.2152642019041147
4996000.0 0.9986926170785321 -0.03793538893595751 0.013912037437584446 0.0014266839178139034 -0.0006118811433541795 -0.0024417583429710205 -0.042100707407716056 -0.20343866375251748
5995000.0 0.9995802319151785 -0.05091159968060039 0.009243038920348293 0.0016405289237702155 0.001770849831536914 -0.010464618380841496 -0.1111156409639031 -0.10484012224897957
6994000.0 0.9948692197159463 -0.05879544071119786 0.004879389432103813 0.008174236074372555 0.004307445371364114 -0.0036203361625288155 -0.15740957003397255 -0.017474650832560168
7993000.0 0.9976057050384861 -0.06568476520407927 0.001605151450268791 0.005583648743635294 0.0030041507550541487 0.00851625418764069 -0.16627210635728 0.04152764120442398
8992000.0 0.9956815274286098 -0.0723112785039137 -0.0004825425884736988 0.0009062964792500866 -0.00036027474682327987 -0.001732709581208121 -0.15486054286406467 0.060152196542164464
9991000.0 0.9953393340441161 -0.08362791022873499 0.00010622351285977014 0.0013259077818101566 0.0007035619818643302 -0.0024360334431973913 -0.14473348829724805 0.10053170616929945
10990000.0 0.992533807694213 -0.09278673820124875 0.005760675860331543 0.002033975812317698 -0.0005750324438613293 -0.004338781107030276 -0.13809925058239741 0.10811947192610688
11989000.0 0.9919439450498805 -0.10050474552417724 0.003554459380828796 -0.0004648247088173892 0.003670572654252329 -6.026402634989844e-05 -0.12842452493564935 0.1352894913141918
12988000.0 0.9921089452337442 -0.1074065646233406 -0.0005514141685120511 -0.00311993900376276 0.0030836659328866427 0.0021683879929925718 -0.1218626042052598 0.16746989074550747
13987000.0 0.9898106661138769 -0.11803395301862697 0.0016864141751144735 -0.004133729291447732 -0.0001437518209057021 0.00022946455709824766 -0.102089758924031 0.17957626843164226
14986000.0 0.9878354990017925 -0.12422407586647542 -0.00019129648361036587 -0.002536707935841119 0.0016107999947483943 0.0010321405798720317 -0.09012338833946172 0.19873447215985096
15985000.0 0.9894243240005026 -0.13529068629121627 0.0001045954264340798 -0.007438236150398826 0.0036837273790117056 -0.0026267240855521058 -0.06769395054233943 0.21660515932445218
16984000.0 0.9874081962408344 -0.1430988047693688 -0.0043194017249622504 -0.005436470226249118 -0.005145725469285437 0.0015561869434445102 -0.06431282217536999 0.22558605220048344
17983000.0 0.9872312166246467 -0.15162255520475768 -0.006708850227328013 -8.904974637178087e-05 -0.0002748766575350228 -0.0003314492536775031 -0.04805982266583831 0.22545128757835514
18982000.0 0.9845033260033671 -0.161147356519764 -0.004490122773916607 -0.0025616294984160824 -0.002235827307055081 0.0014552099543113442 -0.027742646634522656 0.23812989240385593
19981000.0 0.9855252112579594 -0.16529254786575892 -0.004991875734093375 -0.004277729996548371 -0.0016536636480637965 -0.0002574434976229462 -0.018318885719545014 0.23450234821637556
20980000.0 0.9825426342776906 -0.17555384288489992 -0.0026214439081307796 -0.0026858549675334346 0.0036736333084630246 -0.003314301143129727 -0.00018795319091012664 0.2545660472144746
21979000.0 0.9801819525866624 -0.1830765377851514 -0.00671432847575609 -0.003849783612224315 0.003019165048384627 0.0009899660658697614 0.015564717305598615 0.24268394806199442
22978000.0 0.9790687166028218 -0.19176142885289368 -0.009195606060543223 -0.004975156450414475 0.0007186758971482817 0.0013707005075606826 0.037093728323440135 0.255545893869099
23977000.0 0.9791690456879328 -0.19877550675720324 -0.00909152309932634 -0.005098910578330982 -0.0014448914783208033 0.002813912245127044 0.025828498968875978 0.25003520651553207
24976000.0 0.9765926227428812 -0.20847641135912856 -0.008369398710174544 -0.005936574238584796 0.001211948339158118 -0.00042783516410865445 0.05969733218893748 0.2565245427154362
25975000.0 0.9766178565723971 -0.2188497838105783 -0.003977095937536803 -0.0005039211222535264 0.015081102757735707 0.023242030908047096 0.07316373023167809 0.2665948556393131
26974000.0 0.9718885165549372 -0.22636624046364226 -0.0065089822106388475 -0.0010604786829177789 0.0010397671815881892 -0.0008190938805876611 0.1021731809796292 0.2593453020906759
27973000.0 0.9696948674748523 -0.2347490116825381 -0.0030032897369850955 0.0016678442092173946 -0.002299382399754126 -0.002347841367703738 0.10481214649539466 0.2562527601178725
28972000.0 0.9659982525627765 -0.24380436575185066 -0.003997221309143968 -0.00017560004555134637 0.00034582262647455243 -0.0012618112950228504 0.11645788777214806 0.2512438388272432
29971000.0 0.9662017366491181 -0.2517976104259694 0.001045128209361607 -0.004769561316026623 0.0003983562758441816 0.0005443173462839066 0.15226644661066682 0.25960900443081886
30970000.0 0.9637309006067828 -0.2561653882956073 0.0019160771487629488 0.000295773731579477 -0.0014104937364482492 0.003594609787840713 0.17066523062642522 0.2548847333839928
31969000.0 0.9625304328600509 -0.2653729548884793 0.005328626945981207 -0.003225619140236956 -0.0027840437054143367 0.001163193968666795 0.15595306854121382 0.2457370739013132
32968000.0 0.9622891637807653 -0.27445620164812323 0.007164098182540418 -0.009477335921651245 -0.0006890966428487338 -0.000397823939393552 0.16855012092000496 0.23569094713809374
33967000.0 0.9570249004892272 -0.2856798308274226 0.014930267112633188 -0.010477587027337157 0.0014185324216187468 0.00039079497476996047 0.18751295216993125 0.24465960655064634
34966000.0 0.9530068655198287 -0.2930493504737229 0.014554709757155233 -0.011181250628394404 -0.0006672080263867785 -0.0004381223909572072 0.19720832557428203 0.2481209414402339
35965000.0 0.950799231266678 -0.2999466005603238 0.015717172189221907 -0.01514203223825486 -0.004171869892263411 -0.0022428701060306817 0.21264489861007344 0.241500877762611
36964000.0 0.9496320939631446 -0.31007102896622435 0.018012960619620166 -0.015466954530741117 -4.9012350197204756e-05 -0.0013653385948374807 0.2173860039688098 0.24922297536237023
37963000.0 0.9468833081787216 -0.31742395846331495 0.02489397677996417 -0.018123802519576425 0.002192252672507939 -0.0022257906866508807 0.2342506243121881 0.22989865092981754
38962000.0 0.9450668447087753 -0.32615502513559325 0.025716449291739663 -0.025658651340150024 -0.0031617598035735862 -0.0022599397028917204 0.24560000273437668 0.23194275525196767
39961000.0 0.9406235069622515 -0.33506850912318675 0.027935276411829305 -0.028175983737479215 -0.002361562454460755 0.0032539256077822824 0.24687669610789742 0.21817444767856953
40960000.0 0.9373165661326649 -0.342724902776658 0.025357605587682245 -0.024300512000152305 0.0017186795846755585 0.0006955296902220995 0.2674482102651982 0.22077242171055317
41959000.0 0.9351173114913016 -0.35165285482884967 0.03286819225688325 -0.03292265510821629 -0.0008206729568597923 0.0011654752187751595 0.2715929696910216 0.20777243238555934
42958000.0 0.9279473022534677 -0.36101364922882273 0.03463201316217136 -0.04004881242016035 0.0006281494307609323 0.0020786651774277443 0.28254874362079957 0.19198981419676323
43957000.0 0.9292883109275161 -0.3649528689700688 0.03554975891485734 -0.04780972641404175 0.0014195743977568319 -0.002741562950076713 0.2889443072206127 0.2022139414798104
44956000.0 0.9258115031644025 -0.37174402791903655 0.03726995082275165 -0.05494748880312616 -0.0015143923507970243 -0.001492766101185133 0.3017201510988454 0.19112377646407538
45955000.0 0.9210295605313995 -0.38399614687173245 0.037210161181979735 -0.05867769021102559 -0.00298244610897174 -0.0022013651987980837 0.31207312496104056 0.1818083791882287
46954000.0 0.9180514029072249 -0.39260342775003415 0.04061296770398416 -0.06667851228668153 -0.0002540009054233025 0.00034299482255588425 0.3312831905695255 0.17060799038168017
47953000.0 0.9145856479634339 -0.4004940021889288 0.04132030972955385 -0.07624578067607242 -0.003413475762765959 0.00018902423202689313 0.33760042211768193 0.17163321220545563
48952000.0 0.9098338721371939 -0.4097571848690883 0.04263403549838177 -0.08494571385710242 -0.00116737257424823 -8.139475847204918e-07 0.3394883051223594 0.1586393079477713
49951000.0 0.9051952345646233 -0.418126810306989 0.041746103349891615 -0.09189458229504158 0.0017337732435111792 0.000697619573226501 0.3536593372650557 0.15257487149016888
50950000.0 0.9011844901761841 -0.4247863918993769 0.04506343424887454 -0.09639079628158158 -0.0019168960066529286 -0.002092607725632794 0.3504178182018959 0.14089112965912026
51949000.0 0.8981073465518702 -0.43384064446125714 0.04497184811279214 -0.10768235711517442 0.0015349356435214246 0.0028345297152521562 0.3592370246572176 0.1347193297950582
52948000.0 0.8963898621932289 -0.4422181214086596 0.046415159418331145 -0.11622293814738512 0.002887107225090427 0.0010132969196497421 0.37884014146093153 0.14043913031225103
53947000.0 0.8900257891311207 -0.4493027549776719 0.04641807724604064 -0.12926266019694396 -0.0020148492452884297 0.0007131297072459161 0.37124685477005936 0.1291520561831614
54946000.0 0.8836491630059266 -0.45904162494475975 0.05032963648851567 -0.13798759972886648 -0.0026271514697412046 -0.002309683756066322 0.38536389281959355 0.11853446288708104
55945000.0 0.8813808068586668 -0.4652546237826827 0.05212279798690321 -0.14919096871549054 0.001231453049305151 -0.0024601366292864805 0.38236089654077826 0.09482501922605781
56944000.0 0.8791710800690595 -0.47452911498685046 0.053519342365527994 -0.15865128663771183 -0.0020569965701558663 0.004361107114479877 0.4018185936065974 0.09644726680371066
57943000.0 0.8724033262685498 -0.4866860671640089 0.0522484456497664 -0.1704806688992726 -0.0009411411888656324 0.0004903424519420932 0.4057966191195557 0.08927991419702555
58942000.0 0.8687359695999689 -0.4897787848286224 0.05534198117762751 -0.18418864993352638 -0.000514034106185305 0.004463895641884371 0.41000446222532794 0.08323894127492032
59941000.0 0.8670422906365199 -0.49742452970654377 0.059378035147165574 -0.19222511627532435 -0.003550024900993218 0.0023665151505173365 0.4231537309472099 0.08761557067791245
60940000.0 0.857649924217817 -0.5045162190318292 0.059944844222836385 -0.19764865946297203 -0.00027682484239112447 0.0012808875915704427 0.4083425918811833 0.07557508049117363
61939000.0 0.8562388365318536 -0.5129024982582728 0.05893861248351976 -0.20811044717543012 -0.0002528664392552914 -0.00019364021139306275 0.4156447320713115 0.058507496177222354
62938000.0 0.8488593057227067 -0.5234595209812928 0.06169755846191196 -0.22439822677516627 0.001779628316627322 0.0033386166756844376 0.444943184687019 0.043295615184604244
63937000.0 0.8448291825867681 -0.5298598357733614 0.06363721541585804 -0.24856930940992228 -0.0011197432398733485 -0.0003227693584929293 0.4369650922132275 0.034468003689299746
64936000.0 0.8394319054653278 -0.5352631279164007 0.06227439029023065 -0.2615258092460284 0.00044880607187731974 -0.0014628147328250597 0.444879969506632 0.035442877067024085
65935000.0 0.8339995237493036 -0.5470335557632041 0.06345327166237452 -0.27540572986555834 -0.0012467115112495826 0.0008759451192276728 0.44649486794513205 0.013425217138619416
66934000.0 0.830562587752466 -0.5523003999699141 0.056964904060464866 -0.29098153439631186 -0.0006669131386455973 -0.0020962527989004283 0.4322965706557462 -0.0016735614035421225
67933000.0 0.8282932454812854 -0.5585941787416686 0.06279342130302877 -0.30590562357817214 0.0005261316997015387 -0.0016124773113064786 0.4461776190002863 -0.010879551518117618
68932000.0 0.8209778642455355 -0.5673164069157871 0.05508342875668435 -0.31965380805098703 0.0011014593101317993 -0.003203607101753425 0.4512800283917519 -0.015729564286070478
69931000.0 0.813456657862226 -0.5749286821003257 0.05644229960108422 -0.34226152194564824 -0.001008897492229668 -0.0020362875903645558 0.45008182484814546 -0.017519270395862072
70930000.0 0.8067800077637282 -0.5821151559457619 0.052200694724373886 -0.3541798340359495 0.0005376098142035699 0.002413920366033851 0.44860163870037795 -0.03565789620232171
71929000.0 0.8047058520241102 -0.5904563180381348 0.04837225060010186 -0.3764666576311519 -0.0009851803910653812 -0.0005307428086571333 0.450750417858448 -0.0454940614129417
72928000.0 0.7975881621312285 -0.60181851737557 0.04314383266046759 -0.3939771386897031 -0.003658580494073672 -0.001116328762016211 0.4658390068499663 -0.06594192708586122
73927000.0 0.793005046125312 -0.60421607411984 0.036126106374649865 -0.4150072301435934 -0.002438125931646179 -0.0032855575454303716 0.4581996859763431 -0.06074041231561232
74926000.0 0.7852652648755221 -0.6154757031304942 0.026825409936093846 -0.4362204521203066 0.003617681878609364 0.0014220154333133756 0.46450091237636404 -0.06592108876236337
75925000.0 0.7812593068540713 -0.6193782970615744 0.017756951822035356 -0.4571293779366514 0.0012621485720919654 -0.003505670977311791 0.46954453987368583 -0.09093504894598461
76924000.0 0.7736874014204738 -0.6284694307508 0.007147997356056112 -0.4803102148781429 0.0016004509251892906 -4.529278270038175e-05 0.4617019655243473 -0.09203342963811809
77923000.0 0.7700824393734642 -0.6334485588440586 -0.007458729650972604 -0.507257108585778 0.0016278881094009747 -0.0008175551093473274 0.45712090186507087 -0.11042381338762147
78922000.0 0.7645836719107786 -0.6457447380756819 -0.024275123501273234 -0.535661291379812 0.004590957462610305 0.0012859981358399207 0.4622275038704926 -0.12149844658123732
79921000.0 0.7532453659728882 -0.6494948802610918 -0.03578950697325504 -0.5607912449531477 -0.004218466420372093 -0.0029440171929513356 0.46135028250590837 -0.12568508887182472
80920000.0 0.7512344866700783 -0.6587825026088231 -0.0518528615865098 -0.5949323354105912 0.001291349139007014 -0.0012040627505183622 0.46169124203585526 -0.1451915724013942
81919000.0 0.745557871431049 -0.665549780371238 -0.0718887602544282 -0.6215819397883768 0.0016665709489583009 0.0010327170501300096 0.46202370289438954 -0.14329124845836486
82918000.0 0.734287333616171 -0.6735732312672869 -0.082480253233849 -0.6536105854011853 -0.0010322989796713502 -0.0011018248021666098 0.47296077586222557 -0.15732217349376298
83917000.0 0.7300167502703554 -0.6802154730360883 -0.10720187841859419 -0.6840009177249143 -8.732821479741891e-05 0.0023078887148377963 0.47184391748863763 -0.16837339024019116
84916000.0 0.722605633071709 -0.6916339501304389 -0.12811659574434034 -0.7218925356698747 0.0025452144149770415 -0.002491755657602301 0.4671196943770243 -0.1846287685034904
85915000.0 0.7165858766106984 -0.6952853304213148 -0.15028280682519587 -0.7540123749208237 -0.0018098418864369906 0.0029070306005438257 0.4729483467073694 -0.1894971531283937
86914000.0 0.7084873382453422 -0.705177929702873 -0.1662694919420557 -0.7915104459508608 0.0025182103773823297 -0.002608337351215127 0.4573971346971921 -0.18042992892477322
87913000.0 0.7016392062108328 -0.7098167139352471 -0.18188768701400373 -0.8232575613953971 -0.003039428376204026 -0.0017472013348282902 0.4528033765549704 -0.19153281134421246
88912000.0 0.6944206373578383 -0.7178119578110507 -0.20335717857088453 -0.8622308713179372 -0.0009230828566500414 0.005009683757610134 0.4672627931387115 -0.22241160417840097
89911000.0 0.6888703483067224 -0.7255495535308218 -0.21753057603451956 -0.9014028310778096 8.463161166131778e-05 -0.0004337853221564417 0.4666646381938237 -0.2307416758616172
90910000.0 0.6801657030934047 -0.7317918647022896 -0.23721010531753067 -0.9355573718058373 -0.0023296828850015946 -0.0035281587188405574 0.4546382538180859 -0.22838104371913556
91909000.0 0.6718418357920014 -0.7369060843456466 -0.2605555691130495 -0.9681759084051693 0.0004977782216655322 -0.0020974554917517325 0.46044500327611143 -0.23984599846372617
92908000.0 0.6638258751199497 -0.7445472508385433 -0.2764505711960862 -1.0029051553787913 0.0009521327955964497 0.0031824827740538817 0.45080643313416835 -0.24526963583951558
93907000.0 0.6591436009552074 -0.7481701856087306 -0.3037160015095141 -1.0387914620514904 -0.00294993522284199 -0.0017793655068130828 0.4543985418081737 -0.26262762789661986
94906000.0 0.6438008435158191 -0.7582949280677799 -0.3264809878177552 -1.0732961751490326 0.0008539554176914653 0.0027759700988835225 0.4592913156557264 -0.26603522319465867
95905000.0 0.6404824064209391 -0.7641173833091635 -0.34909857795286575 -1.1143837787280857 -0.004554227552220978 -0.0025248054737724494 0.45943059478519316 -0.2905342764620444
96904000.0 0.6308622710128782 -0.7728236698707371 -0.373263504087771 -1.1521302220235863 -0.0020737960427223063 -0.0019510101827743753 0.446001946623581 -0.2837752765287638
97903000.0 0.6217124530209622 -0.7773774464689966 -0.3969901900180052 -1.1869571605519167 -0.001995862263124544 0.001144766607276511 0.4485483704572304 -0.30249428057099403
98902000.0 0.6169535537253495 -0.7864021235917806 -0.4204363379400366 -1.2274857567416297 -0.0005715468049955927 -0.000931903779295014 0.43923774424241485 -0.3103692028114822
99901000.0 0.6071215678304999 -0.7899865670377159 -0.45383453467832546 -1.2637990538124753 -0.0006216401869049098 0.0010126256231326705 0.45257683960188044 -0.329763090527084
100900000.0 0.5984515949758697 -0.793427468478901 -0.48423019909365284 -1.295493500495746 -0.0038211651368409423 -0.0037353141331207132 0.45972539953510205 -0.3307016175864443
101899000.0 0.5926914121068525 -0.8010625718736241 -0.512768382833491 -1.3385670281021889 -0.0014921808974223806 0.001424231175430358 0.44310250770325865 -0.3285634834413034
102898000.0 0.5798945371982261 -0.807691760374993 -0.5567960887183804 -1.3776169835222392 -0.0006513770536901915 0.0025127534066378037 0.4419842365155248 -0.34721823451078804
103897000.0 0.5720065245519081 -0.8148852874086311 -0.603994200886652 -1.4154989071830097 -0.00035275991422620913 0.001904386588226014 0.4449639629318251 -0.34791483242599097
104896000.0 0.5649618540314972 -0.8258145204858616 -0.650542544466977 -1.4538508706945947 -0.002686273112978772 0.0016898722114371066 0.4351547489482012 -0.34469006062813584
105895000.0 0.5543738709201169 -0.8273290878254225 -0.7004456962972302 -1.5006686176033963 -0.0010559945904421713 -0.000908294393820567 0.42885123194854746 -0.3668810248366807
106894000.0 0.5447891412009311 -0.83281968515973 -0.7620036821546498 -1.5341085822023015 0.002127312845839036 -0.0024389635712179507 0.4249220411695778 -0.3772701730501361
107893000.0 0.5379137979007975 -0.840899129687943 -0.8107373239613 -1.5791849422382642 0.0005553782600220602 -0.0009660557716275335 0.41312657397721597 -0.3944856159289561
108892000.0 0.5295430541789986 -0.8427760500985882 -0.87685863442174 -1.6205125804016582 -0.001253230745249932 0.0005080193279160748 0.4191392192082177 -0.3860691111336487
109891000.0 0.5150450238339703 -0.8525468604246133 -0.940967009664625 -1.6528343063727875 0.000926705576082693 -0.0007898131730765472 0.4296799060999999 -0.39461282857238095
110890000.0 0.511516833170507 -0.862945852752776 -1.013751549656529 -1.679220197522941 0.002213728532651146 0.0034355692902670737 0.419135715882854 -0.39964873310491994
111889000.0 0.49408084144567543 -0.8577417493799245 -1.0723536535167644 -1.7257311559420974 -0.004544173413963445 -0.0028711133932200947 0.4115485326954246 -0.42190951930981957
