! Created with skrf 1.9.0 (http://scikit-rf.org).
# Hz S RI R 50.0 
!freq ReS11 ImS11 ReS21 ImS21 ReS12 ImS12 ReS22 ImS22
1000000.0 0.9831468790204235 0.007599505366612161 0.004217095686910063 -0.03937717287335829 0.002372939264387994 0.018973399196886828 0.3778283035334813 0.2755145240981164
1999000.0 0.9963740785878648 -0.009173447055154105 0.005910227920708449 -0.01997570771315445 0.00012796420618220762 0.004386590969735513 0.26366237332560394 -0.07744327400949591
2998000.0 0.9989608773456692 -0.018631376740886902 0.011517964897151168 -0.014232550273510138 -0.002628997894960755 -0.01020135044820988 0.19992187063648578 -0.15056284172799161
3997000.0 1.0033913163573362 -0.02802627507718522 0.012584392056118027 -0.008259710875564198 0.005682840390538623 -0.0014654655467334714 0.09322186080343725 -0.23144215167143728
4996000.0 1.0005451033657962 -0.03663678774794841 0.013884380049169257 -0.0030411914192189074 -0.0037214489101265926 0.0036200402769330613 -0.029902898178802303 -0.21183934348781433
5995000.0 1.0012377548028593 -0.04396523835132776 0.005251121081980833 0.001326110195600824 0.006285453346561943 -0.0017588322094768641 -0.1277578727341956 -0.1149207467189153
6994000.0 0.996873439740042 -0.058323183170216515 0.00306245746320765 0.0038526412829439187 0.00010855359638881671 -0.0006378214977962517 -0.15298675598737974 -0.021752443581076798
7993000.0 1.001392011067832 -0.06733120514897215 0.0010694976665681427 0.006424252631567761 0.002235504596416733 -0.0028643709062200133 -0.16432615082838142 0.034883657763027605
8992000.0 1.0010905510043282 -0.06929302887087785 0.0036103452746475088 0.003698864717278858 -0.0019225399613351638 0.00372635041255776 -0.15988080091100765 0.06568232126337144
9991000.0 0.9980805270785226 -0.08129057949515835 -0.001449844234685426 0.004769644895917246 0.0016806961641210518 0.007063058139369148 -0.14072340896496538 0.09412341699130512
10990000.0 0.9963460223573142 -0.09065693084788641 -0.00032615975137736725 -0.00016863296487180064 -0.0002670707512881161 0.004043627656601359 -0.14467754524134568 0.11648503636492703
11989000.0 0.9972203306400724 -0.09718864855580982 0.0033298078777671235 -0.000951563882278013 -0.002022625626423783 -0.00014273349347226991 -0.12422227081317955 0.14547265144698873
12988000.0 0.9921099787600953 -0.1113837969439152 -0.000380256801884 -0.005806572206593573 -0.0009570130422842069 -0.0027529004521380583 -0.10947788427775723 0.1653277753617522
13987000.0 0.9946517305855115 -0.11817824363328137 0.0005493553814369995 -0.0033766510682490146 -0.0028555010646470367 -0.002926167747002834 -0.10515286125770805 0.19063458105579167
14986000.0 0.993518580782089 -0.12513355180263966 -0.003918105055507752 -0.0036282891790077316 0.001190567135462299 -0.0031647895267864334 -0.0958820905299368 0.21094904958567365
15985000.0 0.9935052092332163 -0.13518107006331523 -0.0015353697520011813 -0.007095026640164209 -0.006180009611227865 0.0025818252568156506 -0.0736606514259842 0.21499215194222707
16984000.0 0.9884758009542411 -0.14472151859993523 -0.005157868980023462 -0.00713330984821995 0.002495523140142334 -0.0002853572779344269 -0.059556278659831055 0.21133244635512682
17983000.0 0.9898297279268445 -0.14870037930102595 -0.0007638393353985606 -0.007623142556960802 -0.0006073646982464617 0.0012411406609441917 -0.043129577654626536 0.2239314311576951
18982000.0 0.9865512678872632 -0.16322849227703312 -0.006047943872204625 -0.005148306799245994 -0.001780604329076583 0.002330146487621268 -0.03193034064862515 0.24151157994918745
19981000.0 0.9880101961032821 -0.1643310842322722 -0.0037512260557198422 -0.007998039405609888 -0.004970875655504576 -0.004298420593428701 -0.01295819483970113 0.24886287623658282
20980000.0 0.9860357665301386 -0.1746912357513167 -0.0035476564580699467 -0.005019652850627681 0.0016616681132049687 0.0021480845314972683 0.008183287808777128 0.26388767171781385
21979000.0 0.982817387491323 -0.18323519106528272 -0.0019191512886870688 0.0007014349188305088 0.0015573841297137632 0.00358622109739705 0.013685563744982728 0.24082649021439068
22978000.0 0.9799589884375091 -0.19442150198353547 -0.006917694628965285 -0.006225221470798035 -0.0005768715711767946 -0.0012304385761902203 0.018425090259670707 0.2507283277736542
23977000.0 0.9831659339594946 -0.20137136155758237 -0.0063065459289531065 -0.0013527052217334682 0.002378142465975553 0.0020162045036215236 0.04252741433996069 0.2528178180711307
24976000.0 0.9778954509967905 -0.210662170618703 -0.002186904579309188 -0.0030045507429225598 0.0006878114749687348 0.0002891601978252427 0.061757647224227635 0.25562990037608635
25975000.0 0.9722929980740592 -0.21700708688233591 -0.009289640050752236 0.00034254622009882577 -0.02641559968653018 -0.0028833621585549365 0.0811261910437212 0.2509772656249519
26974000.0 0.9728759841088042 -0.22802797595103488 -0.006234316029063829 -0.0019045306494666393 0.004534563893829072 0.0022686387704484224 0.09114152224970126 0.2695417969745271
27973000.0 0.9734148930805826 -0.23378303937821895 -0.0005946877444968098 0.0009821389599335205 0.002622658738409836 0.000989717275461295 0.10027226181891867 0.25165552691470583
28972000.0 0.968271085863952 -0.24449845060622177 -0.003657997202598828 -0.0022777239896614224 -0.0019597785209631196 0.0020751928222870297 0.10493703780201723 0.25356252292943054
29971000.0 0.96733328608287 -0.2527050000219953 0.0011203048816912564 -0.002413433554100618 -0.0023607969997265638 0.001032431291216057 0.14386397996939793 0.2647293571864758
30970000.0 0.9654624911556782 -0.2585515104993044 0.00025517365336212637 -0.001223038507989763 0.0017177980110156317 0.00407057237717876 0.16951819015932296 0.25362194750870365
31969000.0 0.9626219855058777 -0.2669700532301735 0.003620626541400752 -0.005008184913848972 -0.0023397682691777572 0.0006566690527487357 0.14526242645748336 0.2507652513879948
32968000.0 0.9612053805178328 -0.27618733937776435 0.008766406237705717 -0.007592303382183452 0.0021122386612704744 0.0006416635365542546 0.15400102928906256 0.24980360917310482
33967000.0 0.9598961659929748 -0.2853365606612432 0.011447532658082127 -0.012605471424827522 0.0025576496205355933 0.0035928990987048517 0.1825963939842771 0.24635519895658514
34966000.0 0.9562052079357919 -0.29542908949097907 0.01360458661681731 -0.01367771838668699 0.0034317246988240483 0.0005887825148134015 0.20286118209628123 0.2453712145189395
35965000.0 0.9535182865345407 -0.30219030630090277 0.018340163859611836 -0.016946855284169622 -0.0020769843600991437 -4.546049620539282e-05 0.21091010980970543 0.24974093679262516
36964000.0 0.951384116873956 -0.31112335435316146 0.015827057201469496 -0.011221444720775152 -0.0031385925988516444 -2.5748923626459808e-05 0.2123392414722633 0.2601978669474134
37963000.0 0.947682584609252 -0.319521195261485 0.024121129880280878 -0.022210410277809397 -0.0012500112589897668 0.0008159749808044477 0.227425936634905 0.24685880172830815
38962000.0 0.9461693588275635 -0.3283806413688808 0.02602849676641359 -0.026312294112273777 -0.00247209997272765 0.0019482607406966733 0.2374710605599498 0.23162373624810703
39961000.0 0.9410947239944573 -0.33665237922788577 0.026654210483779524 -0.028872152982699052 -0.0003946616885556462 0.0014094832301955232 0.25126671094134656 0.2278717794127166
40960000.0 0.9389727561319444 -0.34396184040090844 0.023284700664209266 -0.024333111206300207 -0.0010918416443718103 -0.002875375072128063 0.2650790349744636 0.23464614970420267
41959000.0 0.9354905363447663 -0.35422515345240724 0.026959549230006943 -0.03457841355404889 -0.0011491452149970341 -0.0010429556810571676 0.26808100734437945 0.2214898606239635
42958000.0 0.9313364895460955 -0.36204926088165884 0.033716409761756216 -0.04398058951113946 -0.003130860814841223 0.0023254840558670263 0.28083868474892193 0.2050823410596233
43957000.0 0.9301828775151941 -0.3675671915630573 0.032993891012154934 -0.04842956371038296 -0.0007488134527001174 0.003103091208324423 0.2927343962898055 0.2091322448735324
44956000.0 0.9264718042964393 -0.3763851372061608 0.034133137670530014 -0.05431742222882678 -0.003430258538399881 -0.0017330614371783575 0.3017548620846401 0.19403808000822878
45955000.0 0.9206063656347464 -0.3872422114243017 0.03504084929966499 -0.060956273884549134 -0.0005373805147147198 0.0006400164216220883 0.30572150948382637 0.1867576448741273
46954000.0 0.9195849243751376 -0.39488489085678186 0.03913165501334564 -0.06557334100468346 0.0028931320617525693 -0.002242326574711928 0.3333896717991249 0.17480992443986637
47953000.0 0.9159591767483759 -0.4009682675966235 0.0392820850239883 -0.07526022910480777 0.0025797966875837006 0.002875578582186925 0.3355124580831947 0.17827566169270712
48952000.0 0.9102783903033762 -0.41153418785162205 0.038740936951052136 -0.08267497270259362 0.0017612967612978907 -0.0014080233468382404 0.33450576541499516 0.1614429719905088
49951000.0 0.9067441274963883 -0.41926590981358536 0.03891537088220962 -0.08824466641979034 0.0037900929755094537 0.002613138800809076 0.35769776307534806 0.16124502615861427
50950000.0 0.9050156845434535 -0.42544466746492904 0.04343790500298132 -0.09801250177911985 -0.001062038134524842 0.0031748130354984677 0.3476506063843961 0.1487915893139182
51949000.0 0.9006962797140045 -0.4350241942413681 0.04202076804788018 -0.10543790894012578 -0.0010112295149198509 -0.001495238665716936 0.3653991816405663 0.1416243269936504
52948000.0 0.8989067520425669 -0.4416269568915413 0.04314789551514452 -0.11722113709896424 2.6604499194027225e-05 3.2896836235951393e-05 0.3702502180434448 0.14538990042221503
53947000.0 0.8912751213627104 -0.4519351050636429 0.04485902633104005 -0.12444731871326538 -0.00013759138076454972 -0.0001465848740467607 0.3767430345940917 0.13198397290896738
54946000.0 0.8869698746956034 -0.4597479187037887 0.046056412323283794 -0.13532985548916274 -0.0014902169739608737 0.0006569983335290105 0.3886006787012403 0.11922919388277092
55945000.0 0.8844566012837434 -0.4678619583708527 0.04618505227391595 -0.14551974694503025 0.0008487812122169883 -0.0004923245425371965 0.3935626048967311 0.111870678564088
56944000.0 0.8798082390587905 -0.47604198028878736 0.04773878838528962 -0.15586138824501897 0.0007404918067960424 0.0014005736332702873 0.3943815033612767 0.10987078062733208
57943000.0 0.8777214089709596 -0.48513860815959936 0.049625808558181925 -0.166088021121924 -0.002410642391010753 -0.0002267994218311824 0.4057117690930344 0.09881639471307545
58942000.0 0.8710499852406683 -0.4898005934186189 0.05092309623022469 -0.17948350038100236 -0.0024375900671075043 -0.001109406373635843 0.4238726001454508 0.09406255636593545
59941000.0 0.866893392665453 -0.49827224097473133 0.055314554628759005 -0.19127034082186406 -0.002526413256869632 0.0015031597231210591 0.42805904116743343 0.08702448083417402
60940000.0 0.8595064692502729 -0.5066547029673459 0.054374222421641485 -0.19346410700923794 0.00021665611985386 -0.0013964163015486714 0.4121255635431489 0.08124963418681924
61939000.0 0.8579057407673969 -0.5136335456367156 0.055219337894111736 -0.20359869478654796 0.00010160049846367141 -0.0003619726953715895 0.41780642162328985 0.07648063425856105
62938000.0 0.8499132103018625 -0.524585624945425 0.055327924572442296 -0.22095388219976161 0.0027153108416727518 -0.0012490725768723014 0.44559196789565475 0.053235824153644695
63937000.0 0.8469369703076193 -0.5308815289385672 0.059729527025187766 -0.24360184207823093 0.002165693826640338 0.0030977260033372756 0.4386940619820988 0.03877198592652252
64936000.0 0.841039000296121 -0.5366843901036263 0.05601093832256725 -0.2554110700644464 0.0022728368415881896 -0.000528805879425922 0.4357750137631383 0.05358756214968731
65935000.0 0.8365235122214429 -0.5500775735345893 0.055951378887981996 -0.2697421767580544 -0.0005850172908107275 0.001725150783211855 0.4422117375261066 0.0185406280607271
66934000.0 0.8334729749594403 -0.5513999643500717 0.06039119351295849 -0.2833369970867207 -7.589787216014064e-05 -0.00034187225988576927 0.43712010422089065 0.008482829882043763
67933000.0 0.8292701354326569 -0.5611729619863227 0.05811448339974605 -0.29854340029595466 -0.0007440875336127095 -0.0013465412705324538 0.44411904216606674 0.005156264258686964
68932000.0 0.8125419828112889 -0.5573325913412018 0.05449499018505931 -0.3087986700372433 -0.0007276619780017207 -0.0011209212571093577 0.4569938908626422 -0.0032770232641042693
69931000.0 0.8141387571958723 -0.578199855054946 0.05266414758642209 -0.32946218647055014 -0.0009079123977231015 -0.002029489473897485 0.45666117003114626 -0.02264689181840531
70930000.0 0.8112692262738394 -0.5825456709495369 0.050571219934852765 -0.344797189498277 0.0015957540304662274 0.0003394533618036356 0.44622930749220324 -0.031184067005903905
71929000.0 0.8054148957228692 -0.5943682210319793 0.044665804587801596 -0.36567670691217713 0.00039620040871007987 0.0006532740469833206 0.4465615799339486 -0.04281201880845612
72928000.0 0.8009690564702917 -0.6013575808635746 0.041451024783271194 -0.38230786267356137 -0.0016255316141436389 -0.00017443734680184147 0.46354508218460777 -0.052306992682291116
73927000.0 0.7939350894605438 -0.6087605234148141 0.030918986342634885 -0.4047675324981993 -0.0020094940047934683 0.0034674492065492626 0.4747904138918774 -0.06194739123950064
74926000.0 0.7903105570440608 -0.6170268391445433 0.03142365292671874 -0.42131385833958884 0.0004358760888029602 0.0010753420253290737 0.47170666992536375 -0.061575488877993745
75925000.0 0.7839687641705589 -0.6220807156172634 0.019553544510514335 -0.43956924429912453 -0.0009306756630810884 0.0015162574271124203 0.4760189235782557 -0.06926894702418057
76924000.0 0.7755222164042098 -0.6300546080202112 0.004602463395194094 -0.464786148011046 -0.0010122352518776756 0.0020356987103904 0.4605459184992975 -0.09073228388307236
77923000.0 0.7716222150529027 -0.6372206726887099 -0.006880167537383874 -0.4888889759161047 0.0003666366350378366 0.0026304106044859484 0.47221730252861416 -0.0927981679808351
78922000.0 0.7661602080530546 -0.6472020502564095 -0.02241243157601656 -0.5186636327930659 4.1507034191154696e-05 -0.00019723029583635043 0.46392059126747753 -0.0991183898327353
79921000.0 0.7564855836020524 -0.6501808909867024 -0.03876685382388115 -0.5471351604212964 -0.0018748964041256325 0.002460512187776515 0.4634204802405406 -0.10840264707850389
80920000.0 0.75277249822041 -0.6605286470676369 -0.057145381753703296 -0.5732957424724725 0.0003664591248975699 0.0017816216855593412 0.4728724159095349 -0.1316887409647456
81919000.0 0.7460229419108426 -0.6666810873361351 -0.0732567326436436 -0.6023514862954833 0.004496738992187183 -0.0015539472840940887 0.4773455167096326 -0.13790880371540404
82918000.0 0.7372315983258949 -0.6747472254406435 -0.08900690727519127 -0.6353143052594562 -0.004068883064203649 -0.0009448996107850421 0.48043926875665216 -0.15100095398895136
83917000.0 0.7301078943375788 -0.6818651777851298 -0.1146968158899984 -0.6602336205016341 0.0008123274469456936 -0.002850030413954155 0.482566235033775 -0.1485642728832456
84916000.0 0.7246467545129898 -0.688893151841264 -0.12123685840272623 -0.6985811781995256 -0.002722239178033026 0.0023428958491751354 0.47376123322966407 -0.16367917159402992
85915000.0 0.7174810952782175 -0.6955425142803059 -0.14125164997494558 -0.7342931321375378 -0.000924399079358112 -0.0017064077349162115 0.47305632720523716 -0.16662880141227562
86914000.0 0.7105210930917852 -0.7075849906128977 -0.16259374086855935 -0.7679757822811653 -0.0011404273814196798 -0.001906439076343184 0.4733731139201386 -0.18860081632260114
87913000.0 0.703254448670796 -0.7126176403526191 -0.18271647571516897 -0.7976509498021225 -0.00038216046268582475 0.0006807529488623287 0.4662506406366777 -0.18251128050311757
88912000.0 0.6953283973965881 -0.7183026305248313 -0.20321237601137318 -0.8365485304546367 -0.0023263824097539626 -0.0023585206424552117 0.473374171170995 -0.2087417572316893
89911000.0 0.6898169390716635 -0.7273363190229132 -0.21344315977177203 -0.8748037713708382 0.001181853861300599 -0.0004543251440464908 0.47612337726562454 -0.21085213642070533
90910000.0 0.6820638790778231 -0.7318109679003948 -0.23362367571212397 -0.9098560211081511 0.00282243490089105 0.001982324897294116 0.46443900558576856 -0.21570617493132294
91909000.0 0.6728139379704157 -0.7383002770707469 -0.25649200796923327 -0.9444068707336425 0.0010678271733320088 0.0007580160166399995 0.4657693620891988 -0.22949385123575936
92908000.0 0.6650239019416385 -0.7457261625122978 -0.27572522982230446 -0.9754220377628534 -0.0007586510252189821 -0.0019960956411412723 0.4558996046552401 -0.23380591528914693
93907000.0 0.6579753057372602 -0.7520149211371799 -0.2960640181080832 -1.0113725186906635 0.0033524515451405948 -0.0019737799850754485 0.46451979073677707 -0.2585251132866222
94906000.0 0.6481749183359398 -0.760383270824127 -0.31255702491887405 -1.045770383640148 -0.003288208504832655 -0.005633059290043573 0.4605176135791697 -0.25466408475548036
95905000.0 0.6409672028513919 -0.766948248445658 -0.3400392251458755 -1.082311082759108 -0.0008401827030555552 -0.0029060541359180255 0.46489134997601 -0.2681362698153366
96904000.0 0.6346194744642035 -0.7753492682602972 -0.35527322030718145 -1.1229313914734795 -0.001600482079603371 -0.0033156750081496933 0.45310371508346264 -0.28608622973950404
97903000.0 0.6233513494950244 -0.7831378766914112 -0.386573522666764 -1.1585759540008627 0.0006889752632980393 0.0007023658764870325 0.44563102291909606 -0.28817731094255156
98902000.0 0.6187478199302425 -0.7862464772427106 -0.4005423575804877 -1.1950136301335081 0.0006537324583619548 0.00020330813958136307 0.444629584966044 -0.2943311279391351
99901000.0 0.6092081531681727 -0.7931846768902084 -0.43113376201137454 -1.2266564326162885 -0.00021572816573819868 -0.0011656939963936644 0.4608667062732394 -0.3052293859032183
100900000.0 0.5989064043243438 -0.7961063005857231 -0.467066159216518 -1.2565613936416837 -0.0015814407348499003 -0.002079022462542771 0.4603024906458919 -0.3129317075740146
101899000.0 0.5903787212035179 -0.8074141555175379 -0.5001331694330364 -1.30075893528696 0.0017166521576492718 0.0024811886759853836 0.46360753310789254 -0.31188457265086755
102898000.0 0.5830457397607611 -0.8112885338471305 -0.5308368103260739 -1.340157121131265 0.0015688528574516296 0.00018795532368384016 0.44958761067047265 -0.3372148741523949
103897000.0 0.5721782656166724 -0.8199057744374635 -0.5761047327465201 -1.3782372034261958 0.002148843902906421 -0.0029723761584028864 0.46110046943379007 -0.3318439201024157
104896000.0 0.5648041639206126 -0.8264521495543089 -0.6200432015954133 -1.4123471032944803 0.002035885255274765 -5.539974493447619e-05 0.4555931365940808 -0.3381629277631823
105895000.0 0.5551356268138579 -0.8315405647585601 -0.6727395095016857 -1.460891143396876 -0.000227674783148896 -0.00038471152522130556 0.449286324593778 -0.3626707680059345
106894000.0 0.5468880658983609 -0.8372068933966981 -0.7298019804323911 -1.4965911191858514 -0.0006444934737555468 0.002019519466857279 0.43644189201536665 -0.3712196179110784
107893000.0 0.5392190590945161 -0.8415931831557483 -0.7813331543625944 -1.5374435178470132 -7.069200281114988e-05 -0.0024124891679828423 0.4410533079275138 -0.37982404575829276
108892000.0 0.5270826837990767 -0.8465975579938572 -0.8438280865282047 -1.56816800484838 0.0004870212778016639 -0.00011657248188759853 0.4293531391300213 -0.3839510719859974
109891000.0 0.5158832517254496 -0.8533118068292367 -0.9006698264863969 -1.6015631143844953 -0.0003156087060221979 0.001914473542211277 0.44601968710582074 -0.3794314402076161
110890000.0 0.5087702985262095 -0.8702426672253848 -0.9821807435187019 -1.6301120943238996 -0.0002411353591281648 0.00018047158612682215 0.4352385059423487 -0.3875062271732831
111889000.0 0.4964574370398277 -0.8606586719674911 -1.0375319563131522 -1.6739058802181812 -0.000988370610817399 0.001120570111468462 0.413425728997418 -0.40174684669322974
