! Created with skrf 1.9.0 (http://scikit-rf.org).
# Hz S RI R 50.0 
!freq ReS11 ImS11 ReS21 ImS21 ReS12 ImS12 ReS22 ImS22
1000000.0 0.9962659668573345 0.01144064746334632 0.00348024698872918 -0.04311394423500988 -0.01474410900580769 0.0006982701316572342 0.2936956991123764 0.33745659330333505
1999000.0 0.9968131325882649 -0.010093633231415034 0.009490703992430368 -0.023745944076487384 -0.0034448777946384716 -0.004567135060407868 0.26444477900192964 -0.05808098907448619
2998000.0 0.9994536964582672 -0.01761687274365126 0.01459409791636607 -0.014310197974085458 -0.004926931693929273 -0.002601234331688559 0.188491861210579 -0.11734634524505576
3997000.0 0.9964126386621256 -0.03058472231981741 0.01273586466368561 0.0037304026694693748 -0.0009562253401804728 -0.0030310369880212186 0.07327660479891054 -0.2328767355091407
4996000.0 0.9992868110355592 -0.036390520805188425 0.011627452858149218 0.0021222237788738356 0.0011328071231825267 -0.0040545576235351405 -0.06512642971808232 -0.18972253434248576
5995000.0 0.9973723472865919 -0.047238129063754034 0.009229165375587017 0.0037538956398740957 -0.0011795272106625686 0.0004880617203096146 -0.1257197065618622 -0.08545757843023202
6994000.0 0.9946027839028831 -0.0562170312492107 0.006160014327245167 0.007721806420477936 -0.0019494234961826833 0.0021771621086705707 -0.14247439538165982 -0.01242572879916794
7993000.0 0.9948387088761219 -0.06611979472662205 0.0026456724065772354 0.005138692655372163 -0.0036881996041227263 -0.0025448230567072763 -0.1418896731845379 0.05229068980789052
8992000.0 0.9947478386556374 -0.07503679288521081 0.003807447276105701 0.00609267442318029 1.8361720158211855e-05 0.0003334026680510993 -0.1429202504553748 0.0667925704028745
9991000.0 0.9918471071652093 -0.08227614650490066 -0.00305595704774314 0.005674340281332186 -0.001974950818359122 -0.0004046838920226912 -0.13471540699584791 0.10546997676089175
10990000.0 0.9914045230665812 -0.09275386303612702 0.00030677185748413736 -0.00023978263895814506 -0.002394172226427044 -0.002909050047112523 -0.13183912043073506 0.11813779554846168
11989000.0 0.9896897764845356 -0.1024454080717629 0.004659643753897375 0.0027721599614317317 -0.0003687117503045756 -0.001059019931497201 -0.11169885325854174 0.1355295705472675
12988000.0 0.9900217287914465 -0.10682236201187302 0.004457669881641816 -0.0006132304842980681 -0.00033929537088411604 0.0005947122664226879 -0.11446384626107894 0.17325412971736082
13987000.0 0.9895052681272526 -0.11710458886574035 0.0012789478334252848 -0.00015576180352631436 0.0008262485871436612 -0.0025286251076013827 -0.07863302180405723 0.18784346592299306
14986000.0 0.9869887921230799 -0.1269949382787514 0.0010591154507600044 -0.0030429292765461096 0.002159530054405036 0.0017737564309175551 -0.08405781214650156 0.20448880448189202
15985000.0 0.9878861622704783 -0.13556950890043962 -0.0005278410103007002 -0.005091500753903581 0.0002954241961794925 -0.0019199958254539776 -0.06042942148920034 0.21426578386427117
16984000.0 0.987580980886598 -0.14447408471094422 -0.001247502238921252 -0.003579689523001466 0.001601827386702612 0.0005151608456525792 -0.050957197447453764 0.21330894675327428
17983000.0 0.9853651794639947 -0.15143889077079722 -0.0033450760286078116 -0.003176780159679513 -0.004030646841164023 -0.000831553440482621 -0.03928910157414608 0.21746990795460971
18982000.0 0.9820373422262348 -0.16368011796865514 -0.0035311912656294958 -0.007137000442660905 6.844402573134503e-05 0.0033527386619176995 -0.020679369423149564 0.2410629838304938
19981000.0 0.9833843142618418 -0.16794812478193075 -0.006407217227552481 -0.006139527182524294 0.0008545234300346873 -8.954038612130714e-05 0.0029448257599025167 0.24181163410379228
20980000.0 0.9836211534147093 -0.17529599460089487 -0.006182614956080062 -0.003246699106624316 0.00011647823993879724 -0.0007062735091819598 0.015582957212512476 0.25965531722202995
21979000.0 0.9794735252212432 -0.18596559539514484 -0.004395760780295692 -0.0027216391869816633 0.0036395853289251114 -0.0026712714400586647 0.027399901215372124 0.25071608013326124
22978000.0 0.9780823634871342 -0.19295461207346498 -0.007952221094903063 -0.005919529514435985 0.0006838395508396396 0.0002253146412229796 0.03000512344364825 0.26226761032901386
23977000.0 0.9773447459099779 -0.2036067215078145 -0.006325814406473563 -0.002032422722135216 -0.0008761519010692436 -0.0005289675679120133 0.03913625755967316 0.2556945586755082
24976000.0 0.9745561204539127 -0.21007045904367105 -0.007675098787902843 0.0003372797357406954 0.004285510996505148 -0.004468384630281222 0.061390384317539605 0.2553880066557253
25975000.0 0.9694947782932846 -0.21678484733037742 -0.007909403449072233 0.0032272259270005057 -0.027067424684909813 0.0060092978328283 0.0799372089884356 0.2553015558929267
26974000.0 0.970333672771843 -0.2286115479084683 -0.003676233463748126 -0.000668500235532837 -0.001122630343537776 0.0008338898784445434 0.09256094977870281 0.2662292385312974
27973000.0 0.9677510487223038 -0.23709299753869 -0.004747798402430094 0.0009590131002140964 -0.00024311860587361938 0.0027505062447669647 0.10399696097646312 0.2588858043320646
28972000.0 0.9644589452922885 -0.24586612038604774 0.0024771756563309985 -0.0005242330437411288 0.0011102268674997745 -0.0018120317729227705 0.1203301553672817 0.26227544652575824
29971000.0 0.96515734713668 -0.2549970026511804 -0.0007692004774335149 -0.0014174497505435783 0.00035112723485364615 0.00042616037320477424 0.15334866486319576 0.2671811653048831
30970000.0 0.9618103348774749 -0.2586787191341406 0.0016655750491058785 -0.0028005927158899686 0.0003683472876508738 0.003023886433049569 0.1713736573582201 0.25158391203665503
31969000.0 0.9586739956371106 -0.26919723479667695 0.005147688014329586 -0.0013116527528380074 -0.0022534002396940324 0.0009022378826400917 0.16552517862731705 0.24770853577015625
32968000.0 0.9589102334808843 -0.2807600205435879 0.006371096658209966 -0.008578579570403588 0.0029176886903793525 -0.0003117071107007624 0.15972019571489382 0.25215661800316885
33967000.0 0.9554115270054598 -0.2885784936097896 0.010374744959984087 -0.008810602416281463 0.0017996826961977283 0.001249104946514293 0.18724755307731172 0.2405572465912414
34966000.0 0.9518401069273325 -0.2976885292794543 0.014215561659728336 -0.010872349229051727 -0.00255111469105565 -0.0014543620312975844 0.2001037595537336 0.25084837055373027
35965000.0 0.9495222682816226 -0.30386067672919176 0.018191098611827498 -0.014914805441063168 -0.0020430041170608287 0.0019245421848513747 0.22253378732826717 0.24982079006227156
36964000.0 0.9489722907476904 -0.31296837898273533 0.017815988312496246 -0.01530995350152956 0.002872488436367708 0.0017938375459705936 0.21935891600337082 0.25159931400905305
37963000.0 0.9430199285849865 -0.32245401348652303 0.023321932968991647 -0.022788005895423596 0.001075487428988022 -0.0008595335280864467 0.22546792530434712 0.23965335389256157
38962000.0 0.9415016461598866 -0.33219816727854395 0.0217760165802149 -0.022261211582890225 -0.0012396857234715012 -0.0013545909900855465 0.24084016440567618 0.23140217702097546
39961000.0 0.9387365868017297 -0.3372972108539273 0.02675996679719848 -0.026559967330229056 0.0010830698981922281 -0.0022052288028181735 0.25620684198302857 0.22729441745472642
40960000.0 0.9348778217886603 -0.34539009585784275 0.022560665482102883 -0.02302384598399345 -0.0023444281559675704 0.0028042745507539904 0.2748263655757241 0.22619847418901487
41959000.0 0.9305631829119244 -0.3573883043775054 0.028212524943841053 -0.030022126023204056 0.0001259479480612013 -0.004345674774215207 0.26717038695139356 0.2141118048152475
42958000.0 0.9272576000732292 -0.36415425983425687 0.03371243678093095 -0.03920511380613165 0.00039310756233939116 0.004537348973532407 0.2888034141163703 0.19835302500019586
43957000.0 0.9271256773763155 -0.3690748256133276 0.0358639754048288 -0.046163926263716286 -0.0023771686603029285 -0.0007374025812096004 0.28753669742584564 0.20145632193216892
44956000.0 0.9223272162141092 -0.37670314789729575 0.03691810956801619 -0.05160372730979761 0.0019416240333533163 0.0016750662023946397 0.3110685554835365 0.2003585840172214
45955000.0 0.9174139296576564 -0.38905017825223615 0.03669514105734405 -0.05632218608205494 -0.0013305750477672687 -0.002968572118234477 0.31651382285862034 0.18623710798716214
46954000.0 0.9146148981815048 -0.39834160722354334 0.03601235818724704 -0.06276899721210641 -0.0010209795097710767 0.001564828085207002 0.3283856378854934 0.1848420891559538
47953000.0 0.9113962440559256 -0.4050257119316646 0.038262634127204896 -0.07408685458850076 0.0009572312846329109 0.0013419915449137626 0.34218460576329074 0.1653629685256687
48952000.0 0.9056143451923925 -0.41420825204569983 0.04021812758075149 -0.08144648972318203 0.0008172119597402082 -0.0008550874110186444 0.3373240322323855 0.15820480073463175
49951000.0 0.9029104871897622 -0.4234668270912685 0.040894801449988756 -0.08489480353382059 -3.403853758394137e-05 0.003826208293670791 0.3580941538916805 0.15354940815777005
50950000.0 0.8982101085258403 -0.4314837614001229 0.04141151218580792 -0.09482598501689651 -0.0050269320554844725 0.000628116206228317 0.36356959585960696 0.1425236176725881
51949000.0 0.8961104728214165 -0.4388778388114137 0.0438701444697993 -0.10211214661776992 0.0002265566394365092 0.0017071628981114354 0.37144678923870617 0.14837284390769157
52948000.0 0.8921420424804594 -0.4480073440835477 0.04621992335128543 -0.11263606142266916 -0.00031118477211649655 0.0018334468040297227 0.3831787907357997 0.14087345901641737
53947000.0 0.8862076658171247 -0.4536009962367403 0.043831433589947455 -0.11840859285313725 -0.0015918506267046907 -0.0004759479357754205 0.3683954249602749 0.132861865101836
54946000.0 0.8811242649658961 -0.46508542592765617 0.048257431161239546 -0.13382227026454985 -0.0024757095854284687 0.0038659167576161804 0.3870258484758075 0.11694454489723445
55945000.0 0.8789031406442578 -0.4705462478127521 0.051453354503946655 -0.13882762540392019 0.0010625095909780227 -0.0012180972887892473 0.3851676667309512 0.10726234522270571
56944000.0 0.8755567632300992 -0.4803658994163011 0.054008465298676596 -0.14979701383502825 -0.0033101779450556094 -0.002611623569251018 0.40426351705671426 0.09746629542757687
57943000.0 0.868843579741388 -0.49240810786498057 0.055804321391431676 -0.16054824996268818 0.001001864195579277 0.0009812510427817582 0.4054458359838302 0.10751401319169082
58942000.0 0.863117452153202 -0.4966700843080494 0.05404596356825347 -0.17458333900000025 0.0008046371927401768 -5.9152781373385474e-05 0.4224218038845236 0.09723079046014715
59941000.0 0.8617731767048143 -0.5025828166910333 0.058104044589359416 -0.1818661513057549 -8.39072210345429e-05 -0.003841513055849513 0.41902982429248453 0.08942509181236283
60940000.0 0.8538977326918167 -0.5102193062642522 0.05849975131433905 -0.18730288220879168 -0.0007369518399545112 -0.0020676079721863765 0.4189500415015944 0.07157881137614926
61939000.0 0.8505709529604714 -0.5179322398653279 0.05711766918915642 -0.19858546352512335 0.00041271792811522584 0.0003406591025252008 0.4168230971144398 0.055040269660370324
62938000.0 0.8442538173823013 -0.5284533512472145 0.06031844313737422 -0.21380760972220647 0.0014438706492137425 0.002169105915541951 0.441859490163807 0.05012275432645902
63937000.0 0.837831214657542 -0.5371238377231716 0.06180028081457677 -0.23538796794043967 0.0013715335622980704 -0.00522602623475906 0.44235595179875664 0.0433378665892328
64936000.0 0.8339693917518718 -0.5407263005162714 0.06394197956641073 -0.2510896276778846 0.0005073525201259924 0.0017271793987301389 0.4406476225654084 0.03824152395516405
65935000.0 0.8297798790462969 -0.5519281390886979 0.06082790545354876 -0.2624383341932808 0.001524955821204032 0.0007855456967815027 0.4418412005580859 0.020962541048541523
66934000.0 0.8245187353203346 -0.5587186357324732 0.059870083589030794 -0.2766718565190223 -0.0010581909412410292 -0.00040763922830908296 0.43790679355597695 0.011744394859377633
67933000.0 0.8233292680174494 -0.5656067756585408 0.06571547656114003 -0.2935378499147806 -0.0007686596948074405 0.0005892492477004382 0.4462310600674126 0.0033209899357288367
68932000.0 0.8146446467294411 -0.5616888959237702 0.06226061717304352 -0.3032317034264751 0.0006942737892999417 0.0001657992068892372 0.4513648800408635 -0.003917892450910703
69931000.0 0.8062850561987387 -0.582482832986172 0.057572967109415875 -0.3239765594543193 0.001618710895492696 -0.0008424217073261075 0.454031431955094 -0.018064157856009858
70930000.0 0.8005963630909019 -0.5898211269390247 0.05636580306993412 -0.3397125276202975 -0.0005923891502654532 0.0007604359070505379 0.4453192935854539 -0.03251502532310692
71929000.0 0.798120205766288 -0.5981347290306577 0.05162320777556064 -0.3582468781983331 -0.0005216827693730581 0.0034306862223234956 0.46088623913401633 -0.04015704732549836
72928000.0 0.7893844410424633 -0.607902092078221 0.04404226156025921 -0.3747827208977859 7.324048480843057e-05 0.004353228750374259 0.46372355060966786 -0.05124379009599942
73927000.0 0.7854447456621241 -0.6122979214351143 0.036943003668694165 -0.40182437211391653 -0.00030713828622971293 -0.0004525169529961004 0.46295630100639834 -0.06061037137184601
74926000.0 0.7794406509203522 -0.6221543443052194 0.031082865102327877 -0.417427758936504 -0.0011760288083463328 0.0014520918455936268 0.47154873898638816 -0.05695387368904034
75925000.0 0.7715864516308881 -0.6280244212963816 0.02118304858909922 -0.4394520092156616 -0.0015102660584730345 0.0035166445802105625 0.470502248783023 -0.08086893402363071
76924000.0 0.7675467261216995 -0.6350211880353763 0.009651324905294762 -0.4651465038674723 0.0006998982125041611 -0.0036692043845686054 0.4665406605648243 -0.08458814879601854
77923000.0 0.7606822458344998 -0.6449625520246749 -0.001215894415189735 -0.48724756337736685 -0.0032501566627511232 0.0004721868908424753 0.4625268898642168 -0.10076451645561886
78922000.0 0.7575601020989916 -0.652024455860948 -0.01586986508906647 -0.5184251882189607 0.0018928051178759956 0.0013801838378427853 0.4619462292717947 -0.10974834994008117
79921000.0 0.745159504044157 -0.6558740263790495 -0.03396068427041346 -0.5439014532176258 -0.005597261462198878 -3.335875817940015e-05 0.46238647251486004 -0.11485105354442586
80920000.0 0.7438906703999375 -0.6678338814270595 -0.048845130649102425 -0.5738575654087625 -0.0015568110067467915 0.002191941435388282 0.46782662603513214 -0.12917177288240878
81919000.0 0.7361731704681137 -0.6724891320571104 -0.06253825884648122 -0.6029352406058635 -0.0033237710319069416 0.003216667390632153 0.46594216832178226 -0.13098124013993745
82918000.0 0.727127115842433 -0.6799746024482569 -0.07552445527004044 -0.6324520777056263 -0.001978096865563079 0.0010779122890799244 0.4760971483784874 -0.14240869987073312
83917000.0 0.7199142929960677 -0.6874301266055861 -0.09840713989938872 -0.6626249558217847 -0.0011142278356044094 -0.0025809926154997647 0.47387148306423066 -0.15616633624282347
84916000.0 0.7136679936415719 -0.6951398378575444 -0.11044479476580951 -0.7002098310207722 0.0013597409894322342 -0.0017868464388575334 0.4723220745708645 -0.1741458822771147
85915000.0 0.7076878398230789 -0.7018044970528076 -0.12909549680696378 -0.7282345025238527 -0.00044141442986044504 -0.0027127834730512456 0.4695992238027649 -0.1706616700517158
86914000.0 0.6995229396760148 -0.7129012966519466 -0.14221514780148617 -0.7686758546128539 -0.0031637053827429694 9.039669690957769e-05 0.472650522859233 -0.17298703269867866
87913000.0 0.6928034293583101 -0.718042710142903 -0.16746285552715232 -0.7965812963556778 -0.000568088684853663 -0.000242450866509558 0.47223481685140273 -0.18508043316169884
88912000.0 0.6863616996820606 -0.7243324958267113 -0.18019358014560932 -0.8338643459480133 0.0008868046650157231 -0.0012008999910993218 0.4602514150441702 -0.2090211834236878
89911000.0 0.6782699777029254 -0.7323092744386577 -0.1962251180669918 -0.8695718891618998 -0.004291572370047639 0.002591591618454515 0.47584604402288605 -0.21193336150962538
90910000.0 0.6712977078080051 -0.7379842642067094 -0.21081581990489462 -0.9052596184227081 0.001484949027738357 -0.002569513106022016 0.4746717055839771 -0.2096772449074962
91909000.0 0.6620451478570905 -0.7441517138291648 -0.23585546596276963 -0.9377528390084909 -0.0010286380273696316 -0.0021140968979564572 0.4783543832776182 -0.21950454334953867
92908000.0 0.6544992541334008 -0.7507772557582056 -0.2514978958533624 -0.973492779828557 0.0020108270246304073 -0.000200881526975541 0.4520191936859884 -0.22641995155787145
93907000.0 0.6512182653393688 -0.7562459658407332 -0.2720359681551078 -1.0046993043408128 0.00077053708196713 0.004306060424124768 0.48024630301177085 -0.24915543323099815
94906000.0 0.6360048707179297 -0.7652313176962044 -0.2903868199720579 -1.0426742042510286 0.0010339326774690405 0.0025552248493942178 0.46885480534892543 -0.24585497485758004
95905000.0 0.6281483964583904 -0.7713426505300695 -0.31174214071362827 -1.0826145849559226 -0.0007071164954829785 0.0006931586506737622 0.4649657647141797 -0.2651559921343624
96904000.0 0.6201632602484864 -0.7814820595272601 -0.336734086802843 -1.1193376999038562 0.003051899196837908 0.002508947395490813 0.46441774656588947 -0.2856365907856717
97903000.0 0.6104150413649567 -0.785099769902156 -0.3557045319629069 -1.1525931294182041 -0.0006741524935698171 0.0024004727837718966 0.45249481629262706 -0.2789445649592435
98902000.0 0.6081796317345027 -0.7938260021335184 -0.3859454191245205 -1.192970520113887 0.0004768274809371593 -0.005246056727281847 0.4467392570909566 -0.29676953541733386
99901000.0 0.5948279361831257 -0.797922190104476 -0.41135504685055374 -1.2292504892460197 -0.00100471661059349 -0.0013711574961679384 0.4626263996347455 -0.30573546817304786
100900000.0 0.5866861984585249 -0.8013862239265687 -0.44679794960181307 -1.2537168042391456 0.0010336687840100745 -0.002562485719438673 0.44967389981114186 -0.3091486019208871
101899000.0 0.579052003886024 -0.8102414542619872 -0.4751641912152148 -1.301717978485275 0.0005947582408865987 -4.775886186330937e-05 0.4540335870133596 -0.32110230381730676
102898000.0 0.5692803564018969 -0.8169939904552108 -0.5147705894570769 -1.335228521650887 0.0013984956231652991 8.564719313265051e-05 0.45509859835549943 -0.3296335284340169
103897000.0 0.561305039348772 -0.8234203401736403 -0.5571465819037597 -1.376664305040614 -0.0023033097709241526 0.0020970533600424496 0.4607899832696747 -0.3334872551092964
104896000.0 0.5537621699957035 -0.8336032515019658 -0.6042458447175635 -1.4148617614207255 -0.0018665550740940152 -0.00010898807049344895 0.4408835628307964 -0.33149226538582055
105895000.0 0.5438233225445456 -0.834122793488831 -0.6552546964518621 -1.4621579211828584 -0.0022275423490276166 0.0020935442595485117 0.44471871984974704 -0.3573694013988918
106894000.0 0.5331481833935297 -0.8411704064719462 -0.7092253740314931 -1.5020408623356052 0.0002248202554231157 0.00020310065792971971 0.4357731978798423 -0.36628504360617264
107893000.0 0.5261375046948289 -0.8461232949154035 -0.7590534826750912 -1.5406794635558736 -0.0021708490046359968 -0.0001854590451071647 0.42983655935942733 -0.37445435205783034
108892000.0 0.5136551421044454 -0.8513146847374723 -0.8257116912336749 -1.5793668207101301 -0.0002694213463131684 0.0016412271469684384 0.438610396907555 -0.37689620076301783
109891000.0 0.5016384126155828 -0.8591069370203679 -0.8850497336970963 -1.6143305144185 0.0001901358663579971 -0.000261579392048177 0.4425936759121304 -0.37599217921066935
110890000.0 0.48339245718878177 -0.8653172069582297 -0.9589591763297107 -1.6127616373578093 -0.004216131815013552 0.000989707950170418 0.4357883872300535 -0.38838532429074746
111889000.0 0.4817770828194938 -0.8649872897464672 -1.012306135202067 -1.6923804385634618 0.00019324144022891886 -0.0016310372194328043 0.42431053713646844 -0.4037001649181749
