! Created with skrf 1.9.0 (http://scikit-rf.org).
# Hz S RI R 50.0 
!freq ReS11 ImS11 ReS21 ImS21 ReS12 ImS12 ReS22 ImS22
1000000.0 0.984465739966264 0.003070827982923108 -0.0101630491210129 -0.044962949553647824 -0.012298923345420112 0.013122877473842394 0.3659596495477904 0.35611573734933205
1999000.0 0.9914320495396207 -0.016202678700669337 0.002330619440204885 -0.02736112655613871 -0.00826957431615264 -0.002208693744870159 0.26328391095015086 -0.0668794851726076
2998000.0 1.0017522421464153 -0.019161844750436974 0.006519503278973062 -0.008076973678770997 -0.010913879135105938 -0.006814865717033553 0.20119592936158184 -0.1288026163761023
3997000.0 0.9988684588269 -0.028369287495876017 0.01613729647592645 -0.00032941798042584894 0.0005462563989793472 -0.005134485575899022 0.07005464039604954 -0.22856970718015146
4996000.0 0.9969406139953085 -0.03559032914005145 0.00890461064733317 -0.003802668383635465 -0.00407296031271473 -0.0022039255686957158 -0.04003793349094553 -0.19766709270744745
5995000.0 0.9974625217957798 -0.0494083024178491 0.010218774295767447 -0.001359757377094361 0.005190828460043548 -0.004722559945135893 -0.1350727441711209 -0.10689591015601543
6994000.0 0.993832864440258 -0.05924212739395543 0.00509981884886117 0.0046382696113206195 -0.0012884108003895706 0.000783046072936009 -0.14512730508463778 -0.027340782886934024
7993000.0 0.9964085701535078 -0.06772376930097758 0.0014928410037676587 0.007289363388031218 0.004304245297006906 0.0003801895383133722 -0.16648427067184857 0.04684725511086715
8992000.0 0.9944178885708439 -0.07197185451073683 -0.0006260977883317123 0.006440376334738145 -0.005331773254339507 -0.0025613096349933772 -0.1549551951991393 0.06588815131756716
9991000.0 0.993472979308475 -0.08159813182685219 0.002176324772943462 0.004581138699436264 0.0024881479468102374 -0.0006282396876710351 -0.1525327308699786 0.10186031758416365
10990000.0 0.993330229789701 -0.09314829296310155 0.003250893600125488 0.002230704052168988 0.0009005477664414297 0.0015170848016964483 -0.1252324217619995 0.12261199914210955
11989000.0 0.9891930644423833 -0.10092188085389114 0.004650931087119604 0.00015542062319223206 0.0005935206269954029 -0.001198455904782059 -0.11986973358442701 0.14110258626757513
12988000.0 0.9893441305293745 -0.10987732637844809 -0.00014996442862199376 -0.004107039677282541 -0.0019929069064814025 0.0029460614661100887 -0.12629892949102606 0.1752046920331212
13987000.0 0.9894037082511434 -0.1143495432561332 0.004913302980176221 -0.006418769246692973 -0.0012190411191608371 0.0003531105355325634 -0.09618177473126094 0.19135338629714652
14986000.0 0.9888082286676206 -0.12560576251590705 -0.0017402425024567734 -0.006769813622334295 0.0012840358836329973 0.0035250262356105702 -0.08532586066624034 0.2191464891898917
15985000.0 0.9912812682731708 -0.13094398007061603 -0.0013696154659996504 -0.0031111830528264585 -0.004532918775718252 0.0004932591690642381 -0.06543212352138207 0.2146358835978798
16984000.0 0.9852410521830247 -0.14483136115595477 -0.000325907337074044 -0.004365991613841844 0.00361454336340718 -0.0014617729686408605 -0.06321030294625421 0.231360105161743
17983000.0 0.9852200353260978 -0.14940812440105955 -0.002136317495915963 -0.008226564920891547 -0.0022034003141987485 -0.0001689392431877711 -0.05346554900971124 0.23626710147214774
18982000.0 0.985503789105481 -0.15776872623793253 -0.0014502239671769534 -0.002421881472373398 0.00114238480070571 -0.0006813660797879324 -0.02183686898099377 0.2370754581683159
19981000.0 0.9825713029882281 -0.16497081205175484 -0.007512833995753862 -0.00677322495073396 -0.00022506581897000812 -0.0026683114366076836 -0.008675376555489174 0.23255140941560012
20980000.0 0.981294957343255 -0.17491205299149482 -0.00676838270533705 -0.003743139689604747 -0.0039061212415098813 0.0015137263488244192 0.0033414960673801386 0.2520078900760732
21979000.0 0.9796282302942146 -0.18314992458809587 -0.00291657829873951 -0.0041133237931655405 0.000568615341740684 0.0022747307538797034 0.017780978525945335 0.24977139614245236
22978000.0 0.9786774526395948 -0.19098594351384465 -0.003507034489041765 -0.0051546404842599414 0.00018237864818925273 0.002364608739815038 0.017283328328941888 0.25569453120621094
23977000.0 0.9794686001636241 -0.19649990922774133 -0.007485243708992435 -0.003411211515853153 0.0006640756674039791 0.002909148502416293 0.027026162783774645 0.2622503516455124
24976000.0 0.9745168721002797 -0.21048305713497936 -0.005597153266364391 0.0003234311536980127 -0.0008863392311881169 0.0005686292447085866 0.06292879679828499 0.25849169660838267
25975000.0 0.9761461272285811 -0.21566044635176604 -0.005153985695915477 -0.004796203737488501 -0.005924089911826149 0.024943934595388108 0.08527143524828283 0.268745392884023
26974000.0 0.9715613972257661 -0.2252774737556269 -0.003302802487999409 -0.0014356787127574587 0.00022090970918756307 -0.00278233056813648 0.10114064231353746 0.2659489157909938
27973000.0 0.9703259980667315 -0.23122396130332445 -0.0018376469297071683 -0.002025017911460987 -1.4706457343161282e-05 -0.00411938168364057 0.10214080669262512 0.2555447850772537
28972000.0 0.96506956422983 -0.24188471396565378 -0.0038948319881608553 0.0006026583337513548 -0.0006002621578212283 0.0003574355085169951 0.11611881208849933 0.26472658530860815
29971000.0 0.9657180106917311 -0.2522451137199797 -0.0011752895029103101 -0.0028010011845675535 0.00017710586327824155 -0.0009212111178928905 0.14996641315270226 0.27519879529189983
30970000.0 0.9631682860888552 -0.25478575903228434 -0.0014834834372568866 -0.002052467406290413 -0.004586001341032775 0.0035316891471427084 0.165868969957789 0.2542477085818909
31969000.0 0.9601437812342086 -0.2655650590707974 0.004707001885276113 -0.005920014573335704 0.000725554850113761 0.0005524692860027585 0.1571135368981477 0.24781547405348678
32968000.0 0.9592095137816665 -0.2766115904490245 0.0064074011373301265 -0.007327796983769445 -0.0012159829282938916 0.0004146476540555997 0.1715004942715362 0.24547600483268986
33967000.0 0.9570872220318899 -0.28503375573479006 0.008801459679600514 -0.009731912182781266 0.001559714313497478 -0.0001479779898501495 0.1935992351391854 0.24608809687898844
34966000.0 0.9541690340015451 -0.29391009748655844 0.011515153371196282 -0.008427252970774454 -0.0012925499017408628 0.0017476090717347761 0.19958829202130532 0.25327590018992757
35965000.0 0.9500250880000171 -0.300573625442353 0.018527823778304957 -0.015564958904220647 0.003012963487895277 -0.004217648193983221 0.21448855872189754 0.2500144644563652
36964000.0 0.9491722302698115 -0.3098604122917801 0.015398989749974858 -0.01206373458594681 -0.00041449001745619686 0.001152562277648441 0.20998835446020142 0.24527004837749106
37963000.0 0.9458379006637369 -0.31897359491345845 0.02303139731181036 -0.02023123606889936 0.002149290482219516 0.0008610052062151542 0.22556846471210512 0.24031327668779304
38962000.0 0.9435152480130721 -0.3282406992937212 0.02149245952074225 -0.024731420848573497 0.0038557619722228635 -2.6864340696426937e-05 0.2454500306098498 0.22684828046433106
39961000.0 0.9405237550091101 -0.33443153695123223 0.028184185188268335 -0.026550518342273392 0.002334512807840818 -0.0010974892211439618 0.2503466772693889 0.22843268942552084
40960000.0 0.9364810067787874 -0.34252294841015957 0.02173560093349139 -0.025147861146030064 -0.0024522602587924843 0.0008770890756770478 0.2719791269067201 0.2315710490023704
41959000.0 0.9337570727833168 -0.3516705086471306 0.030473443373022484 -0.03314514778955122 0.0011751389901856072 -0.0010282440516947093 0.2750602677979474 0.2099860429741021
42958000.0 0.9294607122594076 -0.3616526696932217 0.033021756153454984 -0.04198404216773033 0.0026694367118303493 0.0009330781967452531 0.2826845427898638 0.2044715112202325
43957000.0 0.9297724676533607 -0.3652149152728843 0.03262991555730289 -0.04513355003955796 0.0034516832729910717 -0.0026986060077480085 0.29155517839905293 0.20595229107416219
44956000.0 0.9246572241099342 -0.3754129459972192 0.035581016427775766 -0.051915368556587856 0.0016044006772997215 0.00048814129574969875 0.3087451752644094 0.1856841102543487
45955000.0 0.9202547014838685 -0.38508733084176655 0.034128804271343884 -0.05740071188729544 0.0002368598796913016 0.002238884190130794 0.31199110609632247 0.1881508420305188
46954000.0 0.9165382082749322 -0.39250389883563813 0.03860073001606326 -0.06563391506894124 -0.0015679076127785541 -0.0002884819825224034 0.3239747904725403 0.1745983077904068
47953000.0 0.9152207873323246 -0.39970138438564334 0.03817491610280729 -0.0718898655962273 -0.002295472337405878 0.0024845012015099516 0.33283981186688066 0.17342089535410515
48952000.0 0.9084170875378283 -0.4105589868390286 0.03959484968443113 -0.0798007556572449 -0.001221372271866158 -0.0018137010808886066 0.34231447250727476 0.15938428708334532
49951000.0 0.9049431450653752 -0.41695547948934225 0.03776379282603098 -0.08604661958213473 0.003770977784375958 -0.001119025041249299 0.35522449187947014 0.1534752697537042
50950000.0 0.902488885945298 -0.4260799767158919 0.036436761105829094 -0.09622759786535638 -0.002110170121233609 -0.0005455092038398043 0.35776073589792706 0.14831298904267862
51949000.0 0.8973120875443225 -0.43231635573830657 0.04192124653820623 -0.10375865139313895 -0.003269252037416284 0.0015603630345049446 0.3604984223002007 0.14717198694067485
52948000.0 0.8962662542461517 -0.4398803177224149 0.043029289109731514 -0.11040166984113575 0.0001300378907937857 0.0008869809694372837 0.37671436850218193 0.13625207426678793
53947000.0 0.8915506881620711 -0.448047326785617 0.04538485322737557 -0.1201871378115794 -0.00048099181674224605 0.00013145023225157726 0.37645421375181354 0.12029046002698593
54946000.0 0.8851090125936796 -0.45932458285883343 0.045756942016601486 -0.13118525689154012 0.0017469295316311973 0.002002560519938113 0.3884230538642146 0.11503369641199686
55945000.0 0.8829868270455301 -0.46731440317848877 0.048334827548524736 -0.14086466120267485 0.0009816404973607708 -0.002177846062756112 0.3831231603822276 0.09829678443643984
56944000.0 0.879124956580891 -0.4744452542461003 0.046699700900228715 -0.14991325482701381 0.0010389063448394235 6.507315178211747e-06 0.4029249418634472 0.09810177666906818
57943000.0 0.8720794220212931 -0.4859061081659783 0.04950887622427798 -0.16408133343588818 -0.0036006958830346854 0.0004088673102585534 0.40242899660931786 0.09165504668144388
58942000.0 0.8687618492243209 -0.48860099866592416 0.04916513962910333 -0.17455944083337563 -0.0028364036618351543 -0.0020599354749186024 0.42447699446703663 0.09671695493134244
59941000.0 0.8656210870859389 -0.4990232033654923 0.050376720123180764 -0.18282506851805283 0.0009540864158234899 -0.00048450047772844 0.4263690575178257 0.0833492360444956
60940000.0 0.8566397009799864 -0.5061558866840524 0.0508529187234368 -0.1867874746766162 0.00045225811878233106 -0.0015951859617835992 0.4088191147574137 0.07484215283551511
61939000.0 0.8545542896865113 -0.5120081544061406 0.051828256494574065 -0.1970180836977729 0.0003565276550675321 0.0007679536505265451 0.42058592470872713 0.0674982534489959
62938000.0 0.8491121008180895 -0.5232997347498759 0.055831288275457636 -0.21246444068736006 0.0028536693654224194 -0.0016760701823759067 0.44347118368749344 0.05154250704441396
63937000.0 0.8445571981346051 -0.529261764324635 0.05670434795266992 -0.23410849780241327 -0.0016187279301295924 0.000595140227881938 0.4320538496588402 0.02838196256456396
64936000.0 0.8390689082002667 -0.5352732267063359 0.05624051006419774 -0.24857840445171195 0.0007430575336777593 -0.00035902410449679517 0.43377155794329314 0.043219993110229296
65935000.0 0.8343523997242521 -0.5484099058445077 0.05615391481234489 -0.2623586561317311 0.0017822232636235849 -0.003567525112371166 0.43818384127210713 0.009749242927574486
66934000.0 0.830772620354062 -0.5508921307107641 0.058263071582108424 -0.2778849324963628 0.0019960997039989007 0.00037565910882008584 0.4395147011769562 0.010888282834816262
67933000.0 0.8263100754465247 -0.5609639311787868 0.05718255468253726 -0.29172343816805096 0.002242482517576417 -0.0015457578887277707 0.4462130348711711 0.0005131073465236561
68932000.0 0.8090505107542778 -0.561547911124458 0.0501887122027323 -0.3010237615857614 0.001418653242308743 0.0014612740098239245 0.4596909575664715 -0.02179013921159121
69931000.0 0.8127107890114795 -0.5750874009003659 0.05513777751901063 -0.32118876003607927 -0.004441899125169009 0.0003693137203500481 0.4504650678222917 -0.024035512953714533
70930000.0 0.8057104813031079 -0.5839591543595445 0.05097524238113444 -0.33597049031042087 -0.00449333567601532 -0.0005114197803888197 0.4419151766091559 -0.0339184594363969
71929000.0 0.8024457318509615 -0.593705919060249 0.04589272800896349 -0.3537398839278733 0.0022180651302971814 7.818358205554748e-05 0.4545479240327532 -0.03302497385425826
72928000.0 0.7969632811468073 -0.5989908772366362 0.04406197532797554 -0.3715960002858573 -0.002722128080433574 -0.003657383676867253 0.4706399837648217 -0.06043737408829403
73927000.0 0.791758361024752 -0.605371881309661 0.03683007439282537 -0.39358730390680663 0.000122915109024109 -0.001333002352506083 0.46184656541389746 -0.062165575975667936
74926000.0 0.7850914176070092 -0.6157343266546187 0.029090313590965193 -0.4068790025830139 -0.0006814649621058155 0.00026564526886831515 0.4637145271685785 -0.06600383847521006
75925000.0 0.7783340425712729 -0.6213706659721391 0.01894734727102742 -0.43293639008551943 -0.0003592062866794888 -0.0006298033019379406 0.47678719959654253 -0.0841993600325245
76924000.0 0.772565549049861 -0.6293478300099928 0.010083684334068345 -0.45217806211431893 -0.00011664388745707627 7.24228574107714e-05 0.47037042793799455 -0.08809945132308071
77923000.0 0.768407377781973 -0.633307432430121 -0.004232003889107125 -0.47531979390752555 -0.0013767180716918062 -7.842679556123996e-05 0.4664022530112109 -0.09161815437491878
78922000.0 0.7618918599058151 -0.6457637414947186 -0.01990105644061895 -0.5057048833576726 0.0003068499257351578 -0.00039075990372648033 0.4579573897170578 -0.11090236574365231
79921000.0 0.7518020894076721 -0.6492315216532994 -0.03546264334219984 -0.527811091262531 0.0016688865416254947 0.0036320971170084775 0.4584707423511988 -0.12665035903992014
80920000.0 0.7494822653730981 -0.6606968279537967 -0.049947548293853714 -0.5589208784966198 0.0006920032973953288 0.001897301305466001 0.4686260452402662 -0.12630662417493374
81919000.0 0.7450340920819949 -0.6653849253030593 -0.06897233817092033 -0.5865255884061975 -0.003804706590690666 0.003696839209805454 0.46311570383581313 -0.14109730157114767
82918000.0 0.7341139739376429 -0.6723424012945203 -0.07954401585243792 -0.6164402597227626 0.00010947579084773291 -0.0003671334491930059 0.4797686519834532 -0.14462191039735361
83917000.0 0.7270264793820073 -0.6788216348050521 -0.09968733409582897 -0.6447835369655979 -0.0009929204412931832 0.0022748283745309553 0.47076590027304066 -0.15605047890062224
84916000.0 0.7213356596995558 -0.6901870096914361 -0.11711562764073348 -0.6818600871464153 0.001692741910410713 -0.0018362918661092766 0.48255176622288387 -0.15740596733343762
85915000.0 0.7146480068622661 -0.6941691374101778 -0.13656592451440322 -0.7081624250880065 -0.004215284841997352 0.00111892894869485 0.4619044926655978 -0.1802698158687047
86914000.0 0.7070383039374886 -0.7034344069543367 -0.1539770348512899 -0.7493619467169418 0.0009290281898786822 -0.004126554055552858 0.4629076412154136 -0.17987680153199828
87913000.0 0.7016177407233262 -0.7088897192034143 -0.17232874378156027 -0.7748778171393664 0.0004094641837297188 -0.0012828048604298923 0.4665063310027327 -0.19378749189864872
88912000.0 0.6924338682417311 -0.7152490388737289 -0.18803032979052678 -0.8139411535048868 0.00033024014405298247 0.0007774115781797087 0.46353437857154506 -0.21505560602618934
89911000.0 0.6861478165789313 -0.7246283119820569 -0.20481794706083098 -0.8490117484627564 -0.0017773841253804407 0.0021518307853652446 0.466906917430081 -0.21507941144130815
90910000.0 0.6809192825348672 -0.7283471850327986 -0.2207030206893513 -0.8851386972687364 -0.0018311866233462594 -0.0021588452141544853 0.45414868861884217 -0.22761966147893722
91909000.0 0.6708469029829964 -0.7355277270967574 -0.24494830506246942 -0.918560950974416 0.001855787162630317 0.0012962347538222074 0.4681595227567985 -0.23318502787513323
92908000.0 0.6635959473701808 -0.7447089487973623 -0.2631702647265022 -0.9539522816523804 -0.0012865466313863436 -0.0032560486746620438 0.45555185711932467 -0.23791372208246922
93907000.0 0.6567533934433344 -0.7485134188387439 -0.28097188912766125 -0.984817197795628 -0.0028130450612457968 0.002003100188557883 0.46482566398905006 -0.27124772424324356
94906000.0 0.64637477535802 -0.758103290723546 -0.29629219025402725 -1.022031261429645 0.0020042312962572956 0.00041390401204119913 0.46900934072928746 -0.259850311419246
95905000.0 0.6378761776088462 -0.7636456403929297 -0.3235992382048072 -1.057096897180797 -0.0038083066724737616 0.0008836742433678981 0.4577229543564318 -0.27128104615733817
96904000.0 0.6336477699137105 -0.7728479159727231 -0.3385062358566767 -1.0978756967827203 0.0015338447111513077 0.0028098452446661828 0.44750271546481973 -0.26960768686484543
97903000.0 0.6212548709375638 -0.7763219169161406 -0.3652944241294467 -1.1249550886128459 0.0007226866794171981 0.0011913464135682552 0.44731371769527173 -0.2886989423164463
98902000.0 0.6167178100099127 -0.7834344344401625 -0.38526856631946793 -1.1646720935126513 0.0007613416921026029 -0.0006696260390952144 0.4466849261663315 -0.2908726637495848
99901000.0 0.6063450504839389 -0.789884244945821 -0.41690829738609897 -1.2017770484560037 0.0018705943818453715 -0.002359054558145812 0.461441956715608 -0.3136676952675729
100900000.0 0.6000929314644061 -0.794967159529534 -0.4460058860403446 -1.2357244841360746 0.0009365752334851293 0.001184724677434498 0.4614819364642509 -0.3113519188028317
101899000.0 0.58955174882225 -0.8032200862905675 -0.47751960058163284 -1.2694318197510088 -0.0010285636197898426 0.0002167246986520368 0.45553708268633597 -0.3240419276260748
102898000.0 0.5823110661990684 -0.8062675902348453 -0.5060010807303555 -1.311326403199719 0.0003586124739742949 -0.002592544841815863 0.45163811703058965 -0.3351802516647772
103897000.0 0.5728673893719332 -0.8134776256020727 -0.5461784814606349 -1.3458766748771431 0.0009572483109447603 -0.0036317971428115868 0.46603540698418777 -0.3320622693036391
104896000.0 0.5646699888160304 -0.8223688176989107 -0.5899897713336889 -1.3798675425600173 0.0040914953393366964 -0.001473251869941488 0.4520030752707503 -0.33809869619208016
105895000.0 0.5562565779565439 -0.8282169815211926 -0.6370230776353522 -1.4259514656831713 -0.0007033271969961901 -0.00026245683128179855 0.43416774744522774 -0.3589356334697587
106894000.0 0.5456114852847674 -0.8347970589756231 -0.694250322314478 -1.4615332797477598 -0.0017683819349058277 0.0006565809302741895 0.4332343595763833 -0.36795703095394305
107893000.0 0.5387283594688913 -0.8399422731408135 -0.7422178301401321 -1.4996296158138764 -0.0017630676647150687 -0.0011435914947533295 0.4412363282576936 -0.3775938687342113
108892000.0 0.5270439894162682 -0.8418557304195207 -0.8035738590681576 -1.535827417460474 -0.0007518228005590822 -0.002235334169585277 0.43000976233395277 -0.36710277094500043
109891000.0 0.5152969402465812 -0.8526517561874315 -0.8602404584648752 -1.5704956925188118 0.0010513418059924444 0.00025439733181884195 0.4396138130256239 -0.3832284065320208
110890000.0 0.49588023033802264 -0.8598649962388919 -0.9400488974861176 -1.5728868896507258 0.0009178131296835734 -0.004490807227763117 0.42002307689741963 -0.3898814458955753
111889000.0 0.49658878234804676 -0.8585244628844797 -0.9886789314626524 -1.643820161630179 -0.0034473487943538065 0.0004029889854032694 0.4231178396997961 -0.40401609681889855
