! Created with skrf 1.9.0 (http://scikit-rf.org).
# Hz S RI R 50.0 
!freq ReS11 ImS11 ReS21 ImS21 ReS12 ImS12 ReS22 ImS22
1000000.0 0.9739068862677661 0.005765295714530156 0.00381739685837741 -0.05224226426365678 -0.00033041011500454295 -0.0032706703801695888 0.3282817667710536 0.3081903715979388
1999000.0 0.9926308689290593 -0.014295347962913157 0.007841950103291029 -0.025507221621750453 -0.009128620674531468 -0.0009977591345638741 0.25375166050978165 -0.04959500498818943
2998000.0 0.9958952137663896 -0.019416316319206442 0.012454804409852575 -0.016384552151411304 -0.007600620356912689 -0.005554967708473599 0.18653681577815798 -0.13531662713926015
3997000.0 0.9979762518336184 -0.031226387349201398 0.010392454175409776 -0.00770297941218253 0.0006451067704752242 0.0029168022528109493 0.09178666365312574 -0.225384824085913
4996000.0 0.9936301586353116 -0.04046536407368042 0.00978438878079052 -0.0019756039866685293 -0.005488607813613078 0.00038083509279799693 -0.04202703369810856 -0.21307602790560004
5995000.0 0.9963813568711843 -0.04748185053710083 0.009672148030595665 0.0045185737160352265 0.0036813227188297326 -0.0036000308644271455 -0.10989986539697881 -0.111805123763296
6994000.0 0.9931168217324817 -0.057658742329190354 0.01169196568656679 0.0026865155027553413 -0.004426631320356244 -0.0028166012178050944 -0.14927982930871278 -0.014465140985195154
7993000.0 0.9965903854074998 -0.06760109650864352 0.00401498755511376 0.0018492640055929358 0.0035676875059213685 0.005121588252973149 -0.14903307027603366 0.03826750504146851
8992000.0 0.9921553952205999 -0.0724745077476566 0.004383954290313571 0.005622813757589811 -0.003345515486317651 0.0010927611077032216 -0.16371234057773779 0.06284800435024797
9991000.0 0.9920278924886439 -0.08526391116545053 0.004451042042233568 0.005184865479949237 0.0004091390508420557 -0.00368256154966907 -0.1573892372152086 0.09534360906691543
10990000.0 0.9914484717323011 -0.09275018679056389 0.006134204142347829 0.002166952711182858 -0.000705932438999245 0.0007264885243977205 -0.12560970148762537 0.09952285064842972
11989000.0 0.9881824280473382 -0.09981432356364106 0.0056334776109789155 -0.004379708707699552 -0.0030205103850220083 -0.0013184276085072702 -0.12583892244147632 0.1330245125635426
12988000.0 0.9900461723164539 -0.10794710354399725 -0.0028764603626628403 -0.0021145194132070676 0.0008496456705180097 0.001907602927167759 -0.11403779881674525 0.16010617688906176
13987000.0 0.9872848523314183 -0.1194044833619313 -0.007505819098551983 -0.0033903698407419056 0.003470545120990074 -0.002798101965488748 -0.0847435958903796 0.18518517425811398
14986000.0 0.987118851251978 -0.12747331639592474 0.0007893098742972321 -0.004671557275852762 0.004401088340199991 -0.002431489788495047 -0.09148962332781119 0.20275350420373808
15985000.0 0.986254069859464 -0.1347788134079083 -0.004053973480395711 -0.00443360114343276 0.00039433306924529626 0.002195012922322004 -0.064337703703444 0.22146089751061665
16984000.0 0.9853048184849019 -0.14323182196856424 -0.003710714012911043 -0.005312284826521035 0.003661211200318586 -0.0021772930869227818 -0.06027294692297977 0.21845368759409778
17983000.0 0.9847692017076779 -0.15061262415887616 -0.004506543330310467 -0.0072404395273031755 -0.00019626900091081477 -0.0023850154682654515 -0.06254144531835208 0.22011001113654866
18982000.0 0.9814737872452713 -0.16216054869302757 -0.004847308919436348 -0.00733826449344481 -3.2987726860398464e-05 -0.000547458999602339 -0.01704353287120667 0.23731588621132826
19981000.0 0.9811057111293283 -0.16760068735663042 -0.001948626654241579 -0.0026991536153541298 -0.001964306455813315 0.0018600903824949292 -0.011657359863915893 0.23695613769815557
20980000.0 0.979253188568313 -0.1759404820721825 0.001746608212700436 -0.005945330550425888 -0.0002886000186839139 -0.0008775596833678291 -0.006921267069278499 0.2605981894885378
21979000.0 0.9769257955608132 -0.1883550667963893 -0.00024283724311880523 -0.004701107194518592 0.0004051912190158799 -0.0019236551239389106 0.020291869489259866 0.2514761546168361
22978000.0 0.9757166034394861 -0.19523984453362128 -0.009441656927495556 -0.0026333264351529185 0.0024664321448223526 2.399425325886144e-05 0.024987908834225133 0.2596894462975777
23977000.0 0.9768418969440735 -0.20042980115667428 -0.0067950024419403485 -0.004091094660029842 -0.0045746865534665995 0.00045522966388503015 0.043204834562459604 0.2471744561049756
24976000.0 0.9709828287874746 -0.21244276144146176 -0.006595269593092444 0.00034679913441533114 -0.0026313569558854702 0.0015258999889616461 0.060157070475972185 0.25514552670150603
25975000.0 0.9677542188644467 -0.22728603082913995 -0.0065628927544396426 -0.006153218233008126 0.02328730837083578 -0.012502783093839625 0.08039927163565462 0.24686198337116674
26974000.0 0.9698138135381104 -0.2292346084007985 -0.0035009345480219826 -0.0014139704950833025 0.0011253391170401592 -0.0005562248850674294 0.09185735438259614 0.26723263377175727
27973000.0 0.9685659068506777 -0.23538680404713547 -0.001861823260526368 -0.003986403010116133 -0.002039141142552848 0.0028868035128405034 0.10610995481322717 0.2738520584741603
28972000.0 0.9629719901595034 -0.24774793026833775 0.0002200045004371394 -0.00019338307788533288 -0.0010556569504980042 -0.0002923309648160018 0.11042212616093063 0.25869773674908625
29971000.0 0.9629345261299119 -0.2548570713399216 0.0006156641582505862 -0.0014532963979675987 0.0012615444030215628 0.0003480210576516442 0.1463557102916204 0.26847306559510825
30970000.0 0.9624751838670131 -0.2613153921933404 0.0016726379118387374 -0.00016438880682317995 0.003182153315811826 -0.00104875599982446 0.16577379451178803 0.2556370796992554
31969000.0 0.9577567970044689 -0.2713153690389478 0.005118433711319773 -0.004053378920903558 0.0034825857599949947 -0.0001977102543624969 0.14742173549909515 0.25540849810144306
32968000.0 0.9580596150694141 -0.27909647664032955 0.00890540489611442 -0.008227507130884866 0.00048114959826505365 0.00023466043963859227 0.1641046800569761 0.23683568346724596
33967000.0 0.9540292291496401 -0.29045728940438664 0.005458353163870631 -0.007659301744863136 -0.0041613162580042065 0.0018537043717566913 0.18401348613219337 0.24540568376155647
34966000.0 0.949744867770477 -0.2991457450752716 0.011346095552783677 -0.014141794481857754 -0.0012731326948504376 0.002480039954960981 0.19240862235833062 0.2501225223988622
35965000.0 0.9483242219820051 -0.3053808668699218 0.01572495822464218 -0.013115685544921322 -0.0016383651399801114 -0.0041979113392374015 0.2147795145658512 0.25214174976163173
36964000.0 0.9461990635010755 -0.31444773108370144 0.016218536150472612 -0.01153655114953395 0.00288949670078817 -0.003274559834211963 0.2134216958068449 0.2487424275328408
37963000.0 0.9411389668248562 -0.32463295700504924 0.021936678758876046 -0.02250842359384319 -0.0005615577201494264 -0.002330617061153672 0.23217302184744845 0.24381829571060537
38962000.0 0.9400675853594503 -0.33179571278341224 0.0270962058898855 -0.022433872056845966 0.003114382568247531 -0.0016411811962108015 0.24838682006009608 0.23393640854820666
39961000.0 0.9365139328849669 -0.3422862250417502 0.026844651524544755 -0.027939738176041607 0.0004966644161861578 0.00024267004733683777 0.2529620603353679 0.22706186195811418
40960000.0 0.9330303101389286 -0.34779086775540097 0.023569330579456378 -0.024753168701527942 -0.001144323074000254 0.001378128189143016 0.2570158811603886 0.22854773426212083
41959000.0 0.9307583260516764 -0.35982204720595046 0.02819239975262002 -0.03229641535323186 0.0008126226633293404 0.0009590004257212453 0.2627205513852261 0.22253950506110765
42958000.0 0.9251024058509216 -0.36894337873695 0.03384508326832423 -0.040504764539745185 0.0003657329567168724 -0.00016589544236094708 0.2811776961715409 0.20099840055499096
43957000.0 0.9237036466275634 -0.37279120053448334 0.034119865052252514 -0.045171796716713376 -0.0033957778830032872 -0.0013161487355560198 0.29131155175409307 0.20286307983618493
44956000.0 0.9205185946117147 -0.38126787306967486 0.03624935356751243 -0.05137102049470571 -0.004533024835383116 -0.0009219676098024674 0.3041205694677787 0.1962202747821794
45955000.0 0.9164050844412654 -0.3922285742831557 0.03695813996288773 -0.05916408844766901 -0.003009624387537734 0.0008099761940564169 0.3113410721206564 0.1950739388559122
46954000.0 0.9130716414704411 -0.4003532679115712 0.03935227636339053 -0.06831196620233776 -0.0007408193009381492 0.0008843298344438639 0.321222684180136 0.18617492681107364
47953000.0 0.9106436094515804 -0.4077112180575824 0.03847856561388388 -0.07083180403235564 -0.002529372639149133 0.0029121984288203555 0.3325420219920192 0.17592607849451836
48952000.0 0.9019852496583456 -0.4198248093190444 0.04029806944251018 -0.08342862367141522 -0.0011601427602151485 -0.0023328297349828977 0.3339413413516807 0.16172777780035277
49951000.0 0.9013447422310841 -0.4227233597252233 0.042211626665360776 -0.09112002117275984 0.0010549576011747075 -0.000408630741182925 0.34303450433044325 0.15196938882474698
50950000.0 0.8957360841849757 -0.4342530256635709 0.04360095492473609 -0.09755740261641416 0.0003766362931757806 -0.0010021592173136999 0.34611082421427775 0.14629087365489793
51949000.0 0.8930862716499736 -0.44239977581747203 0.04189403414049631 -0.10902882086602116 -0.0022021279860762006 -0.001482911817317529 0.3601624237748516 0.15246753914399025
52948000.0 0.889633712860307 -0.4506221847128531 0.04541804410850937 -0.11517329465790885 0.0028355016382979894 -0.002218312670840028 0.36381826149468594 0.14643438749140963
53947000.0 0.8849935678397272 -0.4575307473867851 0.04652852542206448 -0.1243494624644928 0.00025810273636379987 -0.0013755730090062538 0.3690729337506411 0.13374240575335447
54946000.0 0.8784966186381846 -0.46897975472431225 0.04840584235282822 -0.13730182231592247 -0.0024135065648648287 -0.0001728688629794709 0.38798719963664774 0.12092851600475409
55945000.0 0.8750429550630625 -0.4760018285589909 0.05108352319945214 -0.14590780913361365 -0.0003271880678781461 0.000638996168218688 0.3761503896325175 0.10939347273884892
56944000.0 0.8720862108693027 -0.4838140791260855 0.05206198519142091 -0.15730776065222682 0.0004389989714987725 -0.005777864980659083 0.3907785316409619 0.1011500151002645
57943000.0 0.8662074610080618 -0.49590910415515366 0.05350026078292416 -0.16925210712617172 0.003054546466836962 0.0009029741032376468 0.39738883964225374 0.10047913487278409
58942000.0 0.8594784783746842 -0.5007898733608115 0.05449713986238908 -0.18061765054661516 -0.001970306975387729 -0.0023107415296260325 0.42153601511437616 0.09281825895831278
59941000.0 0.859642055622159 -0.507111269840958 0.05746660611613395 -0.18846237904840085 -0.0023215019904366373 -0.0013933195362868967 0.41465933705243846 0.08005564859066636
60940000.0 0.8491913475384119 -0.5168381871203948 0.05632563157728134 -0.19425032662950753 0.0007572611664806056 -0.002358802820975173 0.41262624069555265 0.0809379752947643
61939000.0 0.8467560744474814 -0.5231129023645771 0.05597750046898073 -0.20145645303738785 -0.0017193663488280536 0.0011667125261681593 0.41527136967120737 0.06927238064019055
62938000.0 0.8404378303836618 -0.5345566309578467 0.059872160582841796 -0.2189360408050543 -0.0004930748138940837 -0.00036150636251705825 0.43290560097559 0.05824477672824611
63937000.0 0.8373646561252003 -0.539343399196954 0.06173342634560572 -0.23865660802004138 0.0027051082528300806 0.0006982989376811266 0.4264377373747315 0.04002323474832507
64936000.0 0.8285417465776012 -0.5477437393554929 0.05994399999863475 -0.2550504843510862 0.00023209235087704632 -0.0007660647509345187 0.43642463954168376 0.042861552642448744
65935000.0 0.8264953307490288 -0.5581522135968408 0.06123153766070735 -0.26910588112834954 -0.0036499087842591423 0.0018784177633018575 0.43550441517348537 0.024983250790402655
66934000.0 0.820831473558517 -0.5632191979973281 0.05992000000087346 -0.2833927552269206 0.0014183909924852078 0.0014376729548951066 0.4426326546735942 0.008680291449407115
67933000.0 0.8181456698113718 -0.5696399738483087 0.05997865221727204 -0.2970160443512093 0.0034381532639863634 -0.001642882025782714 0.4385746328469589 0.00501573521980428
68932000.0 0.8072294600491305 -0.5627820923819353 0.05518409892423596 -0.30952009992433466 -0.0015740155446251033 0.002904009987548001 0.43819536430630956 -0.010363177981229472
69931000.0 0.8027205661222044 -0.5864600941662165 0.059968578263637856 -0.33015076036113855 0.003307656172604358 -0.0013201910789095224 0.44145597647408125 -0.00931879993965979
70930000.0 0.796810293884377 -0.5963564378699142 0.051782878750914946 -0.34621466178733395 0.0009300032735475125 0.003401648023663076 0.4430764509372761 -0.03263589577240944
71929000.0 0.79383635972144 -0.6028007731864754 0.046506068392741365 -0.3666191173311338 -0.002890829768350897 0.0014650293686190394 0.4513766206145692 -0.035357434059349935
72928000.0 0.7851227385091238 -0.6119020327674471 0.04295302366475808 -0.379826114775623 0.00291231692021746 -0.0017322022599901813 0.45795610591207925 -0.05483062598160348
73927000.0 0.7795663613711912 -0.616578799864609 0.03824703760044996 -0.40125410515035514 0.001384480183650261 0.00037236157842712394 0.4559740415936061 -0.047546579977978974
74926000.0 0.7762418615737603 -0.6291374375106786 0.028354029682716886 -0.4199618442438243 -0.0028007863460663787 -0.0001485961238966341 0.4532783366692767 -0.06565910296694491
75925000.0 0.7681732020276756 -0.6330979644514331 0.018760996677103296 -0.4425599892390203 0.0007457751326060859 -0.0011955653438312666 0.4661725480030964 -0.07133659558249768
76924000.0 0.7629549391473015 -0.6401109351196379 0.004418910685377908 -0.46898253211048774 -0.000276122080066465 0.0021071409113554624 0.4604145447029994 -0.07674395639351478
77923000.0 0.7552709169454053 -0.6487468788675955 -0.008266190029779814 -0.49416614059431624 0.0012275337783690442 0.002964239327612232 0.45492487624899236 -0.08797167787327356
78922000.0 0.7500425041854831 -0.6582871055885642 -0.022136283794384294 -0.5247865084946302 0.00037404175953021995 -0.0020309558737837065 0.46222913868407767 -0.1003783717509688
79921000.0 0.7405131343667368 -0.6627796855670451 -0.043810934277274366 -0.5479463088098981 -0.002109678947456473 0.0012272681719815558 0.44828960718257926 -0.11482010514317072
80920000.0 0.7358588885435849 -0.6719728679228053 -0.05593365707553109 -0.5766020263944248 0.0008786463363129573 0.0011259227650544318 0.46718252235691116 -0.12103803693564347
81919000.0 0.7304732463474585 -0.6781763842951223 -0.07126981138126745 -0.6063719587107228 0.00024206239121841208 -0.00023203694114219057 0.4665000453226537 -0.1356941185864814
82918000.0 0.7225091330185244 -0.6842338336744392 -0.08636189957605503 -0.6402422968241129 0.00390670583070876 0.0008790065446890452 0.4665415186891269 -0.14296995492845
83917000.0 0.7127368973358864 -0.6929872406531121 -0.1085326919310204 -0.6692466921541012 -0.0023286883089445338 -0.0003216171643585687 0.46334845355658694 -0.13642166924180113
84916000.0 0.7076731672810653 -0.6997580281857331 -0.12222222827031394 -0.7078670347562734 0.0015641788294955322 -8.70069509119058e-05 0.46565386367907213 -0.1595257347914502
85915000.0 0.7012310332565005 -0.7067807661333326 -0.14420191538945687 -0.7378643809556142 -0.0003542765191979021 -0.0012018353703070227 0.46998119115056863 -0.1711308554577248
86914000.0 0.692831263329357 -0.7174658168536305 -0.1605569189419544 -0.7752693656980565 -0.002885701028189851 0.001754337161096474 0.46327834771557375 -0.17156221198133334
87913000.0 0.6864123688299409 -0.7225106768306396 -0.17872566087774353 -0.805431636272014 0.00296519271258902 -0.0001731832785374144 0.47066884696759786 -0.18437470635689684
88912000.0 0.6807439911552802 -0.7278356762257397 -0.19448675671488655 -0.8392163228313213 -0.0032746134402780345 -0.0005574819355597586 0.46831468761003864 -0.19819572327048815
89911000.0 0.6712561689498567 -0.7393832582367291 -0.211929016887192 -0.8804358654065771 0.000600308796772344 -0.002483655779494965 0.4752277350059425 -0.2171695642329322
90910000.0 0.6639392958008171 -0.7416735917514623 -0.22676582365555742 -0.9115002934145533 0.0006610689750672385 -0.002511585626915505 0.4578524348726183 -0.21235874872774813
91909000.0 0.6546500405455066 -0.7476913714185596 -0.2481141217352446 -0.9448766223187811 -0.0011129254582567783 -0.0011342603971592857 0.47025342005393583 -0.21682667463570193
92908000.0 0.6462785443004051 -0.7563903271849458 -0.26648122038898936 -0.9781023979103594 -0.0005927039669145517 0.0016535543041895403 0.4527151351317903 -0.23292669924807852
93907000.0 0.6419154688455246 -0.7606528329131694 -0.28609183700035534 -1.013537421844286 0.003876053471418359 -0.0001493912835967736 0.46034410824876 -0.25112318667469546
94906000.0 0.627660591678491 -0.7687521700520958 -0.30341258115575864 -1.0449801848635216 -0.0011651223492587682 0.003713238632990577 0.45811718293746556 -0.24912176088499527
95905000.0 0.6236362076765076 -0.7759346389225472 -0.3266510815550248 -1.0858073336130736 0.003513121718402393 0.004844065935811507 0.4547643360411751 -0.2678969003833922
96904000.0 0.612498214334351 -0.7844433937087057 -0.3465265523036062 -1.1239601727719606 0.0007176693675576356 -0.0008538587187816398 0.45339920674555423 -0.268580530038017
97903000.0 0.6047195262570318 -0.7900267305936369 -0.37250746691972497 -1.1568088189035601 0.00011294579790846444 0.001626606836418629 0.4509086175501717 -0.2776788341231521
98902000.0 0.5978266476590068 -0.7950438234391823 -0.39690595909634635 -1.1964812796507973 0.000623330353173924 0.0014338516188480142 0.4496480523825597 -0.28275346442894533
99901000.0 0.5850432300656841 -0.8022911372539965 -0.4283299699147313 -1.228522788782058 -0.0010333801753465975 -0.0007794935150471972 0.45787375424042026 -0.31338181153152966
100900000.0 0.5808304129328056 -0.8050921059911758 -0.45340986619454515 -1.2679134156295706 -0.0025376830676756257 0.0006737920634152833 0.4521502457123858 -0.31412452344130853
101899000.0 0.5717850311485775 -0.8130758593553373 -0.48702481733258673 -1.3028863123861423 0.0010390487590708852 -0.0013150676394122294 0.4468433747992455 -0.3120102824075209
102898000.0 0.5610068971158209 -0.8180752903403687 -0.5272127399732534 -1.3409302377550796 -0.0007517505520446165 -0.001950723579285803 0.4556537211655135 -0.33553448909019834
103897000.0 0.5515357629800464 -0.8267183819004015 -0.5695717637850897 -1.3781189029973944 0.0037091651191061533 0.0016651380238305274 0.46824772383380586 -0.32298354996881795
104896000.0 0.5427165570647765 -0.834520540976527 -0.6158564047620776 -1.4120322315211251 -0.0004433963675241713 0.006164787046005025 0.4418787257283128 -0.33451463793191843
105895000.0 0.5329558136117908 -0.840602198600143 -0.6700070422816318 -1.4610739186372534 0.001802389476214155 -0.002648650271710568 0.43093548527630904 -0.35754965037554165
106894000.0 0.5225609268286507 -0.8455186212124376 -0.7221438437002872 -1.4990352398682212 0.0010742416165870005 0.0003094417515600442 0.43810928108516584 -0.35762891027437804
107893000.0 0.5164935574183201 -0.8517001559436093 -0.7768373511124168 -1.542453896536828 0.0022771740323120466 -0.0033685703284871004 0.43235352809382216 -0.36136161856210536
108892000.0 0.5053361475918917 -0.8538274496091033 -0.8383525837210765 -1.5776552024343582 -0.0019450387500707658 0.0014397516148360987 0.42508539813943075 -0.3667968450745476
109891000.0 0.4925658659182339 -0.863419379069187 -0.8994464947810553 -1.6143066336437055 -0.0007051779549920022 -0.001705553527690731 0.4460965291961519 -0.36970699123650186
110890000.0 0.4734931924318793 -0.8675215441086563 -0.9773762129887581 -1.6097691700314531 0.001995266157364 -0.0005611479264889935 0.4207549279088308 -0.37396478873075023
111889000.0 0.4752276739737848 -0.869410594932835 -1.0345426469488606 -1.6865530853619892 0.000762488632545458 0.001969681541097179 0.4187226245867077 -0.3984890154925466
