! Created with skrf 1.9.0 (http://scikit-rf.org).
# Hz S RI R 50.0 
!freq ReS11 ImS11 ReS21 ImS21 ReS12 ImS12 ReS22 ImS22
1000000.0 0.9649239087861607 0.0016913670666417976 -0.013083840551416393 -0.039496100154763535 -0.008638951526338094 0.0045237276452590215 0.3741839600170595 0.2686725082157675
1999000.0 0.9946907516311525 -0.013677722059725412 0.012944508674444319 -0.03270171847009322 -0.007864515651745152 0.001295531090038186 0.28140822609114313 -0.0870189533391208
2998000.0 0.997123984673458 -0.020632177710692895 0.013004663341566086 -0.015461511617643572 -0.004482389932695408 -0.000911380660869461 0.19844786556195174 -0.149352492175074
3997000.0 0.9972524455765873 -0.026900685104207667 0.005574427996680544 -0.009906046937215881 0.002967541293085685 0.003347668494270504 0.08469371001411019 -0.22853632263921594
4996000.0 0.9977185228673431 -0.03768053511956878 0.01005584447718751 -0.004399494178904829 -9.161102046975632e-05 -0.0033813340635544266 -0.0565429670529595 -0.20289732342576117
5995000.0 0.9970048849329892 -0.047719419076165795 0.007611666631344997 9.332962564411265e-05 -0.0013031761674036902 0.00024030404185537439 -0.11555490448126339 -0.10540313594635643
6994000.0 0.995959796671605 -0.05939214930321453 0.005984402215059329 0.0049604200456607505 -0.001853245501388371 0.0019639303405120474 -0.14851687127678045 -0.011345018508853076
7993000.0 0.9979230389581986 -0.06764064842743388 0.006034133332674386 0.002552715625761692 -0.0007072775914925915 -0.0027299883849621846 -0.1487885661968657 0.03484655171922913
8992000.0 0.9973389589007762 -0.07157845251838055 0.0010549195139546743 0.004350879004382636 -0.001767560930799336 0.0036449482344900024 -0.15806837760170847 0.06885988538513342
9991000.0 0.9928487019487551 -0.08180305605221638 0.002461768478485023 0.0067656701989039884 -0.0005445120280356545 -0.000459896170748897 -0.1375565105612434 0.09378566899278659
10990000.0 0.994023482462939 -0.08868880268157293 0.005453424243357885 0.0008363675185709185 0.0009754290460307754 0.00017300557339141193 -0.1322802366408478 0.10495322213367873
11989000.0 0.9934687200911079 -0.1009641865689807 0.003163083117145934 0.0003424303096505315 0.002139093639794945 0.0008994712921782515 -0.11545764234522786 0.13052380638060415
12988000.0 0.9917625348427616 -0.10935851950012934 0.002795918118928374 -0.00529839408104456 -0.0008933737465077605 -0.0010762767271081761 -0.10733129807187881 0.1653778319370692
13987000.0 0.9889786257218272 -0.11593872444255282 0.0037252987292927344 0.0004068511854645881 0.0024268238467541267 0.00038772115260132984 -0.09701767006269593 0.1849412896825527
14986000.0 0.9885559633286173 -0.1228467599427409 -0.004804933420115684 0.00044130695841374727 -0.0005207625364112208 -0.0018985531186910605 -0.08362573431823975 0.19592977414036686
15985000.0 0.9903055584225053 -0.13449460470401706 -0.0028222539643374817 -0.0022493325497536746 0.0011496235151699328 0.0008076398515039533 -0.06021323323616634 0.20665916884863117
16984000.0 0.9883401958601123 -0.14233223141367102 -0.004718046198292261 -0.0030667341750435337 -0.001464601781930112 -2.3642042515841787e-05 -0.045247134267346674 0.21384364840893152
17983000.0 0.9869478079161474 -0.14611825284170146 0.0016211523302282975 -0.0060676333245422275 -0.0025831972307417527 -0.0001567785556896759 -0.05983352586040802 0.2322369655353598
18982000.0 0.9848966205627081 -0.16097697051801269 -0.002608818157612657 -0.007002909168632027 0.00030299379040450545 0.001293483449881486 -0.02277478311879173 0.23931801314648674
19981000.0 0.9853864277399906 -0.16242949632323644 -0.00039263381590580774 -0.004977957761989975 -0.0011538881198012922 0.0051204920580234705 -0.01893370775904687 0.23830570942322177
20980000.0 0.981894583415458 -0.17516537013172478 -0.002847098505090605 -0.002044400468624199 0.0015530566411196185 0.00219205810232627 -0.008942483785784446 0.2616922486311839
21979000.0 0.9802168271587287 -0.18312289254998945 -0.004152873664188848 -0.002875407908556053 -0.0033647645391056795 -0.00021287551715014845 0.015638015962576295 0.2430093339050873
22978000.0 0.9784288917936537 -0.19213403214538186 -0.00492101295374075 -0.0023725224857977087 0.004297981622341439 0.0027641352579270166 0.0321019939771785 0.2516633521273592
23977000.0 0.9789896240838146 -0.1996863639842019 -0.00982115623443949 -0.00021131615703744367 -0.004495408029920988 0.001805465986116024 0.042656844611059015 0.2600658086488648
24976000.0 0.974661640280129 -0.2100478765125901 -0.004570387424896187 -0.006021736569034782 0.0014062931800885318 0.0011805299859116174 0.06468508557654667 0.2605053959348344
25975000.0 0.9687336708669416 -0.21825119734072496 -0.004358173005356851 -0.0014688265075150427 -0.006538482342394261 -0.02355559994652436 0.0666401759922224 0.26011125156635506
26974000.0 0.9736308306678922 -0.22440266221671712 -0.0031095164357827806 -0.002567211477867913 -7.640568394409756e-05 0.0005628719669512727 0.09147243996139484 0.26376974171854706
27973000.0 0.9700461372752796 -0.2315267201800033 -0.006202264213358506 -0.0009966114874179356 0.0007150826515186503 -0.0005709909311942325 0.09678490124762265 0.2694006144953792
28972000.0 0.9665582164521546 -0.24140680648405502 -0.0032260139994858108 0.00014427456199054292 0.0009587689501358149 0.0005811248076424437 0.12093463463729855 0.25176722922203976
29971000.0 0.9663867251029354 -0.2509336027454744 0.0012530563936737622 0.001692156948977637 0.000838743072579473 0.0009445677039180118 0.1506171425093322 0.2693261174270396
30970000.0 0.9638332736385703 -0.2560266375753835 0.0013606387036857962 -0.0010529467597804915 0.00032111711773655184 -0.0022263930916890146 0.1681733290905353 0.24492965996711485
31969000.0 0.9608543139838 -0.265134538209795 0.007650169708875297 -0.004762341432017118 3.525489243033645e-05 0.000229198832230283 0.1510422482660042 0.2446438871722544
32968000.0 0.9597585307849661 -0.27329485344858445 0.004007215564583171 -0.007378161059035129 -0.0007825486091815346 -0.0010297046951762653 0.16103942965964177 0.23726480411746131
33967000.0 0.9575099006759222 -0.2810788609493528 0.009689202902523689 -0.007818077571495857 -0.003228817740117205 0.0019614098251269224 0.18449496352870576 0.24233793375685433
34966000.0 0.954385545470618 -0.2940246958450103 0.010642160906402848 -0.013015197866042258 0.0006326727913485692 -0.0010331825298983766 0.19011283466134785 0.2502837169034914
35965000.0 0.9517113217194536 -0.2993483606369189 0.014259894256873764 -0.013621440666566027 -0.0006286174912969038 -0.0003302633659196658 0.20512389650890936 0.24828323667336513
36964000.0 0.9505240700455462 -0.3088183056654018 0.016877830082427516 -0.013704832252483241 0.002363430960824232 0.0011445054222752494 0.20782131547158153 0.249066594573944
37963000.0 0.9464057173846809 -0.31685711453995713 0.01842934586300237 -0.019176573889562166 -0.002815691101189148 -0.0009751492837920992 0.2380493873801247 0.23159071569030418
38962000.0 0.9435111845613046 -0.32730531836150173 0.023181728188463275 -0.024494938738772287 -0.00037933584716814543 0.0011086252502776697 0.24322931344501753 0.22792130249291181
39961000.0 0.9412582604503502 -0.330910478338146 0.027633432811967354 -0.026015694006627732 0.0013944267954537858 0.0005302268824988844 0.25142065788381673 0.2266652068542254
40960000.0 0.9379926514128212 -0.3416556494418697 0.022559067050367865 -0.022643363900202794 -0.0026439413818812795 -0.0021139760524130145 0.2692035787917262 0.22663822935622951
41959000.0 0.935662050046782 -0.3508248452237285 0.029076131155252618 -0.028252431510624856 0.004775198951888722 0.00011027657361206618 0.2698449792389475 0.21396852489450868
42958000.0 0.9315171309737901 -0.35903162427752633 0.030970147384619416 -0.04084508872722584 1.1886884943555539e-05 0.001308129598558835 0.2786028724865899 0.20272845140044093
43957000.0 0.9300181488699744 -0.3626659221893701 0.033204751417263 -0.04606967536989783 0.0032352281179320467 0.0022342061757684465 0.2871415668011862 0.20765001975188907
44956000.0 0.926516227012184 -0.37130570577908883 0.03451502900176117 -0.04973654638450066 0.002271746392173437 0.000112401325146384 0.3034716356267348 0.19555593428488505
45955000.0 0.9226289471011403 -0.38361721732612736 0.03498647238802349 -0.05484302090095028 0.0013290187544809824 0.0025981348084227304 0.2997755108089071 0.1900401172285969
46954000.0 0.9192885430692358 -0.3919574059086545 0.03879866978910632 -0.0627793947613856 -0.0002353702567459239 0.0009922937507937646 0.33104185802687897 0.1783404502492682
47953000.0 0.9149289147091499 -0.399539176581142 0.035155456115053815 -0.0701232798829499 0.0013221729096374495 -0.0012381604617418703 0.33359185981500916 0.1766382374067498
48952000.0 0.908943513851089 -0.41113352607764236 0.04005826455704122 -0.07758193869637504 -0.0026827350049010578 0.0008422243205272101 0.3310865260823932 0.16330712981279408
49951000.0 0.9067918840769508 -0.4139030158831582 0.03962350043487635 -0.08290027392890421 -0.002612351185403378 -0.0005164805081922899 0.3457667204773724 0.1655039874786183
50950000.0 0.9032328224690762 -0.4221009236314773 0.040176765375514914 -0.093180555009942 -4.2303758051071874e-07 -0.0014940451381454363 0.35361136180951563 0.1405893694459856
51949000.0 0.8983433740555921 -0.43169008732007563 0.03995506779801645 -0.10231601764834238 -0.00010448395960687734 0.0018545478913411966 0.3573124022273791 0.13893056387814628
52948000.0 0.8986816469660219 -0.4391696110256702 0.04284358153784405 -0.10809264188380313 -0.002761675537708642 -0.0012778445592565965 0.3704906410258455 0.13624666129215104
53947000.0 0.8904909108417829 -0.44722817964901534 0.04675263714673276 -0.11615206173299701 0.0024795602090864517 -0.0016230637394493027 0.37661670232950056 0.12221161735061177
54946000.0 0.8854135590358337 -0.45646718973492284 0.043448731644178555 -0.12839574469643514 0.0016187367763137955 -0.005086965949670709 0.3908834862387772 0.13190095582602746
55945000.0 0.8839569523052413 -0.46452498370833545 0.04978011843180652 -0.13668217841458086 0.0029609301473404637 0.00529202908665196 0.38474524343417843 0.10144636726795479
56944000.0 0.8799471669445491 -0.47240996087218756 0.04799698210047168 -0.14795701353885526 0.00045250872392082326 0.0017471251279686719 0.3938879025945176 0.10681265709597253
57943000.0 0.8750859297133309 -0.4829660810406412 0.049910520496376655 -0.1595304143936847 0.0030267160602237657 0.001673212380955725 0.4049754536015363 0.10062180061119914
58942000.0 0.8707136701903778 -0.4867165924155471 0.04886429183224139 -0.16871616935558828 -0.0020451220734506097 0.0023829112124636705 0.43018159456119925 0.0911376598033106
59941000.0 0.8671289035653684 -0.49717978657475803 0.052946960345723666 -0.17787148682008694 0.0005487694983213916 -0.0024591455535077807 0.41810765675606104 0.09568647250220826
60940000.0 0.8588174825693627 -0.503745554061991 0.05013859136163893 -0.1827327036078397 0.0019578448506578617 -0.0025739597220144094 0.407043909288592 0.07192282894401805
61939000.0 0.8573101934708539 -0.511194576916625 0.05340000319917723 -0.18866808519558328 0.0018788622631932322 0.0007097802617411994 0.4231512916624214 0.07040860539212819
62938000.0 0.8511970888688339 -0.5208193567891101 0.05876260326171025 -0.2070770780031359 0.0016483670205901717 0.0002062408766265326 0.44190765364812473 0.043918849010635704
63937000.0 0.8466945850999977 -0.5277420712766252 0.058555147793276655 -0.22686174142800616 -0.0013595960051432795 0.00015033558951371256 0.4342931518516194 0.04185192119588182
64936000.0 0.8391330764303332 -0.535346789184884 0.058171165427266455 -0.24077058326017237 -0.003600445294624054 -0.000720305032035394 0.4438938631718021 0.032027309486839434
65935000.0 0.8361174125901972 -0.5453699527884477 0.058084363095987177 -0.2563045567210687 -0.0033796660010837628 0.0002310909250370692 0.44682199504445447 0.017230298270591367
66934000.0 0.8326310586207729 -0.5478481962159327 0.056670959020634244 -0.26942901535204333 -0.0002333201999899561 -0.0027125094125192727 0.4346128228077246 0.012341135096149036
67933000.0 0.8283695817684005 -0.5588051142087419 0.05819659508614272 -0.2841493077427245 0.00030911968596924235 -0.0020759832566317284 0.45615557674025065 0.005413660615451528
68932000.0 0.8260917278658513 -0.5555678066641482 0.059984816808506064 -0.2948507343873167 -0.0005144187877868564 0.001600531949644524 0.45028653235537935 0.004717845018428517
69931000.0 0.8156482974948692 -0.5746726553036271 0.05851568325538852 -0.30827226303239647 0.0010607557711857527 -0.0019048115524796987 0.4539097668109536 -0.021439088705346897
70930000.0 0.8093055276546435 -0.582080482027734 0.05444046009381719 -0.3245509815362349 -0.0017824812950108467 0.0015526839355890995 0.4534499688457303 -0.0381143154991169
71929000.0 0.8069430842827031 -0.5889554057085462 0.05486016925234316 -0.341201742281021 -0.0028616782235759207 0.0027602503454779896 0.454908363132623 -0.044831125324796196
72928000.0 0.8004091456554044 -0.5974007229081545 0.047424496603569385 -0.3557264761143146 0.001265347138299897 0.002691180770311846 0.46954013310893883 -0.05325530477473585
73927000.0 0.7949237784293043 -0.6040719514442616 0.04349354894737108 -0.3775099689329709 -5.527064626004118e-05 0.0012583949890881824 0.4654709262403763 -0.05657721469086485
74926000.0 0.7900283160468776 -0.6133032612925965 0.03702257474279626 -0.3936330768163469 -0.0017709170543187154 0.0002828499161165235 0.4576490604152752 -0.06096763340843889
75925000.0 0.7810087343855074 -0.6176458760855995 0.02708062795222885 -0.41470217990895036 0.0013127359310986645 -0.002902693125306656 0.46624392406082116 -0.07383143806243528
76924000.0 0.7771481747249862 -0.6273452412050499 0.016246833487723916 -0.43685730331621125 0.00041201440686094125 -0.0025982039210652864 0.47322457362755865 -0.08749179485537661
77923000.0 0.7714944586226443 -0.6314434118070699 0.0022108569947814024 -0.46255321809132255 0.0015622733858619228 0.003801401409036873 0.46250534599687176 -0.09820574981799167
78922000.0 0.7657727601386793 -0.642076501689315 -0.010178650029285322 -0.48917176872724505 0.0006107361969786175 -0.0007111014945787242 0.46344412998935686 -0.1029756735467563
79921000.0 0.7564791127726261 -0.6469718870714093 -0.027725580042861995 -0.5076097907847886 0.004209786802571402 -0.005211201411324999 0.4638300292482105 -0.11589295191945106
80920000.0 0.7522307278944038 -0.6572862778854093 -0.04168892204152127 -0.5404786068818136 0.002247689098439985 -0.000641031242700422 0.46998687294799046 -0.12259432664511612
81919000.0 0.7477101489934904 -0.6616090004618531 -0.06025266186060836 -0.565892478948741 0.004942511027822324 0.00025238861483672557 0.4602523393398942 -0.12538107210083543
82918000.0 0.7369322171015548 -0.6715523915040339 -0.07270783673512879 -0.5953906792025702 0.0018102636631763573 0.00020572961876442566 0.4791203320943978 -0.1409466924009002
83917000.0 0.7310869890470476 -0.6778719852591063 -0.09277341503476638 -0.6249946554353781 0.005440885283631876 -0.0036779107909869265 0.4824129787979669 -0.1601327402634212
84916000.0 0.727686698419078 -0.6830580119930825 -0.10312074410881761 -0.6607815070251617 -0.0017185304340788404 -0.001278690296688292 0.4763127722918331 -0.16305561853756625
85915000.0 0.7197078525215238 -0.6910024056715407 -0.12932041326513039 -0.6891507293262744 0.003342741562160387 0.003145501382276844 0.4672789604187014 -0.1783103706995689
86914000.0 0.7117411981729896 -0.7007459137314159 -0.14084704230882122 -0.7277620758646723 0.0012332590043446937 -0.0027643951595064577 0.4673724070997454 -0.17657968315406472
87913000.0 0.7050082306513569 -0.7068992823046599 -0.16340860787310613 -0.7535338142492171 9.617190480795214e-05 0.0005783188172371795 0.46817400421210914 -0.19609044783976615
88912000.0 0.6979379309343557 -0.7126508096929873 -0.17427755441069018 -0.7907668040134391 0.0008080659185161359 -0.003772055152172178 0.4705296350600156 -0.21254197187211876
89911000.0 0.6895322551960626 -0.7236161957600397 -0.19055774650540003 -0.8254330127010815 -0.004105234020376751 -0.002099175649735232 0.4724804466502495 -0.21837952750471068
90910000.0 0.6834017071579409 -0.7273780906149234 -0.21016094577273517 -0.8581180591479878 0.0036719703725838623 -0.0019389578042253335 0.4712342002280988 -0.22404137221590148
91909000.0 0.6746325239238301 -0.7318481480322012 -0.22690541048848548 -0.8923498727937669 -0.0012267737405499356 -0.002537794813119674 0.47073119492055104 -0.22388993609063854
92908000.0 0.6669868073327869 -0.7395675592270228 -0.24482519174316367 -0.9244307911541692 0.0021039018317990953 -0.001655158974344281 0.45784993090512405 -0.2382172379387628
93907000.0 0.6604769828925217 -0.747096121546747 -0.2599153430812351 -0.9524841065639698 0.0006404554032724132 0.002486916056809954 0.4673370046741829 -0.25425470035215236
94906000.0 0.6475790447870741 -0.7547540136161321 -0.27784778159899376 -0.9910145350652118 0.0016379953075858268 0.0011652728771952138 0.4666879277212018 -0.2626148147464082
95905000.0 0.6435320911221987 -0.7610621320555178 -0.29719804720142645 -1.0285004468835484 0.002773827616387499 -0.0020450439765359687 0.46899164471883387 -0.2709563008474302
96904000.0 0.6330226478908927 -0.7705938096184026 -0.32004136868107863 -1.0660195006948707 -0.005151243843973492 -0.003262108522478246 0.4413278919200903 -0.27414250264847495
97903000.0 0.6237778998533203 -0.7766607754268148 -0.3404802926154264 -1.0972539369724374 0.0003583445863612411 -0.0007137882225972848 0.4547347342343902 -0.28038558736635966
98902000.0 0.6220741352590344 -0.7809917069020159 -0.35505026485486935 -1.1363077154021648 -0.0002949247917738843 -0.0018734005435200266 0.4482770457625845 -0.2908334694741473
99901000.0 0.6107836722567379 -0.7872100150084308 -0.3864333028260281 -1.167091693007866 0.001621608141332017 0.0023137847214608626 0.4654152202426894 -0.3146943417229629
100900000.0 0.6029525621562005 -0.7918248835539795 -0.41335374322832125 -1.196751591521037 0.001185166958628899 0.0008824398237632557 0.45731571473584004 -0.3187107242432356
101899000.0 0.5949656236072053 -0.7990757829941345 -0.43248174474573775 -1.2370545245936748 0.0002833171674784766 -0.0018714042847092053 0.45149140509648694 -0.32371726651199795
102898000.0 0.5840088629273534 -0.8060309485871493 -0.47645710538303393 -1.2738471309992503 0.001071204907257526 -0.00011563994195949468 0.4577223736283022 -0.34098417987360197
103897000.0 0.5768432573337281 -0.8143513801158653 -0.5094768098033826 -1.3086573287979433 -0.0015637053271577287 -0.001926802608550897 0.45707444592274316 -0.32364915966122537
104896000.0 0.5683458843936052 -0.8215984848469785 -0.5493628197161252 -1.3418463984653937 -0.001328448131132955 -0.0012597204195333818 0.4490723931194613 -0.3362325678127567
105895000.0 0.5598627677317132 -0.8264366435461257 -0.5927437575749587 -1.381654430127852 0.0009455932806581445 -0.0009030401618018811 0.43431667416080716 -0.36277030149103345
106894000.0 0.552731375133842 -0.8312183328702826 -0.6404824819966526 -1.420438308369782 0.00040962896404556537 0.0019678088706487624 0.43456804147367495 -0.36767921339359716
107893000.0 0.5429757040158216 -0.8367998999453352 -0.6914755469972289 -1.4618740426961836 0.0017337404997080717 -0.0001608291722543091 0.4338744454739023 -0.3794501916796377
108892000.0 0.5321636342181891 -0.8412365163190965 -0.7480438290891311 -1.5005296893249631 0.0030431076330932937 0.0018011107375198593 0.4279973802227545 -0.3633525358538989
109891000.0 0.5204335570000566 -0.8494562690058087 -0.800956385924284 -1.5344196467404574 0.001076545290790577 0.001365002323982136 0.4448164671977859 -0.3820182992785569
110890000.0 0.5023035346454886 -0.8542988677123765 -0.8755102029314624 -1.5341584749506516 -0.001877179912903854 -0.0009205623182116893 0.44022186213494746 -0.37937475184234304
111889000.0 0.5023040483976111 -0.8548313830068305 -0.921627003270142 -1.6044461914764538 0.0010780084033626292 0.0010672938426766804 0.42521308177924927 -0.40526385385794456
