! Created with skrf 1.9.0 (http://scikit-rf.org).
# Hz S RI R 50.0 
!freq ReS11 ImS11 ReS21 ImS21 ReS12 ImS12 ReS22 ImS22
1000000.0 0.9951144536914899 0.016315190280768405 0.003571913792568893 -0.055155020181470844 -0.01202529200486752 -1.4570344917119664e-05 0.2603814775580453 0.32000042138361184
1999000.0 0.9954707647721429 -0.012511091188420288 0.01084313042653387 -0.02467363436308432 0.00015532888476229187 -0.009732192987462153 0.25686058150301816 -0.03885716460089907
2998000.0 0.9968630338022938 -0.020260443393150616 0.014231846407279961 -0.018392831648487203 -0.005945853585918343 -0.00333494839969406 0.19878171955159854 -0.1283175998883615
3997000.0 0.998906035485181 -0.02883196214911783 0.015446389726168045 -0.008045644254559746 -0.0008327290578805851 -0.005267764467302739 0.09265257243609257 -0.23102303096709778
4996000.0 0.9967754320922247 -0.03883526204827831 0.015738870724991468 -0.006014797947138913 -0.005778608409003371 -0.006458228241769992 -0.03090351793547265 -0.2154675082391123
5995000.0 0.9965549757938975 -0.050477854316761765 0.007716788343923024 0.0037941932830568557 0.005229872198592073 -0.0008454622819367623 -0.11429244155260226 -0.1325242107840865
6994000.0 0.995612261415427 -0.05745838693784659 0.00809254046322834 0.007728848216339357 -5.7145967877206607e-05 -0.0004805838876040969 -0.15057009931966328 -0.034308477134328455
7993000.0 0.9956885430858857 -0.06566752752728182 0.0038299382152373446 0.006831258516369044 0.0047162096196594425 -0.004825055794685874 -0.15804249094057266 0.0248188694083555
8992000.0 0.9956245698510631 -0.07296933442430344 0.00911716827330088 0.0029881627691301996 0.003188915704697964 -0.0025952266209583103 -0.16348434921179375 0.05444551643575688
9991000.0 0.9941668644511514 -0.08287326845042355 -0.00479523999720174 0.0048349722036674266 -0.003995039298457007 -0.0037001751483252986 -0.15850146500813206 0.09272529476273395
10990000.0 0.9943975470371669 -0.0918962390931496 0.005642007619127067 0.0011836445423826 -0.0008283469883964656 0.0009746175559359197 -0.14162024830569098 0.1182268918259904
11989000.0 0.993349091723606 -0.10021837020171002 -0.0002717126918923706 -0.002221777842672305 -0.0008994267531475923 -0.0021066210463836113 -0.1256682669891761 0.1332597161708562
12988000.0 0.9924070861984756 -0.10958539733035345 0.0019587059733660963 0.00026229834632336745 0.0010356497658696986 0.0017699095724511007 -0.11495670022428875 0.161556717045572
13987000.0 0.9868180855914169 -0.1189256967130781 0.00036208589371348803 -0.001698004651152259 -0.00015842635237013294 0.00025862922600258163 -0.09336689538383296 0.18362442547764282
14986000.0 0.9888137950323225 -0.12212740758640606 -0.001920291543646789 -0.003510301141369303 -0.002525972027949878 0.00325055277719264 -0.09057719153441557 0.2024521341872883
15985000.0 0.9899169139821405 -0.13136761006075756 -0.002754855070803964 -0.006059741162035363 0.0025427159119364067 -0.002792223504894514 -0.0728285100270391 0.21442710163281942
16984000.0 0.987610991499992 -0.14273783097134016 -0.0016768687115089485 -0.005179419893999937 0.0026194661194716994 -0.00035620797726732364 -0.06864466358104658 0.21823149149803048
17983000.0 0.9858769659512754 -0.148680968878696 -0.0011099949544656638 -0.009166705262495394 -0.00045882979411798893 -0.004077882933990461 -0.0518821567668797 0.23261424228852998
18982000.0 0.9842906736820866 -0.15838943629063232 -0.005984784725828914 -0.0015011468991690735 -0.00039137630291258984 -0.0015879795079327922 -0.0328251356463196 0.24178456909201365
19981000.0 0.9843702533891883 -0.164835152717814 -0.0039701956753388145 -0.005109606504176321 -0.0008622338516548673 0.0004241261252191526 -0.021011274932394033 0.2392005065456078
20980000.0 0.9804549291625873 -0.17547716594983515 -0.005007087539517012 -0.000502929710510805 0.0012844753933130193 -0.00560391277827139 -0.0068999977442078435 0.2597963957692601
21979000.0 0.9796311754551412 -0.18298684078746832 -0.0059888213786262155 -0.004919647101887451 0.0005294470364217189 0.00019725114813926703 0.005135537300659893 0.2490094564743346
22978000.0 0.9792579991620081 -0.19146766515059555 -0.005558058689516181 -0.001678633831451538 -0.004829905515980241 -0.0019288621769073203 0.034302937191628004 0.259129516854096
23977000.0 0.9809429015662695 -0.19698887995708794 -0.005606227107265441 -0.005788355596243388 0.0007301363266777907 -0.0015368526235350162 0.042362453820791485 0.2546149008508365
24976000.0 0.9751710276881685 -0.20959092851934494 -0.006892018939403536 -0.006118493149412113 -0.002231697496546027 -1.6368659892828342e-05 0.06505536157040187 0.25826356456330474
25975000.0 0.9680551042236821 -0.21592965209872442 -0.0014162233846863118 -0.002612847786834826 -0.020420170059789234 -0.006038198518240954 0.07412546692888322 0.2729729823843104
26974000.0 0.9711181757423847 -0.2271431574685507 -0.0058754030369302275 -0.0029876899582840016 0.0012190069605900174 0.0014666337309066255 0.09157133739654726 0.2604351179695582
27973000.0 0.9712808645133936 -0.23225548739074978 -0.0033285101691027043 -0.0014258573437338972 -0.002225137910710462 0.0038948043161266886 0.10811556066475579 0.25359245340140846
28972000.0 0.967051588199697 -0.2417397243699169 0.00046270536717742144 -0.00014411042808626864 0.00019991251890282612 0.0033552856317437306 0.11757476871021061 0.24963413172028476
29971000.0 0.9666458426825736 -0.2500737027048171 0.0013285250553504947 -0.0013537284778735968 0.0034930198354905743 0.0013971185712635139 0.13252414719787808 0.26732614476230177
30970000.0 0.9621401096239217 -0.25733078696080636 0.00013379076693830635 0.0015558248561718185 -0.004236065875453314 -0.0031915450279793875 0.15931403691236604 0.24201584818495933
31969000.0 0.9626050406687257 -0.2654309434639469 0.004259455011797512 -0.005906392042751061 1.3253877460351416e-05 0.0006598574679643066 0.15262837905245014 0.25199938240563524
32968000.0 0.9610856118641977 -0.2739908375066961 0.00887672235715072 -0.007910011666291052 0.0036102068450137256 0.002773449591378224 0.16321482373096033 0.24824918291803405
33967000.0 0.9560800577884693 -0.2834192374825628 0.010329700435974098 -0.009594074477276927 0.00318261926575254 0.00039186880439984423 0.18055900582816842 0.24541461004460072
34966000.0 0.9534751670480687 -0.29254917182698936 0.017471000177991882 -0.01217026621034263 -0.0011730966655572543 -0.0021811174625082554 0.19843353031808286 0.25304341920410117
35965000.0 0.9515231866611734 -0.2997383108899589 0.0194339662340846 -0.014532627702602849 0.0007462931844740558 -0.0021032950762393215 0.20987899678892605 0.24764434910345517
36964000.0 0.9487936099642902 -0.30803743569723835 0.01410338200764848 -0.013623892519626582 0.00127231287115607 0.0017365399777691838 0.21447455453593342 0.24376144707810735
37963000.0 0.9465004020386558 -0.3165058670256575 0.021953781904570147 -0.021524938358484756 -0.002427442277028135 0.0005038721053208476 0.23436178698823784 0.23894359630607348
38962000.0 0.9442498668351759 -0.3261391457763891 0.02412557340424371 -0.024688769511995702 -0.0002601841833545327 0.0017257529016484763 0.24183554270997848 0.2364598368014538
39961000.0 0.9403272290662913 -0.33559390460124633 0.02651219618674841 -0.030257196934867628 -0.0017430651803366727 0.003605983210457015 0.24546872999391914 0.2282294202007542
40960000.0 0.9367395997813875 -0.34041563669638625 0.02430597931884531 -0.02406773607637129 -0.0002242551905476715 0.003319081523327414 0.27069028462729827 0.21881708904560498
41959000.0 0.9351068868362468 -0.351613202255579 0.034003134810207204 -0.03322466438068074 -0.0035825388641248326 -0.0004833072310695908 0.27509723843237655 0.21229371434849448
42958000.0 0.9280173798229825 -0.3622709264990583 0.03240602029776841 -0.04112068592838186 0.0038244694561793166 -9.682164330604701e-05 0.28457019380166854 0.1989960257384072
43957000.0 0.9276216175266876 -0.367368002529033 0.03384661540566877 -0.046905058653419734 -0.0006656503240507131 0.0006205442096419728 0.2850892552554866 0.20211778355669746
44956000.0 0.9247502529318549 -0.3758817259437741 0.03734563833936161 -0.0501497144712271 -0.0022769881708550213 7.037836320421826e-05 0.3051234397212061 0.19572644303389236
45955000.0 0.9203069950287065 -0.3850682681775174 0.034396971281099406 -0.05830193744445567 0.00013135265617347441 0.003151963643574775 0.3107175575624871 0.18982566713540752
46954000.0 0.9167098856494091 -0.39196759959165894 0.037125149770154256 -0.06511297184949873 0.0013981887613035585 -0.0010848919434507849 0.32636572755913335 0.1744660170199273
47953000.0 0.9162300417830003 -0.3998582711403148 0.03665014255415022 -0.07407751740474615 0.002805412468747697 -0.00013361546603574798 0.3344274275680863 0.17343684481445226
48952000.0 0.9075624562343061 -0.41106508004688663 0.039621134823370034 -0.08060535514237459 0.0028088483436893032 0.0009243591261462497 0.3340772574223549 0.16122445219679807
49951000.0 0.9060902672647169 -0.41676948040392076 0.04033239752477189 -0.08936033093220824 -0.0014743256030315503 0.002977519384831215 0.3466866588714445 0.14733747996200652
50950000.0 0.902684701110758 -0.42607146666443335 0.040480009841111116 -0.09573071905252539 0.0013912926415677173 0.0014613608063443891 0.34931723226137124 0.14344604170995873
51949000.0 0.8984679365367785 -0.43391375302972734 0.04061265467096124 -0.10646128554614231 -0.001340180916214272 0.0018698077680914353 0.36157389709721355 0.1414789201080274
52948000.0 0.8955586629035183 -0.4419443464266316 0.044182951826603166 -0.11345541321209872 -0.0019364576805018263 0.0007464142838193062 0.3772637962277078 0.13262164313888816
53947000.0 0.8913854968905256 -0.44917811626372733 0.04544708091989985 -0.1228650669600602 -0.0015263051884706806 -0.0008268163566696537 0.3740279840766388 0.12625119341838179
54946000.0 0.8849352011997722 -0.4604219244644185 0.04725133025662411 -0.13228450445150194 -0.0011713963680611335 -0.001972654725666199 0.38877192522678955 0.12180362869986912
55945000.0 0.8833900177797993 -0.4649174569480114 0.047632829402360896 -0.1436346818330642 -0.00047801647180034033 0.0059777374390212685 0.3924841959393825 0.1071405469421656
56944000.0 0.878394159946923 -0.47399318203972035 0.05181008672785969 -0.1542889973757418 -0.0012714717559274993 0.0011197178430205714 0.39873853070362736 0.10138986621330758
57943000.0 0.8743890485693457 -0.4843832167684944 0.047997699148510015 -0.16665587514377977 -0.00021298868426197998 -0.003175005711692083 0.40677616515443443 0.09783144392015423
58942000.0 0.8690272537707697 -0.4875072887287268 0.05090554833031489 -0.17748992738730268 0.00021381667069462118 -0.00106142173110836 0.4171068867478591 0.09077192016124068
59941000.0 0.8649744684696424 -0.4983423404093411 0.05382952088533908 -0.18621064550090802 0.0025913143866399114 -9.168913434545823e-05 0.42499645771203326 0.08782823068873649
60940000.0 0.8583740316460127 -0.5065794030838304 0.055819210502528124 -0.18896531064953284 0.00015821295144465036 -0.0004624420565272721 0.4105483399993227 0.06701952481785092
61939000.0 0.8557780245219377 -0.5118002817225971 0.05510266787541147 -0.2004495017237561 -0.0006316122654007514 -0.0014252017551558555 0.4169808010921922 0.07072892361314173
62938000.0 0.8491783612933277 -0.5227433809510921 0.057508023719187916 -0.2161710450918978 0.0005747546149301125 0.0006229240248228817 0.4384901760943803 0.04664566198178954
63937000.0 0.8448889351677965 -0.530294225723821 0.061064823420858436 -0.23689252235893685 0.0004482307014174907 -0.0025778016231802602 0.4337674694249961 0.04069662694923314
64936000.0 0.8366313574232632 -0.5354934248206115 0.05819122376203661 -0.25111085723687177 0.0004799010999014283 0.00010284889665543015 0.42752414791946475 0.045482052305778564
65935000.0 0.8347269781677692 -0.5440840320611371 0.058887761148126376 -0.26603000131603805 -0.002096180187652456 0.000697347282078532 0.4369425428073181 0.014858930862166223
66934000.0 0.8320974745817006 -0.548975459305565 0.05864493115953391 -0.27996877243818374 -0.0019451953378845908 -0.0015738034759372127 0.4398446771314986 0.002510307695832869
67933000.0 0.8271106536557399 -0.5593438803984314 0.058840286336191906 -0.2959407885121024 -0.0030253401530060697 0.0025700222938739676 0.44170491566292996 -0.0016240717976492226
68932000.0 0.8240485334893877 -0.562946532959383 0.053032956769591695 -0.3107194630458875 -0.0012653078706610893 -0.0025513386638670887 0.45183891484709027 -0.005513232442397853
69931000.0 0.8121721373092675 -0.5758478431031033 0.05312797785633633 -0.32468473222789 0.001598941377893928 -0.0006416465852279332 0.44310235111259455 -0.027523567073527884
70930000.0 0.8071551415237 -0.5829500132162754 0.05307352866482155 -0.34164164889325827 0.004187096773662725 0.0013611029996599066 0.45113361624817344 -0.04025748332590786
71929000.0 0.804427899146212 -0.59152636112029 0.047673802429072674 -0.3621597296550843 0.0015010942773872487 0.0003270803257981953 0.4466065911666276 -0.04807635231602692
72928000.0 0.799057742796174 -0.5978064658219108 0.04303409043263854 -0.37558538214924647 -0.001605152585892043 0.0026580000769195035 0.4514560061137662 -0.0538650133218871
73927000.0 0.7913281999694002 -0.6058910021688629 0.034766026498394983 -0.397216337019014 -0.001076760993307629 -0.0014769516632209625 0.45032134853781053 -0.05514857768871064
74926000.0 0.7880267050322437 -0.6141096627720697 0.03313213842404957 -0.4174758486739535 -0.0006140570322938738 0.001428468918300794 0.46638280776081764 -0.06624869525187818
75925000.0 0.7791316521278999 -0.6187876708124114 0.019356341509199664 -0.4376779658446466 -0.0017435045257077446 0.0006545739959092572 0.4668636790977907 -0.08126720350347434
76924000.0 0.7735752661661995 -0.6286541756688596 0.01063398987491011 -0.4612173915309139 -0.000464422733365461 -0.0005493043764229026 0.46757383749909837 -0.09225362162737426
77923000.0 0.768882955470016 -0.6330743511939916 -0.006863212869619615 -0.48284493430893144 -0.0023363756050957564 0.0015992713153537889 0.4597186564671932 -0.09830038313759933
78922000.0 0.7620990779791502 -0.6444658749106341 -0.016859259301778017 -0.5149968493071443 0.0024065083617844656 0.00027806900558215137 0.466390990581683 -0.10338336172342501
79921000.0 0.7531161578793041 -0.649775326813134 -0.04027570569584905 -0.5393708638615006 0.001746089639907078 0.005132010328936329 0.45952198178115244 -0.11992625726638109
80920000.0 0.7490225948802964 -0.6598324553269468 -0.04531709930394754 -0.5681287431954453 0.002894851968224798 -0.0015910264971285084 0.4486150136953648 -0.12866591400642086
81919000.0 0.7435077241197907 -0.6659919070523374 -0.06978233846097937 -0.5966361704631369 -3.472884259913183e-05 -0.001311528472123928 0.46369486337510185 -0.12580402513252764
82918000.0 0.7342934910803106 -0.6727256800383719 -0.08197259701549729 -0.6279009791388567 -0.00024328656414274709 -0.0017656729231745093 0.47368722961720783 -0.14759755268152192
83917000.0 0.726127105402486 -0.6827940763017843 -0.10185738249131285 -0.6596451988834743 -0.0007005760158401327 0.0007513593951196499 0.4658817757574411 -0.15277123314647095
84916000.0 0.722179408273882 -0.6891021459473085 -0.12222038220710672 -0.6906220225956805 0.0005456974919884115 -0.004304731524043463 0.4715948299782636 -0.17328483773190506
85915000.0 0.7152050096510754 -0.6943127650302889 -0.13388124011565036 -0.7218655594257809 -0.002212326527169106 -0.0036254611505550415 0.462780549366291 -0.1713360938192356
86914000.0 0.7077353373893721 -0.7047734847590051 -0.15770601520598793 -0.7629660579526777 -0.0004924838491849367 -0.001319150911030648 0.4539687858919742 -0.17901646351318337
87913000.0 0.7013063653540998 -0.7107261868397856 -0.17262183160882746 -0.7908599580949927 0.0014275992780240071 -0.0032381808528841216 0.46208826139453657 -0.18673275264498854
88912000.0 0.6943459090690303 -0.7161147437164674 -0.1903462976507413 -0.823788327610713 -0.001278392509719466 0.003939580973011998 0.4597402892964533 -0.2127570950793732
89911000.0 0.6883304619941827 -0.725101577226167 -0.2027662447709212 -0.8666963740656234 -0.002271690089243346 -0.0008327617220054959 0.4655274931743007 -0.2053780742797327
90910000.0 0.6814908368618225 -0.7302697062033813 -0.2226948570753378 -0.899431218558259 -0.0017179330403306358 0.0023108780116095134 0.46501619716664405 -0.2131305515351397
91909000.0 0.6710507260254724 -0.7334604326892393 -0.2437316176222209 -0.9350863342581024 0.00015374030483501484 -0.0035994505644396943 0.4650933393087463 -0.2376717866231484
92908000.0 0.6640577650367365 -0.7446883467863683 -0.2669089879097894 -0.964584993722156 7.804873308683129e-05 -0.0024239196333623644 0.4515724106825469 -0.22439326713240132
93907000.0 0.6582640058325365 -0.7477852902720823 -0.28426523841724305 -1.000418090188591 0.0018435301691721937 -0.003024903908333609 0.46439742924147087 -0.2536138054501628
94906000.0 0.6443001794977603 -0.7572270818348704 -0.3065485533425736 -1.0324096696503648 -0.0002879715331215241 -0.0013845182798315227 0.45313204052492945 -0.2575870968424344
95905000.0 0.6399666505475972 -0.7628312056856941 -0.326100916184833 -1.0709630750349952 0.00019838371674987866 -0.0010772024663787696 0.4646594995591933 -0.2744966278543327
96904000.0 0.6297210324481551 -0.7717893084549885 -0.3522850888353281 -1.1106679459826347 -0.0014590276658830285 -1.8081466863103114e-05 0.45040280898841617 -0.27463969496841545
97903000.0 0.6228690672510416 -0.777240554092372 -0.37017988216998643 -1.1427965082798492 0.00027123785194819793 0.00033897935064473693 0.4397611784104909 -0.28920837371697317
98902000.0 0.6168674159606498 -0.7826871821002505 -0.39440917430174 -1.1816688887021691 0.0015669421245135908 0.0007809240483816813 0.44894935999359187 -0.2943964556619938
99901000.0 0.607427869192661 -0.7906589504666747 -0.42266207282978996 -1.2164507336490142 -0.002892809979857309 0.0032025225754298676 0.4559146922838215 -0.3114933636688724
100900000.0 0.5997727139863025 -0.7935233306730844 -0.4580400592298656 -1.2490305716393417 0.0015336844102407149 -0.0005046331109168229 0.45631424541403937 -0.31382719680935217
101899000.0 0.5890415649129582 -0.8026983800718007 -0.4897718771675673 -1.285808787341554 0.0005607562363219225 0.0004714839845414393 0.4408688844652165 -0.32964831763622815
102898000.0 0.5794725769969433 -0.8071285600655708 -0.524570253477196 -1.3243875307351964 0.000969271002575041 -0.000933198933262986 0.447916476787619 -0.34655669134957756
103897000.0 0.5728813465775444 -0.8143357544947291 -0.5627483184630332 -1.3597431317682869 -0.0012208712557126003 -0.0016254154481469467 0.44366841282158137 -0.34188074526123713
104896000.0 0.565588923284534 -0.8250705512983975 -0.6091672982244821 -1.397372353651626 -0.0024956178080457816 -0.002213447784399887 0.4345064496648627 -0.33920861574204764
105895000.0 0.5544161772764518 -0.8265651636327085 -0.6578194660198141 -1.4422325200152044 9.741747056437464e-05 -3.966987635548166e-05 0.43205627116129025 -0.3655747271505535
106894000.0 0.5459498555674207 -0.8331152915862919 -0.7088753402340215 -1.4816351297833419 -0.002903513778437878 -0.0012775426856357474 0.42341753310973257 -0.36728299599664094
107893000.0 0.5388380490142612 -0.8394983224637823 -0.7604327646738965 -1.522882912266867 -0.0004954725839502174 0.0027315256762986315 0.4285868543534802 -0.3873788476277309
108892000.0 0.5275452719149907 -0.8426014762585802 -0.8218355486699565 -1.5607388986064745 0.0004802490668120983 -0.001542191946135794 0.41658438078626087 -0.3663911282685862
109891000.0 0.5154799159277942 -0.8498312745086958 -0.8801267247203983 -1.5973924825580421 0.002616334071645779 0.0011566476814697812 0.4273251096569338 -0.37281457848867644
110890000.0 0.5044654559687426 -0.8676403721699726 -0.9698918818184518 -1.6192022465654692 0.0019213623614640297 -0.0010798239716034122 0.4258542914273852 -0.3931873843562122
111889000.0 0.4956387663660746 -0.8577926113735859 -1.0108055861745209 -1.667600799789441 0.000803955629790096 -0.001065357089845846 0.4223927836930965 -0.3995680600848833
