! Created with skrf 1.9.0 (http://scikit-rf.org).
# Hz S RI R 50.0 
!freq ReS11 ImS11 ReS21 ImS21 ReS12 ImS12 ReS22 ImS22
1000000.0 0.9917427799532765 0.012285719170930215 -0.010386718968310126 -0.0428808182982012 -0.020772600558512898 0.014576930106729247 0.37873225153820783 0.35372330266721136
1999000.0 0.9971042119557952 -0.010836621953939217 0.005826686662199958 -0.020403919897434928 -0.0006596607382622525 0.0007616874565570186 0.2630821211819164 -0.05265520545315031
2998000.0 1.0039773454852818 -0.021099426796410418 0.008793529433252543 -0.0156347130699262 -0.004468152256519124 -0.004698212170343423 0.20655057356700132 -0.12695618192566588
3997000.0 0.9968526955975171 -0.031487675282941094 0.017401157682299016 -0.011359398994918961 -0.001323839465620545 -0.0031677904573480724 0.09444300243358607 -0.2260373762167214
4996000.0 0.9935396360345619 -0.03581338321508335 0.014030137485299536 -0.005177004297776157 0.0005010579778348948 -0.001913185666607401 -0.04688643900659373 -0.21308564080662726
5995000.0 0.9972656320032579 -0.052517810001869794 0.003949189575244594 0.00469688281486556 0.000691282721607583 0.0031464981806457177 -0.11806530415786054 -0.09000949199791031
6994000.0 0.9932411390890439 -0.06126699851256445 0.008213588540938337 0.00320681324412047 0.001377427871548852 -0.004103483418265559 -0.14332642471340465 -0.01949047072706923
7993000.0 0.9954814282152734 -0.07217118498763486 0.005119359085351909 0.00630339530980922 0.0030107319822687373 -0.0015493070644466056 -0.1607834412393106 0.030688901920485193
8992000.0 0.9928237712909327 -0.07337446959051805 0.0050501228378820396 0.00048134752032523854 0.0006133747760339335 -0.0007882980407240156 -0.14826389139814364 0.06247895660876125
9991000.0 0.9921422257739784 -0.08435702421556945 5.46849403817256e-05 0.004718794057743509 0.0059579489419055755 -0.004082316205127456 -0.14080625625645757 0.08563791865552783
10990000.0 0.9909138120951679 -0.09550773444607605 0.0007280298082881642 -0.002202475334604204 0.004872027415651566 0.002750940139032386 -0.14811242165786853 0.11246731301423432
11989000.0 0.9895030233791288 -0.10037524955666775 0.0014905479591769057 -0.0020305749773385767 -0.004862219290746547 -0.0013369749418714418 -0.12589205118100086 0.12497848725056748
12988000.0 0.9887566048590829 -0.11067898948101768 0.0017832854545212322 -0.002467019720916921 -0.0017338497562224076 0.00032877937159818556 -0.115715252935367 0.175357801349424
13987000.0 0.985704727846404 -0.11757405619543203 3.0475005012693784e-05 -0.0009087595542669559 0.001851487440246222 0.0011623230528172849 -0.1031488111624613 0.19168950663187304
14986000.0 0.9857402315635349 -0.12640898902399578 -0.007506834630992193 -0.002935107084815867 0.0010555741854630335 0.002717737642504157 -0.07964542753851869 0.20098135681852827
15985000.0 0.9880677952319747 -0.13429912885206907 0.0028069244561753017 -0.004606260579768038 -0.0024996413312560937 -0.0040604377800769545 -0.06218988279092425 0.21588089602605207
16984000.0 0.9840629566078565 -0.14619816973616348 -0.005139829074610737 -0.003209281104669103 0.0005917936425240105 -0.0016120794891534235 -0.07354641717266197 0.22451569548099473
17983000.0 0.9836315016861191 -0.15087733279293522 -0.005709577857336368 -0.001972927401556946 -0.005063163510487844 0.0005859089579690778 -0.04553506581678792 0.22047230417923425
18982000.0 0.9827928539693802 -0.1650825480046888 -0.005982135625978936 -0.007633331608890943 0.003438127340516368 -0.0010988459619500099 -0.02182422286635954 0.23768915670339166
19981000.0 0.9819869842442569 -0.16834934395140802 -0.005978456074344291 -0.007156917001030251 0.0002609013118741173 0.0023248352786998405 -0.02145237341690727 0.23826912205023873
20980000.0 0.9794631152490937 -0.17808124263532268 -0.0020129767106760576 -0.0034909575143899706 -0.002307281773919322 0.004100694243873799 -0.001458070262469922 0.25343697193144055
21979000.0 0.9784684277425135 -0.18672586117646822 -0.008800308962210983 -0.004149660005172602 0.0014079440869015772 -0.002859884370155354 0.011986927122030318 0.24056157638920878
22978000.0 0.9757206799073456 -0.19611316485424238 -0.005238474386297998 -0.0035575680500307813 2.7366551324834207e-05 0.0003574844344668383 0.036975180888800176 0.25273918591039757
23977000.0 0.975718602291294 -0.20267574463838453 -0.008706887613288807 -0.0014069238684299718 0.0044455597840547196 -0.003492000292811464 0.030756508945203036 0.2587183930043506
24976000.0 0.9740461184594259 -0.21216856008166218 -0.0021273737710920696 -0.0023491361823592743 0.0016300031421214922 0.003677950740504019 0.06071226486424683 0.2566452409246927
25975000.0 0.9732680234796868 -0.22032807590941275 -0.003033309837284415 -0.0028718313665557728 -0.004724551313056684 0.023211597315721172 0.07110465437717434 0.25722584473015647
26974000.0 0.9685785151508977 -0.22893200652613535 -0.000562368825425717 -0.005442036586062731 -0.0012858974093171804 0.002326078567570615 0.09530258281936774 0.26787254171705904
27973000.0 0.9675759744345183 -0.23696675177140894 -0.000849921965120605 0.00036475535152966456 0.0017418801047273513 -0.001790228637927299 0.1018959122427229 0.2612712276107404
28972000.0 0.9646703300018445 -0.24927635520267927 0.002159059106479921 0.0006133429159696271 0.002817402131274379 -0.001929537078573663 0.11290496714005352 0.2523766647931291
29971000.0 0.9638357902338139 -0.25515454741461957 0.002692519792792785 -0.003439833954992464 6.2367697932789535e-06 -0.0015240829963299753 0.15785470177497152 0.2602679177069944
30970000.0 0.9609424154605916 -0.2628081956004492 0.0029351507016684374 -0.0003189765463028276 0.0027508190177701784 -0.00636950836517026 0.16835217643289146 0.25613034602582446
31969000.0 0.9581384855525072 -0.27159057596527125 0.005082835514319668 -0.003439130113033049 0.005222282413829301 -0.0006388829933635813 0.14634440164851928 0.24380814354761998
32968000.0 0.9562862167102386 -0.28288028137362037 0.008629927198885282 -0.006205531432878251 -7.572446843227685e-05 0.0005547148245268907 0.16351447339753067 0.2435472541551808
33967000.0 0.9530927452258763 -0.290848224003178 0.012270558959735417 -0.012735621471120161 -0.004620100853252876 -0.0005891188734508938 0.18772081556843961 0.2520328014194182
34966000.0 0.950235820830321 -0.298355788688482 0.012431555994148826 -0.008706334237395343 -0.0005599029115394283 -0.0025037208973395318 0.19527144196417973 0.2529039696668085
35965000.0 0.9477994503050347 -0.3066708977560053 0.018106064710546696 -0.011232484965380348 0.0005665470957929377 0.0013846920927948522 0.21145720737936022 0.2495990928916254
36964000.0 0.9459618933008206 -0.3155144190868734 0.013582755530185241 -0.015259282101633163 0.0009677971436773649 0.0010878734819775389 0.2172811858191807 0.2542924128341439
37963000.0 0.942931008136688 -0.3246237953082448 0.02264576277780658 -0.0233443070032355 -0.0031276589262815837 0.00016586504331875726 0.23073428268491641 0.2312084804216253
38962000.0 0.9393231542021461 -0.33481776758967147 0.024257343503152368 -0.024276580953875516 -0.002046874730073702 -0.0023681991471761216 0.23864592499293735 0.24028142464673655
39961000.0 0.9383712718268521 -0.33944899011052637 0.028022427449860544 -0.026237198062051183 -0.001147181212266893 0.002337905827342466 0.24929442342651792 0.22754872179917865
40960000.0 0.933529128341917 -0.34939693139061817 0.026875643437595652 -0.025648780187666267 0.000621512722356465 9.927874242402424e-05 0.2647549209753402 0.22503953775357205
41959000.0 0.9320376597460345 -0.35946636574947516 0.029588300158246712 -0.030827898707915493 -0.0017114307593936438 0.000587678939283429 0.26817420860105534 0.20947605869453828
42958000.0 0.9264736428052359 -0.3673080505695404 0.034237095556139914 -0.04251342291194328 -0.0012675346037272256 0.003956805988073469 0.276392120638686 0.19927417005435002
43957000.0 0.9234668226451318 -0.3748837146685683 0.03411568528532345 -0.04758986768538829 -0.004849191774880408 0.00027085840998794454 0.286144432927068 0.2104077062701048
44956000.0 0.9202742400376056 -0.3823834405674588 0.03482355058345969 -0.05054647313968824 -0.0016348243360998827 0.005009455756606258 0.3017204219885024 0.19777548797583597
45955000.0 0.9167611197905529 -0.3922176733631104 0.03630469489651293 -0.05973383659837286 -0.002442940428918198 0.0015391127090817528 0.30623033070363015 0.18652776086991804
46954000.0 0.9108029928624385 -0.4024437232431695 0.04132595758401258 -0.06553542074271282 -3.513323885474862e-05 0.0009968571537889144 0.32243868858570507 0.17471372995884063
47953000.0 0.9103268579918052 -0.4084861996784808 0.03970440439939683 -0.07105037558112665 0.0005913780687723128 -0.0021579636190038353 0.33443593558368556 0.17114154546533972
48952000.0 0.9023274988668082 -0.42127779193398057 0.04124609015670417 -0.08268646146174735 -0.002534050779068609 1.7016292950456154e-05 0.3239203185259037 0.16690412414939632
49951000.0 0.9000548291186556 -0.42629215786498764 0.041314066193574486 -0.08781481493872743 -0.0012399539492968438 -0.0008357376656506274 0.3562482871287706 0.15355035345389795
50950000.0 0.897586677745329 -0.43274938459124696 0.04174696718927805 -0.09451349932018888 -0.0026095246049053526 0.0010239367521939838 0.34904101443955343 0.14749997838307463
51949000.0 0.8940249363242331 -0.44218202910843274 0.04386888128431813 -0.10473085088025592 0.0010606337465586422 -0.004380245841032896 0.3531078742360839 0.14366399038198116
52948000.0 0.8907508934630404 -0.44975912301119075 0.04527968846395705 -0.11309485881439081 -0.0004016627780789676 -0.0009523676757822507 0.3734820380240002 0.14475687141355076
53947000.0 0.8845737569271666 -0.4600154829456917 0.050804002159459606 -0.12402096828190637 -0.002431808188592976 -0.001637444424825511 0.3680415262121569 0.13762136315058868
54946000.0 0.8794080583483854 -0.46604708535074324 0.049982760427482474 -0.1319962084328898 0.0009902955471101746 0.0018060194431328142 0.3723023775319206 0.12364985198971849
55945000.0 0.8755135068894593 -0.47570913421556305 0.05080973716048789 -0.1472089987642472 0.002208164195100875 -0.0022112321683338695 0.38337852091935964 0.10252039464674391
56944000.0 0.872569831099781 -0.48351363200482766 0.05402436226278692 -0.15494992255986823 0.0006560321089690401 -0.0025394292143831525 0.40182290886566413 0.10907964382792115
57943000.0 0.8679387563929957 -0.4937558154401629 0.05295425176959589 -0.16696326423786237 0.0006476596282822124 -0.0014726304266252093 0.40009211356828966 0.10539225149269192
58942000.0 0.8621327011858342 -0.49753916401225845 0.05814429826243136 -0.17711377617458057 0.001263176930497996 0.0006467765529158126 0.4114301643880568 0.09285527378440353
59941000.0 0.8578169800791127 -0.5086074246665606 0.05940027146465569 -0.1869953475525132 0.0005546226789137173 -0.001434178023524127 0.4071484628410583 0.09093342800518041
60940000.0 0.8499422001448944 -0.5158416178235876 0.05717471813234247 -0.19102128738663443 -0.001088708888635564 0.0017136301438977182 0.41103487507692904 0.0797581483125916
61939000.0 0.8478462592163883 -0.5219471600389994 0.05800243509568075 -0.20154321390178667 -0.0001611059546584518 0.0011889839410813877 0.4217057089929946 0.06752033112830372
62938000.0 0.8412609044386166 -0.5327020520029191 0.064546973839656 -0.22006244196534935 0.0003487219767376892 -0.00010913603619867524 0.43295879042760754 0.048778700586454615
63937000.0 0.8365514479098008 -0.5410227718174306 0.06491839238324348 -0.24135793464766234 0.0009823956669058576 0.0022319449121662024 0.4352509345733441 0.027544014985745078
64936000.0 0.829299332886114 -0.5476606551502914 0.06411476688096353 -0.25561128233010316 -0.002867991343176726 0.0009616784069341259 0.4366018637840512 0.04544170204275821
65935000.0 0.8264463896108557 -0.5573844572780817 0.062215120896117936 -0.27082961940866335 -0.0004083386299636022 0.002523051836851643 0.4366339231453846 0.023967935937265882
66934000.0 0.8219578457682832 -0.5635553313712531 0.06270123899615841 -0.2847197510449646 -0.0032789100767821647 0.0011177261806347648 0.4345373359555244 0.012491262263106427
67933000.0 0.8186681251816413 -0.5701888639885704 0.06003127455644581 -0.2997933500202742 -0.005140235696182126 0.004894327435459855 0.445529772699349 0.004115256306283735
68932000.0 0.8054195914729452 -0.5789967576494311 0.054547164003514025 -0.31492613064166924 0.0004383780725132397 -5.1465643225133546e-05 0.4510096418618481 -0.008278586469776254
69931000.0 0.805127483170545 -0.5865051643604372 0.0612938482655289 -0.3332898341771052 0.0031413779691724366 0.0006126510445098873 0.4429172713179069 -0.0254477308508953
70930000.0 0.7993084294153058 -0.5935189418136858 0.06010431156186466 -0.34878920951710124 -0.0007319228665349383 0.00019851827115980805 0.4428304698889587 -0.041153893927719676
71929000.0 0.7949044066667941 -0.6010455758407276 0.057887675468134225 -0.3707219062291113 -0.00014522761513957174 -0.00040746918722508633 0.4512821422354898 -0.041432029522908524
72928000.0 0.7869969241811957 -0.6140070631868473 0.045740051181440686 -0.3857924913696082 0.0024637482506667556 -0.004088955346165632 0.4662605172218232 -0.04909547120700536
73927000.0 0.7819507277656734 -0.6182505291778841 0.037633455690286026 -0.40859724912047585 -0.0003194166978476626 -0.00019387216947797066 0.4590065104732425 -0.061777557198607114
74926000.0 0.7774214090117071 -0.6288132186931601 0.03352563823977745 -0.42709704072009863 0.0028847567472793916 -5.6988584488706834e-05 0.4699656006936554 -0.05919507797158201
75925000.0 0.7688483709357783 -0.63160193539238 0.017949781182845657 -0.44641395521083116 -0.002790832669585403 -0.0014585662132638388 0.46532178816424086 -0.06901475413731013
76924000.0 0.7641891958624335 -0.641331403210639 0.01263123151147644 -0.4715602871588249 0.003944311704848335 0.0006175584981889748 0.4545055000256831 -0.0770480090229707
77923000.0 0.7582739711244325 -0.6439978889120548 -0.00955604207409085 -0.5005373773654453 0.001631136566857811 0.0019171608661662468 0.45504179934792816 -0.09124143764869061
78922000.0 0.749755647482183 -0.6571065280892988 -0.01775677371144383 -0.5260073543831117 0.00032002332018055336 -0.0007003759160433881 0.4596752106502456 -0.10126685393875114
79921000.0 0.7428329762365936 -0.6599601851327732 -0.034110167123327456 -0.5535153179304604 0.0009832749151582752 0.0011421306894223997 0.45415853076299806 -0.11065735833280567
80920000.0 0.7393978869484081 -0.6717103278484181 -0.0483713903953179 -0.582740830077337 0.001237071507411761 0.00018456380898690026 0.46460822030694854 -0.11918150954409808
81919000.0 0.7348067559888969 -0.676681930820584 -0.06612230588700728 -0.6148180598341147 0.0014290116496351332 0.001219861722863323 0.4689758427080122 -0.13826355438187538
82918000.0 0.7203458878294989 -0.6869142805125912 -0.07619763793655934 -0.6473167950624247 3.620175472982827e-05 -0.00259899842812101 0.4709197333453143 -0.1349061023489229
83917000.0 0.7136426900057793 -0.6932992737269492 -0.09868247768586942 -0.673779795762516 0.0008704971177461272 -0.002001864886469535 0.46420877648975634 -0.14736698634322226
84916000.0 0.7105242606687769 -0.7003653407037557 -0.11352742028583426 -0.7139127046209807 0.002998262543799992 0.0013833660690308997 0.46278981744113856 -0.17305969075956903
85915000.0 0.7013741646524635 -0.7059727689777129 -0.13252704176191385 -0.7474623758389687 0.0026025195499527975 0.0006321987792921527 0.458404378743714 -0.16850075517513152
86914000.0 0.6945389518940508 -0.715438674587776 -0.15157635945466408 -0.7847140284922085 0.0003920429733057272 -0.0024373520641634036 0.45536936941263984 -0.18029066792747417
87913000.0 0.6889552971762264 -0.7218889530771458 -0.17027995247191866 -0.8104876896265365 -0.0001737739475097512 0.002197570380139432 0.463499779093302 -0.18776258162227172
88912000.0 0.6815829152383068 -0.727001123421588 -0.18465155736653352 -0.8525550355045203 0.0007358548149129845 -0.004514335574067393 0.46358979899406333 -0.20506181950973698
89911000.0 0.6706400214886484 -0.7380580973762872 -0.2049603656780348 -0.8849789205817992 0.0025667038933510646 0.0029594856701894144 0.47403097059954935 -0.20990399178779134
90910000.0 0.6675096831681631 -0.7418591370211318 -0.21726001104365 -0.9226320413270466 -0.0001404398147669719 -0.0023292108867580493 0.4722153574947577 -0.21540055785233753
91909000.0 0.6578104865026653 -0.7478110307344543 -0.24104324868962734 -0.9566913800129855 0.003028352510471691 -0.0007930612327051456 0.4679508415977675 -0.2224687392802438
92908000.0 0.6496588371000857 -0.7560028473939528 -0.26295133847145385 -0.9883696950059077 0.003301873008809071 -0.0008708467719398934 0.4543861994977812 -0.23345143621524925
93907000.0 0.6427599135485368 -0.7615852293650903 -0.28422044838496235 -1.0260227068490497 -7.466339443813144e-06 -0.0021298256638505202 0.45323268588384436 -0.2529604239886477
94906000.0 0.6277268510195783 -0.7697390863097988 -0.29703958605976777 -1.0612249381551688 -0.0012019651158038653 0.0017882340845623654 0.46997150828102496 -0.2472025447301433
95905000.0 0.6227969847404509 -0.7758249353966413 -0.32217757968606703 -1.0979603540618523 -0.0013927495853731922 -0.0005762284859695859 0.4589741142440062 -0.2646420566877644
96904000.0 0.6165624041666243 -0.7835326412685513 -0.34267783601850965 -1.1447820887010205 -0.0016024683043803277 0.0006359207724059948 0.4451303775165378 -0.2670824081533348
97903000.0 0.6052913110146971 -0.791062347893078 -0.37213405287801815 -1.173592352439543 0.003396727235704187 -9.53968686015562e-06 0.4474656193989272 -0.280494222858394
98902000.0 0.6018253505985977 -0.7960548747736397 -0.39296507861911245 -1.2175710769486416 -0.002795071906723967 -0.00030327627427348907 0.4412877948955219 -0.2938997814328003
99901000.0 0.591233936755521 -0.8012312298616228 -0.425479370623772 -1.2539536181763657 0.0011250987200962963 -0.002717161018417325 0.4529210949801541 -0.3123225135320511
100900000.0 0.5790661745776101 -0.8049024773381263 -0.46364747785721105 -1.2817756555800421 -0.0018637555879110407 0.0010593333072883018 0.45691949878413896 -0.30445973590419356
101899000.0 0.5714253876746269 -0.8136811068845721 -0.4892154607897932 -1.3234409543252128 -0.0025134625174628145 -0.001272061967252575 0.45413296279780335 -0.3105709993181735
102898000.0 0.5614345909751365 -0.819924052889401 -0.5324169281095401 -1.3626020108907078 -0.00019794538054558787 -0.0016699344648655116 0.4452058868692616 -0.33620100804571396
103897000.0 0.5542923919440305 -0.8269292604316075 -0.5738670791099186 -1.402964088351106 0.0013590421433156842 -0.0011337913046023554 0.4551809615651704 -0.33024947260912757
104896000.0 0.5446971024755094 -0.8356914755929873 -0.6218524610019802 -1.4421272190367882 0.0016584986312447373 -0.003013788155902689 0.4391384075982008 -0.3377171173691325
105895000.0 0.535967429470326 -0.8379646827384618 -0.6659217878904805 -1.490374929550865 -0.0018919112828024141 0.00034721346216545784 0.42981302842847413 -0.3542195231069904
106894000.0 0.5249220406642253 -0.8446177197442081 -0.7312565549542324 -1.5259185742894237 -0.0018355901405612796 0.0007104146305772577 0.4317753666192067 -0.364172349778027
107893000.0 0.5188006245668825 -0.8513067030594864 -0.784211765621041 -1.5689542738861222 -0.003332408389201849 0.0020673665911195185 0.43644868349598115 -0.3707802944367795
108892000.0 0.5066516756760193 -0.8543498315190808 -0.845382447446655 -1.6080954310143112 -0.0007133063585818846 -0.00015306954484070945 0.4255841959141374 -0.3660369998403401
109891000.0 0.4951497267924216 -0.8628994983301302 -0.9095587655640874 -1.6497555035778886 0.0015936082965849155 -0.0014973380453510569 0.444262281420392 -0.3687294744350503
110890000.0 0.47587659694305423 -0.8650029494735252 -0.9753176984501476 -1.646514220281716 -0.00041572541144057647 -0.003714398117132648 0.4317601244365558 -0.3709474431446183
111889000.0 0.475816045609262 -0.8673850804750822 -1.0368639302743454 -1.7209816221261742 -0.001416988549311615 -0.0002639757489645692 0.4203065999573137 -0.3939650753928864
