! Created with skrf 1.9.0 (http://scikit-rf.org).
# Hz S RI R 50.0 
!freq ReS11 ImS11 ReS21 ImS21 ReS12 ImS12 ReS22 ImS22
1000000.0 0.9751685593605156 0.005624913538302356 -0.012520306410601017 -0.03262912454594305 -0.01325795766107279 0.005303199435821864 0.3570847374880994 0.3209353865703425
1999000.0 0.997742463671337 -0.011745618999898544 0.010860319392802 -0.014479491150462738 -0.0010248299176289306 -0.0047670169113327755 0.28267602397688557 -0.05725241701255254
2998000.0 0.9996893596179277 -0.020384320727158317 0.006945311109019694 -0.010312048850632333 0.0015171360403645404 0.0030821089379720187 0.20972825423504507 -0.132553475644814
3997000.0 0.9942779626314039 -0.029992437805963265 0.012884639965014521 0.000754605583145651 -0.0014453703587798356 -0.0060121048016448155 0.09145337626265791 -0.22200994526365414
4996000.0 0.9960392817513387 -0.03715788197041484 0.01211216329367825 -0.0038037226249127646 -0.003945203019634958 0.002116388391662365 -0.049484444716098135 -0.19182606857095685
5995000.0 0.9963490236646865 -0.048335278838400865 0.013340874850966033 0.004985079220078862 0.0016837886401005117 -0.0026395874917813336 -0.11933150202120973 -0.09520583238947085
6994000.0 0.9976293069352286 -0.05779546731557405 0.011090076822852138 0.003152632887879244 0.0009861694390037132 -0.0019644224131869148 -0.13749739606377798 -0.026438441170397533
7993000.0 0.9952223945573472 -0.06960999517957034 0.008077283998306163 0.0021407889696341406 0.0032565982036842135 0.0009036930373289126 -0.1567123055889263 0.053088078664545624
8992000.0 0.9961653621573568 -0.07528845730191328 0.0006541623147730506 0.0018463217666178245 -0.0011098617062941492 -0.00418788918997409 -0.1492624355570157 0.06943837800004933
9991000.0 0.9941042371295704 -0.0810386352912902 0.005208221281115385 0.004812411839975546 -0.0037889487728719876 -0.0007920428906270543 -0.14253385676765254 0.11474736370365252
10990000.0 0.9938129026177376 -0.0916167039382404 8.23958150417737e-05 0.0008943694250000119 0.0005277052840554086 -0.0021353412832762824 -0.11740007631470196 0.12448025362001057
11989000.0 0.9897846273070369 -0.09852771014628427 -0.00336033106836038 0.004457328253563112 -0.0018083881130661593 0.0012850705296679303 -0.11041984016749372 0.14711156458411126
12988000.0 0.9893813085760487 -0.1115190153845773 0.0010605623527809574 -0.004861683104426256 -0.0047199474188488405 0.0017254290265908275 -0.10507106709879875 0.16592713781572843
13987000.0 0.989168838109791 -0.11780058889719638 -0.003602495048458878 -0.003907708382457584 -0.004022981345848366 0.0001442307390263111 -0.0777422463819536 0.1811339693732173
14986000.0 0.9897961563409916 -0.12512410297620294 -0.0004694435577067316 -0.0027679661983889266 -0.002254803496666627 -0.0031570123702671727 -0.07913210196856983 0.2073093318556737
15985000.0 0.9889709705421152 -0.1318185413285501 -0.0032198921283671236 -0.0019027083758893359 -0.0036102788679569786 0.005323672836311721 -0.06299342637584711 0.21708833197498373
16984000.0 0.9858060985487267 -0.142412927240255 -0.0012366497863029388 -0.006498026179928556 -0.005011681815391331 0.0012981322497249092 -0.0640806805065315 0.22318507556469774
17983000.0 0.9877509133568445 -0.14696704177372316 -0.001156561571797903 -0.007816894508296781 -0.00019268134665116092 -6.732854491926258e-05 -0.04876068002297124 0.22684201975061283
18982000.0 0.9822483387239485 -0.1628350642461372 -0.0007791980366287755 -0.002418286123161993 0.00031848958311338514 0.0022675741526239587 -0.017085815378036724 0.23803314752913646
19981000.0 0.9831832811325801 -0.16713670303489214 -0.0033434925504285916 -0.005536082423458715 0.002680968492702125 0.0022011779990810595 -0.005588585999398988 0.2448830917369597
20980000.0 0.9809164343047633 -0.1763400506488217 -0.005702633717093084 -0.004212248709510529 0.00017150184006692345 -0.0008087863945206172 -0.010736335765301308 0.25879169294552923
21979000.0 0.9808935864663197 -0.18390435069959754 -0.007779571888218259 -0.0021514226778213963 -0.0029862913558995853 0.0005106031327316889 0.020969927102851504 0.24153299037046905
22978000.0 0.9754343825465608 -0.1924947527700686 -0.0069085722511494155 -0.0032314182472172022 0.002396227590636 0.0002704826624365963 0.03743019929907818 0.2582927825167426
23977000.0 0.9806201851309132 -0.20096930695709073 -0.007054067441517193 -0.002574661695898526 -0.0005293605026390978 -0.00043924791116826235 0.04300380328642045 0.26187204229033856
24976000.0 0.9746718942592592 -0.211327948329291 -0.003966179207183309 -0.009396288209793628 -0.001185565812180476 0.003138968594138662 0.057230434361746046 0.24760369525175888
25975000.0 0.9699678242614311 -0.21603132833583527 -0.0021337323621665304 -0.0014964103637182004 -0.030845779174002535 0.003945294449540039 0.08192756398767165 0.25736595061990225
26974000.0 0.9703312929736763 -0.22606996572971286 -0.003937949642367068 0.0011484495438116046 0.0005767712072238967 0.0012640966980897819 0.09372881383590104 0.2689343507975041
27973000.0 0.9697189338903556 -0.233619116639782 -0.0006723420132751624 -0.0013898141197977165 -0.002015290307485719 0.0025408293590389176 0.10751569801838724 0.26149169227648317
28972000.0 0.9675294180924594 -0.24290127875675502 -0.002180793217748713 -0.0019655689422203473 0.003184660481912225 0.0014705913474336084 0.12183839498899411 0.24790577065995428
29971000.0 0.9655766791335773 -0.25039412009744344 -0.00028066465972822894 -0.0007977550782537441 -0.0008393093704978882 0.0009113087055100695 0.15898149811898962 0.261142879667131
30970000.0 0.9627859797180544 -0.25633238983465617 0.002746180409177186 -0.0021652960775957225 -0.0005520792890005123 0.0029310358716768867 0.1759679109813129 0.2524267109972175
31969000.0 0.9621686522705266 -0.2664502128914867 0.005932597768702319 -0.005828896152427857 -0.00021098983296216883 -0.0009044239079837485 0.1647568342263715 0.24450034646131677
32968000.0 0.9606788756122869 -0.27489562401266404 0.008800142864644346 -0.008422307591150372 0.0010338521782355893 0.00012803666835749542 0.17412696426002525 0.24986022670202612
33967000.0 0.9566330008754022 -0.2853090213174533 0.008880905915125498 -0.008006794954804886 0.0015289223457102923 0.0011550608548850307 0.19158337479808815 0.24573434402007238
34966000.0 0.9535182670370729 -0.2951020212919888 0.014341922075284686 -0.011324458946742744 -0.0001305006313483449 -0.00041322407004878525 0.19838124489979087 0.2504928415763796
35965000.0 0.9501216614131462 -0.3006887192122825 0.014627537191952276 -0.013402039840936639 -0.0010644050617054535 0.0018327765077651476 0.22242362618442635 0.25386311894399033
36964000.0 0.9484871650371881 -0.31069440907058127 0.01506045566606088 -0.016066868348891598 -0.0004527409237245503 -0.0010245933594582978 0.22707741254433847 0.25364422098121675
37963000.0 0.9456356409275452 -0.3208541238281832 0.01859394151633904 -0.020551226355061236 -0.0008954877922047379 -0.00046273948963675474 0.23960065063712335 0.24336320507477532
38962000.0 0.9436939435756052 -0.3282887918703935 0.02628034011378544 -0.026064924008209964 0.004280056840844187 -0.0017446339498997725 0.2547670004825222 0.22830315825703884
39961000.0 0.9403846241772279 -0.3376011143065937 0.022352716366365235 -0.03042893639982883 0.0024349513193759934 -0.0011929334215995077 0.2586117708117241 0.2315024284594533
40960000.0 0.9367611439143277 -0.34412614620996196 0.023591634469570574 -0.02557349037781448 0.0025600837455909643 0.002092689894098248 0.2780791893310683 0.2297825942450295
41959000.0 0.9339176745561383 -0.3541173304777033 0.02762271559842805 -0.03360054678510991 0.0053309972706166095 0.0020676065638022775 0.2767998833269901 0.21729178611296987
42958000.0 0.9275986887611243 -0.3633249619798273 0.030924492330022046 -0.04278819915795018 0.0023554262639307226 -0.0010768364245257293 0.28692111054220854 0.20498129419345987
43957000.0 0.9283683031504519 -0.36534360889654355 0.03336782140158522 -0.04603333310506541 -0.0007170642295761411 -0.0011109373290619843 0.2925262955632789 0.21136015400265304
44956000.0 0.9237094822307937 -0.3752551412744653 0.030884709811937573 -0.050620683274353456 -0.00329201960554267 0.002305912999079255 0.3177074222021395 0.18794276158360415
45955000.0 0.9196454376670204 -0.38631813651346286 0.03507366739490749 -0.05639391159044922 -0.0013820654183324794 0.00019069477903044095 0.31465930001406445 0.19609294441070282
46954000.0 0.9152422358484414 -0.3957043207562254 0.03614348630123414 -0.0640499390918719 0.0028944794974423487 0.0013047930604451754 0.3369843660007233 0.17859731398901424
47953000.0 0.9148208486882728 -0.40181549438301667 0.03563789208218795 -0.0723477627886193 -0.002566741569170142 0.001176301118801643 0.3456632446746505 0.17981927679198556
48952000.0 0.9066139059823966 -0.41397218142447945 0.033678261361056006 -0.08141684760131898 0.0007717790471307678 0.0009696883133826684 0.3403749480529273 0.16872344897780822
49951000.0 0.906007542804249 -0.4169421583227185 0.03943557356108435 -0.08648330497678905 -0.003679814863559153 0.0025279566664065133 0.36259013942018864 0.1616033538025996
50950000.0 0.901493190351526 -0.4275596037920644 0.03490684913504317 -0.09493664887657104 0.0017560507693785046 0.0012634499206004022 0.36233263014120426 0.14731966934173205
51949000.0 0.8970652370996844 -0.4360749684954262 0.03689577116930705 -0.10487786029526026 -0.002000168196379 0.0019179537130999747 0.3722070357380576 0.14668735371560948
52948000.0 0.894658604479637 -0.44426832401550814 0.042631227212869424 -0.11016612883352442 0.000869096778140195 0.002204515149735954 0.3834211819996368 0.13240493952644447
53947000.0 0.8899210636049464 -0.4507250730026465 0.040149253037617405 -0.12146953538760807 -0.0038005796610568487 0.0003593220825067804 0.385522057157604 0.12935385260195817
54946000.0 0.8841319552775359 -0.4618450945134325 0.04355513804798086 -0.13252823464406113 -0.0016541144734908894 0.0005200335247356254 0.40040114678947486 0.12540954645350333
55945000.0 0.8823368588275136 -0.46607197599125866 0.04183331902723292 -0.14397939896171172 0.000911609872839669 -0.001894311817822304 0.39623825998810147 0.10292284112524146
56944000.0 0.877191102764886 -0.4761851397073657 0.04505529865959198 -0.1525468614474089 -0.0021857895092619213 -0.001033101806602103 0.41196830114142596 0.10655011324258334
57943000.0 0.8713369724093546 -0.48719133288319016 0.047695053508761846 -0.16426276222819444 -0.000965627658818292 0.000736701096867043 0.4207529938342577 0.09426557607419137
58942000.0 0.8672789486703777 -0.4910295406044368 0.04454063751499117 -0.17644253089935022 0.00027455444711387814 -0.000983527519252508 0.43121240031837477 0.08987368006416376
59941000.0 0.8641212230186901 -0.5002193692318233 0.04803057749644719 -0.18370021114358517 -0.0018666745007666268 0.0006760217217454363 0.4312058354642418 0.08991213678555994
60940000.0 0.8559058262707502 -0.5082187758985144 0.04834705601705013 -0.18807232563557622 -0.0025686922553951586 -0.00039806082678647483 0.415814394113762 0.07187614392004506
61939000.0 0.8530962379066716 -0.5141110341001094 0.04655314377593348 -0.1982399650568403 0.000303106291563145 -0.0016798242673014454 0.42761942653019364 0.06993443232942068
62938000.0 0.848506254546788 -0.5243817806340925 0.05343233092435939 -0.21377999784598592 0.004279825543393421 -0.0006230299515057151 0.4451805310814339 0.0545406877472451
63937000.0 0.8435610356575113 -0.5318008016066043 0.05232193112459002 -0.23264555402189327 0.004219308344964342 -0.002422238443715701 0.4442139886457341 0.037973173064778355
64936000.0 0.836315557855515 -0.5382531238319187 0.053193432593302614 -0.2499775446613991 -0.0011957502307784948 0.0014237694344215908 0.44785358741068326 0.03534352918981706
65935000.0 0.8332994662047684 -0.549348538362348 0.05512005854541667 -0.2616597947868756 0.00026962781643674545 0.0009498034193013588 0.45603508011571886 0.030893961847163528
66934000.0 0.8290316976832443 -0.5542398580375087 0.051711392236192255 -0.2739447419237768 0.0013100640378315982 0.0005175841657705242 0.4475448188681499 0.011813426669891007
67933000.0 0.8255100868586556 -0.5614710822995381 0.05370743610637843 -0.29030324834565546 0.005619069217146172 -0.0004771021289465255 0.451350397516867 0.02061716574115403
68932000.0 0.8114397137372339 -0.5690074745906558 0.046510967299185434 -0.301789796333299 0.0011516850443555704 4.3451385902724694e-05 0.4633839921979883 -7.270814145994122e-06
69931000.0 0.8113856258339973 -0.5775747688974756 0.05103556654265561 -0.317839729868184 -0.0032128453400197864 0.0007826071445892538 0.4573521309093042 -0.010220186983057562
70930000.0 0.8071692367470122 -0.5833979800952741 0.049208140134711226 -0.3330545037173985 0.0008202627686707112 -0.0009859234075026617 0.4564552130311732 -0.0330660699676613
71929000.0 0.8017257285603229 -0.5936789883812795 0.045433301028754126 -0.3507331328141534 -0.0010720276563876262 -0.002320339044372622 0.4551796649256132 -0.033573791314155825
72928000.0 0.7960689044968211 -0.6014592107651449 0.038747225289947444 -0.36553388922837243 0.002129701198603041 -0.0009423430767872024 0.4713977373914319 -0.03865771472912684
73927000.0 0.789587041780918 -0.6082934245219644 0.030595653635936606 -0.3872087717257735 0.005048898213513981 -0.0009359836931140046 0.46558588321805733 -0.05380671657982374
74926000.0 0.7830908165430818 -0.6166348556008566 0.026604434117696262 -0.40417795179786 0.00258296439416587 0.0009761973184414811 0.4725627163251016 -0.05628463300663456
75925000.0 0.7781947703102552 -0.6212163505895262 0.014543554198862552 -0.425476799229611 -0.0006550391503000672 0.0007624677545963278 0.4746126513166808 -0.07689540495472245
76924000.0 0.7718058337988437 -0.6300180521652309 0.005676865016690772 -0.4463693944707033 0.002429506192960201 -0.0015972944820439436 0.4738370636368881 -0.07868605252502922
77923000.0 0.767620885947855 -0.6349682998525439 -0.011118696359507383 -0.4724038315435482 0.0062285608697702135 -0.0013609359746025217 0.4737416051886746 -0.08374623214364907
78922000.0 0.7613490692541431 -0.6457702459898955 -0.024417872463224563 -0.4998381124760093 0.0006446938104605871 0.0006522627851248366 0.47250852585442193 -0.0972423334555537
79921000.0 0.7530355661082596 -0.6500925490797547 -0.04166598209679753 -0.523237778613509 0.0021608139346913327 -0.0020874595220371963 0.4711532302647191 -0.11065690218020993
80920000.0 0.7469529155759136 -0.6619832239284029 -0.060133966118223914 -0.5506564109307476 -0.0023604083075821885 -0.0016132114475470936 0.4789203783895262 -0.12548847687032055
81919000.0 0.7415074900505438 -0.6678068970435561 -0.07443455759561479 -0.5795374893115588 0.0008541789972329668 0.0018841145423872413 0.4710158799674913 -0.1256300824581829
82918000.0 0.7317824990934592 -0.6740322802993425 -0.08730689327728026 -0.6088208495692881 -0.00234962043666129 -0.0008325953316495402 0.4906457339346634 -0.1428926364957815
83917000.0 0.7228729057782505 -0.6837751760957022 -0.11249678798180156 -0.6371183664428279 0.0009367858659425939 0.0005015942060781649 0.4862628859182639 -0.14782518274110643
84916000.0 0.7197721816757507 -0.6908177374211883 -0.1286397315720541 -0.6751530431939634 -0.00044265512169795295 0.00033026061086295237 0.4691297635956591 -0.1660158746195105
85915000.0 0.711768586100783 -0.6949248583099416 -0.14569092220839816 -0.7029144912007907 0.0022530415091074484 0.0015868633549990469 0.47576204569113606 -0.17458681268866025
86914000.0 0.7046114045634084 -0.705687231276846 -0.16026263635717264 -0.7443990517241734 -0.004267794885249727 0.0024215088471521784 0.46957815243972467 -0.1619024025988951
87913000.0 0.699114954478307 -0.7105357258898352 -0.18180670278521088 -0.7681234382541455 0.003146525039364737 0.0009790158472643546 0.47858276647372033 -0.18294571961202183
88912000.0 0.691175157418976 -0.7181928002541196 -0.1969878965491238 -0.8028453744981978 -0.0017456695600095169 0.0013183960683558565 0.47735821975685055 -0.19766417848606344
89911000.0 0.6855205556459748 -0.7267254978874994 -0.2121219573950734 -0.8460391840753493 0.0007393472550616091 -0.0004930243175370397 0.4746311953572171 -0.20568169174425618
90910000.0 0.6782908073987982 -0.7317238122640853 -0.22808266729764648 -0.8777278964390907 0.002340625107564486 0.001335818824967944 0.4667981827085974 -0.21095958665097664
91909000.0 0.6692402326536857 -0.7373580922114034 -0.2525884847501139 -0.9123164033254261 -0.002540184284676998 -0.0011652311486228847 0.48117006607687 -0.21194084788350862
92908000.0 0.6594375316338924 -0.7459428161176963 -0.26868299840997534 -0.9425070999878065 0.00045502669833428415 -0.0015749481769264666 0.47166207310902936 -0.22881540977935164
93907000.0 0.6554112928535951 -0.7510919981000855 -0.28650332115607996 -0.977298547337269 0.0014443655971779486 0.0006648757113609943 0.4762097962461058 -0.23466135347824613
94906000.0 0.6402940262697983 -0.7590578243929845 -0.3028417075216917 -1.0080282039220658 -0.002127216557184883 0.0015680365073678908 0.474678503362315 -0.23952730780166318
95905000.0 0.6361198735442497 -0.7657220006778229 -0.3295015908993689 -1.042263626042272 -0.0018522454023872832 0.001217426209605811 0.4703529603198271 -0.25906608445602286
96904000.0 0.6291426746251342 -0.774014617923029 -0.34506255780675127 -1.086561150062371 0.006164054460478372 0.004001053146854798 0.4648725364071055 -0.27012096401505814
97903000.0 0.6175823472854721 -0.7786762546202153 -0.36793433454241903 -1.1184398611408783 0.0009511658516028336 0.0012774386269581238 0.4529755197260564 -0.28010794314497606
98902000.0 0.6147098497402682 -0.7876996725994602 -0.38873098813586854 -1.158638509572296 -0.002221868385546818 0.0023119926840514823 0.45963266570813766 -0.2921391714509223
99901000.0 0.6027423990146102 -0.7912998078693766 -0.4172182277499498 -1.1863588017278714 0.0006318801545512728 -0.0006062707995023837 0.46976946643449985 -0.31702600166838896
100900000.0 0.5951347922752198 -0.7952953070278557 -0.44918351692162056 -1.2211511094074003 -0.00036720429583770377 0.0013392701462898874 0.4711049712000706 -0.31549837445473566
101899000.0 0.5864620587921244 -0.8038996931752759 -0.47368089747071696 -1.2581123620596597 0.0008416234684099203 -0.005079277632032202 0.46050899807837037 -0.3122345921800712
102898000.0 0.5776267642245736 -0.8098828474887271 -0.5108595679920931 -1.2971728643303222 0.0017366039608808339 0.0005958017963165264 0.4608981840779963 -0.3258675964968064
103897000.0 0.569220844216236 -0.8173413104271408 -0.5461043616247885 -1.3285443016337026 -0.0015700160021709202 -0.0004719958078873595 0.4709213227751885 -0.3301148369214368
104896000.0 0.5615173293388486 -0.827564104334019 -0.5930417684732722 -1.3655304349556234 -0.0024584489078330685 0.0010283484446307067 0.44948036729068397 -0.32953103014774165
105895000.0 0.5523743669083735 -0.8290111870219687 -0.6335843506441156 -1.408025285228882 -0.0024131109609275467 -0.0005514847170605306 0.4473406655916191 -0.3556018391586962
106894000.0 0.5423794724673322 -0.8350431791656395 -0.6893560761595812 -1.442718841792421 -0.0002813293215148616 0.002154957327756897 0.4437855655581914 -0.3663372824149847
107893000.0 0.5363377931978348 -0.8412764706163346 -0.7330980580165541 -1.4881273644945034 0.00011185630375174092 0.0008318672881962593 0.44368440895801464 -0.3654203286211335
108892000.0 0.5236686797716674 -0.8462706000442168 -0.8013531001790319 -1.5244973183454456 0.0010030865334201744 0.002481775753139493 0.4407093295801481 -0.3728991241730348
109891000.0 0.5132184926895376 -0.8507880017098731 -0.860358235294122 -1.5564166503419272 -0.0022519343922679054 0.0004401268793541014 0.4464637118822334 -0.36797287105619364
110890000.0 0.5094621284978543 -0.8639573065125589 -0.9228420406444259 -1.581946281331712 0.001528726361415756 0.000995463409527715 0.4386337352067711 -0.37496866220866537
111889000.0 0.4949533295972866 -0.8597527984656751 -0.9830445228488824 -1.6268668156603396 -0.0027609530899377014 0.0038290842107302184 0.4416659055953568 -0.39252930755758014
