! Created with skrf 1.9.0 (http://scikit-rf.org).
# Hz S RI R 50.0 
!freq ReS11 ImS11 ReS21 ImS21 ReS12 ImS12 ReS22 ImS22
1000000.0 0.9917816941065948 0.006647015760302293 -0.019438423034278198 -0.05821724256644627 -0.011938186785799677 0.00021743682732922582 0.3017964258628574 0.32612666990205635
1999000.0 0.993419457337906 -0.011745585597164028 0.006926958035309599 -0.016716096520993165 -0.002022190892696297 0.0035853307658842513 0.2485344405647333 -0.05269294654756971
2998000.0 0.9962256286891747 -0.022841780800730217 0.009601360963946306 -0.01239416922374824 -0.0038253670219134863 0.0017061155936385854 0.20331996215546908 -0.1461584040761893
3997000.0 1.0001101816525846 -0.03063376980187305 0.009666239605816473 -0.004840355499283599 -0.004503524984290914 -0.0031018421668530345 0.07863774027331082 -0.2371783857463983
4996000.0 0.9954516253115135 -0.03630057692042851 0.010178101297399449 -0.0005033910258751683 -0.005163169121713131 -0.0023924306821072293 -0.04098324132583281 -0.20129802897613913
5995000.0 0.9992804319520464 -0.05075582974734658 0.008956411784241084 0.000991623862098649 0.0003884608912820236 -0.004896636583420642 -0.11561288393937146 -0.10540742342084558
6994000.0 0.9944135155273399 -0.05784004063662882 0.006189495344484834 0.005166528047112545 0.001603126634781047 -0.00033698215403281335 -0.1435949486129789 -0.02030870309118618
7993000.0 0.9974085316932096 -0.06639382511827024 0.006195767012905647 0.004684868452698565 0.00023404779110475514 -0.0012445072157601118 -0.15022829079422645 0.03449752831921927
8992000.0 0.994143800542297 -0.06974358997468925 0.0024458011922669186 0.004158565132976243 -0.004015720221603392 -0.0022322536258914667 -0.16127761749295733 0.06202123402098148
9991000.0 0.9925491951789647 -0.08150999623775917 0.005340841618584872 0.002554054940127898 -0.0010740842877429298 0.007691670022909444 -0.15143807196939185 0.09633817272085499
10990000.0 0.9935732430585738 -0.09133393672709063 0.002049496714876811 0.001582210014097104 0.0009850143240864894 -0.0035412411208756225 -0.13791981942544249 0.10576200517980613
11989000.0 0.99233791173158 -0.09658551457235638 0.00205923969352639 -0.004303808232612756 0.00378860563939739 -8.380731107900612e-05 -0.12354241193912552 0.13560490642031878
12988000.0 0.9907715567375819 -0.10837243056141524 0.0012278773431254502 -0.00120162079036574 -0.0009692763736457053 0.0009648978965824471 -0.10949978866954325 0.17034682957520922
13987000.0 0.9887674252568573 -0.11525219377055301 0.0009136099808709941 -0.006843642251081064 -0.004977128824070509 0.004613765169425781 -0.09034740696464533 0.17645786872796226
14986000.0 0.9892446334720592 -0.12493013255308498 -0.0009166079163682864 -0.0004083771047059184 -0.0016782556817246047 0.0006797061457417331 -0.08473086549462835 0.191688753998588
15985000.0 0.9894646898051057 -0.13414302972158457 -0.0009899658155172503 -0.002949912916444698 -0.00015852970793990608 -0.0034521687280752206 -0.06892427579985452 0.21548679947148872
16984000.0 0.9846246748308921 -0.14536234040204465 0.00219983470187478 0.00058125014135697 0.0006566195807859871 -0.0005329223809912983 -0.06699084028145719 0.21873276685522974
17983000.0 0.9857131372824853 -0.14471401410616802 -0.0015232359414032838 -0.002390012388444305 0.0010777638259089578 -7.357641981399879e-05 -0.03707489635646705 0.22947207546478773
18982000.0 0.9832128293611624 -0.15958203245860014 -0.003814411074094059 -0.007028647323769248 0.0008564954739746413 0.0019633003068162944 -0.02139403972057586 0.23145771668208523
19981000.0 0.9841180120942381 -0.16118291910957894 -0.0017667076371755796 -0.009689603513309792 0.00156097759461183 -0.003009975342809284 -0.011448194379973147 0.23841939859864436
20980000.0 0.982213135632898 -0.1744105526141988 -0.0014914306400831958 -0.003934632914062128 -0.0007977934725900113 0.004286191489311785 -0.004205094926559435 0.2499206600027257
21979000.0 0.9800273003626476 -0.18133512953617378 -0.004200856417073172 -0.003749212199187337 0.0021512557008500264 0.0012593643114525124 0.011999276482859724 0.2403757697804167
22978000.0 0.9788077814993195 -0.1898271685623019 -0.004608836275997647 -0.0006469484993012505 -0.0005479889950069122 0.0016808205164241404 0.034002725169405 0.2638326619062619
23977000.0 0.977539353033508 -0.19963899436690827 -0.007960537964743768 -0.006041503026132914 5.453491709044657e-05 0.003680333740456555 0.028462564005776875 0.2637071153632891
24976000.0 0.9749536536206739 -0.2072740311295624 -0.009685986798206975 -0.005465499892805798 -0.001927836534483535 0.005216549818185437 0.06857518044923433 0.2565218824251938
25975000.0 0.9780596218794978 -0.21638425794390384 -0.006198220598910223 -0.003394644047797207 0.007985570632381117 0.027182822126579357 0.07100542001985674 0.2674987093827627
26974000.0 0.971431548862822 -0.2231108864846773 -0.006042777031202116 -0.0018546299561034135 0.004002000767218715 -0.00274617874139336 0.08913924355957753 0.25869944270955886
27973000.0 0.9704844930300688 -0.23103312800802014 -0.004080141754440849 -0.0025654946653946385 -0.0013113023759367091 0.00012435679982510618 0.10801476842469059 0.251809645244499
28972000.0 0.9679488284997372 -0.24015908530802324 -0.0020215692233833374 0.0007507178751497062 0.0029350850214160426 -0.0004389165316813532 0.11463991806319046 0.24817340837903035
29971000.0 0.9655039599164078 -0.25009287947027925 0.0013681411306796542 -0.0004386498458754966 -0.0004357963305259523 -0.000696673707836111 0.15251590082040412 0.2616518134275791
30970000.0 0.9620382436730305 -0.253776237294808 0.002216494531609732 0.0014366188956519243 -0.0041365210913260194 0.0023383830408885116 0.17273779159861513 0.24645404017307856
31969000.0 0.9618109653362745 -0.2626865618639517 0.004416468207735327 -0.0029316560210507496 0.0006598803678849804 0.0003601412605644944 0.1488762323513682 0.2425729105771323
32968000.0 0.9594583420239325 -0.2720467958746925 0.009842304552476961 -0.007236297174411181 -0.001796343899113544 0.0006700256773568824 0.1569972679272966 0.24114106243310085
33967000.0 0.9581468715357181 -0.28013602473676286 0.012030800939849646 -0.012659159891782429 -0.001723372952013305 -0.00015667405389836357 0.19333086580266784 0.23908279689260548
34966000.0 0.9535715381646921 -0.29138578298060963 0.01274695902978055 -0.012071302580628824 -0.0015969857585240398 -0.0007242982960744815 0.19804342091004515 0.257399962174136
35965000.0 0.9520718983532226 -0.29789362406585873 0.015726673227989766 -0.013005771315459533 -0.0006660667339796684 0.00190468691555585 0.21256218860891185 0.25114168146643717
36964000.0 0.9507268809853644 -0.30744423407967925 0.01642594758892874 -0.014679124745561848 -0.0010429499142875834 0.00018907627531904365 0.20998980090381603 0.25409021248638386
37963000.0 0.94491622587542 -0.31566068190757063 0.024180701687997658 -0.016915421680113896 0.0019974332292618494 -0.0004734186048959004 0.2290750351426505 0.2372278166223207
38962000.0 0.944879233333738 -0.3235198018107199 0.02406797732720617 -0.02588519368088811 0.003478793771863866 0.0015318902221899495 0.24118502450536775 0.24031488259436856
39961000.0 0.9405160504182636 -0.333030986831001 0.024179212501974797 -0.025593138803092243 -0.0009402084282228274 0.0030780603914567304 0.2467274067314932 0.21875583281949834
40960000.0 0.9387946130847683 -0.33808847934826214 0.02197549539463333 -0.023023555723659397 6.643830980168079e-05 0.001192589866406174 0.2659383299121997 0.212799718823851
41959000.0 0.9358363342442757 -0.349822971969018 0.02680009865354662 -0.0327259805772137 -0.000420413273353991 -0.0022201567827378277 0.2715064879385577 0.21770140820920253
42958000.0 0.9318673334180462 -0.3580201247728121 0.03086283664261751 -0.04043078919228644 -0.0013939203985016515 0.0008211620225327019 0.2819194806897493 0.20721907340933185
43957000.0 0.9291491386136613 -0.3645237814882468 0.03171947984370725 -0.04483774493241882 -0.0022292090515698905 0.0010596007229607145 0.28833694792958753 0.198800615141529
44956000.0 0.9263050352801131 -0.3729229846827739 0.03568041300228388 -0.050850859011785154 0.001280999080763712 0.0017308975606842032 0.309212339683493 0.2012402205138429
45955000.0 0.922924412635235 -0.3805592995512088 0.03571989895290403 -0.057095103307064125 -0.00037734163988296514 -1.2345276131226657e-05 0.31163680607621635 0.18496708316782948
46954000.0 0.9181584214629783 -0.3897278422394425 0.03599485856221354 -0.06439466530960652 -0.0013329603220459249 -0.002923311846579359 0.3364603544045622 0.1733320051806832
47953000.0 0.9138292793963582 -0.39856730252610123 0.03869946531800837 -0.07078995874070183 0.0015440324573193238 0.0005273733536200431 0.3344706929195188 0.17496976493936597
48952000.0 0.908484799287454 -0.4093521114854967 0.041821009822436674 -0.07934519256616406 -0.00480181245418362 0.00026322625653812535 0.3454266765923256 0.16734975623041962
49951000.0 0.9067936895499523 -0.4126768275859268 0.04192271115650327 -0.08581673173891206 -0.0034985314799076952 -0.00293164358771575 0.3530694926483844 0.16076850348875069
50950000.0 0.9034380943262693 -0.42277064257599395 0.03710710785737909 -0.09525804091876358 -0.0008422411541818891 -0.0017759865129362215 0.35044570650837203 0.14925172331282466
51949000.0 0.8991118608741394 -0.43100639659341716 0.03985238217297273 -0.10295610429279715 -0.0007732981726242815 0.0007202931957654098 0.3529040315358225 0.14031152508173797
52948000.0 0.8969581128372541 -0.4377339149899535 0.043942852147751336 -0.1131277605999998 0.002734324346903146 0.0020467587493724518 0.3671803825568488 0.14145776778390845
53947000.0 0.8922027503918029 -0.44516230081544667 0.04649011987955115 -0.11910798136898704 -0.0005139667487079826 0.0011632594553746577 0.36559876466180957 0.13109111139874735
54946000.0 0.8873875240403779 -0.45281075552098776 0.04570234753758435 -0.12884928906580687 -0.0003897322138378264 -0.0008257363937644185 0.3962041345474712 0.13143513764777398
55945000.0 0.8831730328032291 -0.46232184998239756 0.049234750053398085 -0.14133592198528092 -0.00029065445571458385 0.002659104702137405 0.3927032270178225 0.10039826265368612
56944000.0 0.8802074204531187 -0.4704510251633709 0.04817956829861401 -0.1494880363735145 0.0015634077528529971 0.0009182488764464358 0.4083695011262837 0.10835191431123972
57943000.0 0.8757348076589139 -0.48130702033899836 0.05327305188541645 -0.1635266087455302 0.0009847363951103793 -0.00036460043031655233 0.40850105439702267 0.09647620269040824
58942000.0 0.8702740905700058 -0.485919664089188 0.052229465525092784 -0.17112263357035254 0.0014145199683142857 0.0020389661044117806 0.41528706641294827 0.09359741314276532
59941000.0 0.8685939213625515 -0.4924828314063604 0.056879037655673946 -0.18052101932009032 0.0023524623493678663 0.0015900759256421112 0.41795844299712087 0.09031828678502754
60940000.0 0.8597666699067662 -0.5009705240804389 0.05547019163433931 -0.18603532711380297 0.0019412351278681585 0.0002888839107439098 0.4088484534344715 0.07989864936987845
61939000.0 0.8582336517564517 -0.5073134323953837 0.05695755339226306 -0.19362985339489236 0.0006485701747736281 4.698995929074187e-05 0.4192709343186529 0.07494549772550602
62938000.0 0.850949219798994 -0.5187026031605041 0.05964478164002848 -0.21209848903976974 -0.0025716846878494526 -0.0017620244815497491 0.44454564395049534 0.06298018752750274
63937000.0 0.8449039816474057 -0.5268252548961185 0.06041516805162377 -0.23407632587054603 0.001412148820125498 0.0009344954380852608 0.4393936936454513 0.04252530282569779
64936000.0 0.8405389950822861 -0.531275769319532 0.05969522788100986 -0.24880746823366115 0.00030996628037718616 0.0016126593125574081 0.4368379698467441 0.04333193004950327
65935000.0 0.8376574690329679 -0.5427643228928024 0.05746229894722592 -0.2602800705752549 -0.005539078553483975 -0.00019207167418148338 0.4403033958940393 0.03205566540132733
66934000.0 0.8333808549825764 -0.5469990558177499 0.0567396708850275 -0.2746343747171297 -0.0025720811531216655 0.0010172032847746441 0.4370563483344848 0.021202581044191104
67933000.0 0.8291487401188392 -0.5551569033780823 0.059337582059570994 -0.28988558869264897 -0.0025239054382236795 -0.001110479557710963 0.4528750418355628 0.012099220829758518
68932000.0 0.826275588601668 -0.5559687009517414 0.056259553760447764 -0.30583763410392334 -0.00178991726474686 0.001050845792284062 0.4619960679586354 0.003550237294884341
69931000.0 0.8174335931471955 -0.5715527502676068 0.053843528414046514 -0.3221103024736802 0.0014525214241073142 -0.0007275684566817479 0.4545102914167802 -0.009699559190166287
70930000.0 0.8110120607385145 -0.5785459015952565 0.05172653777580222 -0.3367090803387525 -0.00252005619998363 -0.0008264342976988952 0.45000989407908004 -0.028183092047806578
71929000.0 0.8088074078064673 -0.5855417497799648 0.04599545320986609 -0.3551652823925489 -0.0032806241712358777 -0.0012574031202454163 0.4532972252242839 -0.036499063440105665
72928000.0 0.8012285620277199 -0.5970922187610487 0.043784119921288306 -0.37349255925751484 0.0002806321157954772 -0.0023466844098046407 0.46861145013080086 -0.03799032645290005
73927000.0 0.7951702941363771 -0.5991817192405553 0.035962305343086295 -0.3918447799108986 -0.00033838351484884177 0.00034178662805841843 0.4590943039963687 -0.05746584088743344
74926000.0 0.7886484664475957 -0.6104825817497627 0.028910474861029344 -0.41092731874054345 -0.0008988990823595317 0.002870924019979315 0.4689894116572834 -0.06286681217777146
75925000.0 0.7832549623059019 -0.6147936248467287 0.01806483625693217 -0.4296499379398766 -0.0029963997781155883 -0.0007803774407668713 0.4708781235569637 -0.06747315244208503
76924000.0 0.7781243104105815 -0.6242325884580658 0.010064459056260806 -0.4536593920669943 0.0006448104998255764 0.002814790024516161 0.4761070933991863 -0.07781198737969942
77923000.0 0.7739306545337616 -0.6281564566077015 0.0005837565444696794 -0.4788154017311231 0.0020387884269122934 -0.0009452792435510767 0.46569890453629 -0.08349759140657562
78922000.0 0.7661584381816016 -0.6392622073821735 -0.01290674002912405 -0.505899141294172 0.0013822284197090155 -2.2567415641080374e-05 0.47141927370499825 -0.09373189619575602
79921000.0 0.7587167608397066 -0.6431005762949551 -0.03227136252437743 -0.5287923000230905 0.001457182015087648 0.0020581980186087784 0.465504757558926 -0.11012476207468279
80920000.0 0.7538125213136968 -0.6533839715700772 -0.04573843308504761 -0.5599975868364208 0.002670829600654468 -0.0011306741415049236 0.47181590984078176 -0.12248879444714629
81919000.0 0.7486425121898459 -0.6591309050500335 -0.058924109796910644 -0.5870692445049831 0.0021904787406593104 0.0008930597424408971 0.474251163015932 -0.121594838525473
82918000.0 0.7402207155352337 -0.666841379293087 -0.07814980739465749 -0.6128154848640641 -0.0006950662513832946 -3.784427059641507e-05 0.4750388989016452 -0.13594256129819143
83917000.0 0.7333343405815093 -0.6744526129365078 -0.09754122879196085 -0.6464706267749172 -0.0008318711351695934 -0.0007967771768265277 0.47309643956538033 -0.15651099666017232
84916000.0 0.7269539761280737 -0.6826459257833332 -0.1152879935311099 -0.6809475645103452 0.0014462029755404006 -0.001956551319346899 0.47595175761403846 -0.15822203618051295
85915000.0 0.7212649801532497 -0.6875441959412735 -0.12805808782991066 -0.7123621164992893 0.000885965113989094 0.0028761600425035966 0.46692941434191493 -0.1645514753027646
86914000.0 0.713613293518705 -0.6970842922304206 -0.14762604141408503 -0.7494180123978919 0.0007460714743047311 -0.0002402044847515652 0.460877100942269 -0.17392624935601178
87913000.0 0.7058933046801165 -0.7051842018506825 -0.16384586277342736 -0.7754036220479185 3.0134576607933722e-05 0.00109881495246318 0.45913266430659266 -0.18838779519844082
88912000.0 0.7001472842145393 -0.7108152468138293 -0.18610802151959213 -0.8142757038172409 -0.0028744590430082135 -0.002847472734771714 0.4738061838464083 -0.20171504035620028
89911000.0 0.6930239281681323 -0.7200955040870699 -0.19578510059828616 -0.8528714428527425 0.00029898386237944607 -0.00277838345402938 0.47464903656196455 -0.19819368041337448
90910000.0 0.6844659007370906 -0.7236063821126534 -0.21750170121475787 -0.8821358162152164 0.0007202889212766928 -0.0028945191314949112 0.4674897161251492 -0.20517531370325087
91909000.0 0.6775917280590298 -0.7285022743217606 -0.2329670509072444 -0.9165452263236012 -0.0007902649607405825 0.0011638867757327968 0.4713794237655543 -0.21545236153603423
92908000.0 0.6686755287658193 -0.738877791206876 -0.2559456665135268 -0.9533443921385107 -0.0002880160834463238 -0.0005486950352247049 0.4614350013018554 -0.22923358109700392
93907000.0 0.6646991913369612 -0.7426653015490827 -0.270665263458144 -0.9861324305919228 0.004320347199619234 0.001501419356623005 0.4667384790897623 -0.2467816109558723
94906000.0 0.651883977338606 -0.7509657226126901 -0.29269142345827825 -1.0206662857951991 0.003958299731843529 -0.0033441775419656553 0.46693276671679496 -0.250855425907432
95905000.0 0.6451413738490388 -0.7581098524100414 -0.3157215378565595 -1.055197038706274 0.0008651596081272776 0.0021811139931386106 0.4724352968279089 -0.27563720088392557
96904000.0 0.6373745926917671 -0.7648019730832316 -0.33185261700203994 -1.0940321837884375 -0.003633172280238381 -0.0013400626462622704 0.458409078876947 -0.2651273089653138
97903000.0 0.6265491523823674 -0.7712218320165327 -0.3614878960006266 -1.126497726809087 -0.0025033799136344576 -0.0005254153698175711 0.4536439193557062 -0.27651211348617905
98902000.0 0.623128383764762 -0.7774232548443063 -0.3808391598233894 -1.1689293436923445 0.0006363467285094773 0.0011502193578793072 0.44520745885767976 -0.28794056069002755
99901000.0 0.6113912761603855 -0.7843108271055393 -0.4151768908038251 -1.1971858360619996 0.00024472358332973366 -0.0034652903659589934 0.4620142282508914 -0.3058548307935208
100900000.0 0.6057386644884014 -0.7882372778350487 -0.44541108830490544 -1.23101726662953 -0.0004986709772977512 -0.0046592509843623895 0.46213469998984286 -0.30889798201072466
101899000.0 0.5965554583745323 -0.7956850737154441 -0.4711714187214872 -1.2724503584820042 -0.0007460160213049009 0.0034169468648074415 0.44366871441460487 -0.31900090366594847
102898000.0 0.5888284669473022 -0.8004954560985902 -0.5056554568058184 -1.3129526442958632 -0.0024596648791163204 -0.001115146827162548 0.4566366484972089 -0.3297257196796095
103897000.0 0.5784759789837247 -0.8113251025321607 -0.5523111467964453 -1.3451382028878653 0.0005743994718628513 -0.00027731144575851455 0.4614352921043025 -0.3272241506515328
104896000.0 0.5718954403279576 -0.818747119968731 -0.5941033626432336 -1.3776206855245032 -0.0018475902457104564 -0.0006186748673290157 0.43942158005795956 -0.3245908583484234
105895000.0 0.561171735665388 -0.8222505994770062 -0.6364371237972082 -1.425688393260511 0.001995841585592709 -0.0054046493472304745 0.4389418737317157 -0.3395749392621466
106894000.0 0.5521172212616443 -0.8271895037573437 -0.6942889749875368 -1.4675409277876221 -0.0002846195487798664 -0.00013035094173938767 0.4343796701941198 -0.3629142397041589
107893000.0 0.543369851101985 -0.8360756388912469 -0.7421280572636623 -1.5058570323593348 0.0015650387618071763 0.001854496892432301 0.439274151212398 -0.3655357392672121
108892000.0 0.5365391207212076 -0.8369173506749119 -0.8026673485665978 -1.5456155337098123 -0.0025427458737946494 2.030826029683359e-05 0.4297793202018668 -0.37008858899433966
109891000.0 0.522182392345059 -0.8460477392734944 -0.8616808825404398 -1.5789142303064878 -0.002893812587177312 -0.0014240809011759666 0.44047601033824907 -0.3704193183211409
110890000.0 0.5043001556084208 -0.8537660330941508 -0.9323721216265698 -1.5785175123873567 -0.0010573243457648047 -0.0020053843671358935 0.42788950079772525 -0.3728817182795015
111889000.0 0.5028511087995834 -0.8524223340416589 -0.9868113989624957 -1.6525534784319937 0.000433638097521439 -0.0014747430434329863 0.4300720718575567 -0.3830559450996011
