! Created with skrf 1.9.0 (http://scikit-rf.org).
# Hz S RI R 50.0 
!freq ReS11 ImS11 ReS21 ImS21 ReS12 ImS12 ReS22 ImS22
1000000.0 0.9858317337924366 0.0019055619996564876 -0.01866971487022667 -0.04191089134955778 -0.018156873931970727 0.0043677755870605295 0.3508815414753851 0.3151232551000602
1999000.0 0.9918622147921701 -0.011017738151781704 0.0046865303516970885 -0.026757971266423056 -0.009600286430413822 -0.0012136259680034088 0.24714284166553918 -0.10496361826119667
2998000.0 0.9986365319844458 -0.020453111599930004 0.005815472290128533 -0.012033998513725485 -0.002207683958968047 -0.004176220759959316 0.19830830885435521 -0.13057278043805937
3997000.0 1.0013908529433875 -0.030828607387860158 0.011847660634734986 -0.0013091943425828602 -0.007160260837918756 -0.0006851480731462332 0.09491867766608314 -0.2238805021308515
4996000.0 0.9981513951067543 -0.04164132751306115 0.012762100291896157 -0.0022855627635188806 0.0012451824900994069 -0.003988421521360279 -0.040965589266540745 -0.20029394748303075
5995000.0 0.9974556672024147 -0.048067019932855795 0.010746228641355427 0.0019483096657904044 -0.0009154760929562002 -0.0023809785428108438 -0.11814347319830307 -0.09863798514189068
6994000.0 0.9995272559941277 -0.055768515730108 0.0065178690928746254 0.005451221391903809 0.0015375393252869667 -0.0025717048639756664 -0.13369915840771088 -0.009350518761370337
7993000.0 0.9961181294012372 -0.0661924126934493 0.004746304795857129 0.008296511718796256 -0.0037203012913855117 -0.0011700051821745465 -0.15533799968008719 0.04896127191974524
8992000.0 0.9965119325693433 -0.0697517381326276 0.004874574726810062 0.003859994654859591 0.0022683486241776587 0.00021403487284861605 -0.15883693036539356 0.06113095715093224
9991000.0 0.995211962961714 -0.08370229770999156 0.0034301381298573654 0.002962470154296683 0.0029150842687414792 -0.00292898802145655 -0.1460993509246904 0.09131020730561376
10990000.0 0.9964255989966911 -0.09231925830012482 0.0015962618529664172 -0.001413519966383291 -0.0018281293185447255 0.0041657674921168125 -0.12967992423544253 0.111753133559153
11989000.0 0.9923375629699085 -0.09772557767515609 0.003659331351203389 0.0023507166770582923 0.0019317052150153592 -0.00040701663571218326 -0.12042988900564969 0.13919893952931858
12988000.0 0.9899970010654993 -0.11130718583415004 -0.0011406823303283468 -0.004005807971954808 0.0012327010420663123 -0.0035126856178269964 -0.11112182553826344 0.17108645204411643
13987000.0 0.9889879828738457 -0.11722670442830807 0.0012550499610415869 -0.00459399711708546 -0.0034646768639575 -0.001871719384618759 -0.09541614536452478 0.20206795800686925
14986000.0 0.9901868724584744 -0.1250211033862081 0.0009516515391642275 -0.006553724130027626 0.0028187742149245482 -0.0015195813749439339 -0.08521324214490932 0.20006041928855656
15985000.0 0.9889905602956849 -0.13274236016444543 0.001948270148141398 -0.00412570219704005 -0.006487549861791463 -0.003137007647132783 -0.07310653234763886 0.22316519014457348
16984000.0 0.9871141917118347 -0.14462022066810515 -0.00402940460140161 -0.008399005938038355 -0.004050575671569427 0.0002477994254107356 -0.06380027862485142 0.2294886351142499
17983000.0 0.9858393371769603 -0.1507277861825469 -6.857403911347694e-05 -0.0010188415757857907 -0.0038753848565116003 -0.00015675778831229824 -0.04751387307528963 0.22332017010515479
18982000.0 0.9843150074333791 -0.15865707759639067 -0.002284947012346469 -0.0008986769120178529 0.0024134030662044887 0.0011716239298660532 -0.018844946468137787 0.24631655703355188
19981000.0 0.9837131532160596 -0.16454130179902335 -0.0027937967729144797 -0.00547638185827583 0.0038146584447587306 -0.0009341185216854998 -0.019137534019500378 0.24726956536503328
20980000.0 0.983508201477355 -0.1727251228593526 -0.002572562996430557 -0.002624734418850074 -0.0015900910408472334 0.0036668886256903638 0.010823345601010647 0.25605029125341977
21979000.0 0.9814868966327508 -0.1821539278802737 -0.005687733342019541 -0.00037147221349009076 -0.0013917417350748171 -0.0003730991113027976 0.015476746351617018 0.2437325224853214
22978000.0 0.9801017929887061 -0.1906319780213263 -0.010478762707208048 -0.007945265153563214 0.005137291644051562 0.004614872502123759 0.03878183684437146 0.2611089714230756
23977000.0 0.9799601809913435 -0.1998015520445552 -0.010669259357865895 -0.002583143138405422 0.0015486853343866448 -0.00100396589795457 0.046826745089218996 0.2552245275568148
24976000.0 0.9742674986643196 -0.21023330948346397 -0.004620912274337005 -0.003271001201066977 0.004530209320440271 0.000165323191854913 0.06214313120291362 0.2624913244638525
25975000.0 0.9663804318921483 -0.21822129203160984 -0.0043253018047452255 0.0009135270056039381 -0.009336517530851355 -0.024138860867773053 0.07709621642175761 0.26281044201831005
26974000.0 0.9713413663949463 -0.22680093541693927 0.00072166622109766 -0.002296144944633858 -0.003133875687478226 0.00035552949582541777 0.09763751556504517 0.25788978010631897
27973000.0 0.9710528629135697 -0.23179679329826788 -0.007275987639266929 -0.0031247871978320172 0.0022666193534223345 -0.00037486413914419566 0.10975706476137283 0.2614585241677307
28972000.0 0.9671022043374744 -0.24305987701510479 -0.0029310775246876378 0.003200859248837879 0.002589248077015687 0.0005857422436247607 0.1225662424927819 0.24458125219689383
29971000.0 0.9669385562443344 -0.2525640377768027 -0.001735291052226621 0.0009733024104368723 0.0006036829333951511 0.0008095980590542603 0.158243459415831 0.26093352620372534
30970000.0 0.9630708024254204 -0.257496276867563 0.0002848468120274007 7.343669999337295e-05 -0.002415414045532556 -0.0017238182937723025 0.1695515104096438 0.23580195750419133
31969000.0 0.96272538855645 -0.265955859062801 0.004250365968746058 -0.00534955538510682 0.0007150405302199674 -0.0043135920234833 0.1570173881897706 0.25198138816996557
32968000.0 0.9610819086790618 -0.2752114235488987 0.009202834374057006 -0.007351721304087553 -0.0010673272354053038 -0.00014168485418728007 0.16654338346543623 0.24559592754132686
33967000.0 0.9597027277819112 -0.2826300264090121 0.00883135876529652 -0.009363609743508128 -0.00043877107653301486 0.00318301188865814 0.18847199858774097 0.24509871356321428
34966000.0 0.9545109892262013 -0.29212511355824694 0.010141655955515456 -0.007974008041384073 -1.3440190115607041e-05 -0.0010246861703554248 0.20679995111181457 0.24405253197857033
35965000.0 0.9511084221223137 -0.3001112001192273 0.015430963377705005 -0.015086448821572522 -0.0033314186260605607 0.0019069590301673412 0.2178108940073855 0.251565941575372
36964000.0 0.9490052347361346 -0.3092283596897508 0.01553218945716274 -0.011217393379337404 -0.000554209424862507 0.003821311744549189 0.2233974591216801 0.24965989634496216
37963000.0 0.9466433680675866 -0.3182641618571837 0.022547463807290724 -0.020313201324973742 -0.0022131822049399137 -0.0025462406563279325 0.23310732151515182 0.23473314818540567
38962000.0 0.9437897916953158 -0.3261144098575108 0.02597170827470959 -0.022834490652155596 0.00044248165670024284 -0.0003522460222256718 0.24380013434944933 0.2275324882762689
39961000.0 0.9397279732684966 -0.3365948948553494 0.026799292012619214 -0.026797517961788253 -0.0008514303783832263 -0.0003733110375547397 0.24892288468834906 0.22343892384370023
40960000.0 0.9358699668733939 -0.34416528036016747 0.022405039510993 -0.023122143512461005 0.0020174711537444944 -0.00015000195524678744 0.28230322843259303 0.2213187817075975
41959000.0 0.935081006496075 -0.35363041796243644 0.029105042678179423 -0.032544676817435975 -0.0026165194515083844 0.00016566937788035604 0.26966447726624515 0.21573832856662897
42958000.0 0.930016436271571 -0.360651652799106 0.03172768533895723 -0.03884706985400725 -0.0007456398035713737 0.0004898015042239493 0.28393238368708784 0.2012037667236087
43957000.0 0.9266924990251324 -0.3703719181087503 0.03432693107218779 -0.04378020602481524 0.0015062563110011774 -0.0010083738090951812 0.29370901615154615 0.19804333842947305
44956000.0 0.9237743413301349 -0.37731216662609146 0.03295193578666877 -0.0504101168492125 0.0002692323245540035 0.0031667867410407114 0.3058900822757359 0.18864704495258744
45955000.0 0.9201634155601844 -0.38523501929811016 0.0356604589504517 -0.05747107625304358 -0.001923194079997406 0.0024952747128849226 0.3112856195886431 0.18517589181455177
46954000.0 0.9171147381605049 -0.39400503117192354 0.037889919612499816 -0.06233937219773955 0.0036167815539420107 -0.00031918162887894055 0.3335430004315727 0.17846262909949487
47953000.0 0.9126487813299223 -0.4020784780151848 0.03396589472253108 -0.07070713804502299 0.0018698841216283314 -0.0011836885950630108 0.3458194177932369 0.17386478722888854
48952000.0 0.9082160435395621 -0.41044227218373125 0.03869282340274481 -0.07817845181790188 -0.0022944009153274734 0.0013825653057430785 0.3353836311039445 0.16158761580187164
49951000.0 0.9045473460561759 -0.4195997245884806 0.03957074074570572 -0.08619588456658558 0.0014427103888546128 -0.0007949234966428981 0.3605049429449438 0.15233834691325374
50950000.0 0.9019304430944908 -0.42449272670962873 0.03750354270854362 -0.09290753524364127 -0.0013306167321480737 -0.0024022466882748705 0.3522513652486757 0.14103548417842957
51949000.0 0.8983234989500655 -0.43494615933712016 0.04016884507839229 -0.09868524185184997 -0.0010548875570159549 0.002880800143414484 0.3640716869223219 0.1340393218668866
52948000.0 0.8961695448065876 -0.44221606006357744 0.042559474495888754 -0.11416026468344315 -2.2660653149098964e-05 -0.0034552314470848197 0.37414278774502535 0.12935490836988348
53947000.0 0.8887713187401037 -0.45140965151952256 0.04397406672119715 -0.12198386509305115 -0.0007469558179224641 -0.002356361301697128 0.38351850733364445 0.12463481063319891
54946000.0 0.8842230781201221 -0.4598166032939397 0.04318376448548492 -0.13158335717206857 0.0014571772790828805 -0.0036225989127040567 0.38672096803591327 0.1092284970663158
55945000.0 0.8817098814047047 -0.4663181452649056 0.04467792340691192 -0.14192155019829125 -0.0020211575452148437 0.00202280076414389 0.3888163820452223 0.09842370309546256
56944000.0 0.878271379597353 -0.4760615760993134 0.0484651711384309 -0.15013612626534162 -0.0009787645998389817 0.0010960211349248874 0.4043903613175793 0.09763874095397602
57943000.0 0.8746714319122456 -0.48484984365118844 0.050714350140922 -0.16463335922902733 -0.0019828590692228722 5.824385032433861e-05 0.406772302531524 0.08899671984748823
58942000.0 0.8663771083366159 -0.4900996610356752 0.05112660660925051 -0.17270112727377593 0.0011190092695406294 0.0018368090033485105 0.4182040073475971 0.08426915001001815
59941000.0 0.8655708615139845 -0.49872638121011653 0.05100331041963944 -0.17940421277564217 0.003035242330672621 -0.0030198512029391503 0.42947258166016317 0.08073118641587343
60940000.0 0.8562297237670661 -0.5075921121833686 0.05151640521634838 -0.18572815229238943 0.0005045804245199939 -0.0006444073177542467 0.4087646151933157 0.06718749081570566
61939000.0 0.8547140050416568 -0.5141396958683998 0.051454482521633316 -0.1964627636304675 0.001046797718528213 -0.000648879122321044 0.4126899546725554 0.06151366679343833
62938000.0 0.8479727600124344 -0.5248530677883996 0.05367483661971359 -0.21248638189149216 0.0005822693557190011 -0.001770784921161963 0.4462277765486178 0.04199127431308561
63937000.0 0.8430398749144412 -0.5310961460312467 0.05595259982763904 -0.23502415647053837 0.0011152863252123695 0.000531310658747111 0.4423881403988024 0.029747251108986628
64936000.0 0.8379196676936466 -0.5361321255699653 0.05193859342415065 -0.2469063671967185 -0.0037200563299988037 -0.003019394418908506 0.4423237062905077 0.03418667079021683
65935000.0 0.8347217232690718 -0.5488859101714226 0.052072723222091465 -0.26439461240917045 -0.0021377779223228505 0.0018350155766175386 0.44026096788966707 0.013290098159665142
66934000.0 0.8297590343068614 -0.5526117307587172 0.05447969777903495 -0.2760014840032477 -0.0012354959499847249 -0.0044673159567318885 0.442673245789975 -0.006008059963776848
67933000.0 0.8259526950908826 -0.5625572862181303 0.056060186077496826 -0.2869376416821544 0.000371698680646164 -0.0025403007539988058 0.44149388764550695 -0.008183967335374085
68932000.0 0.8221692826476709 -0.5574293738830188 0.05422568261051185 -0.3020369256823974 0.0009051575855237239 0.0005635967974313396 0.45234368811784287 -0.026032100184920436
69931000.0 0.8115494269400348 -0.5782211582520143 0.05242248197673259 -0.321053877093922 -0.002851897346181979 0.0018790223717242397 0.454191001436903 -0.03733620685063244
70930000.0 0.8053337605010847 -0.5855638510403298 0.047359904995719106 -0.33240336217288247 0.0003299189364621828 -0.001506032466935445 0.4450054481895454 -0.04028085115016597
71929000.0 0.8037395399401303 -0.5945933054633459 0.04739888964929767 -0.3518465188275332 -0.0014152679804058138 -0.0003862216357469489 0.45845352355491875 -0.054788295438346936
72928000.0 0.7969224183806937 -0.60198820608652 0.043157848852776855 -0.3656802427285495 0.0011401255838595881 -0.0018338640273010518 0.4618712523297453 -0.059196395095924045
73927000.0 0.7914374857303373 -0.6085914802047774 0.037419400132203844 -0.3897393336908478 -0.003239156291862655 0.000301241729173723 0.46007115365167706 -0.06260596362827572
74926000.0 0.7873937269569212 -0.6160259713996558 0.027228341486788696 -0.4017729672138778 1.1074231153063483e-05 -0.0006372234341385512 0.46398867050949555 -0.06475406626051217
75925000.0 0.7797775393473534 -0.6223984568348373 0.022230173656180966 -0.4223647665094627 -0.0028137435397604512 0.002573515972333633 0.46587976224523325 -0.0830845168026205
76924000.0 0.7710528702800595 -0.6301196097320585 0.010455212588388548 -0.44664955259400135 -0.0006241355342827379 0.00016798747827026077 0.4685559412485696 -0.0903834106164788
77923000.0 0.7681133479254313 -0.6380774687448111 -0.005084443113846518 -0.4704360793317005 -0.002051310635543683 -0.0010103251093516244 0.46719201879716554 -0.10547305296723392
78922000.0 0.7625811448578065 -0.6470984228255832 -0.02041412834923331 -0.4955064738357623 -0.0022707939725868254 0.0010685419044021364 0.4655114810899204 -0.10841843749782001
79921000.0 0.7532362221329856 -0.6519902917282032 -0.03555761692216335 -0.5217407963513172 0.0015801790653492665 -0.0017357037742460313 0.4526643320490016 -0.12962229837350994
80920000.0 0.7492009716753589 -0.6612826093597941 -0.048839157500636624 -0.5531432929750102 0.0007900171362954132 0.0005518823607405791 0.46656532402250367 -0.1397053962478762
81919000.0 0.7447235602398856 -0.6665203600105771 -0.07014355823148333 -0.57877876837668 -0.004891793520552979 -0.0009635267279945524 0.4612282480596021 -0.1452616100002686
82918000.0 0.7326581298846371 -0.6757376977607111 -0.07918952484493415 -0.6085865703906336 0.005311995541497356 -0.0008189877240302234 0.48176836429737485 -0.15498525694475565
83917000.0 0.7273683339874197 -0.6816895358543839 -0.10513416198928616 -0.639452793030737 -0.00013152061704980024 0.001730574730292142 0.47780248240767237 -0.16386239011764087
84916000.0 0.7223979116480241 -0.6882992404264104 -0.12156923649345512 -0.6734199245184228 -0.0010580101586541884 0.0011930468738543087 0.46815810563893695 -0.17784218946459807
85915000.0 0.7146266184759917 -0.6954902439679289 -0.14189937483816822 -0.702049953440307 0.0036386071039357423 0.0015532654617895643 0.4757056082428909 -0.19436170221589746
86914000.0 0.7061966858915896 -0.7063888102891603 -0.15325484518290708 -0.7365562011672722 -0.000623087470901629 0.0012869331162377521 0.4649731561683688 -0.19100621166816983
87913000.0 0.701636962695586 -0.7110423219340133 -0.17658461983990612 -0.7698028743834332 0.00021700259954094485 0.0008936249828006558 0.46590759104062957 -0.19216068291853433
88912000.0 0.6926411905638012 -0.7191545527265749 -0.1962927875796623 -0.8010645669508828 0.002054537137244553 -0.0008609138222162284 0.460019031664948 -0.2205847665525513
89911000.0 0.6873600397563365 -0.7279672950560123 -0.21044137018277836 -0.8418204090609794 0.001888504086111508 -0.00014842187965774384 0.4750924327928168 -0.2107835252409514
90910000.0 0.678402764144838 -0.7331785107507196 -0.22955552108007213 -0.8709936068896582 0.0018245108147359223 -0.00039938577034699234 0.4640739858032806 -0.2227765578458752
91909000.0 0.6723753844085217 -0.7367899685680396 -0.24596628926902797 -0.9080942815827138 -0.0009559779219717718 -0.0005178829745671634 0.4647465999641128 -0.2403488413156945
92908000.0 0.6631520422692798 -0.7470534180894184 -0.26355584207997335 -0.9451575823906382 0.0017783595621523336 -0.0029196656863759865 0.4608593939183035 -0.23765159019298385
93907000.0 0.6553405835624597 -0.7510234328308371 -0.2912531905410548 -0.969311878893814 -0.00024194717793655425 -0.00014394546830149728 0.4627765617969584 -0.2658474089555622
94906000.0 0.6451583588534843 -0.7600158502356901 -0.30141929448161303 -1.0048990401130884 0.003355848656637651 -0.001363189545236931 0.46522937525783375 -0.2666064483357551
95905000.0 0.6393519843838842 -0.7657381103121287 -0.3201255639728478 -1.0425202270421743 -0.00030203039176970186 0.0029077171052498785 0.4678333526124904 -0.268133189727339
96904000.0 0.630593047064476 -0.7742015825913426 -0.34279647617300485 -1.0821022135266938 0.000583633566312624 -0.0030100019285025726 0.4555538795716662 -0.28460334775473717
97903000.0 0.618662137762432 -0.7806200080834578 -0.3679184498514442 -1.1080133453433267 -0.0022916653841934718 -0.0032524530113422685 0.451282136062154 -0.30212098227561013
98902000.0 0.6159999647610804 -0.7854972102880744 -0.38225613458685026 -1.1503026888257368 -3.3177125198721607e-05 -0.002561058328656251 0.4546400126262929 -0.3068411702675576
99901000.0 0.6044777069936523 -0.7890309845580821 -0.4105559202590171 -1.1781818380556845 -0.0009919937928119127 0.0018898595899811278 0.4573017678066158 -0.33434182653826616
100900000.0 0.5965817682008044 -0.7951745565794983 -0.4471337695087605 -1.2082513849319134 0.003093093259904732 0.00017396547756036844 0.45579481913863434 -0.3356584292377887
101899000.0 0.5914650333857988 -0.8037741893305207 -0.46750575099742264 -1.2519521098705557 0.0037623183982324095 0.0006916258573440673 0.4497055177907907 -0.333584577722827
102898000.0 0.5776684883657363 -0.8104714552495017 -0.5077020551254562 -1.2901240964594796 0.0021430853521610086 -0.0018296900976266248 0.4499518915710807 -0.35093455014803904
103897000.0 0.5705006328141672 -0.8186954190433917 -0.545765174448439 -1.3256738319753714 0.003878278704112304 0.0006848471961897711 0.4584181885114696 -0.3365825582035747
104896000.0 0.5627342665461957 -0.8265794989138765 -0.5851315797245794 -1.3529859858660835 -0.0008233807122864905 0.0007891181456883321 0.42340371068864596 -0.3524833615861683
105895000.0 0.5533254357608803 -0.828802601217583 -0.6275965815702487 -1.3976325093476247 -0.003273938442257971 0.004463977197657428 0.43990062832115057 -0.37211878168490364
106894000.0 0.5427342907381053 -0.8342777165638583 -0.6854619961434889 -1.4297375358169708 0.00117611084933635 0.001816715200264843 0.4365865861413526 -0.37935460381210523
107893000.0 0.5339764764295486 -0.8423398370253444 -0.7372043802454805 -1.4709785434926905 -0.0012617776632052589 -0.0009733086306410091 0.4282067100892161 -0.3919509025637905
108892000.0 0.5269639763064838 -0.8444161700111265 -0.7917587850510682 -1.5083237294355798 -0.0017397714657463503 -0.001641450047663588 0.4254984824416816 -0.3846957080145631
109891000.0 0.5131940824721346 -0.8533505202251792 -0.8531303994126331 -1.5450221868850433 -0.00024059290165858731 0.00025544591497908385 0.43756945610127534 -0.3941499821860126
110890000.0 0.4927865906064021 -0.8634901812287838 -0.9328309102287398 -1.5431670383732996 -0.005983174108949652 -0.0001614774858100539 0.4327665083886745 -0.3978962318457859
111889000.0 0.49459828483640345 -0.8590132498075265 -0.9770981860163697 -1.608960001921589 -0.002726739993277726 0.0015027242616860181 0.4204728743656699 -0.4051563425736682
