! Created with skrf 1.9.0 (http://scikit-rf.org).
# Hz S RI R 50.0 
!freq ReS11 ImS11 ReS21 ImS21 ReS12 ImS12 ReS22 ImS22
1000000.0 0.9809056035175655 0.004542937551036056 -0.013974318485094377 -0.05511303321934975 -0.01245960818038476 -0.0006114725431040925 0.3282538297215061 0.3530513645040399
1999000.0 0.9944316564743481 -0.011714300846579805 0.00021500149579543654 -0.01934705865646739 0.0009475404285050954 -0.0007629706890709368 0.24036826016193769 -0.017352070878227745
2998000.0 0.9944695006847799 -0.02616235650652577 0.0091823204309782 -0.011496754387171204 -0.0011081347468981913 -0.0040506869248581635 0.18982637479488942 -0.1400178642610655
3997000.0 0.9948147302445902 -0.031141967848439676 0.011245127885692601 -0.00966225846821118 -0.0011352071053278925 0.001209738463475915 0.08963881364422574 -0.21744941650348423
4996000.0 0.9946810179083942 -0.04158594526135768 0.0061525269532759904 -0.000915579789432063 0.0024975112840928152 -0.0036474760270533728 -0.04275931432228555 -0.2071912266092558
5995000.0 0.992328849212234 -0.04767675175348555 0.007729085629540374 0.0026033939095404827 -0.0023290722023241502 -0.005138284786498402 -0.13762544582092817 -0.11214509899050769
6994000.0 0.9910453609107858 -0.06140259350467509 0.006344099181901369 0.005241390759588373 0.0022640781469393232 -0.002360088751774348 -0.148214938819386 -0.02713235619635113
7993000.0 0.9907247490455561 -0.06632521836812899 0.004327498847553948 0.003955501610683435 0.0010820136640622654 0.006051633605629355 -0.16579985012615053 0.044219949582807325
8992000.0 0.9918737342847417 -0.07123155317197354 0.0011704325753521053 0.0039733582533487515 -0.0035445657084840383 -0.00020810171710979915 -0.16085752596563763 0.05263892990196718
9991000.0 0.9890989360331018 -0.08049479067614235 0.0039365242303975225 -0.0005855374452878256 0.0016202520542349754 0.004364266191107886 -0.150719517878346 0.09012052474752313
10990000.0 0.9876930742229691 -0.09476917330535388 0.003396459818033975 0.002680261199021584 -0.005362425824896365 0.0038632438432597734 -0.15352465446508995 0.11430444992814032
11989000.0 0.987255625584934 -0.09983387338924987 0.0015866827724728022 0.0022520177028695896 0.005039671285586983 0.004128053149576692 -0.12869143001992767 0.13661727271624938
12988000.0 0.9867270528746418 -0.11011677889551534 0.0037771076117175733 0.001407761647582846 0.003864221778401176 -0.009492847996540873 -0.13175896890725497 0.1710890157125729
13987000.0 0.9842671816878245 -0.11638496156423024 -0.0013614773815835786 -0.0013451509645524265 0.00018345898369804935 0.005667843874983634 -0.09852745437590117 0.18418046716591507
14986000.0 0.9845915127567056 -0.12633905975375107 -0.0034297741923035516 -0.00626314730036014 0.0014851851126087966 0.0002998315685267253 -0.08970802613516696 0.20404738717107407
15985000.0 0.9849138262279366 -0.13375453219254288 -0.002180214436816507 -0.0030971216869856563 0.0041942130613365335 -0.0005514793758047712 -0.07243751137271612 0.21477696045744205
16984000.0 0.9824478153617691 -0.1427185674952188 -0.004041583604878009 -0.0015117490403440898 -0.000628848132362979 0.0012302869464253423 -0.07104721832351939 0.2206720421729499
17983000.0 0.9833911409281365 -0.14947493637750126 -0.0003188466302669915 -0.00605068538108431 -0.0007606639084733605 -0.003382784723410881 -0.06236413163340942 0.22651967102355763
18982000.0 0.9788117003957941 -0.16128894006190891 -0.0031905853171778514 -0.005177107083092748 -0.0006010682823083031 -0.0024203213694317426 -0.02096552497286351 0.2305476471054351
19981000.0 0.977470460747426 -0.1654604743623515 -0.0026752825989744496 -0.0003758954377543221 0.002386281567060321 -0.0022813494695044286 -0.025992917525629856 0.24081176189039397
20980000.0 0.9766927391098839 -0.17589461737083475 -0.0034695631670411445 -0.002237285251462455 0.001761750062636631 0.0006253710067542518 -0.005146031736287253 0.25971418986096123
21979000.0 0.9761340103916077 -0.1835611468715443 -0.006558663595300218 -0.007365592959387834 -0.0008492407961168366 0.0017113566096330834 0.011249730688889747 0.2480265818425869
22978000.0 0.9735451469358366 -0.19631820702033811 -0.005911167560571422 -0.0026720342513613313 -0.0012051834792188554 0.0014138815176378589 0.019101164933703108 0.25921093575467735
23977000.0 0.9731525757360363 -0.20128703742744608 -0.0010810169944169262 -0.0006278251712242794 -0.0011616613415161726 0.00015208236900721248 0.03470580153654385 0.25728035777599895
24976000.0 0.9684623546245539 -0.21012641453435799 -0.0037814725759060634 -0.00025615915848230036 0.0012201755134759213 0.0032134149772965474 0.0551700806848423 0.2612921712847861
25975000.0 0.9654422212903531 -0.22639245362632798 -0.00500802053790107 0.00101601808230025 0.01871868929604755 -0.017484212547267744 0.06188099150419985 0.25683647184241015
26974000.0 0.9656630139151278 -0.22926525949945323 -0.002874313585124083 -0.0027488407874176964 -0.0013971569491602136 0.0005849956052974449 0.08451865836394043 0.2601683875143165
27973000.0 0.9646947881546213 -0.2345906771470476 -0.0019752837080038365 -0.0023702971130418683 -0.0022350680314114804 -0.0016821817621655545 0.09736384685307918 0.2563178428786614
28972000.0 0.9623223106390156 -0.24596779810451994 0.003924355058867893 -0.003270148164829535 0.00017933907953109808 0.0005686595431028468 0.10474698688055822 0.25168904855882024
29971000.0 0.9619715260918384 -0.25089396057605556 0.001900341196619856 -0.0027610982945432084 0.00012969337698974292 0.0016897832686844773 0.13806610942880582 0.26662325546019616
30970000.0 0.9588837281284915 -0.25925904915818293 0.001115141752319637 -0.0006901018915047903 0.0012913273717382221 -0.002936223342169266 0.1623489925656657 0.2514110612859216
31969000.0 0.9581421850630233 -0.26695477308835525 0.00505088955350931 -0.005784559412604431 -0.0030717963408021715 -0.0018680928486652874 0.13829414305312493 0.2559319731631861
32968000.0 0.9557613353223965 -0.27560875027427845 0.007886905305631511 -0.007090136433229019 0.0026759301143641505 0.0021254394823280814 0.16546524951942318 0.24194781127647144
33967000.0 0.9529957370198137 -0.2851463939979993 0.010974546336329192 -0.008809264756190694 -0.0024826626784596986 0.0016917778712003874 0.1798479887416915 0.23851259218449747
34966000.0 0.9497663079927794 -0.29704818641891234 0.01704489295035778 -0.01485231672739454 0.00031383820696013207 0.000875114714830604 0.19031624591082286 0.2529937921183269
35965000.0 0.9478646499605371 -0.30293588945548955 0.017577244366135378 -0.017217222348368567 0.0018081101106640085 0.0016604276539839327 0.19937582244290722 0.25047979489414773
36964000.0 0.9452238353703334 -0.311393064638243 0.01856028197809765 -0.01511439338456902 -0.0009437613709806201 0.001024364000051144 0.20707751310986156 0.2532331294721034
37963000.0 0.940458043449414 -0.3207726656485872 0.02517440889265155 -0.01979399920166682 -0.0010415288921273582 -0.00034168830335988646 0.22812337953405537 0.2398031665553258
38962000.0 0.9384924972762018 -0.32932286694713203 0.022690398563017095 -0.025855816856008084 0.0021752652497738357 0.002384059467195895 0.23111953497107823 0.23439487954465332
39961000.0 0.9362120692755617 -0.3385752954599181 0.028944812479337712 -0.029200718169524117 -0.002798608702188759 0.0002563113538596113 0.25159337605942933 0.22804080084936246
40960000.0 0.933423082871411 -0.3462568499652113 0.021562833327344724 -0.02461466463202681 -0.00035211113313532194 2.6905985791447757e-05 0.2582134010244725 0.22463278877397871
41959000.0 0.9284096610556215 -0.35626673600490116 0.03044014817678878 -0.033026533748868395 0.0052190576817627045 -0.0032235994110518308 0.2667000901219818 0.21341475539645044
42958000.0 0.9244807048119881 -0.36520497469000845 0.031499118677301506 -0.04285993084972578 -0.000313218466208321 0.0006808233641438188 0.27813870177603134 0.2067203926088181
43957000.0 0.9237865375847489 -0.37150166686326075 0.032465906653652586 -0.04860002783431627 0.0028298350732797843 -0.000533278338708404 0.2782151346730519 0.20668164142916898
44956000.0 0.9194232726197957 -0.38045411958487824 0.03278714629071269 -0.052546675368584504 0.0009275618722712975 -0.0005284692342658796 0.29474920437291807 0.19666667511688846
45955000.0 0.9168290616753817 -0.3889465469668539 0.03096022621168527 -0.057646175369414375 -0.0016034885029926626 -2.4719345720296722e-05 0.2891314020723558 0.19402469515418314
46954000.0 0.9128325755094353 -0.39758799731607997 0.03797103276105742 -0.06809886540221287 0.00014703805145252727 -0.00031046579784260286 0.31942116145785937 0.18882996369991745
47953000.0 0.9082584512318779 -0.4078634818647907 0.038098687837629146 -0.07128553011173368 -0.003948200604806885 0.0025404020274559986 0.3274350491051291 0.16923203099449494
48952000.0 0.9029637916741187 -0.4177098753902026 0.03567879674523213 -0.0806197331291937 0.0023685118840300425 0.0016528913883581276 0.3246137528913072 0.1682406026493646
49951000.0 0.9006388926892293 -0.4207598604447897 0.03889075996044481 -0.08654543289203113 -0.001680269500626909 -0.0007771921384696308 0.3487457140914863 0.15274403911059597
50950000.0 0.8968790575136383 -0.4323868689257896 0.03883375916608083 -0.0947098498831607 0.0037909801812244194 -0.0022928350237999395 0.3430337672660458 0.14549453419377753
51949000.0 0.8911039905830883 -0.4391220858120157 0.037449015509229876 -0.10883766645803032 0.0007528133957048295 -0.00561045540564546 0.35369471265457136 0.1387708885364657
52948000.0 0.8896969467333119 -0.4464079433247378 0.03892376055659513 -0.11566759460463785 0.0027285734630535675 -0.00032889420760460754 0.3631818787197035 0.143859541872017
53947000.0 0.8839296407805003 -0.4560337195939085 0.04264068673014551 -0.12299282058263236 -0.0002745314418011256 -0.0015883710450746687 0.36167272736092165 0.13550617540655638
54946000.0 0.8789324377229689 -0.4651329163178622 0.04228405006126832 -0.13276164769053658 0.00157750917829529 -0.0003472846801157787 0.3828824773927201 0.12169783766202757
55945000.0 0.8757775195079491 -0.47384477847234285 0.046455323778451095 -0.14486387056767908 0.0002896729653920181 -6.198690689722064e-05 0.38269114506843205 0.10417802985376673
56944000.0 0.8722291182627671 -0.47981200685326325 0.04656294241874705 -0.15281342569093348 -0.0016041793686438145 -0.00237483099571686 0.38937972116956576 0.11200437855258692
57943000.0 0.8656973719971666 -0.4922985550001132 0.04714177521846682 -0.1615606442343294 0.0007416782751190695 0.0013573846227600346 0.39862628295045666 0.10787247181553085
58942000.0 0.861070100044577 -0.49384916010784335 0.045491136829223795 -0.17548718531170543 -0.002347969272020928 0.002037539968747978 0.4159017709052295 0.09923388188065611
59941000.0 0.8573291149413287 -0.5031982807779832 0.05167578898181083 -0.18663211163437915 -0.00039146729455118384 -0.00012839057053295108 0.4067163852651332 0.09896661697397621
60940000.0 0.8498591425334379 -0.5125216289029466 0.04822651756960717 -0.18644288144361632 -0.00020789490998690543 0.00028659888100712554 0.400958288571216 0.08012258552650113
61939000.0 0.847614191602871 -0.518640837970181 0.05062848526044213 -0.19671549317794773 0.0006871774107508784 -2.40065183641558e-05 0.40949060531868764 0.07351784000999223
62938000.0 0.8415521471438682 -0.5291105178339827 0.05377534999491677 -0.21203201432372 -0.0009007453892882199 -0.0005353188701447139 0.43291659327841003 0.05606667428362173
63937000.0 0.836898260747659 -0.5364274075385627 0.05323919667887682 -0.23343979497289633 -0.0019399746763548724 0.001994496187111374 0.4306145433935382 0.03425683865629668
64936000.0 0.8312733589220251 -0.5417742547043869 0.05408956879237355 -0.2474863868172653 0.000869106235361443 0.0028648475953627723 0.42579749927440125 0.053599291379236066
65935000.0 0.8256256818951432 -0.5525193776440603 0.05314351390976674 -0.26010816041395635 0.0022836955086988553 0.0005560007932086767 0.43102351795807803 0.02222484364027079
66934000.0 0.822041431032828 -0.5590025608407355 0.055524912587817665 -0.2732253574358631 0.0003373221064898964 -0.0009178497885200056 0.4355176649526635 0.018173868355118115
67933000.0 0.8178010338589113 -0.5673212164094479 0.05744203220231406 -0.28582829677005095 0.002000784646211289 -0.0017042236986925061 0.4347891865945087 0.010186596725376728
68932000.0 0.8091206574136484 -0.5724639637675942 0.049102565879745555 -0.30037604130308937 -0.0043449691306512335 0.00015474892476805216 0.4534325642906802 0.004026467158463737
69931000.0 0.8058168825353665 -0.5813370906848998 0.05165368758173855 -0.31652705530751735 -0.0013963157670445017 -0.0020954114126831807 0.4461443829950885 -0.02112177518041062
70930000.0 0.7977759102153122 -0.5920053454666858 0.044875244639161975 -0.33310774291911227 -0.0018574160532448304 -0.0001182810563717096 0.4392121120491393 -0.03509795301131227
71929000.0 0.7948194763110286 -0.598144427648258 0.04254900879993705 -0.3489085717613611 -0.00015140110135957027 0.0016611557379867634 0.45315971119893567 -0.039396110726024745
72928000.0 0.7884281591975613 -0.6086353212600669 0.04065665119450509 -0.3644380097422584 -0.00043013358242631906 -0.0022163468249058182 0.4560473600291391 -0.042673548896861487
73927000.0 0.7788630344334109 -0.6125639633525463 0.03029330900963807 -0.3875072124882987 0.00012419932553347078 0.000418743802397159 0.4526913798120873 -0.053042563226512005
74926000.0 0.776800166031981 -0.6227278175428544 0.02541131413918285 -0.4068296606867024 0.0012667183123748745 0.0015762096292035999 0.46038762793555504 -0.04772256320780469
75925000.0 0.7681865193559942 -0.6272344937515176 0.015392244516850138 -0.42338804723715745 -0.0018250360975789071 -0.003842749150456474 0.4594026128867786 -0.08333723971191202
76924000.0 0.7625336344990293 -0.6345922575250194 0.001528264596412986 -0.44732985307928347 0.0035566759661089446 0.0004183861289909174 0.4553771838075171 -0.07184015539748473
77923000.0 0.75649509534955 -0.6445004483389251 -0.01351673575615823 -0.47109615715641134 -0.0018614391219100477 0.002415448836949926 0.4471033803353432 -0.0846147473299396
78922000.0 0.7520336184038683 -0.6507648468074969 -0.025960527763678132 -0.4977452581301718 -0.0020606944118788163 0.004268305606367874 0.4564277178625402 -0.10396649402472591
79921000.0 0.7421706976274978 -0.6558011140773652 -0.04586254056216741 -0.5205451490568551 0.002258703300458001 0.0022745023018234415 0.46146116064069853 -0.10019374973589626
80920000.0 0.7380080477145582 -0.6657189955338112 -0.05938570573353894 -0.5506320000358946 0.00014049159534494906 -0.0015797072358555034 0.46193063346784236 -0.12661952276800706
81919000.0 0.7335103802476679 -0.6706415649427955 -0.07893972970080121 -0.5796608014544061 -0.000220788876484284 0.0007691178212672019 0.4475042768712667 -0.13173768964850072
82918000.0 0.7237899433920932 -0.6807370524706808 -0.09545622489072274 -0.6084059250447943 -0.0004390531513247 -0.001550120531845137 0.4705422862997325 -0.13369363720394692
83917000.0 0.7164154039109188 -0.6881147434106867 -0.11728164244971709 -0.6367640953086918 0.0007431903858934315 -0.0009232817664356705 0.47253216906566775 -0.1436714474072534
84916000.0 0.7096860621468684 -0.6940612524082231 -0.12615007860610583 -0.6708022701308287 -0.0033879689591605967 0.0002650522088669727 0.4583815967236359 -0.1638091962805814
85915000.0 0.7038941681140574 -0.7002844947619639 -0.14975125072810574 -0.7008604609159858 -4.188378161666314e-05 0.000124668788004567 0.4573458730885396 -0.15974002359734857
86914000.0 0.6959571814775964 -0.7108618159654941 -0.1654381629767076 -0.7397103653511233 0.0011743308748817128 0.003732546646500155 0.4497024872734918 -0.1658926241429524
87913000.0 0.6894825914954554 -0.7157710215884063 -0.18041053768998297 -0.7666697872561637 0.004740678329352742 0.0025973115026129037 0.44495597741587356 -0.18059947968608495
88912000.0 0.6809825977639732 -0.722772937057435 -0.20075767919775112 -0.8013696198809466 -0.0009418096695123123 -0.0003035880865022689 0.45506724365215045 -0.19143002052926367
89911000.0 0.6725041977799407 -0.733319735659936 -0.21838843891213566 -0.8361974150369759 0.000905607710908343 -0.0010651913720418275 0.4553895359991502 -0.21163303922468885
90910000.0 0.666787697498145 -0.7352130312672118 -0.22630975431251554 -0.8742232353123593 0.001000476422250495 -0.0023973896219392143 0.46092020143993045 -0.2131964821510288
91909000.0 0.6580043692521723 -0.7410140342301559 -0.25080548793978247 -0.9049173006409413 0.002044082527009519 -0.0003997301411494758 0.4508865772934338 -0.22289482348769868
92908000.0 0.6498597912730063 -0.7508442659590634 -0.2681167079673603 -0.9356531544614946 -0.0013432867068951745 -0.0022762098573019837 0.449572268488927 -0.22543273219015939
93907000.0 0.643449628713058 -0.7559432234282067 -0.28678221041769314 -0.9693091834151485 -0.0011765486610173929 0.003708119753265687 0.46199481910908635 -0.25568528111207844
94906000.0 0.6314717696791243 -0.7640894845332677 -0.2963284573716457 -1.0022370421595586 0.002274115472454763 0.0003590565623837702 0.4453384586343117 -0.24301736491291204
95905000.0 0.6266858061650564 -0.7682898892171193 -0.32199352199306774 -1.0407437102353778 -0.0020773833557827994 0.00038055570504933183 0.4571232496862426 -0.2643709010335462
96904000.0 0.6188009795773135 -0.7756839918859723 -0.3352418974433187 -1.0767104999616208 0.001777483934128763 0.0030579093096287434 0.4485776019644707 -0.2722054437383735
97903000.0 0.6078739642497966 -0.7832232081273109 -0.36467071561953635 -1.1036488422476305 0.0011955431114630253 -0.00062546944910068 0.4417241173146221 -0.2807158437417061
98902000.0 0.6017026714183835 -0.788896358529421 -0.37836055520784345 -1.1438390535332372 -0.00028529262558941494 0.004530353479987328 0.43856047891243927 -0.279664460132302
99901000.0 0.5943279888199947 -0.7964575626316698 -0.410704211474436 -1.176562050340381 -0.0035021276597043904 -0.005044830718431833 0.45012858502359626 -0.3102342874565206
100900000.0 0.5830584861351779 -0.8003514078564208 -0.4432451145423537 -1.2046503990412887 -0.0014442316192629118 1.1126195342191942e-06 0.452088320695179 -0.31151957636080113
101899000.0 0.5739895612463036 -0.8088264720997181 -0.4737348480152235 -1.2443618453954595 0.0010817012522980778 -0.0026071341437058373 0.4423799364209865 -0.3181579035607381
102898000.0 0.5673753302516414 -0.8123432082234952 -0.5080910554952858 -1.2787723257991184 -0.0002778319758029816 0.0005023702760369202 0.45122886190649864 -0.32708081305323605
103897000.0 0.5574931866424662 -0.8211172587713818 -0.5465457952273962 -1.3149303344665273 -0.0009479052283197215 -0.0015684953503673949 0.4562021444317306 -0.32369714710187114
104896000.0 0.549637266956869 -0.8305567635370767 -0.5923189883807451 -1.3477699036291804 0.00046228506159341895 0.0011827043332479886 0.43747396594837856 -0.32307653261324465
105895000.0 0.5389815169036717 -0.8307648085073277 -0.6365407503266849 -1.3883331378345547 -0.003214867023318046 -0.0005292914920137733 0.4351839835773748 -0.35712082501966647
106894000.0 0.5301617044566483 -0.8378544148314918 -0.6900573462903464 -1.4244711500664817 -0.0018180885992272922 -0.005788674047755646 0.4293439717016508 -0.35889550074144433
107893000.0 0.5216591775323637 -0.845449157076437 -0.7433955087582185 -1.461567798943008 -0.0016973382057764812 0.0024320299281488035 0.42581703604802895 -0.36643587680694095
108892000.0 0.5117042661060143 -0.8488158370352813 -0.8038678389253625 -1.5025750906844781 -0.0009957018984091063 0.0018716957794015303 0.42167708230537043 -0.3737262636053692
109891000.0 0.4997356562181805 -0.8559187484920426 -0.8626807647423204 -1.5356018403035356 -0.00031398921308391887 -0.00010502396723101541 0.43242458651676363 -0.36684468999946823
110890000.0 0.49488123881940804 -0.8623196932145109 -0.9214883345319766 -1.557543501614476 0.0025005163177036936 9.228581621007613e-05 0.4208330670793183 -0.38032404900770345
111889000.0 0.4807930103705886 -0.8623960363016444 -0.9893997522411723 -1.6057851291082212 -0.0003785855069105969 -0.0027096451880750457 0.41367562763756216 -0.3881315664921742
