! Created with skrf 1.9.0 (http://scikit-rf.org).
# Hz S RI R 50.0 
!freq ReS11 ImS11 ReS21 ImS21 ReS12 ImS12 ReS22 ImS22
1000000.0 0.9777979706131437 -0.008933490312194217 0.00047525442167589834 -0.03507321330304787 -0.014286885733795184 0.013791808458627885 0.3996594349017603 0.32010959171978215
1999000.0 0.9928434823716312 -0.011760767106465456 0.007371149189358683 -0.023895361051449227 -0.004275658616398344 0.00015644344830831298 0.2824532434564215 -0.045891069745185795
2998000.0 0.9987072628992852 -0.020347730493056115 0.011960245824962279 -0.017720147945388953 -0.0012439474440295991 0.004251882013190421 0.2014935196725214 -0.146788933898231
3997000.0 1.000370544376545 -0.030739783300881326 0.01532178600782536 -0.007270058080511255 -0.0004956868077442926 0.002386339819546511 0.08710515474008862 -0.24055741810608378
4996000.0 0.9939858639189579 -0.04129066459301438 0.015065372966431132 0.0007770144742474583 -0.004391725490971402 0.000745370154299859 -0.04890120179376192 -0.18929363744977215
5995000.0 0.9975622422725265 -0.04817927675639308 0.004965154220680317 0.0010009595596073935 -0.0019411604999879837 0.0014950574174547285 -0.11953676938017949 -0.09656446665642483
6994000.0 0.9949730114267359 -0.058927924260257364 0.007502219452532269 -0.00021456653184367914 0.0019752265775428886 0.0014741953041467087 -0.13386069019719976 -0.016867048665646943
7993000.0 0.9982554172374936 -0.06593384412422483 0.005669881498585305 0.007814369451951965 0.002537878462185906 -0.0012681655712772292 -0.15234071081967518 0.038790460170074016
8992000.0 0.9956752257881547 -0.07083688349262007 0.0012771781383377598 0.004873732032955043 -0.001383314396738245 0.0008496277430031964 -0.15303238683314316 0.07197311657939529
9991000.0 0.9929471215564581 -0.08396539626384349 -0.000744152284726397 0.0013658252654569266 -0.0012953906756257856 -0.0013535248426245344 -0.1457351716243163 0.10109444990518063
10990000.0 0.9929384664362715 -0.09061355187870858 0.0044896410489297985 0.0022843774327296553 -0.002166253812342662 0.0008096684000174912 -0.12725839391232108 0.12215956920706836
11989000.0 0.9938314028538587 -0.09956140675247226 0.002362998307303457 -0.005328292283028494 -0.0020268939881580646 -0.002221046772170432 -0.11457196082137182 0.14014305943051922
12988000.0 0.9914605155664392 -0.10890683558771966 0.001455577052291384 -0.0032497693994870966 -0.0023515529346384333 0.0016471529947437705 -0.09859854909074879 0.15947027832558394
13987000.0 0.9899133368736412 -0.11800572687667675 -0.0024871525227626295 -0.006688251200860767 -0.000778184001550498 0.00207575391116935 -0.08235616620356523 0.19224534921056152
14986000.0 0.9892158083351839 -0.12650962966023147 -0.002608705852970062 -0.005982679269815468 0.00026320328744179735 0.00022327959164202763 -0.07896426196368603 0.2108336822898333
15985000.0 0.9892648125884298 -0.13268561794097697 0.0037185343934837455 -0.003449551028319261 -0.0037699134608074974 0.0024485312557168707 -0.06682185929266264 0.21947893747389888
16984000.0 0.9879311509117885 -0.1424011605820302 -0.0007428727513455116 -0.003409020492084544 0.0032365806814311075 -0.003140923705184025 -0.05224314940233303 0.22453345216162227
17983000.0 0.9891864670628727 -0.14810116943722 -0.0038130155181696846 -0.00511869772175474 0.0011251474129158011 0.0009232732861129906 -0.04031258215536358 0.23157216400521255
18982000.0 0.984502305361138 -0.16015724341597767 -0.0021158482062140957 -0.0032946511312217253 -0.0008251907123487427 0.0026780381747022156 -0.015730704547136876 0.24532531531354584
19981000.0 0.9832461260995579 -0.16542438428240314 -0.0028466209640816984 -0.006773600653902662 -0.0017870204665433572 -0.0014043782257836246 -0.0032860988400955486 0.23802219635107866
20980000.0 0.9836044661414969 -0.17620595797674005 -0.006770337571108858 -0.008715755707064753 0.0017761056062698933 -0.004407466786758201 0.000521096789438897 0.25410527826167173
21979000.0 0.9801411189360755 -0.18388644494833725 -0.005349205334723145 -0.00906053862722131 -0.0013006352947400575 0.0029377380086856694 0.017744876591068236 0.24824148736729676
22978000.0 0.9796201191340834 -0.19514627822155367 -0.007714390402501831 0.001871384903537388 0.0035036496052424267 -0.0008950148209502376 0.039411337967688025 0.2658307840142045
23977000.0 0.9785672460669114 -0.20099326941721413 -0.006109678508671509 -0.0008051849972232966 0.0005995286411324103 -0.0006465515396648015 0.04889155302000674 0.2528840034255664
24976000.0 0.9735576005728078 -0.21174876608121526 -0.005454048782270963 0.0010414459893862131 -0.002664431930761558 -0.0006816298212184039 0.0668296028960172 0.25052255431150433
25975000.0 0.9763879413704094 -0.22314692762942995 -0.007110120577415357 -0.000780895962040216 0.020101362745776626 0.017901747332947797 0.09269239711541138 0.2680586169259233
26974000.0 0.9711792704407475 -0.22671163871133157 -0.0047008243167718155 0.00047416133251331193 -0.0002768288864854854 0.001511238112618659 0.10435945070963874 0.2566673968145983
27973000.0 0.9683434221434994 -0.2354594365669307 -0.002594061961786242 -0.004217097882503288 -0.001632290919380528 0.001547320508946957 0.12302155763298667 0.254975585493109
28972000.0 0.966708899836012 -0.2449151553147486 -0.0021649818887388133 -0.002075606894195749 0.0019130293549606528 -0.0015331395971531195 0.12019980478947608 0.2571781791473993
29971000.0 0.9664378801376419 -0.25043013163168115 0.0018526413555460133 -0.0025741663907021687 -1.542772627722227e-05 0.0015181324997918216 0.15672294947073448 0.26218623147906456
30970000.0 0.9628364949467229 -0.25843478899078054 0.001002112707489948 0.0002502164772994894 -0.00415836814427227 -0.0008952343357677872 0.17666112095643882 0.24461690088874585
31969000.0 0.9617500181235588 -0.2670198315806047 0.005911555447172777 -0.00248265538567113 0.0005743985270085047 0.0016628762235194956 0.16054008101016107 0.24995879471275045
32968000.0 0.9579544499797932 -0.27755222898386517 0.007335774474141588 -0.006923795733774408 0.0008737452058192738 -0.0037449104062624557 0.1707826009922296 0.250378257910564
33967000.0 0.956599601475597 -0.286953677658484 0.010302947518569605 -0.009988847961581978 -0.0017438509884667658 0.0016814835553830092 0.1883788679843773 0.255784312830018
34966000.0 0.9542880540583076 -0.29437875858595564 0.011825591019430697 -0.014364838743305129 0.0032643429587164365 4.135132171502874e-05 0.21361498880805962 0.25476903188286554
35965000.0 0.952027355512297 -0.30224803572937 0.018100004514123424 -0.017521468770588605 -0.0015857158022480554 0.0027280740171411783 0.21816237310392747 0.24916733230233604
36964000.0 0.9509687119510083 -0.3106091863358841 0.01589239695248206 -0.016048842091713 0.0024450437748337476 0.003003063257799732 0.2239832123544632 0.24957875973002075
37963000.0 0.944324460501449 -0.32120973441607775 0.022671963678813453 -0.018971451708990634 0.0017650495240743981 -0.0015102227061148104 0.24635254469253445 0.22897603719278747
38962000.0 0.9431779252948453 -0.32926046318000474 0.024405309454990195 -0.024284803248660804 0.0003930242961572235 -0.002195369028921133 0.2527093077571364 0.23428297812455112
39961000.0 0.9412805273453178 -0.3347349387164725 0.027264339147206523 -0.02883296224317061 0.005451232134898926 -0.004101379979817195 0.25617759702599513 0.2318912201528701
40960000.0 0.9378596248497936 -0.3445790751607018 0.022991806935809316 -0.02272723309328416 -0.002516689273876644 0.0014238419322222013 0.2760360207397892 0.22396506830115864
41959000.0 0.933652240179223 -0.3531311917493533 0.0299084916283459 -0.031382154024336244 0.0032918059034995734 0.0008632249858995956 0.2862774484611326 0.21429775469561865
42958000.0 0.9275748786802659 -0.36363103889834536 0.03285714638428553 -0.04076388481562611 -0.001898256470150067 -0.0006701670035964231 0.2925245760364705 0.20923498429202328
43957000.0 0.9290587395434053 -0.3656359487454959 0.03292267220529198 -0.047029338106578694 -0.0004081490564096738 -0.0025597647036889725 0.2931405336891423 0.20231149876970622
44956000.0 0.924823420807899 -0.37403156420438066 0.034044458640678246 -0.05134665258449813 0.0013166663866091847 -0.0038696261519781884 0.3163779118534528 0.1954655464557599
45955000.0 0.9197109654771847 -0.3867899321324496 0.034439496375374065 -0.059089783391552526 -0.003373561236457957 0.0002561037526711792 0.32510995627011224 0.19382634413321037
46954000.0 0.9153431149393755 -0.3956992800209286 0.03609533861318101 -0.06437949298751741 0.0008063524059778084 -0.0031903660208430318 0.3437211351116091 0.18094958777125456
47953000.0 0.9139988000063535 -0.4023205101892591 0.036720880221938354 -0.07158785195887678 -0.0007402530751476164 -0.002840640777066945 0.3458160917604542 0.17261167033988498
48952000.0 0.9080235636793313 -0.4116333387240243 0.03552892626348488 -0.07728230706833132 0.0008623933766012523 -0.0018292172205887115 0.34466769431185024 0.1698050531366866
49951000.0 0.9054989312953775 -0.42039193575511086 0.03763806053388604 -0.086837887501813 0.0017812993721593076 0.00019573397504229182 0.3675328551596714 0.14953115776713574
50950000.0 0.9011062393776135 -0.4282140218112144 0.03764089161309772 -0.09521116883612463 0.000677379527913358 -5.370124847865597e-05 0.3594182724857125 0.14717178947198445
51949000.0 0.8978706386882941 -0.43626950456165847 0.04166775990123961 -0.10170975614572404 -3.84425711257487e-05 -0.0005439097325678699 0.3619604680873894 0.14161364527106116
52948000.0 0.8963553020982986 -0.4431816620667735 0.03921842144160001 -0.1119946168038404 -0.00023666192979086 0.0021302666622722765 0.3819978438648271 0.13720223851170654
53947000.0 0.8896836504625524 -0.45133062729403467 0.03875131686476199 -0.12079814901105403 0.0014726169526754448 -0.004928071083415182 0.3870884429752732 0.12695832166494134
54946000.0 0.8859340592187769 -0.4596052607283129 0.04524742243640421 -0.12970918554929556 -0.000760632204735507 -0.0002468135013632798 0.39163671885865 0.12354654563617207
55945000.0 0.8819216666849125 -0.46744132601397825 0.04178528532763922 -0.14151593695597603 0.0019221025111115125 0.00036304072339039014 0.39291989523608617 0.09643163869328926
56944000.0 0.8776259628641456 -0.4760068290400689 0.042928547308391844 -0.1542955112408691 0.0020180589343230283 -0.0010388311497057665 0.40903037845066154 0.11121689749655217
57943000.0 0.8743035137257589 -0.4871087640145594 0.047955150187055276 -0.1619884212515727 -0.004310208048175594 0.0007977398159439767 0.41613771334429395 0.08783454530463658
58942000.0 0.8662388879371411 -0.49238849154953357 0.0490930691387804 -0.17479629634719074 0.0009851998788370751 -0.0018881620601959497 0.4239410623042557 0.08590620583810672
59941000.0 0.8652033684007413 -0.4983736903940768 0.05074924743411454 -0.18226962328888216 0.001437468149821417 0.005042184158779704 0.43409785939809686 0.09410076777981204
60940000.0 0.8572878181398123 -0.506796096920724 0.04729197623386439 -0.18692078332583997 -0.0017404162951926766 -0.0043578022978019324 0.4219635149559887 0.06410741694404101
61939000.0 0.8543676610061246 -0.5147107701271887 0.05257304699740709 -0.1920836933406072 -0.001598223525691182 0.0015222038693050444 0.4251733424851436 0.06188444726828227
62938000.0 0.8482269563429764 -0.5253161025878897 0.0536774578414107 -0.21138871095300613 -0.0034166316976132413 0.004376332620924107 0.46031100329460967 0.05909685236414781
63937000.0 0.8442439135703146 -0.5319818699809978 0.053541718711507355 -0.23363752845846025 0.0026378653840467147 0.0010533796566727877 0.44413758325080727 0.04689159709683839
64936000.0 0.836590699422276 -0.5377962013896593 0.053542860145958084 -0.24521241975795266 -0.005782020083038741 -0.0026735241592019837 0.44664032559663314 0.045861672675269596
65935000.0 0.8339511194764335 -0.5470633219582567 0.0550754474566802 -0.25861760210876295 -0.0022909679560385384 0.0008959397939619606 0.452887559040152 0.011329774929048015
66934000.0 0.8292178278756913 -0.5552538938117592 0.05188557800493365 -0.2738327805109241 -0.0009293448463280413 -0.004872448065962685 0.45421935364048077 0.019508386312185846
67933000.0 0.8260449537455092 -0.5604684450703532 0.05866719884858589 -0.287086254943267 -0.0017701936133984206 -0.000399493295453683 0.4612163033937025 0.0031384058211390213
68932000.0 0.8218677943135176 -0.5556079357741692 0.05247817304548951 -0.29873548777140235 0.0015978801705381087 -0.00021753936908317311 0.464105558133457 -0.002138124129316036
69931000.0 0.8113120734377844 -0.5790447621100488 0.05172025091611527 -0.31629087911077053 -0.0014633498359948108 0.00021296005314368416 0.459035084830013 -0.015569162435494329
70930000.0 0.8050112499287294 -0.5866242773370233 0.04565069129278427 -0.33139731634504965 0.0008379219787464405 -0.0044205621671495185 0.4525467922820351 -0.026520422291708465
71929000.0 0.8025539026679298 -0.5931342162752669 0.04552640261911137 -0.34943314279347143 0.0002542437044187515 -0.0033474974019081284 0.4653944605815353 -0.044470354577761266
72928000.0 0.7978914549566868 -0.603020997505146 0.0386949573841318 -0.36244930633501043 0.001766819741817481 0.0024022382526352397 0.46890767090022306 -0.047575497532007766
73927000.0 0.7876715834266992 -0.6086958537620217 0.02954167438940125 -0.3848596309389596 -0.002420023698794947 -0.0018158638921931404 0.46924033373630974 -0.04969206980280328
74926000.0 0.7864679993245742 -0.6182375675089644 0.026516912419938147 -0.4029279815222048 0.0039565020969712815 0.0020494792378704055 0.47093949520512546 -0.0641482267267897
75925000.0 0.77689884702552 -0.6229447859629438 0.016901386381094476 -0.4209654180207093 -0.0009988402410499963 -0.0004273918518212357 0.48826349554057696 -0.08180359535189752
76924000.0 0.7725293188021859 -0.6320009060302292 0.007868435239404059 -0.44297185114516396 -0.00021916995774438463 0.0031529982907651704 0.47671941204851526 -0.07661764912288774
77923000.0 0.7670754938766028 -0.6377827078699811 -0.009396945593909868 -0.46678723876935097 -0.0014202405763268362 -0.000545372527709103 0.47411292355506646 -0.09440844929913696
78922000.0 0.7612282721711955 -0.6483061034513374 -0.02280701485735462 -0.49349752278627135 -0.002573123173245957 0.001285627959755331 0.4614369533369209 -0.11073609182710152
79921000.0 0.7519675032351233 -0.6527574405783015 -0.03693957916115565 -0.5189752425315554 0.002220402511822037 0.0007015661625665753 0.46563251471796585 -0.10810291141048571
80920000.0 0.7474853947864333 -0.6624215649946564 -0.05510531442373693 -0.5453076504037158 -0.0005158652509136015 -0.0010408061216671655 0.476009980234248 -0.12628285434844597
81919000.0 0.7434666333755874 -0.6667516257836721 -0.0748360086720354 -0.5726046869176318 -0.002283704802142333 0.00251783178246126 0.4749335243912667 -0.12875707720855606
82918000.0 0.733165748295861 -0.6747373495470442 -0.0814085752683369 -0.6048107979903959 0.0004458774976231631 0.0008222390705252981 0.48848980228944366 -0.1383406478379375
83917000.0 0.7259564265616181 -0.6826088015509951 -0.10567054417071503 -0.6319810157217264 0.0015827975402558218 -0.0012159604263955797 0.4884250842370782 -0.15448830006185926
84916000.0 0.7215000594777748 -0.6902833720955237 -0.12526385839982127 -0.6664825086472934 -0.0017302072042452217 0.0006747563938214545 0.47882205228100994 -0.15590193844016764
85915000.0 0.7143794539464495 -0.6960027034251898 -0.14388203309420636 -0.7015435432905628 -0.001382690837686354 0.004691751135543979 0.475894363379324 -0.17481198824104685
86914000.0 0.7076965627753911 -0.7072772236689776 -0.15986844327715452 -0.735527694848494 0.00256124652942109 0.000271701170109577 0.47773767523367 -0.17587655691230836
87913000.0 0.6982554439053026 -0.7120703859743143 -0.17397805168699398 -0.765456799549261 -0.0008465380837007074 0.0025979415081453113 0.47290626446261974 -0.1838473974469336
88912000.0 0.6903088069637856 -0.719119059876899 -0.19939705024391868 -0.7948086821764243 0.0016187060466415998 0.0018216407791784644 0.475628638921983 -0.19825081136586029
89911000.0 0.685176563895109 -0.7279925569529483 -0.20600117045863697 -0.8348406262986197 0.0006739255972535762 -0.001139585458434518 0.48084143615261987 -0.20142864692164802
90910000.0 0.6796981733038039 -0.733714831653601 -0.22519629924050116 -0.8684828560152368 -0.0027754904787655266 -0.004193774872973262 0.4740434832291284 -0.20073155192444228
91909000.0 0.6681751000605534 -0.7387396958300463 -0.24766658770596428 -0.904628053340755 -0.0028038930109469625 -0.0007857920580298447 0.4773843700982252 -0.2161584603547146
92908000.0 0.6605870764342578 -0.7487607010961779 -0.2627469693635109 -0.9325752751726212 -0.0016732618380471919 -0.0009320384742246065 0.4685713940160098 -0.22807844862435667
93907000.0 0.6563967425109271 -0.751083167875598 -0.281732748248473 -0.9648541015829091 0.0006315398117938628 0.003323463086436853 0.4724780574553877 -0.24825480482798984
94906000.0 0.6418773141282259 -0.7608286641817162 -0.3012506261025447 -0.999411196731768 0.004585639970474298 -0.002390601019239404 0.4681747402483131 -0.24691593219033986
95905000.0 0.6359465679652583 -0.7663131277168683 -0.3222725661143538 -1.0347377160203786 0.0016772273324743288 -0.0024994498036570068 0.46715257444602165 -0.27548422625888064
96904000.0 0.6293729060177176 -0.7755107227007332 -0.34148864047836974 -1.0718720673500333 0.00452422014257312 0.0032347845461538336 0.4594691237756977 -0.2735805820481281
97903000.0 0.6187668233253046 -0.7791963262605331 -0.36249777542579287 -1.1027203539612167 -0.0015422849423411265 -0.0016840312278066072 0.45409155461619394 -0.2835750465648347
98902000.0 0.6155806743007701 -0.7872096005794195 -0.38287999659211425 -1.145327291635724 -0.0010630996000976357 0.00196313090506498 0.45663030555772094 -0.2942896275716533
99901000.0 0.6048558504499411 -0.794847900882602 -0.4126644988834127 -1.1727494065388826 -0.0010156705913037828 0.0006571492534619698 0.47085115708142306 -0.3149536787340086
100900000.0 0.59596263539744 -0.7952811378714687 -0.44008683373188057 -1.2041704187281166 0.0004108905224097397 0.002653227385264002 0.4733298069986206 -0.3004044529407788
101899000.0 0.5857214726506141 -0.8043285593164002 -0.47092259858665253 -1.2404219271507557 0.0003706223039123091 0.0040358066333787265 0.45532224570303476 -0.31625839359129304
102898000.0 0.5762618244947072 -0.8108109883906554 -0.5055295121099864 -1.2816349524598802 -0.0030417110241719235 -0.0016963589273591216 0.46655051468814307 -0.3282548712345772
103897000.0 0.5679780162052058 -0.8195237942266222 -0.5414403216205436 -1.3156589226389346 0.0029499723243268643 0.0013377372186664908 0.47034010248174496 -0.3404859618831027
104896000.0 0.5608053595493071 -0.8284361668425471 -0.5839028986691536 -1.3478580264411233 -0.0028964062213471496 -0.001375675626970809 0.4497495709363481 -0.3312993568701437
105895000.0 0.5514509671993886 -0.8311672076567138 -0.6242609072517613 -1.3872553029392996 -0.0015460119544459929 0.00011941676822825804 0.4300662017044789 -0.3502701278563196
106894000.0 0.5404619158587823 -0.8371795315834318 -0.6807766250719239 -1.4239643171374348 -0.00017612240257332593 -0.0017277117288635854 0.4398950787802284 -0.3624144066037341
107893000.0 0.5332006627772036 -0.8428130908439609 -0.7329396798624944 -1.4609114240117584 -0.0015660710234203861 -0.001153415167926547 0.43866741978200785 -0.3840283487632074
108892000.0 0.5233142197238783 -0.8487742340179679 -0.7905807965126159 -1.5052031354210893 0.0009173616730374179 0.0008312759844762687 0.4370814077865017 -0.36315487902735083
109891000.0 0.512166276754716 -0.8538177090598505 -0.8409820548668264 -1.538213846353286 -0.0019282762537998945 -0.00024534791988589395 0.4474726677666155 -0.37499026601610363
110890000.0 0.5090330733497502 -0.8632777701412842 -0.9115034017141457 -1.5582795226349928 0.003550849761723288 0.003175193680686214 0.43750802405081546 -0.3798723418875756
111889000.0 0.491351732165383 -0.8606639383772725 -0.9701771824304208 -1.6052342926786014 0.0018603970157417221 -0.0036378042765271602 0.42630423315537436 -0.40318012986605406
