! Created with skrf 1.9.0 (http://scikit-rf.org).
# Hz S RI R 50.0 
!freq ReS11 ImS11 ReS21 ImS21 ReS12 ImS12 ReS22 ImS22
1000000.0 0.9760853259912168 0.004737902914821655 0.0004847781764936114 -0.03233006623348334 0.0026228226680681407 0.01382751153766895 0.3848041488943193 0.27858067833523287
1999000.0 0.998819258238617 -0.01299583320987953 2.6968951336578e-05 -0.016737082107958847 -0.004170668585836562 0.00322400447225435 0.27154210178278787 -0.012177986074308618
2998000.0 0.997960527576616 -0.022108976074037653 0.012326770422267846 -0.014539180690695833 -0.00264887161904045 -5.069430926903818e-05 0.18664272882409927 -0.13828135502334996
3997000.0 0.9960187136865266 -0.03167204247671662 0.009252310288952 -0.00581425642966949 -0.004018616615666052 -0.004870548376517035 0.07137403084900117 -0.22229243839619428
4996000.0 0.9947234410889599 -0.03849927327299372 0.014571700345245922 0.0018425777792157982 -0.0017693307338440705 8.599145002622453e-05 -0.06506052783214708 -0.18844122856265405
5995000.0 0.9950837077815674 -0.04943650460629473 0.009415335131763817 -0.00019429770312078248 -0.00043863473513370513 -0.002425507348089093 -0.12926615528769414 -0.08388398328374579
6994000.0 0.9923285945071622 -0.06019397754535172 0.0058625352535043584 -0.0006666441442918363 0.0022134358019004216 0.00029665894163068444 -0.1471187042573165 -0.014157279210647947
7993000.0 0.9915257909461235 -0.07088454462027803 0.002444408861082984 0.0023556046185765106 -0.0018178666737550893 0.006242778093753661 -0.15246069772096807 0.03890563147779005
8992000.0 0.9925975455518833 -0.07017876296991103 0.0029109863280292387 0.007295720512727091 0.003221107952672561 -0.0012354792473083394 -0.15547760496493612 0.05979092505830019
9991000.0 0.9881501604634751 -0.08266346606874479 0.0024210526548901134 0.0008905947193075713 -0.0013179167625345988 0.0022558945898091785 -0.1499884273873926 0.08898928251703601
10990000.0 0.9873411423372888 -0.09276034754191856 0.00409018014771155 0.0065358036502458005 0.0014113269652582278 -0.0004606562863567606 -0.13261841103251684 0.11939023123861692
11989000.0 0.9869399153096645 -0.10235752451848493 0.004022599346615647 -2.043902917492388e-05 -0.002670255592833963 0.00048776738765823506 -0.12577226498044217 0.13811651401512218
12988000.0 0.9852507291675651 -0.11077271586803883 -0.0006361136732868139 0.00046358683491613155 -0.0016533908753529126 -0.0028197034004128394 -0.11015803856162387 0.16170614231455707
13987000.0 0.9850798717231678 -0.11687215034330217 0.0030525850875848283 -0.005352201293407669 0.0033673210797525955 0.004174679114812756 -0.10328782434301034 0.1827750846463692
14986000.0 0.9822556869998882 -0.12589493923656253 0.00044858007220046855 -0.004482004396562839 -0.002096299576953305 -0.0018385312819110245 -0.07906299718734229 0.20849379541368684
15985000.0 0.9848992008147656 -0.1347551095745027 -0.00012381167912880512 0.00023379565813826784 -0.0007765191755277551 0.0005160817944567464 -0.06540922608058114 0.21534803080543696
16984000.0 0.9832428083521888 -0.14321381606430666 6.734090763775207e-05 -0.0030062889943289857 0.0010600174188613038 6.238922492689744e-05 -0.0542147635573413 0.22391090660274138
17983000.0 0.9825198938076407 -0.15054919726528773 -0.001978422702547628 -0.004473562918999144 -0.004680937070724914 0.00126139206066681 -0.04709627686953449 0.22264058938620815
18982000.0 0.9789835368201665 -0.16097926726158748 -0.005180542753542773 -0.008157708435094715 -0.004621270219966949 -0.001492583089327564 -0.01443890373716153 0.23264323138092582
19981000.0 0.9784308121942462 -0.16664008874789898 2.2571132319377217e-05 -0.00671292974915646 -0.0004444770256073004 -0.0003084324343001028 -0.007136831601151221 0.24165828796458108
20980000.0 0.9768552118010543 -0.17686226535673863 -0.0034342168268744347 -0.006316732901272024 2.2099946851575853e-05 0.0018242068056638664 -0.0021543605200455055 0.25832282007517215
21979000.0 0.9756519923228076 -0.18356797192466948 -0.003749417685192431 -0.001866577968815188 0.0034805872661121395 -0.00035558055008959885 0.022535878952289107 0.2504038541506256
22978000.0 0.9728527694590907 -0.1932068566013568 -0.0014281838660989673 -0.0037606936798301733 -0.0006582734159948276 0.006835571364367685 0.027587955787505208 0.2527421754952597
23977000.0 0.9762654770888214 -0.20054620197484632 -0.002540151220098185 0.002655727792665073 -0.0014804204236629759 -0.0012329434219385473 0.04740913936550439 0.25875883029968694
24976000.0 0.9695061458569987 -0.21170490744313883 -0.0048827419242497535 -0.006576102565933245 0.0010928484110338177 0.0020840734611094827 0.07097735078807196 0.24778227177059498
25975000.0 0.9627272309658648 -0.2179385271694717 -0.007119302468775872 3.516198843603379e-05 -0.022956929182550663 -0.010572264876659765 0.08465823171245736 0.2567521027998795
26974000.0 0.9685431227112593 -0.22810075002227123 -0.005596473706506005 -0.004726826580707922 0.002739284263710611 0.0007116618165170989 0.09793128977506761 0.26341837549417796
27973000.0 0.9651913925641428 -0.235209718389974 -0.003165475996351853 0.00023966196128974112 -0.0002334513872358488 0.001867863257318013 0.10466697768412063 0.2545561453834337
28972000.0 0.9624216454932839 -0.2458506760027309 0.0004914635300369082 -0.0035798719333014783 0.0005969925496148009 -0.001970987852309958 0.11776077428134121 0.2684612416917179
29971000.0 0.9611211268013126 -0.2525480679022812 0.0032666302831452763 -0.001897752950580821 0.0002984110552874652 -0.002761699006442632 0.16164994189600712 0.2639454768735724
30970000.0 0.9580134965085163 -0.2589724799211823 0.003498930860289073 -0.0013494566172414608 -0.0009381171638304358 0.000901261307535023 0.17165581127342758 0.2506753449405454
31969000.0 0.9569739556745058 -0.2678479075103794 0.0062747667178195115 -0.005420445942405897 -0.0008102849766851428 -0.0021331252994511024 0.15418545557736124 0.2525978299063584
32968000.0 0.9559729895630154 -0.27587827667823184 0.01121006460127731 -0.0064530760647686005 -0.0021918362037461336 0.0008583206138429487 0.17043186582423273 0.23866014181607859
33967000.0 0.9543705849452402 -0.28468955794212086 0.011893405807618376 -0.010398116035864838 0.0021548609471141724 0.0007835031902623054 0.1906016810799452 0.2471856861015598
34966000.0 0.9496014317001119 -0.29678893980250975 0.013581725441323354 -0.008000332792009965 0.00032884253054880734 0.0003708172017952467 0.20439749936858106 0.24462599067120996
35965000.0 0.9455315168231867 -0.3044431617478766 0.018065184530949255 -0.013313531053509126 -0.0008360306608569865 -0.0005105961431111974 0.21768121495541143 0.24616857766891365
36964000.0 0.9439542624404242 -0.3126914369175381 0.019718673215320625 -0.014030621073829802 -0.0015923663961334555 0.003005560172973576 0.22441321478363296 0.25161261212323005
37963000.0 0.9436155042202723 -0.32182750757062595 0.02494933244390686 -0.023680246764833695 -0.0001964812953520736 0.0005378998318365337 0.22844614993212933 0.23892757288807645
38962000.0 0.9403549013337364 -0.33102290845441296 0.027043484117816808 -0.026108276937197333 0.0014025921460842517 -0.0009795968393899472 0.24253886390322996 0.23083474419057998
39961000.0 0.9355036561872897 -0.33962552776582233 0.0266257244504699 -0.030058766381667247 0.0026637679796521897 -0.0013140620962038632 0.2486219512625946 0.2266222175149207
40960000.0 0.9328102056696261 -0.3461718174094903 0.025645215595712933 -0.023240605774148878 -0.0016985941408918796 0.00052819034495509 0.2702671787303485 0.22370660735690812
41959000.0 0.9305108941339961 -0.3566521040761589 0.0290116636717987 -0.03143248269918295 0.0009548054433299657 -0.0017617777835139902 0.2783608371855457 0.2152995394476312
42958000.0 0.9247737889159805 -0.3641654908238581 0.03391277870947919 -0.04032602079231095 0.0004994423827394463 0.0010612537372181757 0.28456544965386454 0.20460056037140728
43957000.0 0.923494455888411 -0.37242035793356904 0.03427523881976357 -0.04412956240410924 0.0011983372037203915 0.0028557393754121874 0.28588570076347664 0.20840204860551612
44956000.0 0.9194449006439303 -0.3800339288798739 0.036244114595274005 -0.05391896333809327 -0.0007462189326010171 0.0018553203255480706 0.29925471135489384 0.1996933683348026
45955000.0 0.9136456995780543 -0.3893078525955106 0.03509539374578178 -0.06209529189687847 -0.0025141191074077155 0.0014002878833894946 0.3104500812346417 0.18549548307008543
46954000.0 0.9117621540870641 -0.39781476366836493 0.0389914228505988 -0.06551190907572305 -0.0031852776491917215 0.001573714548245539 0.33465551672129906 0.1738484928206176
47953000.0 0.9091379641333202 -0.406230837979494 0.03708633540786236 -0.07222549038639704 -0.0008148506763603978 0.001319038741030377 0.3385545207673633 0.17170782903811047
48952000.0 0.9030178775399674 -0.4174024526859087 0.03349938115357976 -0.08130186971292347 0.0015488663435262126 0.002077450694382839 0.333789223610248 0.17088584556559352
49951000.0 0.9003052251050562 -0.4237975799748438 0.04112460084595253 -0.09322588686599384 -0.0023704884176751397 0.0017144981036641637 0.3530560732636317 0.14788284503844634
50950000.0 0.896633439829189 -0.42959326839008566 0.040933826406243067 -0.09693822196761996 -0.0009241958731059129 0.00056420016556715 0.35771230765004064 0.13809648227483076
51949000.0 0.8916557011387166 -0.4395661899245931 0.04235936303545514 -0.10475861608059032 -0.002012232630099659 -0.0010891896526143685 0.3691391391104359 0.14885267292462798
52948000.0 0.8887991691698668 -0.4500243178139983 0.04252094588372074 -0.11597926688815416 0.0008211666472519409 -0.0006677108610124645 0.373352765274169 0.13956000797911736
53947000.0 0.8827050121275355 -0.45604510653106145 0.04356476702740709 -0.12269822789057608 1.2740313651536223e-05 0.0012909872821999526 0.3713408469766896 0.1346943798071575
54946000.0 0.8785991950587083 -0.46653565589694196 0.04575288176116155 -0.13317642407344163 3.329501349195845e-05 0.001735925685561617 0.3905759792554324 0.12821581235424923
55945000.0 0.8752466048116322 -0.4723577429699978 0.044928925916981784 -0.1424065212704684 0.0009766303424759708 -0.0020904318371138698 0.3921777285957942 0.09950140985761767
56944000.0 0.8727245155515498 -0.4807395183228778 0.04868556832890964 -0.153172920246534 -0.00041760682511755046 0.00129808387046417 0.4015084856065541 0.10041648215194335
57943000.0 0.8666626031368974 -0.4899285970159089 0.0516337229431895 -0.16427888801448573 -0.0008011207393300949 -0.003306811450055053 0.4018822339240457 0.09767819002535139
58942000.0 0.8598521882504457 -0.4957941050586624 0.051382017639653464 -0.17385829962900345 -0.0007371176811748524 0.005679575401089716 0.42359376988853936 0.08742396045624522
59941000.0 0.8592958012393674 -0.5024077429831206 0.05309728290482813 -0.1876771079390735 0.0009186057962661845 -0.002758969580569378 0.42201531901997774 0.09840120444769168
60940000.0 0.8486361602888808 -0.5129262576581015 0.05124929665536553 -0.1864762612084722 0.00018515637204021576 3.7585416973621913e-06 0.4150004357998431 0.07812187194141179
61939000.0 0.8466177133602215 -0.5189442322877381 0.052451140652185264 -0.19505519476713426 0.0002818640513651032 -0.0025395724004778934 0.4178452114388975 0.07424528993002218
62938000.0 0.8404439777370364 -0.5295326203875905 0.05481260102143299 -0.2153890561343013 -0.00045747246591339884 0.0014862141563153387 0.4472389987233307 0.05021084829907384
63937000.0 0.8345102851471313 -0.5379448305287945 0.05642385421193368 -0.23511539795604722 -0.0019942961684969165 -0.0015852403074356008 0.42790170825203316 0.038993149722507954
64936000.0 0.8291020131720089 -0.5429822603475385 0.05912561466360282 -0.24950394605378717 0.00048315565674586004 0.002784512313155659 0.4383688255747733 0.05087626896111777
65935000.0 0.8256613898863244 -0.5555971776602027 0.0558063612943087 -0.26530215009113495 0.0014566533135942816 0.001967895560362592 0.45686963876273035 0.023987282614226803
66934000.0 0.8216472468280125 -0.558281264221671 0.05648555625065522 -0.2757652746221214 -0.000613073249538743 -0.0028072862242129863 0.44210281233785476 0.011617250759519896
67933000.0 0.8168396795318303 -0.5674158887802991 0.056217778102692455 -0.28746234516271246 0.0011814885483381733 -0.00038857691535364755 0.44698978196646816 0.0047218078539086
68932000.0 0.8012950959778443 -0.5623274847825394 0.05317284667746016 -0.2979456259337017 -0.0014774899777601391 0.005628607248620065 0.4501513386931956 -0.014496227546638218
69931000.0 0.802820731218878 -0.5847270180128382 0.0493450026178975 -0.3221406544005889 0.0015742040533872743 -0.0007593347420078156 0.45303505526312277 -0.01723724566133838
70930000.0 0.7961487153499118 -0.5908428581033075 0.04876945753506384 -0.33451552939489315 0.0007235334197743811 0.004467382926386498 0.45568114064221565 -0.027367805958996034
71929000.0 0.794736496543122 -0.5980492837671193 0.04837207662713921 -0.35278878396171864 0.0019452987305770535 5.935857845589046e-05 0.4538981531759914 -0.03851986173942221
72928000.0 0.7862150613166096 -0.6084136125111927 0.03862481356539313 -0.36914182190357225 -0.0024278323298278165 0.00014566560343415319 0.4690301310754294 -0.043774374314266715
73927000.0 0.7816812070591383 -0.6136206104325119 0.033336966343135974 -0.3914841740381581 -0.0014524561786113895 -0.00025414230134827924 0.45412840843930175 -0.06208864031686262
74926000.0 0.7758714790650242 -0.6235153278712975 0.028503845739142566 -0.4119646111748912 -0.0006583876000018455 0.0029910336861125137 0.4700734865630787 -0.0606750782584667
75925000.0 0.7676439811242269 -0.6293801212278217 0.013289646690868516 -0.42732141241117544 0.0025478040812138307 -0.004967717687454688 0.47183701653279997 -0.08801610388688115
76924000.0 0.7643054637007125 -0.6352678212008214 0.0025824384262235936 -0.4523214846508783 -0.0012734244356408428 0.0005118006932330213 0.4692922953698098 -0.08660759523006736
77923000.0 0.7547394838409245 -0.6434603150634349 -0.01418986212035432 -0.4774704656512854 -0.004662633952011407 -0.0017412097001942325 0.4664709754646772 -0.09106380236972597
78922000.0 0.749667306335383 -0.6516822219731414 -0.028900834155160118 -0.5017097105922667 -0.0034302322058278084 -0.004364597077749753 0.4688738808077421 -0.11531174280743152
79921000.0 0.7404827936518459 -0.6566850010435428 -0.04162581507541803 -0.5260059114724824 0.00032903829611646515 0.004083750907246031 0.4609715128860643 -0.11705421541974917
80920000.0 0.7374748026552876 -0.667534872926909 -0.05748376702249123 -0.5550620625794055 0.002578197128492449 -0.0021959094078384226 0.4767232416665865 -0.12428876609292318
81919000.0 0.7312785722845816 -0.6726248435959112 -0.07415048033980463 -0.5852589360149713 -0.0013789025341406813 -0.0016732918259049756 0.47881999298917133 -0.1384417543873593
82918000.0 0.7205228708759083 -0.6819886762855665 -0.08966055035704434 -0.6161565125515366 -0.0016023818988104024 -0.0037498306017291995 0.47743134267532805 -0.14363664717346147
83917000.0 0.7146368240845455 -0.6880436181604728 -0.11004380457289367 -0.6447446634506739 0.00044108598008954167 -0.0034743113076765946 0.48202717802585926 -0.14658589947340292
84916000.0 0.7069992098900384 -0.6968121486167282 -0.12429070406417625 -0.6781032768636585 0.0007642679318612044 -0.000922891173622111 0.4682642525608516 -0.1687007926052126
85915000.0 0.7020145186531871 -0.7015762408299857 -0.14765193970723853 -0.7102416591996628 -0.0019306598537161533 0.0011824675245218031 0.47287755698201994 -0.18289493582851457
86914000.0 0.6953966951480871 -0.7113040784152151 -0.16356029113407045 -0.7480822382205972 0.001994990576957028 0.0011765305649479173 0.46431712378583356 -0.16926805368778525
87913000.0 0.6882959377325915 -0.7174442719722645 -0.17852936779579578 -0.7761618161662125 -0.0012303258560785596 -0.002870141491209895 0.4647215903927918 -0.1858321466587366
88912000.0 0.6800164986215588 -0.7229048402303553 -0.1994172314023292 -0.808775750902455 -0.0037375220305807056 -0.0010575202865689528 0.47372013101323485 -0.2089269117701299
89911000.0 0.6748346259173376 -0.7319968642767586 -0.2074079209378119 -0.8490975016264354 0.002936507307740217 0.0006003578573420213 0.47257533182642825 -0.2025377959743347
90910000.0 0.6663437274119494 -0.7382841695842798 -0.22839238663674163 -0.8799666561224767 -0.0013583656265555304 -0.0012566580364969627 0.47117036212939384 -0.2166551453089814
91909000.0 0.6564277702958837 -0.7429744231535662 -0.2484792462360558 -0.9117387222329442 0.00025703167055469696 0.001378234503969793 0.4817924516187148 -0.21750486085425372
92908000.0 0.648850458752668 -0.7509459707445352 -0.26741440674798883 -0.9451140599676957 -0.002543885963201587 -0.0015035247191270032 0.4610697213307714 -0.23417373871970532
93907000.0 0.6443874713417859 -0.7564527371215858 -0.2813141090808639 -0.9748876958306736 -0.0010046526850338879 0.0028101997084901634 0.4659525819828223 -0.2518403703152877
94906000.0 0.6308461217676081 -0.7628120782976421 -0.29998894722963737 -1.0088227784888948 -0.00042970275742115456 -0.00531375220392941 0.46133010915575384 -0.2568060369156852
95905000.0 0.6242411117730592 -0.771468552824634 -0.3218674985600526 -1.0436393355727325 0.003396296005143648 -0.0013244724545060551 0.4650484048714277 -0.2660512058543254
96904000.0 0.6166527391643594 -0.7792975569024277 -0.34476429170539524 -1.085609359917681 0.0014374263029008991 0.0002932053919245896 0.46332773666005744 -0.2662895599952587
97903000.0 0.6076224826441317 -0.7832296114086738 -0.3612320852365459 -1.118849632032677 -0.0007615695692254731 0.0003949448135521307 0.4437941624154345 -0.2769614018017365
98902000.0 0.6035497230220588 -0.790124300455312 -0.38482353031426103 -1.153561463356621 -0.0005870412704922452 0.0016389512895564806 0.45381658741550157 -0.29685955473346043
99901000.0 0.5936573458380071 -0.7977415295279373 -0.4134078129143009 -1.1836871075509836 -0.0015075223915207146 0.001608016518280725 0.45916675824468867 -0.3195955264143471
100900000.0 0.5840686387294137 -0.7999825925417188 -0.44714220840513574 -1.2163978108594156 0.0017055919947654543 -0.0008225436457672011 0.46797697154216666 -0.31761285907724546
101899000.0 0.57397451326738 -0.8101854005593253 -0.47792182643336056 -1.2547195337343724 0.0013638448912151777 -0.0011966919180834558 0.4532655320280099 -0.31208480441118097
102898000.0 0.5638234734145499 -0.8137433314355039 -0.5149837124055916 -1.2886608762346883 -0.0019009671197762026 -0.0016310849715234855 0.4598271954076644 -0.3387481911221396
103897000.0 0.557230763379178 -0.8211334461394558 -0.5527224673314964 -1.3265855726759517 0.001543078680136474 -0.003978792992882172 0.46617548417356025 -0.345077384013422
104896000.0 0.5481855722820266 -0.8311100234859564 -0.5955142335147365 -1.356666731858033 -0.0007976954992492787 -0.0027767320827327656 0.444347773060084 -0.33419601860815773
105895000.0 0.5387082955173493 -0.8331543289768062 -0.6378122409601004 -1.4032664842635751 0.0016923050921064144 0.0022513968792131477 0.43285368549871184 -0.35995777846739513
106894000.0 0.5297648570602281 -0.8400460208964483 -0.6911050730389163 -1.4408817477905236 0.004550411565495882 0.00358928042575407 0.4417844505365844 -0.36459120432902403
107893000.0 0.5205794275308993 -0.8470285132535983 -0.7493381501878672 -1.4737728886124297 0.0027587402478081 -0.0019364534116842835 0.4335399580114922 -0.37804473412996187
108892000.0 0.5114006561923217 -0.8486439271161155 -0.8093432017426748 -1.5126137441309715 0.0002484506088015513 -0.00036967917710785186 0.43024331316555736 -0.3796981914222454
109891000.0 0.49904108779857886 -0.8581231383646587 -0.8686337929855226 -1.548944177232861 -0.0011834801689109002 0.0016261834434047183 0.4504432940199821 -0.38034429002737496
110890000.0 0.4786103342047306 -0.8622392692126913 -0.9412673273509456 -1.542062976976494 -0.0030002187615225523 0.00107738896778651 0.43008648330035726 -0.3841325895733549
111889000.0 0.4773065453811959 -0.8630385149999208 -0.998922592637734 -1.6172554913859183 0.0019966489827983893 0.0006317522266008705 0.42381672496837364 -0.3868728620284471
