! Created with skrf 1.9.0 (http://scikit-rf.org).
# Hz S RI R 50.0 
!freq ReS11 ImS11 ReS21 ImS21 ReS12 ImS12 ReS22 ImS22
1000000.0 0.9819280280214322 0.004954938593259155 0.01747355636284768 -0.04205712469492399 -0.014082983918576944 -0.0007209509749935724 0.3344847546542262 0.2857408848483221
1999000.0 0.9940270754162692 -0.007574516313848211 0.005188373910139486 -0.028990403065307386 -0.0032439638851765383 0.001426960396146417 0.25443895174066133 -0.0778544266405155
2998000.0 0.9991341776014634 -0.021307945594482954 0.005614014372996573 -0.012704507769063227 -0.0031326498625803352 -0.0008591561760677781 0.20645943456796179 -0.12315741164005316
3997000.0 0.9978278823199479 -0.03259113849773112 0.01491761694221488 -0.003553840858696905 0.0014608541573288975 -0.005940017964300688 0.10929610292450238 -0.2108914288242094
4996000.0 0.9945339550502991 -0.0374290717540485 0.006978628325240622 -0.0014607421129854722 0.0019534610233802405 -0.00547093735022932 -0.01073141928302776 -0.21278483391083552
5995000.0 0.996404007394404 -0.04684403809304076 0.008556586281940472 0.00663077766041119 0.0026303950986606805 -0.007328450893295381 -0.11215840609761779 -0.1356935177215251
6994000.0 0.9950702428118673 -0.05810094678033498 0.008305124367383098 0.006714938546226578 0.0020651164630719875 -0.0038407591557983746 -0.1519823073379268 -0.040897279766262715
7993000.0 0.9959094456480274 -0.06787852953474108 0.004777888296349246 0.006977339110105578 0.0029270755359894853 -0.004045196989803076 -0.16526799156999522 0.025972072119489997
8992000.0 0.9948430950499707 -0.07259270092512858 0.005728551663456131 0.0038968428192081342 0.000667219614961017 -0.0003965900412066246 -0.1678270678810263 0.04805659223985186
9991000.0 0.9925194063647987 -0.08229284968518003 0.0005374370987779537 0.0026976630822773506 -0.00029576078730554183 0.0005530705702145126 -0.15657006388673525 0.08318511408818069
10990000.0 0.9935855330599955 -0.09156718472730574 0.004957558831036983 0.002330872922170409 -0.0007017287883717869 -0.0010018493677510926 -0.14875653777843786 0.11789327094101765
11989000.0 0.9905673615708348 -0.0991942291446189 0.004460659124230038 -0.0007788573296357383 0.0013030916877631866 -0.004836711901796765 -0.15475173240598283 0.11486289509823039
12988000.0 0.9894802349806342 -0.10999172574184345 0.00024396061364190749 0.0001158468824632927 0.005106639013509559 0.004664908424771286 -0.12730319399841036 0.16706926547633802
13987000.0 0.9867850684044697 -0.1170188073515804 -0.0013391539135325875 -0.005531700190797614 0.00013139064097465684 0.0011128763404926305 -0.113546786262075 0.17250854967379053
14986000.0 0.988468424755307 -0.12591267570726128 -0.0009741858504961646 -0.00931525228231598 -0.0007254685985101374 -0.00019377848744568345 -0.10270431117320007 0.20407200931957448
15985000.0 0.989728825550008 -0.13262756123974395 0.002062839603465494 -0.0041220346412147385 0.0006755020671586002 0.0008883039337627959 -0.0857347458715228 0.21151541052317063
16984000.0 0.9853330038932916 -0.14673214060873885 -0.00020202942158916 -0.006023786184735756 -0.0014984492359312743 -0.0018858881133929923 -0.06414442076085984 0.2226226303044993
17983000.0 0.9860051808372481 -0.1499603200953698 0.0013564961373442124 -0.010232345155230554 0.006594615132065773 -0.0018031845641611715 -0.05826862383964877 0.2341042058722643
18982000.0 0.9826436920099684 -0.1625556181065982 0.00037990642431769855 -0.0045331355942882555 0.005038455516062802 -0.0012824974703898318 -0.022003094738653313 0.22860783757325964
19981000.0 0.979616513801185 -0.1670420995677818 -0.0038164833416545097 -0.004615615181075392 -0.0021876731595839452 -0.0003007745404069266 -0.025296098948951108 0.2478782740874538
20980000.0 0.980982976445425 -0.17454510760624273 -0.007829935713113209 -0.003958113958063151 0.0003583899161823461 -0.0007394496740609267 -0.009297545833765918 0.25159924021218627
21979000.0 0.9799296998245505 -0.18482602936752845 -0.007183364093687457 -0.0026838372496337743 0.00017319808092876958 -0.0009611429230596204 0.0079544547933846 0.2485962177109298
22978000.0 0.9767314440591467 -0.195436322310194 -0.004506018929281371 -0.0017215985817425512 -0.0034161329990623377 -0.003992949172230641 0.025433922132403045 0.250091561254619
23977000.0 0.9767119692615535 -0.20028507798190615 -0.004732324120472506 -0.004138513878144439 0.0005930613388000226 -0.0003289197733881694 0.03550452760543082 0.2509719684509113
24976000.0 0.9731252543975845 -0.2122457830031879 -0.0057619386539484625 -0.006666093293161639 -0.000232519379465421 -0.0018505234391514782 0.054683393411347474 0.2569142687381528
25975000.0 0.9748019027772841 -0.21911353595519034 -0.008731846932468219 -0.0008853857225578957 -0.004204060760146982 0.0256380443797083 0.06313574985273421 0.25984128759329794
26974000.0 0.971089221173552 -0.2282938112050878 -0.003871277550548899 -7.216197218346707e-05 -0.003095985749683261 0.0026831948637134383 0.08143637712671747 0.2715836698877255
27973000.0 0.967135315202793 -0.23330419017581833 -0.0041303714637512725 -0.0016271547991291964 -0.0007565837640236341 -0.0013268134793903137 0.09910114314471845 0.26488175703020783
28972000.0 0.9653688647927785 -0.2467339559134537 -0.0019994363164621922 -0.0005064360905001744 0.0016413989242473094 -0.0016120883443471008 0.11760841099766499 0.25424258330107546
29971000.0 0.9653274322862793 -0.25239558456830985 -0.00034786201420938605 -0.0017969400812990924 -0.00012480738437235483 0.0014157219454918157 0.14150982509836854 0.267579467982185
30970000.0 0.960518150201864 -0.25842546083888346 4.038245896295226e-05 -0.0005797599383442646 -0.0014122082941782211 0.004108585356732197 0.15323685730413375 0.2560786388134562
31969000.0 0.9598225471864095 -0.2668805562823804 0.003445291729199493 -0.0053214955585069845 0.00013744751994884644 0.0009699124128832001 0.1469685612903729 0.2544242038687316
32968000.0 0.956478316982397 -0.27784706823632555 0.007917864204296111 -0.005730169919673087 0.0014599797216719695 -0.0020555969753593816 0.15688775058671064 0.24245232000713476
33967000.0 0.9550765412337168 -0.2882920856267835 0.01027668118548958 -0.0103201055423239 -0.0012779028779919183 -0.002513587097559974 0.17357126261577274 0.24399832842863173
34966000.0 0.9515034728478454 -0.2965796661244492 0.012849593727797337 -0.013002116629247381 -0.00029924913551676764 -0.0010832626327241547 0.19221291448020125 0.24824652255173052
35965000.0 0.9498202140907599 -0.30281836953128055 0.014997964013010682 -0.014360162714761853 -0.001794930721634369 -0.002318072490202393 0.20465495167023876 0.24965436736787172
36964000.0 0.9477099891337607 -0.3120474074112574 0.014319775438323995 -0.015750044024572533 -0.00022789995991192232 -0.0030816090438743433 0.20793917314447882 0.2556587920588503
37963000.0 0.9450384697573267 -0.321902060104825 0.02396816937439318 -0.015501150540859892 -0.0008538212202319036 -0.0023660978004433173 0.21860758594759144 0.2403169237156768
38962000.0 0.9414220891482022 -0.3314193452951024 0.02374938967778788 -0.022790751437646427 0.00017739763347584796 0.00367772710586813 0.22857837637146958 0.2339805065585225
39961000.0 0.9377834576361354 -0.3369279009654956 0.027115415705378104 -0.02734233131436554 0.0037052831306483543 -0.00013507481818877097 0.2456411797468545 0.2358690499547864
40960000.0 0.9344794032121948 -0.3455862402891356 0.02533989323997542 -0.023277156958628944 -0.0017614275242093783 -0.0013598458861053405 0.25960339784948055 0.22753839418877056
41959000.0 0.9322784567409081 -0.3559792278389159 0.02697549614507049 -0.029224400831792726 -0.0012626854413838075 -0.001876340806201629 0.26825129739026893 0.2142682804463542
42958000.0 0.9251409651043168 -0.36623817667721814 0.03078734778943511 -0.038658840210000676 0.002235923532651193 -0.0002658965284873241 0.2665751561668052 0.20104712847400585
43957000.0 0.9260549854341678 -0.37184587952204534 0.030605491847478437 -0.04538403332422021 -0.0015835178175269322 0.0004861656865470259 0.27741042358687507 0.21509359923147542
44956000.0 0.9226577273344629 -0.38061410614295915 0.028785672159593448 -0.05015214376136285 0.0009655703252063514 0.0023037797009872493 0.29633901330806983 0.20317649766053061
45955000.0 0.9170685640029592 -0.3897247652107193 0.03321400521121651 -0.05714146722476841 0.00044007855181422376 0.0005342105871228084 0.2917548669322617 0.20727007661825725
46954000.0 0.9147093579468318 -0.3971879164709001 0.03405868660664325 -0.06388486928593078 -0.0014006095852555835 0.005283352912515894 0.31490700274054173 0.1821825187716111
47953000.0 0.9104862624797709 -0.40602597566241716 0.032757897089557425 -0.07321847310761107 -0.0002348029541184463 -0.0013117387405795601 0.3291328130156925 0.17393677229492674
48952000.0 0.907191160491552 -0.41485284145946383 0.03744101179795441 -0.08007247504751829 -0.0007408835689939276 -0.0016698068980666057 0.32570340577309137 0.17003978179475823
49951000.0 0.9029824821954051 -0.4224332755835233 0.03620427543248414 -0.0867590153375361 0.0005305733786428162 -0.002754950306335043 0.34377787058067244 0.16261796091766254
50950000.0 0.8991739734745359 -0.42917323410950803 0.03922716832341087 -0.09301733929680418 0.002131550706458532 -0.00010766775499253496 0.3374000574747517 0.14231682133899076
51949000.0 0.8958177401014535 -0.43791455507612936 0.04025648975309858 -0.10031574358992046 0.0011277146961368118 -0.0008128597689799012 0.34360877332300627 0.15523521338748789
52948000.0 0.8940494972883338 -0.44611897331595024 0.04168269526057507 -0.10982474212154579 0.0007974482249162384 -0.0010189956938289487 0.3637176255929442 0.14805844950231953
53947000.0 0.8855481776360007 -0.4568018461768276 0.043436130523517524 -0.11966839116067346 -0.0019218399629325979 -0.0014077831084990439 0.3672847904546271 0.14411752447811707
54946000.0 0.8810241051922366 -0.46308220127232147 0.043430091480001765 -0.12687496878757715 0.00440480891290951 -0.0030121590968527788 0.3802303684838964 0.13220873331062663
55945000.0 0.87889237362751 -0.4727618750538173 0.04515545017703366 -0.13746990352553332 0.0016786305175797783 -0.0003304602681803757 0.3759266771026325 0.11813998101038062
56944000.0 0.8737591306058303 -0.4796757929403395 0.04771039831461522 -0.15341395527141838 0.00271194103407515 -5.9734596545092927e-05 0.3860507128529228 0.11010455005566362
57943000.0 0.870555668206977 -0.48885778547314107 0.04946130079380037 -0.1583127599698622 -0.0002227159117121326 0.0016011690655187646 0.40244458006129347 0.11236782368422533
58942000.0 0.8646511996158303 -0.4930835401885826 0.04987744264952716 -0.16837125638704822 0.0017256926386620595 -0.002971340409086037 0.41149816926653837 0.10368664847769628
59941000.0 0.8607862327435756 -0.5045825273244438 0.051831381300083995 -0.1778377482537532 -0.00038668573902615993 -0.001054614372502951 0.41140375596330997 0.09370383405731754
60940000.0 0.8533332126955737 -0.5116345271564954 0.051179394589919734 -0.18051062336233648 0.0009562209911468893 -0.000919727126018941 0.3999525565443127 0.088315403672906
61939000.0 0.8506724563387565 -0.5170672068808719 0.05175773725445908 -0.1879755301749363 -0.0009339212539772689 0.0005278062629692126 0.41529806931956414 0.07267161847958596
62938000.0 0.8428911487137297 -0.530063441648308 0.055130709489965464 -0.20450892983667737 0.0008119109892265973 0.00013182282354072102 0.4407127539489574 0.07142496522236258
63937000.0 0.8384267985061832 -0.5376969170189393 0.0560184312633816 -0.22661729289416507 -0.004850416940106065 0.0005720320403238937 0.4229823464369567 0.05323846420630816
64936000.0 0.8340829294381295 -0.5403082739695074 0.059910573964095534 -0.24101420402080584 0.0029626535165478466 0.002639637320426175 0.4337615638814773 0.043703195582189665
65935000.0 0.8310818854654651 -0.5513688070902882 0.05555754571418811 -0.2509480436648509 0.003008763691948354 -0.001380196371141915 0.43503803069923486 0.027754635653420068
66934000.0 0.8260256576964121 -0.5583691747869055 0.05910681972711207 -0.26790054689975284 0.0035269940650728892 0.001746287364593988 0.4316666157929828 0.020058174715486005
67933000.0 0.8228959667240632 -0.5662879767956138 0.05585647772898054 -0.2814020981050459 0.0020654434291780617 -0.002698886636719884 0.44455282442468846 0.02289695562122161
68932000.0 0.8180511126130606 -0.5701270594196821 0.05490871041508255 -0.2953356695117652 -0.00017985359760243564 0.0002729729147854438 0.45777108151509055 0.004428394146230071
69931000.0 0.8069878398210665 -0.5838587560146107 0.052274210359789894 -0.31120037418960544 -0.0020079554413526724 0.0038369658200383015 0.44440087431384645 -0.00027265811712868685
70930000.0 0.8028662364174469 -0.5886474365703841 0.05480271952676472 -0.32441891862545685 -0.00035428817815993686 0.0035454455089685296 0.4516009761430275 -0.025323000369321294
71929000.0 0.7977925784433217 -0.5986824199446282 0.045785206826020296 -0.3438693283235051 -0.00040278009929624103 -0.00032889107310462266 0.44829987526900317 -0.021145288440600537
72928000.0 0.7920617562884003 -0.6066297395037066 0.0405463221076972 -0.35641827870358844 0.0015714346459556742 -0.0001282166418768074 0.4624752007344396 -0.03746835843855153
73927000.0 0.7858127574838576 -0.6131796341428964 0.034635096468251046 -0.376109423651286 -0.002302329097394482 -0.0016571094706719618 0.4578988613028225 -0.047161159315569454
74926000.0 0.7793359114507848 -0.6222196638544737 0.027511135917043187 -0.3949470945369676 -0.004699158745019604 -0.0007046627489443317 0.4565758670273173 -0.04542281311954944
75925000.0 0.7738163485401597 -0.6264903154414873 0.021113316434303586 -0.4159182282617521 -0.00016987738671305483 -0.0010124651458043104 0.46520241321611283 -0.06380151263304817
76924000.0 0.7672453214773304 -0.6349964243451673 0.003788744252212037 -0.4406702513279985 -0.0025288224717298973 -0.0017533209437447246 0.46738619636816064 -0.07123900207402632
77923000.0 0.7604757450501959 -0.6423042370647648 -0.005262419000576364 -0.4615478652511269 0.0022970596126004224 -0.0004847858329819428 0.4527659328731365 -0.07738586361551104
78922000.0 0.7559128067120588 -0.6534466646740938 -0.01963341884335975 -0.4881402329807811 -0.001943902165786864 0.003109446651294912 0.4627941652569422 -0.08355018768458905
79921000.0 0.7455688180703094 -0.6573324580805682 -0.032823133452989414 -0.5132573627859003 -0.0009420657029983635 -0.00010391906365705553 0.45832795112376473 -0.09601190586949049
80920000.0 0.743675253791477 -0.6668599842637001 -0.05082119197647767 -0.5415920176739036 -0.0017331948218014684 -0.001156379770049864 0.4679609430625107 -0.12012664557892896
81919000.0 0.7361289070047929 -0.6724106798690284 -0.06493782019346651 -0.5709293056977554 -0.0023464363198815595 -0.0007469449489598842 0.4579454939104286 -0.12348196795133123
82918000.0 0.7279224783850007 -0.6789295017708674 -0.07758192057226368 -0.5980009963506073 -0.00025090299119409713 0.001523186645946863 0.4640959408770789 -0.12800155360548904
83917000.0 0.7185360482931782 -0.6891564786956758 -0.1011400013578423 -0.6299062288867572 0.002715683176127949 0.0017518153814245427 0.4714677266995264 -0.13689900416650463
84916000.0 0.7142059169391164 -0.6959507900916242 -0.11509919267453153 -0.6609492147099284 0.00302148553339886 -0.0031026984947882716 0.4554118909576065 -0.15710633594612625
85915000.0 0.7084069113941582 -0.7009863552095643 -0.1325687032984321 -0.6910176928181884 0.0020030601319242025 0.002718935532445702 0.46392641090186965 -0.16008420826774156
86914000.0 0.6999224283306016 -0.7112818711936878 -0.1441989737254326 -0.7264229464915959 -0.002898039403692394 0.0025277867001680015 0.46629182940500086 -0.15666470668321422
87913000.0 0.6939212425445782 -0.7154459279647823 -0.16127022372025132 -0.7555565547318216 -0.0020493525486461506 0.0030994065696286974 0.46053633349250683 -0.15868526828057647
88912000.0 0.6863452626988793 -0.7231856715918854 -0.17930970230710305 -0.7935549238984899 0.0033419243526599295 -0.0031549066619471506 0.46275426135209075 -0.19111321320484592
89911000.0 0.6766170303567752 -0.731927665907758 -0.19503002424495552 -0.8236691752469629 9.255685791697921e-05 0.0003334593916229323 0.46155569038530603 -0.1957421349682882
90910000.0 0.6706824365682721 -0.7384863770441845 -0.2066788087167181 -0.8638819930265003 -0.0026966020104841567 -0.0005512767502278736 0.4644566196129962 -0.20526562699504403
91909000.0 0.6616008876433139 -0.7417377554901592 -0.22657553065060662 -0.893490509894423 -0.0013788780012003346 -0.0015571187482673792 0.4620401845469242 -0.2031993507785991
92908000.0 0.6541590620693062 -0.7519704256369434 -0.24540860992089572 -0.9198442225522176 0.003079962656463786 0.0029950303182586548 0.4590130523580833 -0.21308054449178473
93907000.0 0.6489326663344677 -0.7571855307340721 -0.26525798277609597 -0.9543313198347607 -0.0010954800984587687 0.00024080150514846552 0.45846346574669794 -0.2319372193084291
94906000.0 0.6348937795410697 -0.7639299774652487 -0.2792335596660532 -0.9882751220754394 -0.0007113481081683416 0.0012265601532616822 0.45849752376783387 -0.24184571018061213
95905000.0 0.6291460393858653 -0.7710636638112829 -0.3006130905687249 -1.025006374752235 -0.002813885724618258 0.0018941350423054791 0.4622012699081929 -0.2483465047695535
96904000.0 0.6210841339435513 -0.7792510992771129 -0.3219381113279233 -1.0629531637370526 0.000792351973140529 0.003537630321509062 0.45794476869531686 -0.26973718191341867
97903000.0 0.6109858270974331 -0.7848686559744029 -0.3424423876695225 -1.0910940588744842 -0.005071980078410467 0.0031164111411537718 0.45163351581707895 -0.2767040338858548
98902000.0 0.6059213665406586 -0.7908924801352589 -0.361284614364765 -1.1320544259055318 0.002583127907417991 -0.0021376131782009458 0.45303071306384096 -0.2792343861809784
99901000.0 0.5954867551716465 -0.7962096906036397 -0.3907942162785108 -1.1599113028707255 -0.0012539464343813385 -0.0016255394338810507 0.4669747453342498 -0.3046339003459932
100900000.0 0.5863887256323072 -0.8020719060086315 -0.4213288046285382 -1.1875506317691418 -0.00028005631633899703 0.0024857673652701087 0.45929097146020764 -0.2958081246469386
101899000.0 0.5767359547809707 -0.8092242440855824 -0.451428080946772 -1.2265345308766136 -0.0007856955807268637 0.0013045727252638222 0.44361293144734165 -0.303045066194281
102898000.0 0.5683916316105635 -0.8139934607944227 -0.4842481426547579 -1.2667973171444662 -0.0012701630931965058 -0.0010596337741042823 0.45696341994607653 -0.32480168381365526
103897000.0 0.560715635736157 -0.8227425759215318 -0.521396793098927 -1.301179109032325 -0.0018511989686911955 -0.0011673999661322826 0.47474955825481147 -0.32387182816951127
104896000.0 0.5542473809649536 -0.8340066264086212 -0.5649533115847237 -1.3364804362150065 -7.286330715324415e-05 -0.0016542203011904707 0.4344680630913231 -0.31735188161829786
105895000.0 0.543603611553348 -0.8344255476470963 -0.6078572363700346 -1.3784016523918505 0.0038065014701528822 -0.0002617058898323598 0.44250847122882614 -0.34120668989884584
106894000.0 0.5352967863077075 -0.8408658305090299 -0.6628924496768382 -1.4161128538299623 0.0033785304521131883 0.002367099610122873 0.44098760942167714 -0.35342238593863057
107893000.0 0.5251684995231021 -0.8472670405065061 -0.7132890007349197 -1.455935870708109 -0.00011613017086449921 -0.0011667549036584257 0.4357292210173075 -0.37082047828652936
108892000.0 0.5146718053850816 -0.8502004671762188 -0.7703450937113469 -1.4938696051542975 0.001270241241006788 -0.000839811177361635 0.4247549968102239 -0.36119853997731877
109891000.0 0.5019024636465943 -0.8587017135597663 -0.8283040492880239 -1.5255996838073422 -0.002037449067964941 0.0003362570035104002 0.4449744139058709 -0.36051564382302004
110890000.0 0.48025558048174694 -0.8653159721050688 -0.9049967477960431 -1.520568141346709 6.317501854903221e-05 -0.002571301320377549 0.4321402988254611 -0.368150355474555
111889000.0 0.48166118202604125 -0.8655036772037867 -0.954486684565431 -1.5953500246301098 0.0011374010927094546 0.002099706133439472 0.4306932796760221 -0.38766194526405584
