! Created with skrf 1.9.0 (http://scikit-rf.org).
# Hz S RI R 50.0 
!freq ReS11 ImS11 ReS21 ImS21 ReS12 ImS12 ReS22 ImS22
1000000.0 0.9752667012836492 0.007804647991262996 -0.004432100075451187 -0.04922293889566211 -0.021183617967125323 0.020377419736386775 0.341076311757131 0.33474615376902006
1999000.0 0.9992255145969255 -0.008253206743805152 0.005957873077092211 -0.020711528776438975 -0.004364359014526589 -0.005109942855778379 0.23840142762988858 -0.052693496337603174
2998000.0 0.9995600884248749 -0.021060953307401594 0.008161102071023194 -0.014545501685330108 -0.011577903288044577 -0.004184308967462442 0.18327709193631295 -0.13816806726363476
3997000.0 0.9966557807656978 -0.029054530582287817 0.006856078271914421 -0.01078295041080515 -0.0052660912430678684 -0.0024755479587727455 0.08233301646712173 -0.22557710892824354
4996000.0 0.9986782812229392 -0.037386945016085645 0.0077339325836274855 -0.003922390462461009 0.004894560960878941 -0.008812314728585211 -0.04034980702348177 -0.19099332417762088
5995000.0 0.9978581970445004 -0.05071349739851284 0.0133218217911056 0.003406333307080208 0.0016096066672117105 -0.003211508159442789 -0.12965967901805112 -0.10729908089977264
6994000.0 0.9943250435531872 -0.057928869684746656 0.004248315109001676 0.0009821999518856 0.0017968573978510362 -0.002328817782306723 -0.15339396767919034 -0.021198289371444894
7993000.0 0.9973945057829052 -0.06462887971576055 0.0024337207919851774 0.004445204052634597 -0.0006525054908553288 0.006368434136921309 -0.15856337209204424 0.04582968560540129
8992000.0 0.9954779166422375 -0.07053638706845271 0.0065484724065406645 0.008316760164485659 -0.0031066659356543363 0.0035359244473044064 -0.15648894383355444 0.06679007205489931
9991000.0 0.9954828476028711 -0.08063477940993447 0.0021517464938361347 0.003996741944229562 0.0009245814794028919 0.0015657215397065851 -0.13379687545405863 0.09057721995612981
10990000.0 0.9918775333214334 -0.08987845873778023 0.0021406563959387257 0.005974758258459218 -0.0008450326339854257 0.003069442776007341 -0.12453564536900398 0.11504701879460275
11989000.0 0.9908535155924454 -0.09821777009834559 0.0038361615366252896 0.0038625033855670204 -0.0024621486782881855 0.0008497202276471594 -0.12855399671704434 0.1490548842275024
12988000.0 0.9937408511800788 -0.10666645180605039 1.6143424040729326e-05 -0.001441399663201104 -0.0022546016642078083 -0.0010904924992641532 -0.11181389534392906 0.17611730956387245
13987000.0 0.9904241502393988 -0.11698056361876927 2.9403958570286826e-06 -0.004133220522790321 0.0005492472634403854 0.006570373678291004 -0.08656354047019586 0.18526722112199118
14986000.0 0.9897712046153785 -0.12238819848017446 -0.0015350908207713019 -0.004175496784166369 0.0014270169774988474 0.0007951932597212167 -0.08487561511602713 0.19717938187134584
15985000.0 0.9883221794526352 -0.13396658116109775 -0.0014893302294673198 -0.010066696383804113 -0.0025534659352379066 0.0007000457615074909 -0.06381969268304409 0.22245187912958123
16984000.0 0.9857405101392228 -0.14354699565112747 0.0024258327997611047 -0.0006140065259809552 -0.0026519269720510588 3.557366030287096e-05 -0.049192005192073944 0.2080746786016573
17983000.0 0.9870958141887429 -0.14624799929935012 -0.0019663161203313526 -0.004547738610938964 0.0011738094316730441 -0.0004871467384068226 -0.05322364017402344 0.2273307105834715
18982000.0 0.9839170292247283 -0.15779640440322193 -0.0007409772018278166 -0.006053468695464397 0.0017190772031213599 0.0028103158267014125 -0.013524416789136793 0.24300965941557676
19981000.0 0.9856835541910545 -0.16302152155249464 -0.003335432856167955 -0.008551461595358729 0.0015050393993351625 0.0013323373329787217 -0.014131049415966962 0.24841343730042764
20980000.0 0.9839129399914991 -0.17270688182954563 -0.002597973510804181 -0.003541164238235753 5.569328515138844e-05 0.0007477850995415301 -3.295570473467953e-05 0.25711311935418313
21979000.0 0.9800946920029056 -0.18156890799288725 -0.007256215891626594 -0.0004139856501796623 -0.0019233730585361466 0.0018936280330881534 0.019653556248564963 0.24377543745657498
22978000.0 0.9784273632636675 -0.1887884202934785 -0.003895777443712976 -0.003356025716030375 0.0012421153395444397 0.001365568247532287 0.035702809018559226 0.25532842771699804
23977000.0 0.9793374696451425 -0.19967525248274898 -0.007965157599727428 -0.0027239036759592657 0.001616810109909642 -0.0016303913874263355 0.051620913527196714 0.25737699748652304
24976000.0 0.9777335467598902 -0.20794400137855737 -0.0025475172179052204 -0.0034707654182437116 0.0013954403216079744 -0.005591406756517597 0.07527617644421947 0.25863471817725614
25975000.0 0.9773899458172718 -0.22042607572451708 -0.008000392927004258 0.002700272109554928 0.020990116851320392 0.015336620024239881 0.07510100000460901 0.26885198366334906
26974000.0 0.970399446525402 -0.22477105538123332 -0.004585440356499086 0.00048500728160877463 0.001217308877113243 -0.0031193909927742782 0.10301095671030998 0.26622469841775886
27973000.0 0.9715607202076203 -0.22947802509750276 -0.004365501040117685 0.00012376913398503701 -0.002966100416515598 0.0003926669015679772 0.11121884808276986 0.25850154284866805
28972000.0 0.9681737325605825 -0.2399094552549142 0.0006145148876981944 -0.003631646625324837 -0.00039013401049348996 -0.0010816299748515042 0.129200755726905 0.26091987010497425
29971000.0 0.9664789922240161 -0.24957280159234166 -0.00044107713314106654 -0.0037541277271073313 0.0018296100196989427 -0.000728466499876442 0.15623657048266026 0.2722032547634519
30970000.0 0.9635510929402126 -0.25469762325887885 0.001428047283803618 -0.0011312404774499137 -0.00042454330007137984 0.0022780512760516396 0.17535782617764564 0.26116995573428925
31969000.0 0.9622379267456931 -0.2631931158639036 0.003941838509003281 -0.006145133036618393 -0.0026201323450930564 0.00036841309346053575 0.14535760635932837 0.25681288024452076
32968000.0 0.9590396925616855 -0.27444950863899875 0.009621854682713225 -0.004026089059440883 9.526805602044966e-05 -0.004040911298069742 0.16610952987469482 0.2504639102920975
33967000.0 0.9578659750246303 -0.2833905211878377 0.009951150189464133 -0.012273609580511676 -0.002418849090227414 0.000374342655472245 0.19115422501181514 0.24769206398496568
34966000.0 0.9541837764350637 -0.2925590580124297 0.015773770928183443 -0.009676815468179336 -0.00028744930125521804 -0.002547266188429644 0.19975513985807675 0.2490289486009211
35965000.0 0.9521310263132876 -0.29665723056687127 0.016295385130444203 -0.014666756692278564 0.002435793097830915 -0.0027224338013180915 0.2257497181126956 0.24486304191739203
36964000.0 0.9506815221821276 -0.30730659477217986 0.017368790813110508 -0.015187910608783817 -0.000236174994442629 0.0023746145011138177 0.2224777501388912 0.2472476622379615
37963000.0 0.9477463892793578 -0.3138891819479289 0.02318723575450323 -0.021877205473165146 0.002771089845257609 -5.7169657959106545e-05 0.23536691206542057 0.23551445449226371
38962000.0 0.9452025719034778 -0.3230428016332371 0.025159039748060122 -0.01967538237990639 -0.0026463630179573466 -0.002623775890999017 0.2511243064343938 0.22578250991351098
39961000.0 0.9418348218329642 -0.33276691874173525 0.02453812037038872 -0.027122458963160293 0.00038011630251013603 0.003755936399104093 0.2561065374857108 0.2274424438557593
40960000.0 0.9375939198148808 -0.33972239050608166 0.022940110375983567 -0.0219052246287887 0.0017212092553013066 0.0022566609145295005 0.2665522876512167 0.2411897926154899
41959000.0 0.9347119242507083 -0.3500553298102149 0.029643240900421985 -0.02918523405507568 -0.0010540978192633752 0.0010246654846944915 0.27199573932092486 0.21228311898797672
42958000.0 0.9296053250006577 -0.36024643246036653 0.031852066456095215 -0.03677293508555571 0.0008140765723830963 -0.002183782371379069 0.2772676616984703 0.20217568277679346
43957000.0 0.930243991527672 -0.3636451489730949 0.03473051299063255 -0.046167839473463604 2.483656407243122e-05 -7.160922966944876e-06 0.29441857490870155 0.2081397931721114
44956000.0 0.9256974973572415 -0.37057153498689 0.03397072509517127 -0.049712270938655594 0.0006241988088453257 -0.0006951871930358589 0.308263238210911 0.18669589762156832
45955000.0 0.9227636650775525 -0.3809518963197884 0.034062442943918185 -0.057275979116051076 -0.001749867757239878 -0.002435198987079347 0.315822155482699 0.19214427233529993
46954000.0 0.9182689090741049 -0.3909123697772345 0.03727751425313859 -0.061339033447202686 0.002188171370714498 0.0001679286749975557 0.32866783213817524 0.17316839977776613
47953000.0 0.916710988446849 -0.39791399253205595 0.0347458433957688 -0.0704293165967604 4.800960463000212e-05 -0.0029351864698837927 0.34394481738243926 0.17159769144356377
48952000.0 0.9093639374724969 -0.4086898599837248 0.038215266324412654 -0.07633982279416301 -0.0029049261145241453 -0.0010127788776750088 0.3469987025088587 0.1637484226555132
49951000.0 0.9077099886270762 -0.41188910872664897 0.03719756977519339 -0.08653969526263436 -0.001607455488053357 -0.00017954036645875416 0.3619539148998678 0.1520299165745324
50950000.0 0.9037847813757385 -0.4243220529310356 0.03547329824062329 -0.09275352508008412 -0.002608554154070033 0.0031445329726501473 0.356639554207506 0.14138461833831636
51949000.0 0.9002790448636568 -0.43098470478357087 0.041202389973506066 -0.10093631366540552 0.002039624759833936 -0.0018381272106065883 0.3692285648882591 0.13643498850572253
52948000.0 0.8960374811290497 -0.4399126729521532 0.0411699610555039 -0.10996988045177777 -0.0019379485364349129 0.0011230481955062212 0.3759297756205505 0.13777919672752684
53947000.0 0.8930197986726246 -0.4449705376625569 0.038779873751622944 -0.11800298863744166 0.0016810106128304818 0.0010415400968048652 0.37797795940792067 0.13501806217993312
54946000.0 0.8885216978973212 -0.4541120789482057 0.04219191848944676 -0.127604868161132 -0.0009334803949219517 -0.0020022033267369115 0.39512917139397813 0.12621392474092635
55945000.0 0.8846127904102064 -0.4610657854804109 0.04530111524673243 -0.1381651420547609 -3.822326649350048e-05 0.0007104748589118455 0.3897143887495339 0.1067046909784999
56944000.0 0.8801992484655196 -0.47026219926838114 0.04731995400316191 -0.1485730772088222 -0.0026600010608561404 -0.0002190342526347168 0.4104509716616994 0.10012667247770098
57943000.0 0.8744333012229368 -0.4821593195805269 0.04884923176558796 -0.16195189494696216 0.0010810393646076438 0.00023727843613084913 0.4085350460896528 0.10090351168401057
58942000.0 0.8705576517916747 -0.485625050726345 0.04749595561583095 -0.1705280826230654 -0.002971087657634941 0.0010547253101871213 0.4313434403902101 0.08794667598799437
59941000.0 0.8667186468078096 -0.4953643708116676 0.05214800793870264 -0.17827218952948046 -0.0011271800025247948 0.0009684479891600804 0.41967528047855146 0.08334027845081389
60940000.0 0.8604305744947192 -0.5030698829583097 0.05072589228959444 -0.18374999602893727 -0.00047022454420734156 0.0017908331027119747 0.4143424499857514 0.07249308441475691
61939000.0 0.8555450100647876 -0.5087933887642828 0.04916596032469055 -0.18982575923736206 0.0004933655282341085 -0.00024690401747091755 0.4148035420609626 0.05968117006995798
62938000.0 0.8505564989595361 -0.5183080954390897 0.05389271340909181 -0.20529583410536 -0.0007310028946893423 0.0007218298827707276 0.43717669067528925 0.048677685065771435
63937000.0 0.845620809630977 -0.5286198697968616 0.05501106859620545 -0.23005451964374352 0.000635169955705388 -0.002061165955368518 0.4376513600252564 0.040082314736095526
64936000.0 0.8419760261333644 -0.53148959111037 0.058119333434804965 -0.2431769842771597 0.006991527465932765 -0.0022497362757460653 0.44166695492269215 0.03654932795766039
65935000.0 0.8394412647022865 -0.5413398657996893 0.052903609252403686 -0.2571174844252312 0.0008574207357968886 -0.0021636188946962272 0.4459496694504846 0.018258448436522932
66934000.0 0.8320845383317934 -0.5483632006564318 0.05362053961451913 -0.26708266331392194 5.0613599010802716e-05 0.0017639684130049422 0.4397601006845965 0.011665148004359797
67933000.0 0.8299105027974255 -0.5545778441224679 0.05611482651296972 -0.2821377197387463 -0.0015078353958609479 0.002401342434845322 0.4523556420219135 0.010631243621631273
68932000.0 0.82326305761688 -0.5610033078942636 0.050111933386726364 -0.2926752224498758 0.0013767715420832576 0.00011917400307021286 0.4672647175751387 -0.010757246047007736
69931000.0 0.8167373436663732 -0.5713679025993643 0.05313492101104475 -0.31294308801625587 -0.0020925522986869594 -0.004220507341429454 0.4556692977659164 -0.023681345572551832
70930000.0 0.8083547572640221 -0.5802926675339127 0.05032914753168095 -0.3242431544639675 -0.0004420830918582229 -8.730632840959492e-05 0.45771161000705546 -0.03177359861440276
71929000.0 0.808023918618464 -0.5879893595716355 0.04495953449873829 -0.3411191999542341 0.00048287617237046575 0.0009248299924455566 0.4475782488512261 -0.04841178651815995
72928000.0 0.7997872753050376 -0.5957481657178174 0.04213891892174317 -0.35777277774882027 -0.0008841536449416961 0.002542186609876685 0.46792807571935113 -0.06176512985006352
73927000.0 0.7963390676906977 -0.602285273715463 0.03814037981960464 -0.37813125006863196 0.0029008607306559462 -0.0014110324311787622 0.4668287002809488 -0.0598875477654583
74926000.0 0.7906938607989384 -0.6126795095927958 0.03203255538040712 -0.39338532079143224 -0.0019955710509121337 -0.0007653133131276645 0.4703877536118551 -0.06081018435823662
75925000.0 0.7828681649373207 -0.6182107964543099 0.01982940076991619 -0.4119134866093224 0.001752642523127256 0.0019430072009712486 0.47117907778298446 -0.0794007699558151
76924000.0 0.7778462556577336 -0.6258432701629407 0.012019971659609486 -0.43497420604415404 0.0013415606791437242 0.0026777070200220614 0.476856978219021 -0.08140458557000425
77923000.0 0.7711477787205496 -0.6308571302659282 -0.0009177063533097727 -0.45393533448007667 -0.0014630930566145164 -0.0003976172130358433 0.4737605807107569 -0.08932057837702582
78922000.0 0.7665364872433281 -0.6399493470382317 -0.01573140608662891 -0.4857730158062998 -0.002464690083038983 -0.0010614493583328837 0.46204254385267535 -0.10696857804116412
79921000.0 0.7566759207418136 -0.645082105173077 -0.030134314777397475 -0.5069668677577921 -5.5599630722349796e-05 0.0019459517584811264 0.4644154485333903 -0.12505629460978734
80920000.0 0.7550326226118692 -0.6575507849594909 -0.04625971538903493 -0.5357249700189133 -0.0011476315804916858 -0.0019656437024949754 0.4633763942857167 -0.13371120538222678
81919000.0 0.7482565519058698 -0.6627135672807207 -0.06272579081433848 -0.5611773102965906 -0.008221540584503672 -0.00025784033986754655 0.4738563890292333 -0.13279524751351562
82918000.0 0.7377612083047788 -0.6705884373635389 -0.07966519406095852 -0.5942910265116156 -0.001869797241302541 0.0020161060156939684 0.48983869625335974 -0.1455762339285117
83917000.0 0.7296157014881077 -0.6783403418742073 -0.09989395400016404 -0.6173550197214024 -0.003118714053930433 0.00345294520507013 0.48093375984561926 -0.15298409932328327
84916000.0 0.7250893566799486 -0.6867284725759216 -0.11659929362197409 -0.6534080079221992 0.0007318019068207829 0.0013214927169369743 0.47327301959415 -0.15971666008665256
85915000.0 0.7200200487420261 -0.690665658704362 -0.13307323165037138 -0.6852791567559359 -0.0006976434569865065 0.003421434183557082 0.47218697443699065 -0.17202211669736164
86914000.0 0.712543810189343 -0.699495071234854 -0.1479935640771539 -0.720431652983641 -0.001354498573741054 -0.00041400045695439813 0.4621037550946019 -0.1756877128357821
87913000.0 0.7063651804368003 -0.7064203415152246 -0.17240137553925716 -0.7492182935734899 -0.0030651620058380633 -0.002257378633917399 0.46370027674809644 -0.1869221688530785
88912000.0 0.6994454700707351 -0.713129031139897 -0.18347097223060108 -0.7860233115460112 0.0020466733458946915 0.00035941094739619134 0.47759417525710884 -0.20216099447094626
89911000.0 0.690988188541859 -0.7229848621773766 -0.20278710345876913 -0.8181075419648706 0.0016907475704234453 0.00013640787763446655 0.4760692554792753 -0.21967051789534353
90910000.0 0.684239867439665 -0.725500566356188 -0.2130309947322347 -0.8568632783025508 -0.0022235208353554546 0.0003535964640167962 0.45931454637907565 -0.21348276070114883
91909000.0 0.6758057021632896 -0.7330821114913274 -0.2378626045783962 -0.8838984902041531 0.0003951691302228614 0.0016910799627929804 0.4734889860245105 -0.21721026257863799
92908000.0 0.667649438057349 -0.7397767900155465 -0.2506553663579263 -0.9173165212013646 -0.002642307451095226 0.00032875274001998846 0.4573014637794768 -0.23381534904737944
93907000.0 0.6625537755644766 -0.7455972499052401 -0.26654913259155943 -0.954665428578875 0.001602277510643213 -0.0002893093878030719 0.46714020451445404 -0.2505136937099328
94906000.0 0.6481819852971155 -0.7545927599608215 -0.28632800412379583 -0.9858351769071154 0.0008885699947841365 0.0013681076203535011 0.4672071792102381 -0.25170452589179326
95905000.0 0.6417547493240142 -0.7602244775131037 -0.3095821702691473 -1.0162930951706033 -0.0005674914174432335 -0.00023434986824035083 0.4696219031073825 -0.2660369091814146
96904000.0 0.6350865304256842 -0.7709918722800302 -0.3261746460390959 -1.0580717086839013 0.0017904242369875384 -0.004455548438756735 0.4596296950366832 -0.2722695222210624
97903000.0 0.626467043796551 -0.7739230784288644 -0.34436833936357225 -1.0905204626475267 0.002237774654649869 0.002148248783778699 0.44450253310632803 -0.28402497042875957
98902000.0 0.6207017190624943 -0.7818402908892994 -0.36390046090061234 -1.1262572066612146 0.004577082341006752 0.006189853845103627 0.45115662019021024 -0.289265992483642
99901000.0 0.6131478554175874 -0.7883811674246242 -0.38942366968580605 -1.1580705244558467 -0.0011150978138014 1.2852074709486646e-05 0.4638479145063166 -0.3212269457006071
100900000.0 0.6027605367863602 -0.7901100403374324 -0.42157493468891377 -1.1835198269006895 0.0028906701350042137 0.00037600495565313924 0.46013883834609265 -0.31840237690461487
101899000.0 0.5945183569054547 -0.7987463433221076 -0.4465045287261534 -1.2260727115175656 -0.0012190651314768163 -0.00027586019865397863 0.44746447334381834 -0.3281177921237117
102898000.0 0.5863063962077305 -0.8044636525635597 -0.472322395916185 -1.262899493188985 -0.0007263202483016459 -0.0009560252279783392 0.46115950476777523 -0.34168661743670947
103897000.0 0.5761990856730055 -0.8113706750194959 -0.5128693292658337 -1.2949006005278607 0.000625178623315786 -0.00206168908937259 0.4591990233745934 -0.3347989781194376
104896000.0 0.5689529614528842 -0.822300076212445 -0.5547583217001054 -1.3280274462858372 -0.0008398935003717069 -0.0009524826325153448 0.4431483220153209 -0.3434147764948467
105895000.0 0.5587583976951719 -0.8239199528972 -0.591714745499537 -1.3692440246893243 -0.0008042944161057089 -0.0011510492579304226 0.43809730380412115 -0.36212018034840254
106894000.0 0.5496140945315293 -0.8307309699188343 -0.6498117500251877 -1.4038076030614746 -0.001500302503027408 -0.0008527451248589429 0.44419846078927394 -0.37777046860817465
107893000.0 0.543383521509383 -0.8366267124979109 -0.7000289420170092 -1.4426490414052708 0.002218553516690104 -0.001428793215333126 0.42834537389701693 -0.383815189789337
108892000.0 0.5321385532791055 -0.8415280964049985 -0.7535622759678441 -1.4826187445132895 0.002214978326137647 -0.002750345684589569 0.42690551125170895 -0.37864969114990304
109891000.0 0.5214432102786424 -0.8470532908001146 -0.811470384341212 -1.518159256883851 0.0014568272910919827 -0.00266739203058523 0.44950043822478125 -0.3695839505453797
110890000.0 0.511782953318504 -0.8673313130555071 -0.8868408342771533 -1.5367230788787558 0.003468049691427102 -0.0024354992494748143 0.4367483661522912 -0.3856662428944284
111889000.0 0.5001455394950273 -0.8550760609941247 -0.9298555309537279 -1.58033178432719 0.004542895674294689 0.002002703716522893 0.4160065282329897 -0.40693961631123443
