! Created with skrf 1.9.0 (http://scikit-rf.org).
# Hz S RI R 50.0 
!freq ReS11 ImS11 ReS21 ImS21 ReS12 ImS12 ReS22 ImS22
1000000.0 0.9869632858455956 0.004774204056983988 -0.017837496739102374 -0.04535044919780301 -0.002320787526139449 0.00631229741335241 0.38971747845412064 0.3411170771573332
1999000.0 0.997681436592908 -0.01806633566945452 0.0052010677485493945 -0.017389843643707648 -0.007976868437699135 0.0032370645710796935 0.24954713651092966 -0.0301987565975063
2998000.0 0.9977186470845323 -0.025236918278994346 0.006203196219254323 -0.00968534794254852 -0.0052630795043960635 -0.004030206391638782 0.19895350443755383 -0.12806446196356053
3997000.0 0.9966186974735375 -0.029879458839804782 0.01416876377004222 -0.005161224101774593 0.003967019146962857 -0.007517697389289495 0.09151203015869325 -0.2245327959151723
4996000.0 0.9947632863921679 -0.03876310117487723 0.012768260875503408 -0.008244601319966235 0.002376755160289505 -0.0035243546350696904 -0.042936017438037724 -0.18706781348302687
5995000.0 0.9956793939185713 -0.04796605597197211 0.008108505824233024 -0.0014476576306845232 -0.002048065818440169 0.0012178233621658768 -0.11559769410378844 -0.1124145415410611
6994000.0 0.99479746365896 -0.059248871243764135 0.0023353447420860897 0.008449608291016267 -0.004094773125406651 0.000908270124452219 -0.13083642822642053 -0.03503010550930024
7993000.0 0.993836616055911 -0.06736888032003895 0.003898326758296052 0.007392068601795644 0.004205328221143056 -0.00021882097490364034 -0.17268738234969674 0.03597863183140298
8992000.0 0.9938121140186515 -0.07117005994334145 0.0055354125153048725 0.0051334502712119656 -0.0013512931637838616 0.001358302537254128 -0.1563908656673008 0.06569120349660432
9991000.0 0.9923511498843524 -0.08563772869596468 0.004495491292996977 0.0013694843024249553 0.004805655211900855 -0.00021779418126786782 -0.15341311571629035 0.09838329399562765
10990000.0 0.9911364424510611 -0.09359608496862606 0.0057946174817562306 -0.0015515237219343731 -0.0028104428400451626 -0.0019990949192419255 -0.13549548009116325 0.10895758389329852
11989000.0 0.9908088741532302 -0.1023226179747589 0.004461656162704951 -0.001690177472899498 -0.0001476327529613814 -0.0028300926431716056 -0.12623671758227353 0.14930619429565978
12988000.0 0.9895113444397956 -0.11203349757080736 0.0003914095614009867 -0.005136198416899398 0.000455168109846327 0.00208691786115408 -0.11665354343749683 0.16793945679463196
13987000.0 0.9865701089967195 -0.11819824003427985 0.0034786082766565143 -0.003323500214078043 0.005771493067475134 0.0007280483778503145 -0.09345240442647253 0.20118597727207782
14986000.0 0.9879706142730158 -0.12545001198086697 -0.0029505812305491257 -0.004088337018242406 -0.0029999647753610357 0.003130588083266946 -0.0893497901044915 0.21399405147406156
15985000.0 0.9880464558243195 -0.13482073658751872 -0.0014330166358817722 0.0013502549791376767 -0.0027222225352791347 -0.0014839591789595971 -0.062074162193841265 0.22042700303132715
16984000.0 0.9846008147642644 -0.1459333139195662 -0.000464232433534369 -0.004813344960112329 0.001223805956158663 0.000890136517084082 -0.05154971134639868 0.22323312274121188
17983000.0 0.9842029414557152 -0.15068889556273893 -0.007558500625765009 -0.00457433793486117 -0.0023969701886046185 0.0007487299761494394 -0.04954018605353225 0.22927431614123592
18982000.0 0.9811600552496024 -0.16447169586162017 -0.005611790122540755 -0.006957155129350934 0.0027645140965256465 0.0019186601763238292 -0.01892206754008814 0.24165176230478508
19981000.0 0.9825255372828688 -0.16811119562661467 -0.001229166354512517 -0.005469533325306136 0.00045200825788495867 0.00032665344943043947 -0.013803694642193165 0.24822874428934188
20980000.0 0.980328904787933 -0.17772067436933647 -0.0027958664211616656 -0.0035565871945336387 -0.0013655267434406098 -0.003967886829516246 0.0008351739120896043 0.2684864257369429
21979000.0 0.978499168092839 -0.18652181943842946 -0.00806942836750559 -0.0016362971417795953 0.0016429349623173406 0.0020965662451006215 0.02037717657673418 0.24034469290011504
22978000.0 0.9755406744354145 -0.19409390780520802 -0.005786784869732131 -0.008000706216524845 0.004763605722863483 0.0010814079219324552 0.025541268546201687 0.2649428640916581
23977000.0 0.9768052622915944 -0.20324361349978418 -0.006937605517725668 -0.002443777808153263 -0.0032171525371072146 0.0007586564459316301 0.041856687386679636 0.2599435905424555
24976000.0 0.973662020106049 -0.21371792687326874 -0.0033766167233616738 -0.004161739605947767 -0.0011750898264485537 0.0011858218874591193 0.06850060444735079 0.24999675414210398
25975000.0 0.9755760275607214 -0.21907538075019484 -0.0021026385405961507 -0.004034606030246286 -0.012549820745914542 0.023200843242981776 0.08229822196793021 0.2708763109138141
26974000.0 0.9688828274016713 -0.23041858213942554 -0.006504648052061634 -0.0007253036528977357 0.002291674382660618 0.004232679968950768 0.09034441874900813 0.2770031235332083
27973000.0 0.9702419922469413 -0.23464064471801627 -0.002958382409468262 -0.0027262150964017418 -0.0009927048427701634 0.0026236019529550718 0.11613796936320442 0.2597193751767307
28972000.0 0.9639270550481095 -0.24637309352946582 -0.002382992562558943 -0.0014013398131034322 -0.0003465190579435059 0.0028952817615157844 0.11828708284449466 0.2632600848688226
29971000.0 0.9641818007282955 -0.2552190976873429 -0.0012887541623611209 -0.0020066785547259145 0.00028536462678696155 -0.0013921305319644914 0.15879729333831796 0.2656559821224137
30970000.0 0.9623212677724867 -0.26072050158503857 -0.0013104781562057975 0.00029297554432316245 -0.000413454151788388 -0.0032343074949152473 0.17535783383028208 0.2543167833910125
31969000.0 0.9576948141985544 -0.27019902405115465 0.003550622998877148 -0.004400184769398286 -0.0016968617436374307 -0.0038617311334399936 0.1484954294610719 0.2522717811432183
32968000.0 0.9565970570040522 -0.28150348243704976 0.0061356966976011396 -0.006830096439073643 0.0008996917976587603 0.0013571228092455554 0.17149152026843276 0.2543970148999821
33967000.0 0.9542239299260693 -0.29015169390759743 0.008031897799554932 -0.008170424244309756 0.00011737483105460304 -0.0015684927653176037 0.18363017717270375 0.23714131662053625
34966000.0 0.9529454828681094 -0.2948270443450973 0.014302789843393575 -0.008522286276687588 -0.00017976060450980826 0.0028283120226798293 0.20454096504486236 0.26312041522564605
35965000.0 0.9492638595065995 -0.30650302074634606 0.014094146564635538 -0.011256333036765225 -0.0014184698700575803 -0.002701262330529716 0.2192617499838194 0.2523623481703106
36964000.0 0.9472142115233259 -0.31417288113751035 0.015130106038239957 -0.015310471995389787 0.0013937791097614742 -0.0007226973466759875 0.2185972175256855 0.25291496572173844
37963000.0 0.942296097851489 -0.32609257777333245 0.023551147282482924 -0.018667757631242093 -0.0021231736474714266 0.0020179550631227844 0.22791481824909962 0.24185829287514596
38962000.0 0.9409651624328746 -0.3339289723544122 0.023094782245371495 -0.025169103671741543 0.00023514863740415514 0.000472250220522944 0.23790587254039486 0.23729996739104997
39961000.0 0.9372996629404362 -0.33975435611150684 0.024303009898411006 -0.027340939575254845 -0.0004794019559763815 0.0022790013704899388 0.250612467130728 0.23580882747609297
40960000.0 0.9344414394977977 -0.34902706471888917 0.023821188513643655 -0.0236561579536376 0.0001900630928759269 0.0014314318698179236 0.26457808478234884 0.22884462040193174
41959000.0 0.9298881836532344 -0.35848179603306024 0.0325514914752968 -0.032079066685670274 0.0004100386531027536 0.0016689725469766364 0.2733399865210074 0.2235027586086926
42958000.0 0.9276719792064008 -0.36726097754495923 0.030992338190480338 -0.04361125062064712 -0.003335261674377416 -0.0024249209038500934 0.290405769750843 0.2066393475512841
43957000.0 0.9246190960198556 -0.3720545361535391 0.03147354543025603 -0.046359305941198144 -0.0003617206884313431 0.0038744801827322274 0.28656586140211987 0.2176387293678701
44956000.0 0.9210324477993492 -0.3798177020792197 0.03356378949254026 -0.051718828270954136 0.0010694855058276391 0.0006298599859060737 0.30935539896359465 0.20330239629693295
45955000.0 0.91622996665316 -0.39195225606028744 0.0355887013790786 -0.05884375414545514 -0.0013758710772654417 -0.0009969493059195302 0.31476186077314666 0.1943422353674729
46954000.0 0.9137607147827596 -0.3998900282648974 0.0371424743384675 -0.06563702406078664 -0.0010786304857001263 0.0010952626466370107 0.329387235071524 0.1882228972068398
47953000.0 0.9104966877984891 -0.4083735593803555 0.038359782440759 -0.0726579720442818 -5.534225428990834e-05 0.0005443795593834059 0.3429895894118405 0.17683877779236393
48952000.0 0.9042567857739704 -0.41829374802849717 0.03845036073675784 -0.07784003863862858 -0.0006927479684167997 -0.0025681710647568624 0.34016835990222827 0.16927722685118662
49951000.0 0.9016621233938747 -0.4248082851909188 0.03470269737569036 -0.08623016659795604 -0.0005617610144388586 -0.00036643971752202924 0.3618699636909969 0.16684239778988016
50950000.0 0.8975744209708792 -0.4329006418934842 0.03946128937267142 -0.09498884430929923 0.0026819599053493812 0.0007076540832881122 0.3610975602584923 0.1571125346984273
51949000.0 0.8930811151866607 -0.4423289633123185 0.042715245836612764 -0.10227607619735779 0.003952940096181412 -0.0017774846301730118 0.3644416286949941 0.14912279307718213
52948000.0 0.892562658724368 -0.4479460417560215 0.044848921714964865 -0.11332637772930428 0.0008349780520602631 -0.0033137964008367574 0.3725377640912257 0.146756599330014
53947000.0 0.8846243525399682 -0.4589606634900667 0.04294982597012241 -0.12010623889830285 0.0013869609450406738 -0.002224311634513447 0.37876207542694285 0.13755495130410564
54946000.0 0.8798091178207422 -0.46685266048667584 0.04512767919828619 -0.13185811608007514 0.0003146220962596577 0.004320310016306837 0.3900086111032691 0.12550983390276244
55945000.0 0.8772523355939958 -0.4749739031387716 0.04544933677343239 -0.14402753851297023 0.0013310722174916267 0.0009824567956133866 0.39594584738949007 0.11592346455752035
56944000.0 0.8731416157455533 -0.4834378803127084 0.048760463282975945 -0.14932486867387346 -0.0003090595741072633 -0.003241005875701036 0.40836034067745536 0.10955261688865583
57943000.0 0.8679290947793161 -0.4938097751772 0.050591328000744964 -0.16277767845417576 -0.001143704716169151 0.0006930975033229032 0.4095851481796296 0.10422065680257858
58942000.0 0.8631882502025594 -0.49747799806347576 0.052969251330773175 -0.1767478592234355 -0.0002500735838109676 -0.0020068973336483708 0.4256736702728353 0.09588869857336413
59941000.0 0.8585819984054678 -0.5079309574017645 0.05128101690275743 -0.18704715536171382 -0.0003677902498913002 -0.002942932526986287 0.4236869709978488 0.09498380023471371
60940000.0 0.8516333103256525 -0.5140330185433335 0.051977743995205654 -0.18871392784206167 -0.0009742855697911868 -0.0005941392639109644 0.41596820225023023 0.08752087685616233
61939000.0 0.8491753331591023 -0.5212896469556323 0.055311269219296445 -0.1951588284469614 0.0019511918453166686 -0.0012665496343885357 0.4193183586693054 0.07831135878427706
62938000.0 0.8425334905094432 -0.5307425304561281 0.055869885058580065 -0.20972324734607045 0.00023427921826250128 0.001043752692709969 0.4541216430218128 0.07030270999655154
63937000.0 0.837284630061808 -0.5387311003898525 0.05907591616964924 -0.23349712904686126 -0.000662255900849946 0.0011815649237051794 0.4363177901211839 0.04902237026110179
64936000.0 0.8301482791464402 -0.545836097327947 0.058486955472596545 -0.24632359451225233 0.0008107677724380895 0.00021101209878056338 0.4411865708004069 0.06105276756001805
65935000.0 0.8267497008512821 -0.5568853908582228 0.056962148757960095 -0.2614510301567696 -0.0015036085325248088 0.0012808735537197227 0.44107020480967085 0.024195649309770327
66934000.0 0.8226791167780976 -0.5595894960077515 0.05987195485275926 -0.2721474382427826 -0.00019611698028438836 0.0034194004955372123 0.4399647043101617 0.028196246406781363
67933000.0 0.8201454633281505 -0.5699535833032838 0.06027274451035413 -0.28831590265505574 -0.0005084290682592458 0.0010449292345632959 0.46401784001836655 0.017165128710544004
68932000.0 0.8111467135464359 -0.5625125909202533 0.057637361873317396 -0.3002458545214642 0.0006894499973287894 0.001876366859067899 0.45923953944334783 0.0063574821361719784
69931000.0 0.8052497750842728 -0.5858470688598929 0.05523998416760177 -0.32006860812488797 0.0005967124189420472 0.0018527715910970598 0.4590869093314593 -0.017046459012019795
70930000.0 0.799073585861718 -0.5921293733535737 0.05105330745490599 -0.33303140122197916 -0.00011500466821510255 0.003735178419462414 0.4526044991091185 -0.017708800467392795
71929000.0 0.7948723992708147 -0.6009774470905365 0.047001002519475914 -0.35124431895683983 0.0008913199583246264 0.0014887932321152545 0.45278660875568083 -0.03489015079202209
72928000.0 0.7892924380607632 -0.6116861493520156 0.04072674676436123 -0.3690803329234561 -0.00034590340301593003 0.0004298811901793321 0.4764530940191298 -0.0314330882862042
73927000.0 0.7831884191048016 -0.6167889135823711 0.03701371221272095 -0.3893326899574814 -0.0010670072205305314 0.00218591203988992 0.4675608745295854 -0.047710022700993546
74926000.0 0.7765433300104451 -0.6268804967091327 0.026792252920834356 -0.4069397653016414 -0.0006254742721421725 -0.0031904205660315725 0.4687054608964669 -0.04963300587754602
75925000.0 0.7714504633437654 -0.6300593142138999 0.019712502868159412 -0.42819015044179004 0.0018698853297670081 -0.005778495456597861 0.4758732302783962 -0.06965657522735778
76924000.0 0.7655216691558863 -0.6384063286949666 0.010371014624173624 -0.4526819145313353 0.0006455021743653391 0.003523631632528948 0.4794588941690229 -0.07583366939702772
77923000.0 0.7574027902121454 -0.6458265490275675 -0.006999606593183283 -0.47715467221565655 -0.001986981510187815 -0.0028937638876680577 0.4675326304492511 -0.08779034109857436
78922000.0 0.7518542539576076 -0.657259174285798 -0.019906381195584577 -0.5031591139032822 0.0008096780613621578 0.005185189124520804 0.47434980950383143 -0.09292509120619055
79921000.0 0.7440963826524633 -0.6592658550755675 -0.041032572176597074 -0.5299863588434444 0.0003383458585395661 0.004942984802225586 0.47750031227309037 -0.10324025263481862
80920000.0 0.7399807576857816 -0.6709415484889697 -0.04820158050715427 -0.5587462483855908 -0.00011969938045744676 -0.0009240440267320077 0.4788091757730447 -0.11994736909385546
81919000.0 0.7318899544244235 -0.677139543794051 -0.06807965509078269 -0.5864245889632529 0.0020612972258688854 -0.0017829050392057445 0.4808367480494847 -0.11691358504979833
82918000.0 0.7255321198558758 -0.6834707507292753 -0.08122734682542238 -0.6212762776041771 -0.0005375352328787315 -0.0002943776569408892 0.48475628390293135 -0.13236874847795674
83917000.0 0.7174799691522338 -0.690805556270583 -0.10280856310474988 -0.6476209467986166 -0.0001666897092213006 0.0007544090098359896 0.49114067761080005 -0.1264896443666602
84916000.0 0.7102273311528798 -0.6986373552111692 -0.11739792104782289 -0.6829793198586975 0.002512633242962902 -5.987597092098568e-05 0.474602862859039 -0.15831341153548606
85915000.0 0.7041678444353241 -0.7050681993171365 -0.1336584307284628 -0.7137234236174436 0.0011240530855951964 0.000489129656561446 0.48105518907350986 -0.1552903763613498
86914000.0 0.6960811048095293 -0.7166978875901233 -0.15174886866002787 -0.7501864064980128 0.00388209051153716 -0.0028134428454712128 0.4761923684284005 -0.16483988276976683
87913000.0 0.6897553106911196 -0.7213426606865818 -0.17192604190438626 -0.778888183561088 0.001421752341560565 -0.0004341511309245322 0.47054939891383435 -0.17016354436491138
88912000.0 0.6818213097517366 -0.7292055793762323 -0.18307241938310045 -0.8145649739985252 -0.0011628250159871239 -0.001843219762045358 0.47615930819773167 -0.19059565058431313
89911000.0 0.6741325215300203 -0.7370690506326913 -0.2010950213516121 -0.8490828109981939 -0.0016488520300080545 0.001774370538427168 0.47374381039959673 -0.19226648258100248
90910000.0 0.6679469473385593 -0.7405248832801635 -0.21747121477375658 -0.8861475888303408 0.00095245293707199 -0.002960515065881601 0.4807119399699761 -0.19025034411086383
91909000.0 0.6583091467687583 -0.7448133216193098 -0.2356035373760488 -0.9201611034492236 0.0014804682702639449 -0.002277034349684186 0.47778204502291405 -0.2027001015878436
92908000.0 0.6503549359517711 -0.755125201458121 -0.2556225146877579 -0.9516069669930475 0.002407286435718954 0.002695991909280058 0.47563999017165176 -0.22255929482839173
93907000.0 0.644198425433156 -0.7596551129028505 -0.27394991905228694 -0.984848065463524 0.0006840733219974645 0.00086539093290683 0.476313818721011 -0.24021257287745756
94906000.0 0.6317560636286503 -0.7668067666220953 -0.2877548248484635 -1.0183403461173628 0.0050005409479038825 -0.007618438538265998 0.4750308604552793 -0.23522587121130395
95905000.0 0.6255827339577278 -0.773132007937826 -0.31393154670807 -1.0559438984744782 -0.005957414217604979 0.00014855898753712924 0.4690364564240744 -0.25177412103936997
96904000.0 0.6181149528584461 -0.7829726291619657 -0.3363021167322678 -1.0990250268680855 -0.0049024246743837275 -0.0019641485164043977 0.46348124136569435 -0.26040444858549366
97903000.0 0.6073508727681957 -0.7893288455470958 -0.3588562507097061 -1.1258679499437634 0.005085114698292625 -0.0029986735046030446 0.459828370112202 -0.2676944994316389
98902000.0 0.6032788073908316 -0.7937392337494071 -0.3750840300236505 -1.1663530253444783 0.002665271643893274 -0.0009155689430940991 0.46091635028182426 -0.2727418306235453
99901000.0 0.5909801945167504 -0.8009781155074986 -0.40817971047496115 -1.2016075747849533 0.0014717838683933973 0.0018333649889579998 0.47662461873277223 -0.30688269922372535
100900000.0 0.5848561918653077 -0.8045855707143961 -0.44203618811718204 -1.2302113931905492 -0.0012874910538126893 0.00047247460377917777 0.4815245526335082 -0.2988619851889829
101899000.0 0.5755924775505773 -0.8126030201692511 -0.468610178801689 -1.2654285776871999 -0.0009360641402996829 -0.0037921440152827814 0.4558099069736591 -0.3096663650102547
102898000.0 0.563565679623922 -0.8179589413986663 -0.5079568451791345 -1.3068209167903078 -0.0007780457223574095 -0.0015253763423202608 0.46180537130463256 -0.31636940819900783
103897000.0 0.556267579613995 -0.8266693784037171 -0.5479099096069874 -1.3449543012424114 -0.0007738693358047292 0.0011707063328530122 0.4662189063827729 -0.32199671626936077
104896000.0 0.5459088556014485 -0.8344246344972786 -0.5933170804619582 -1.3769798045567327 -0.0022220394298179762 0.0023322934243431297 0.4475754269818072 -0.3256658840745419
105895000.0 0.5388458863282635 -0.8368464738505553 -0.6410317755962935 -1.4220637568776102 0.0018510057629781101 -0.0014317106799635964 0.4505550414353215 -0.34270289072491894
106894000.0 0.5268990690559671 -0.8439597655374071 -0.6950218987377009 -1.4578769241781147 0.0035970997168673787 -0.001859405122455196 0.44872211097551234 -0.3517227813629364
107893000.0 0.5188514111329212 -0.85031073633077 -0.7473278492031601 -1.4982214689178561 0.0016638537170736302 0.005060773127525108 0.44940597554618333 -0.3615581430757483
108892000.0 0.5095677273234772 -0.8533567289114127 -0.8092536024018407 -1.5392996676292903 7.044350542020112e-05 0.001050610334036894 0.4403083461173039 -0.3656239359293159
109891000.0 0.49719364095441876 -0.8603453141358349 -0.8640121636244971 -1.5782357842568755 -0.0016270714581473474 0.003415134191665427 0.45603567059903777 -0.3604579778202806
110890000.0 0.49152581058299977 -0.874030945510927 -0.9396455092858017 -1.6065868284282137 0.0021137309959103332 -0.0012783761838472706 0.45119449750651275 -0.3655065314215951
111889000.0 0.47610418927157633 -0.8679662605073167 -0.9940752097400407 -1.648865247459687 0.001859341655657432 0.003240609177861021 0.44341749973940997 -0.38301758429848926
