! Created with skrf 1.9.0 (http://scikit-rf.org).
# Hz S RI R 50.0 
!freq ReS11 ImS11 ReS21 ImS21 ReS12 ImS12 ReS22 ImS22
1000000.0 0.9983341975439094 0.007232321648177328 -0.018165535897850416 -0.048197570217116834 -0.01631312968081063 0.011937806409766214 0.2962347695141697 0.39826809557870285
1999000.0 0.9980679495113912 -0.00792257880676374 0.0010916989659543522 -0.025348203271439853 -0.007224313518824277 -0.005050083257990188 0.2412209870263538 -0.06512885261757378
2998000.0 0.9952558999230348 -0.018644945372682006 0.006765448135544811 -0.017695825025684824 0.00023790154296420715 0.0058288173518588875 0.19483467336751228 -0.15573346915090155
3997000.0 0.9990220498608133 -0.0294229702917408 0.013838034326841877 -0.005677978870271172 0.001137073114666537 0.000873993158718385 0.073664824651362 -0.2274697689624801
4996000.0 0.9992479981855538 -0.03966733937288213 0.01361772921476596 -0.006939024324169044 -0.003056035024718 0.00020694367335304543 -0.07131722800377324 -0.19894332555053917
5995000.0 0.9979801402274303 -0.04815824085167905 0.008839860048820765 -0.0033310536107607953 -0.003707478666651211 0.000538690906861402 -0.11984940125719955 -0.08776370832833337
6994000.0 0.9970642397754202 -0.06130819867377754 0.01407712590497205 0.004787733081111018 -0.001217956526816668 -0.0004179478817133532 -0.139587977316842 -0.017006874053828978
7993000.0 1.000221456687161 -0.06666676538353654 0.00598835571570506 0.00493468203658377 -0.001347250339602567 -0.0026491817470382754 -0.16082555232310802 0.053868309440497954
8992000.0 0.9991395840737837 -0.07243587564982226 0.006382358763564807 0.0040624946882116065 -0.000961245203949819 0.00019321079248704276 -0.15466892315402164 0.06827344583317402
9991000.0 0.9946084368784943 -0.08105994193779255 0.005297301025523588 0.007765443057899964 -0.0005836789207794951 0.0010891917642815172 -0.14152953609539856 0.08808335099087271
10990000.0 0.9948069926033863 -0.09172839592735703 0.002686994673429116 0.0014596675935169474 -0.0018300443529496962 0.0039343999690215695 -0.1344768987427469 0.1304353119539835
11989000.0 0.994945942549876 -0.09804293704055779 0.0029332740567485803 0.000651111521097366 -0.0017156485555662807 -0.00015579789486490196 -0.11695608169981922 0.14165649844050643
12988000.0 0.9933181324628657 -0.10895227198404288 0.004208180930791013 -0.003741279993949515 -0.0031387117549624374 0.0038581400831696894 -0.11016887552063062 0.17323781051352444
13987000.0 0.9919543117737255 -0.11740434974273628 -0.0005788794472122259 -0.003504030211878783 0.0011840471854344776 0.0004337817538586564 -0.0858498512130705 0.19383204832014667
14986000.0 0.9902370056831973 -0.12424839991153046 0.0028134727556658966 0.0017014869294901288 0.0003409008712141102 0.0015741042137884203 -0.0847490062338792 0.2070247067085953
15985000.0 0.992764742926098 -0.1340510547324358 0.004520460075413453 -0.0026920894530815644 0.0017555787417643963 -0.0016860987235820264 -0.052396276186419025 0.22016567148707925
16984000.0 0.9889289284081582 -0.1456940603782187 -0.004174473888164609 -0.004194807201342137 -0.0012878591827642507 -0.0001452794602509114 -0.06069933684325658 0.21713896613459058
17983000.0 0.9875210518968814 -0.15004392683969875 -0.0005193939625075367 -0.007608009857658684 -0.00036907673714673084 -0.004289601854685598 -0.043567745481410715 0.22022050541799468
18982000.0 0.9862198787978931 -0.15937534988783356 -0.0027650341043022986 -0.004093149359850577 -0.0010784517959438538 -0.0029887581271199376 -0.02389306332783409 0.23692516612587214
19981000.0 0.9874839298232237 -0.1644960715120048 -0.004261556821853442 -0.0018723990174678037 0.003881153386068088 -0.0008194118021558003 -0.014052915800709779 0.2264107249835753
20980000.0 0.9832942605214413 -0.17664457566138794 -0.00589867826002313 -0.0024942155642867967 0.003566303854213087 -0.0008884464016393359 0.004989033173369892 0.24792785707810772
21979000.0 0.9822024527924199 -0.18473897572941686 -0.004359258932996792 -0.0023102203492281134 0.003543419343871112 -0.0009193493509194523 0.020193045340727037 0.25364687225398097
22978000.0 0.9805978261177465 -0.19333478103577156 -0.008644730949570707 -0.005505017061057518 -0.0024175425759483346 -0.0009976382344307432 0.03549991063474715 0.25400533390103236
23977000.0 0.9786312597157792 -0.19937862386702096 -0.008562749009104862 -0.0025152618842724317 -0.0020801397174477023 -0.0010084549886695952 0.042803141842569024 0.2576412325291993
24976000.0 0.9770241890279209 -0.21117583547208618 -0.006268738114223347 -0.004009498995446128 0.003156709748120607 0.0006568535851803914 0.070096033761513 0.25966796116745866
25975000.0 0.9763635895146616 -0.21676290186294672 -0.0117823983423146 -0.0012290380000952712 -0.015365589951755894 0.018361059744047954 0.08931515586182955 0.26025328238311823
26974000.0 0.9720534817077005 -0.22849401007014897 -0.0025630987756518047 -0.0009868000827691588 0.002177924267213779 -0.0034973123136890884 0.09579900544828265 0.2713431219049415
27973000.0 0.9729253219147033 -0.2327164091360359 -0.00453691703462759 -0.004607575863488957 0.001990465898234121 0.000327134705561842 0.11140291944400645 0.25564703663323035
28972000.0 0.9672522748966635 -0.24468066535022595 0.0001229505370377392 -0.002650273447075296 0.000950826523890478 0.000733030557389902 0.12148342754009714 0.2624274345835625
29971000.0 0.9664690732988142 -0.2539994996411048 0.0013236303770948713 -0.002775511849250817 0.0007481468236741646 -0.0012161691965245863 0.15255326117617263 0.26494675109069454
30970000.0 0.9651343758845863 -0.2580590002264407 -0.0011254301716430036 -0.001758728010255025 0.0015890275488647237 -0.0030213237294684212 0.16155248224443178 0.25784335703807176
31969000.0 0.9612537212417047 -0.2676395850840736 0.0035208418286338593 -0.003244477772144876 -0.0037193945201589433 0.0007278008353750522 0.1520151720106096 0.25093980365734087
32968000.0 0.9621550585857478 -0.275486376777249 0.007066426618513998 -0.0056511834324552606 -0.005632815809687409 0.0004659727231937192 0.17074139488008686 0.24345156093030548
33967000.0 0.9587075457465423 -0.2841924929579273 0.012439250102615693 -0.007128632625930131 0.0019842889610603176 -0.0013820250672162808 0.1928818464350268 0.24669719001402254
34966000.0 0.9542996668352058 -0.293358959515838 0.01466202505152838 -0.01309462490636346 -0.00018555848002660495 -0.0036998718307333584 0.20405093618876763 0.2582299845689641
35965000.0 0.9517891903489686 -0.3024094121680986 0.015506150785586302 -0.013223629210419556 0.0003625428902569402 0.0014849538706132065 0.20976736512488517 0.2523721202878066
36964000.0 0.9492020775737325 -0.31131519410994 0.01706135563697238 -0.014743637244206423 0.00037761331498814885 -0.001666824357564006 0.21043368090861803 0.2484401388106397
37963000.0 0.9456395595446333 -0.32100607659860914 0.021919019022406123 -0.019957850185463328 -0.0004845845852707934 0.00024242478994099015 0.22496200897144977 0.2374508316779062
38962000.0 0.9444443391818718 -0.33033600251761464 0.023772759752952816 -0.024715524277230835 -0.0008516295585978531 -0.0017813998353181201 0.23682100689314914 0.23034213130496775
39961000.0 0.942411051785719 -0.3339089559747308 0.02768347372542691 -0.029306867819567442 -0.0009107544993927487 0.0013085924874524015 0.24627563401680522 0.22685332758110602
40960000.0 0.9380055528595631 -0.34468904795717753 0.018409846316404035 -0.025151124108206073 -0.00018325753319170206 0.00039169906342687656 0.26168319005869517 0.22014383598162549
41959000.0 0.9348206702213498 -0.3535977067401687 0.03065670369460088 -0.033064142206194386 0.0007364116876625785 -0.0006385463020157214 0.27049827769277013 0.2224753072550862
42958000.0 0.9289740301747377 -0.36270819541458593 0.028708712480765092 -0.04025545960173306 -0.00328722571389902 -0.0028320498565316743 0.2851709750528765 0.1924522342618856
43957000.0 0.9303717620785753 -0.3660390428066476 0.03570504241111243 -0.04323748212859605 -0.0016122214591388806 0.0010618399608190016 0.2889593541945558 0.22070470205336642
44956000.0 0.9251112320676498 -0.37415162535030533 0.03240573404529312 -0.052317589194416536 -0.000619810643682955 0.0006747302274860088 0.3057707332451984 0.18975737634857234
45955000.0 0.9217727515001374 -0.38595254130639706 0.033659236685164275 -0.053452387667830996 -0.00024283674654696364 0.00023995549327424396 0.3115090129407444 0.19983095890447788
46954000.0 0.9184800690480779 -0.39448578221710084 0.0330261644357316 -0.06550113950424083 -0.0014153383356174875 0.001152028146805242 0.33263238507398196 0.18111428022106418
47953000.0 0.9135165272489919 -0.4042568363465753 0.03365978627106455 -0.0713167543308461 0.0016821396868894653 -0.0011538219025011669 0.3340306926895744 0.17438085934621125
48952000.0 0.9103058947289826 -0.41089848705205356 0.03442153587171545 -0.07617127398141774 0.0009069319941327278 0.003285132814928254 0.3417778444236335 0.16037738440981814
49951000.0 0.9061866633143643 -0.41945481107287236 0.03347539424871954 -0.08488691449371213 -0.0010281988078141414 0.0018027325276464554 0.35250458284673447 0.15193964614954764
50950000.0 0.9035497270515507 -0.42515504420630834 0.03308261845904051 -0.0966069970680362 -9.353693817717849e-05 -0.0004939754313824107 0.35758020342414987 0.14639868655197552
51949000.0 0.8996492571571706 -0.43443696961187694 0.03429044530747989 -0.10106083905957208 0.003041349704935457 0.0008985618893237189 0.3566134166699847 0.146948943776265
52948000.0 0.8975873923972227 -0.44271259224755977 0.03722342173569469 -0.11168798097188709 0.0019441556339019732 -0.0030672835269774487 0.375582513363185 0.13615544122727152
53947000.0 0.8901000344407497 -0.4512423924783401 0.038932909989672734 -0.11862970161787495 0.000566682192443185 0.00021403545417006297 0.3727051511439838 0.12204701989290934
54946000.0 0.8866481193340264 -0.45939759958170645 0.03938016466916254 -0.12803500582992777 0.00041950111638402424 0.0007962870174858796 0.38531557908680625 0.12228313715716962
55945000.0 0.8832279682092182 -0.4676262620234412 0.04197007216357275 -0.1385299656122981 -0.0018032631668459555 -0.0012744446222165541 0.38188795069171216 0.10586275681416213
56944000.0 0.8792262804017779 -0.47648974598815275 0.04404407401803764 -0.1491623262334817 -0.0024134960374894154 -0.0009231296919430612 0.4067698273391007 0.0992994835777516
57943000.0 0.8728987716776715 -0.48595371216363 0.04422539733401501 -0.1568287096302475 0.00023612166495139906 -0.00014138668503638958 0.40794723409412587 0.0853098623735408
58942000.0 0.8702419215464571 -0.4897200759292289 0.04657196491934175 -0.16944546880327488 -0.0027989914534179974 0.00014379985886296389 0.41929864955093044 0.0945042360676281
59941000.0 0.865784850672971 -0.5002674631806282 0.04693722935502697 -0.17709985911875703 0.0007437234244980212 0.0022503564473127223 0.42357396706993977 0.08919553189299118
60940000.0 0.8584118631053719 -0.5076729138431202 0.04741861596977207 -0.18106664349258614 -0.0005785410117840141 0.001390398830842406 0.42089476856091435 0.07576878655927126
61939000.0 0.8557742718587874 -0.5136430478275379 0.0470780552037827 -0.19064941366495097 -0.0024190523539774048 -0.001268981422762515 0.42110368521743474 0.06802405000244875
62938000.0 0.8509803010073264 -0.5237381820704695 0.052523989535102275 -0.20568367588594982 -0.00027270891452230536 -0.002393416834647919 0.4473907185672687 0.05442160169659632
63937000.0 0.8466678358385803 -0.5318225877239654 0.052272287731661295 -0.22829094389657337 -0.00017086048313014014 -0.0023161355491863028 0.43894285319520465 0.03634143721845652
64936000.0 0.8411619095719128 -0.5379264924786037 0.055337073933797186 -0.23984065474321792 0.0008576619340021289 -0.0022534477306225074 0.43421544152664954 0.04999758503984756
65935000.0 0.837653983984465 -0.5470102236045993 0.05090072305884615 -0.25197042974360434 0.0004525715658996452 -0.002142188787778319 0.45126333735232416 0.01508804718485783
66934000.0 0.8353911821180597 -0.5516820340163259 0.050956858984817666 -0.266266002146146 0.0032329265966908396 -0.00290407059222206 0.4342555222413118 0.007564454505483468
67933000.0 0.8285291506207566 -0.5621104194565758 0.051956556935978324 -0.28093082396235636 0.0006352359616092624 -0.0010662988339215024 0.4449131690392823 0.00907693480327967
68932000.0 0.8126404628578473 -0.5579508749981344 0.04793583418727023 -0.2887104669865305 0.0028938387646306966 -0.003670843132567869 0.4499113865292877 -0.014879655054263568
69931000.0 0.8131439585723476 -0.5775279289439536 0.04981084312499124 -0.3084113540250059 -0.0026876981132074444 -0.003973939040833559 0.4581745035657998 -0.014442015201240806
70930000.0 0.8111623434459458 -0.5828156229102659 0.04669309481221141 -0.3199539791223385 0.000712418706636162 -0.0017257544181962443 0.45809406243442297 -0.029535330725878082
71929000.0 0.8063120368060466 -0.5937881564865406 0.04481808805456055 -0.3362238116761269 3.189602234695839e-05 -0.00025404595516302224 0.4479244576428024 -0.0356534454617124
72928000.0 0.8002176944369738 -0.6021638184804646 0.041335848770362296 -0.35174863260266376 0.001237112127664894 0.0009851100791330072 0.461524045387313 -0.05198571318717735
73927000.0 0.7937536396438721 -0.6076317098943291 0.036283616940387245 -0.3697442810082168 0.0006558742861035594 -0.0034038787390753425 0.45978792740099167 -0.05819142074696595
74926000.0 0.7897683158345393 -0.6169933806523982 0.0268611539230346 -0.38874527888641824 0.00017585448348187574 0.0002016853998392613 0.46854695253263795 -0.056606696669810115
75925000.0 0.782560010608566 -0.6204293721031597 0.018362533308508986 -0.4087515164000597 6.031461806663531e-05 0.0021546698530337484 0.47374501029030136 -0.07101525724830017
76924000.0 0.7759515803290035 -0.6318773906786995 0.005147146117312319 -0.43103761457117296 0.001681013360827012 0.0009299028299887433 0.4775077798574429 -0.09535042033266466
77923000.0 0.7702543123632221 -0.6344653929875609 -0.009425523706175602 -0.45302666241036443 0.0018660173877525661 0.00061889337090414 0.4566773815444792 -0.09628202443695394
78922000.0 0.7656001650061406 -0.6456732413129496 -0.024940863073622314 -0.4807648795496951 0.0027776488240289256 0.00487382586439757 0.47272199311567625 -0.1094022979180171
79921000.0 0.7539423731914076 -0.6497209553312164 -0.03967555405980025 -0.5001583557180044 -0.003238506874470251 0.0011614977035745383 0.462059209108548 -0.11758959950600689
80920000.0 0.7507618347360637 -0.6625470331438662 -0.058274663139368965 -0.5277593393146474 0.0011735741048297002 0.0028161876900294073 0.4691264327163736 -0.12139016402826776
81919000.0 0.744074997407265 -0.6674378496574631 -0.073743348823378 -0.5549137512031159 0.002782165210954006 0.0039835325874727386 0.4696347544524027 -0.13671098135274787
82918000.0 0.7359227622020257 -0.6753621969853959 -0.08790297937740986 -0.5848783100556685 -0.0008446799496367811 0.005669412955286077 0.4810239227288884 -0.14671382467754163
83917000.0 0.7285139508427724 -0.6830982569129088 -0.10995182718018545 -0.6136349136618112 -0.0027890450201115227 -0.0008639438519140666 0.4739253279489975 -0.1469906125792907
84916000.0 0.7214773063331844 -0.6929008722950292 -0.125186440511132 -0.6445743261697232 -0.0056878567872758815 0.003611142370419599 0.4753274521936826 -0.16590777724706693
85915000.0 0.7160059815523834 -0.69513034745018 -0.14133800862867554 -0.6743704956786593 -0.0011459490426600322 0.001317568753130764 0.46824917078878553 -0.1730241663109947
86914000.0 0.7085353313100059 -0.705756965682536 -0.1570870703795747 -0.7110056165351738 -0.002540576417922481 0.003623167856240747 0.46446774701222654 -0.1703942936937336
87913000.0 0.7037699678018723 -0.7112963341710343 -0.1747758395556715 -0.738832129043946 0.00020043235917556668 0.0008032828644159644 0.4637159792651704 -0.1805291430881564
88912000.0 0.693596841940203 -0.7181232295731541 -0.19763032785398443 -0.7687563344703747 0.0029135659459724656 0.0032664667928925233 0.47089483550046274 -0.20745339872846666
89911000.0 0.6885015272306366 -0.7290661177651043 -0.20911640626903696 -0.8078817998433453 0.0003755107153835897 0.002175439535027601 0.4757279480612743 -0.20581258676380676
90910000.0 0.6811704210749113 -0.7325242790506181 -0.22300352248640518 -0.8389185374520313 -0.0004128050655624013 0.005057527145703523 0.4683158161010965 -0.2103117773534425
91909000.0 0.6708055866937706 -0.7369051863390745 -0.24458497890955008 -0.8697817509081316 -0.0018863236744477681 0.0003744496542579135 0.47610444169607813 -0.2194611756444993
92908000.0 0.6641449521224566 -0.7480620240697022 -0.2622431997942642 -0.9051576246127884 -0.0005327977663467513 0.0024175800159316157 0.4653545238790867 -0.2282819468360748
93907000.0 0.6604679831050618 -0.7512982981260717 -0.27518566559655044 -0.9370991473089618 0.0013553794889993136 -0.004273043793140899 0.4744051569435019 -0.24923827448329713
94906000.0 0.6466472547255921 -0.7611793316846268 -0.2926943619548851 -0.9670784524338358 0.0032086634512998955 0.0007871188413278153 0.4629160130168897 -0.2539117389990994
95905000.0 0.6394795197966342 -0.7664129493436722 -0.3170710521991743 -1.0016911981555536 0.0004436910893985298 -0.00015055731956084337 0.46551376135297506 -0.2756525849416352
96904000.0 0.6313774149175547 -0.774815957941643 -0.3328382630281532 -1.0353280687460387 0.0028054929641282297 0.00022834091958869192 0.4530065698811861 -0.27344544448661434
97903000.0 0.623265108353012 -0.778807995461467 -0.3530585863232732 -1.066372508453032 -0.0016265328190256075 -0.0016420975924507687 0.45172979759159426 -0.2928614534995298
98902000.0 0.6184672113641116 -0.7848260618694433 -0.37015876791739766 -1.1088162292435453 -0.0025139559708423917 -0.0013848968675197033 0.4532765194256624 -0.29495583142965165
99901000.0 0.6072475646219724 -0.7933671009908865 -0.3994612254215684 -1.1352713679176882 0.0013318802596608875 0.0015035002651232379 0.4641171367961088 -0.31157180487518776
100900000.0 0.5974018239631562 -0.7967579622592385 -0.4256369066892837 -1.1638630535269077 -0.0016508610054997257 -0.000844345300993281 0.4690641762809071 -0.31396612085369047
101899000.0 0.5892162321138446 -0.8046003980446219 -0.44809720683051174 -1.2021211984869469 -0.0011404034589169731 -0.001191324906392124 0.4587307955219552 -0.31420825088115373
102898000.0 0.5790172021287326 -0.8098268257547501 -0.48406906111795395 -1.2379400529380988 -0.002268868107445494 0.0003453849504722254 0.4558571966358545 -0.32930644435737955
103897000.0 0.5714897930201038 -0.8180202804746584 -0.5194218498201092 -1.2731789109207927 -8.917212629128012e-05 -0.00014464662083053302 0.47105176921304226 -0.3220498977569513
104896000.0 0.5637780700838758 -0.8282439376104727 -0.5599291212801373 -1.3066695036016005 0.0003052886990816701 -0.002041890511073751 0.4428500060602968 -0.33766399971331723
105895000.0 0.5522050894785142 -0.82871624609273 -0.6065189613581294 -1.3425130468394175 0.0006467063338751307 -0.0023419340205099266 0.4455348874057993 -0.3611721032586844
106894000.0 0.5428613784155567 -0.8361850651744275 -0.6588996707029023 -1.371763217613232 -0.001346928734925079 0.0012862741916221153 0.44497933865469924 -0.3634385836044744
107893000.0 0.5364118347416944 -0.8441588529382662 -0.7071227597061037 -1.4113826081805827 -0.0015293860215235759 -0.00034569879446316894 0.4355715113774271 -0.3818555507628295
108892000.0 0.5277662424281986 -0.8455577211794709 -0.7612004740255162 -1.4444366710961507 0.0005016401954694681 -0.0026835364228104588 0.43940614866286165 -0.37070943823737634
109891000.0 0.5140033451988727 -0.8539675273881135 -0.8150150246785387 -1.4791700020323022 0.0020650234078677865 0.0011265345248655783 0.4397778285637204 -0.3735787099096775
110890000.0 0.5123668222408045 -0.8644523502072627 -0.8768263859961816 -1.4976928889531642 -0.0007388895265851071 0.001953512063218151 0.42651286989309034 -0.38840197576294566
111889000.0 0.49744178660548793 -0.861087878133086 -0.9315490825798891 -1.547435584198763 0.0006579611056337577 0.00030119143371318377 0.4313181889509034 -0.3963667480126364
