! Created with skrf 1.9.0 (http://scikit-rf.org).
# Hz S RI R 50.0 
!freq ReS11 ImS11 ReS21 ImS21 ReS12 ImS12 ReS22 ImS22
1000000.0 0.9868191694858691 -0.005643669004640271 -0.02703495846287337 -0.04138611528714325 -0.014299220814970492 -0.005578588727547015 0.3158552488227595 0.32150929370099496
1999000.0 0.9939035939407035 -0.010651659018351833 0.004705858038099461 -0.030867344613472254 -0.012002472238319621 0.005454411312036045 0.22626441546116632 -0.06419047442866205
2998000.0 1.003264950282413 -0.020219582267634206 0.011364699448425377 -0.017821647469495067 -0.0040676691154962145 -0.0019162058445893124 0.19287198685611207 -0.1300462558598891
3997000.0 0.9985119724390603 -0.029694609820929453 0.014743939761574947 -0.004218090255026473 -0.006301616876665017 0.0029293270581877045 0.09821701220809127 -0.23786367700850342
4996000.0 0.9956523937259362 -0.0388286448098987 0.009863174201484722 -0.007117336350529335 -0.0036001825964452117 -0.0037280056643268417 -0.05561933641367699 -0.21263359078046026
5995000.0 0.9974559048364947 -0.04811351932564801 0.008363695932906767 -0.0013568055393381995 -0.0003988077535162261 0.0006924512320187906 -0.12366199622811706 -0.1114563996452297
6994000.0 0.9947156121643967 -0.05651351596219606 0.00956495709297999 0.006104167238137548 0.00019660578327068348 -0.004825798614066745 -0.14628507761742596 -0.022541998465612174
7993000.0 0.9970266345897726 -0.06758435483750716 0.003566186136402732 0.008305761551635643 0.0035682481216080847 0.0047354849793912746 -0.16813235918927283 0.0415597466722229
8992000.0 0.9958145958681045 -0.07062370893781858 0.0015523031572916655 0.006870046219761722 0.003364479997954846 -0.005866514298453705 -0.16053371372288638 0.06956837395216564
9991000.0 0.9944338398842769 -0.0833389115842798 0.0012335877977093376 0.006028700886537881 -0.0008158342286710535 -0.004208832253478951 -0.14741672029152125 0.09498074904237902
10990000.0 0.9930919587549065 -0.09269350519504048 0.005928388137229486 -0.0020411600605431944 0.00029954754515745363 0.004976536101703085 -0.13349101608665362 0.1104254450031911
11989000.0 0.9932742620410739 -0.0991590796284431 -0.00646213491676996 -0.001515139452711365 0.003112534222035867 0.0002029943813423965 -0.13632750482011485 0.14664670197287616
12988000.0 0.9915920681351038 -0.1087753710614104 0.0004904765495912489 -0.0023477407014270255 -0.004482003631107487 0.0037372835716251588 -0.11415127796680029 0.16990184831998237
13987000.0 0.9897118771251019 -0.11436186985838988 0.0008822471477373763 -0.001315469325023683 -0.0015714762009218872 0.0038655106623622336 -0.09461283366647057 0.19041646957981542
14986000.0 0.9892617623676896 -0.1243138634552596 -0.00014189273717744055 -0.0022718953180103376 -0.0005876119734357684 0.0020721000660293702 -0.0971615275179348 0.1983712293836775
15985000.0 0.9910248086926158 -0.13311367601326365 -0.00031513941150403265 -0.0032008180826939995 0.0015119411187828502 -0.003569168418964516 -0.07801171159341157 0.222624307369066
16984000.0 0.9869060198058222 -0.14184694382336943 -0.0009471400707842282 -0.0021643669070182735 0.0010982635187717657 0.000683571443914284 -0.05205258954567492 0.2193396161321513
17983000.0 0.9883070658220275 -0.14834267814844976 -0.0022637888183932708 -0.006676382935011862 -0.001504736643734547 0.002540839067296961 -0.05396046943077134 0.22606961467260653
18982000.0 0.9843473348379062 -0.16213801022126528 -0.006835431047679519 -0.006614154056999193 0.0006167794057621235 0.00023973575606638632 -0.022891623359954878 0.23843407036098255
19981000.0 0.9844044299906728 -0.1653736487344297 -0.005624114024202581 -0.004870850439139745 -0.003979342801944744 -0.004438095454844403 -0.014490693935204144 0.24015736845261743
20980000.0 0.9833540993575259 -0.17327996746522364 -0.0048419951262902595 -0.004678600436987686 0.0009856854099955456 0.001799972699521277 -0.00578485828599489 0.2564402358280123
21979000.0 0.9797842386780695 -0.18170774866811695 -0.00283254403653661 -0.006447740540722842 0.00042761548513489504 0.0009051204676803239 0.00800102668017484 0.2471212210266515
22978000.0 0.9791460760126193 -0.19387231859935505 -0.007040765965708855 -0.007025594851584872 0.0004554231509970238 0.0012729833956261732 0.027252700803527558 0.2534485397830365
23977000.0 0.980447718350839 -0.19938250034953867 -0.007292401481305485 -0.0012694652361737104 0.004809860501723712 -0.0029076489142532526 0.047897960967355324 0.25774626060026495
24976000.0 0.9752722562230269 -0.2081444456180528 0.0007489274779578195 0.00026610074779628064 0.0019067575464651449 -8.098353535886615e-05 0.07967463621689291 0.2557089287046226
25975000.0 0.9668097869668245 -0.2142128032615308 -0.006374529243942018 -0.0009545117842106506 -0.019264691682822008 -0.016644101296729975 0.08374686067928801 0.2572319933585321
26974000.0 0.9728172971053054 -0.22425832877449164 -0.006058714558708749 0.0013538120284923773 0.0012007495105976753 0.0005496600499621955 0.08910961216130389 0.2654394583972436
27973000.0 0.9706614358931305 -0.2320351939854944 -0.0006193011703132493 -0.0004952976499779095 0.00011794616833025529 -0.0009340395376148544 0.1129829551978224 0.25138344084837183
28972000.0 0.9682330487417526 -0.24113636462021035 -0.001964737043148772 -0.004119430729758545 0.0012436547392082062 -0.0010938120037945133 0.12331266641166337 0.2497906276233074
29971000.0 0.966506990229346 -0.2500812522897525 0.002502430336377886 -0.0012533272643550286 -0.0014679672950926386 0.0033331164092240163 0.15156922610001425 0.268527465540199
30970000.0 0.9637580748629276 -0.2567398711585397 0.003185022405455308 -0.0011143600036108996 0.0011805878480276423 -0.002800509296108381 0.16645863121117968 0.2536045969226514
31969000.0 0.9628183374128522 -0.26389756207011655 0.004416804996682953 -0.0025898838509239167 -0.00048790109716503405 -0.0007079855708940374 0.15102371239806245 0.24602588008887868
32968000.0 0.9612275239450006 -0.2738077775129175 0.009699781837667744 -0.004962440863743462 0.0015952023602366883 -0.0030243551092415215 0.16821495311411527 0.23947121571874977
33967000.0 0.9594495886340291 -0.2819380650142728 0.011268667679520655 -0.008874704881348259 0.001040551764800094 -0.0019638647559716044 0.18417802555814083 0.2414766931848803
34966000.0 0.9544191786904037 -0.29256904691531366 0.01469374423204896 -0.014242788593991274 -0.0002566987723836098 0.0022311659364459536 0.1900912700891028 0.24833127741166994
35965000.0 0.9509103182544859 -0.29932790460822806 0.019989229319647913 -0.014215017004088606 -0.003775310542515159 0.0031329949634932223 0.21664833945454223 0.2445722799513253
36964000.0 0.9487960259142023 -0.30900283880640367 0.017670419618190786 -0.01654400332830776 0.001958113299589641 0.0006099907857756293 0.21437516985842123 0.2481244477297089
37963000.0 0.9479474924170196 -0.3168252123510451 0.024025297099658213 -0.02087428581947547 -0.001994320605970654 -0.001792912534593042 0.22705348668321687 0.2237047039693047
38962000.0 0.9452013643971878 -0.32466273513246735 0.02415159291595083 -0.027895934597395974 0.0017367846500384698 0.0012661273166197585 0.2394927744340642 0.23355886492889635
39961000.0 0.9413383620400253 -0.3343767611793654 0.025438218773656252 -0.02621605212600865 0.003482133397286149 0.00014208496283292372 0.24972684628749478 0.22587481500446643
40960000.0 0.9375682149359884 -0.3397312932697607 0.021573996980325697 -0.025647813806110212 0.001072294455158458 0.003104698532536843 0.28106700881171176 0.22933651717647827
41959000.0 0.9344973729071647 -0.35043524522314745 0.02934006837575982 -0.034500111595554855 0.00036575299642974146 -0.0020661286272910663 0.2712186175497058 0.2128785194857068
42958000.0 0.9297563969477478 -0.3598086079900564 0.03172958762765679 -0.039202032149607366 -8.284019274339739e-05 -0.002286204621227557 0.28157581970842244 0.19779892557981701
43957000.0 0.9292600584884778 -0.3636119861266823 0.03433934445306576 -0.045192209653696976 -0.0018593466220699034 -0.0031028558349200245 0.28956616405590563 0.20792531260033822
44956000.0 0.9256539314409495 -0.3726717461693518 0.03328672889924731 -0.05192456075103586 0.001316086340892532 -0.0019064494855400985 0.3041698538066547 0.19655857697958212
45955000.0 0.9213564249466394 -0.3822500057966615 0.03266637621103114 -0.06033401284498967 0.0015669670578718194 -0.001999087838101301 0.30397028715269026 0.18254507210360688
46954000.0 0.9190666536931076 -0.3913898302707335 0.0384748152697218 -0.06669650389188914 0.0010889138092229507 -0.0010954305446643174 0.32860113783634937 0.1772038522765702
47953000.0 0.9158750552099527 -0.3974677811208928 0.033950146971540106 -0.0747381392132613 -0.002275904380944353 0.00019450578157808655 0.33328060607032206 0.17411591583597055
48952000.0 0.909844435312574 -0.40866779585715274 0.03888194436651963 -0.08159176343436188 -0.0010576267233690308 0.0011662346222847647 0.3429531793570016 0.15942917093469527
49951000.0 0.9062896853977698 -0.41602331526924236 0.03962755629231455 -0.0904187161206099 -0.001528433633995989 0.0022897257112741284 0.35299743431907293 0.14265407764642335
50950000.0 0.9028962186812328 -0.4249041820730074 0.036414949041614825 -0.09826899861088743 -0.005059676121297501 0.0021052008827121185 0.34919096202447014 0.14226267328580966
51949000.0 0.9015465378147853 -0.43191650713323504 0.03907761461300575 -0.10531513329601497 -0.0017193140832745637 -0.0009152581901025235 0.3575272392694628 0.13786780941668836
52948000.0 0.8979158818796956 -0.43841639536427984 0.04051732184534223 -0.11638022121271706 0.0026307109708814296 0.002184930218241326 0.3740052674795237 0.13091738658623603
53947000.0 0.8923837383050247 -0.44748543670799956 0.04268110366329287 -0.126251791936484 -0.002799184388362845 0.002613205969445525 0.3783478902108401 0.11576540594238886
54946000.0 0.8886535978564621 -0.45513202179012313 0.04229569731774497 -0.13465958891002047 0.001147426484573976 0.002543426590762589 0.3848768539977976 0.11372457785456067
55945000.0 0.8847037448050105 -0.46248906770754156 0.045762912581219166 -0.14468765209475787 0.0010069245380912224 0.0028373137801606958 0.3788126373656906 0.09766777146049647
56944000.0 0.8805357807020718 -0.47230527637259456 0.05026868992778818 -0.15420457424662826 0.00032456759906969066 0.0019888562669492073 0.4001501492637036 0.0989880491093531
57943000.0 0.8762027882332479 -0.4814570975925913 0.04702815387820977 -0.1688416148489685 -0.0011343887822616613 0.0007125909777024299 0.3944844406973975 0.09293781189861026
58942000.0 0.8710958209104207 -0.48629186329343427 0.05014094263446646 -0.17665573263193907 0.0006129108622799376 0.00280322458336168 0.4167051807246045 0.08927827510270736
59941000.0 0.8671618212401109 -0.49727522989138906 0.051394406351273625 -0.18940820529174593 -0.0024218722526387847 -0.0004767380623553543 0.4241064626446813 0.07533268924428162
60940000.0 0.8600948925301447 -0.5029691773543967 0.052993167445364635 -0.19438795407585716 0.0010741975907077044 0.003414391884570042 0.41368455230968615 0.07265314892621356
61939000.0 0.8575498308828304 -0.510082380031725 0.05171067100116746 -0.20009535739566528 8.190533522693193e-05 0.00013539195822265037 0.41664960988578 0.06695431824637883
62938000.0 0.85097810778467 -0.5212917795709257 0.055170244368073405 -0.21951019580959577 -0.002050230793316005 0.002464230703939634 0.44368748781605916 0.05377217824976363
63937000.0 0.8455705865320197 -0.5280297294403944 0.05625304949427717 -0.24016043434053497 -0.002172879887954847 -0.0021278241992752434 0.44230915630394313 0.036216556715182646
64936000.0 0.8416290536276603 -0.5323130491119008 0.053868896902670584 -0.2533237058016866 -0.0012628850050807633 0.0007243913199660528 0.43694085064279176 0.03484061320805844
65935000.0 0.836402805943195 -0.5438024450104559 0.05171712847620387 -0.26835135215000466 -0.0016829060054169584 -0.00024346830970690427 0.43718239751472415 0.010739340216126846
66934000.0 0.8350995811718249 -0.5475589533855167 0.05450379049045964 -0.28204266953518237 -0.0011652497445307696 -0.0026590848211689258 0.44524360838820826 0.010903930673744322
67933000.0 0.8307087236346656 -0.5577549712044391 0.058948277032986746 -0.29532362807153145 0.0026416719174164136 0.001907256462915643 0.4408021605820398 0.0065036635341592045
68932000.0 0.8233095201431808 -0.5635810282502467 0.051669214346982975 -0.30896040770429717 -0.0005864549021228337 0.0005310738290267159 0.46108513936658163 -0.0053062417538222665
69931000.0 0.8151319568549454 -0.5741955700454572 0.04968306147845243 -0.32535305205356274 -8.732271682848611e-05 -0.0019293698838550094 0.4522160484695243 -0.02121610343698644
70930000.0 0.8108934213746708 -0.5791181163288546 0.04799211746634006 -0.3395063249548482 -0.0010922973467004167 -0.0017362856753976948 0.44977289744262616 -0.037470354742180495
71929000.0 0.8063810715572585 -0.5890540297240716 0.041703453000311384 -0.3593389601964986 0.0016095151595199517 0.0006270576419632122 0.4529690750871083 -0.04411012887783985
72928000.0 0.8005850746327801 -0.5985530188748746 0.03935157271067933 -0.37664072250546154 -0.002656529611452044 -0.0014124614264391273 0.46905451071980775 -0.05798847633143804
73927000.0 0.7946323808108842 -0.6044400335383371 0.03202894488439402 -0.39649674626921383 0.0006205246147173309 0.0005095747813735567 0.4512426817560039 -0.0671567209715439
74926000.0 0.7909343760921477 -0.6128835742730628 0.02760455541908953 -0.41669383353747785 0.0022208436675966977 -0.00032033013356792963 0.4603914732594992 -0.07101570977915957
75925000.0 0.7831168098735999 -0.6182127188649519 0.01719930527697673 -0.4325519760027451 -0.0018598988571708328 -0.00020843914963576332 0.4790373900937247 -0.07654509829631564
76924000.0 0.7778165665005687 -0.6244602432094988 0.001425679554310222 -0.45938293124801494 -0.0011417089507240363 -0.0030948471351484584 0.46426421492238973 -0.08715769625510472
77923000.0 0.7706094507837031 -0.6326478117095161 -0.010909132868789155 -0.4826680929949805 0.0030156957148231448 0.0018291612903452016 0.45928632611087533 -0.10171029757391675
78922000.0 0.7668032536795987 -0.6408294042343727 -0.026846833098605048 -0.5119154697114219 0.000608710368667262 -0.0013086733158225415 0.459218489868151 -0.10594056048659992
79921000.0 0.7561226912212111 -0.645685165781585 -0.04097188433856554 -0.5358766829292325 -0.00019626535701507066 -0.0016122901982074276 0.4601411095106584 -0.11846918971319192
80920000.0 0.7525882208260646 -0.657542246250276 -0.05944956999097097 -0.5648035887493444 0.0031957454830281963 0.0015587205875989712 0.47070013091294904 -0.13735065847506028
81919000.0 0.7484326494229888 -0.6620065569098884 -0.07728663396947962 -0.5944457718872831 0.0053275986177863995 0.0005444391946254848 0.4588653631656872 -0.14662868387468386
82918000.0 0.7378426312606686 -0.6702658814734141 -0.09259966386387888 -0.6276376481683493 0.0008244554769713585 -7.431234188855913e-06 0.4819365576689702 -0.1520047303151562
83917000.0 0.7302330916051801 -0.6784916013973501 -0.11423502564035089 -0.6530984019509987 6.492977767453511e-05 -0.0026181155119037692 0.4795270744876251 -0.14985009097874993
84916000.0 0.7257677436797023 -0.6859764399446049 -0.1292798808096969 -0.68769451555384 0.0006262228630718362 -0.0010774243990378685 0.4619893960204968 -0.17737884548507074
85915000.0 0.719059394381558 -0.6913888911702495 -0.14883988624714053 -0.7167775220917145 -0.001083841776810717 0.000846058936977672 0.4642680028230107 -0.18447565344709574
86914000.0 0.7125884991246989 -0.701677751215762 -0.16314630630578614 -0.7598554575685948 0.0015180910423415314 0.0019207244996517336 0.4708980127126934 -0.18395355174944591
87913000.0 0.7056478218722172 -0.7061352508457538 -0.18671354043907437 -0.7888758423615887 -6.8881569510888535e-06 -0.0003299706443578083 0.46112904411961275 -0.19005519786191655
88912000.0 0.7009779741675668 -0.7125493250133172 -0.20109385126509727 -0.8234851242028425 -0.002404477029007709 0.0031252799990199695 0.4601061695768193 -0.2156961589814412
89911000.0 0.6897901597413624 -0.7220117378311696 -0.22168659997484838 -0.8604456313931703 0.0005125381991326092 0.0009092610840016755 0.4637831245866118 -0.20862862549918523
90910000.0 0.6856905497575053 -0.7264089830076786 -0.23345686335079158 -0.898268555697799 -0.000241215311259738 0.0028344388740369686 0.4717766122837967 -0.22676933962073492
91909000.0 0.6745273901898415 -0.7325405004698928 -0.25867645548817286 -0.9286353431590224 -0.0021498779017369 -0.0006052216586700649 0.46646369645781366 -0.22521778881987256
92908000.0 0.6679045410565883 -0.7412341755032537 -0.2772286285517335 -0.9637476962713452 0.00023163852345749894 0.0019004325802865066 0.4612331213621672 -0.23177055892307008
93907000.0 0.6620528138576149 -0.7470309006187189 -0.29275305950342806 -0.9912210998543071 0.0013878622464139464 -0.0031108238837129357 0.45782526770170734 -0.2586237354591802
94906000.0 0.6474678660337853 -0.7567114007226641 -0.3127653031467596 -1.0282012060504089 0.004740271858595807 0.0010243152913950132 0.4572498745097256 -0.2595152006450493
95905000.0 0.6426491357770332 -0.7615518726587392 -0.33682842484013936 -1.0635821022637184 -0.002844387388677639 0.0020501545375974962 0.45971199239768024 -0.2747874918891963
96904000.0 0.6348924515810459 -0.7730107703463187 -0.36027768702739915 -1.1043667246613271 -0.00033420783240234046 0.0007603246648017734 0.44494646485842154 -0.2727303221040767
97903000.0 0.6267665549753642 -0.7753922244576057 -0.381209231364661 -1.137363831928185 -0.0006296664649353381 0.0035173536741607086 0.4392644104212447 -0.2985180378658488
98902000.0 0.6220953726635726 -0.7824661556032763 -0.4053406496599189 -1.1785248251701257 -0.0019420623372500827 0.0004898018696531753 0.4451120241197586 -0.3006086985251948
99901000.0 0.609094221426348 -0.7890754760484139 -0.4305826036257904 -1.2044120357165295 0.0016681199037380328 0.0026426180445257345 0.46000713804160814 -0.31936451687025114
100900000.0 0.6032326919031773 -0.79258261987016 -0.46411745466588017 -1.240243336083474 -0.002703899656648845 -0.001963653743324993 0.4548600909430945 -0.30949431096102537
101899000.0 0.5933426180988737 -0.8008061098765257 -0.4914554711620635 -1.2749328774825262 0.0010887045271770468 -8.485776806046004e-05 0.4399155500327922 -0.332120322179095
102898000.0 0.5842663610140043 -0.8055344823391815 -0.5267139731801685 -1.316754045631059 0.0016336117978642463 -0.006188132733278977 0.4438190112926149 -0.33089926878016185
103897000.0 0.5757115831828393 -0.812392801392349 -0.5657922955747995 -1.3493287461242345 0.0007182631250150671 0.0019801826067915025 0.444700739715616 -0.3374116803496641
104896000.0 0.5704852594875535 -0.8234106799819995 -0.613933618195362 -1.3849032881319012 0.0007285772606303517 -0.000769679194094119 0.4318269567235277 -0.34289761121200096
105895000.0 0.5595825512553707 -0.8264579912950993 -0.6605274583724898 -1.4320828947306015 -8.899339176435242e-05 -0.0013968711422129374 0.4322658776729913 -0.35971795652927663
106894000.0 0.5513178326795506 -0.8313977032410681 -0.711034099634653 -1.4713371791692542 -0.0010677566329517208 0.00046865485783421066 0.4340607823831006 -0.3808052365619079
107893000.0 0.539956572490029 -0.837808450801745 -0.7700575990073757 -1.5028615801420289 0.00016610273322656904 -0.001977682827179817 0.4229311252366291 -0.38402041270104215
108892000.0 0.5330227988723525 -0.8417701764141349 -0.8274895789888144 -1.543462986180399 0.0008753843800295319 0.0008704618502027024 0.42390894575977806 -0.3777886608063211
109891000.0 0.5212095642927641 -0.8491633975635945 -0.8826656764415272 -1.5809163354308227 -0.0005665939950392692 -0.0014161719052835503 0.4396974481459267 -0.37882364374991184
110890000.0 0.505302386099548 -0.8664028516828088 -0.9776710873511032 -1.587307376111417 0.004234862342545865 -0.003517168442381876 0.4259065310688757 -0.3910907928318907
111889000.0 0.5004985444097967 -0.8564768091978175 -1.0201352677304638 -1.6486424337716457 0.0006576477644364685 0.0023067287390232333 0.4141955164157903 -0.41966536553074857
