! Created with skrf 1.9.0 (http://scikit-rf.org).
# Hz S RI R 50.0 
!freq ReS11 ImS11 ReS21 ImS21 ReS12 ImS12 ReS22 ImS22
1000000.0 0.9780940032797384 0.003540612406808943 0.013636384382812313 -0.05160552355576089 0.0035898991711738317 -0.002827532313874668 0.35483300971509035 0.260750989770951
1999000.0 0.9944815013166322 -0.01559137659148055 0.013800781065338177 -0.02318037961049394 0.006448440217296866 -0.004624865790663374 0.2804161843552244 -0.03750323396051061
2998000.0 1.0011439284771244 -0.02267462676717098 0.010590899664045524 -0.015599644367937383 -0.005057589698798565 -0.003592728583292458 0.18776190461723585 -0.13759636557521432
3997000.0 0.9985317486737488 -0.030240865142143115 0.013018024807262824 -0.0023360097944978165 -0.0013556308021635869 -0.0045072999421300235 0.09896560317830327 -0.21698022619345894
4996000.0 0.9932409445266197 -0.039434759752131565 0.013727234580767399 -0.0023797408952832854 0.002634627357777163 0.0005342985500037631 -0.042574636768422866 -0.20424037604694342
5995000.0 0.9950851362032218 -0.04817624828331452 0.0035371288458052653 0.0002862490895990955 0.00245595391351792 -0.00029522941165306113 -0.12422878663605276 -0.11260760810857352
6994000.0 0.9932765290698338 -0.06140885896956248 0.004728961320336628 0.0063188040117066495 -0.0017589056305899603 -0.003075170890158616 -0.14412625000411064 -0.012293611176241025
7993000.0 0.994580783540235 -0.07059855949842103 0.0007877995958071664 0.005064160250135758 -0.0001844695712057824 -0.0016529370650739108 -0.16088009954276505 0.04188339754031431
8992000.0 0.9937270434084575 -0.07132394246762935 0.0027320727767259512 0.0064363433523603256 -0.0010458664171589895 0.002131557388028532 -0.15704306754362354 0.06084182727769521
9991000.0 0.9935222279765269 -0.08406140349410154 -0.0021633894444407324 0.00371497038617839 -0.0005185025255651296 0.0011624259372788367 -0.15017821376931614 0.0933492669641684
10990000.0 0.9930170015370505 -0.09413823118884972 0.004579201512105056 0.0006510780714774312 -0.0019708096755861847 0.003559777982348882 -0.12734448353328845 0.11073541490706588
11989000.0 0.9913260956427307 -0.1031660602850558 0.005329873045855637 -0.0005436530991014052 -0.0036616230685697637 0.004458487830444055 -0.12981866841537276 0.1352281627134655
12988000.0 0.9894474811926871 -0.11220668673232953 0.0002912951004962011 -0.002106201969666705 0.003045816035718193 -0.0016868628510231386 -0.1171376936171479 0.16941995792720285
13987000.0 0.9885849072778375 -0.11908798038202356 -0.0026995733583624337 -0.0025546701849984022 -0.00575906974097251 0.00015561380214756747 -0.09732921273226691 0.18281928150500734
14986000.0 0.9870795005373697 -0.12788623227265972 -0.0009427353633307982 -0.00561391812650715 0.0004775874218219458 0.0034575314891781483 -0.08588146414913228 0.20612962163602616
15985000.0 0.9875675875054306 -0.13326705800648447 -0.002726522721827486 -0.002489026130408927 -0.0016016935374663004 -0.0009724993137682353 -0.08348231168057377 0.2087461822813235
16984000.0 0.9838863585044988 -0.1475217399495978 -0.005660676962016134 -0.01161104494381534 0.00037925486870224874 0.0006962427666917912 -0.07202190391465318 0.21162227123891866
17983000.0 0.9855752457800993 -0.15207480675804577 -0.0025756580894219913 -0.0038935738784431784 -0.002305961499206832 -0.001674412074692421 -0.054317248663275294 0.22491728420853277
18982000.0 0.9822510401688995 -0.16434367669951538 -0.004755352160108408 -0.002629814892183913 -0.0028302272966141554 -0.002570461866513512 -0.023180221098353725 0.23741720458475926
19981000.0 0.9816630499305213 -0.16803427640248442 -0.0036314740640661413 -0.005661507370216428 0.0010898292756238383 -0.0011474743787959797 -0.010034787081908974 0.2375820973371023
20980000.0 0.9806851557953333 -0.17912082086871658 -0.0022490948035286057 -0.0017628394128622782 0.0003557690935261103 0.002860868688047847 -0.003418904771592808 0.251979096824913
21979000.0 0.9792799658391317 -0.18988540084511257 -0.007908287935798591 -0.0033168651128742733 0.005862610254068842 -0.0014840192003093722 0.01133627412210515 0.23586594731168484
22978000.0 0.9758363893468719 -0.19548011799530973 -0.0045875581232437904 -0.004672393923874561 0.003324568467601668 -0.001174036498891197 0.018089287457090854 0.25986437501147547
23977000.0 0.9772768348354556 -0.20426637072213769 -0.007315929510598772 -0.001768536284092019 0.0009711231450735991 0.0036168840891577327 0.03642456055202567 0.2461685110848904
24976000.0 0.9725053402106176 -0.2144627970763947 -0.005476405573248893 -0.008935498158104474 0.0020806405593640294 -1.0151146917935762e-05 0.06559531583544664 0.2545112773419048
25975000.0 0.9710741837065828 -0.2297840403261154 -0.0034400082024253226 -0.003684511965002489 0.021067910685938593 -0.010938175303921324 0.07075069292035079 0.26462863957920396
26974000.0 0.9694856552598213 -0.2301376345047348 -0.0025996912030081575 0.0007693279162561304 -0.002700034406220205 -0.0018890803112962418 0.08697245523069067 0.2626510214435792
27973000.0 0.9678965646607984 -0.240348796996833 -0.004692697127467912 0.0010304438778771046 0.00101731781828658 -0.0026651852464420994 0.10963126283286546 0.2533213737600346
28972000.0 0.963821020558587 -0.24701591907892048 0.0024942853576816943 -0.00409153046330523 0.0009584372579072452 -4.11700078902233e-05 0.11043995798063985 0.25858816017218283
29971000.0 0.9644146802989008 -0.2571910680485793 0.0014878396060373834 0.0014910242355195048 -0.0011116568102580299 0.0018704880839521387 0.14688595833107426 0.26483491675034454
30970000.0 0.9618625674782972 -0.26299951278292916 0.0038293042416485705 0.0002466335997005802 0.0026965489784263534 -0.00021566898720908124 0.16217448015121524 0.2530958907779482
31969000.0 0.9587447487323026 -0.27234321794976607 0.006895593876481364 -0.004176648069772303 6.682965546706382e-05 -0.0024888212731892087 0.16225635749877507 0.24786658142684284
32968000.0 0.9565353211013963 -0.2813371524087227 0.006322381280386638 -0.005687318865855564 -0.0019102047872809461 -0.0006447033646949227 0.1674862869533769 0.24303258622573864
33967000.0 0.9536010291572703 -0.2925469933945572 0.01313166923095735 -0.010280490934713575 -0.002885224738334795 0.00037953079534724644 0.1859943369230004 0.24434909010997646
34966000.0 0.9528129402569939 -0.29948109596237005 0.014239009295752468 -0.010510721273322528 0.0021640064046172603 -0.0008392268880800215 0.19723802714614574 0.25163055900167663
35965000.0 0.9475619624502175 -0.3060310340839514 0.018553912824521852 -0.01467687062421835 -0.0030225765309692676 -0.0024214391624060648 0.2096035170036223 0.24253113010232774
36964000.0 0.9476880531757035 -0.31750383837056995 0.014425681496161491 -0.014972568052652293 0.00045310857048638087 0.0008716626207156004 0.208941480959835 0.24736828055211704
37963000.0 0.9425063894610659 -0.3254144557791886 0.022608930793083307 -0.020144886392421516 0.0014550919154196751 -0.0022179583705922664 0.22372048094107308 0.2437506479016927
38962000.0 0.9397570555441214 -0.33621720305636227 0.024335043607139242 -0.023747790660999007 -0.0018008294597413696 0.0009771582104386206 0.23242230601018068 0.2270996698410412
39961000.0 0.9375961646356779 -0.3432442398838864 0.027666286752606458 -0.028523075515844223 -0.0011314590043748326 0.00019517720593120616 0.24093813630327082 0.23294692617784526
40960000.0 0.9334398152215229 -0.3515936544424673 0.021987878428166005 -0.026378580696432324 0.0009001708630170905 -0.0008336886586880419 0.26188360850863784 0.22014060422487824
41959000.0 0.9291941403483065 -0.36131339997621414 0.03171622531566363 -0.02908822179123464 0.0039484727366473306 -0.002007092389515924 0.2657000191235748 0.21468329274243017
42958000.0 0.925485003302617 -0.36809285878424086 0.032458712803388676 -0.04271618689966524 0.0024453086458080943 -0.0012141352447467223 0.279795601751394 0.2102333104091151
43957000.0 0.9241537090097461 -0.3768942947147507 0.03259984114042601 -0.04662909636588498 0.005436449644831412 0.0013054380596996616 0.2745138848563895 0.20487745884565467
44956000.0 0.9206682595421746 -0.3851551531481604 0.03631781713193053 -0.05567059109423622 -0.00031768181908905916 0.0004053448808363889 0.30249672895793134 0.18828594992126158
45955000.0 0.9163997009581248 -0.39437034668425475 0.037119956320882795 -0.058431766581079445 -0.0025493870254420688 0.0005971563225518433 0.30844253051037285 0.1927784690709979
46954000.0 0.9135544673499798 -0.40269562231900996 0.0370652205950071 -0.06959158574435174 -0.0016998711302944728 0.003899807020916726 0.3264342318151446 0.17095541340728718
47953000.0 0.9083454331625871 -0.41120116057067757 0.037370447328321545 -0.07569542891562966 -0.0005342377095477096 0.0020305768360446784 0.3340206811526755 0.1710917784328127
48952000.0 0.9038865120394934 -0.41986577708724787 0.03773098772379235 -0.08117446372823803 8.674867551155222e-05 -0.0003435746477686493 0.331164151348025 0.15756283462143725
49951000.0 0.8999335010387236 -0.4280529302798726 0.03971705062335247 -0.08817517381327955 -0.003242746298851815 -2.928574873302374e-05 0.3536124290543877 0.1517564063499648
50950000.0 0.896876136453515 -0.4371050622736091 0.03926183955291901 -0.09669386990130681 -0.0003540322687408704 0.00021269242285091436 0.3455735548873115 0.14412328336374483
51949000.0 0.8925776584320055 -0.44447519519545514 0.04250158435825101 -0.10771939724361845 -0.002631988414252998 -0.0016915387724016227 0.35525348122000383 0.139525758432156
52948000.0 0.890514776318635 -0.4518332904813141 0.042394009308023534 -0.11839439113045523 -0.001620585424889899 -0.002745689289765764 0.3707129458806776 0.13945150189750488
53947000.0 0.8841886136187305 -0.4592192608460443 0.0432580913593958 -0.12352473042817039 0.00150404133098186 -2.8747451840377435e-05 0.3660612081582892 0.12137456059114562
54946000.0 0.8784517424452692 -0.47027201906542404 0.04479693725774517 -0.1344800908661414 -0.00557157615962014 0.004572023095572955 0.38210462431455966 0.11985560054677982
55945000.0 0.8764573071817515 -0.4787386049627843 0.048614442817841885 -0.14502000853148084 0.0004324260586442575 0.0005975289377154827 0.3836131334029538 0.09843631035861496
56944000.0 0.871413573668191 -0.4858430552707656 0.05026015276710903 -0.1548499127471077 -0.0015442770964169104 0.0026539116151036678 0.40275683436899884 0.11101905928475887
57943000.0 0.8675578414579228 -0.49576024972749644 0.04933804411463302 -0.16836703946423875 0.0007591277204377167 0.0018265328802512797 0.3930933073929953 0.09514205702572388
58942000.0 0.862397716147997 -0.4998832996887562 0.05251784553463202 -0.17949354202689446 -0.0025258320329324714 -0.0010630764732102852 0.41878307458695224 0.08689151414412796
59941000.0 0.8574323581005092 -0.5108244397620382 0.053228436388463744 -0.1886724578894579 -0.0010293647331119085 -0.0015780606067972958 0.4132901208364568 0.08527284551946757
60940000.0 0.8503457666913055 -0.5173457119172593 0.049245545990942066 -0.19121946872288922 0.00017496438057103646 0.00189554638614316 0.40815081034856904 0.07497842893457059
61939000.0 0.8470867345160733 -0.5238109001575812 0.05271138891236605 -0.20139568906987382 -0.0001370673008574619 -0.00028164325775109546 0.4137784932925033 0.07227727130008277
62938000.0 0.8405960871951559 -0.5348709298309208 0.05465474929298398 -0.22020190550258883 -0.004318341725041855 -0.00045816681469365605 0.44026808357971314 0.056478207988008504
63937000.0 0.8345224851058883 -0.5433413226450683 0.05479874745046332 -0.23998427208194364 -0.0024501162032902527 0.0008532658193520687 0.4307936374753474 0.0365630318534857
64936000.0 0.8294134617369231 -0.5483732389035534 0.05676791465524105 -0.2543945515408993 0.0005696650752106007 -0.0011469801475031294 0.4306859886539799 0.040681852837646366
65935000.0 0.826572232666497 -0.5593632792825447 0.05668620484147801 -0.2685861535050346 0.00082708193187947 -0.0003028089837381379 0.43387296855104324 0.008629800757574534
66934000.0 0.8214870409881863 -0.5647877630565964 0.05412774728524563 -0.27842255638599867 -0.0010800078846092255 -0.0027099534565157954 0.44669884294486056 0.010292803214516463
67933000.0 0.8182013410753145 -0.5725417899538486 0.055296140527924115 -0.29833079281731223 0.003293642556000936 0.00038502412593968515 0.44343857223300204 0.009449115683840513
68932000.0 0.8026647887304226 -0.5658198099053673 0.05375557754054637 -0.3055814513469237 0.000658304505088669 0.0007289532257751266 0.4425559601158848 -0.013418704944866848
69931000.0 0.80342830505613 -0.5895447068811949 0.05044639114922762 -0.32957438555412516 0.005584316634517203 -0.0004624649668412286 0.44586497568794864 -0.02502972919200247
70930000.0 0.7967121360563683 -0.5938568630979177 0.05003856248276662 -0.3408283937243174 -0.003962580229484475 0.00196780642587089 0.43960655569623813 -0.02861103432681628
71929000.0 0.793153216599794 -0.6057995898656586 0.04121862268240304 -0.36216390325432174 0.0008746683312620315 5.357131675050575e-05 0.4466677175243446 -0.04454238260176829
72928000.0 0.7868639078899247 -0.614141311711072 0.03912546644152422 -0.37652278012473306 -0.0018583345799289318 -0.0002591232352016316 0.45649482532290514 -0.05277750518639851
73927000.0 0.7807284537154663 -0.6204223491856634 0.028615364006860038 -0.39962641650354874 -0.000807862637855771 0.0002138541325453295 0.45748791286940643 -0.05833637843579582
74926000.0 0.7744658726327209 -0.6294600646659309 0.022518070545281866 -0.4189701446175822 0.0023040921872402014 0.003415198140137504 0.457445148813554 -0.05891587853020083
75925000.0 0.7684753702886836 -0.6335172869312017 0.009195204580362559 -0.4409542944822459 -0.0002784073625334028 -0.002489263721908186 0.46423711136294804 -0.07348321665105434
76924000.0 0.7606230717315255 -0.6420436304798129 0.0021239339676399995 -0.4621659519250105 0.0009750630422394029 -0.0006286879986923882 0.4632006656772162 -0.08952526770797031
77923000.0 0.7556890440633657 -0.6470251545246108 -0.01602967862420072 -0.4850374497131277 0.0001364682867042976 0.0017548944433797133 0.45524734333895955 -0.09117001868936682
78922000.0 0.7505894793945993 -0.6597265930392259 -0.029947849215444064 -0.5194374769857957 0.0005728181216057027 -0.0025713455816613047 0.4626626255565235 -0.1025352616719933
79921000.0 0.7393011855047974 -0.6630003141147078 -0.05018052766710699 -0.5399226910436907 -0.0015103590897079533 0.0038359735352236934 0.4580899669531145 -0.12263518111004872
80920000.0 0.7348070148101769 -0.6748038434876885 -0.06437221624093542 -0.5705114874025152 0.003503313968030042 -0.0019724573279555637 0.4611105877871229 -0.1337480350308522
81919000.0 0.7298039923768616 -0.6789469873854614 -0.0792850742382213 -0.5993124854064361 -0.0017441617056348161 -0.00012752998468728403 0.4643947329668721 -0.13624698736349214
82918000.0 0.7215498821127759 -0.6844342275361739 -0.09750487518145654 -0.630125865652132 0.0004343355862488023 0.0038196598864974757 0.4693343236323853 -0.15224725009185355
83917000.0 0.7112562347746832 -0.6950660180293242 -0.11745090683045144 -0.6615827595469101 -6.565993123211177e-05 0.003586126343961071 0.4646110492468868 -0.1549791940800665
84916000.0 0.706856147249006 -0.7034760931753767 -0.13031666227418287 -0.6958509096255581 -0.0009596629659810202 0.0010065923285861617 0.46324844533556403 -0.15912124549280934
85915000.0 0.7009176817593802 -0.7078389834263554 -0.15067431522904526 -0.7254589736540986 -0.006055278161712461 0.0015597430134442504 0.4571796239918871 -0.1810229484254323
86914000.0 0.6920421204382415 -0.7186089959723176 -0.1695444344113674 -0.7640536349734419 0.00196987605314026 0.0010684102066685578 0.46155897980009825 -0.17566037546894991
87913000.0 0.682752833020791 -0.7260323255441755 -0.18980276999847231 -0.7948107996982093 0.00014152596659674761 0.0020758422280770417 0.46317348117677754 -0.18332049543786785
88912000.0 0.6776112781699946 -0.730619935795504 -0.20749899958414153 -0.8283813760150457 -0.0021594674854153637 -0.0005838061713401517 0.45286855145261706 -0.218281944363725
89911000.0 0.6705631580881564 -0.7391080402402874 -0.2164018552911605 -0.8684530075833371 0.004600865041814189 -0.0016801601826945296 0.4617745307674442 -0.2084132058735884
90910000.0 0.664802661277663 -0.7449636449506357 -0.23857104316924144 -0.89979128828031 0.002752787660745911 -0.0019288720033338285 0.4568269987095001 -0.21953212824338572
91909000.0 0.6527230483713462 -0.7496244731129162 -0.25832505020967356 -0.9309318512668743 -0.0018268190279121263 -0.0022580972690427205 0.4690494256590386 -0.21550565741512684
92908000.0 0.6452304416056662 -0.7604766822528861 -0.2806515602191457 -0.9634327749057322 -0.0011991806099971778 0.0014263392237146102 0.4533188899509107 -0.234435978916791
93907000.0 0.6424395890063446 -0.7643056508742814 -0.2973413462123996 -0.9981163984188407 0.0013497017502667194 -0.002075346302506393 0.4666715680005894 -0.25831293820649254
94906000.0 0.6253308699928252 -0.7727458076004141 -0.3190779557890187 -1.0318564063451372 -0.0016347942298842587 -0.004279110233440725 0.46167311542622913 -0.25467047336045795
95905000.0 0.6196411409449258 -0.7789381579936051 -0.34099525173369655 -1.0675188728280514 -0.0011790731442736784 -0.002303757340205904 0.4606940286368921 -0.26874232673754705
96904000.0 0.6103438455958023 -0.7866508810446522 -0.36057463406036583 -1.1075041982047895 0.0004877872291122952 -0.00026268381479822693 0.4494889180419729 -0.2751177541625705
97903000.0 0.6004014246018871 -0.7934929006840734 -0.3889803531873877 -1.1393415617058016 -0.002579476314776093 6.950327362897855e-05 0.4406749588594093 -0.28622809296827917
98902000.0 0.5961156779826853 -0.8003384690143562 -0.40771390166161803 -1.1769573234301491 -0.00017010775248513048 -0.0012851561575020593 0.44300731915284774 -0.29387548475673647
99901000.0 0.5838049951080996 -0.8052828463290597 -0.446564799688361 -1.207677447524915 -0.003294101151295294 0.0015059989314521504 0.46363026750003483 -0.3083576694065613
100900000.0 0.5793289865155015 -0.8092032888761156 -0.47248177145763776 -1.2368343374798634 0.0021168249215421076 0.00046985508681640344 0.4522934158539167 -0.32005057172921286
101899000.0 0.5677581907321415 -0.8171857829872993 -0.5029862166389553 -1.2787600164171657 0.0006696669916674368 0.0009787714349796305 0.4332581192932341 -0.32517510359264856
102898000.0 0.556926111344691 -0.8250338216142904 -0.5428543876631909 -1.31523036175258 -0.0011898041712593659 -0.0027909259994048237 0.44731176687683233 -0.34494704042581154
103897000.0 0.5498133753792596 -0.8315902934300433 -0.5861118280177097 -1.3566095255963442 -0.0016816833068758622 -0.001432098907853457 0.451787751482474 -0.33878435628347764
104896000.0 0.5418008578689357 -0.8415369052759869 -0.6347987679287355 -1.3893681617484113 0.0027109800063647434 0.0006339481140058825 0.43253729009227526 -0.3456492113973803
105895000.0 0.5322451746866782 -0.842384644200467 -0.681104690940305 -1.4329394541808498 0.005357644213970694 -0.0004892783737366041 0.4302756596861778 -0.3601322287752437
106894000.0 0.5210241471091444 -0.848238998776989 -0.7371364403902974 -1.4693331663801514 -0.0004410821106126949 -0.00033501939891810795 0.4191364562816349 -0.37817261354264303
107893000.0 0.514348395236655 -0.8538360782770179 -0.7874498703802603 -1.509379371841987 0.0015746159546489436 -0.0018339025377224919 0.4260729794138397 -0.3844724674491188
108892000.0 0.5005058656895894 -0.8601700706559805 -0.8537526692443015 -1.5405721825212313 -0.0007372633862221486 0.0004341112386949353 0.4230765171276279 -0.3807608421413053
109891000.0 0.4908005635565589 -0.8656035247996419 -0.9160150429609113 -1.5782202690275269 0.0014477836852736532 -0.003190523863545835 0.42886077349298335 -0.3786823812748621
110890000.0 0.4677917065988595 -0.8755906047910328 -0.9976955535038149 -1.5757579512789126 -0.003344704435301049 -0.00013868702757824315 0.4213772166633781 -0.3977502620854254
111889000.0 0.46662633514666124 -0.8733924441742072 -1.0486596171735354 -1.6508437987312594 -0.0009929921191163637 -0.0024057772776948398 0.4182461632637015 -0.4073171555915527
