! Created with skrf 1.9.0 (http://scikit-rf.org).
# Hz S RI R 50.0 
!freq ReS11 ImS11 ReS21 ImS21 ReS12 ImS12 ReS22 ImS22
1000000.0 0.9909819002820577 -0.00352339097502126 -0.008281101394981914 -0.0630216210882712 -0.006639660991398006 -0.0038727732926557477 0.2886560494536614 0.33818410709524094
1999000.0 0.9923594717287696 -0.01737131912657431 0.010844541698231187 -0.03155686646682977 -0.007529922320171811 -0.0066499285446520685 0.261713784837779 -0.042352724215151724
2998000.0 1.001606060090872 -0.02318179259959168 0.009893608755244386 -0.016713644000165 -0.0019282179552151041 0.0010363185439748164 0.19647739132786135 -0.11903303838430078
3997000.0 0.9975507172486018 -0.03345640216461288 0.01089738279229454 -0.00593780060697586 -0.0012951469123853388 -0.002503882223336139 0.10158197827895343 -0.21733391863428547
4996000.0 0.9979694753338391 -0.03834977771763603 0.00941926553960321 -0.0048488891698247145 0.00020817945040251703 -0.006461465065464187 -0.032208183388404935 -0.21533637971132252
5995000.0 0.9933534010770915 -0.051433789512973296 0.013331999266774967 0.005626726370698304 -0.0012158533948812258 0.00014203727517732022 -0.12280338917967402 -0.11811207920862929
6994000.0 0.9952490786879046 -0.058594220263751606 0.005346230424599493 0.002638038081981897 -0.0038189765382495734 4.298320170243027e-05 -0.13909896207689737 -0.03127607773506566
7993000.0 0.9931759485628072 -0.06820702168851807 0.006827855058238923 0.011354349254593199 -0.0027538155998173205 0.0017224650631878632 -0.16982315897328792 0.025838855874310375
8992000.0 0.9915495229478862 -0.07320378845435095 0.004920190798316878 0.006050456119364714 0.002041655850616325 0.0028952790024873477 -0.17056519115990823 0.06505051818413103
9991000.0 0.9941795090493759 -0.08600830523822589 0.0040691761633371605 0.0028399147275805065 -0.0014369873633866066 0.0013459332694703732 -0.16005648702665867 0.08985066855719576
10990000.0 0.990757137171887 -0.09292883875830292 0.0057548606056308915 0.0028134715517057663 0.0003533984950772368 -0.0010691586881642708 -0.14195182519904526 0.11100551573980325
11989000.0 0.9876806852735608 -0.10090689401398381 0.004371023140763313 -0.0014581394662416948 0.00421815173924002 0.00039023060523541716 -0.13395489252487622 0.13494600120658953
12988000.0 0.9878150351350835 -0.11329753267425464 0.006065048951743959 -0.006750884193137185 -0.0016937758636172847 -0.0026885093227153817 -0.12032280103570235 0.15764834428538343
13987000.0 0.9866503969964152 -0.12081817053662243 -0.0009104039062056631 -0.00435925521033748 -0.0009491270435985754 0.00213031665095094 -0.09107386237018351 0.19099780378825532
14986000.0 0.9861104046693215 -0.12598413390545268 0.0021498737187440565 -0.003377407198126042 0.0014540897096599872 0.0026024969770512578 -0.09620281445810853 0.20314866191818434
15985000.0 0.9884477984317561 -0.13465271839964624 0.001374641458796419 0.0003354871078626608 0.004793829584682077 -0.001836120774575262 -0.07551596528877508 0.22537022663207873
16984000.0 0.9848018259370266 -0.14601556055125872 -0.000488374951153166 -0.0045108971579926474 0.0019816212440865962 -0.005932586111737838 -0.07231886157640857 0.22688252574489348
17983000.0 0.983728820259748 -0.15176316465916428 -0.0022640505841748423 -0.007840285813304102 0.0017140556551965215 -0.005645603072957647 -0.04948198546353543 0.22092917846404186
18982000.0 0.9815382319378709 -0.1601431256135532 -0.002756854448405573 -0.008073766843847202 -0.0026149837599815646 0.0074980118965718295 -0.026944692783684072 0.2411771303939138
19981000.0 0.9795788023025129 -0.1668740881310642 -0.0002529509760646387 -0.007381496174407255 0.003076109338163892 0.0005275315195150915 -0.01253392399947251 0.23689853718812418
20980000.0 0.9801023756784953 -0.17603659789762346 -0.0018842038793072207 6.123332915676295e-05 0.0012432354569248843 0.0006043450421487497 -0.012179438619807822 0.26014490804880736
21979000.0 0.9775746531382441 -0.18625912360913197 -0.004316991158021756 -0.0061728398477817305 0.0048858822915676 -0.004181835428940998 0.010751605795550095 0.24425611412217935
22978000.0 0.9739516415364867 -0.1960159833620281 -0.007206723484942416 -0.000739117072572696 0.001749359415518641 0.0007922020362005381 0.0169259107482681 0.2554806615772545
23977000.0 0.9761900342478813 -0.20017652457798404 -0.008242132514612668 0.004315586447432685 0.0017607784140604515 0.0004567372654412615 0.03066747153962731 0.2605839175902
24976000.0 0.9704153589374451 -0.21435675803741158 -0.004784243231677616 -0.0016375083251840038 -0.001420604481114587 -0.0025142589728659923 0.057606756791599385 0.2640640305598503
25975000.0 0.9627251685134544 -0.22308299971253095 -0.006628128322594836 -0.0003014289393209838 -0.018860044380782138 -0.019010522494790304 0.0690596620329879 0.260350395922283
26974000.0 0.9675264196947079 -0.2298503611150959 -0.006991449734735101 -0.0011884947777342132 0.0013453689615674118 -0.0011151151965833055 0.09753708398225695 0.27854026994536735
27973000.0 0.9683858550840169 -0.2360023211966304 -0.0049873701148849744 -0.003063929599003907 -0.0008552353357485433 -0.0014373186232398425 0.096108565595858 0.2669158722221417
28972000.0 0.9652423603861696 -0.2460825477195318 -0.0035567242890045484 0.0005907281693419508 -0.001160862529631257 0.005834084568295365 0.11706041399902942 0.2558639901869269
29971000.0 0.9613543178710596 -0.2574135693075825 0.0012293315435082399 -0.0025271579903392762 -0.0016017020346450282 0.0009421859494229241 0.14914953446018459 0.27335233649506313
30970000.0 0.9611499195436551 -0.2612687609459374 -0.0007933141966313762 0.000772359921396828 0.0008371639338779903 0.0015396912228375298 0.1643881539477901 0.2578177101648327
31969000.0 0.9586818662381905 -0.2716092957522994 0.007100183122376374 -0.0054946149655113845 0.0024678651314252553 -0.00045103684782443987 0.14633087405636522 0.24776235990541456
32968000.0 0.9580881968128951 -0.2803444862893066 0.009037827304517392 -0.008850284140377635 0.0029591605652463525 -0.0001585802900454118 0.1532097035102215 0.25190745891162103
33967000.0 0.9537090216541918 -0.2921864554345466 0.01218801982717173 -0.007184944460367723 0.00480213173989039 -0.0005497747311456728 0.1747361519164612 0.2555628346834246
34966000.0 0.9512416296304118 -0.29877710170473 0.011684002375862987 -0.013670394992129088 0.0012736271988912598 0.0008464713276735386 0.18492847952270589 0.25643677604902954
35965000.0 0.9491555465291692 -0.3069169933286751 0.01115930807164328 -0.016184705346164233 -0.00045711148513214394 0.0030028702426419104 0.20286000359775025 0.2463752268681264
36964000.0 0.9436599497615733 -0.31621336253388316 0.014755459460190933 -0.014274793207562132 -0.0004324001321797704 0.00037476009385594555 0.20875418801163884 0.2542128239519032
37963000.0 0.9436356099685419 -0.32452224109342315 0.020834748035724604 -0.019820158270000516 0.002639659595480763 0.002223588093372137 0.21932484446289693 0.24384317331294325
38962000.0 0.9396053877625979 -0.3340802926969771 0.02679968190805929 -0.021237803685806116 0.00280762668976613 0.0005289766919268577 0.22565986270223853 0.2387891890145089
39961000.0 0.9362191101227237 -0.3412240416588717 0.02547347388287845 -0.026607047170971634 -0.0003974648935893792 0.0009862158741695366 0.24847678644943683 0.22943583461342948
40960000.0 0.9321378750827966 -0.35046237513337813 0.021072355441161383 -0.021558695441546462 -0.0017396832801908403 -0.004928949450412779 0.25490780466826074 0.2350672157218182
41959000.0 0.9300152288199423 -0.3604727718052926 0.031162237817928398 -0.030588851759732232 0.004548588672602038 -0.0020921464424070377 0.26476439082128234 0.2191544707393287
42958000.0 0.9237879248766744 -0.37133866990262104 0.03139210576469728 -0.03940801818041679 0.00278588654142379 -0.00028254045668327243 0.2720527271466149 0.20396168678722362
43957000.0 0.9236513957488136 -0.37420408405610495 0.033062962412659165 -0.04589617431190847 -5.249448077679097e-05 0.0004040320158138648 0.2714921454334262 0.20606414998479314
44956000.0 0.9182466811223979 -0.3831223619742146 0.03484581891944395 -0.0503547738407524 -0.002983777586299634 0.004267772706189487 0.29065286906525845 0.19599323763113294
45955000.0 0.9148852929932723 -0.39573548203138725 0.03366996806987109 -0.05623113205488452 0.002575939004349095 -0.0007657523871474346 0.29409363765230007 0.19072188482824315
46954000.0 0.9108889209175112 -0.40169346304207165 0.036203841219278936 -0.06520933421105632 0.0015345841323777378 0.0016406245630413026 0.31628947433552546 0.18136257347522658
47953000.0 0.9077628115515782 -0.4101077640010901 0.03402018504760844 -0.0713719341150741 0.0024638784133958883 -0.002826252417319047 0.32441625734902546 0.17980082777242956
48952000.0 0.9019668068369978 -0.42174758046048083 0.03692153332523287 -0.08139614804579955 -0.0022170391425152046 0.0021532268720586426 0.3179438207175098 0.16667053488110004
49951000.0 0.9001099043420095 -0.42629130947090443 0.036144288559776666 -0.08713716165194732 -0.002058535049354035 -0.0014194057659038099 0.34980238534906677 0.15644166738469323
50950000.0 0.8965544222399002 -0.4346216702456042 0.04054919540721459 -0.09493834223008914 0.001025025786345229 0.0006111850631783673 0.3399800042586414 0.15300679620296015
51949000.0 0.8906832681583231 -0.4451445452466072 0.041841911813167675 -0.10124315565661267 -0.0005921625740946382 -0.001841840253070448 0.34762677764995975 0.14738957949158227
52948000.0 0.8906410040263485 -0.4512102378625045 0.041956523376223465 -0.1120141755306908 -0.001471935696814212 0.002376431252055077 0.36414529053938227 0.14264258514899714
53947000.0 0.8819295845674997 -0.46196945570199466 0.04428298099350925 -0.1221107823110576 0.002427714486078335 -0.0023518229156519006 0.36111583098773575 0.13067887435632836
54946000.0 0.8759632563745409 -0.470348380546495 0.04482699279266869 -0.1291887378799175 -6.224087883274517e-05 0.002872327747378966 0.3788474429956577 0.12354274888333967
55945000.0 0.8746379109758317 -0.47843395197021 0.04856737884619628 -0.14250486440388638 0.0004547704162275612 -0.00231447982330657 0.3791182503733416 0.10808420088660628
56944000.0 0.8690210872835524 -0.4880304258153507 0.04930391054784939 -0.15012917650070443 -0.0018655972347006746 -0.0007869924840188732 0.3934252683276025 0.10651121813238246
57943000.0 0.8662625730036163 -0.49588355678844026 0.04889480382576265 -0.16063842257333763 0.0033629846600933674 0.0028869327186439066 0.3938978270444116 0.09139014781966825
58942000.0 0.8594137467646309 -0.5029686119450982 0.05160535606243399 -0.17161914635401088 0.0005284090525095415 -0.0020612736572871563 0.4149357794446736 0.09407952284600075
59941000.0 0.8570785669939291 -0.5093258104373202 0.05373936470851152 -0.18141534892363875 -0.0030951117735204914 0.0025533665055989985 0.4208044299091258 0.08514885632476568
60940000.0 0.8480701426097382 -0.5186683271445234 0.05220489763927596 -0.18720041284973898 0.002707195965858847 -0.0019148135892659594 0.410302304143221 0.08491250822213287
61939000.0 0.8457703881605165 -0.5245686879063687 0.053804643857295276 -0.1946091847181926 -8.636571187604226e-05 0.0007605654560940724 0.415128228942362 0.07012378579154072
62938000.0 0.8392041021178505 -0.5351825667102512 0.05777562836413641 -0.21037475073311243 0.001235406131564185 -0.0005070575375335778 0.4328954932857328 0.05879998195571226
63937000.0 0.8336706416915332 -0.5429558893857099 0.05849870681904051 -0.2302265820565904 -0.0030286799099161574 0.0001384055053610806 0.4285711357479429 0.04584262495187553
64936000.0 0.829072725362406 -0.5458899123597656 0.057664037075387885 -0.2451434511686133 -0.002430770710399956 0.004458877424830346 0.42366235688370074 0.049126458834703055
65935000.0 0.8235818516721447 -0.5597142743090276 0.05728490538381074 -0.25825158242779045 0.0005628724641795253 -0.00272363994219821 0.43150245945962806 0.01848974769294989
66934000.0 0.8195754611649386 -0.5660259631936312 0.05621576364915818 -0.2741531966735788 0.001905318326293363 -0.001202620683337293 0.4273671704628893 0.023111212423922868
67933000.0 0.8154801489985937 -0.5736279698107749 0.059923269276645895 -0.2858867109888785 -0.000799148853052314 0.002632010400592895 0.44511921203368493 0.01145826626813245
68932000.0 0.7993020090022884 -0.5741875543147079 0.05360032466922158 -0.2948864090638869 -0.002385550002821582 -0.0005513680848162592 0.4444788833591775 -0.007749205142379452
69931000.0 0.7994879213131835 -0.5901636260668095 0.05373093862477424 -0.31798761908366924 -0.00040407871100673823 -0.0003956876205912094 0.4427679973717162 -0.01058021601858427
70930000.0 0.7967933009976368 -0.5951160172792272 0.050950808157745005 -0.3322391043684694 0.00023561330451768366 0.0007962344557096593 0.4436214526974071 -0.021493999247515033
71929000.0 0.7923739957576778 -0.6074190798715592 0.04979262929004693 -0.3515527589247935 0.003370342399064757 0.0008176102529539485 0.44530181227827736 -0.04502517678023981
72928000.0 0.7848993373765026 -0.6136961233264612 0.04381462355136436 -0.3689443692522522 0.003795589067776745 0.0002482412258399115 0.45514894808344614 -0.03787191990079814
73927000.0 0.7798320843684325 -0.6196226323647208 0.03712367647230849 -0.3881431378249485 0.0028029251227799415 0.0031720751309653825 0.45265507213884915 -0.047549859976484386
74926000.0 0.7720660644537327 -0.6298553730317178 0.02841788299272067 -0.40552630726654487 0.00034915415867021977 0.00021452241448457324 0.4584331781807896 -0.04637072632189821
75925000.0 0.7670931951454432 -0.6336174162146707 0.019352160565022303 -0.4252884771599456 0.0002821770101705648 0.0006541398175712903 0.46054259072870807 -0.07882694664827307
76924000.0 0.7607199516351308 -0.6423258560709229 0.006508084360467435 -0.4493166006116923 -0.004463724414850835 -0.0023745630873625084 0.4689555288074696 -0.07712340932496779
77923000.0 0.755408406911618 -0.6492217372772199 -0.006002206583296971 -0.47045016323212324 -0.0006402901086972909 -0.000310522311368139 0.46138822226511483 -0.08597787866676518
78922000.0 0.7474596665583649 -0.6585765184285405 -0.025343772957785816 -0.49887622512766056 -0.004389595027917306 0.0031010040791626943 0.4531131128340272 -0.10061291108927368
79921000.0 0.7405602127044562 -0.6629032032990417 -0.03921868787528351 -0.5250871489120935 0.001352134398287108 0.0010344621479168583 0.45235375834757047 -0.11208928030292548
80920000.0 0.7323533347295681 -0.6742907907983626 -0.051081617777333485 -0.5526264160445558 -0.002382381269883431 0.0015589817752009202 0.4628282109335506 -0.11317404621665149
81919000.0 0.7293483243345036 -0.679553081961558 -0.06813238779024537 -0.5864405971613831 0.004509194895822668 0.004175886642329602 0.4695950338764245 -0.13359101852894067
82918000.0 0.7178021720464524 -0.6876345936494143 -0.08083633346410708 -0.6160667672095936 0.0016603187131606384 -0.0006222404207616232 0.4774749794653158 -0.1374606101892329
83917000.0 0.7105023816313912 -0.6952737641203794 -0.104357438907763 -0.6420146609740408 -0.002365503960571007 0.0012047741971933494 0.4753906469621805 -0.14850157205524628
84916000.0 0.7062596859502801 -0.7018795409779457 -0.11484947193552972 -0.6768530593253826 0.0016178581267392211 9.63343176291232e-05 0.47153637525633985 -0.16014423260333854
85915000.0 0.6976779042449291 -0.7085194352298344 -0.13568762438184556 -0.704971380763511 -0.003105268542634091 -0.0019543997514907606 0.46437113806061875 -0.1676934725392905
86914000.0 0.6909309558669419 -0.7185846177958404 -0.15292352212477464 -0.7445301123721952 0.0005420429442647255 -0.0011599550399139734 0.4509248518122508 -0.17158115839479485
87913000.0 0.6839614296856394 -0.7251070347240993 -0.17212712919801532 -0.7765384976458346 0.00024259478425533865 -0.0007314648729126409 0.4553611521998979 -0.17904319991885032
88912000.0 0.6754106227974985 -0.7322748067667596 -0.18721437210978722 -0.8076902440685649 -0.00022874359017638487 0.002945130187284864 0.45225674611823286 -0.2072678352652632
89911000.0 0.6678815733801521 -0.7407625953024711 -0.1974737921021352 -0.8426889136168831 0.0003089710317289527 0.000352400902499336 0.4677397084899238 -0.2035115551578364
90910000.0 0.6636890446803017 -0.7428226236816892 -0.21778310811568044 -0.8815923434425199 -0.0007899297265438967 -0.0026941654197399022 0.4672004142114184 -0.2077619803758115
91909000.0 0.6530699093663278 -0.7494918931364477 -0.23472755119538824 -0.9102975652295333 0.0010559681511691304 -0.0007942846114796943 0.47322372472182317 -0.2178222429055493
92908000.0 0.6455364046303054 -0.7597236639081204 -0.2553290260533944 -0.9435794517223365 -0.00048443152189216177 -0.0012355367913636744 0.45333653193043955 -0.2355081868073413
93907000.0 0.6378272823795246 -0.7625155356321274 -0.2739032215743577 -0.9749539405731885 3.299761086916455e-05 -0.0010705091751117164 0.4608262788249726 -0.2422669946862935
94906000.0 0.6268291039724888 -0.7723156414206868 -0.2896643181875319 -1.0113290546394642 0.00025505407247451614 -0.0016678982624771135 0.4526316998376271 -0.250852848162225
95905000.0 0.6190652388184228 -0.7780956351507757 -0.30987660767347436 -1.052005902356436 -0.0013382613462195726 -0.0014773234900029774 0.4484248833355843 -0.25587269723334616
96904000.0 0.6110160407800909 -0.7874352136489848 -0.33094086556164143 -1.0825603165188125 0.00268240338698152 -0.0017772322262467751 0.4466464839223968 -0.27149820042269185
97903000.0 0.6008250381100404 -0.79114707298458 -0.354883674499393 -1.115206770916411 0.002279677091420022 0.00045033149308453815 0.45218346896716954 -0.2761510632422349
98902000.0 0.5950772279292214 -0.7990443490483325 -0.37724875068870045 -1.157370075915571 0.00221608430566136 -0.0004620982485645316 0.4553624931639974 -0.27964092100668736
99901000.0 0.5838615729956007 -0.8050103046943579 -0.404451915455712 -1.1897547616043422 0.000142957134119421 -0.000770571296869616 0.4644907367320627 -0.3103963007368251
100900000.0 0.5775689500351618 -0.8084747062878844 -0.4362493066798546 -1.217519895082354 0.002216763582683301 0.002294407480045577 0.4553087814377888 -0.30835894436619793
101899000.0 0.5695192201600453 -0.8156105543200712 -0.45993256398874854 -1.2588438889202012 0.001018054797599579 -0.0005223055779450189 0.4470320191409914 -0.3180470145791786
102898000.0 0.5572037804669887 -0.8212619514072813 -0.4981646298644418 -1.2929540413228242 0.002582609507380914 -0.001718368297596797 0.4604199463263087 -0.3366521807814098
103897000.0 0.5483614727995044 -0.8298260157027848 -0.5397095410820077 -1.3312544954023813 0.000755301719385575 0.00026178343615705364 0.4635383637346565 -0.3262183401407672
104896000.0 0.5410800492399174 -0.8385279705940218 -0.5826754309109596 -1.3659858599128056 0.0008479365475591597 0.0023314641913856305 0.44306560258598215 -0.3171382566249625
105895000.0 0.5303984297625696 -0.839902081575823 -0.6301772617670771 -1.4043410975531367 0.0015337475675458016 0.0017354970794407395 0.4402577877574148 -0.3476371051196162
106894000.0 0.5224301578947628 -0.8477176604312625 -0.682689357291134 -1.44590204942016 -0.0016099789207629715 -0.00032614371761985166 0.4385077002260557 -0.35981393937902917
107893000.0 0.5149203312477071 -0.8519506143555222 -0.7359843283843835 -1.48377392572069 0.0031149276681828385 0.0009950018097059036 0.42942580179006007 -0.3712650444183563
108892000.0 0.5026797983593004 -0.8570256825203391 -0.7963071538253592 -1.5250393650288363 -0.0012565207602344682 0.00129911493302163 0.4396146175746455 -0.3749177150158394
109891000.0 0.48885095707046733 -0.8633535820116159 -0.8531347152125784 -1.5590393388555508 -0.001332363395261799 0.00018654342004598062 0.43909323189255184 -0.37036416920127907
110890000.0 0.4844449340431901 -0.8793187670309836 -0.9307038217191814 -1.586442719526082 -0.0012023563701623174 0.0020288655251164615 0.43945468889666917 -0.381277372610455
111889000.0 0.47120048604946163 -0.8713735351821004 -0.9788775847636715 -1.6311186028450666 -0.0031560811185509484 0.0013198999215570074 0.41903008254127033 -0.39206258642142344
