! Created with skrf 1.9.0 (http://scikit-rf.org).
# Hz S RI R 50.0 
!freq ReS11 ImS11 ReS21 ImS21 ReS12 ImS12 ReS22 ImS22
1000000.0 0.970730062621557 -0.0008328024002593706 -0.026185803409066902 -0.031566598807468954 -0.02275401868569146 -0.0014164165797193678 0.37266358907698804 0.2908882586015768
1999000.0 0.9932897466137159 -0.01426281028479723 0.0017756448637368774 -0.022157850761307715 -0.006092286248630928 -0.0015682482243709044 0.2606175569427706 -0.07211219978333568
2998000.0 0.9966172563097205 -0.018391365408115097 0.012519361997262163 -0.009383784036539201 0.00013148019378106664 -0.004257552507742834 0.19932519133456186 -0.15432333249525265
3997000.0 0.9993606231804213 -0.02753620574171089 0.01487411900344021 -0.012047947446411729 -0.00621279929727544 -0.005332141381750281 0.07733435309018882 -0.24135971647845875
4996000.0 0.9961581389127265 -0.041585415931344655 0.015065978232604643 -0.005612757211280661 -1.1751517333061238e-05 -0.0001573496824706703 -0.04744982430012457 -0.22370593513549727
5995000.0 1.0008106217366386 -0.04452732851646209 0.009799944330835145 0.0022884705154823633 0.0017002220834440838 -0.0017005928711684814 -0.12174713557365377 -0.11908900088425618
6994000.0 0.9986898290318882 -0.05704123108434643 0.002087298807001819 0.0024140896768738277 0.0010804137736283536 0.0005338031343624173 -0.15130603508612014 -0.02429296582897567
7993000.0 0.9965033722269021 -0.06681380223735377 0.0011862917366199182 0.0051232871949781714 -0.0026443187536565205 -0.0022127372019199267 -0.171329200196175 0.03199330838064392
8992000.0 0.9953298505075721 -0.07235477543724667 -0.0013679028873364895 0.004229472444420994 0.004752922169845134 -0.0018418663881494281 -0.1544945324713293 0.06055562916653893
9991000.0 0.9959267893036652 -0.08215245352722585 0.0012888341278432035 0.003781225268270412 0.0023767691031119447 -0.00245620738548121 -0.14878350546522764 0.09228616530292381
10990000.0 0.995324005666249 -0.09001947741179539 0.005018816198347309 -0.00037196847025341707 0.0036691346269551004 -0.002537769475992462 -0.1401602601125424 0.10370956016773218
11989000.0 0.9917772396178989 -0.09926238434523296 0.007287441395778236 -0.0011336466121317286 0.0004424175009720936 -0.002199427741993268 -0.12764514306498392 0.1379783499753486
12988000.0 0.9916708583792606 -0.10776243666204105 -0.00030902498586860515 -0.004446674515827407 -0.0001416163271705752 0.0014322907716391657 -0.13073517492896716 0.16244731234862692
13987000.0 0.9907544279451771 -0.11591154975680779 -0.0001423067175638385 -0.00746616621559286 -0.0011568058135910783 -0.00031964095033472085 -0.09394595851989664 0.1813525762365064
14986000.0 0.9909982983548586 -0.12262254214774096 -0.0017393527224825963 -0.003474101503308788 -0.0017452789498941619 0.0007240482955302992 -0.08026994354753282 0.19071395779838948
15985000.0 0.9917430606432468 -0.13305388357716305 0.001213187607763304 -0.0014557078757668214 -0.0012495166059636224 0.0014136664855690503 -0.06471678166164024 0.20646662516680409
16984000.0 0.9860152000514445 -0.14186584263842347 -0.0026399344697264153 -0.006704048857731446 -0.0037714835099635145 -0.0009845288567118242 -0.06543528528091544 0.21617636061007045
17983000.0 0.988646062820902 -0.14879653499234902 -0.0026302213563979887 -0.0038788669170967864 -0.0001618899945061806 -7.168911163516266e-05 -0.057839963122437624 0.2257578930238211
18982000.0 0.9846562624488746 -0.1624400511641544 -0.0020510386411064364 -0.00046441369199590014 -0.002487536427936231 0.0017229421911922223 -0.02691819750573483 0.23112496984939176
19981000.0 0.9841508040177065 -0.16416479313269847 -0.003047056552126084 0.0002508042919618836 0.0015465587488212402 -0.0004888334169893457 -0.015929607942397932 0.23433580049459257
20980000.0 0.9839884175826897 -0.1748018670641542 -0.002844343493052173 -0.0013560651312277607 0.0027878393301843437 0.0007801764201084977 0.0008907352569701709 0.2605866659744784
21979000.0 0.9814464409575495 -0.1816495972958908 -0.005945678896517643 -0.00443060765824562 -0.0007566989119847418 -0.0007286634116758627 0.009236541391057469 0.2437421167652839
22978000.0 0.9784569214049439 -0.1912673168859737 -0.004193581630146209 -0.0010925699507584226 0.004812610083157811 -0.0017879232951913166 0.039825385146839226 0.25394250480552855
23977000.0 0.9798979906881885 -0.20042895412153092 -0.004420562920899999 0.00016526433414403642 0.002376038052835543 0.005947528867998665 0.04007058680595112 0.24625782085862113
24976000.0 0.9761304186952393 -0.21030366542420642 -0.007160515565682316 -0.0025044488720717107 0.0015319870503211418 -0.0007515470416496409 0.05633807540562449 0.2521442350933889
25975000.0 0.9690692492583445 -0.22211271403021676 -0.006133001594380748 -0.0009393897242184492 0.005377033654770893 -0.027166593960116923 0.06987070573552204 0.2598465736721962
26974000.0 0.9722756699733455 -0.22545509819669665 -0.004812364700068984 -0.0014200026197616542 0.0007109764058872954 -0.0005329067913627895 0.0802051162696329 0.2601075331956663
27973000.0 0.9725087998225275 -0.23160902557704216 -0.004374993104315808 -0.00010915723859032172 -0.00032943352906034 0.0008327725709861308 0.0957891328457738 0.2573163505835855
28972000.0 0.9674195463933742 -0.243677228632546 0.0029691599424841886 -0.003036054137403892 0.0026645696501907162 0.00032225446159599435 0.11741276307418494 0.2562281431074372
29971000.0 0.9678379044745204 -0.24927799064371695 0.000261466249465684 0.001064306384325185 0.0010710256096264136 -0.001943954927595897 0.14280372044049702 0.2765907256459485
30970000.0 0.9640206102083934 -0.2566809203961934 0.004685096327437015 -0.0003104483587671257 -0.002888705782556715 -0.0029925037506782506 0.16042684349459918 0.23582831446702787
31969000.0 0.9637218843486729 -0.26511639427135225 0.006691541980997501 -0.00391353566964044 -0.0029739366684752686 0.0028622892830561728 0.14882729052380883 0.24287272168018748
32968000.0 0.9626651618006461 -0.273134114098433 0.005835390224767437 -0.006081302105116028 0.0023684196980042612 -0.002116125236040014 0.16063958904038578 0.24382034105040534
33967000.0 0.958293120645447 -0.2831130385422235 0.008496748623912927 -0.00850820409723073 -0.0007469911464859228 -0.0011684975761941687 0.18267191093865318 0.2514653353725335
34966000.0 0.9548811604753605 -0.2936017374935453 0.014249788509904871 -0.012687250958067437 -0.0016973531492349117 -0.0023507406478985144 0.18804502783047847 0.24536988337861387
35965000.0 0.9528016599206726 -0.30048447181412047 0.015456090358010667 -0.0163752777764229 0.0006935751905830261 0.0028957624881942095 0.20329188362108674 0.24674307993496092
36964000.0 0.9509227842977971 -0.3077872324647744 0.017512429837420088 -0.012915158426803698 0.0014090807871973041 0.0015121962345051073 0.20084671708659102 0.2502229830761732
37963000.0 0.9457457351314149 -0.317393749821479 0.02048145830562228 -0.019727850347289643 0.0033857847679077658 -0.0002938287261735273 0.22885989015846503 0.2279895123062798
38962000.0 0.9455489027520623 -0.32437203409722476 0.02425205187269681 -0.024047089064251063 -0.00023200223072015962 -0.0008687596160054114 0.2394291005185993 0.22358263660189373
39961000.0 0.9416099002995563 -0.33503389432691677 0.02164427822917177 -0.02915198438594191 0.00011870039706736317 0.001986650456864531 0.242129686632949 0.2284782402834675
40960000.0 0.9388752058758428 -0.34136966584128975 0.022233084421003677 -0.022922838577683253 -8.637824092603209e-05 1.3510443569534603e-06 0.2684436653118055 0.22142550612330847
41959000.0 0.9354785640873332 -0.3503671139677659 0.029296518888386535 -0.031027490556318135 -0.0006035894051775815 0.0019650581589289854 0.266899957490887 0.21008402609756582
42958000.0 0.930084450188373 -0.3589300084957956 0.03063313756275097 -0.0396557687198417 -0.003834525720260619 -5.430992605352493e-05 0.2800109046998568 0.2057653734090547
43957000.0 0.92921144755299 -0.36538505182680475 0.03648626853851876 -0.04536190070031343 0.00217140171236647 0.0015979661442383445 0.2833510171517909 0.20814659739483013
44956000.0 0.9260766443897769 -0.3753445130433784 0.0342385272250279 -0.053716316637601125 0.002096179133623448 0.002767490647637613 0.30545744864970065 0.19562478657474738
45955000.0 0.9217816912490813 -0.3829378782935731 0.033411339653557914 -0.05602866880771475 0.0027982655151358436 0.006166161309502171 0.3047659429557822 0.19796743423925284
46954000.0 0.9183013460541622 -0.3913974603278792 0.03502513022366332 -0.06490778697102087 -0.00015500418816098214 0.001899686617335292 0.3285653771993378 0.17214765348925573
47953000.0 0.9163208589009689 -0.39857949154590305 0.03618197935561402 -0.07471387876398818 -0.0026537974351966633 -0.0010747568052934641 0.3339636370786984 0.16668715331172762
48952000.0 0.9111791763792768 -0.40846593876697074 0.03825518391713711 -0.07837630259661406 0.0021872648636433066 0.0013772032536889488 0.3293279056015115 0.16200189305104423
49951000.0 0.9066088920610175 -0.41573947005413675 0.037466645904681926 -0.0853791921275505 -0.001421680682390263 -0.003297111544931162 0.3444867923557846 0.15540151842379965
50950000.0 0.9031763892466682 -0.4248789936974419 0.03590251711290373 -0.09796823942409937 0.0012675722974612258 -0.0003881928764272603 0.34433092134392806 0.14619746687423024
51949000.0 0.8985120331241018 -0.4304814359565264 0.04059666995138637 -0.10123801408768449 -0.0026606867605537448 0.002668074225338197 0.3516204594075501 0.14444221407892988
52948000.0 0.8975183216021763 -0.4402081581347767 0.04295889193089209 -0.1106530470223027 0.0017923342716436306 0.004138779518129916 0.37219227480492284 0.13329931596424952
53947000.0 0.8912369684095441 -0.44684247496199947 0.0427853087234673 -0.1210687565569565 0.001937039325162382 0.0023942403510454967 0.36550023027055467 0.12690755537859655
54946000.0 0.8853405446687634 -0.4568530315447379 0.045044585341723585 -0.13169265118373988 -0.0005996980928364747 0.0012907650606478682 0.3750216086007225 0.1120969753068142
55945000.0 0.8840426147273025 -0.46627789298991473 0.04642705387419397 -0.14262218640805044 -0.002401032756382482 -0.0013413088034000002 0.38360665094779983 0.10041651127804056
56944000.0 0.8800424119273517 -0.4734225320515379 0.04971300984154359 -0.15342324081476247 0.003212176890876241 2.8753647084249126e-05 0.3956891794321561 0.10385366368533658
57943000.0 0.8755994428019249 -0.4837536877368053 0.05098695536729124 -0.16333556550483377 0.0026112946437640313 0.0007830973101302793 0.39990795126415757 0.09476917433740882
58942000.0 0.8683788418542393 -0.4900440559601656 0.0523733355381578 -0.17583829031987755 0.00020483212144141227 0.0023317687394222458 0.42283588355061386 0.08809966589301967
59941000.0 0.8662095108253485 -0.4965298958227091 0.05165911997399852 -0.18296372659615354 0.0009715063149808813 0.00019415533208559692 0.41276525267275654 0.08143377616570086
60940000.0 0.8596547266326455 -0.5022841087573361 0.050984949862338036 -0.18744358036045108 0.002224896057289814 0.0027890990635608915 0.4085306740966896 0.07498260220447422
61939000.0 0.8559301935535565 -0.510397295769062 0.053097790709589636 -0.19539489155976064 0.0008885629078386457 0.00094017762405746 0.41942024942282685 0.060195799932003066
62938000.0 0.8498665561419622 -0.5208637714569916 0.057163789836632194 -0.2133322653410012 -0.000921533261718489 0.0008253519974117 0.44401853073668607 0.05081960154039555
63937000.0 0.8463634421189529 -0.5278402564389701 0.05545892659990569 -0.23520190346550401 -0.00048596167463641545 0.0014784630453144815 0.43666373620070853 0.044590622713728094
64936000.0 0.840144831736752 -0.5346998214886785 0.0538538330526807 -0.24784939114408577 7.545470845596396e-05 0.0006937161231381504 0.43194253874148575 0.02886167430714445
65935000.0 0.8373222974595252 -0.544693197698578 0.05480425755063017 -0.263305791959319 0.0003497406831462314 -0.0007500870445737665 0.4478295431066677 0.015100740430961204
66934000.0 0.832101556428793 -0.5488540289200582 0.05496926605839094 -0.27334178361789446 0.004009360856332666 -0.0022462568711319264 0.429374367020982 0.00605832198971792
67933000.0 0.8301224454954909 -0.5572660837495726 0.056880770169051326 -0.28892409020871823 0.0009097100718169237 0.003036071517691052 0.43739531472772103 0.009824925284595408
68932000.0 0.8268981659880703 -0.5572202988895556 0.054481263029381874 -0.3018908962008184 -0.000629471869994197 -0.0027885137014594364 0.4513311309527164 -0.006163416690603279
69931000.0 0.8156578699767653 -0.5742623561839713 0.05448919966399722 -0.3185653008662071 0.004824775406104807 -0.0008201272639939502 0.4393998164447581 -0.026289089453856527
70930000.0 0.8104386125607895 -0.5810050474200225 0.05433418791411233 -0.33239020678582565 0.005554917951824464 0.0016385420985126679 0.4484150772020476 -0.03749619336201616
71929000.0 0.8058904107388476 -0.5896131468506884 0.049220605854513676 -0.3496595713595648 0.0017513120998770468 -0.0004572324650604415 0.4501089929366463 -0.05184812626622196
72928000.0 0.8006455138426377 -0.5985743050655102 0.043056670603650475 -0.3646575176814798 0.0035650062299930865 0.00038458567491064983 0.4631813666027175 -0.05462903419473017
73927000.0 0.7934063189722472 -0.6034773366141504 0.03834463681036799 -0.38812983657081945 -0.005755102869034187 -0.0018436594878215602 0.45163957070869165 -0.06730645356396935
74926000.0 0.7901868525506882 -0.6147009923743714 0.0331121814831032 -0.404111663415476 -0.0019828038471538176 0.0015297830598199277 0.4622884192083471 -0.05682432644429226
75925000.0 0.7841718185611978 -0.6181323156990127 0.024832651314002124 -0.42109338115614064 7.061603919885158e-05 0.002801520236201028 0.46746849480757835 -0.07902984815458716
76924000.0 0.7761097308945156 -0.6257548691067794 0.00921105024717942 -0.4459033028846433 0.0016927879896269096 0.0005494013802666369 0.46414944571690164 -0.08511987044570107
77923000.0 0.7723613534530981 -0.6322416306698716 -0.004856978393909771 -0.4720997668147286 -0.0041043598160771565 0.0021047656796354046 0.45674175829956654 -0.10324332551027382
78922000.0 0.7643416950224591 -0.6429566980498719 -0.017568621910680704 -0.4972107833933708 -0.0024120812140646453 0.003361739331619337 0.4535079632646325 -0.10812762859493759
79921000.0 0.7567594056750917 -0.6480683495143719 -0.03794017847637691 -0.5239896272565618 -0.0011603667501816934 0.0037956120524064063 0.4622576957555952 -0.11981635253473369
80920000.0 0.7533450004037372 -0.6591378795636716 -0.052453153218104 -0.5502379596870504 -0.0028811605399132814 -0.0004148745459179302 0.461168799033761 -0.11802771548987363
81919000.0 0.7482659702177098 -0.6614007103595744 -0.0693325594225293 -0.5793473718693488 -0.001308398844778569 -0.0013528774702766346 0.46141715861370436 -0.13884210022127855
82918000.0 0.7368161777373589 -0.6728869190855985 -0.08812753690370052 -0.6091707881902142 0.0002783661277401096 -0.004889841695414553 0.48077000170606554 -0.14567277515222182
83917000.0 0.7304335176169928 -0.6788401676231794 -0.10768036359072361 -0.6374801634646914 0.0024299868776552942 0.00016281744452998912 0.4775624327568018 -0.1574375719750693
84916000.0 0.72491867839431 -0.6868220616928716 -0.1223887117927362 -0.6718422967949506 -0.00109624742597981 -0.0008270150480236986 0.4645912687815522 -0.17698633034488148
85915000.0 0.7195826345349694 -0.6922749796206075 -0.14651165617585898 -0.703807972456697 0.0029438388162220234 0.002498917278943926 0.47096094753072326 -0.17908095158883688
86914000.0 0.7123256803740967 -0.7030138710847603 -0.15877279818353698 -0.7413252379340459 -0.002012317226123765 0.002046910184069041 0.46111123222204153 -0.17369684459618295
87913000.0 0.7042530670262104 -0.7077000699789254 -0.17842584690768593 -0.7705186172736354 -0.00022374875627194097 0.00023682711173292546 0.4557122405512581 -0.19342152287621026
88912000.0 0.6996498668801806 -0.7144603763033648 -0.1948079522666417 -0.8059674731393803 -0.0029391379998241988 -0.004410872003367294 0.459657595620143 -0.2081356844986199
89911000.0 0.6886857244093303 -0.7238637409622034 -0.20801485418817128 -0.8444137769731578 0.0004322569766907637 0.0011765943942591943 0.46334802900495203 -0.21397471321216002
90910000.0 0.6843638715186449 -0.7287637600354532 -0.22311461532529972 -0.8762406961835564 -0.0018301083473677203 0.0005488882655249523 0.45606203725240535 -0.22325162564959222
91909000.0 0.6752838000806125 -0.7362085502347059 -0.24696438906064228 -0.9085465788367175 -0.00010878717698292571 -0.001467124032810139 0.45765768735701806 -0.22385346711415022
92908000.0 0.6660487576405086 -0.7419171395671722 -0.26633842006437697 -0.9442707420663903 0.0018280738920796729 0.0018732061009661153 0.44683167418473285 -0.2417382860559509
93907000.0 0.6605364693099455 -0.746899735788246 -0.28413959438961084 -0.9719206461877983 0.0036851579554462474 -0.00035873341092270084 0.4625545348900999 -0.25061874177643484
94906000.0 0.6480406373549981 -0.7552252516676914 -0.3007315176612653 -1.0039392427149922 -0.0006885403145283966 0.0018487751578897139 0.4632982143695919 -0.24902673970268258
95905000.0 0.6439185447399756 -0.762288669703251 -0.3218838629349428 -1.043494827349939 -0.0010985396507855823 -0.0017661127423106067 0.45240965639859215 -0.2739242822064298
96904000.0 0.6343381481206651 -0.7703273567230007 -0.34546241470220224 -1.0788280643611028 -0.0005669576845822744 0.00042110576504496603 0.4487415560365628 -0.27795129633783755
97903000.0 0.6256910212014279 -0.7745670092728675 -0.3677062635574569 -1.110052809237747 -0.007026302054305173 0.0016159554163611416 0.4391105073912287 -0.2954093019720566
98902000.0 0.6179349599695767 -0.7813304662902871 -0.3876825886849898 -1.1495702921294135 -0.000704278053700556 0.0011153134883972117 0.4462299817344891 -0.2991424697668948
99901000.0 0.609304990594838 -0.7883348645729329 -0.41426008953097637 -1.1799584443724225 0.0019531544256889237 0.001455525947763134 0.4572174706428483 -0.3176538731889731
100900000.0 0.6048350031521929 -0.7923310415299195 -0.4419329489917809 -1.212034850268105 0.0005946666055856997 0.003007449507267276 0.4557823605394504 -0.31644262153206615
101899000.0 0.5938021446453361 -0.801149538694618 -0.47208742109761137 -1.2537201186638136 0.0029313679950565955 -0.0002777307542096746 0.44655184886114613 -0.330679689380361
102898000.0 0.5847505596332866 -0.8070679606393493 -0.506810642288406 -1.2937406637758642 -0.0005707872351914103 -0.0016131730224521938 0.4469664160336159 -0.333958856235412
103897000.0 0.5750799777245554 -0.814957720795579 -0.5434357889589788 -1.324727273872827 0.0012119920176148764 -0.0026918969847969337 0.4572492175866881 -0.32591150708491656
104896000.0 0.5683696056240528 -0.8255360979949689 -0.5868852790262488 -1.3573070005338814 0.000414721420094057 -0.0006687734229050737 0.44053098332628987 -0.345013529192077
105895000.0 0.5578211919658229 -0.8264226295484827 -0.6367429069998252 -1.4016505835301507 0.0018311765243061394 -0.0007686006031783264 0.43099064013748006 -0.3555746059252336
106894000.0 0.5507187134065652 -0.8336545836315047 -0.6866513981915823 -1.436089719596427 0.002454225864518415 -0.0009904092683980892 0.42710789684742545 -0.37740975799066057
107893000.0 0.5425824705651134 -0.8375993950693003 -0.7355404673278836 -1.4660277032809028 0.0028113674886368354 0.001771072200768736 0.4152013054683257 -0.3802260443281051
108892000.0 0.5306892536212758 -0.8439116960991198 -0.7945407699806599 -1.505516015801406 0.0003035908168555022 0.0021776565070012787 0.4190990501152387 -0.3841117937235261
109891000.0 0.5194283860502424 -0.848753209718373 -0.8492701060587652 -1.5372936119050042 0.0025142190957399323 0.003832731039169939 0.43687289482213654 -0.38002591806181646
110890000.0 0.4991317265228422 -0.8580319123455297 -0.9244277982313982 -1.5356029714275268 0.0006211693782355028 5.7394499543755977e-05 0.41362596171036015 -0.39264181095902123
111889000.0 0.500188985049708 -0.8565697123871139 -0.974255476896026 -1.6034188824627509 0.0014972165017664283 0.0011728303357426849 0.40897108393798753 -0.40023594980909394
