! Created with skrf 1.9.0 (http://scikit-rf.org).
# Hz S RI R 50.0 
!freq ReS11 ImS11 ReS21 ImS21 ReS12 ImS12 ReS22 ImS22
1000000.0 0.9809011587230939 0.0037511596062805874 -0.004778264620236742 -0.045835428368691984 -0.01617211074007459 0.009414353930868763 0.3401917933211695 0.33416342215288425
1999000.0 0.99359301281632 -0.013245092027931343 0.001409107283195643 -0.03353868203374344 -0.007538484809967476 -0.007426673948248276 0.290221714418978 -0.0776276718831576
2998000.0 1.0005589321345092 -0.017868190196282382 0.009386006813690385 -0.015773322053906642 -0.00038513936404691967 -0.0025804277092601404 0.19029663865492819 -0.15854872792184643
3997000.0 0.9982495771887152 -0.031340013413546274 0.014870226647356323 -0.009606986762344056 -0.0010785603605464303 -0.0021380518978635567 0.08991572493085474 -0.24390214701180646
4996000.0 0.9999951287188444 -0.03758313857492027 0.014529005280560458 0.00012456715666082796 -0.0023307621513297015 0.00033173631026757125 -0.05866091608454987 -0.1987990381868368
5995000.0 0.9984337112181606 -0.04983424480345483 0.015241693158285998 0.0004171657928855167 -0.003679064148874342 0.0022621887781013143 -0.1198033987745409 -0.10370017609950492
6994000.0 0.9979108843463274 -0.0599042260313969 0.0075783334323206554 0.007478224118804612 -0.0024467676665155197 -0.0019181221714463861 -0.15153254529769622 -0.023513762791217373
7993000.0 0.9948821735934675 -0.06649664103078856 0.0073014583493931666 0.006044259925423197 -0.0014494551420113936 -0.0032269207074387077 -0.15808101211314254 0.05046707502842304
8992000.0 0.9976097766278399 -0.0723363989272433 0.0014394779097257812 0.004499556783630084 0.0018555610855559956 -0.0037850277974633495 -0.1618464389037172 0.06293652984893064
9991000.0 0.9941445854540082 -0.08237093997593072 0.005091557255672763 0.004384468070109079 0.0022038213783643684 0.0012452019825169632 -0.15826267925259407 0.10049893279926175
10990000.0 0.9938769686981883 -0.09258414620387473 0.004082626812621444 0.0027120897384239465 -0.0009441450091334181 9.12238644966757e-05 -0.1357475023829934 0.11432009974969055
11989000.0 0.9924978378861411 -0.09882799726461673 0.002027894502353654 1.3733637365043094e-05 -0.0012856512750062871 0.002427410672810579 -0.12078990995265979 0.14363758852622227
12988000.0 0.9915005530154876 -0.11044548662114917 0.001210379715693 -0.0015824742597397698 -0.00029206924688406625 -0.0009037719178960886 -0.11431931852522924 0.1701840598908346
13987000.0 0.9906181277201608 -0.11714526254699054 0.000709660196542059 -0.0052000641513969695 -0.0033736593611389744 0.004593425436240297 -0.08691795154130905 0.18458307634003898
14986000.0 0.9898564560867769 -0.12405124513815625 0.0035956304650779564 -0.005894872504982893 -0.0022911784766689145 -0.002274710228237679 -0.0865397620771875 0.20846262650804767
15985000.0 0.9903461614691776 -0.13424502827764442 -0.003315844004407312 -0.005021257140600956 0.002092857512757687 -0.0008187376809514185 -0.061934487673861616 0.22215377129111782
16984000.0 0.9861237023951283 -0.14666577485059223 -0.005053157999432789 -0.001730347186916086 0.003717523240800054 -0.0011069083249354774 -0.05614461202228073 0.22291550133877538
17983000.0 0.9888286150923521 -0.14785262574449284 -0.004899897122364212 -0.010823719347486192 -0.00032286837170818883 0.001032132552368882 -0.04479867092980682 0.22691794231433726
18982000.0 0.9847945564047796 -0.16344594518529187 -0.0032526932056362984 -0.002550485780651886 0.003773598326448378 0.0014067527526633818 -0.02522438885562469 0.2377063661956706
19981000.0 0.9831396045747984 -0.1656882368260007 -0.005184821502233705 -0.0003593175363087984 2.422050279129843e-08 0.0011509123871675801 -0.021098232179190997 0.2459579922116843
20980000.0 0.9839912270496267 -0.17624504761657844 -0.0038228359340801016 -0.0072298132343516265 0.0018726212944701634 0.0021264872396741276 -0.005263749047208438 0.2610839746757698
21979000.0 0.9820204821509289 -0.1854895166581045 -0.0035528605018991352 0.0012151915015523364 -0.002224304354492681 0.004110462081029929 0.01356640298769088 0.2516521125278617
22978000.0 0.9791861225700733 -0.19412958358577193 -0.007179462950993281 -0.0049475739520814495 0.0016766616320455804 -0.0007385887082993147 0.031158363738055406 0.2584666515924579
23977000.0 0.9806833680563631 -0.2007329662751682 -0.0050482933958016455 -0.0042162348695139705 0.0026701106034170805 0.00031743702411765503 0.03919935735212603 0.2607774020329797
24976000.0 0.9746167331006924 -0.21235435528882782 -0.003964777622964078 0.000535794255385698 0.0005378639868621323 -0.002781682526584544 0.06228317060873914 0.2515908918130438
25975000.0 0.9753076996372936 -0.21786354965714413 -0.006320165568295719 -0.003518172919489497 -0.013780368833069552 0.019578721357498434 0.07669628127793081 0.2655734898157128
26974000.0 0.9714657150505632 -0.22703213751867338 -0.006341029490162701 -0.0008900252411201388 -0.002174416748710283 -0.0031884630792637703 0.09328101453489122 0.26314092233104186
27973000.0 0.969682642664967 -0.23616570591702316 -0.00013014261555195102 -0.003364754684362784 -0.0005657059714538589 0.001947140816356754 0.11265069783173688 0.25216896617748724
28972000.0 0.967463691299802 -0.24348007836691987 -0.00367543381711299 -0.002857319629201856 -0.004302409397944095 -0.0028421061798395795 0.11793951888447476 0.2584153891650004
29971000.0 0.9645630300121234 -0.2549224925930069 0.0011373385856097923 -0.0024427742192399027 -0.0017519267065697138 -0.0006945823310391617 0.15545903242293146 0.2705204699983459
30970000.0 0.9647799105441076 -0.2594098278699243 0.0011554677024392976 0.001762290248829531 0.0027625841168306482 0.0001853682283025527 0.1701728461628626 0.2585253188506509
31969000.0 0.9615761934330824 -0.2682030073819887 0.005452824186004729 -0.002996953243849804 -0.00296657326269121 -0.0011771583747251801 0.15248308556897588 0.2476200118111708
32968000.0 0.9608333172255591 -0.2771511748961712 0.009466191838390531 -0.007491775488172912 0.0023853625074399054 -0.001732669359427818 0.16358464812713042 0.2478571179795386
33967000.0 0.9575457447300932 -0.28480338443616027 0.009818688010560687 -0.00923834260876765 5.6427865083239927e-05 0.001794899181826976 0.19283585762123323 0.23822155540480267
34966000.0 0.9537489929761576 -0.2970019890656717 0.01401462960150967 -0.01170423062368855 -0.0019074477539859321 -0.002893932293318906 0.1951986488477394 0.25655536764803205
35965000.0 0.9509635738430467 -0.3040004679135549 0.018878847923622998 -0.015560457859482017 -0.0006973523792882974 0.0009424045019538853 0.21828547397151302 0.2501074084569106
36964000.0 0.9490374170262218 -0.31285214463096966 0.01637330938905442 -0.012071802479344265 0.0017043766059775145 0.0014331320484856128 0.21277478570539068 0.25668553706242403
37963000.0 0.9447410071481064 -0.3222397960118858 0.023566499724017802 -0.02259168078514454 -0.0009562836222328466 -0.002245658894923543 0.22796642628368433 0.23410748356352368
38962000.0 0.9432398450845978 -0.3318468334047863 0.026969962174335987 -0.024152743416947196 -0.00236797471165774 -0.0004497865598808448 0.24408586222593825 0.2355548555441392
39961000.0 0.9396231377968985 -0.33736491207846514 0.028257565813875153 -0.029824599529993934 0.001814068960864244 -0.00031232217365073926 0.2527914875141932 0.2216987852929318
40960000.0 0.9359882760518025 -0.3470939353310208 0.021190019244006375 -0.02590807136702073 -0.00030976093511252584 -0.0010767383643147548 0.2739013791103982 0.23159615807353523
41959000.0 0.9327450948625784 -0.3561075352064311 0.028691746623101557 -0.03359678802394272 0.0013265921208746873 -0.0009044433129025826 0.2780845574537745 0.21703519619116707
42958000.0 0.929124078302034 -0.3637173785295333 0.03080061130534821 -0.040966381628194305 0.0006277059258638405 0.0014190501127389476 0.2795819340673115 0.20640454177217485
43957000.0 0.9276308124000148 -0.36945512314229534 0.03369716177426797 -0.04714483701370505 -0.0004801714163471862 0.0018031390954275097 0.28622088099587534 0.21164219856149907
44956000.0 0.9239019573205675 -0.3774824022245599 0.03454720492916204 -0.054737995082597635 9.797537495418738e-05 -0.00022453239778220515 0.3116210987435335 0.1892374518003055
45955000.0 0.9187433007453512 -0.38847712446492555 0.03630787097753121 -0.058547601829698766 -0.0011829570199996234 0.0029585963991956747 0.3033035342300516 0.19755557780928357
46954000.0 0.9168908791696966 -0.3965870569565032 0.036216471963712124 -0.06765326248328053 -0.0014358132098844388 -0.0026040778240139723 0.33438107640014975 0.1785542297048076
47953000.0 0.9123546075833964 -0.40535924039714044 0.0354883236910353 -0.0731291168673621 -0.0025041224245317484 0.0013129725833608402 0.3330666868508558 0.17408441079601006
48952000.0 0.9073280868126723 -0.4159991525001652 0.03870309761120354 -0.08166487443293875 -0.002179480851043616 -0.0010612675346750207 0.3357455614062236 0.17145634639178503
49951000.0 0.9037846420425568 -0.4193879993240241 0.036589206063405585 -0.08910516053119284 -0.0023303665277386314 -0.002101641845414055 0.358723148489202 0.1578664859778475
50950000.0 0.9015831571804921 -0.42944547599602895 0.03869272636339594 -0.09610369997735449 0.0014077153786604614 0.0015502645307117217 0.3487291643007969 0.14675921316247156
51949000.0 0.8974815400341648 -0.4377441754528592 0.037985318127741356 -0.10627467745772878 0.0010604792242987838 0.0011204597834061918 0.3588686706192075 0.14121650497375565
52948000.0 0.8954058512885276 -0.4446780253782139 0.04404307932894794 -0.11547963004198619 -0.003901911826788582 -0.0012400546814424717 0.37686097248421774 0.13859473605894898
53947000.0 0.8876983626659324 -0.4536323260937459 0.04575886958764938 -0.12394205308655533 -0.0004685923448815526 -0.002750020062530164 0.3812923985746168 0.1257536514587771
54946000.0 0.8850365111695664 -0.4607465369873135 0.04497178476005446 -0.13789761164173706 7.658379908212811e-05 0.003036333130310004 0.3943551329705923 0.12031868415897193
55945000.0 0.8811754053382063 -0.46955130089591696 0.04686604870909882 -0.14448362529905032 -7.571684177237574e-05 -0.0008290641494679509 0.39435327077210364 0.11382072918741075
56944000.0 0.8779361995548993 -0.4789512437859411 0.04992376130844154 -0.15537339647757512 0.00013247360188711432 0.0021570370626496096 0.403310672861852 0.1072518751842138
57943000.0 0.8710540380816775 -0.4904402647332328 0.05095921613337137 -0.16710437440618467 0.0016658408837762083 -0.002218588269877875 0.4102470654779004 0.09935733492365478
58942000.0 0.8656403411916838 -0.4957177545000232 0.04935888323135394 -0.18048411066186287 -0.003222283625560851 -0.0021080947709584638 0.429678898421407 0.09286381812485528
59941000.0 0.8642797998082609 -0.5013817871436819 0.05322222792908733 -0.18754588928212812 -0.001413134947668071 0.0004036063148405365 0.4179149248216197 0.08643225809516934
60940000.0 0.8561279143118912 -0.5090043036841351 0.05191554480436389 -0.19255967900530496 -0.0003106241200616469 -0.0023381180898716233 0.4181625576372195 0.07933719330716908
61939000.0 0.8526074182539853 -0.5171590794323095 0.053414543586278354 -0.19756135441545639 -0.0028578643551848506 -0.0009389149660900494 0.42275837631458885 0.0674278810809183
62938000.0 0.8472240759377077 -0.5273778493940539 0.05494262739531838 -0.21885330215479776 -0.0035980132158151676 -0.000754215368800847 0.4435010066209798 0.05237328330950479
63937000.0 0.8428370287975714 -0.5340415700164941 0.05512824632617062 -0.23946378846706876 -0.0003333196859760223 0.00296912164588062 0.4416723268135206 0.04700157304155546
64936000.0 0.83637192505447 -0.5393426740780671 0.05774140430815462 -0.25359806803391116 -0.0027486041458189593 -0.0001840543959663013 0.44048428044584287 0.05138002874763688
65935000.0 0.8319698880357514 -0.5510489147596419 0.05710156655026742 -0.26854269212642035 0.0012560549672386654 0.0010647604778310825 0.4466069688144295 0.02348233771180495
66934000.0 0.8296394881203106 -0.5550254761283205 0.05303482364486185 -0.28395019852487935 -0.004456735438642454 -0.0002449846827060538 0.4379204671191178 0.007576518196616813
67933000.0 0.8253097486843846 -0.5635271237913203 0.05547375033111871 -0.2970254823567175 -0.0005286282064846818 0.001138524121399625 0.4498454833071338 0.011863755072537875
68932000.0 0.8217826030915883 -0.5583827279205662 0.05417793576236484 -0.30804975700287296 0.001965235921129718 0.003688863360156002 0.45721542095124473 -0.0035608637471995614
69931000.0 0.8101534263479594 -0.5803440992184392 0.0503761901095078 -0.32915693117766903 -0.0006399953505628125 -0.001064373144340829 0.4495209237465615 -0.013765212458876824
70930000.0 0.8049558334408131 -0.5866687072016079 0.04810035477683357 -0.34422625112954813 0.00011987010524504375 0.0015392542823749239 0.45637400268273676 -0.031393053563286616
71929000.0 0.8020591295103265 -0.5958947223017981 0.045552533480783836 -0.3619393689076142 -0.00024268431357951748 -0.000650675987348879 0.4561452655381167 -0.040435626481742766
72928000.0 0.796673878183561 -0.6043211539578642 0.039034433504151166 -0.3791368092855401 0.0012764038864555927 0.0013679973150343017 0.4722556658255828 -0.04100337272036842
73927000.0 0.7889384239521884 -0.61066999030314 0.029438121690493285 -0.40155721494667307 -0.001750341471652843 0.000768923316161735 0.461801778276471 -0.05349511646579644
74926000.0 0.7839478975141557 -0.6196011990079866 0.024900792553886022 -0.4213700769897744 7.694103989010201e-05 -0.0018355740776946677 0.4671239318949322 -0.05774869761318246
75925000.0 0.7781113467427253 -0.6241037917592093 0.020327650492550288 -0.4394837527265799 0.004375741396747225 0.000450136699913086 0.47229632692299445 -0.06381386209796379
76924000.0 0.7712659604379977 -0.6317621768036236 0.0030578263375462514 -0.46464956426332676 0.0004540068105579617 -0.0029684455212140894 0.4787615516884529 -0.08851089050995271
77923000.0 0.7651960866938753 -0.6408973252849314 -0.007625523044416118 -0.48705578733384236 0.0024640210667303828 -0.00014206224879913582 0.4681692739787806 -0.08603278367100227
78922000.0 0.7611451172256766 -0.6484850985770693 -0.024828319732025324 -0.5144944632513399 0.0021657511082765176 0.00046273623848585194 0.4671661370279993 -0.10282361893717122
79921000.0 0.7526514959941578 -0.6529984362330099 -0.04609892711045744 -0.5400238252435486 0.003905152032423037 -0.0007355151923395059 0.47057837869647307 -0.11784054677571194
80920000.0 0.7466227473730561 -0.6643135228272187 -0.056564251567860886 -0.5677855721559485 -0.0028280604092856356 0.0027163379391988702 0.46963136052683757 -0.1240343200195474
81919000.0 0.7406856045408861 -0.6706892691931952 -0.076493993852221 -0.5982542989837486 -0.00036230718186416373 0.00169400408096635 0.48624314356325926 -0.13067294755503003
82918000.0 0.7310858495089054 -0.6768795906716659 -0.08908757122743276 -0.630664651688833 0.002631833192094245 0.0021378016611208386 0.4861885921107521 -0.14208009495128007
83917000.0 0.7235675560736783 -0.6849906352546467 -0.11012128117597136 -0.6584891506449917 -0.0010226137462636883 0.001971023918801734 0.4750577060532956 -0.1603552618387702
84916000.0 0.7175166842190456 -0.6942247848559617 -0.13221044918981903 -0.694318124688551 0.0035948886840842208 -0.0008547554531813281 0.48403498136260786 -0.16421267820207994
85915000.0 0.7123840995851526 -0.6980662406729402 -0.1479102052676854 -0.7258962301842262 0.005397576606638325 0.004292995495545123 0.47956559400240145 -0.16962731016886354
86914000.0 0.7038365724402467 -0.709906160072277 -0.1653612021079171 -0.7656704356068769 -2.114086456515614e-05 0.0005224963184859083 0.4660002681658071 -0.168995635438895
87913000.0 0.6961979537978515 -0.7136769420604007 -0.18384303832076357 -0.7938206042960779 -0.002622931241861345 -0.0003648994410350656 0.4711490998423835 -0.1869792959921279
88912000.0 0.690546250992168 -0.7213214032500779 -0.20150359021265166 -0.8273785313219166 -0.0032720642106272672 0.0018368792441345065 0.4622463876449405 -0.1983992187716559
89911000.0 0.6829013138871644 -0.7301791912162278 -0.2172682269118428 -0.8663692502597169 -0.0020450374419779256 0.0021067647370098972 0.47859587399920717 -0.21160155012649373
90910000.0 0.6747430863719872 -0.7358949909363461 -0.23814601524273524 -0.8995077645318059 -0.00040380409755203975 0.004926110869684469 0.4679387015855322 -0.2042128751045004
91909000.0 0.6661555795226937 -0.7418402702602388 -0.25966495668713213 -0.9365531209646732 -0.002709345209656842 0.00036759934688533163 0.47156407001866374 -0.22116984618937724
92908000.0 0.6581626052472851 -0.7501779595283417 -0.27563103824960383 -0.9715970635214196 0.001330002955197622 0.0012345370326424365 0.4670567563443047 -0.2260306581752502
93907000.0 0.6544651615624787 -0.7556301888827621 -0.29913914893733257 -1.0026436246952595 0.0027875685035886324 0.0015484684235077682 0.4734894343083119 -0.24605471781576302
94906000.0 0.6410208773828927 -0.763419350210791 -0.31609051690353934 -1.0399130830336991 0.001370083070349613 0.0021223828761185804 0.4592050060826172 -0.23878912968278818
95905000.0 0.6310396954908322 -0.7690379389983553 -0.34074344871031337 -1.0725159888253426 -0.003304114360036436 -0.00320096456490868 0.469155109060581 -0.26536377374342995
96904000.0 0.6253728702942875 -0.7776510713198332 -0.36142453449459633 -1.112978431221991 -0.0015320596326067876 -0.002212383409320535 0.4614659362031564 -0.27607174043922783
97903000.0 0.6179614277433978 -0.7822842119379256 -0.3830451338747432 -1.1492045737112606 0.002589090789036819 0.004263711097368664 0.466826257343341 -0.275561964982123
98902000.0 0.6110232303096819 -0.7880021939607283 -0.4055710635411614 -1.1859796298921375 0.0019803070058908383 -0.0017402198135349637 0.4550931186725276 -0.2927099233335158
99901000.0 0.6033910578675535 -0.7964763942631788 -0.4341008299066461 -1.22082452622945 0.00022541847780982614 -0.0011558171438934017 0.46043432644856214 -0.31155664097056085
100900000.0 0.5931240097047116 -0.7992024894467017 -0.4725469599210839 -1.2471414032151051 -0.00033203881240770116 0.0041278181827129595 0.4657657343585101 -0.3090228115487234
101899000.0 0.5839501607368093 -0.8081596730061793 -0.5011888649786667 -1.288403955606081 0.00044656289322863755 0.002246079125502098 0.45626229317939815 -0.3251307557763136
102898000.0 0.5724974142624285 -0.8121358550266288 -0.5331328292113854 -1.3285519630850213 -0.0002572258166222619 0.004128824634728267 0.4718447824196043 -0.33215103462791784
103897000.0 0.5652707176413408 -0.8212118743450094 -0.5796853077503952 -1.3651192897718976 0.0011611783999905987 0.00023513919936767882 0.4744384440496357 -0.31871900935425984
104896000.0 0.5579649270919859 -0.829353480559547 -0.6238363571362787 -1.3958468063261589 -0.0018181121172971804 -0.0012154321179881512 0.4461972371500291 -0.33151892387717585
105895000.0 0.5471767465114515 -0.8321675913385134 -0.6723134635572964 -1.4442174392537268 -0.0019101157200755799 0.0013275750226710917 0.44032503828029806 -0.35328349957428534
106894000.0 0.5364079021740482 -0.8377598367135038 -0.7280599044055174 -1.4849782191554288 0.0013763434773048414 0.00034837359340428986 0.4411898354094038 -0.3713148572255401
107893000.0 0.5281572114108312 -0.8451090038029027 -0.7809555447815122 -1.5179795336709951 -0.0018551324378324539 0.0008899427145057241 0.4440979254771773 -0.3763168227861564
108892000.0 0.5195132490934968 -0.8486490131451979 -0.8380707918391812 -1.5545353770069201 -0.0005907368336432291 -0.00037925666050469284 0.42974815585790466 -0.3592454635784983
109891000.0 0.5086616497442431 -0.8541570179419385 -0.9017445060145587 -1.5920115038442906 -0.0002764586596009551 -0.0005461489473318091 0.44806602470254275 -0.37535291811741706
110890000.0 0.5031110417281206 -0.8675729105897931 -0.9777225271900807 -1.6217111891841411 0.0005275355387837125 0.003351255932390747 0.43358372875287093 -0.3864051252464916
111889000.0 0.48853298857047045 -0.8626072143602814 -1.035087224351365 -1.664354409879274 -0.00036920481687987715 -0.0009727721789472068 0.4247236559252019 -0.3869899121831611
