! Created with skrf 1.9.0 (http://scikit-rf.org).
# Hz S RI R 50.0 
!freq ReS11 ImS11 ReS21 ImS21 ReS12 ImS12 ReS22 ImS22
1000000.0 0.9952900629096404 0.012085982550626694 0.013924628258320752 -0.03504618273831795 -0.010191350100472906 0.0064148676502708045 0.3126645288577978 0.32305347440188803
1999000.0 0.9953621296173545 -0.013669705850701373 0.010715922834229124 -0.010223404935286819 0.0007181619016764444 -0.0027683738392250195 0.248884740219679 -0.0462725608427165
2998000.0 0.9979265706074151 -0.02307282700350895 0.01519824320926881 -0.01475942721964218 -0.0012518005138138872 -0.006016061553883512 0.1826588548864553 -0.13121496255979676
3997000.0 0.9963846129549644 -0.032725812549055336 0.01386826568051203 -0.003129787781756487 0.0028420004975815696 -0.0023474208494954863 0.08487761543142712 -0.2454775356231905
4996000.0 0.9946174992052045 -0.03965234205119663 0.009711833250419221 -0.004831915655519207 0.000426667176509135 -0.003393025320214207 -0.031415293696478906 -0.2145678456350205
5995000.0 0.9960996385980534 -0.04918557366736117 0.012854132289032486 0.006552848709260152 -0.0014234397437774165 -0.0011720962794646533 -0.1281315799272495 -0.11958953660478355
6994000.0 0.9945828208498221 -0.06000170784920078 0.005193603471488257 0.003027988602925235 0.007063897728185776 0.003987943509295465 -0.1468953368983083 -0.03043710402029899
7993000.0 0.9942632905711422 -0.06751621757959105 0.005440737554504852 0.006157489771652127 -0.0026763682010305196 0.000567895365109329 -0.1749838750071876 0.03252630344550302
8992000.0 0.9923988563723487 -0.07155587184721009 -0.0005371602680650804 0.008272259038330234 -0.0025960493242111913 -0.001154933404470845 -0.169348447597077 0.06733603138521056
9991000.0 0.9915893539929346 -0.08572918721016062 0.0014470622121103471 0.0033577495963192827 0.0013292615935851175 0.002209097189333134 -0.14886287136773788 0.08859447789875126
10990000.0 0.9905227113671285 -0.09426860199935089 0.004611294413907228 -0.001129487093670398 -0.005023301070642518 0.001307067905994839 -0.14754870224024638 0.11648502049713995
11989000.0 0.9896812345313329 -0.10205549649840878 5.294563001806679e-05 0.0003391985702204978 -0.0032814490187670887 0.002587439121415712 -0.1328415241941752 0.1514078216697155
12988000.0 0.9884532078293546 -0.11242079062992995 0.0024242352272284095 -0.005365220745874751 -0.0004834489754836969 -0.0025786126717661116 -0.11934629978901913 0.17300566131392803
13987000.0 0.9854112152685668 -0.11816391326850258 -0.0046478395733439044 -0.008497075484509854 0.00035858625878101293 0.0005950745832972843 -0.10953199249149535 0.19447524264245822
14986000.0 0.9857300964412208 -0.1249718855902459 0.0030040881194344673 0.004380447879803238 0.00023230837823557277 -0.001304516847080772 -0.09437635493523129 0.20448314699539238
15985000.0 0.9890901755407197 -0.13765810317532465 0.0014423706678740754 -0.005409343389715289 0.0029626356459495945 -0.002759872283883591 -0.06787807902539075 0.20999335684926512
16984000.0 0.9872079630182897 -0.14220530802076012 -0.002100750831660697 -0.007842933464226053 0.005477268362323034 -0.002480974112560456 -0.0640028939511696 0.22016148877014194
17983000.0 0.9827916093814247 -0.14966007936142842 -0.0011499417839126822 -0.003400691646358387 0.002589497973273198 -0.0010837858624350093 -0.04669474374511244 0.2313121285367853
18982000.0 0.9816060261762737 -0.162770251788909 -0.001245139495394046 -0.0037345659820131522 0.0024136828065017975 0.002197953267610029 -0.026087537200404978 0.25049594488697313
19981000.0 0.9815407531626916 -0.16605792281555257 -0.004851076130460672 -0.007123033526754925 0.001114444154214872 -0.0025198703989563233 -0.012217249905220221 0.24026370222247675
20980000.0 0.980175972843494 -0.17956495792138863 -0.005537662242044591 -0.005009659272129561 0.0009493935468443301 0.0007453082100516152 -0.0003274128235213526 0.26083837916735525
21979000.0 0.9765144423358141 -0.18421976021473385 -0.0020938399452599893 -0.00461497712969779 0.0019707586057052906 0.0014927824714400086 0.01497112920092503 0.24919261544614282
22978000.0 0.9757920477498727 -0.19319936464986098 -0.004774824108450857 -0.006171147683264149 0.0016843753184284526 0.0009481508340201204 0.029790027991036812 0.25572384160172323
23977000.0 0.976418989425002 -0.2019898650112369 -0.005172239408121552 -0.003826259404689444 0.0036197623596862455 -0.002915326464806071 0.03355591220857416 0.2663428793882999
24976000.0 0.9719657030146225 -0.21267956358167267 -0.01062586942733803 0.0008649475375784233 0.0035373684297638334 0.002275033976473791 0.058461268403496344 0.25920182690871296
25975000.0 0.9722197592383953 -0.22677942825449743 -0.0033412301475475407 -0.0018915526653042049 0.02786089032948097 0.002970871992569507 0.07623204717034295 0.26090538360813603
26974000.0 0.9691369333672102 -0.22983357687596404 -0.006198195458726622 -0.0012988197552473088 -0.0015420126491802921 -0.0010589122676916997 0.09449274787370962 0.26498226346734144
27973000.0 0.9699846693453216 -0.23484186828597495 -0.0033340921134179017 4.194207593278331e-05 0.0004388510569853933 -0.0005113926363889131 0.1032970002870109 0.25558235098242854
28972000.0 0.964266771032581 -0.24742018571733404 -0.00017648377757275617 -0.005527631960036292 0.001324393907325332 0.0014769286332925978 0.10888873160047945 0.25477688771833046
29971000.0 0.9634517325481907 -0.2541117321413742 0.0006884223714200818 -0.000380619324456012 -0.0001555491184994181 0.0006430877235362638 0.15182130783298248 0.2649626285118012
30970000.0 0.9598974186738302 -0.259668518910779 0.0030966373026900156 -0.00046243972310962213 -0.002315155211965635 -0.0034712331284729864 0.1608204609294732 0.2510827991389131
31969000.0 0.9577036182233214 -0.2696801112558336 0.00592168508001784 -0.006660314812709239 0.001798592210024461 -0.0010694084998910964 0.1543473199492666 0.2549593922970455
32968000.0 0.9567648790213823 -0.2784164593126629 0.007728870919378313 -0.008548297577259945 -0.0002619769228172391 -0.0035667745090728975 0.1659529341851653 0.252563694361114
33967000.0 0.9535970974577715 -0.28787590524063217 0.011321041512352283 -0.009764487151181896 -0.00298106312292236 -7.820651468563244e-05 0.18441810624639104 0.24463056276249462
34966000.0 0.9503948364169158 -0.2976161265742569 0.012106565337964312 -0.009015446875430023 0.0004388375333945742 -0.0014343781039018845 0.18646937440703457 0.2569139646442932
35965000.0 0.9501891884779382 -0.30523386697520516 0.016181425561891182 -0.016397578745503086 -0.0003478306300341494 0.0020392916287794755 0.21191366720232885 0.24828002904555296
36964000.0 0.947785092397657 -0.3143105511317825 0.015321061461891819 -0.013421303163289822 -0.0003654815676957067 0.0021260825361127654 0.21409129917783315 0.24578685798949365
37963000.0 0.9420817023620863 -0.3239249035417829 0.021771809617977055 -0.01908995868011667 0.00029193032868631463 0.00013804510176424338 0.2189970779772545 0.24093043488821478
38962000.0 0.9416943404935934 -0.3307925788274825 0.02558673684269495 -0.022057800739708325 -0.0008566520190582497 -0.0030713199468997733 0.24119496135452 0.23980553534518673
39961000.0 0.9367864631193125 -0.34083873194284875 0.02595529384752451 -0.02957922312331168 -0.004881725066458601 -0.0007334858359298929 0.24425479751051188 0.22798275017004874
40960000.0 0.9355806897798057 -0.34667694689313133 0.02394335626045189 -0.023695274722929024 0.0007774119044769557 0.0040730353246935525 0.2709630007407227 0.2365615195981441
41959000.0 0.9291742350707362 -0.35862293221392355 0.027557218074710323 -0.03137274774199511 0.001618204333752106 0.0020344430821789784 0.2681579354462518 0.2037794772473515
42958000.0 0.9271710743962281 -0.36612902420177507 0.03229647477436498 -0.039678089160628774 -0.002874502860329946 0.0017864995437041004 0.2832529459223311 0.20665488068594218
43957000.0 0.9263041207629386 -0.37000207893956405 0.03276300018807384 -0.04620865751757211 -0.0006747332221486729 -0.0008545537918287354 0.2768500664137439 0.20946837027271112
44956000.0 0.9206696325792766 -0.3774618504039049 0.03136336951941761 -0.05320779072578062 0.0030753774307931284 0.0006384868926080302 0.3053131466494225 0.19782927933960692
45955000.0 0.917180967957434 -0.3913458927044774 0.033748868331129875 -0.06123260244655669 0.0019504566135084527 0.0008139874833325993 0.3088633536945007 0.18973513408324183
46954000.0 0.9141369088306278 -0.3989362719866226 0.03253448729341707 -0.06403567430428514 -0.0005003824000585625 2.9919028865811724e-06 0.3295092520344293 0.18375008904408976
47953000.0 0.9100277199849687 -0.4081064017679207 0.03508784631647952 -0.07544458978244306 0.00038881731996897245 0.002024532684081229 0.33539344550995925 0.17550838731513085
48952000.0 0.9045972769578711 -0.4188006323877803 0.03616629267251942 -0.0799364566618115 0.0001134971887474652 0.004233962897640392 0.32896535652694897 0.16809204021040783
49951000.0 0.900939645569705 -0.4229652412973604 0.03634635786335351 -0.0883451877470926 -0.0007716185261915641 -0.0035464846425351908 0.3482273142047273 0.16194208708597685
50950000.0 0.8981167672881308 -0.43198769037660956 0.03893564377026059 -0.09555064052739452 -0.0025554965585502026 0.0001398328031545929 0.35575552364989194 0.14731023364855264
51949000.0 0.8941363175424539 -0.4410128523791794 0.0396161856637558 -0.10543284487513761 0.003456863818377206 0.0012004489765598389 0.3616032284220258 0.13965645070589564
52948000.0 0.8926261225467286 -0.44676109351105403 0.04189052961646907 -0.11179176468636555 0.00013240502471805875 -0.00018847465255415714 0.37108457468792166 0.13668794313575827
53947000.0 0.8852924954243208 -0.457916301921409 0.040977131522071095 -0.12009596735374958 -0.001513614025283166 0.0013028684986851479 0.3741193062446555 0.12623200891619235
54946000.0 0.8800745797931073 -0.46493460471552944 0.04329918483336092 -0.12975689638726895 -0.0010271853903914985 -0.0017944553970122147 0.3819095183873071 0.12110054981367825
55945000.0 0.8783615498300621 -0.47433219543388716 0.04450877662422926 -0.14117388355735086 -0.0017568597021835977 -0.0021780228795270635 0.3874034815306693 0.10095423078641323
56944000.0 0.8730899806880421 -0.4821127860440483 0.046821017120096786 -0.15008281502507076 -0.0003731187990250888 -0.0033544196068976038 0.40502696931343557 0.1094162327270654
57943000.0 0.866509013282081 -0.49405157993565246 0.0461540248970224 -0.1625793541599149 -0.0019308783803025746 -0.00023577731614620029 0.3946215236201734 0.08910672460961047
58942000.0 0.8633173190719936 -0.49545850054504614 0.04713405395354276 -0.17225205384411102 -0.0032843937371035636 -0.0009861647470168892 0.41056901482761154 0.09167247987397581
59941000.0 0.8588818575865814 -0.5054099747617011 0.05009022395286907 -0.1810907836212584 -0.0012291054990327488 0.0010905643945900022 0.42091358151606123 0.0818116278613992
60940000.0 0.8528047816150189 -0.5128379047336106 0.051601095315523295 -0.18384433756544769 0.00045438781071226923 -0.00037111778375080733 0.4101845811189017 0.0724744253775163
61939000.0 0.8498140707583558 -0.5197917353162824 0.05125980597476167 -0.19363602933408286 0.001487933187297609 0.0008023892530052848 0.41200098370653815 0.06857227701779275
62938000.0 0.8408751001105513 -0.5315615648173505 0.055399757127391175 -0.21159294063062709 0.00011860038331287231 0.0017336051596952633 0.43623663403736435 0.0549625659334667
63937000.0 0.8376693949717074 -0.5357116477963995 0.055093879491787144 -0.2286483400087445 0.0007822423672515835 -0.0034319256882930377 0.4251547919854296 0.037243548260954766
64936000.0 0.8312044340054802 -0.5461093918828254 0.05379544385318659 -0.2440647814688728 -0.003327454778971291 0.0022201708636726846 0.42361590052588505 0.04208861837282709
65935000.0 0.8286925347330552 -0.5537329915326556 0.0540666802428791 -0.258713576099041 -0.002449653792783323 0.0005586864443731211 0.440499327316525 0.01691514048426784
66934000.0 0.823278257980081 -0.5600334090849252 0.05367521229773054 -0.2701609566907172 0.0028239611649948245 0.0032028955633927676 0.43264691601887323 0.011098612191081193
67933000.0 0.8211270922984505 -0.5674481031966639 0.057400998668092756 -0.2843620531855571 -0.00024656449180251186 -0.0005494246147308737 0.4427435304471116 0.015534031669773778
68932000.0 0.8066085055019823 -0.5749303590669557 0.04989759643509931 -0.2956627037142831 -0.0016607754443061814 -0.0011739789155643325 0.4497368023854883 -0.010652014049758473
69931000.0 0.8042071900741897 -0.5857283570376084 0.053118635549525 -0.314245599688471 0.0025927626039732353 0.00129765409795443 0.45454030846941934 -0.016342562882397278
70930000.0 0.8004019248945715 -0.5910273291558225 0.048542566941235196 -0.3263530392436934 -0.0005678652823445833 -0.001415170938715075 0.4345703755318666 -0.02257099359913978
71929000.0 0.7982537679385978 -0.598163454387537 0.045042939047287275 -0.34489485275259235 0.0022378179573768744 0.0029742324756551223 0.452632822514006 -0.036601799611690286
72928000.0 0.7896213736252561 -0.6082427281761482 0.03727917020198487 -0.3585682058947976 0.00018526703696449562 -0.0012264124022178496 0.461841245060859 -0.04417912623768859
73927000.0 0.7820382883195459 -0.6150071503610627 0.03226067531016203 -0.37936477666033197 -0.0030217038840700513 -0.00015344473596695473 0.4509550355445733 -0.0478181441320412
74926000.0 0.7782220815123294 -0.6246877770747699 0.024986528289410503 -0.3987674127287546 0.002654608660869576 0.002752419186703987 0.46391263389074155 -0.06076281057723369
75925000.0 0.7719794899221023 -0.6300220063137563 0.016683845275864407 -0.4177596831258625 5.579398773037322e-05 0.0005860163066529317 0.46694033668182944 -0.08540285850286175
76924000.0 0.7647195492990051 -0.6370707704838814 0.00254779927742354 -0.44143735857574623 -0.002900959675572099 0.0016377206070647765 0.46623889703722093 -0.08540571394535429
77923000.0 0.7580765151318032 -0.6444088160722362 -0.007835975802574164 -0.4628171750426635 -0.0026831243883653744 -0.0008581036142465165 0.45404096053928744 -0.09088896257280785
78922000.0 0.7536814345789495 -0.655871350097728 -0.025359374579950526 -0.4895666643996033 -0.004473723052498303 -0.00012339067291033636 0.4545740738761846 -0.10207094635403871
79921000.0 0.7437646297662118 -0.656804503003542 -0.046096007383789446 -0.5150976964151883 -0.0038444465958674796 -0.0011521400416824095 0.4584602235991136 -0.10969812908819715
80920000.0 0.7409485722436651 -0.6671146933856834 -0.06021634119390389 -0.5398204812835646 -0.0009161529410686515 -0.0011166925828406222 0.4678054427197324 -0.11324799719109901
81919000.0 0.7359280582780803 -0.673892375448079 -0.0755675067241496 -0.5709828991620463 -0.0026910106734827706 -0.0023742467824979362 0.46722435032174586 -0.1283979501215753
82918000.0 0.7233407106245625 -0.6828170416342526 -0.08879015937361497 -0.602635151394613 -0.0011714741143202443 -0.003340959478065785 0.476928412422329 -0.13707988263898122
83917000.0 0.7170849341769808 -0.6898895276856978 -0.1091673549737323 -0.629944359261228 -0.0027268683995062245 0.0054160298632831005 0.47007070750145685 -0.14870119202978765
84916000.0 0.7121709232813429 -0.6974385084160464 -0.12679808664025038 -0.6657231842300309 -0.00012964126826097084 0.0025466402618979553 0.464383918792396 -0.15568166702607392
85915000.0 0.7043240797101696 -0.7034014325251424 -0.14944141593021384 -0.6928694199701505 -0.002615967987693029 -0.002876218742092695 0.4640827167765297 -0.16917785057836424
86914000.0 0.6977733252215715 -0.7131181543490749 -0.16030510831273154 -0.7325189294849952 -0.004111495291430733 0.0004994600099977124 0.45834862865944787 -0.16383915850309888
87913000.0 0.688239200722814 -0.7190554085002228 -0.17432564355217617 -0.7613756588735416 -0.002630993461299399 -0.006444882108021822 0.46599192250289906 -0.18609362769061208
88912000.0 0.6834104916884712 -0.7256589649664104 -0.19456814404295886 -0.7935502555482409 -0.00389661421243979 -0.000725072550172213 0.46735134246002136 -0.20011390108339763
89911000.0 0.6764797975429765 -0.7338551191898942 -0.20655937436896912 -0.8325618087555423 -0.002677909911308482 0.000787860177896942 0.47540646856240243 -0.20057514323321685
90910000.0 0.6686869770679761 -0.7392325582438127 -0.22737038253428182 -0.8620565895225292 -0.0008441907929218233 -0.0020399828036642914 0.45265866807260957 -0.20258965437734247
91909000.0 0.6590672473268036 -0.7457165538950238 -0.24817632627578842 -0.8957344097048262 -0.0026427616476727886 -0.001170762944660791 0.46332355983579376 -0.23057103207273813
92908000.0 0.6532576963104707 -0.7544098607700835 -0.26376868674312287 -0.9287807528118831 0.0002905547323555339 -0.0016145086608423023 0.4491629781652937 -0.22803644711906004
93907000.0 0.6451176870677046 -0.7594287171271674 -0.2825802025926842 -0.9609279553882683 -0.0015194661471665154 -0.004032083852316932 0.45866911686084505 -0.24721741186674623
94906000.0 0.6335091278132814 -0.7656484475967122 -0.2940625807917143 -0.9923460362792388 -0.002687262536323194 -0.005283139167755648 0.4570216194806096 -0.24879404498363888
95905000.0 0.6280525705573852 -0.7706552915287487 -0.31428162531155496 -1.025615662027705 0.001068361676034006 -5.8042368850775496e-05 0.4617181042475611 -0.26827730507823117
96904000.0 0.6179996143026282 -0.7816611830069361 -0.336975366350365 -1.0616900776789981 1.5193697741066242e-05 -0.0002678966379019959 0.4549030409673251 -0.2700805365824797
97903000.0 0.6091049649514466 -0.7859799248832612 -0.3560779614798832 -1.0945809381184795 0.00027514298055694204 0.0012289622439872767 0.454680226741513 -0.2825761164417232
98902000.0 0.6041998044194844 -0.7939653453882335 -0.37904089208018427 -1.1352710604344929 -0.0010669280009794715 0.005354765274907104 0.44674798511002645 -0.2877136893043699
99901000.0 0.5934033874351909 -0.7990658320347834 -0.4028964749059825 -1.1655793480464265 0.00299235585107368 0.000401452134614764 0.4734309926154533 -0.2985172911510263
100900000.0 0.5855765529881785 -0.8022560244382607 -0.4351244132234589 -1.19146665123995 -0.0025604220017873326 0.0025166540278837193 0.454188138558384 -0.30921592600943154
101899000.0 0.5763445752081992 -0.8115999677711185 -0.46247707463137866 -1.2302557521220547 0.00530680607868766 0.00039977626510923905 0.44541497319083667 -0.3199412918543123
102898000.0 0.5663979116494127 -0.8165924207241848 -0.49784184093040695 -1.263159646022633 -0.0024443689648009467 0.00042265570103566325 0.43907566824235106 -0.3368294096579646
103897000.0 0.5576968731718903 -0.8260427094916439 -0.5338627206275731 -1.2994863066662634 0.0026438878835277242 0.0005201597525946145 0.4570632896808846 -0.3375066385066933
104896000.0 0.5503598253265931 -0.8344459066820821 -0.5790627278705431 -1.3309306595462158 0.000849453021104067 -0.0010184969403872423 0.4354252663380499 -0.3286448285740068
105895000.0 0.5376169980657944 -0.8353060185158033 -0.6239104369280264 -1.3705754800934091 0.0012220379066276387 0.0024943217399455786 0.4406791948419983 -0.35938158620943295
106894000.0 0.5288679068064289 -0.8426032321200686 -0.6800025948810972 -1.4090082246285769 -0.002590779030673008 0.0019018760458886458 0.42965865426728717 -0.36641261088317334
107893000.0 0.5215445372349581 -0.848884473452291 -0.7281553701676903 -1.449246401305504 0.0011742047270942146 0.00019797640634580937 0.43459246456483575 -0.3727232672311483
108892000.0 0.5124727091707972 -0.8503611060268123 -0.7889901073565357 -1.483547679211397 0.002012642377764351 -0.0007963036539078919 0.421030565035036 -0.37760605450426554
109891000.0 0.5005145552345854 -0.8598538811864055 -0.841699248151642 -1.51739549905783 -0.0010467680431367904 1.383927612177631e-05 0.44853254435962153 -0.3694036067884071
110890000.0 0.49317898678614575 -0.864902796002875 -0.9065989161246213 -1.5360555929332966 0.0005744693090820035 -4.6476713016795495e-05 0.4284564253963954 -0.37479679200540544
111889000.0 0.481894461453401 -0.8652178071130625 -0.9651482032967942 -1.582869639285867 0.0009407995369386484 0.003550921102445959 0.4249751828343557 -0.392853304768976
