! Created with skrf 1.9.0 (http://scikit-rf.org).
# Hz S RI R 50.0 
!freq ReS11 ImS11 ReS21 ImS21 ReS12 ImS12 ReS22 ImS22
1000000.0 0.9774732724131103 -0.008086767540591724 -0.012849116517675667 -0.03650743295296445 -0.018895231888394558 0.005345713176873353 0.39943853748905217 0.3051097169619596
1999000.0 0.9955990643564556 -0.01364604302316369 0.004690835236589188 -0.023148926315612852 0.0007915069425042666 -0.0009163221505521667 0.2604624463558432 -0.055087971248626445
2998000.0 0.998351614261171 -0.019745014675206493 0.011376601947694276 -0.018600165542911676 -0.001775382722239296 -0.0043729387883177815 0.18237704901409516 -0.13053871227306607
3997000.0 0.9970027541779659 -0.03096132780034648 0.013159092254010015 -0.005060482852461178 -0.001263921025302046 -0.006296989053492108 0.09253174104504516 -0.20933007125318306
4996000.0 0.9966256983830969 -0.039959910940898624 0.010281716410261696 -0.004729424735785032 0.0006942066123492327 -0.0027474846663438544 -0.034388070120360416 -0.2079470019407762
5995000.0 0.9950122427301327 -0.0483084644002633 0.010546137084654954 0.0010507870019344963 0.0005388503125439753 -0.0005858638139228776 -0.11576420482887231 -0.10276329275251399
6994000.0 0.9944521871164228 -0.05656552171953635 0.0038506890592747856 0.00276336834449942 0.0014629374175820695 0.0012701834279891648 -0.13581992646211874 -0.03319889875560121
7993000.0 0.995396569904173 -0.06860781118223117 0.0019024384746485518 0.0026460678218021717 -0.00658093701872847 -0.0004468333895639718 -0.16745116007147293 0.02359887742580057
8992000.0 0.9931921032907227 -0.07101414847085431 0.0025280369466798257 0.004587105156438181 0.0006034878649485541 -0.0033962379758740164 -0.15400530499505008 0.0441440094185112
9991000.0 0.9930989198562256 -0.08568758006670582 0.0012077774129293287 0.001558245211806453 -0.0017883628137346779 1.9747166163156364e-05 -0.15496404102562197 0.0938707211546782
10990000.0 0.992425698100842 -0.09210708366926185 -0.000392612850680915 -0.002104865831098079 -0.003625408718622159 0.0056716294607404 -0.13765294916926174 0.09764943491006306
11989000.0 0.9910993761518919 -0.1001444383245065 5.868988027127977e-05 -0.0029590932233710017 0.0015678845797236108 -0.00395999532024533 -0.12571335122881108 0.12838058826715815
12988000.0 0.9890575658162342 -0.11188471934391012 0.0026644462218443836 -0.005070916886461382 0.004386944211568168 -0.0016774426205949783 -0.12620376728339536 0.16314671504348038
13987000.0 0.9885230567151463 -0.11965830003616038 -0.0008556757836278751 -0.0048184478222772975 0.0008774694968973465 -0.0009786443306854223 -0.1043485261582491 0.1933456968168705
14986000.0 0.9882225655453493 -0.12549273851091047 0.0020078400280263415 -0.002297054728789713 0.0011190368357562551 0.0005315156088033803 -0.08709391245584043 0.1971376464696036
15985000.0 0.9871880503152314 -0.13619827968374734 0.000492432909452516 -0.0047180194382525735 0.0017602819668703959 -0.002312147776508 -0.06710240977032654 0.2166770713626737
16984000.0 0.9842145687425137 -0.1452963123413251 -0.0032811705429460526 -0.006536605371399065 -0.00019588284386580452 0.0049739118596592215 -0.06681688771319817 0.22685970889695653
17983000.0 0.9847978912838641 -0.14837419370245852 -0.006190629177630013 -0.008706146319863682 -0.000595466498328951 -0.0022561854912566156 -0.05780206955346527 0.23088126170457482
18982000.0 0.9821222176323265 -0.16382491494873674 -0.0024039357240601216 -0.006000649222966423 -0.00189388596452109 0.0012301601594467363 -0.03188154558283686 0.23662905943585943
19981000.0 0.9825167991662165 -0.16815645758986608 -0.0026709524462722885 -0.006410935057622412 0.0035229470429815578 0.003060804923242822 -0.018454849599694262 0.24682879298171975
20980000.0 0.9816686393268583 -0.176669897340081 -0.007905776354265377 -0.00219298619054896 -0.0031440861060058516 -0.0007395771367619211 -0.004755338619402451 0.2609827077505768
21979000.0 0.9797933042341526 -0.18455509534803294 -0.0039089757025550925 -0.005101455966019301 -0.0009008337791813035 0.0018281256008915061 0.010944239713028709 0.23267966711181223
22978000.0 0.9757549786578605 -0.19447321467337922 -0.005232784503630842 -0.0014549110229017167 -0.0017991441124793532 -0.0001261649221237473 0.02371329544295562 0.2560446121569347
23977000.0 0.9785016853058591 -0.20003790500451007 -0.006773067495651988 -0.0016937496781527402 0.00276421450942691 0.0007978602972812643 0.04238689429061265 0.25637409396043986
24976000.0 0.9734400048479016 -0.21269105724904677 -0.008414240140995571 -0.0013085760596002116 0.002099103566318676 0.0017610676652440745 0.06948402706065088 0.2507668087204619
25975000.0 0.9706805025556268 -0.2174161776509649 -0.0076693800199060394 0.001918223303988886 -0.025683749490199883 0.011237476328102198 0.06175695624694648 0.264184568403082
26974000.0 0.969772364913622 -0.22898499467615976 -0.004486411555365579 -0.005451490416086432 0.002426527651829008 -0.002279971226859936 0.08953001934147634 0.2628414860839226
27973000.0 0.9686629996123334 -0.23446730037904379 -0.006350867151741334 0.001126954322913273 -0.00039391744424734196 -0.003936500014863285 0.10041876663697914 0.2549534876778663
28972000.0 0.9664876187902285 -0.244681928746677 -0.0003102168944790692 -0.000652139312307395 0.000522530690644744 0.00015747052679256155 0.11481086652398446 0.25442149645816453
29971000.0 0.9638024168927178 -0.2559096104716579 -0.003347743312484395 -0.0023396731921821925 -0.00019932697091010508 0.001543751076466929 0.1525986651711348 0.2658966994774247
30970000.0 0.96185456688067 -0.2600681073195997 0.00122481110948294 -0.002823530229444546 0.0023795060655357257 -0.003745490835254932 0.17560013210787762 0.24669156493219613
31969000.0 0.9610937266856049 -0.2698526847588809 0.0038810354085030033 -0.005985146775146448 0.001011890430953418 0.002928174061483522 0.15254241286949494 0.2506782977602021
32968000.0 0.9563626384185487 -0.28082757347367476 0.007340926451654285 -0.008173588360316564 0.0010574583076671993 -0.0011217596228896916 0.16855574527440378 0.2459292171824859
33967000.0 0.9544869167253442 -0.2884192427702181 0.009980954151769453 -0.011164539909475722 -0.0005201904781393726 -0.0031999506301530855 0.1917456450265881 0.2516693226266119
34966000.0 0.9511811490508916 -0.2992185879440409 0.014607971332303812 -0.01069730609474133 -0.0016714289752528253 -0.004739020912507698 0.19905089560042927 0.24690769313787495
35965000.0 0.9484855272320167 -0.3062178122781287 0.016596377994745597 -0.017554079605195026 7.39444278917073e-05 -0.0036707270866889814 0.2247619576776854 0.24450939609326747
36964000.0 0.9459917224995434 -0.3145045264099499 0.017865877536376727 -0.014280321438440713 0.00335587816496349 0.001180697030029838 0.21328439588394835 0.25145437844153595
37963000.0 0.9436247203455906 -0.32205734243098033 0.021371701757481206 -0.02282276552215517 -0.0024877352160529473 0.0018841605471164062 0.21851634507517556 0.23398922736525032
38962000.0 0.9408415678877762 -0.3320128603043426 0.025963756878811067 -0.021278315356672177 -0.00301071073420409 -0.00048407394297180265 0.2398531092881225 0.23213638897600686
39961000.0 0.9369017874632043 -0.34110971034734977 0.028739935369905784 -0.026529292404126395 0.0002597593491215977 0.0009559356874795103 0.24606021849614085 0.22080542301680772
40960000.0 0.9341170804823656 -0.34693520998466215 0.023673267832240684 -0.02348850700072268 -0.0037535264471206084 0.0012858687023822226 0.26751622122530494 0.23144546242761752
41959000.0 0.9310784720802763 -0.3586392236686586 0.028543610865204197 -0.03236943647618533 0.0013223924381404815 -0.0007484727256606436 0.2677324505565421 0.20555182388631033
42958000.0 0.9253291690925785 -0.36823347421362773 0.03242157803784463 -0.04218136576209868 0.0018733923642464006 0.004043267123018622 0.2813225256052791 0.20626278707529164
43957000.0 0.9256254413353999 -0.3717851681786757 0.03334140914774959 -0.04436122593957881 -0.0022979973903216933 0.0011411584553315491 0.2842556985127129 0.2080890395601116
44956000.0 0.920339172346153 -0.3808373006011858 0.03121732269415712 -0.0529462572196455 -0.0009159660638546649 0.0010052229284604447 0.2986845118013868 0.19353862565381422
45955000.0 0.9165655413541132 -0.3915769167203826 0.033594010389309724 -0.05865868446848216 -0.0018924740423449631 0.0005337478979738614 0.30883470356703874 0.18887023861545602
46954000.0 0.9108102827225969 -0.4007876716564311 0.03570044674840264 -0.06407824541405974 -0.0028860472478105426 -0.0037063148829403576 0.32674204590635425 0.17915043479135034
47953000.0 0.9109942529025684 -0.40562100439140397 0.03706254537476496 -0.07333446612748666 0.0008322529529859503 0.0005725093216910669 0.3357364348387097 0.1752347756919067
48952000.0 0.9040068191207431 -0.4193693788537688 0.036844347210236675 -0.08105753960873426 0.006108302299482865 -0.0018780009818773634 0.33171751782353104 0.15910440574979495
49951000.0 0.9003303381817787 -0.42432812152211186 0.037505024999651394 -0.0889133982778497 -0.00020694948376036732 -9.364357483141842e-05 0.3530602828360202 0.14929542858624106
50950000.0 0.898861417150581 -0.4335987399048218 0.03902308034637979 -0.09855084529459901 -0.004404401454475916 -0.00039315684493524186 0.34408513184993084 0.13988643750133792
51949000.0 0.8927945457483694 -0.4397429466926819 0.03820456589995197 -0.10469043013765025 0.002826932748281597 0.001653517806736007 0.3581321724417603 0.14561234983044966
52948000.0 0.8923706350488587 -0.44699364272827946 0.038780208599353834 -0.11483576274327872 -0.003989935895179351 0.001401051850881811 0.36862487498718616 0.13709049174425392
53947000.0 0.8844678501374199 -0.45857536880025546 0.04190506585005106 -0.12401817523872412 -0.002356636020246595 -0.001190382824588918 0.37066506070963157 0.12659159448843801
54946000.0 0.8801367301416048 -0.4651685220816689 0.042393473424169284 -0.1310213280395381 3.727029069152487e-05 0.0009358173334662108 0.38059879613662306 0.11439554134302277
55945000.0 0.8775792475124824 -0.4744356898004461 0.04573545871506218 -0.14380777638129602 0.0006058738232391058 0.0007467463791961958 0.3880204453331108 0.10601211734865214
56944000.0 0.8737101360709559 -0.4820020733481048 0.046141729115359874 -0.1507775397307064 -0.0004643327119822797 -0.0015188928546567009 0.4019171821034871 0.09449268161652737
57943000.0 0.8671405332331771 -0.49310632888362044 0.04593013258968072 -0.16435209244988133 0.0010019509073632708 0.0016623365294169282 0.4078031020505406 0.09296540317799068
58942000.0 0.8612962483159857 -0.49669420034645845 0.048295258307908935 -0.1717175460262065 -0.001199200323652281 -0.0012142563769452742 0.4281494374699615 0.08789304375117263
59941000.0 0.8593822992065195 -0.5075786739536209 0.051054120496550746 -0.1886053791135706 0.0009290695333080293 -0.00036095199585651366 0.4179552355265556 0.07909557385487131
60940000.0 0.8505285778200544 -0.5140832887241089 0.04997558099073715 -0.18841275514486344 -0.0008787100642701317 0.0010761675024973487 0.4164357512992628 0.0739502639412366
61939000.0 0.8488415216295031 -0.5210636937243949 0.05054890758867818 -0.198612898467852 0.0012894277974608826 0.001873407207666069 0.4116293552866315 0.05770477856748149
62938000.0 0.8432412253572354 -0.5314701027104235 0.0559270547560266 -0.2134367661242233 -0.0009211064994741889 -0.0036878443640731918 0.4340085930686521 0.04232956977254985
63937000.0 0.8375553347488893 -0.5368353324788485 0.053971557526972545 -0.23721133759471258 0.002482898020398496 -0.0017207210637117311 0.4387568112977099 0.041251538021215416
64936000.0 0.8312288073254053 -0.5435225090209092 0.05494131785372676 -0.24726551994223897 -0.0021786890016031136 0.0022852962085676398 0.43248117532316505 0.04394983130495304
65935000.0 0.8289734737012718 -0.5546419746436855 0.052579797021137534 -0.2611145342358904 0.0006298948366503137 2.834729967941661e-05 0.43675261494972656 0.013817166935949676
66934000.0 0.8230107813876343 -0.5609283461064484 0.05222412393763038 -0.2746231266932139 0.0004939440887301704 0.0019530306903204368 0.4351299637346694 0.00725926873144131
67933000.0 0.8207588396668416 -0.5682215467946808 0.05277531819798323 -0.2881438426348056 0.0003394302892233104 -0.0018207631970870838 0.44146183376743087 0.00438829001516436
68932000.0 0.8153487653116238 -0.5654877435151097 0.050416780331048607 -0.3014457730526351 0.0009071596941648472 -0.0015112229201156068 0.4503771114087622 -0.02002959694700412
69931000.0 0.8064308381410468 -0.583189973442727 0.04996886115572689 -0.318982651885584 0.0010186600785437826 0.001466988438052998 0.4464971843328164 -0.015498031051620849
70930000.0 0.7993785697126704 -0.5933049386859386 0.04510994974117935 -0.3312957364828414 0.00021469384931995859 0.00018643663269105385 0.4444283288228815 -0.03598255832970604
71929000.0 0.7949994219723444 -0.6013395164668942 0.04159559137466944 -0.34885279924845314 -2.5213967449283652e-05 0.0031298303442350464 0.4487097601032779 -0.05643258038632274
72928000.0 0.7887316356910085 -0.6096356102272784 0.03576882765654375 -0.36692926938214954 -0.0024060715285373815 0.0017802641565682852 0.4593688706304184 -0.05425706051836853
73927000.0 0.7811150004291779 -0.6159334394474174 0.024397249606913904 -0.38644378293047743 0.0018032102655561343 0.0020475477545329624 0.4460893111128969 -0.0649063336263963
74926000.0 0.7787778410480656 -0.6264814661053542 0.022148379681548844 -0.40329619527399707 0.0006360262640969313 0.0016699049068219127 0.455652838864096 -0.0641171070471066
75925000.0 0.7705782553986608 -0.6293870119749504 0.012132477494770512 -0.4248906860399847 -0.002971619934798997 0.00016960634394150517 0.46478792624396326 -0.0850253703481272
76924000.0 0.7664854840266805 -0.6369191804525793 0.0006686001101236706 -0.4491806274526237 -0.001758949936042063 0.0023062650929582275 0.4609816932582809 -0.089163257481589
77923000.0 0.7608162448914086 -0.643301104086054 -0.014322488439554987 -0.4722776343898775 0.0022369640551520692 0.0013410901006112932 0.457028844487969 -0.08368553349290353
78922000.0 0.7532011716226575 -0.6543801956815747 -0.033875694609044 -0.4996983550606954 0.00011928089694487435 -0.001106520964499266 0.4640624483039748 -0.10685665337788132
79921000.0 0.7429424010249496 -0.6593843768177124 -0.0493222122229433 -0.523381092372513 -0.0010228812738538897 -0.0017622928850219656 0.45431298250153573 -0.11926716144672543
80920000.0 0.7400641390859819 -0.6690107637930234 -0.06294052572852293 -0.5525500471685956 0.005406344148408048 0.0003832935218015684 0.46600184175990705 -0.14232823640224918
81919000.0 0.7361195911860138 -0.6754335828141327 -0.08629458920291415 -0.580541375530892 -0.0007896771888739815 0.0018256566813856557 0.4618574025944496 -0.12885521710318357
82918000.0 0.7233034777605918 -0.6828344690219095 -0.09165504896996698 -0.6146316829600578 -0.002263879943122336 0.00024002354011514715 0.46719332193415475 -0.15479408434797898
83917000.0 0.7153304570493415 -0.6906714528794283 -0.11652534812984153 -0.6424336945803975 -0.0008231667318003973 -0.00036729460950856975 0.4767222973084596 -0.16025095350089075
84916000.0 0.7109847492179954 -0.6990091923726213 -0.1312221274417132 -0.6768390352090154 -0.0010199262522737303 -0.00463964206275903 0.45722502017178596 -0.17051870741625372
85915000.0 0.7035395862124827 -0.7051622238109247 -0.14805837725678483 -0.7055318076607797 0.0028598850010273075 -0.005326912721361129 0.4655313642196515 -0.17638121823422748
86914000.0 0.6976837820424598 -0.7157403852731307 -0.17194997600559173 -0.7373686076615118 0.004649887413944252 0.002702170674206727 0.4654475488904447 -0.18555640818057748
87913000.0 0.6906497969996614 -0.7202728199302861 -0.1838721881864411 -0.768091769619054 -3.94714272809599e-05 -0.00015782520262823643 0.45802867064493924 -0.19149275177204425
88912000.0 0.6838494884472831 -0.7263326969945586 -0.20251841728750314 -0.8032924735881476 0.0022728049887381016 0.0034889279411256403 0.4557763999641497 -0.22120015649343341
89911000.0 0.6760845384875063 -0.7340532814442939 -0.22142665209095128 -0.8415589475305891 0.001313061842926762 0.00039259799091535813 0.4555756267696562 -0.2195434866978178
90910000.0 0.6683904641121485 -0.7402957656868954 -0.23317388579529771 -0.876167812641004 -0.002845373324702004 -0.0032697923903474762 0.4653152679758993 -0.2299038563954876
91909000.0 0.6587336275966201 -0.7456084480411936 -0.2556598083581472 -0.9062172845930913 -0.0025111943478163005 -0.000710462536391938 0.4698822264576108 -0.2329780462280481
92908000.0 0.6516180241261701 -0.7549973802404257 -0.2733194627545506 -0.9409815669478142 0.0026689513485419537 -0.0031629870601562835 0.44622946190846186 -0.2533282643802001
93907000.0 0.643135421382817 -0.7608698624198138 -0.29189944214097985 -0.9697035037039853 -0.00029649758017020984 0.001340998848131202 0.45596603736464236 -0.2576525695194704
94906000.0 0.6312238722416337 -0.7677394451988757 -0.30804850454847404 -1.0011031629010312 -0.0025873109929136517 0.0019036815478299341 0.4585636851909403 -0.2670259468686596
95905000.0 0.6259982729924684 -0.7742666124110267 -0.33213926406465494 -1.0373881453325893 0.004516318309314436 -0.002691756920869935 0.4595101442802085 -0.26804373756643146
96904000.0 0.6175714192630996 -0.7840560479317541 -0.35153969905731547 -1.0727302598242914 -0.0013546312917058218 -0.0007877343261096452 0.455741321519767 -0.27300719315874517
97903000.0 0.6071883637851996 -0.7890433637955852 -0.37298165137501044 -1.1039099760608064 -0.0009648342295688786 -0.003243908680643188 0.44371583765766215 -0.2919300373852598
98902000.0 0.602725540765403 -0.7944715574764478 -0.39353211497290663 -1.144879744791544 0.0026983927143111454 -0.003974340306761932 0.4443170799304771 -0.2960326698914395
99901000.0 0.5915656588538252 -0.8010552939372163 -0.42505097496968414 -1.1715665657581393 0.0012946452327140241 -0.002694727078501058 0.4564142951815872 -0.32242618377373594
100900000.0 0.5828507030268452 -0.8043756885598373 -0.4515241030652811 -1.2035673246960858 0.0010878322549329837 -4.740765651685136e-05 0.4532916319103261 -0.3089161380343757
101899000.0 0.576032616471572 -0.8114184553840976 -0.47988809921829895 -1.2417804464274866 -0.00013774965382017614 0.0004570178543668854 0.4487094674960109 -0.3247094484449849
102898000.0 0.5668500588447132 -0.8168744631213203 -0.5166611324293273 -1.2805618850589944 0.00017165762191415686 -0.001274125823515298 0.44076171334809033 -0.3451701475091029
103897000.0 0.5571915563133804 -0.8244137294817895 -0.5586257148208906 -1.3092535850784786 -0.001147831432306078 0.0006742391744323207 0.4572514853196691 -0.33492321376392603
104896000.0 0.5475941059294612 -0.8349862040227456 -0.6025300653871647 -1.3384157443741234 -0.0016974191199303006 -0.0024644827586524204 0.4367317724906488 -0.34895448981375227
105895000.0 0.5364336303479218 -0.8364209399678783 -0.6557361348290354 -1.3827634991742 0.0014492993852038808 0.0007648136203753521 0.43061349519344566 -0.354229216309559
106894000.0 0.5269789080007786 -0.8419059369800803 -0.7090020922016537 -1.4188011832803347 -0.0013214385933125181 -0.0006280625552166223 0.4287544189916482 -0.3682528553142993
107893000.0 0.5193205670374347 -0.851453170896625 -0.7585386545697794 -1.46155327552042 -0.0004142849878082209 0.00200341289408892 0.43753362904125936 -0.3724167879942923
108892000.0 0.5119029501628999 -0.8519874256980084 -0.815612665863085 -1.4918722980954875 -0.002006206772506379 0.0005676758159244924 0.42032926531395876 -0.37658312943310096
109891000.0 0.498183047006937 -0.8617473175820648 -0.8770201435420103 -1.532365373767481 -0.0010819193239437305 -0.0007058480757593246 0.43823814439972897 -0.37845236197714804
110890000.0 0.49437064360569927 -0.8731486994721384 -0.9442429050233121 -1.5535823752904563 -0.0004523342901217666 -2.9544083084222736e-05 0.4268697105190714 -0.3806918777467733
111889000.0 0.4759629483013255 -0.8690404211043983 -1.0078002284263787 -1.5955315211501586 0.0016951863635740693 0.00046486882002186834 0.41573789047692233 -0.4070371991179657
