! Created with skrf 1.9.0 (http://scikit-rf.org).
# Hz S RI R 50.0 
!freq ReS11 ImS11 ReS21 ImS21 ReS12 ImS12 ReS22 ImS22
1000000.0 0.388626935841498 0.2911673904465406 0.011150933557367435 -0.06065365817326419 0.0015960820727206155 -0.011601463892661989 1.0192977663463358 0.02730907658290176
1999000.0 0.2576150886820976 -0.07318741855677799 0.004721729958155776 -0.01590289689154634 -0.0031128318015092994 0.0035015499869218442 0.9876100777443848 -0.023429320454721386
2998000.0 0.1870775378838822 -0.1920955245296064 0.012844583293363595 -0.008915143853710089 -0.006486514262764717 0.003048320790361458 1.0116190014092392 -0.018512079401945894
3997000.0 -0.10466272094857736 -0.3360165606880712 0.0088645143826655 -0.0026442038747450007 -2.834382003782959e-05 0.00538409519606801 0.985645752800579 0.0010985355943961947
4996000.0 -0.22028401793255134 -0.04132122537850721 0.010549523506143488 -0.0049417279535528885 0.005458877311194163 0.0003887275548576232 0.9937007067280038 -0.053791953107836556
5995000.0 -0.1545175719679903 0.05411585846271804 0.005095729889705455 0.00038035899591232415 0.00307749718431498 0.0013929293298058489 1.000856393498315 -0.039153431571143
6994000.0 -0.12037416397676585 0.08923601594258164 0.008893810131218632 -0.0007997642501348772 -0.004412331384511319 -0.0013051447367079365 1.0033241846531171 -0.05142415989559368
7993000.0 -0.0952570123602297 0.1161066545159796 0.005401753212366471 0.0020142192734626746 -0.002422991067771928 -0.003232284722127284 1.0047790370224052 -0.07067011470549406
8992000.0 -0.07676821714050544 0.13352148283822424 0.005074374134204708 0.006623621980315169 -0.002454051857025953 -0.0011718822954236796 0.9905770601397083 -0.07163964002968501
9991000.0 -0.06076119668470279 0.15346207986809923 0.004784194659075412 0.0011197446786541565 -0.0003964909305351308 0.0027397301919445255 1.0025902992345903 -0.07457228290715531
10990000.0 -0.047268749732230914 0.16907859289112184 0.006532704759240518 0.0024158563135866086 -0.0027194934472523705 0.0016284939985309788 1.0113719894768665 -0.08035405988806558
11989000.0 -0.03279523000945519 0.18374243390985365 0.005097854974834034 0.00300726119859248 -0.00043092659545224316 -0.0007596535215247402 1.0042253615315866 -0.09542514098891437
12988000.0 -0.019580172833757275 0.1962512485724363 -0.003030095741778307 0.0025808486426284224 5.787639477120835e-05 0.00279266724543769 1.002548200127761 -0.1108393270486029
13987000.0 -0.00699442258995514 0.2090674666707999 -0.003256791317725087 0.0015638790340657726 -0.0006368430236700875 0.0002278634223844197 0.9963499884564664 -0.13741867641554165
14986000.0 0.003960466963623265 0.22137665640894064 0.001195994354475482 -0.0017038455720113767 -0.001193377173730434 0.0026847661641415184 1.012042931731321 -0.12873289761623594
15985000.0 0.020669417670076427 0.2310880947687914 -0.0033046165641301096 0.00013551706150115165 0.0011994030127960012 0.0002149495976266887 0.9887794825839102 -0.13376722719371498
16984000.0 0.031987733935903116 0.2422324891283906 0.0003728989675817273 0.0013005700276572892 -0.0006937136479348766 0.005465402970182335 1.0061006514245134 -0.152482586586697
17983000.0 0.04343988538720896 0.2503373032817645 0.0006931549201040394 0.0005751957847138335 -0.005733437711597045 -0.0005765740987122497 0.9905941366810521 -0.15626436837334687
18982000.0 0.058707096387674504 0.259453874975839 0.0004361010490700841 -0.002455851310709989 -0.002045998625841919 0.0005018623726849618 0.9949886008077655 -0.1692197453567553
19981000.0 0.07079702229565014 0.2666484907719509 0.0006214369330527379 3.5675874425400394e-05 0.0030515827028601205 -0.005029741950975708 0.9836076933825594 -0.16447654568248044
20980000.0 0.08310528478857003 0.27261580457761553 0.004102156918256995 -0.0013329350170568231 0.0007977914829606944 0.0014336359989200105 0.9905049783260998 -0.19765876298361365
21979000.0 0.09600606410276345 0.2796807501160852 0.0028964086203774318 0.001106769576878268 -0.0011666852741137412 -0.0029935301041022024 0.985507296415486 -0.22629110771711622
22978000.0 0.11092825865484737 0.2855574553952379 -0.0032522937534093486 -0.002873151136441404 0.005127351549837214 -0.0005415040096868367 0.9829103873184452 -0.20547619506527764
23977000.0 0.12329240521758891 0.29011741692056653 -0.0011982751735546083 -0.0019103103853936076 0.0016381552451466498 0.006268579145396388 0.9895498138620827 -0.22028795881417879
24976000.0 0.1347018198330833 0.2944554240876801 -0.0014684366071786052 0.0030807239013578916 0.001192174778272193 0.0007948090389569352 0.9772712434458611 -0.2210901001125565
25975000.0 0.15177644195845005 0.29158089082179794 -0.0029060025252929233 -5.7712466801580035e-05 -0.0002810892352376372 0.032156317906071936 0.9746954783492933 -0.22580322706162181
26974000.0 0.16204126282104317 0.2980424298457547 0.0010037656209393245 0.000973253489159578 -0.0016375566048101634 0.0035640274441202905 0.9746433314260919 -0.24753789346814967
27973000.0 0.1734257588507329 0.3017428254193419 -0.00045117775955703807 -0.002455003633627676 0.0013137794972617307 0.002647636001242375 0.9812835386930121 -0.24246667165431152
28972000.0 0.18868749771559368 0.3029419558708035 0.002252588228240146 0.0016936748899342871 -0.001933632729422008 -0.003777602979762166 0.9617179053647117 -0.26491112442838494
29971000.0 0.2003854373487938 0.304273341212359 -0.003374543994131842 -0.00018696012479861373 -0.0010269373101242222 -0.0013665839371128387 0.9662928580440809 -0.2665823765911794
30970000.0 0.21650239784080197 0.3061317525072875 -0.002587609609303014 1.2488245605863892e-05 0.002871892151337965 0.0009910358519546064 0.9566927096420137 -0.2631746498312897
31969000.0 0.22234443501390233 0.3065894087592534 0.0013943552141471823 0.0017979229158616799 0.00065281372201242 0.0013372135990006573 0.9719525837032215 -0.2816613707497575
32968000.0 0.23420575432923027 0.30586392423278075 -0.0012682832267094705 -0.0017519660775960856 -0.002944177321541496 0.002343265856666874 0.9686920638087766 -0.2950718517986644
33967000.0 0.24550723816905168 0.3047094284045122 -0.0038021545411692174 -0.0014286590881194506 -0.00045183092504394066 -0.0008580280665956895 0.9668309264407846 -0.30895142584337437
34966000.0 0.25707973903544246 0.3055282854000081 -0.0006125726226748892 -0.0027392132389228493 -0.004450937028269123 0.00032459312024106236 0.9635891062439442 -0.30890504132013885
35965000.0 0.2685815559898611 0.3027272335140417 0.0001284181107230977 0.0007206761159760397 0.0007050087972473401 -0.0040111415335453895 0.954953308075642 -0.32315095032412927
36964000.0 0.277162284780205 0.303170411840299 -0.0027401611660406765 0.0003899535886789617 0.00017308548820549352 -0.0032951457154968846 0.9524014397718884 -0.33472488057273847
37963000.0 0.28848363156857226 0.2994329209055147 -0.0017705018549325415 -0.00032655018560158623 -0.0011569509509322228 -0.0025037155324910665 0.9659406876004656 -0.34341738888696305
38962000.0 0.29847596954415295 0.29872124295181596 0.0023710733096783715 0.0010952533082035656 -0.00134466856782696 0.0036844978202868017 0.9553774559788365 -0.32951992242109784
39961000.0 0.30845023762704493 0.29577983457602297 0.0011448407032992147 -0.0015278427470683492 0.0018174679744283142 -0.0006204495871192447 0.9512021559907502 -0.3697208926846688
40960000.0 0.3211709051294827 0.2953618533160788 -0.0009470112109540859 0.0014297811658163901 0.00038754697225964156 -0.0011716165019716924 0.935701536912166 -0.3597319572309505
41959000.0 0.32954942291301964 0.29167433796564235 0.0003173426330493153 -0.0007447218263635944 0.0019052801787229569 0.00027316567986190795 0.9552354486979356 -0.3819193652734221
42958000.0 0.3387950610653537 0.2873994145900845 0.001407686538918006 -0.0015808627472835982 -0.0016419200849350215 0.0005482618598908483 0.9402013518038789 -0.38567512664956616
43957000.0 0.34833438542321143 0.2852766734064206 0.0013683047959317193 -0.0003000659939850828 0.0007886616082393771 -0.004296433527495716 0.9418445477867466 -0.3978327063457436
44956000.0 0.35630612725222055 0.2820293449687894 -0.0009251608478324384 0.00012858534177721736 -0.0034596092248924027 -0.0014235786483153615 0.9365428389000002 -0.4119030334315689
45955000.0 0.36530272639162653 0.27881372868609694 -0.001771366211921608 -0.001468778945199887 0.00011522517943020654 -0.00033999795095599725 0.927209847499269 -0.4297661750223977
46954000.0 0.37244155959208197 0.27528881414728357 -0.0011530576557652287 -0.0015100024798923993 -0.0007284318747877634 -0.0010446037199786265 0.9377926322091984 -0.4231616530347985
47953000.0 0.38076224230498656 0.27039114796139074 -0.0026940302685839654 0.0009352218025973337 -0.0011270469622075463 0.0014349646304974704 0.9385200469732476 -0.4226610383207011
48952000.0 0.38875611957111855 0.266397639180617 0.0022944037836990115 0.0033888049503250643 -0.0001624393982549233 0.0008929431971136676 0.9183569921542492 -0.4470392753734289
49951000.0 0.3967797374308741 0.2630604921159516 0.0034641748795908446 0.0009351601467667225 -0.0019585954769784676 0.002554771896385172 0.9157170305201615 -0.44840254270503155
50950000.0 0.4031532373690025 0.2556034037408202 0.0010292076302377826 0.0008207908108917447 -0.002056018747951018 -0.0001256178253512129 0.9237949960126963 -0.4629128349342913
51949000.0 0.41056769864383785 0.25181746330289073 -0.00033722291884229005 -0.0038105598654963407 -0.0009277212528076443 -0.0019829810999575904 0.9049176323323819 -0.4649512069442946
52948000.0 0.41618800597996664 0.24844449062802598 0.0006165302852316932 0.0013075335506778124 -0.0016923376864577994 -0.0002516521186850283 0.8984469103838263 -0.45865320863017744
53947000.0 0.4246093939742602 0.24303460247835398 0.0011010490613081979 0.0005615915470707659 0.0034079398956679526 0.0026137118302549545 0.8927489423050127 -0.4854142023656512
54946000.0 0.4288815024413494 0.23945951734823726 0.00315292367117486 -0.00037550565599767804 -0.0004922264284912771 -0.0031369098698616964 0.8992759665098956 -0.48304761437946586
55945000.0 0.437746368537678 0.23643414609796815 0.0008287044721780843 0.002272421648328505 0.001861621224779794 -0.0003670798348934186 0.8887518224620369 -0.5029297674461196
56944000.0 0.4429298785721469 0.22939440841716974 -0.002501010389534115 0.0003094781832995872 0.002619037393231605 0.0006687921638024767 0.887591009476095 -0.5194627337829025
57943000.0 0.4474256136899577 0.22562909338816373 0.00012662524308176067 -0.0002821955992135331 0.00234066292109151 -0.001749033086801779 0.8819734147146014 -0.510597595263301
58942000.0 0.4541618461767062 0.22097666390450788 0.0011845464492002255 -0.0020026601524440277 -0.003234610431427595 0.00023871305711206742 0.8843091360804968 -0.5029713849957722
59941000.0 0.4581187528855158 0.2154142985240759 0.003093227205545805 0.00017630496378020908 0.0004546192292831956 0.001357851398134182 0.8614842889374436 -0.5249370145674119
60940000.0 0.464521048727644 0.20979521895641415 0.00021489507697977026 -0.0007880661039543946 -0.0018833309880424906 -0.0011013997486738847 0.8478178171595971 -0.5137841400040838
61939000.0 0.4697397649731945 0.2055100616829454 0.000815567506679494 -0.00016344434745072566 0.001902124553758383 -0.0006369584413362248 0.8457453113186776 -0.5038763401653954
62938000.0 0.47462857342703696 0.20168249306178207 0.002553624126418477 0.000848321829780697 -0.000526862095696563 0.0006397296214520833 0.8635708190088077 -0.5400087268345364
63937000.0 0.4794061605013055 0.19459411609654712 0.002380351112665951 -0.0020275797461332986 -0.00046779346464993917 -0.00031742951775127364 0.8479567582307571 -0.5670095782425421
64936000.0 0.4847355362795392 0.19010684100733335 0.0013902352856646522 -0.0005818370757668538 -0.004141240058879966 0.0015339085948086531 0.8417894004299106 -0.5555785648644587
65935000.0 0.4893843272130548 0.18464054533938548 -0.001200506616759717 -4.215721250389427e-05 0.004190507627638106 -0.0022644737718081117 0.8551976827668389 -0.5823050428789271
66934000.0 0.491951759203396 0.18043810905039956 0.001131660501877891 0.0021244237766014293 -0.00010886554370594302 0.000926284222192956 0.8222240477489323 -0.611277528977928
67933000.0 0.49734563746753246 0.17566637271263322 0.0004379264223250795 -0.0005062557690876777 0.0017464939851830825 0.00014201818494881353 0.8403706251949706 -0.5861981046834032
68932000.0 0.4943013111684076 0.1692540599518754 0.0022566035096912205 0.0018258987629518964 0.0010484034620894182 -0.004444314020485042 0.8085061840259462 -0.597968811799414
69931000.0 0.5054751977613843 0.16535958662892655 -0.0023224291089633557 0.001585669090207561 -0.0017129814568520943 0.002509617493440161 0.8371798886164282 -0.6072827526689566
70930000.0 0.5080445727947607 0.1584683891468237 -0.0028101175919380277 -0.003812206714539549 0.0038925640060689173 -0.0016047873154585626 0.8094589830707956 -0.6294887047048529
71929000.0 0.5139753377174776 0.1556615957717408 0.0006006951208917502 0.0017848427292601568 -0.0008968952586006479 -0.0009043500874134291 0.8033036750862484 -0.6506011159519534
72928000.0 0.515616662961321 0.149038818318019 -0.0013950996901061904 0.0002678979885975471 0.001104484555625572 -0.0019400241636396134 0.8083172489589473 -0.6322042786888106
73927000.0 0.5178512145278851 0.14560390264341944 0.0014042214734481813 -0.000679726117484843 -0.000514444749540305 0.0006392976631393336 0.7974933686662057 -0.6327367195077488
74926000.0 0.5223973676933834 0.13895047896291685 -0.0018486817486832179 0.0029687825768461994 -0.0009737565775101358 -0.0006972848680021293 0.7777497302591959 -0.6309443554409122
75925000.0 0.5257443136487505 0.1329910274116425 -0.0007823049164597497 0.000273517408928397 -0.0032297715992589708 0.0029612587423628062 0.7901819122209527 -0.6488979597377684
76924000.0 0.5282405200056915 0.12847824243566125 0.001332753153914711 -0.00010556645286922789 -0.005013973008394657 -0.0012532443110606307 0.7820085089051277 -0.6655566037535642
77923000.0 0.5309016398932573 0.12408276917340302 0.002082389314556674 0.0012233419611540287 0.00031492978395340857 -0.0005677395854263287 0.7713728178030731 -0.6802073425864699
78922000.0 0.534367895688538 0.11925363084407026 0.0006370843353954047 -0.0006738669729359017 -0.0011695794290865632 -0.0022879223439525973 0.7495808014798827 -0.6862849829027129
79921000.0 0.5376888639548977 0.11373329611213946 0.00036456217064414906 0.0007243380995448372 -0.00015722502591297165 0.0002809392225209314 0.7584441464445528 -0.7011193613565336
80920000.0 0.5393173110608387 0.10849814054566363 0.002973537016541425 -0.00049467237044525 -0.00019714020296601753 0.0011926472799178797 0.7649167919008102 -0.7118669633282418
81919000.0 0.5427492492830197 0.10409976701803171 0.0017282368631075403 -0.0009494910942163753 0.001646187979717147 0.0023652182024994604 0.7454665604888743 -0.7029752237119651
82918000.0 0.5451333229366104 0.097004410244324 0.0033216230036677064 0.0006032151584480665 0.00042877559773171325 0.0018641857587200937 0.7583948123942514 -0.717564924016279
83917000.0 0.5472105260079457 0.09155757553319892 0.002067739562615902 0.0005940134406669576 -0.0008205265255913245 -0.001212137181577246 0.7334663745348976 -0.7293195030407684
84916000.0 0.5505170089191311 0.0878231344700429 -0.001999349561844486 0.0013814829424036552 -0.004710877479041088 -0.001580427242065729 0.734693076014243 -0.7368936955604449
85915000.0 0.5529647412344337 0.08356394105435531 0.001579928967785234 -0.0024266528992118105 -0.0015541974628086072 0.002319067754551231 0.7356524377310989 -0.7560795491568938
86914000.0 0.553806589198081 0.0785809492754951 -0.0015859063871187286 0.001735372722470888 0.003035141047208707 -0.0004899113454226534 0.6975917412141496 -0.7534221925393564
87913000.0 0.5561878829365002 0.0719531297881057 -0.0004430760942031724 0.0012161945199163913 -0.00236863938868992 -0.00010537088857901583 0.693763737339322 -0.7582922766446829
88912000.0 0.5573778549679737 0.06660459672237716 -0.00023501597415718107 0.0005269103228016615 0.003012178085507297 -0.00047282801677311193 0.7106918525058352 -0.7715217253887438
89911000.0 0.5610862615040885 0.06279195673504441 -0.0003339040757322182 -0.0008928378729278979 0.0006248642968626554 -0.0020488158376035996 0.7093115497358039 -0.7747196811340165
90910000.0 0.5602526346651522 0.05665130636662837 0.000895867843603625 0.0027817707650518203 3.790606769602286e-05 -0.0011637181284368068 0.6805428785843153 -0.7657935899582694
91909000.0 0.5634937851242836 0.053621115041219275 0.0001613298809249049 -0.0006134658127506015 0.0012103060956545984 0.003297075153423307 0.6926648800733484 -0.7784208415201728
92908000.0 0.5648299653678864 0.04729182376036162 0.0014550094439894298 0.001038264310686624 0.0004376591924488348 -0.00017948644312603052 0.6809499488021264 -0.7874601977474044
93907000.0 0.5672129617732921 0.0430743620223324 0.0009609210914760125 -0.0015402841116188757 0.00026750718771873444 -0.004672928114773414 0.6894529416960723 -0.8093539080573049
94906000.0 0.5666328719670509 0.03620009009244615 -0.001202360481133605 -0.0030204311629977876 0.0006332975681325831 -0.00293339499703643 0.6578272221171065 -0.8010711438603259
95905000.0 0.5704951357058202 0.03392380380216523 0.003085300766708565 0.0008071348714728782 -0.001654994855476171 -0.00029199211315274995 0.6648197516151237 -0.808064587089055
96904000.0 0.5707826375101182 0.028864738713404895 0.0025500329328604077 -0.001905742328156497 0.0023428200713893356 0.0006327785969762798 0.6491353541100409 -0.8310364636816074
97903000.0 0.5710140666146581 0.02229319888554995 -0.0032792885619146394 -0.0026614754797660302 -0.00010506208717247714 -0.002114919432855059 0.6300380433734275 -0.824814189014825
98902000.0 0.5737229588088097 0.017882199324041236 2.1462550906324918e-05 0.0007361363036298668 0.0003293830027459069 -0.0012514905535392945 0.6311451887194197 -0.8258428221891428
99901000.0 0.5746177628635808 0.015244165524673545 -0.0010104658488944878 -3.0162632911962196e-05 -0.002347948017108427 -0.0018404879415678348 0.6518338432209182 -0.8465466923400312
100900000.0 0.5759188577263659 0.009698698395553887 -0.0003049071556011388 -0.00039565814342336353 0.003296376058961103 0.0013490258706222303 0.6468463857191358 -0.8558500809856193
101899000.0 0.5786044063573581 0.0054878383002061205 -0.0010075440412550128 -0.002943099395999312 -0.003536082833334878 -0.0013554355610999667 0.6271523322007251 -0.8643283843581624
102898000.0 0.5789045927798685 0.00039974319827098994 0.0007717002482826442 0.0032457505476238472 0.0007255515012846277 0.0006563038468641054 0.6195247710295801 -0.8745627982956663
103897000.0 0.5797514461631098 -0.0057446249679919655 0.003541824696574278 -0.0027466579467484704 -0.0009566833124581748 -0.00019924311930165706 0.6223214897252572 -0.8465452673963375
104896000.0 0.5787087872590037 -0.008003934239065265 0.0010128241475619356 -0.0009083479083151115 0.0014147253292476375 0.004767668191819263 0.5762702555180944 -0.8687412890758158
105895000.0 0.580409849211128 -0.013207949031004421 -0.004263242914925872 0.00047680455318123275 -0.0036603626886755557 -0.0052650228388252856 0.5738412288798469 -0.900299856562616
106894000.0 0.5804401315496966 -0.018627854229105817 0.002823061199778019 -0.0019990484648721974 -0.0020594877334641714 -0.002859475330442739 0.5778522884683658 -0.9129181759532848
107893000.0 0.5822515051492017 -0.022577302861263034 -0.0005051589784424429 -0.0030267451622961235 -0.0016777942030089183 -0.0036477320676894117 0.5722505175931887 -0.9209877967070613
108892000.0 0.5816552453436427 -0.028407516756428972 -0.0009627881314145368 0.0005016411370704206 0.0022749824918772703 -7.731506869870527e-05 0.541541435884729 -0.8948124564018463
109891000.0 0.5820109366729347 -0.0330036661159519 0.0001664830724417199 -0.001465203060295782 0.002552175876501385 -0.003493709337581532 0.5664876666688792 -0.8747752866062511
110890000.0 0.5865494094090382 -0.04381716319284546 -0.0011316893900374654 0.0033657379612319245 0.0018655353640549776 -0.0025323767936585306 0.53825425631601 -0.901683452141437
