! Created with skrf 1.9.0 (http://scikit-rf.org).
# Hz S RI R 50.0 
!freq ReS11 ImS11 ReS21 ImS21 ReS12 ImS12 ReS22 ImS22
1000000.0 0.9795617321825382 0.01159667402945596 -0.00526627999968558 -0.0507389618220999 -0.006138568344061185 0.005646926570957861 0.3360112499305105 0.31214425425776454
1999000.0 0.9987838343081716 -0.009269217716546227 0.0036096304518821645 -0.02256249896024252 -0.0049033986467602545 0.002856116762730422 0.23609548057647817 -0.04782382291883218
2998000.0 0.9947198870538356 -0.024346890168035557 0.01371245787237927 -0.016601937220343407 -0.0021456175585707125 -0.0044683199796851005 0.19318845708802276 -0.14041889250720216
3997000.0 0.993495406567745 -0.03430619607594095 0.014054146366042186 -0.007518053210789562 -0.0034446384650552147 0.0003370974038568913 0.08072419214274273 -0.244916311118189
4996000.0 0.9920790828982481 -0.040316903479943274 0.009575334014442887 -0.0002058726579151116 -0.0005606188925932768 -0.0016123526289954341 -0.06615453035758376 -0.17603197153758043
5995000.0 0.9934808199370359 -0.046953163017255266 0.01361387140953637 -0.0025574119443312684 -0.0017448523924755623 -0.0013651565929856933 -0.12209604071083055 -0.06402483382273795
6994000.0 0.9886862374590324 -0.06160589028130242 0.0033583945111402775 0.005481073991157468 -0.0008883944047036312 -0.0035207355959667405 -0.13364609317112988 -7.988185822654262e-05
7993000.0 0.990870731665894 -0.07043584278232196 0.009194489781874733 0.003332847855423513 -0.004795756784045641 0.0047056464558209435 -0.158393150124479 0.05342328589336551
8992000.0 0.9906450051795966 -0.07245300951428364 0.003790229248083148 0.006855017578728377 0.00416895072445122 0.0019245447070924736 -0.14747561197339382 0.07756285003713431
9991000.0 0.9890493708857504 -0.08367369421449766 0.005944971249113522 0.004218568281551646 -0.0007617407637903189 0.0008204056629132576 -0.13504857088760666 0.0882848337567958
10990000.0 0.9891783968538941 -0.0908768728696138 0.0023387944386275444 0.00021705433061993635 0.0008244645101937774 0.003480927629571166 -0.12709574736402932 0.11434102100287034
11989000.0 0.9877576748808834 -0.09774615777058035 0.001405806885236591 -0.0053471703140185655 0.00038010646049161805 0.0012400433608199086 -0.12371101199795215 0.15693658545872133
12988000.0 0.9853498320952692 -0.10912664308419223 0.000595575604495981 -0.00040099461549782285 -0.0029571075454710377 0.0015995120676375821 -0.11075638251314984 0.17046780982226772
13987000.0 0.9842351411838436 -0.11776285249101097 -0.001112548265094182 -0.0052679182079105906 0.0009887618003848611 0.0046452564548256844 -0.08990647741589208 0.19286148391598484
14986000.0 0.9825705414959576 -0.12578931420967585 0.0021386929143076936 -0.0003129350688546473 0.0009581214637667781 0.0008386493972205589 -0.07550369234696955 0.2021457142434986
15985000.0 0.9837615508555895 -0.13357625862107952 -0.004965949635832057 -0.002625545615215903 0.0026476150825207934 0.001245404086595355 -0.0632863025153095 0.22266998137519733
16984000.0 0.9815331921482799 -0.1457331527697378 -0.0048655226209957875 -0.0022851936010715324 -0.0018040478251960988 0.00430718115696394 -0.062129859484952574 0.22049084530698784
17983000.0 0.9809590969539097 -0.1487088847425396 -0.008709398902633614 -0.006326890053715522 0.003542837637946334 0.0061115128296806214 -0.053961846679509165 0.23444619473597164
18982000.0 0.9786471361997192 -0.16258776862079194 -0.0032654909269980393 -0.002525778703408809 0.0010644873703415723 -0.0031758206202818326 -0.01575869380258267 0.24623687078298498
19981000.0 0.9790698668791706 -0.16484452223293045 -0.007192946115419948 -0.00559109433998972 -0.0010155021219643498 0.0018724139661223163 -0.008973295885312597 0.24685444490942984
20980000.0 0.9760292421842307 -0.17881735184896455 -0.0031474412730822785 -0.0009043022148857128 -0.0005724181139502376 -0.002551492197832016 0.009025048410894965 0.26524881634508946
21979000.0 0.9746794788247986 -0.18444429064305345 -0.002223374340062019 -0.006795476078462331 0.0020853477485633966 0.0016484845656425098 0.014691914673791088 0.23751691756516638
22978000.0 0.971262152274252 -0.19585735956707784 0.0011517126158552124 -0.0005887294105690187 -0.00445887378227486 0.003580895689787946 0.03296449261420737 0.2543304821914351
23977000.0 0.9727563710735533 -0.20161551248803158 -0.007672832467694348 -0.001770411921699432 0.005240865097535202 0.006077010561981716 0.048673325379827236 0.24846546780916953
24976000.0 0.9696812053339672 -0.2121900869764288 -0.007512890968572406 -0.002129944527081204 0.004041235255321706 -0.003631445778769787 0.06461035162504979 0.252204808719912
25975000.0 0.9731385652935607 -0.21938215541695846 -0.006154299506911162 -0.006104198874851067 -0.0014675365530699186 0.0262401688325727 0.06644975816815275 0.2522068727862983
26974000.0 0.9672642070797408 -0.2268020846275456 -0.0020557797997935775 -0.0017983065805253229 0.000998153223333977 -0.002535642165940808 0.08748112407747022 0.26759366009558644
27973000.0 0.9647292690744562 -0.2360844720011582 -0.0018850730409141468 -0.0018244690441930477 -0.0005604717530912033 -0.007640451406803323 0.10650696526706427 0.2644590317149338
28972000.0 0.9626515469165406 -0.24372160922698508 -0.0008891819072214181 -0.0016461302101456257 0.0023690647325401095 0.0010466969418273181 0.10865021953581326 0.26836525612645834
29971000.0 0.9611915155556378 -0.25336683674833266 0.001415397889524127 -0.0007919202323256095 0.00013053758294809405 -0.0006186342930537147 0.14862442773280427 0.2606798170957937
30970000.0 0.9590218238548053 -0.2595583476218842 0.0023156621081111984 -0.0008110188256625123 -0.001687898995588933 -0.000263267864856065 0.17316920326668314 0.2549987080613982
31969000.0 0.9576615277497335 -0.2684267396461211 0.005185227625488576 -0.004122231142581661 -0.000484223142359384 -0.0009446194312126994 0.15183565872474253 0.2571608113605639
32968000.0 0.9559512193464077 -0.2765560015912082 0.007994932728656635 -0.010045795080244021 -0.0021809476066900605 -0.0003621776323475776 0.16624018179111544 0.24035986796064124
33967000.0 0.9547108564852986 -0.2857395771224345 0.011502470856568222 -0.00860669912971278 -0.001572681459830533 -0.0018402373354829272 0.18730029885627597 0.2512497294592567
34966000.0 0.9491879257973341 -0.29719765225444617 0.015380062105615261 -0.011851133797549391 0.001324656165901795 -0.0011716401454108492 0.1857039164739313 0.25730232936031333
35965000.0 0.9470923022050279 -0.30453877028217624 0.019350147460945363 -0.01020060493351594 -0.0005244905860723978 0.002679322788506535 0.2010734860553379 0.25735866604129315
36964000.0 0.9444877425776697 -0.3143310490494659 0.016790131350959445 -0.013344589989487456 0.002572530175852427 0.0034301634503517003 0.2150999046141071 0.2576084419812403
37963000.0 0.9401101135550745 -0.3250962376427402 0.021108829699852536 -0.021215568418089192 -0.00048685584306153016 -0.0022969498887813918 0.22836521555623623 0.2376220926596552
38962000.0 0.937752887566747 -0.3341032714778888 0.025378962956158206 -0.022098905630821397 -0.0030025760603129537 0.00022899089666740215 0.23700771803624907 0.23968225358013023
39961000.0 0.9351936042478841 -0.337826043174371 0.027241044184841915 -0.027536889930591116 -0.0010789927668204467 0.001274321390446365 0.25622179924363475 0.219845236205733
40960000.0 0.933227199795576 -0.34698025843945074 0.02266300408911539 -0.021944863292049442 0.0016528690546198375 -0.0010064131711579117 0.26240668710496606 0.24050120828718605
41959000.0 0.9270985524705394 -0.35809281548787114 0.030422894903754685 -0.02990175821059855 0.0002584289198269705 -0.0012764339272492977 0.2659176414717868 0.220695613801186
42958000.0 0.92402613472193 -0.36637439421833207 0.029298403197254533 -0.039538795124423126 -0.0007178244108026306 0.0007244761711663512 0.27260536403312896 0.20957892324936978
43957000.0 0.9238903500527541 -0.3697058898805909 0.03433387443545749 -0.0446238387585631 0.00047393102597955106 -0.0004949073859006047 0.2759781410270739 0.20873369611358994
44956000.0 0.9203478654958153 -0.378318772771451 0.033637257641700925 -0.05150636773094986 0.002088582357407717 -0.0012038557049851213 0.3053780529679518 0.19973240024218114
45955000.0 0.9150057919824125 -0.39099293735646684 0.03403869712970475 -0.05502197047327758 0.002261592236069454 -0.000526284319906422 0.3036054251549087 0.19982152677203513
46954000.0 0.911898396627226 -0.3995655963189202 0.03758255430674071 -0.06128789979588862 0.00336081167945904 -0.0014359851155954615 0.32210979082822416 0.18643022035763854
47953000.0 0.9062898908287337 -0.40862217807485934 0.03932084528606907 -0.07048206413782884 0.0008171770425733882 0.004806996607403734 0.33382671833436345 0.18282619155938673
48952000.0 0.9024771978538594 -0.4182584658149143 0.03901871816422808 -0.07705918006331586 0.00444931763685353 -0.0022681106055226045 0.3278062563888503 0.18181857593031403
49951000.0 0.8988362379876298 -0.42476553392459326 0.0375436789282165 -0.08553967513659959 0.0013201732284699632 0.0017739977252891827 0.34652486574896685 0.15768519875581377
50950000.0 0.8967281010199474 -0.4313259268269866 0.03904127161167709 -0.0925956585495954 -0.0008958882584320235 -0.00013664195580379373 0.3524729300255672 0.15518849640740645
51949000.0 0.8917328177253996 -0.4396889133211334 0.04265082139478824 -0.10288498156052647 0.0008591654392281683 0.001737154139418799 0.36039775377303346 0.1489616700945311
52948000.0 0.888927863901219 -0.44736750343092185 0.039866151291681286 -0.1100722340387383 0.004071793373904682 -0.000603153091388019 0.37548782587328683 0.15138774707998082
53947000.0 0.883039525806668 -0.4587576038303179 0.04183395473406993 -0.11790190460547187 0.0009148921479430437 0.0010390377569449362 0.36826786088947544 0.1389737882368109
54946000.0 0.8777642719289958 -0.46649065181411736 0.04455185089755864 -0.1251320104922865 0.0011530484604354318 0.0007409034789279107 0.3894060006721762 0.1355493772523545
55945000.0 0.8747287304082131 -0.47290391428220974 0.0469180601161648 -0.13845110923407564 0.0007504155847968668 -0.001047701769168582 0.38669050694124624 0.10818730505637875
56944000.0 0.8696226214447919 -0.4826233914477086 0.05121717319086007 -0.14612704543477723 0.0014115347757818325 -0.0030175809172346205 0.3980609305089266 0.11520027936709828
57943000.0 0.8649961372478656 -0.49310198628303215 0.051735965299921194 -0.1567174833341046 0.0008278312190061752 -0.0022730084230250334 0.3966801378522986 0.10152178083998216
58942000.0 0.8601333857261261 -0.4966588790058133 0.04978704617741329 -0.16808068997840925 0.0019364701899039806 0.002844534808384886 0.4109448635938999 0.09990282052275089
59941000.0 0.8567521671514081 -0.5050852477219719 0.05233134834811649 -0.18100692657011247 -0.0012186372775851227 0.0017065817817145245 0.4204151213933209 0.10072456251644514
60940000.0 0.8480896194984672 -0.5135420426566311 0.05030703330824348 -0.1789606609001355 -0.0016573843954246759 0.0004797837707121636 0.4188649302128903 0.0855758892597125
61939000.0 0.8455089188806162 -0.5205080797233906 0.055833298772563406 -0.19101342900836493 0.0006255687545922449 0.002526717466157803 0.4138113147615964 0.07607365012617041
62938000.0 0.8400846111205744 -0.531045089109572 0.05628905029982428 -0.20594025888976603 0.000724393144402562 0.0016804959757876746 0.4427107279418971 0.06624933103092895
63937000.0 0.8349708596253788 -0.5385350407879286 0.05823444026551419 -0.22473119398306116 -0.001273546784391233 -0.0012518417391854098 0.4414613233723207 0.058124318615956884
64936000.0 0.8280758327582253 -0.544084922017484 0.056554884709681195 -0.24374997645063406 -0.0009254278335965373 0.0007119863972231631 0.43329189066629586 0.055436158904425915
65935000.0 0.8227349045420078 -0.5575179622731928 0.05816733461724528 -0.25556639539371256 -0.000666332484116106 0.002584070900950796 0.4442932551325638 0.027391811713732256
66934000.0 0.8194118905833967 -0.5598150397788036 0.05823654488689571 -0.2671268945537431 -0.00021981555791322421 -0.001953177186540765 0.44071066554573984 0.023786032691878786
67933000.0 0.8164274819277881 -0.5686345130600597 0.05830828968776394 -0.2823585123086035 -0.0011807520552407841 0.003636359838515526 0.45028157307364836 0.01946750049803656
68932000.0 0.7974267841762558 -0.5686062042224962 0.054614086950906686 -0.290811816903163 0.002716990238077015 0.0015580033084349359 0.45548363245308304 -0.002923227378217524
69931000.0 0.8023052473991844 -0.5839898522027017 0.0583333400335063 -0.30989766516334927 -0.0031201868153446703 -0.0008005170836985814 0.4459610985099372 -0.0009991960018484716
70930000.0 0.7949176666362646 -0.5924778850341644 0.055965793421250846 -0.32457108539569557 -0.0018082625247145918 -0.0029621638953496164 0.4557208254944088 -0.016411165534006886
71929000.0 0.7915372242716443 -0.6016811186935656 0.05178335940885882 -0.3447098414304746 -0.0024423509935461185 -0.0029538056522263423 0.4544556613491411 -0.021351099581163054
72928000.0 0.785510928268615 -0.6108238798512863 0.045344757503275296 -0.3567111695441133 -0.0015694012192093484 -0.0010945855682719424 0.4548368128899307 -0.03754087310505908
73927000.0 0.7797712600105002 -0.6156084553136327 0.042507925059438775 -0.3771587122175904 -0.0013033277879113995 -0.0010598574272806594 0.4589898014207808 -0.0481279062416205
74926000.0 0.7726000402990439 -0.6246096899687961 0.03510532772031734 -0.3960174617783776 0.00024679956335489915 -0.004966264179494264 0.4583085717988834 -0.034678330573396185
75925000.0 0.7673274662840182 -0.6300333672426796 0.0249477707947881 -0.4141185821306027 0.0018900795296585646 -0.003865581713955308 0.47185621755786766 -0.06552805709573818
76924000.0 0.7627963118236617 -0.6377865243615758 0.014188743707275266 -0.4392932876484903 -0.0018454953415106261 0.00110779015651096 0.48179132633106647 -0.06968064532674614
77923000.0 0.7546685298769646 -0.6441078816893494 -0.0009747768625023121 -0.46195753305046156 -0.0014791662132545055 -0.0009749746790303461 0.46458937527936117 -0.08751368606985371
78922000.0 0.7483809937074793 -0.6531841330301935 -0.009225845170101915 -0.48932204873871904 -0.00655547396627734 -0.0044487695580643465 0.46214190994939125 -0.09217325181596205
79921000.0 0.7385772577626201 -0.6574051523990729 -0.03428510678277219 -0.5145975366078368 -0.0009160152099399834 0.002698737794162784 0.4646420716583452 -0.10234406275911268
80920000.0 0.7346612180087194 -0.6685653686506242 -0.04269828557411731 -0.540245870825119 0.002997079977932782 0.0029089440935800804 0.47675616788106634 -0.10685016692715303
81919000.0 0.7303173688228758 -0.673097885777122 -0.06145878427794868 -0.5678510051766014 0.004702488940990002 0.0004330757804051511 0.4663187308254706 -0.112611976527021
82918000.0 0.7209204277737475 -0.682523247621293 -0.07850954149487083 -0.5982811756216847 0.004503916192621803 -0.0005153257462257472 0.4819029870834764 -0.1390463634908254
83917000.0 0.7129806223661554 -0.6886770073520458 -0.09511825288990948 -0.6253395897080012 0.0033427599369722 -0.0025133125083589606 0.479850350167007 -0.15123834758949456
84916000.0 0.7058822353953381 -0.6952928428613949 -0.1144071305418172 -0.6618744146907234 0.0016581258020325386 0.0011301069655935013 0.4713644005769203 -0.16087932015570122
85915000.0 0.7011774552368918 -0.7018929139060437 -0.13189893469471412 -0.6926729254355186 -0.0017284974961062514 -0.000932712384551325 0.47900618222713615 -0.16057739867485613
86914000.0 0.6917932273031834 -0.712706595256734 -0.14422794754550727 -0.7276730066972462 0.0011983526493528377 0.0015086343181132515 0.4686629752107438 -0.1650615464201574
87913000.0 0.6869314619003316 -0.7178830130156815 -0.1642445334234173 -0.756230791181187 0.0011713669507897823 0.0003416976025471172 0.47498930384023025 -0.17397909534013967
88912000.0 0.677962687981578 -0.7265478557196309 -0.17713395243313973 -0.7934121146342639 -4.3616316815703985e-05 -0.0010330882662621002 0.4771526355995534 -0.18667784128921083
89911000.0 0.6702961917510244 -0.7342158731361466 -0.19319541835700121 -0.830160031140902 0.003230711084307706 0.0016725678670031078 0.48039545701109704 -0.1872806744864488
90910000.0 0.6634200692748284 -0.7395372011470293 -0.21074527233546891 -0.8634058474212744 0.0030991419887220536 0.0024099120392744454 0.47020134125372476 -0.19574002521507522
91909000.0 0.6538935764254349 -0.7429411601564109 -0.22451217180822164 -0.8927758664255859 0.00010918119116888836 -0.0003198305026034613 0.4632538690860827 -0.20856611095950972
92908000.0 0.6475780700294975 -0.7535559431461418 -0.24141826578265774 -0.9265776706776901 0.0028524626916795427 2.293994316250544e-05 0.4626252696794638 -0.22718031793050064
93907000.0 0.6424169446773766 -0.757799530968042 -0.2608493595411162 -0.9614815800518435 0.002816948411831103 -0.00015972467982821567 0.4622336635397909 -0.2410271445887027
94906000.0 0.6288807790053764 -0.7652134495365268 -0.27881068594301767 -0.9913312887617256 0.0029576105281465277 0.002707064687423782 0.4661517788925694 -0.2304691972049477
95905000.0 0.62523355394545 -0.7707997572396751 -0.29529022903145546 -1.030015322052323 -0.0036677001023651835 0.003410504665238038 0.47446838136574054 -0.2604184019480463
96904000.0 0.6139866109216976 -0.7808905833283483 -0.31542004434236043 -1.0656179698785408 0.0017150475041855923 0.0006233231227756361 0.4706494789490294 -0.25455005613632675
97903000.0 0.6045268157336324 -0.7861244888463625 -0.33385151071469155 -1.0953499552720665 0.0031277472510572164 -0.004482333745528553 0.4560281986350705 -0.27268322850269455
98902000.0 0.6018417543329038 -0.7919826793071252 -0.3575992421644273 -1.1381068151647398 -0.0012157759763673421 0.00034832206333225023 0.46073897613129955 -0.28535729476129007
99901000.0 0.5884470903822296 -0.7978747889949201 -0.38370230102693653 -1.163535701036558 -0.0001654185582758584 -0.0015318023545725266 0.4777239094428831 -0.30357197710692607
100900000.0 0.5811845719846047 -0.8018560708606451 -0.41186332037436957 -1.2002745306933742 0.0009928972518231946 0.0007806488225258189 0.4712820939943913 -0.2969761766022011
101899000.0 0.5723129728686753 -0.810419886173963 -0.4385242588139816 -1.236339356186904 0.0037526235084270466 0.002570516224049303 0.4607438586741974 -0.3101262885003643
102898000.0 0.56337011733451 -0.8151883329111749 -0.4713020752894933 -1.2776410325489773 0.0011778235934119246 -0.002351778465587739 0.46661507755497417 -0.3268152325219335
103897000.0 0.5530780126582491 -0.8217343841144787 -0.5119365297008487 -1.3093744892821348 -0.000902020972432558 0.0019605301450862267 0.48222724147237217 -0.3138754496403733
104896000.0 0.546780133193924 -0.8336650422666376 -0.5511117290159139 -1.3414883954791 0.00029033577615416445 -0.002538550158351597 0.457815468814696 -0.3232896784309393
105895000.0 0.5370836918321369 -0.8349913036271467 -0.5933614553351026 -1.3840199557111197 -0.0011330875036500375 0.0011008178879306635 0.4516504961592292 -0.3434952914744569
106894000.0 0.5272331604007892 -0.8408148674510911 -0.6413384422574594 -1.4215022312676036 0.0012792883721245948 0.000792446805538267 0.4433160129569764 -0.346801189220755
107893000.0 0.5206136690195545 -0.8478719570990644 -0.698513655532347 -1.4628986359019673 0.0015741956615208492 0.0009758869337366575 0.4551148453632492 -0.36309673704811196
108892000.0 0.5095002843676381 -0.8509409773828592 -0.7573383701600134 -1.5019753528964364 0.00030225479754013345 -0.0004535090747052069 0.4422981172064027 -0.3643885493448871
109891000.0 0.49642051875623283 -0.8587913919799107 -0.8105322447129196 -1.534258343469455 0.0015281788640457172 0.0018294715978893854 0.4564730008156769 -0.36212925346529384
110890000.0 0.4846721770859333 -0.8736019677866927 -0.892634678743809 -1.5525000258627815 -0.0008962110368828036 -0.00447335471388861 0.439443249352122 -0.3744653340655832
111889000.0 0.47513767316677014 -0.8657620028955231 -0.9370385735250183 -1.604002164314687 -0.000487720998389312 -0.0019489341193480948 0.446726526295177 -0.3792327628689859
