! Created with skrf 1.9.0 (http://scikit-rf.org).
# Hz S RI R 50.0 
!freq ReS11 ImS11 ReS21 ImS21 ReS12 ImS12 ReS22 ImS22
1000000.0 0.9797150573206491 0.0050426989845492095 0.007709697099148536 -0.04686834284882474 -0.014495633838837813 0.008847101433986171 0.35996890979870877 0.33040277475730906
1999000.0 0.99893095387986 -0.013792796731372998 0.007323887427184798 -0.02622974366966678 -0.005481114222772577 0.0030243941088952293 0.24236032078969874 -0.07924398859197028
2998000.0 0.9983142935725435 -0.020360234821913372 0.011020669199736814 -0.014592403284242536 -0.0011042233513965827 -0.003317030233918663 0.1914287117475059 -0.14365187565322737
3997000.0 0.9977203731853438 -0.03216152130323187 0.01229205304715057 -0.006371451386845573 -1.1945284298295258e-05 0.0022346324948430696 0.06621776288777252 -0.22474036772973993
4996000.0 0.99673258874241 -0.039341749103766054 0.006777533987154886 -0.004065373837946566 -0.001104506538525469 -0.0015978874941479726 -0.05335262048282102 -0.18467498786957068
5995000.0 0.9969167629823671 -0.0494568921038179 0.008504739302309461 0.00669634648579752 0.0007146099689744637 0.001737849263009688 -0.10917035064839464 -0.09198362087891823
6994000.0 0.9959568952337219 -0.056054107275070146 0.008487282573638807 0.0031848780543699048 0.00214171623905396 -0.0014881280379633196 -0.13190341086238294 -0.01535350367275807
7993000.0 0.9949491554318991 -0.06752110842574084 0.0018758272273795092 0.005877221998182619 0.0001998525098595753 -0.0009579082627516209 -0.14786261419591562 0.051348432189403936
8992000.0 0.9948999032562817 -0.06884086781593561 0.0019527931508316518 0.005201432487475444 -0.0011294578512003723 0.0011132839580097421 -0.15326787133548886 0.07916536445395822
9991000.0 0.9958166654411545 -0.082255795168909 9.76644242557089e-05 0.009233964258567973 -0.0014894087439923588 -0.003510928405068822 -0.141265170416883 0.0973604516666239
10990000.0 0.9907002381135134 -0.0938019601438471 0.006407041949926501 0.005109571397992402 -0.0015129586353757399 0.003387992753924066 -0.13011680824835178 0.1141592626827173
11989000.0 0.9919353920005621 -0.10035282500104967 0.002377554123939946 0.003730733276439922 -0.000986428145500383 0.0010001405552544477 -0.11866315315210876 0.1323751190141077
12988000.0 0.9907426008724197 -0.10927980675565482 0.0014369045219762369 -0.0011708794078060481 0.0027924999887053523 -5.629492475078822e-05 -0.11326897555692342 0.16457101654083894
13987000.0 0.986473493886703 -0.11720068263863048 -0.0017517828672068997 -0.0023856580423355675 0.00045823154392295266 0.004819864032552162 -0.09797975944274913 0.1849261614047645
14986000.0 0.9898362114931687 -0.12411050858751287 -0.0019430427132521898 -0.006042317882483309 0.002440081679412823 0.0021116809857300647 -0.07922618851694398 0.20410391984449405
15985000.0 0.9887493005078225 -0.13477983672008007 -0.0008822784535618747 -0.005502437475072704 -0.002607584901976748 -0.0025450979305289834 -0.059909329910397144 0.22178450709967817
16984000.0 0.9884058628513325 -0.14286133617292399 -0.0025886831875722733 -0.0033329551822490287 -0.0015993990103326146 -0.002263828646396863 -0.0555368137515659 0.2160983648239243
17983000.0 0.9876951033715152 -0.14613179914697477 -0.005856743753267454 -0.0014049533808147027 0.00011298791912403047 0.0028570017521919763 -0.052515203012396566 0.23033957754597187
18982000.0 0.9833633536428706 -0.15979862525768695 -0.00287452748953472 -0.00234266213193649 -0.0020970198100219266 0.0025042755372313976 -0.013496200406691443 0.24446528160535053
19981000.0 0.9816624503580197 -0.16357808957524947 -0.0051593774663866365 -0.003584622598969354 0.0018196188368543532 -0.001438454980131395 -0.002793038227608024 0.23050831697404484
20980000.0 0.9815698580826331 -0.1748481266003144 -0.0038919571311608506 -0.004162044829612748 0.00036236691302692515 -0.001021465199080388 -0.001228812723536423 0.2629252486123021
21979000.0 0.9788506336089872 -0.1822713385677636 -0.006983520755196062 -0.0034088862762265654 0.00014685874181133196 -0.0013464491223397904 0.02753763555778643 0.23859886502533187
22978000.0 0.9771317841919942 -0.1901500571279693 -0.005985113659414951 -0.0028440599016871237 -0.0004496054302448593 -0.004213208408190051 0.03207324385178793 0.2597132589634841
23977000.0 0.9783354198237288 -0.1980683964980992 -0.005897255238897385 -0.005923011757999248 -0.0024307801026323813 0.001672863448206849 0.04879198157282317 0.25551454638984306
24976000.0 0.9754535927272358 -0.20660823694985656 -0.007874728853294955 -0.003513197961983342 0.0029325516726051264 0.0010754829806188819 0.05403642123848004 0.26085856108768507
25975000.0 0.9662096603046345 -0.2198594745809303 -0.007654099466779084 -0.0015448252634042924 -0.004763966694758834 -0.026305553689898422 0.08292879594607062 0.2555500355432864
26974000.0 0.9720960070234691 -0.22568929090461412 -0.0035745336091286208 -0.002976177886015874 0.001865132830319412 -0.001958021470506567 0.09178649154763563 0.2669005248539909
27973000.0 0.9708360591531259 -0.23101073914653444 -0.0045229157549108775 -0.005002165869908651 -0.0013757641785870091 0.0026294038263296135 0.11341199572888386 0.2631034994328118
28972000.0 0.9676257532628345 -0.24007903912572634 -0.002528823490860374 -0.0022649632953698727 0.0013073446429269179 0.0007807749145299748 0.12296807338808131 0.2513558220674895
29971000.0 0.9654153924632387 -0.2525379399616044 -0.0002698083496326056 -0.001233859988535786 0.00048516483381621877 -0.00048070682897383604 0.1593160271759875 0.27016494014742176
30970000.0 0.963372952960581 -0.2545052586372437 0.003302623070862265 -0.0007517295497107329 -0.0016499663212756566 0.0017678854058892155 0.1774139357740163 0.2519365780572032
31969000.0 0.9627476278572275 -0.2651569564319999 0.0031212401830327933 -0.0033239218973708474 -0.0015842358300427529 -0.0006216326214716773 0.15419895700636294 0.24768538925651193
32968000.0 0.9596946680818351 -0.2735497486332169 0.007565967222738962 -0.008309124996077485 0.0006187190433035635 0.0019359072538242949 0.170684397241311 0.24330395243063838
33967000.0 0.9570935289980902 -0.28414620110425887 0.009141327103111071 -0.007897924108164561 0.0016435521406829216 0.0008719656761808837 0.19066387852209746 0.24780433740132732
34966000.0 0.9535167236790215 -0.29317120964450843 0.011071764249655263 -0.011765647892065087 -0.001461362559561717 0.0007907320093383265 0.19907194175872361 0.25324596014430584
35965000.0 0.9509067852244073 -0.30035449533373576 0.015256553486565164 -0.014724449981971359 -3.361898321257362e-05 -0.0004916012570051492 0.21862530703548871 0.24440099018547018
36964000.0 0.9497065242912258 -0.30855993395721204 0.016694128604470143 -0.016027751852253382 -0.00036646691248021045 -0.0008358731294647662 0.22293014853021392 0.24802685200658567
37963000.0 0.9449554305528771 -0.31959147152204576 0.02116563605092074 -0.021030906655680925 -0.002999972411509643 0.0009710401257316917 0.2296178569027113 0.23727387676566078
38962000.0 0.9433747872935581 -0.32582002856306125 0.021290915436325206 -0.02206138455068605 -0.0015495861848813918 -0.0014883330043121174 0.24462116000070552 0.23316385799241962
39961000.0 0.940863987047687 -0.33284703003741783 0.026794018590614116 -0.02862562391085695 -0.004036952122006254 0.0028192247160397144 0.2478510233762438 0.2280480276966864
40960000.0 0.9365940197872737 -0.3427791593777485 0.02357694976408612 -0.025486944150716843 -7.652579776012373e-06 0.00011322481468474242 0.26379311786275733 0.21705151247629081
41959000.0 0.9350797775482356 -0.3513309911882845 0.027951441236311485 -0.031645153992089 0.0007618560864346307 0.0026818505663559087 0.2812723034122232 0.21300435103110515
42958000.0 0.9294355249134798 -0.35929901389901453 0.033398853768216115 -0.040166460535741966 0.000473433662335789 -0.0028084833802100953 0.27685355885850965 0.20070704945361967
43957000.0 0.9289939169992334 -0.3650279503591764 0.03455895864620751 -0.0473564796405911 0.003158609173334485 0.0010211566338927838 0.28333464405293785 0.21060562665891666
44956000.0 0.9240817593204051 -0.3744983224265562 0.035657465084298276 -0.05176947947914919 0.0011807954142047858 0.0037063331981343705 0.310354756404924 0.19874795767967096
45955000.0 0.9207434584743752 -0.3834629427710671 0.036333392164612774 -0.05932789813175969 0.001275289691823555 0.0023191944099037027 0.31044700733839964 0.19265142855071601
46954000.0 0.9150538352246044 -0.39334897317997736 0.03527383068953922 -0.0642940071910728 -0.0014100408554103274 -0.002792638511976391 0.3269384575133031 0.1661629909812113
47953000.0 0.9153935260276052 -0.3990307650128596 0.04031870068212562 -0.07231831638392285 -0.0023179962526529404 -0.0005147915039236048 0.34174382148796095 0.1620439287255301
48952000.0 0.9086998681920753 -0.41085945164825527 0.03714939950417656 -0.07872793895999745 -0.0005102937073123089 0.0021570327362611954 0.34608610949772683 0.1619159909389045
49951000.0 0.905832656207532 -0.418898376019778 0.035993029341028465 -0.08800208841854756 -0.000616691684088235 0.0018473965214986783 0.3546142280403245 0.14668828116916757
50950000.0 0.9029345840393689 -0.42668519585714687 0.038187834905254535 -0.093538045925169 0.0004142274223108752 -0.00331262510349265 0.34750673328959686 0.14776461826632586
51949000.0 0.8985306195597981 -0.43365672610774225 0.03841857276641536 -0.10178551446469015 -0.0001942853879866719 0.0001460918257120102 0.3638876569772091 0.14172050491244031
52948000.0 0.8967029166244891 -0.44074950065330165 0.04207108621458973 -0.11231514769617924 -0.00047959389828979167 0.002698791412883219 0.3756861149601768 0.14738473718512662
53947000.0 0.8907024998542915 -0.44849779498043885 0.04420979887665136 -0.1201463055590809 0.0014854729966122054 -0.0014378386901304175 0.3697198380440014 0.1309347330799487
54946000.0 0.8837729029828465 -0.458627376929542 0.040752429182161105 -0.12962440740170406 0.00026922576046449167 0.0018028953745579128 0.383691379705699 0.11958658354739087
55945000.0 0.8830870334403976 -0.46452645632131456 0.045385994262985 -0.1422556687742189 -0.0012464273784040328 0.0017475473535686667 0.3893564347041596 0.10957140441750983
56944000.0 0.8786004323537981 -0.47347856694650814 0.049748145398578456 -0.15245445422699822 0.0007874861690312061 -0.0008009823713569198 0.4028231146060346 0.10712478487307908
57943000.0 0.8740153863993506 -0.4842575124220518 0.04696314655175033 -0.16339833513104965 0.0013296072324318437 -0.0005780654634043905 0.39955322446095276 0.0941077254844443
58942000.0 0.8667320061296591 -0.4893719182538539 0.04736384703752887 -0.17432927287396563 -0.0016332956528632124 0.002096444387323006 0.41671677374954214 0.08561288710663206
59941000.0 0.8641965497643075 -0.49883371347320415 0.050447992599415736 -0.18365953953260716 -0.00220412908393269 2.1623692053859094e-05 0.421719796666702 0.07415669638734922
60940000.0 0.8578414864085847 -0.5051190854573899 0.049986233626201595 -0.18714427067187175 -0.0006207284292490743 -0.0004052973510423885 0.4066583019504744 0.07073399657955709
61939000.0 0.8549661674478933 -0.512373927163025 0.05241624400337801 -0.19576181822443914 -0.0011335183838263952 -0.0010925037171230115 0.42020290702295404 0.06840683611027942
62938000.0 0.8493322668928937 -0.5232969241440069 0.05452599535554423 -0.21280386424756756 -0.00013449975182992647 -0.0009268857418558601 0.44025611602783987 0.054689618569900435
63937000.0 0.8433841229373057 -0.5307608949331815 0.055341252783886165 -0.23168715396048614 -0.0028535399550137144 8.998440767338578e-05 0.4393507489038292 0.043601737491233514
64936000.0 0.8379935422544088 -0.5354409797465153 0.05549549087878545 -0.24645885686475674 -0.0007070366434211047 -0.0003063045876081809 0.44069057986290616 0.03176024301468558
65935000.0 0.8347216151066494 -0.5455196003240823 0.05661108145184533 -0.2614129092820256 0.001479422447099735 -0.004802763538632465 0.44817033105073933 0.016343388309515466
66934000.0 0.8311799129935482 -0.5515169208401838 0.05374122794602563 -0.2750134063009717 -0.0012404250872768395 -0.006757338741357743 0.4399915531360567 0.01580291827826494
67933000.0 0.8265275758409721 -0.5597222615051556 0.05507357046889848 -0.29162250934846795 -0.0005117758194484403 -0.001824604489576817 0.4514702682206366 0.00927719854409046
68932000.0 0.8123789972506927 -0.5624800471891949 0.04932944700323988 -0.2975175972546238 -0.0013055293958267934 0.0004695564490890606 0.4611466347050718 -0.011404141931206613
69931000.0 0.8143969882432949 -0.5754936633163311 0.05195392604403864 -0.3175172793817221 0.0035364194277323 -0.0016178404382563671 0.4520376016345034 -0.024725983408875937
70930000.0 0.8084266948457047 -0.5823911553190433 0.04932536952928334 -0.3321358970774006 0.0035013488064454994 -0.0020025890546247066 0.45552203883361264 -0.03641703403297253
71929000.0 0.8040732558967321 -0.5927343628444602 0.043655060897177876 -0.3492056833470837 -0.002398628321024923 0.000987477904399465 0.4473653003955826 -0.04234601861580506
72928000.0 0.7979361531906399 -0.598910279554729 0.03971439711039015 -0.364366512292785 -0.001098364239036521 -0.002073674349411142 0.46005321174053077 -0.05555043779694641
73927000.0 0.7912376709529503 -0.6036783111607958 0.03520553463254379 -0.38505164246921053 -0.0013087432144174146 4.888410069105505e-05 0.4632264568536995 -0.06336561598515139
74926000.0 0.7870841527642234 -0.615259167109621 0.02838189597819775 -0.4049236739834376 -0.001152035276762675 -0.0023982559035879277 0.4713902358203913 -0.07165622380642085
75925000.0 0.7818527459617897 -0.6197987956054845 0.020296523377116515 -0.42077172208724023 -0.00011649394462980917 0.0024519093159436683 0.4721386769250951 -0.07093287933970176
76924000.0 0.7751444628740658 -0.6268354424030887 0.008482120014290724 -0.4462129986637247 0.0012629263929970376 0.003932928966110562 0.4701499936300916 -0.09308654934857603
77923000.0 0.7681574405580899 -0.6344164682203989 -0.006910191125920019 -0.46935413829522504 -0.004683251975366628 0.0007875169359604776 0.4698642958030519 -0.09333980378971304
78922000.0 0.7619794813959342 -0.644847778900248 -0.024249422592902654 -0.4949752837055107 -0.0006553137223060037 0.0030959101925768858 0.4725214234214459 -0.10895542679816671
79921000.0 0.7529508948919333 -0.6478380831152465 -0.03802935360371891 -0.5214518949545521 -0.001685933637619628 0.0033078809307535008 0.45713964656494976 -0.12066620045179514
80920000.0 0.7501548566904859 -0.6588831560099838 -0.05036752437700457 -0.5466119898392477 -0.0022365992308486025 0.0009320076127733295 0.46519420182945337 -0.12670798785498016
81919000.0 0.7448899838557135 -0.6641128801705587 -0.07274690540114599 -0.5760552596995854 0.0037400254874569785 0.0006967541492328487 0.47425445135915434 -0.13990360621166092
82918000.0 0.7345296178833911 -0.6729315176755205 -0.0856015255168522 -0.6064524718963455 -0.002084026495106213 0.0005389997022924169 0.4840827796936804 -0.1457018784986648
83917000.0 0.7259714841968788 -0.6805243943768517 -0.11115022701665576 -0.6349341415077203 -0.0007904738098658898 0.003964745205103615 0.48347361021235247 -0.1507736762609251
84916000.0 0.7229618364818207 -0.6867844887035767 -0.11866370790977077 -0.6729166505876524 -0.002601921544248514 -0.004338038267428658 0.47290321495815646 -0.17020846019584246
85915000.0 0.716169067781815 -0.6943192396387458 -0.1468364125979117 -0.7017420067584496 -0.0028173147084594114 0.0008634580559577075 0.4710207902990479 -0.17125796975049165
86914000.0 0.7094273454753589 -0.7021710995767241 -0.1561843271785109 -0.7405103300520499 -0.0008521910115815105 -0.00024529055147657405 0.46339590954425264 -0.1724265066358849
87913000.0 0.7019333899757062 -0.7093273143924554 -0.17682292597957175 -0.7639364735120473 -0.0018339378792174767 0.001564755332079525 0.46640741639420763 -0.19141039789541278
88912000.0 0.6940893729870238 -0.7157872284670076 -0.194571716741812 -0.7984539231277807 -0.0007688276758392563 0.0010503403010989378 0.46710962939095113 -0.20147730010908996
89911000.0 0.685635538860562 -0.7254018076441405 -0.20767652469168874 -0.8369409722686435 0.002147079522205174 0.00048533736552134655 0.46561615083596447 -0.20775304982045484
90910000.0 0.6793961730020488 -0.731427346611521 -0.2296656162101519 -0.8710752405979699 0.0025976590548212517 0.000857391289751161 0.4696767650650993 -0.21196423216897597
91909000.0 0.6716444205063441 -0.7353497613698512 -0.24688449536163837 -0.9044823222015062 -0.005022637381891723 -4.231281885975359e-05 0.47157130050257473 -0.2268095770978606
92908000.0 0.6645940149434317 -0.7432925452110828 -0.2683634373588339 -0.9435924965672158 0.0019264878701385556 -0.0014021961466246478 0.46739952011967983 -0.23738885407047447
93907000.0 0.6587428495156034 -0.7480267726258621 -0.2804125468811593 -0.9678514224449027 0.002228553733611656 0.0018801654229629763 0.4713736074302408 -0.25049623654498526
94906000.0 0.6452957250378482 -0.7560798751936715 -0.3021773718325668 -1.0058955503889868 -0.0006715338319651902 -0.0015957827280351003 0.4716120840736101 -0.2416321880229248
95905000.0 0.6390757794359272 -0.7630406565448281 -0.32518581019080095 -1.0365178334184861 -0.0003491082658566618 0.0027492063527655678 0.46294548525708334 -0.26844238661598063
96904000.0 0.6315094050014438 -0.7715017660917715 -0.341041910729828 -1.0778053886401513 0.0008273518623860413 0.0006518386103379799 0.4519427389821117 -0.2850087027133502
97903000.0 0.622261622787236 -0.7776084715061917 -0.3681755763816432 -1.1066097189872521 -0.00416042589506745 0.0019905807791074964 0.45607284221153266 -0.29540657362031475
98902000.0 0.6187216832448366 -0.7842034214740943 -0.3844911055040012 -1.1490939150671329 0.0019219686868290696 -6.310912254612855e-05 0.45436314933787925 -0.2983343548399414
99901000.0 0.6080846991878535 -0.7901351839562758 -0.4141167238979773 -1.1842414926204903 -0.003606991643017107 0.0012708314650278177 0.4580578060331438 -0.3199985284795898
100900000.0 0.5999312331861181 -0.792765912913001 -0.4369629807351828 -1.2094249183669998 0.00033240755757112865 0.0013921827286296137 0.4554210282644875 -0.3119179945875469
101899000.0 0.5900359002616167 -0.8006303198177442 -0.46856658132643875 -1.2468741902165004 0.0006134714527827512 -0.0014612093233844427 0.4532139359683274 -0.3133374692405886
102898000.0 0.5818086728617413 -0.8058399572910612 -0.49814442836105216 -1.287690252867063 -0.0011378421707915454 -0.0001664346616344795 0.45397936409496714 -0.3376251263412267
103897000.0 0.573216372356684 -0.8131906327862143 -0.5391483419317362 -1.3193231585901386 -0.001118096326339463 -0.001201036796949285 0.46660059396930437 -0.3428084067339837
104896000.0 0.5654271957534582 -0.8234906816184263 -0.5839325075818426 -1.3533318499962164 -0.0023108938717631075 -0.001614436473184285 0.44106599447255895 -0.3338281290618461
105895000.0 0.5540018107789941 -0.8267573000576381 -0.6282564336059038 -1.3942176138454108 -5.061290357328188e-05 0.0005606885870391521 0.43638764429434057 -0.3596833600102125
106894000.0 0.5463225591744159 -0.8324576488099059 -0.6816700299666945 -1.4346875642526513 -0.002989011919603926 -0.0010887353863114088 0.44831236112534617 -0.3680152227873424
107893000.0 0.5389731692446169 -0.8386332562678477 -0.7263758303698382 -1.470637467854851 0.0011801746937444052 -0.0016383564851537346 0.43821641129932704 -0.37282497456841457
108892000.0 0.5279126979026831 -0.8431176411000486 -0.7910015962399843 -1.5060350324035616 -0.00367925110304308 0.0020544102179594704 0.4277603713798119 -0.3742058171461334
109891000.0 0.5161323452238936 -0.8497197576328819 -0.8494471642005251 -1.5438779371866438 -0.0003356921785794575 -0.00038258101884512994 0.4524079174810613 -0.3748237299657657
110890000.0 0.49594296108201397 -0.8601664209455074 -0.9260915099271385 -1.5409106510894368 -0.0007461929641700612 -0.0006732526029924412 0.42820798304733476 -0.38640336189470903
111889000.0 0.49697231204192327 -0.8581442090562083 -0.9666699632384533 -1.6106893282916377 0.0032041896018130357 -0.0017094551154778 0.42245006720451467 -0.397706806851355
