! Created with skrf 1.9.0 (http://scikit-rf.org).
# Hz S RI R 50.0 
!freq ReS11 ImS11 ReS21 ImS21 ReS12 ImS12 ReS22 ImS22
1000000.0 0.9969401113823637 0.004191203670628626 -0.02667278913545523 -0.05898957233974104 -0.021722747230230623 -0.004513650082794163 0.3391909313755676 0.3147500859691304
1999000.0 0.9969734877816346 -0.009862883795967557 -0.0012797688487423675 -0.017525474451799833 -0.0005233174964062559 -0.002811134896417475 0.24067081889561517 -0.03789516497752728
2998000.0 1.0016473467569362 -0.023488422101116426 0.011009666750962304 -0.01672571380936417 0.0022515851129143887 -0.004280897870038749 0.17843462119293135 -0.13675325649407802
3997000.0 0.9953176481343747 -0.03327148842503307 0.010870191705138522 -0.009677064163450487 0.005334036966443759 -0.003337548769847636 0.09155239688107274 -0.2294976837102513
4996000.0 0.9949186892867137 -0.04082286513717165 0.011592812895394596 -0.0035185865843080674 -0.0009898172709279479 -0.0036349703548684887 -0.055068395672938586 -0.1924958274223332
5995000.0 0.9974536966538711 -0.04918681522895439 0.007071896092578784 0.0005843802519977177 -0.0015881074011573845 0.0016043190326082708 -0.1300381406308081 -0.09063419947509975
6994000.0 0.993045466174444 -0.05966643677664421 0.009954110440405199 -0.003709753296004498 0.0013441348617677467 -0.0014690655365505656 -0.14537544205034308 -0.026560865567735892
7993000.0 0.998465621831262 -0.06609172934158454 0.006250851516988337 0.006084259139473318 -0.0009498855804012839 -0.0007882283206823489 -0.16801492281042585 0.027217457509779403
8992000.0 0.9932782108380029 -0.07547301801932749 0.0069077775543173224 0.0037216418008816743 0.0016925371775459018 0.0032178324669138625 -0.14983420671035222 0.060013607321085495
9991000.0 0.9925363706035499 -0.08515149187590687 0.001890241074584926 0.002759699098154004 0.0009116260864194233 0.005514276883087084 -0.13769046891834474 0.09568212860323679
10990000.0 0.9913642720766314 -0.09449368769907673 0.0058241733566462015 0.0011865647901958482 0.001996457782630012 -0.0011644857597996024 -0.13229529408906293 0.11273607400867015
11989000.0 0.9904659108471779 -0.10357954803275798 0.0055281313266089165 -0.005171289028304756 0.0018952887192361422 -0.00017853589901256267 -0.1256477295997753 0.1293533440442177
12988000.0 0.9883427140890584 -0.11288987605216702 0.002507911252287967 -0.0004852243232736821 -0.0036433599064319986 -0.003144635128389909 -0.11574859924657105 0.16587378184166626
13987000.0 0.987589616060166 -0.1194405259706015 -0.0026907039474895846 -0.002830623549991056 -0.0002740866168735356 -0.0029227830377834786 -0.09256590340205693 0.19635664112476833
14986000.0 0.9874267538929851 -0.12560544970805304 0.0020219689027832525 -0.006287099481332986 -0.0005624718237316775 0.0015858944975829761 -0.08941197243225261 0.20404533656367674
15985000.0 0.9888097652122803 -0.13652509123906606 -0.0010522692691329687 -0.004669786044278514 -0.002468673209029459 0.0022598270021221075 -0.062312710968532976 0.2122347790053319
16984000.0 0.9865471540489893 -0.14449365688098492 -0.003091373843491157 -0.0027102423151959517 0.0018052469228200538 0.0011817295503408244 -0.06408741082517888 0.21591572563638048
17983000.0 0.9852535340617865 -0.15244801925823862 -0.00611442503131987 -0.009680564152923577 -0.0014231325780547967 0.0018849547816006376 -0.051918233129953854 0.22694694893722137
18982000.0 0.9826672665362082 -0.1591127776743805 -0.0036178726974398726 -0.007596732385731324 -0.000401831285543302 -0.005470262387527185 -0.025000777065517007 0.24259518061892807
19981000.0 0.9816178320777277 -0.16766939786681984 -0.004479476674912662 -0.00387451482224722 0.0037192470303723984 0.0006818972745150794 -0.0214045968720018 0.23310415475007537
20980000.0 0.9798343228245485 -0.177128936520712 -0.0076734140360965545 -0.0034753459325851843 0.0012969762279614917 0.002642888501129546 0.0001770814890974821 0.24506605025517061
21979000.0 0.9790760658729941 -0.1862169359340348 -0.0042051850160803724 -0.0032318361973548595 0.005442838541143706 0.001120691669813624 0.018094504668731554 0.24993486740949783
22978000.0 0.9760363081550808 -0.19830515135265692 -0.009956742748995625 -0.0030417650247714784 4.209849233210701e-05 0.0008577859704941109 0.02467465814623521 0.2543989320535297
23977000.0 0.976818293561045 -0.20413868008167432 -0.006219617352075582 -0.004275773214175458 -0.0024150296571748774 -0.00042996260982763776 0.04748320016989585 0.2580352461945182
24976000.0 0.9756179221471504 -0.21147721778781936 -0.0027672995555320704 -0.005043881347102845 -0.0042880540271729994 -0.0014505871711294775 0.06901536062141163 0.24827277248000135
25975000.0 0.9680898815196234 -0.22074851596629494 -0.00739807415036309 -9.539575123892567e-05 -0.024938368837024143 -0.013186959930118203 0.08848341339282796 0.25374374406592554
26974000.0 0.9710384916481603 -0.22933546734568966 -0.007306275943951774 -0.0050057973163155165 0.004197614018795916 -0.0009403828297603055 0.08974075777525256 0.2727003885112991
27973000.0 0.9681736040739888 -0.2364089383491733 -0.005672747570419873 -0.0016126190474180285 -0.0015136416157988163 0.0034087158075618374 0.1020751576417632 0.2696973033929134
28972000.0 0.9638090008049456 -0.2475338317409808 -0.0002174950877287452 -0.0015289828950939464 0.0020583554847096626 -0.0033662468835582533 0.11407988635597832 0.25468273197256047
29971000.0 0.9634481847602425 -0.25634084080027814 -0.002488088220735044 -0.001821029567590687 0.002628774627183885 4.15203081223047e-06 0.15465263311651714 0.2599653845574983
30970000.0 0.9606766751665905 -0.2623582855026027 -0.0004490682221619631 0.0007347062321937209 0.0025633240010958687 -0.00019080659037587301 0.16987295404633548 0.24933968888159702
31969000.0 0.9572317445159496 -0.27217570902075705 0.003597434160798002 -0.0041976564167668096 0.0008588329368604252 -0.0003725741724055719 0.14475236144433745 0.2553485134718585
32968000.0 0.9564760938707778 -0.27996742647440104 0.008376700379538226 -0.007103025062974518 0.0006569091992192877 0.0004352518935203777 0.1629896608934438 0.2449984784092346
33967000.0 0.9549539343289274 -0.28887156517508356 0.009156800815444201 -0.009921538448364771 0.000606770615124202 -3.163320256880206e-06 0.1873105907551243 0.23956469873286076
34966000.0 0.9507692144344022 -0.300088775781084 0.013724717927688458 -0.01053872392917601 -0.0018153580475140229 -0.0003869895510877191 0.1950703226269597 0.25039849645557755
35965000.0 0.9486134844797883 -0.30681012549150716 0.017679473144324158 -0.015864968774917925 0.0016788428736972793 0.001396033052021284 0.21105280612605387 0.24791828575625138
36964000.0 0.9465697041487997 -0.3151855559343635 0.015936610488770778 -0.015638649053201534 -0.003627200169561402 0.0020498672904443686 0.21935654375162297 0.24659552700595017
37963000.0 0.9441518829385367 -0.3248903487141711 0.021585541097415457 -0.021935137319191517 -0.0015186297852406072 0.00023975326231162643 0.23249128743078035 0.23440467430232334
38962000.0 0.9397733090607558 -0.3336705336975336 0.023218144017642887 -0.022927173754651788 0.0016964459679047782 0.0013699318116167758 0.2436795146052877 0.23409426086884613
39961000.0 0.9363520807987418 -0.3429733443197396 0.024992089610313805 -0.02807479606711409 0.006400919478378123 -6.849761202579569e-06 0.24820368178206942 0.2254696114930463
40960000.0 0.9339264825008067 -0.350508995989647 0.021147104726292724 -0.025052631948464174 -0.0008720318251664967 0.0013532736556017737 0.2666485917785354 0.22944450187250942
41959000.0 0.9310491353528358 -0.359418287437822 0.029762743210994983 -0.030262270613362313 0.0038656797463807726 -2.5644332814280194e-05 0.269149841393782 0.20613015961450665
42958000.0 0.925668228859191 -0.3690565923550052 0.029120309411102906 -0.0415003208707069 0.00158439480208589 0.002694270237823818 0.28301827882578495 0.19513348440103823
43957000.0 0.923037184833096 -0.3747889446813939 0.03432938604117463 -0.04799803549027818 0.0010900890618014748 3.7192804013953484e-05 0.2900891863338879 0.19712286357026895
44956000.0 0.9218017800802414 -0.3801169308237904 0.035374922909098536 -0.05164176026575136 -0.0003051025985703532 0.002062776319839264 0.3037895783788163 0.18914036221922867
45955000.0 0.9157215726303084 -0.39376767681524455 0.03217633683125554 -0.05848538991347829 0.0005411412924669309 -0.001169863723034106 0.30569928389844003 0.18634688994716536
46954000.0 0.9119682991809985 -0.40187699386866715 0.03486139866647686 -0.06872533446595197 -0.002638357111088068 -0.0023924402726862425 0.3214886227828713 0.17692095649236314
47953000.0 0.9095515603145575 -0.4080752574542518 0.0368997774012825 -0.07452238603926876 -0.0015724449671165694 0.0009905172125156485 0.33176284594453864 0.17204729199781188
48952000.0 0.9028782190993094 -0.421868484091973 0.03322983878544875 -0.08012491891030583 0.0025664459382704384 0.0017108583718225092 0.3378152808112264 0.15807207608060397
49951000.0 0.8988932988386831 -0.42482168603298714 0.03684426070998085 -0.0885514696060148 0.0017950133441971047 -0.0013872117484559905 0.35289703482920687 0.14904992891562732
50950000.0 0.8965960280815354 -0.4347831166885562 0.036289118897843024 -0.09313650667036107 0.003917047452668497 0.003937988727604897 0.34954633988854666 0.1396307976003883
51949000.0 0.8934183509211383 -0.4431185562830265 0.03696029463366762 -0.10375372582149751 0.00019205342810048575 -0.0016879494262577455 0.3588400103100682 0.13896997152503907
52948000.0 0.8884601245826729 -0.4529273778836309 0.039892431504672594 -0.11381852164654488 -0.0009532270779923061 -0.000585840693027763 0.37472037605452146 0.14609470657610432
53947000.0 0.8837689215220866 -0.45910659077896904 0.04044725516934728 -0.12396905274666621 -0.0004910066454539284 0.0010369434413197668 0.3672381284842617 0.12821594959823424
54946000.0 0.8787545492112883 -0.46898195005081555 0.04367715321219031 -0.13080721507443255 -0.0007716870288799742 0.004927407337202233 0.38966645080521267 0.11992141942901105
55945000.0 0.8749126596197764 -0.47697499817291183 0.043963598878572194 -0.13846822780769605 1.907304665423816e-06 0.0032839042576984358 0.3871957294799177 0.10052225243578843
56944000.0 0.8695475394406639 -0.48581649850708764 0.04333991314412855 -0.15277529453632022 -0.0023888658082834666 0.0001940742115536704 0.40331733948152787 0.09831413980375353
57943000.0 0.8659277222915757 -0.493997480172646 0.04445849500461761 -0.1629715992669103 0.0008090116689092648 0.002831890099455423 0.4025813316891306 0.07773711175272899
58942000.0 0.8581108372921012 -0.5013604816934107 0.044697571747400903 -0.17622937848124515 0.0023757621712941204 3.0610981180723e-05 0.4153215103626214 0.0863919729437927
59941000.0 0.8590766475442693 -0.507177870932969 0.04688586929191761 -0.1854106516987393 0.0038124385311228016 0.002071258983543637 0.41991603055980714 0.0782143014806441
60940000.0 0.8502363321474371 -0.5147034318260109 0.04839862093626908 -0.18568804906408848 -0.00036901532199434605 -0.0011565852280754796 0.4089911563269952 0.07634110117929525
61939000.0 0.8469247510787346 -0.5236101680823468 0.04941648673070602 -0.195301805445838 0.000524568892807044 0.0044024953402823945 0.4104048063453209 0.06499326791029698
62938000.0 0.839720207500836 -0.5345697990269866 0.04984573660965023 -0.21223040618931435 0.002591743947103001 -0.0012934463716578885 0.441555546682972 0.04677397819024777
63937000.0 0.8342216975379269 -0.5416223218193095 0.05006821520596065 -0.2324580495942862 0.003609117738481213 0.0009887657507196817 0.43273421200651285 0.030139385432753
64936000.0 0.8305407251871153 -0.5470464807817162 0.05217810716800736 -0.24587890627350273 -0.0012122528150338094 -0.005623149458350063 0.424106795633984 0.03954302824815177
65935000.0 0.8264506489874478 -0.5573870760012528 0.052255525031909805 -0.26017631547834913 -0.000541882446415517 0.001561112801679217 0.4437372958458012 0.0036976900216023163
66934000.0 0.8202212842229565 -0.5646465192557589 0.051081319513546664 -0.2704303037422303 0.0034576923962073474 0.0006822244220532513 0.43580136002107334 0.00947237958871958
67933000.0 0.819115285281135 -0.5719393250265318 0.05204207518611608 -0.2857596009680386 -0.0021692622262101803 0.004441176850198341 0.44857813674140273 -0.00375689268030904
68932000.0 0.804307850461179 -0.5789596507395982 0.045659325521681095 -0.2974503613057903 -0.002882104733359977 0.0020135749809838265 0.46392105400802863 -0.018406325242150974
69931000.0 0.8018044406684277 -0.5895232487742867 0.04697556345694964 -0.31639272573866495 0.0005349911006784406 0.003869384209834928 0.44987047487568044 -0.03486237461920464
70930000.0 0.7979126402911395 -0.5950638488402926 0.046395815590264185 -0.3260993219855022 0.0002415336060911939 -0.00091354553754511 0.44236256087228587 -0.04059961562026372
71929000.0 0.7917317012280003 -0.6039651368006405 0.04249176063100327 -0.3460616346252175 0.0012565004055546238 0.0035070465236921315 0.4429275235305183 -0.054660655978612076
72928000.0 0.7869416764233392 -0.6133693738539808 0.031721541781292724 -0.3613212305229321 -0.004082664985482759 0.000847920156626233 0.4550665787716301 -0.048843378340607826
73927000.0 0.781218866486465 -0.6185125006801422 0.029799211398118176 -0.3815195483599102 0.00013130454747553125 2.741569604598717e-05 0.45518322107396947 -0.05864501525804083
74926000.0 0.7760716322204123 -0.6294690728032195 0.017987511544657574 -0.3991945640146805 0.004703859486959348 -0.0019499753460601864 0.46578647282767843 -0.07252036020836089
75925000.0 0.7676103375114037 -0.633770441615597 0.01048589395213989 -0.42093970509885914 -0.00044104323467423036 -0.001314527125135534 0.47803577909178835 -0.0829318298249049
76924000.0 0.7602979305860417 -0.642711424786103 -0.006552271545859995 -0.44240943115597037 -0.001794715332924778 -0.0005021158508956901 0.4622469867691274 -0.09203240183686462
77923000.0 0.7547928935959923 -0.6507668924015642 -0.019117931820238437 -0.46558422010472683 -0.0011744012008369886 0.0009018651792660803 0.46020105003777095 -0.1015977349754072
78922000.0 0.7486256548470126 -0.6598185829641973 -0.032055247075374785 -0.49392958101180445 0.0007091506313609376 0.0014091790438909401 0.45970578002946955 -0.11778345741867564
79921000.0 0.7410214576924522 -0.6630677574270621 -0.05390652692080162 -0.5139434541000955 0.0032656116396903197 0.0014482599470119655 0.455592595806735 -0.12141061818507051
80920000.0 0.7337313750133987 -0.6748768436766426 -0.06642120588274453 -0.5451040891601181 0.000676667758039003 0.0013529328646412835 0.46853201419003143 -0.13147196777652706
81919000.0 0.7284624601270667 -0.678223678860169 -0.08313406667467857 -0.5727843428927942 -0.0007769799784088452 -0.0030535628002796647 0.45855878266431577 -0.147577328270371
82918000.0 0.7211004687185439 -0.6856574775519453 -0.09717636533257368 -0.5999187509061125 -0.0053222004954916165 0.0016490358910250529 0.46973132704898346 -0.15724959367133803
83917000.0 0.7117389111550247 -0.6945227303413904 -0.12272755261116645 -0.627195329426227 0.0008432301253264075 -0.0009608404867437733 0.4717736867745765 -0.16436678182383388
84916000.0 0.7083791123823565 -0.7009809678874205 -0.13309979908771266 -0.6672690927750292 0.0017955599627806093 0.0011639503605838596 0.4598527080315574 -0.1736592241749432
85915000.0 0.6987093783334353 -0.7084613129041729 -0.15131775998500255 -0.6949848865825221 -0.002967727837399914 -0.000501808472823673 0.45817994584428595 -0.18380263998954752
86914000.0 0.6925966577211343 -0.719387471663577 -0.1717489618581133 -0.7304021881139598 -0.0016605302214080357 0.0017623740951882435 0.44782570858782356 -0.17567094949881068
87913000.0 0.6844123766169883 -0.7239378671291382 -0.19199752114493676 -0.7581859900276446 0.0033861723126176945 0.0030190600284295994 0.4572796280333072 -0.19538422670655936
88912000.0 0.6771252773870056 -0.7300377440410672 -0.2074028225920241 -0.7918254148187347 0.0006632686736400432 -0.0010043856598059224 0.4553855564981047 -0.21933321530929023
89911000.0 0.6724592181265729 -0.739833864138158 -0.21972101103957048 -0.8286785376922399 0.0030423340426523155 -0.0017892372272616118 0.45418448582919174 -0.21735872312164672
90910000.0 0.6632930351392564 -0.7444006130490174 -0.23553414715853505 -0.8607898002110048 0.0015038105378436637 -9.717258304352737e-05 0.46493519775811676 -0.2281990022581625
91909000.0 0.6543325397278222 -0.7490412385345268 -0.25938090961608057 -0.8911769006076935 0.0031777055421843207 -0.0006300157387494818 0.4634816258054197 -0.23117714109696247
92908000.0 0.6474823420445145 -0.757953461213517 -0.2733417378059763 -0.9246174658474762 0.0010869414081311475 0.000511985448659313 0.4584869755695136 -0.2467751939663308
93907000.0 0.6416953198074226 -0.762803215065491 -0.2934461301156711 -0.9555296330502454 0.001245993313175431 0.000281092205888232 0.4598427066836465 -0.2620492132383874
94906000.0 0.6254732154072588 -0.7706242803715081 -0.30748686424313276 -0.9871801752845957 0.0004806860829935776 -0.000812984450626389 0.4507191121454519 -0.26326251509247495
95905000.0 0.6187242553234361 -0.7785372268809369 -0.3355773630862712 -1.021430774618165 -0.0008067455890570155 -8.474134545732601e-06 0.4543324068753304 -0.28337210187467154
96904000.0 0.6120065515380891 -0.7846568151105655 -0.34704174467959414 -1.060104717047209 -0.0037222965938817423 0.00040709979763858725 0.46285829217186614 -0.2843290924136034
97903000.0 0.6031376508661874 -0.7894331968980131 -0.37549869784904416 -1.0891991904581422 -0.0005730334964100971 0.0005273996910778572 0.4499529352394181 -0.3047096262188512
98902000.0 0.600022225284481 -0.79859287794574 -0.3923421003694953 -1.1299597786641136 -0.0006823431925555234 0.0010666704897151398 0.4465147365789937 -0.30698585195215733
99901000.0 0.587305296582526 -0.8032169882535549 -0.42165224431620557 -1.1588556980086464 0.0006933579254104942 0.002464751090052392 0.4615065278427601 -0.33080400923888403
100900000.0 0.5777623874500241 -0.8075189767411342 -0.44868658961738395 -1.184171061307665 0.0010950833684136836 -0.0005707350783373498 0.4578498568849086 -0.31691850706367514
101899000.0 0.5685895555789756 -0.8160804285231347 -0.48066609512272634 -1.2213420986867154 0.0019519561254023531 0.002371352810212819 0.4492220465481894 -0.34064353068135067
102898000.0 0.5601782246492543 -0.8199354395126544 -0.5157821997647658 -1.2589387545416255 -0.0014231762381157523 0.00012673806139710132 0.45494871333123 -0.3501060746234751
103897000.0 0.5521114717315571 -0.8279307698059145 -0.5565891025301811 -1.294296261809346 0.0029384112568500275 -0.0009151048248791177 0.45730368692900186 -0.35381614929528227
104896000.0 0.5434378668285669 -0.8376901297865559 -0.6006741273365855 -1.3256817223091035 -0.00013435119147809383 0.0004917559758912713 0.4376769484577668 -0.3574594108828265
105895000.0 0.5304535527892619 -0.8400546150211008 -0.6446526713603224 -1.3600565764073933 0.0022051274346252675 -0.0019843837400722133 0.43591344171270213 -0.36228609479275714
106894000.0 0.5221779945084509 -0.8469435941378458 -0.700269670847052 -1.3976571836282894 -6.955564280008496e-05 -0.0006310527876966133 0.43536106339780883 -0.36787138095009386
107893000.0 0.5135708439701816 -0.8529337568110171 -0.7491887814138383 -1.435251037346306 0.0009535488380438617 6.862231933825347e-05 0.42728311225779 -0.37958789750899175
108892000.0 0.50584134258729 -0.8546927969478203 -0.809285928932368 -1.4710541508241883 0.0010924117043893725 0.0016108100422809347 0.42081410332161395 -0.380246401891755
109891000.0 0.4925129942572098 -0.8642077790866023 -0.8695028322642342 -1.5054091939351488 0.0010465953735572819 -0.0012980146408929651 0.43743388196424565 -0.3860653181660979
110890000.0 0.4878155206814184 -0.8742398518206068 -0.9342970359026314 -1.5270094080599363 -0.0022621390497297262 0.0019267445437026387 0.418593727821028 -0.40002366699096087
111889000.0 0.47061047364919895 -0.8702204283494365 -0.9935190654156898 -1.5705123668266783 -0.005615659332773854 -0.00013999548869129662 0.4095890949089659 -0.40643064980960053
