! Created with skrf 1.9.0 (http://scikit-rf.org).
# Hz S RI R 50.0 
!freq ReS11 ImS11 ReS21 ImS21 ReS12 ImS12 ReS22 ImS22
1000000.0 0.981790171501223 -0.002128904692068805 -0.013875938245606196 -0.044858367153231556 -0.004481660345471891 0.0056911788485185365 0.3590242360128669 0.319123989741256
1999000.0 0.9919337473330355 -0.010156515006715734 0.006066467099354693 -0.027910656640870113 -0.00573409163744728 0.002099208178303706 0.26555793881144996 -0.046325698142329313
2998000.0 0.9985933693854592 -0.01725921147781461 0.010167642144089365 -0.011484240809027728 0.00418192817613575 0.003517608549489542 0.1825617157335729 -0.15374888861196404
3997000.0 0.9981247803303296 -0.028171420232947504 0.020155825337499753 -0.01171321913754724 0.0019608534608068495 -0.005438429627543396 0.09805698572877233 -0.22723614787253224
4996000.0 0.9992081551958361 -0.040643517909918436 0.014613232763451929 -0.0032906060574877626 0.0040881011997573845 -0.0006210277721054309 -0.04363229148525063 -0.20819003162434585
5995000.0 0.9990396537023576 -0.04727761480366113 0.004439976614730698 0.005506639977213377 -0.003137420362140642 0.0014026244449692447 -0.12166327519352467 -0.10756244353018707
6994000.0 0.9979313832670929 -0.06099422318930488 0.006224934286046999 0.0020149318215752455 0.0026049508193130588 -0.0016288800345821118 -0.1511217072913503 -0.021409651572070032
7993000.0 0.9985659392044803 -0.06821088121615344 0.007377995478340763 0.004724823888060089 -0.0016951571483929775 -0.0034032637100219238 -0.16570015685989858 0.04320145803205033
8992000.0 0.9969116108519733 -0.07140422308577965 0.007613993434959589 0.0074279698616036595 -0.0016950458117601745 -0.0007804303942276282 -0.16477592311863845 0.0504832033987597
9991000.0 0.998223956286558 -0.0822796938223634 0.007353997112293386 0.005023360475506465 0.0028220043378421643 0.005529168755907167 -0.16281387090160632 0.09735622559464324
10990000.0 0.9954511052973815 -0.09216438083241041 0.003230896512446124 0.0029140886175378173 0.00417911816939835 -0.0008452833117651046 -0.14500146397903388 0.11482402412795392
11989000.0 0.9937860587080977 -0.0970817406643779 0.0004182911847319865 -0.0022332923314737616 0.0021980553747175968 -0.00170799927803705 -0.12365767875155098 0.12846941305531917
12988000.0 0.9933427915739349 -0.10711488636087031 0.0017220008790145658 -0.003460486434285368 0.0013328734814359606 -0.0007953955936141348 -0.12220416295461232 0.1693823328023397
13987000.0 0.990773642803929 -0.11601332789396475 -0.00016542277284682403 -0.0055456252441816395 -0.003978411381775595 -0.00017736199602619605 -0.1034916864965599 0.18621949845034422
14986000.0 0.9918437388183219 -0.12382584029148552 -0.0058196827020938905 -0.007144345297075805 0.0002709939160293758 -0.0003225325902293652 -0.08138646202110121 0.2095355673134703
15985000.0 0.9913495673031093 -0.13434136483577133 -0.0027574577269813202 0.0013358300792806741 0.0013333106541695402 0.0037282013536393114 -0.07013027994261745 0.21929219122105126
16984000.0 0.9876673694403669 -0.1453882925401691 -0.003322985773049853 -0.005458532947625054 0.0030972384879186013 -0.00012085970880197493 -0.06639792726397753 0.21286151457707791
17983000.0 0.9914333020195197 -0.1479427091027862 -0.006369908326738652 -0.0036351060911540916 0.003668928032353935 -0.0009609510034374719 -0.061020520910674086 0.2277758219610457
18982000.0 0.9860188001854057 -0.16073178101089147 -0.0031621050970377525 -0.002706501793549723 -0.00042329583050237555 -0.00468411151566477 -0.023038443698455285 0.24162615912513097
19981000.0 0.9847645213616626 -0.16625664375397323 -0.005360150418802664 -0.003286909035828285 -0.0009642851442766803 0.001683059209919931 -0.0034204227686582904 0.2418875046750486
20980000.0 0.9838294237678472 -0.1772080952259963 -0.007456016875654643 -0.007686954699961044 0.0008808104387575073 0.006291892261319865 -0.012798601594528508 0.2633245995044605
21979000.0 0.9827421218439201 -0.1856770297336474 -0.009256527605748343 2.8788463919511652e-05 0.006421305645866787 0.0008858583503068246 0.00940304764591449 0.2538018041936831
22978000.0 0.9784183226533959 -0.193381478454156 -0.004570136668231546 -0.0005097173270416287 -0.00021147848853552564 0.00014404876566888572 0.029295297829976082 0.2442836939579533
23977000.0 0.9819185878701264 -0.19975251637247732 -0.00853274308282203 -0.0016539232553999606 0.001116347346105823 -0.00037160941390993547 0.033009606795170635 0.2626050462359553
24976000.0 0.97688304654317 -0.21215706266239348 -0.006019968424234518 -0.003527626256807738 -0.00015158007127208885 0.0031110354402012056 0.06586906773242769 0.25105183076054405
25975000.0 0.9756989667671957 -0.2174647890358961 -0.009323956590534676 4.213636207589029e-05 -0.019401861714376228 0.013423258490628196 0.07476089852029895 0.26142196534975315
26974000.0 0.9733904078132023 -0.22764904818436527 -0.007096552043705272 -0.00011781153244521986 -0.0007396906946951725 0.002351640968099802 0.08687721660345174 0.26058546137589284
27973000.0 0.9723128078456971 -0.2339603671398565 -0.004034856996462932 -0.0014764406955222165 -0.0007508498555050879 0.001448755016998039 0.09885703618871045 0.25934485103426286
28972000.0 0.967872441703721 -0.24447728852896997 -0.004984800759625583 0.0006584145651580113 -0.0019859462403572377 -0.0009603939066939939 0.11185283834547509 0.2554487317840138
29971000.0 0.9668665113923864 -0.2548336189142172 -0.0014135329956370495 -0.003086016444989454 -0.0001533190639951922 -0.002453584948037593 0.14159970334011585 0.2685864311222575
30970000.0 0.9653493561357233 -0.2595328389189783 -0.0003571583993409674 0.0008698442887949533 0.0013157715955442533 -0.003932657043890165 0.1603057887777054 0.261759717644556
31969000.0 0.9636038482888136 -0.2675755236881527 0.003894125688307603 -0.005668031786419589 -0.0012612098083362344 0.002336970453526633 0.15168580784739452 0.24595535622076478
32968000.0 0.9614714489499954 -0.27561663753844146 0.010968214599690305 -0.0075874176176839265 0.0008908996908557615 0.00022853578890429514 0.1652976294367552 0.24993558304609043
33967000.0 0.9578269376061374 -0.28580766455966267 0.007775831292013692 -0.011416095537014425 0.0015816741342875695 0.0012672608379594422 0.18838603727032507 0.24744622536337804
34966000.0 0.9543153384376738 -0.296132724538488 0.015312269175739857 -0.012711871370875613 0.00024604432137106545 -0.000441486391371299 0.18396041451302206 0.2595487247997899
35965000.0 0.9516205302378574 -0.302879803246798 0.01631950827146088 -0.014945355335612464 0.00013879486574164564 0.002195381839622383 0.21039835621678432 0.25167557506892707
36964000.0 0.9501968764548966 -0.3116740313795133 0.015744665240242425 -0.013004960592508611 0.00047692616409745076 -0.0023934723697589012 0.21037613347031767 0.25833900386135866
37963000.0 0.946723133126275 -0.32023361217019297 0.021734127773964513 -0.0188001547867294 -0.0013574331509409703 -0.0014027158410834565 0.2245787219244808 0.24118163963860664
38962000.0 0.9433700106595262 -0.33118714717398906 0.024255278136314205 -0.02643856322911739 -0.0031199317424618848 0.002816965171399666 0.24549540166732892 0.23382236122577504
39961000.0 0.9410037201108494 -0.33577296846313004 0.02532523896717117 -0.029130783081573262 0.002213988463998022 0.0039643867272610624 0.25427951534566107 0.22033019982874727
40960000.0 0.9378068706309554 -0.3446729740019873 0.02261775585161552 -0.024421797546591687 0.0009380906811602625 0.003976099073416089 0.2625318052541372 0.2325426845269568
41959000.0 0.9343753180054057 -0.35317636317043766 0.02741950741122525 -0.03140374144947961 0.0058941106760389324 0.001477285788601476 0.27261072815835474 0.22316200007611425
42958000.0 0.9307969811589557 -0.3629466146024434 0.03240794278661367 -0.040378133577340776 -0.0010304728621193546 0.0031352673718138533 0.27683054751512015 0.20783072620639806
43957000.0 0.9290464818625721 -0.37038073859850945 0.034946358370886124 -0.045858864034596374 0.00018023746178762098 0.0010550896266049421 0.28965968407387765 0.20791270283275481
44956000.0 0.9248527375486955 -0.37730184210216083 0.034318543220038744 -0.053203831769002626 0.00036660215679800264 -0.0027843381053406667 0.3048652803014122 0.18999488838319142
45955000.0 0.9210340758994454 -0.3881711731724223 0.035836786111158425 -0.05683329915844304 0.0008227262262502563 -0.0005017584648663257 0.30521635637519917 0.19730706937676462
46954000.0 0.9163335483167179 -0.39539040023032057 0.037569840754360276 -0.06494921660968676 -0.0011406793484765798 0.0020806958148559453 0.32154488229721073 0.1799330066815783
47953000.0 0.9144146793117724 -0.4023335256924886 0.03806468194794784 -0.07101679534069089 -0.002384654382812791 -0.0018819979424355773 0.34403333586345114 0.18235765861258987
48952000.0 0.9086686313185264 -0.4140665466355812 0.0349086242602092 -0.08040993853075336 0.0016059195204024563 -0.004248547421989114 0.331322965560056 0.16053342590404635
49951000.0 0.9066117540154052 -0.41719266543302325 0.03589763298605985 -0.08600563261251061 0.0027029950772792157 -0.0012460578474149297 0.3568917980105939 0.14916744393722592
50950000.0 0.903135011148374 -0.4286023014812521 0.03355713878615629 -0.09671890488346446 -0.0002969040610208635 -0.0011769050405781767 0.3474249497335897 0.14056378376954934
51949000.0 0.8991731034422593 -0.4364770486887207 0.04034857939947787 -0.10605941872617457 0.0034301566187754334 -0.0008047797917039699 0.35148617638411855 0.14053384190248375
52948000.0 0.8962463382388325 -0.4450244552937336 0.039703336830076826 -0.11311817513166249 -0.0021413663330659585 -0.0029126004909893924 0.3705172984450235 0.14347475498149978
53947000.0 0.8909986990660915 -0.4510839125390446 0.042833459554817904 -0.11874118856709233 -0.0030070633888588383 -0.0014959624866235114 0.3712538251739128 0.1324716694759216
54946000.0 0.8850416595764371 -0.46181747045579175 0.03996330876246839 -0.13162392989800759 0.0024625687941060787 0.0030359859695978397 0.38129054257538086 0.1231612271762979
55945000.0 0.8825378604615268 -0.467766320213406 0.045762037879150515 -0.1404099741925665 -0.0028955976254767474 0.0011653523824721092 0.3888332187916499 0.1052175502503498
56944000.0 0.8802115243762656 -0.4774600821725422 0.04253048976366944 -0.15206098314055586 -0.0006312699076169089 -0.0022419548288431994 0.3941845169113696 0.10682783560177657
57943000.0 0.8738970059845246 -0.48704776027437346 0.04751454077866231 -0.16559311562269982 0.00034860788633036264 -0.0001157486513972277 0.4003336060941332 0.09223935789036795
58942000.0 0.8674685123636201 -0.49364431986972945 0.04828595102638121 -0.17356672063067827 0.00022346169731999666 9.130243817180459e-05 0.42906515147054197 0.0797690655051872
59941000.0 0.8655316768829903 -0.49931114574793817 0.05004729778980439 -0.18327020544785405 -0.00036676286503067943 0.0022997905045787294 0.42793850414557244 0.08083600849955372
60940000.0 0.857279872061842 -0.50937799251502 0.04943064566243732 -0.18851948776546834 -0.0020740021389256767 0.0006218744503617422 0.4070138668658774 0.07845450701805365
61939000.0 0.855312075515336 -0.5148831686039547 0.04932491641481423 -0.20027562570595453 0.0002557855543595339 -0.0019281099793883613 0.42588044710534906 0.06844404985503126
62938000.0 0.8497747680648328 -0.525961028067061 0.05105808407932096 -0.21313951886208007 -0.0013145858930002907 -0.0003835330263140686 0.44407019708876655 0.053922290249896185
63937000.0 0.844482754723582 -0.5332206984208981 0.05213858756852156 -0.23430077719429274 0.0017661623287764851 -0.002761935652655728 0.4396062616999393 0.046721098877963815
64936000.0 0.8391953237612662 -0.5387475541385072 0.056313137644542544 -0.24828701331496747 0.003968611784119956 0.00391123570031828 0.4353885410183249 0.0429469837787755
65935000.0 0.8376837551305439 -0.5473791337276118 0.05516907389342786 -0.2613966793261756 -0.00010061477525973847 -0.003048999323876513 0.4466382734569925 0.011054509257169644
66934000.0 0.8311878757339645 -0.5550582297217649 0.05048416961144888 -0.274443466817198 -0.001558968104101121 0.0006826441513089791 0.44516879358226535 0.018418379014854384
67933000.0 0.828636517416422 -0.5609732992469284 0.056427574745697644 -0.2872461983325083 0.0008012770758518449 -0.004181048648159731 0.45337140692459277 0.016131960335168245
68932000.0 0.8164065882778943 -0.5557478987566655 0.0521596130801243 -0.299385003674569 0.0004643553858926055 -0.002692426555101834 0.4464378670486094 -0.016268495976524956
69931000.0 0.8148986425034669 -0.5774031679649904 0.052469712418779305 -0.3176382184392341 0.0043501985053091856 -0.0005693179603084151 0.44849182696751044 -0.008291038450923967
70930000.0 0.8084535845048597 -0.5877503238129638 0.045130988124644625 -0.3279351120028674 0.004995714562083849 0.00045315470115996916 0.45348497827492 -0.03350744140165476
71929000.0 0.8066177480240591 -0.5940188568358715 0.04550509996163878 -0.34704807979917024 -0.0009465674573045611 -0.0005702972311707096 0.45247579215109146 -0.04216861820183658
72928000.0 0.7986416489690208 -0.6033870971416635 0.03685466229994575 -0.3671938213621887 0.0024156120950572088 0.0029341800134302124 0.4668823200017689 -0.04560648280678839
73927000.0 0.7939186462944084 -0.6099449100165145 0.0315222070738655 -0.3822557531867852 0.0004606976930050811 0.0015884488453393128 0.4551334723729783 -0.05114050436665047
74926000.0 0.7853913993859317 -0.6175418652938501 0.021455332040570894 -0.4026436523479992 0.0003606723349324807 0.0006789986557102691 0.46748518000126066 -0.0626189747814424
75925000.0 0.7812220443309122 -0.6229161143977816 0.016136880885170225 -0.424913144130548 0.002628401394706601 0.0009258940713091288 0.482694703527202 -0.07520799715978697
76924000.0 0.7751631864716404 -0.630951060756009 0.0034793402750335394 -0.4447869373149469 0.000869411222550004 -0.00019888319341037204 0.4658487337240803 -0.09128431983462941
77923000.0 0.7673480001645493 -0.6402670988060114 -0.01162537803728221 -0.4694275916880582 0.0010369680824635578 0.002496813462165697 0.46037629599866625 -0.09529179372615683
78922000.0 0.7626287303872975 -0.6477897878647507 -0.027180746862885713 -0.4975259968340707 0.001560163141294623 0.0014314471046970945 0.4530986570865001 -0.11241444716498956
79921000.0 0.7542375167295626 -0.6525333876045138 -0.03907573132999183 -0.5200960106438679 0.003913956263656901 -0.0035382434580142896 0.46527598273323567 -0.11569302563517722
80920000.0 0.7491597667899772 -0.6624562405443749 -0.059781059419441916 -0.5504559879980407 -0.0018491464625161418 -0.004012255326716389 0.4754629988596649 -0.13515528289850254
81919000.0 0.7451179183406407 -0.6683031888549614 -0.07418539452845786 -0.574729995186137 -0.0009282811305665625 -0.0005390408557382866 0.4697834355810611 -0.13319986487476243
82918000.0 0.7337829645014355 -0.6765593084257175 -0.09062877482717822 -0.604280947921846 -0.000995372781546091 -0.0006636472884795037 0.4795523051098357 -0.14177805051503242
83917000.0 0.7255621351995105 -0.6841298733184563 -0.1092393559666979 -0.6346519060910327 0.002424544549614793 -0.0009114114104141986 0.4692009072984008 -0.1539559486455703
84916000.0 0.7209822144849468 -0.6920464414541716 -0.12674339790681255 -0.6709211921060739 0.0007946014561048741 -0.005207031831228997 0.46534530979560135 -0.1678669541518992
85915000.0 0.7163386576334492 -0.6972456752321294 -0.14771358085098102 -0.6963883065561776 0.002649404257466348 0.001126923267506795 0.46689070770817337 -0.18165937858740192
86914000.0 0.7092039193420852 -0.7070640613344912 -0.15936130005461016 -0.735744292982898 -0.0002994823506550104 0.0020484659150659915 0.4644804097860291 -0.1771989508970143
87913000.0 0.7020223965175111 -0.7130771754346162 -0.17977482290015873 -0.7674908608812332 -0.0027853463479625565 0.0031101760694841134 0.46081757796964545 -0.1851999967499723
88912000.0 0.6920774098912049 -0.7214107196869762 -0.19552907087633786 -0.803472309627554 -0.0022391843277102578 0.0007915039649254827 0.4649981580013622 -0.20926744571562053
89911000.0 0.6872041606990709 -0.7306260360587251 -0.2129895909078867 -0.8390366784461161 0.002236758410466323 0.0024135719500790044 0.4780642106355626 -0.2093237494179685
90910000.0 0.6788578454566168 -0.7366236188766963 -0.232778590873336 -0.8733974020364521 0.005991638758147002 0.0003890529205097109 0.45866249272847026 -0.20814064473116722
91909000.0 0.6703608700310822 -0.739660445326888 -0.2512447809559392 -0.9050230989910713 0.0012853719711640671 0.0033830384108883248 0.4695765449861041 -0.22953590345937896
92908000.0 0.6624538888768486 -0.7488613206975907 -0.2687884944663376 -0.9349984844974454 -0.0003393636764573167 -0.0026768795519414718 0.4572578396951267 -0.23551571281412598
93907000.0 0.6565901948386256 -0.7528443382810127 -0.290560272691572 -0.9673030558916885 -0.00463097922023631 -0.0030351635068212555 0.46660462410590187 -0.25912519146734847
94906000.0 0.6431543648465168 -0.7618788953290893 -0.3050564855487403 -1.0001174083684632 0.002958123588786502 0.0004118312705294076 0.4594474700815404 -0.261451874004896
95905000.0 0.6361166593159424 -0.7698952016876877 -0.3308941557401616 -1.0402491188657677 -0.0023015087302857592 0.0018464147583136443 0.4618537827333574 -0.2589339884543716
96904000.0 0.6305925027768547 -0.7755281509852638 -0.3462984097782113 -1.075675582603362 0.0025761636025975116 -0.00011565382490781979 0.45225957047503834 -0.2712391587192635
97903000.0 0.6202075015355795 -0.7810516882991767 -0.3693854360296766 -1.107732859064028 0.006134881472874145 -0.0035443564536718885 0.44757064159600535 -0.2827767688041932
98902000.0 0.6155828256148655 -0.7890519632939379 -0.3915106639360203 -1.1461962048643228 0.0030425017801715307 -0.0005224352708202887 0.4506652632047506 -0.2928561319395461
99901000.0 0.6038273324241041 -0.7924637440776647 -0.41853369851982064 -1.1733633247972768 0.0034788287940588883 0.001394421969178189 0.45757621857608993 -0.3212595671472001
100900000.0 0.5964643747080756 -0.7979920570263243 -0.45213208592653825 -1.2074314129886292 -0.0015766531314248917 0.0013248018629848325 0.45400548275527525 -0.32083799390993184
101899000.0 0.5872658920357422 -0.8056033803873118 -0.4760262191399222 -1.2445531861898673 -0.0013922987629887895 -0.001179929723788619 0.448899741001653 -0.3258860798325833
102898000.0 0.5765788463148729 -0.8120529912753294 -0.5177427859231105 -1.2787180022090783 0.0002583666406800734 0.0018035130579811987 0.4517332435546272 -0.34079046368790294
103897000.0 0.5695245422630346 -0.8190089844049826 -0.5533408369636283 -1.3218995424454125 3.811406829413173e-05 -0.0007953629123295355 0.4644086744868691 -0.3381021324131944
104896000.0 0.5630571766872886 -0.828792504571524 -0.5973544133803724 -1.3501501767359034 0.0006111482900802592 0.0021410494387848625 0.44190761350423596 -0.344129948775155
105895000.0 0.550343672900231 -0.8294169010164211 -0.6444825603711873 -1.3896002645845311 -0.003889494241503202 0.0061163733278318975 0.44742337380647706 -0.3773549513119306
106894000.0 0.539416268543378 -0.8376596729082392 -0.7024247282707854 -1.424768006686602 0.001305804388172446 0.002315046437078441 0.43085631425110854 -0.38010337618330897
107893000.0 0.5330842549599695 -0.8448282995726257 -0.7509582027940549 -1.4652594207188443 -1.604591218663956e-05 0.001971292510577286 0.4315462115398281 -0.3919533645468832
108892000.0 0.5255863848923553 -0.8463833301204514 -0.8037573081801138 -1.497805341406906 -0.0015118699066785273 -8.395293879472548e-05 0.42702406771908863 -0.3810748551369445
109891000.0 0.5124646957321414 -0.8560425497539033 -0.8632818898739688 -1.5310079501804128 -0.001381654697806127 0.0013510285963776857 0.4495907954420163 -0.3730440267834549
110890000.0 0.5042723806764395 -0.8713250460946913 -0.9454385757860029 -1.5529215229417535 0.000360399127558634 0.0023912976507285697 0.43410621432781327 -0.3846609550071007
111889000.0 0.49007053113560806 -0.8623295241364888 -0.9955149077712833 -1.6004803285904934 -0.00037158556269472834 -0.00199796074857787 0.4163025630937797 -0.41786901191946446
