! Created with skrf 1.9.0 (http://scikit-rf.org).
# Hz S RI R 50.0 
!freq ReS11 ImS11 ReS21 ImS21 ReS12 ImS12 ReS22 ImS22
1000000.0 0.981501894005433 -0.004149681168159371 -0.008869512755891701 -0.04212366239689368 -0.018980042177189935 0.004805984544137776 0.3363270344168518 0.3374982274862578
1999000.0 0.9944032879470197 -0.015753214924156614 0.0031599229145127254 -0.02567053217335467 -0.0070228520243124475 -0.002363911317099385 0.2575151277424699 -0.048866496315874836
2998000.0 0.9989709380322165 -0.021002858773833007 0.01268872724532958 -0.01385860186251235 -0.006358687999599676 -0.005053773097236072 0.1851654957998934 -0.1391353887448469
3997000.0 0.9958852388294493 -0.030070761896744454 0.010426415107630703 -0.0060653211029400795 -0.005615065418153416 -0.0028086010590786313 0.0964789809113931 -0.21682930657671495
4996000.0 0.9999716580559179 -0.035594220495163906 0.010613304127653418 -0.0024578485361052924 0.0037791623813319716 -0.005158281702633665 -0.04328737993748597 -0.20260055901736235
5995000.0 0.9944810992523175 -0.04933323773017745 0.006708273430449494 -0.002415332111351438 -0.001078196960807541 -0.002722901988578616 -0.11424187539733033 -0.10116957484194965
6994000.0 0.9948332188045544 -0.05661491659429868 0.007348655163475993 0.004919651169830806 0.004666010493878524 -0.004662268390131085 -0.1470955254337744 -0.037682938804209906
7993000.0 0.9952727862821114 -0.06834642250098186 -6.482275476762427e-05 0.0025337220071362954 0.0028826899385105465 -0.004954924401129654 -0.15535544507641072 0.03405003091511564
8992000.0 0.9952025542859798 -0.07101201173429356 -0.00022720991417618725 0.005206852907793733 -0.0043765351985694916 0.0016874038297284696 -0.14695715438041457 0.06470198799744095
9991000.0 0.9926857158291635 -0.08145313146774066 0.0026830339474340596 0.004822958062778112 -8.24830582390947e-05 0.0009051888912318169 -0.13772070561732105 0.08848273151026242
10990000.0 0.9923443285411583 -0.09476460008989458 0.004665351138828309 0.006795390947806712 -0.003944937641061584 0.0022106404518906883 -0.12311245490339867 0.09082375194352318
11989000.0 0.9925430686613327 -0.10061162816168474 0.004102157682014706 -0.002646318706880888 0.002628206359317497 0.0008957028753683151 -0.11721371917765454 0.13839078382804956
12988000.0 0.9893347506110189 -0.10966241705540312 0.0002561365895803006 -0.001706688183869324 0.003078345912414251 0.0004453835130743753 -0.1083552076032617 0.1774685327551171
13987000.0 0.9888843638164848 -0.11683991237700446 -0.0013778499009115613 -0.008475166426369337 0.0001911769789108961 -0.004014601630032487 -0.09314868006652356 0.1814628047164334
14986000.0 0.9880086218936829 -0.12431087139806246 -0.0018445077507656424 -0.006866213234859917 0.0010266633629570658 -0.0005254729893740387 -0.07462472242675314 0.2036429046811601
15985000.0 0.9897166856654083 -0.13252644595128674 0.0019117565927120163 -0.004638278448899132 -0.00015874044088453303 0.00369748246549308 -0.0646227445131719 0.2119343457800677
16984000.0 0.9853775600078395 -0.14058293961216178 -0.006540006391873157 -0.008433612227655376 0.0025482748409898707 -0.0022794017756810774 -0.05349857013565763 0.2305074104592955
17983000.0 0.9861952736453983 -0.14798100729984887 -0.0010786191859832508 -0.00870126844696386 0.0004935651472479572 0.0006704989671961489 -0.05025386088701915 0.21918997047298522
18982000.0 0.9849560139595454 -0.15852868899326678 0.0015146827876555 -0.004407068587823449 0.002381069039779908 0.0005542311650589374 -0.02361846921799841 0.23499723859485766
19981000.0 0.9833008336672467 -0.16288208373328672 -0.0020782560709958213 -0.009735226735293277 0.0028479083172181716 -0.002831729614355785 -0.0045267620865073 0.2347752552582462
20980000.0 0.9815792923052711 -0.17448089915656434 -0.004111153204688821 -0.004909562081487191 0.002210256917911691 0.0033871204892686525 -0.002709280847012076 0.26432977725557444
21979000.0 0.9795746538314859 -0.1830129042879886 -0.004162922539292473 -0.006313248798578328 0.004988033262875224 0.001593461859019642 0.018132161087594835 0.24179146048993028
22978000.0 0.9791518778634688 -0.1917177916585797 -0.004934907218742636 -0.0027715448158746824 0.0018427493133558869 0.0009596076936203708 0.026469944511289773 0.26224425543538454
23977000.0 0.9789662001740196 -0.1972683376567088 -0.007508357837412085 -0.0005763973322262263 0.00033433629300669824 -0.0020174981338250447 0.03688708176342866 0.251759787605543
24976000.0 0.9737238340308091 -0.21020787788363543 -0.006715006387435033 -0.004102957925595472 0.0021215368010177003 0.0008402230236244319 0.058528163195638826 0.2567724505715219
25975000.0 0.96444956287472 -0.22159086853875953 -0.009595965820770958 0.0005233395786146678 -3.4210592390791416e-05 -0.028057319343301086 0.07805180666575279 0.25411896073054435
26974000.0 0.9709674265529279 -0.22515509794180655 -0.005769508233079788 0.000890533025173432 -6.212340999912645e-05 0.0013192614316557734 0.09070747664154058 0.26141909585851675
27973000.0 0.9693543288822988 -0.234353018668734 -0.007938969497931644 -0.0021046567272149106 -0.005333570464982414 0.0018074132814515005 0.10744583079393634 0.2466120958245982
28972000.0 0.9662375810857696 -0.24211394010779472 -0.0007673808493820829 -0.004483993157340635 -0.0013994960284421296 -0.0022749655965035396 0.1180190766792869 0.2535088869936686
29971000.0 0.9662289987013103 -0.25192495554959127 -0.000361985927155322 -0.005474372237075818 0.0006408311886592015 -0.00012745788218715615 0.15078577571665522 0.2707957475986773
30970000.0 0.9636347079361107 -0.2557047670085298 0.002279167813726095 -0.0031958077362343015 0.00204057816965899 0.0005796399773447028 0.1744954545655187 0.2517617883674427
31969000.0 0.95914501747434 -0.2654772413506441 0.0003838778278382128 -0.004705261699724917 -0.0011257963978513333 -0.001382955164958345 0.1607586715732911 0.24800989164545578
32968000.0 0.9581652531375887 -0.2756205426665083 0.008608131181348446 -0.007343218846663676 -0.0015470232895243394 -0.0019230968953407653 0.1643750527445626 0.23926847166357346
33967000.0 0.9565325707122907 -0.28374127172573355 0.009574528900054776 -0.007722088751012634 -0.002205948668928999 0.0011011296384397151 0.17986777751089364 0.2401431183758795
34966000.0 0.955503498792298 -0.2909530138350124 0.016236625680927624 -0.011065126232331988 0.0002588818792771471 0.00010170637375195623 0.1945092683576053 0.24376008978704672
35965000.0 0.9507094971340095 -0.29865174273591444 0.015575736200240588 -0.01361620711360234 0.0032049402773741804 0.0008356175194368017 0.2168995762095987 0.24433264461814444
36964000.0 0.9501164801107276 -0.3095995344699364 0.017593360860716275 -0.01487088885287684 0.001263512391493028 -0.0012942328602471695 0.21930514082922226 0.2454848802979014
37963000.0 0.9461541391177297 -0.31798684609019284 0.022311334882468243 -0.02141108482100699 -0.002314817603108072 0.002116999107992491 0.23037462479379428 0.22939174587617248
38962000.0 0.9436369231327597 -0.32753627032977306 0.027485322988618405 -0.022033652149185907 0.00012074973221625047 0.0007127500920601159 0.24693034529399804 0.22531016686778008
39961000.0 0.9396706150929452 -0.33611557028921757 0.02823409456083793 -0.0288928624746608 -0.00033982079081993407 -0.0007437520098638488 0.2553786693862269 0.22669999114362627
40960000.0 0.9363657555584155 -0.3421167241418018 0.021788133297944552 -0.02330996783011508 0.0027778465124558235 0.00025464298855656394 0.2695182541232806 0.21599277983844442
41959000.0 0.933989035531429 -0.35172124604446525 0.031919004960283985 -0.032241367264515416 0.0025414068580008934 -0.0030271179824555945 0.27129876343588244 0.2111172396564551
42958000.0 0.9275269633830489 -0.36322452060319416 0.03273024525276196 -0.04346141597444857 0.001961066669953051 -0.0009417103680533899 0.28135320783014467 0.19454596739507968
43957000.0 0.9288196472830706 -0.3665455442001064 0.03433854438296267 -0.049257107734816334 0.0010980751000785086 0.0012631708523741247 0.28628606696587056 0.19892516743040106
44956000.0 0.9250156794477628 -0.3742173345340831 0.03408144244075978 -0.0545649495267537 -0.0008608023801610281 0.00052035830596437 0.3002339086118983 0.18682456848236606
45955000.0 0.9195015513837351 -0.3843322481134055 0.03285093522875734 -0.05987835375205292 -0.0036060462424928833 -0.0018561954336499583 0.30736752159898095 0.18971031097728974
46954000.0 0.9182122329062407 -0.3934206466383478 0.03697662606899828 -0.06950944264323716 -0.0006192686968118043 0.0034665647690112484 0.3200513063444926 0.16899578761668516
47953000.0 0.9139204661912277 -0.40121278602981875 0.03542418703066243 -0.07098065724735612 -0.0016549573716498583 0.0019112500262450736 0.3433419294980193 0.16212334401491096
48952000.0 0.9089773969742686 -0.4101232330835245 0.03777031978051871 -0.08041184615768597 0.0005476336499510892 0.0007514503026050676 0.33834116825451727 0.15595068339115553
49951000.0 0.9046891949624208 -0.41757284918831483 0.039190223802541176 -0.08954708713222746 -0.002035011788001596 0.0009592545075706173 0.35584684097522695 0.14340537965484962
50950000.0 0.9024714763601493 -0.42561028968568454 0.04048177201014896 -0.09872498342708558 -0.002416465481613459 0.00045183653355459477 0.35065995990977983 0.1305411439396469
51949000.0 0.8964197190339457 -0.43404455463938474 0.0388009090206716 -0.10502292154886744 -0.002827364742663662 0.005148415311233395 0.36117742643680345 0.1312354443299805
52948000.0 0.8966086222792095 -0.4400580510336992 0.04533405609508728 -0.11412291231552708 0.0003689409400919421 0.002899122250380807 0.37329153716696173 0.12847380539443368
53947000.0 0.8911034782580559 -0.44903192634978034 0.04425088657360802 -0.12259195371267104 0.000648163244155238 -0.0008724163325839089 0.3743701587092551 0.11542398129287164
54946000.0 0.8856005807258917 -0.46005136396163787 0.04413809306289815 -0.1338928004396836 0.0008950149206592323 0.00474250529449334 0.3879929226642806 0.10362208306239361
55945000.0 0.8819260810003227 -0.4660235035590075 0.0493216835387039 -0.14425205668366722 -0.0019269772292227145 0.002447932328814902 0.3962869945169895 0.08984720560891973
56944000.0 0.8780857516614864 -0.4749402624636941 0.047636426429766704 -0.15427246479813378 -0.0020013568729908182 0.002217516575571063 0.3985218034887997 0.1014639469419287
57943000.0 0.8724603676805723 -0.48498417519407827 0.04867802368884767 -0.16564258892566844 -0.0015141450443963524 -0.0016010640879833536 0.4075978406196663 0.06946264118211405
58942000.0 0.8683564706528528 -0.4883049847915964 0.05021658077587585 -0.1769072986899917 -0.0008781790978473782 0.0015451666147781491 0.4256978613411166 0.07456162563282435
59941000.0 0.8649904269081503 -0.4999466191657423 0.05460234389435822 -0.18899228731946244 -0.0015269795975301934 -0.001497398542648726 0.4248863548916179 0.07200374101200642
60940000.0 0.8567505705432377 -0.5062853043796914 0.05179102840144427 -0.19134645975248876 -0.0023164653411033775 -0.00021226129668185844 0.4035286977459189 0.06675610711869616
61939000.0 0.85419778719747 -0.5120269951945364 0.05206215739250383 -0.19940114652949756 -0.0021032146808413997 -0.0003795137536232518 0.41296702844411415 0.05147939326641534
62938000.0 0.8486920070566721 -0.5220785053563474 0.057258962161785255 -0.21640552867474352 -0.00022908471458073245 -0.00400163773182699 0.44537148121592524 0.04168631644188218
63937000.0 0.8431852095457127 -0.5299785692576184 0.056425343187272776 -0.23761752515353005 -0.0003067108501814808 -0.0005525644730535553 0.4348918859764549 0.030556778901614016
64936000.0 0.8397394190201083 -0.5345770634780086 0.05565376367126468 -0.2544450999466546 0.006346387658609679 -0.0004474629360100717 0.4356691071845754 0.03072122094505606
65935000.0 0.8345568446268291 -0.5463471634267999 0.05550761719610103 -0.265786672087242 0.0013352132756690182 3.546608625391814e-05 0.444813836176046 -0.0015938090349153753
66934000.0 0.8309904061459749 -0.5509698375241133 0.05530202158145111 -0.2814689241514323 0.002205713889798001 -0.0013739767621587244 0.4398070587472137 -0.002468697862224259
67933000.0 0.8264427642379418 -0.5605054830523513 0.054840704631827684 -0.29389948866148885 -0.0007944603165712795 -0.004342175325363251 0.45294054436970227 -0.0032432022196825757
68932000.0 0.8218645531522897 -0.5646968129047544 0.050416396572546464 -0.30865236544411856 -0.002029327980321504 -0.004153789564997756 0.4614383509105962 -0.02359031440887302
69931000.0 0.8122862618784429 -0.5758801011673745 0.053250216071164216 -0.32623923776304764 0.0024664456914196948 -0.0019847151058217964 0.4521068305253124 -0.030178295872471297
70930000.0 0.8066737224370818 -0.5829410878009047 0.051065329240145306 -0.34026674565639753 -0.0025592274384994332 -0.0042719480732485065 0.45094021408873713 -0.05427903152197825
71929000.0 0.8040496201803702 -0.5931816517364664 0.039128480921441916 -0.35682279916169923 0.003988161961937645 -0.002438678778161173 0.45007981770910177 -0.05867603462941034
72928000.0 0.7971771125354389 -0.6002369996773441 0.0393121755446042 -0.3749098893467472 -0.00372195033876323 -0.0015053770737527116 0.454494628142897 -0.0560070744447501
73927000.0 0.7923584654240645 -0.6060374094532628 0.03162739431578703 -0.3927203831085854 0.0016421714448789078 0.0012807490797671181 0.4533513072345213 -0.07211125358333961
74926000.0 0.7836157408352262 -0.6144078101393727 0.01964186966425139 -0.4150622381549771 0.00033157796304874985 -0.0001072961982431898 0.452690742870096 -0.09065550243488078
75925000.0 0.7808460995893586 -0.6194812376094094 0.013798789900259094 -0.43397551302815285 0.0036889430692885385 -0.006293394440081445 0.47236892161044397 -0.08978457521526872
76924000.0 0.772499752147935 -0.6280864304826038 0.0005711740434425972 -0.45593389437638004 -0.00019157829469168593 -0.0020843422191566875 0.4587084675732978 -0.10988181158206649
77923000.0 0.7690267936261923 -0.634769542211201 -0.016522304157087723 -0.4812891520650561 0.001112641107070989 0.0008762084692473842 0.4560927528825584 -0.11087395077749107
78922000.0 0.7627194820480973 -0.646503777703025 -0.026775313851480582 -0.5116551622830016 0.00503490947577029 0.0002801563228359889 0.46361618484474165 -0.1258030471610541
79921000.0 0.7534402981722924 -0.6477245030590144 -0.048413486337743124 -0.5320210206805602 0.0023769650820290532 -0.005661168988054906 0.45159923914899486 -0.13015580105799726
80920000.0 0.7490766342899923 -0.6589606573330287 -0.060200360700921475 -0.5629292383152336 -0.0025238669398472764 0.0021332054527508464 0.45709345581264643 -0.15002982444584895
81919000.0 0.7441352964210135 -0.6632694829474746 -0.0761846508354305 -0.5922979517895394 0.0029157481975061192 -0.0006662599043044824 0.4597379954390096 -0.14716985844499933
82918000.0 0.7349941170176805 -0.6725256992995883 -0.09043246186454079 -0.6236121265258705 0.002556820448438848 0.002239299060542152 0.46763252964171254 -0.16065405122465123
83917000.0 0.727377387808421 -0.6795213435132099 -0.11172658616771033 -0.6517805247138865 -0.0011349534860054774 0.0005000644182543032 0.464446140241448 -0.17717149729801693
84916000.0 0.7219984475970921 -0.6879201382343658 -0.12926719983905066 -0.6878860989377318 0.0021796865700341723 0.0012081646994150522 0.46513765594152584 -0.18228906304335082
85915000.0 0.7164806001783706 -0.6930851356861161 -0.148450550367814 -0.7140072537702213 -0.000945871440483372 0.004283013281765761 0.46590457218350645 -0.197090304085472
86914000.0 0.7073764770834252 -0.7031134943130037 -0.16208219186756628 -0.7545106404096668 -0.00021746977326289607 0.0024284573541162183 0.45459513646535 -0.1944984537908974
87913000.0 0.7015923172009894 -0.7089517969330118 -0.18658299238140108 -0.7865869808094984 0.004046463145906668 -0.0012090992098744888 0.4618998590630477 -0.2022093133921794
88912000.0 0.6931424144403361 -0.7148331936087057 -0.1993120397763866 -0.8225446021038471 0.004278300608358163 0.0007165599825772925 0.4699151268626227 -0.2322292972789722
89911000.0 0.6873288280883277 -0.7237212194759292 -0.2167289651681316 -0.8590868326136484 0.0002312307184951771 0.0007393986915116932 0.46619192270069004 -0.2238567691038934
90910000.0 0.6817708177375732 -0.7292640120604065 -0.2338021897211372 -0.8934388259229623 -0.00048773597573748765 -0.002283434945707979 0.45406919568547405 -0.22994620244645628
91909000.0 0.6702306656361012 -0.7348589068426595 -0.2555216950398169 -0.9255920608005337 0.0009158703274695714 0.0010704976046632614 0.46128496248060563 -0.25100844463536726
92908000.0 0.6636792408219928 -0.744014181065753 -0.27514864421592633 -0.9565577270667659 0.0004177229843914698 0.002215693711958195 0.4503290690601934 -0.24938742026088562
93907000.0 0.6579001303319383 -0.7488768834289243 -0.2902355942449591 -0.9867097813472183 -0.0028598466555424897 0.0021169273051482983 0.45958682131058975 -0.2638347868773715
94906000.0 0.6441790889906189 -0.758121794128896 -0.3140758253607987 -1.0258350225143091 0.00017675783653509116 -0.0009132552854615374 0.45969589543900263 -0.2681951528692
95905000.0 0.6402572632053196 -0.7623859863204688 -0.3349275085805719 -1.0595762058129705 -0.002728944435366975 0.0007518495761624287 0.45369011554882743 -0.28927910191766626
96904000.0 0.6300899752848942 -0.7746335649805536 -0.3614474102743868 -1.0975893746979966 -0.0008300798543403748 -0.002625865551988194 0.44564109094169696 -0.3011067739013757
97903000.0 0.6223786590359548 -0.7750608481987763 -0.3821993236915261 -1.1306324001945725 0.0012679983600899997 0.005174766879513421 0.4449884605385176 -0.3035546382326585
98902000.0 0.617831041584494 -0.7845064980862932 -0.40356076187933276 -1.1709510808195076 0.003165802144447772 -0.005130185291966547 0.4451445586012073 -0.3096111301693406
99901000.0 0.6089479378618272 -0.790371615747193 -0.4326817317542033 -1.203424441619491 0.003202453161109229 0.00014128205183428974 0.4531708753816504 -0.3377011438458993
100900000.0 0.5983650099264218 -0.7928889157616932 -0.46449304023306376 -1.2325475148484317 -0.00027798586348582545 -0.003819644507379979 0.45629019429500806 -0.33003859574786676
101899000.0 0.5887489233864487 -0.8016086594943305 -0.49586430027822537 -1.2675526491781657 -0.0005738075971477124 0.00025583838883476515 0.4342389067682217 -0.3399207526317563
102898000.0 0.5813150523983174 -0.8055691587716982 -0.5299840481198327 -1.3100110799712783 -5.31996874582847e-05 0.003602065886249076 0.4399632710016937 -0.35158779368671245
103897000.0 0.5735582098951215 -0.8128570895396705 -0.5687313381767379 -1.343281827108406 -0.001794580427061834 -0.001458567952481668 0.4469399674578763 -0.35591779307271576
104896000.0 0.5657988053748991 -0.8249814529923306 -0.6157643510957158 -1.3788709448021856 0.0014602718350359037 -0.002101412949374985 0.42416782667146996 -0.3520244402805036
105895000.0 0.5540140603091871 -0.8248293459738981 -0.6671115256846002 -1.4197287586365803 -0.0007901259381140322 0.0008768111561159682 0.42314033320701866 -0.37403888915252276
106894000.0 0.5445288195873448 -0.8303993319504855 -0.7187586563676935 -1.4565500547943788 -0.0006281325393548486 -0.004080459030332817 0.4168479089492568 -0.3776484069576252
107893000.0 0.5366106434864812 -0.8386382604806583 -0.7736190095037092 -1.4931037703838606 -0.0002641380980723792 0.0027190135798285647 0.4259453278300263 -0.3922495784379779
108892000.0 0.528365308180976 -0.8435455300295428 -0.8319922639768783 -1.537177858663931 0.0028258311685583873 0.0031975952800978326 0.42071865177246687 -0.3889497551198069
109891000.0 0.5178088206260233 -0.8488551500767882 -0.8899533363218131 -1.573355673193342 -4.8822788834551426e-05 0.00028106504824831354 0.4329061545325266 -0.39033641909109656
110890000.0 0.5036757713771968 -0.8514606749155159 -0.9487430860703838 -1.570665632155248 -0.004262732313807369 -0.00020126333007151689 0.4161588364010095 -0.41374353294566174
111889000.0 0.49493224684278636 -0.8570123504151801 -1.0230913123722831 -1.6428542216059099 -0.0017763485711194487 -0.0008743521506726523 0.4109917739910608 -0.41439381277316484
