! Created with skrf 1.9.0 (http://scikit-rf.org).
# Hz S RI R 50.0 
!freq ReS11 ImS11 ReS21 ImS21 ReS12 ImS12 ReS22 ImS22
1000000.0 0.9825416164220255 0.0002468825546422194 -0.009804341293918354 -0.06734666765176484 -0.012410982752721851 -0.0005463018364208035 0.3544243828061278 0.36367466677993304
1999000.0 0.9959728409043493 -0.012135591616383357 5.3777193275699593e-05 -0.02354213857878345 0.00031729067560948624 0.004309277356538133 0.2513578238169048 -0.030021434038364353
2998000.0 0.9989406030244317 -0.01926433965322937 0.009666518634442857 -0.013080501967236157 -0.005790777458673131 -0.0027030196117348386 0.19710220635001127 -0.13245141858416457
3997000.0 0.999068194498271 -0.03139188289932707 0.01268400133385728 -0.006068897211982316 -0.003436976891720498 -0.002121948281245164 0.08964254318953283 -0.2173734027514929
4996000.0 0.9972488377647689 -0.03640146783878087 0.015145517967936482 -0.001323672257703231 -0.0036157777581152166 -0.0012714099449506035 -0.03457455386788378 -0.21379688920993872
5995000.0 0.9981835259478007 -0.047256025141523286 0.009217227253711496 0.002324120042325275 -0.001245290897106999 0.0026420361255823973 -0.1281820657621587 -0.11350271935925421
6994000.0 0.9939458320860187 -0.06112999562932975 0.00894235963863746 0.0006103907871550368 -0.006863873523305438 0.0008972345192682831 -0.14636917826941662 -0.016648560728955895
7993000.0 0.9964015568837894 -0.06913750447159912 0.004396204338404512 0.006621921875369215 0.006674090260598034 -0.0016536721998904316 -0.16123627779700875 0.05230682699233268
8992000.0 0.9911738552780125 -0.0718814103685481 0.0005233300629860378 0.00886757664641107 0.0019898284303303316 0.004001294116401484 -0.14691141806267866 0.06604799744445593
9991000.0 0.9901018664996057 -0.08506091633903844 0.0063747666050454396 0.0016158436028890423 0.0012880904070134928 0.0012191915724199434 -0.15113390541373975 0.08847577401549402
10990000.0 0.9918302002099975 -0.09194922214133418 0.007535971523404471 -0.0008199327584094403 -0.0015129050467496468 -0.00044471126292061587 -0.13877742738931864 0.1164998356745725
11989000.0 0.9893013530353426 -0.10099271945264421 0.0019334146213844312 -0.002662676611892044 0.0017302659244185818 -0.002422982047662737 -0.12697514790058334 0.1536525606705758
12988000.0 0.988476815333205 -0.11058305814511014 0.0009608852618409925 -0.001629534170209624 -0.0038933391672967676 -0.0017212843700251611 -0.11998822597249126 0.17723352185739122
13987000.0 0.9857684214525877 -0.11873303165873197 0.0005011149483431874 -0.002629183694128656 -0.004096158575476103 -0.001935331444211452 -0.09413317641616585 0.2043357448425581
14986000.0 0.9864301255852227 -0.1258243949435952 0.0008136802455830141 -0.005779832296742611 -0.0017197350720913967 5.3640780464205716e-06 -0.09412639437948082 0.21424735058608882
15985000.0 0.9896665501137616 -0.1330630629849073 0.000906874923244675 -0.0035676434582843286 -0.0017092376001414688 0.0028873080699264894 -0.07794757995147396 0.21868494785089482
16984000.0 0.9857287969115253 -0.14255255523615495 -0.0036152850318571833 -0.006154358721185287 0.004580942342238053 0.0023822293524324092 -0.06340697322039503 0.23439812593249995
17983000.0 0.9868714295405919 -0.14888618500891415 -0.004758433678487297 -0.005507737454875445 -0.0007018146161222458 0.003795017536376635 -0.04781439035087211 0.22770174202448348
18982000.0 0.9812209109125274 -0.1635617587273686 -0.0006724948531259137 -0.002709731646176085 0.00023146274000976369 0.0012348107242533862 -0.021579444031571034 0.2441312126859208
19981000.0 0.9817758764472951 -0.16630944824376462 -0.005356796724502562 -0.005446331404354551 -0.005911342657000904 -0.00016805547362716073 -0.0024759793041721004 0.2388857516698242
20980000.0 0.9819594163392374 -0.1768624453316879 -0.005572670974448201 -0.006658715564757406 0.0030522227399565776 9.525446133699307e-05 0.0012710277019294686 0.2624885196847042
21979000.0 0.9779078528093441 -0.18557755557938085 -0.00863944535692303 -0.004646630322388592 9.081643155187425e-05 0.002223098372208523 0.00853269529779698 0.24097407215216113
22978000.0 0.9757919494185768 -0.19764466531352043 -0.00833849208827162 -0.0018083866691699548 -0.0004071414972651827 -0.0008967834749808145 0.03178617240611596 0.2700616714400966
23977000.0 0.978961986137142 -0.20173842173324882 -0.011221434904788467 -0.004153578279037851 0.002472975180430624 -0.00020126988185796744 0.0350491199727178 0.26251187719786706
24976000.0 0.9737721102521196 -0.2124593116978723 -0.0060639630349211895 -0.003703216447375091 0.0017439104069476461 -0.0016866754870275714 0.0686244692483115 0.2585816300061502
25975000.0 0.9680886550352542 -0.2258059006160656 -0.004550803384058615 0.0008702069296671108 0.012951179537724084 -0.024300096562393268 0.07563308067611513 0.26787739830252616
26974000.0 0.9685364796228455 -0.23078691380532249 -0.0032643747144429475 -0.0058607168197162985 -0.0017836855228710684 -0.0020293962119803427 0.09118640952957585 0.27069152091854387
27973000.0 0.9694981056955007 -0.2355014134433925 -0.0019191749342800514 -0.0018199585598664499 0.0025979354829029667 0.0012636049693926226 0.1120120014178439 0.2645261285003222
28972000.0 0.9642417853306574 -0.24648342869723788 -0.00021795989418442 -0.0038486839858123084 -0.0023208702304099516 0.0008804049454636539 0.12404535684975962 0.25630527283108284
29971000.0 0.9643498223220693 -0.25380881340960815 -0.0009864715641746025 -0.0038582791578079096 -3.510388301289517e-05 -0.0013872005316298928 0.16374823659362694 0.28292921244805663
30970000.0 0.9602688215244825 -0.2602930154460195 0.0006504068676996334 -0.0017979758297244019 -0.001248330951178926 -0.0034374877999534367 0.1806208625346842 0.25308240141745675
31969000.0 0.9601291445370379 -0.2684524182561515 0.0044737206292732685 -0.00578230557227952 -0.00013207453087367673 0.0007379967552608197 0.15403350625075368 0.2489040101486897
32968000.0 0.9578230440515104 -0.27833057119349686 0.009964017942929067 -0.006982627960638287 0.003403670672169241 0.0037044423629225207 0.1735665626383356 0.24399842917099435
33967000.0 0.9555055702460868 -0.28845088142819086 0.011537272737512932 -0.010049196594765218 -0.0012671581140600665 0.0052338467062067965 0.19938048377900908 0.24524121697840334
34966000.0 0.9523662061491672 -0.29685980760797176 0.01102329548271712 -0.010647212747978144 0.0009743466066682037 -0.001177913390947805 0.2056422495644013 0.25985110682676055
35965000.0 0.9495182697682841 -0.3053517655970635 0.018085489700626657 -0.014474579183469451 -0.00153985336745692 0.00046571431557617315 0.21508101081103828 0.2438841691223562
36964000.0 0.9452060684397343 -0.31573078400862387 0.01922635452051651 -0.01396258620963231 0.0008323360952369627 -0.0011719095774652094 0.22438401461551738 0.2576058960602867
37963000.0 0.9436070280948649 -0.3232689908883574 0.024833801818419043 -0.02359228288261836 -0.0030675695419724114 -0.001287774869168976 0.23747957301597444 0.23856460265754112
38962000.0 0.9418170825427727 -0.33137175098613936 0.023507433496854246 -0.025268703845685775 -0.0011661837692992095 -0.002103438483726845 0.24509640371134597 0.23836096290450945
39961000.0 0.9366486744878488 -0.3407032207143864 0.027612004561777963 -0.027488175161337156 -0.0034149521118514267 -0.0030118546308647563 0.2615397188703322 0.22463741273044344
40960000.0 0.9345644019897216 -0.34727714779926705 0.02289673757695376 -0.023098575811121205 0.005226643396414471 0.0024558714548845993 0.27367588123564834 0.2311007907621505
41959000.0 0.9307269326651719 -0.35797570800220596 0.028219675384959928 -0.02962312251295408 0.0016978107131966926 0.000517294519877737 0.278653397519538 0.21745897142177958
42958000.0 0.9250627336879553 -0.36705234671197384 0.030907627346241532 -0.04037650419582982 0.0025518701097123984 0.0009765742928550957 0.28842341692673057 0.20389054521558703
43957000.0 0.9257833506406441 -0.3719577881407812 0.03438752585440137 -0.04323778573820446 -0.0016744651228317903 0.0009237961080887476 0.29645618293697956 0.20869881723535497
44956000.0 0.9217935317556355 -0.37931786889556374 0.03437291090920319 -0.05175285154383264 0.0032151807859398755 -0.0011126219040730077 0.3113767124655092 0.19748661391388442
45955000.0 0.9176360101489157 -0.39144084850457167 0.0337486062303877 -0.0595065283255227 -0.000272571722122415 0.0018706253065280658 0.3066034221317937 0.1898828274543886
46954000.0 0.9125185955347173 -0.39959393913365 0.032416130468480464 -0.0667460473620008 0.0007713159284077119 0.0018012000774554585 0.3391280650667405 0.17033932706538618
47953000.0 0.9118574034449639 -0.4066233871232795 0.03550581865373047 -0.0730668754587084 -0.00011702943238006687 -0.001886753049867894 0.3456617180062974 0.1818603904590962
48952000.0 0.9055454705928366 -0.41660859478987955 0.03724740883750836 -0.07764250411483072 -0.00025411652017050387 0.0014758940352550495 0.33996084917854297 0.17004191260334608
49951000.0 0.9004924004736155 -0.4241944771673316 0.03875498748951267 -0.08518847449689258 0.0018355056074056198 0.0005932492879747321 0.3575782702707214 0.16176860033763946
50950000.0 0.8967575758236392 -0.4327494433305606 0.040614165565409734 -0.09677838384063606 -0.0014467158623334842 -0.0018118127912598156 0.3572836078907752 0.14216022359489602
51949000.0 0.8943258283439086 -0.4403383076022135 0.0396563957171856 -0.1043415258788752 -0.0024801084012472828 -0.006107247818007932 0.37064394097260994 0.13381516261355594
52948000.0 0.89061085362341 -0.4491558338240539 0.038107248010754415 -0.11082215700701216 -0.001871727049833965 -0.00028856907336172037 0.3835503445392624 0.1317658502868368
53947000.0 0.8870162887035253 -0.4545467076237866 0.042414755990810016 -0.12063527009515104 -0.0020658524941971406 -0.0024828905393350412 0.3768883428481754 0.12788084404693376
54946000.0 0.8798837358935255 -0.46746975216804426 0.04626457774797589 -0.13194482437099034 -0.0005633915679306581 -0.001618704691400082 0.39367403251543726 0.12129601676491471
55945000.0 0.8771126114272042 -0.47346119723304686 0.045236651963218584 -0.13780639649710977 0.002721960358115068 -0.0035522286881548167 0.3930937443171008 0.09502446132113444
56944000.0 0.8724562712897326 -0.48194068026699777 0.04719962893128097 -0.150767606479772 -0.0044283125910091125 -0.00151492016357634 0.40379324887325496 0.10523514625158076
57943000.0 0.868876943768455 -0.4910900760589539 0.04895098013539546 -0.16049438236285443 -0.0012273874008719413 0.0027242574927823586 0.4054962483515868 0.08945078626975968
58942000.0 0.8632681823871909 -0.49691550108938604 0.04870538639221108 -0.17396300361753766 0.001384270117173224 0.00038473370534725495 0.42476983138962054 0.08623340440730222
59941000.0 0.8603541636007987 -0.5056263933387675 0.04875239280806684 -0.1819194603241994 -0.00011869110573138337 0.0007420342998374816 0.42771577240099073 0.0846144227459711
60940000.0 0.8515090418256885 -0.5135889888822557 0.05121108853258983 -0.18505145891364178 -0.0029234629954331087 -0.0003835876507517897 0.41786655844394127 0.06654214981180144
61939000.0 0.8493353810687294 -0.5200471294842768 0.053735857385375396 -0.19019797392847956 0.0006028290735593439 0.0014712143178410761 0.4267678531536771 0.07106851192083208
62938000.0 0.844365868579215 -0.5311890980427477 0.056627083118658494 -0.20999043285805316 0.0023578021612124475 -0.0009137217645880562 0.44796933172024156 0.05751100326685523
63937000.0 0.8379113294051338 -0.5397070106998066 0.055553204904254964 -0.2294017682836727 -0.00022317347752781385 -5.047455395932054e-05 0.4506191207727624 0.02279265394035939
64936000.0 0.8338442752212777 -0.5420862633296497 0.05673190144393113 -0.2447696458655895 0.003514677011476215 -0.0016257648931812436 0.44544411518665217 0.03688317908939755
65935000.0 0.8286879954450479 -0.5556485565654501 0.0559185814231217 -0.25847525031651625 0.003222895371032056 0.002119164134223715 0.4435702212397457 0.01988790199714209
66934000.0 0.8238105221276932 -0.5588564728601589 0.0554745639389666 -0.2692996932750416 0.0011793858139449941 0.00226753251616494 0.4420942788524889 0.014514184046571484
67933000.0 0.8213840861786157 -0.5684894120584133 0.05801660680368611 -0.282684156754489 0.00015428703531966863 -0.003103894585855877 0.45661407834111656 0.00927672555930459
68932000.0 0.8025024686177789 -0.5729787171670261 0.0505337668591978 -0.2898524754888601 -0.00016622909132234424 -0.0012697145885588415 0.4579604702503629 -0.014340219332579491
69931000.0 0.8069745861341177 -0.5841434125441023 0.052445792281574324 -0.3124937953909612 -0.002471614424517957 0.0038330152466452268 0.457624281589895 -0.021132372017653476
70930000.0 0.8018635685670232 -0.5897602641319258 0.05006251828044415 -0.32543874676508666 -0.00254966971078926 0.0007095401555125777 0.44721099567448586 -0.03465331523945415
71929000.0 0.7970961350291919 -0.601410201382155 0.04645369163106117 -0.3457346668733211 -0.00137854681330091 -0.002509294095804218 0.46459453091744485 -0.03474516102782387
72928000.0 0.7888612215104244 -0.6091046474080469 0.0378540734884502 -0.3625932847162384 -0.0019018288565208438 0.0012077978775459988 0.46562536209712063 -0.04706369817402061
73927000.0 0.7846541372785696 -0.6161873495915214 0.03525566795136489 -0.3791649035875229 -8.069755674517256e-05 0.00263723705112308 0.460213592511122 -0.06111564016163909
74926000.0 0.7767902707752907 -0.6242582563962213 0.026050659807296275 -0.3999506018988547 -0.0029012092375822946 -6.0536880917020764e-05 0.4645602366396422 -0.0713424727726734
75925000.0 0.7722050926131309 -0.6309493117789622 0.017655635673173284 -0.41788780971833356 0.000637328167802357 -0.003484840609461169 0.48597852028473815 -0.08485075878185405
76924000.0 0.7666744510017133 -0.6366573647113661 0.006201771091720845 -0.44332733289840803 0.0034557988951965093 -0.0010314260557396178 0.4740136993324385 -0.0803869417578288
77923000.0 0.7583336286001671 -0.6433022661798292 -0.007707688635047326 -0.4659431753453903 5.242910905876267e-05 0.004593132427585699 0.4749077014948907 -0.09301771405941886
78922000.0 0.7531595376728853 -0.6543858183345398 -0.02077459250878734 -0.4944499268961255 -0.0002373672126721317 -0.0017495715183293487 0.4689292985663973 -0.10471771496755754
79921000.0 0.7458618106369419 -0.6572532661876871 -0.03823356389481621 -0.5158284236027916 -0.0020130537393264775 -0.001676247199366396 0.4689509075229761 -0.10576139848913252
80920000.0 0.7411329366935283 -0.668939548105826 -0.056608466097250384 -0.5433167397532643 -0.00020080222741444186 -0.0018361968608094283 0.4773908652555929 -0.13594394248555672
81919000.0 0.7349106550154338 -0.6726707242698957 -0.07052095116697152 -0.5704530142610394 0.0008578044479946875 -0.0010972769084281002 0.4676621262322574 -0.12542815867230217
82918000.0 0.7240660997561291 -0.6824586583090196 -0.0809545471879258 -0.6035144662844445 -0.0017294780776275817 -0.0014403904273514192 0.47218365966551606 -0.1474550616387246
83917000.0 0.716826989500438 -0.6892735045174295 -0.10385259592762683 -0.63172981894485 0.0008078475457603241 0.0017168615667004202 0.47971384530448063 -0.15197358661355861
84916000.0 0.713217839011753 -0.6962872897342053 -0.11731036396645783 -0.672914305663104 0.0008299902329892829 -0.001279546268697774 0.4763762716947816 -0.18039052923914725
85915000.0 0.7065053269201885 -0.7011042597826642 -0.13497483391543205 -0.6952695047206526 -0.0009134129940082374 0.0028959242490743616 0.4710081142552971 -0.1696771378314387
86914000.0 0.6976111226572086 -0.7126977267951323 -0.15225183190886368 -0.7339932826187139 -0.0015862409033187135 -0.0016567259577668942 0.47272771397886093 -0.1710071424160997
87913000.0 0.6911936361133616 -0.7186488171536846 -0.17233713147572804 -0.7622261791389204 0.0015746145501294212 -0.0020471788294676944 0.46996244514786173 -0.18471698324637892
88912000.0 0.684584324633551 -0.7250929285567641 -0.18635848805757627 -0.7948608846344714 -0.0007028604674686262 -0.0007309681417173967 0.4675306551269644 -0.205877769226188
89911000.0 0.6757182464939546 -0.7334444307438263 -0.20313865235501974 -0.8313901492899627 2.1211588168083313e-05 0.0018708301224011194 0.47092610409576197 -0.20809144413499459
90910000.0 0.6692987402271438 -0.7401533876726893 -0.22083897037436087 -0.8671496514892871 0.002631749261246772 -0.0005538101298667881 0.47209092358405447 -0.22499903508582964
91909000.0 0.660383171362924 -0.7426292907168737 -0.2323472067232951 -0.8980538792978306 -0.00017478939079052606 0.0017701724637618694 0.48270333869043697 -0.2190445652877635
92908000.0 0.6513210762966185 -0.7523172595367028 -0.2560977107786986 -0.9289091574583115 -0.0011094317418407743 -0.0036561923488646147 0.46496349550787597 -0.23316259349882298
93907000.0 0.6478754643779102 -0.7577801743441875 -0.2779000938320522 -0.9639019794279586 0.0017161971213623933 -0.0018458792343562013 0.4728673915986041 -0.2529859679660759
94906000.0 0.6315663691611755 -0.7685209769385412 -0.2901231775638127 -0.9917020896913934 -0.0003646061679647029 0.0038389297563699845 0.4650885866820844 -0.2410346062042986
95905000.0 0.6260337253307253 -0.774125601306102 -0.3130135739379888 -1.0297174205181572 0.0038488970730342935 -0.0005356954649911176 0.47238558623740345 -0.27077072040592687
96904000.0 0.617686984438463 -0.7813152689019446 -0.3282848182434059 -1.07188063971456 -0.002193238379753108 0.0014111342986328269 0.46183809810041415 -0.28359325679570063
97903000.0 0.6079139615272682 -0.7869476391197976 -0.3530576277391167 -1.0975618453787592 -0.002084543682337763 -0.007279183471085593 0.45031609693765945 -0.29046193301675954
98902000.0 0.6042576389092126 -0.7946125549152012 -0.3670218565043755 -1.1390071123382335 0.004007370609054173 -0.0033667567283349694 0.4547088043760525 -0.291045578650322
99901000.0 0.5924490769082584 -0.8006734804472748 -0.40034833746532 -1.1653470560244077 -0.0014455359263646503 0.00028387240861536996 0.4599287139561411 -0.3215877240686437
100900000.0 0.5872808905636647 -0.8027561718453176 -0.42990828514387386 -1.201864785536898 -3.2969602265226476e-05 0.001004151287728255 0.46318218724134075 -0.3093807843989792
101899000.0 0.5747038653818584 -0.8118951088657642 -0.4600338611833924 -1.2334229231069527 -0.0019069340850871345 0.002341675758667902 0.4504434056473964 -0.31969575564554353
102898000.0 0.5665536827581534 -0.8172347161092545 -0.49483205415903103 -1.2706981732389302 -0.0018963463465575662 0.0010929644340040396 0.45839424898691034 -0.3422579866368738
103897000.0 0.557761020312988 -0.8250105282361037 -0.533188073968904 -1.3089833483575453 -0.0004521540354165238 -0.0009435787498357268 0.46342995081726823 -0.3424919139228024
104896000.0 0.5476912235945164 -0.8336738899752957 -0.5748412277869969 -1.335789951474534 0.0010402997323403517 0.0025724832056580253 0.4383240544012897 -0.340217949404812
105895000.0 0.5399210933270441 -0.8356910769880993 -0.6169017970165812 -1.3839158475018318 -0.002465040352055681 -0.0029809752578203673 0.4340404801747743 -0.35616020023951495
106894000.0 0.5310802184014575 -0.8425469346378636 -0.6717612481707985 -1.422875966816859 0.0008482665615687211 -0.0039020768162307345 0.43241128105763643 -0.3640885474690102
107893000.0 0.5213643048765387 -0.849907213055992 -0.7245292563153398 -1.4603139856548457 0.0021275353783490867 0.002996925368702565 0.45183370218807234 -0.3832523120700256
108892000.0 0.5101620201668166 -0.8539787337476927 -0.7830259114324312 -1.4980083454124715 0.00015168635272938191 -0.0009364799996768471 0.43037855935376396 -0.3689697310262438
109891000.0 0.4994886643361438 -0.8614548976961562 -0.8404436716225053 -1.5313885411709476 -0.0026029178541708948 0.0014831818747673478 0.44616176412602104 -0.37540888297555863
110890000.0 0.47807089828781985 -0.8699138357080413 -0.9238577353508473 -1.5276832062415309 0.0017309665132528805 -0.0034970464264286174 0.43034519609935523 -0.38664331530262813
111889000.0 0.4766435442454971 -0.8670540049443811 -0.9664186656785477 -1.5964128636189623 -0.001070863512097869 0.0012236368017338388 0.4226434890339339 -0.4047280368089453
