! Created with skrf 1.9.0 (http://scikit-rf.org).
# Hz S RI R 50.0 
!freq ReS11 ImS11 ReS21 ImS21 ReS12 ImS12 ReS22 ImS22
1000000.0 0.976040640093904 -0.0033478975281450996 -0.012905338745389863 -0.04985340605802916 -0.029586870902108556 0.0033645026198328397 0.33398279840069767 0.34297946066847634
1999000.0 0.9998159520720138 -0.011454939309421538 0.006904736805569876 -0.02085285411174712 -0.006892621856365706 -0.000916025162126991 0.27029948799678777 -0.022510813777258203
2998000.0 0.9976761287071035 -0.022252870386017285 0.014967527128487411 -0.012424105273942 -0.0032377819574030547 -0.003160620538520125 0.1747011269457606 -0.12233516959926626
3997000.0 0.9973515278738441 -0.031992693302515064 0.010380906023015207 -0.0017259896848552125 0.002358361999659139 -0.0012167519272077397 0.10176235408338302 -0.20085817250340646
4996000.0 0.9955278340927355 -0.04198583523364734 0.010375415064406774 -0.002123636243541005 0.003947778454823462 0.0011900573740923936 -0.03232594016810241 -0.19942774610120895
5995000.0 0.9941323420454815 -0.052615596966733756 0.0072224322989820865 0.004496431464908625 0.00640402368241278 -0.0048337747648392 -0.12518852724290547 -0.11415775228495133
6994000.0 0.9951626042146784 -0.056093746787491516 0.008619284404858934 0.006383953197678972 0.004088349018088213 0.0024882923052360916 -0.1346999659058637 -0.007652230362395159
7993000.0 0.9971870188259219 -0.06559789843455748 0.003433125199123269 0.004390066403887852 0.00012312851292999407 0.001917256867339285 -0.16532475489593604 0.039289505362229686
8992000.0 0.9941467873703547 -0.07217522870412735 0.0017022693159944315 0.001466069837908089 0.00020560100123893105 -0.004839220038391884 -0.15571222393865164 0.05611962931603525
9991000.0 0.9894219638682433 -0.08421423834719834 0.005271490031701257 -0.0015576920841341743 0.000174694028329882 0.005562441774334889 -0.14762406097268835 0.08041377262566404
10990000.0 0.9919712511005758 -0.09364225334195249 0.005660811617926956 0.0038302488354861747 0.0010918248614920887 0.00392604637628337 -0.14416294978035457 0.11172291736088422
11989000.0 0.9906281005629828 -0.10263569449746393 0.002960372778811446 0.0006984868958836652 -0.0032768341609460067 -2.5098088722650973e-05 -0.1432088446013348 0.1433247120839625
12988000.0 0.9895587353706614 -0.10930318548247904 -0.00307077601274625 -0.005340744981286997 -0.0013594898531190235 0.0025619409826665436 -0.12297992602934686 0.16620619417704136
13987000.0 0.9873578498572042 -0.12022121119984865 -0.0031420168271117056 -0.008364648865472292 -0.006141225737331819 -0.0013910151283624708 -0.10552960898363527 0.1875625422832636
14986000.0 0.9878639409127322 -0.12613439914775848 -0.0023651516160704956 -0.00429373455228652 0.0012378977389605839 0.001047219479944999 -0.09311454178199657 0.19998558026922547
15985000.0 0.9880016861434673 -0.13509980768182336 -0.0018189437780225613 -0.003498818473498305 0.001641003756352223 0.0007170788427794345 -0.07624848399766995 0.21311756228585918
16984000.0 0.984836971406611 -0.14808330927776486 -0.0008169283184875334 -0.003712013649079584 0.0038915996531114533 -0.000731648829512367 -0.0701723594055058 0.21755291286598422
17983000.0 0.9846396006184206 -0.15170323020950277 -0.002816478977871166 -0.002744177539538904 -0.0047187855146106645 0.0010908968402193523 -0.06337358397664568 0.22818272431697154
18982000.0 0.9804953466461994 -0.16565876766760418 -0.0008582037161010946 -0.006367830321733711 -0.0002769924919732499 0.0004309702647845314 -0.016409937215576972 0.24416857094325392
19981000.0 0.982525776405663 -0.16672464705450465 -0.003655061151791921 -0.004371639431010008 0.001874910526374383 0.0027820893283628644 -0.015116124495743262 0.24317460060579765
20980000.0 0.9824618924780028 -0.17775708197858514 -0.00535509025926055 -0.0021867607870255878 0.0030386250797035524 0.0013146703882709835 -0.010159934098422502 0.25886240092286056
21979000.0 0.9778649942507691 -0.18893245992137883 -0.006510132518083691 -0.004727276974854479 0.0028717962273965177 -0.0011327403838970037 0.0008667878177892534 0.2422743350132633
22978000.0 0.9736757310512274 -0.1972674998038394 -0.00827628645796445 -0.0014241476751075512 -0.000874296494405421 -0.0002786943244046991 0.015830157069943215 0.2573396374045416
23977000.0 0.976535348827414 -0.20354883918981406 -0.002489998764101761 0.0005455013421575627 -0.0012615655471309084 -0.0013383368136580163 0.02396052385950606 0.2471757123644393
24976000.0 0.972012626537712 -0.21473718045149584 -0.004947012690731423 -0.001156074717197055 0.0012829005277164068 0.004586419273571155 0.05914781623125171 0.2608895079479512
25975000.0 0.9748733371802787 -0.22427034593094755 -0.007131386909440375 -0.0019174074207279083 0.011220255060703512 0.02383762141285823 0.06274793380176397 0.26217294390386553
26974000.0 0.9692747791627253 -0.22985338941388256 -0.0028221694302759622 -0.002315114150795993 0.00013991781114806298 -0.0016014236373089713 0.07839616315596254 0.2667582800535228
27973000.0 0.9697992569448352 -0.23785042811448853 -0.003883151363909676 2.719248209391836e-05 0.00250072994106601 -0.0015634965786838141 0.08798940717648612 0.2623552902854649
28972000.0 0.9662936316721855 -0.24670945655118012 -0.004113173109678674 0.00011764736542852307 0.002067711500422707 -0.0019509983509782057 0.10663505418868684 0.2582639270246153
29971000.0 0.9630418965457563 -0.25755894542910507 -0.0012312598289524385 -0.0010583682626137331 0.0014694690494263137 -0.0012682497746414648 0.1411817410955099 0.2802852376120448
30970000.0 0.9596104469542035 -0.26251462295528166 -0.0016583292776683144 -0.0009426526694536472 -0.005106171515839292 0.0010713023734368699 0.15651346782379824 0.2514221962332858
31969000.0 0.9586553985729833 -0.2717336036872774 0.007842489069181571 -0.0024258504238859383 -0.0013914816589575547 0.0013403154038452035 0.14544546161798808 0.25546028175575625
32968000.0 0.9573607289355436 -0.28074145541584117 0.009206626151344854 -0.005100034702565568 -0.0010122372552291102 -0.003493490535857545 0.15876267263873048 0.2495023761983186
33967000.0 0.955444616264711 -0.288874255508827 0.009793388311585896 -0.011060252506131709 0.0011005618748250814 -0.005095468363053832 0.17974829109599655 0.2453807177205839
34966000.0 0.9497168842299637 -0.3003735829804775 0.010779529362357949 -0.01185743682994191 0.0010808650461711187 -0.00300972813896297 0.18906023530770716 0.2585974157999155
35965000.0 0.9484756751339661 -0.3060420853986708 0.01555320296502887 -0.014395839684388585 -0.00010223954047565418 -0.0007262775616768888 0.20930135566233712 0.25168414837630887
36964000.0 0.9469598989863283 -0.31695875445364047 0.016556305407701654 -0.012861949255338744 -0.00011496381051330867 -0.0007181490272368682 0.19933244355969368 0.24453660167860664
37963000.0 0.9422399884543043 -0.32496196212885037 0.023531157688506957 -0.021085308618529155 6.4465277263384e-05 -0.0008365251503495607 0.21889188583456937 0.23619917875341112
38962000.0 0.9394766279484716 -0.3345470023607577 0.022846353846655537 -0.02664304617425357 -0.004863264915043167 0.00014372858548731375 0.23724982695714458 0.23867404315049623
39961000.0 0.9362887838136126 -0.34375710671464865 0.026843800670356494 -0.029132625008916863 0.003115582346414949 0.0012969105543589048 0.2529790925548187 0.22827023230842095
40960000.0 0.9329083783418245 -0.35041415970195494 0.02317714701323566 -0.025752649571973388 0.0016315926100290731 -0.0005988534929676176 0.2591864414285152 0.22796847946289164
41959000.0 0.9292725995449538 -0.3598362509808648 0.03152299949521047 -0.030523154330523584 0.0012994319451513706 -0.0008654380549069506 0.26182234857639286 0.21578024676494792
42958000.0 0.923711716355802 -0.37108779491114835 0.03498365864241943 -0.040246383933847676 -0.00045382730850145893 -0.0034814872994187876 0.2690221609507019 0.20781563522125718
43957000.0 0.9242634335591391 -0.374771536008901 0.034087574355745685 -0.047946232702804806 0.0007713100977981458 -0.0016362052680393175 0.28102301505990707 0.21750077493112346
44956000.0 0.9208440648505055 -0.38199685463573907 0.037590275862939684 -0.04951348322788545 0.002078616329324216 -0.0008688518363309834 0.29752140948821093 0.19801667467197884
45955000.0 0.9155446715069745 -0.39489537490984394 0.03588494913134822 -0.05686473879198383 1.5864445091367787e-05 0.0007773556134884103 0.2911584185803625 0.20384581693717047
46954000.0 0.9109011073592184 -0.40206145691517087 0.036950456415801955 -0.06512439983450076 0.0026096250926415784 0.002524046720537366 0.3121228350460443 0.18878093731311915
47953000.0 0.908610446942634 -0.4103274256587133 0.040803455360442636 -0.07379330602228337 -0.00010513546680814977 -0.0031585461823748964 0.32674318078772174 0.17739193854491292
48952000.0 0.9016128580583913 -0.4207815404705617 0.04059166918827881 -0.08107788961812791 -0.0007243399631811663 -0.002205040476148841 0.32525923669748164 0.17496911144819713
49951000.0 0.8998307285265242 -0.4264131038223668 0.04225629165209307 -0.08486444435771233 0.001016950579906616 -0.0012282083820116187 0.3390972790609508 0.15908539909576755
50950000.0 0.8961089645738671 -0.4360209555874028 0.04167603122058028 -0.09624417720424035 0.0012781165012203583 -0.00026681474778060776 0.3441516665763304 0.15185176048612117
51949000.0 0.8930891096338566 -0.44429758137807285 0.04286812036711883 -0.10464517826732493 -0.0020227591745710306 0.001529664168041052 0.3568953249657396 0.15155051876717263
52948000.0 0.8906807542807187 -0.45200246883720674 0.048420641154158256 -0.11487586568914393 -0.0009002253256448178 0.0007704014462711512 0.36652653211480496 0.15326258258588374
53947000.0 0.8828369004843514 -0.4627482488882948 0.04572199137238945 -0.1198256152669501 -0.0010010231376904799 0.0004664043350284243 0.3674802995160409 0.1355920803719778
54946000.0 0.8771011998987058 -0.4716969611098323 0.05057922107340728 -0.12882845180431765 0.0005942291595985497 3.978714024356753e-05 0.3870688671554471 0.13167046207862598
55945000.0 0.8768188821666687 -0.4786550733503128 0.05315653061889226 -0.14156022529440526 -0.00047546438596800207 0.0005951416820203999 0.3789025738595526 0.10574225969789128
56944000.0 0.8727486667579145 -0.4861176594254552 0.05342410448692595 -0.15053665032120922 -0.000941047442332183 -0.0015466753115570366 0.38552170351429116 0.11810362009408935
57943000.0 0.8650454483470814 -0.49737603277499903 0.05279047333639122 -0.163643820130061 -0.0003480285935645669 0.00020250340051087897 0.393196598620544 0.10163632088025826
58942000.0 0.8593957044426017 -0.5036243271840669 0.05578428037856786 -0.17510632702756723 -0.0012258978377461785 0.005147409574635114 0.41681591362451026 0.10049446226237954
59941000.0 0.857091737270094 -0.5095063417194452 0.0576535307321738 -0.18043166447260386 -0.002580899549879607 -0.0017240029682199628 0.41743649831235174 0.09587579127606705
60940000.0 0.8487644375407853 -0.5172801518858754 0.05610543533714761 -0.19029705969874874 -0.0011873605267590094 -0.00144807660422181 0.39766623206430957 0.07581113188354785
61939000.0 0.8459619921230239 -0.5242438834705132 0.057044903590323624 -0.19910091379200318 -6.944736955001312e-05 -0.0008075922470409086 0.4134373894362228 0.07929173314111025
62938000.0 0.8403234412669789 -0.5353758666565223 0.05985540668707667 -0.21513237879102404 -0.0005388751602138045 0.0016034384232980529 0.4359520899155 0.06553562322087002
63937000.0 0.834557598719784 -0.5440349594622279 0.06374104434275289 -0.2326607448238426 0.00044972676794064837 -0.0016976682364884072 0.42547449326934245 0.04791031003663273
64936000.0 0.8283648055233438 -0.5484687854666598 0.06209818543215182 -0.24846932464188426 0.0014204363903981573 -0.004906799003264006 0.43323491126049957 0.04802628900089083
65935000.0 0.8237088071386572 -0.5608042134401365 0.06024061034391775 -0.26369519918770284 -0.0028670120422404585 0.003576157844803302 0.433869483249777 0.03417310776906141
66934000.0 0.8197093184060356 -0.5653765987050688 0.05895473465152135 -0.27558674063461164 0.0029589610150061825 -0.002462633649707886 0.4349422186465 0.018987022528152264
67933000.0 0.8170270540762512 -0.5736271447547461 0.06219218606098107 -0.29401099726126967 0.0049601568826063485 -0.0012140345244402533 0.4428026569780343 0.01649335906609948
68932000.0 0.7982832189593823 -0.5726294259989151 0.05373001873832943 -0.3047368378509214 0.0004768996228783026 0.002724109904978603 0.45033415382216135 -0.006334653395249204
69931000.0 0.803674861204077 -0.5893336095910426 0.05840933937153982 -0.3249768799675298 0.0031011675859344747 -0.002005498324220028 0.44275137700071526 -0.004414705989132709
70930000.0 0.7969163722036839 -0.5946766603875752 0.05087148961258476 -0.3382673990334964 0.0018466775450708232 -0.0012725423395043474 0.44511726684412556 -0.01757710301089134
71929000.0 0.7929860330424633 -0.6045621256608599 0.054058075944174284 -0.3565157505307499 -0.0012143064525670239 0.0016764258885361115 0.44260243403377 -0.023805621777057487
72928000.0 0.7851038715678772 -0.6142210183298275 0.0451267604195056 -0.3749508729548453 -0.0011781573019241918 -0.0010733748674026744 0.46044675353187003 -0.030467911221666925
73927000.0 0.778537642747279 -0.6201792703884178 0.036770777769497984 -0.398281249686728 -0.0008076193185820582 -7.653173667108232e-05 0.4513943254659549 -0.043778609013370676
74926000.0 0.7738482570640371 -0.6302319357751969 0.031067048779124713 -0.41689314856855336 -0.0013375461716135415 -0.0005381431356302511 0.46449341789873994 -0.03473973066370206
75925000.0 0.7687135535910815 -0.6344965513053413 0.025666591825557854 -0.43921491664554174 -0.00013247758882087713 0.0007830710720560213 0.4626530853773178 -0.052348943072886386
76924000.0 0.7604210482610814 -0.6437763614218204 0.010288644413253813 -0.46403615252903263 0.0040878041172531954 -0.004889703889824804 0.4670264061212262 -0.07945287399768149
77923000.0 0.7552085348747085 -0.6485354114297818 -0.0003481216293991453 -0.4840575755024304 0.0001819521941723793 -0.003194953750763359 0.45982170608084794 -0.06715428754672569
78922000.0 0.7472415685651176 -0.659540426238106 -0.015352032718053816 -0.5148930622309003 -0.0010014300105923616 0.002305159241066435 0.46323014857514266 -0.08101332199120856
79921000.0 0.7396374564270699 -0.6636649387206577 -0.03197599114062331 -0.5395308486060687 -0.0029382240388978196 -0.002330227763061582 0.45866121283594835 -0.1092406836524602
80920000.0 0.7345762861195345 -0.67410242116746 -0.047834960316910556 -0.5684288488108952 0.0019034926446619181 -0.001943568231454192 0.4685686300299269 -0.120544991786791
81919000.0 0.7304696956582601 -0.6804537352545939 -0.0656256739216599 -0.6003951838833553 -0.0026875814393790714 0.00046532390864226843 0.46852573122906005 -0.11198249482072917
82918000.0 0.7194439696036005 -0.686932814637657 -0.07753026943122981 -0.6274426343682112 -0.0005889972782683524 0.004069203814742814 0.47690479923298806 -0.12991310732386985
83917000.0 0.7127252700716219 -0.6955945568607719 -0.09891486391523308 -0.6569806311213681 -0.001495883019796158 -0.0038373421221576695 0.47574086520678865 -0.13453046446919056
84916000.0 0.7050768533052628 -0.70239841276739 -0.11106206974407498 -0.6940446348680769 0.002039083359618521 0.001559153165351899 0.4690273309572029 -0.15277066591516325
85915000.0 0.6980936951506282 -0.7094432376560803 -0.13372902493805758 -0.7270517658421003 0.001011945374506103 -0.003794943671186267 0.47209570178439414 -0.1529962674894406
86914000.0 0.6902012369640926 -0.7198595610584306 -0.14875926188346317 -0.764399738982744 0.0009904744334577143 0.0026765515827584232 0.4663684083287676 -0.16092553531957535
87913000.0 0.6815711419385313 -0.7250237011412843 -0.1623816701514364 -0.7918880495927629 -0.001056593154958882 0.0004891776132889112 0.46916368407822084 -0.16360882054202147
88912000.0 0.6796740417961837 -0.731795049076201 -0.1804625507137479 -0.8292920117702136 9.85299861571437e-05 0.00036229929701956786 0.4704361545222575 -0.19006151014687497
89911000.0 0.6689636045957258 -0.740814232968221 -0.19441521901973896 -0.865574779401241 -0.0022576571824115045 0.0018364982207194611 0.47211897192088464 -0.18405410625510893
90910000.0 0.6628013568097639 -0.7441822248160297 -0.21315297850411338 -0.8999024218907431 0.00017279063383390342 -5.7293921762852964e-05 0.4687411365807465 -0.19879005641377015
91909000.0 0.6514373746489254 -0.7508404028310647 -0.23166155909569205 -0.9322177920176987 -0.0007715195082299071 0.0014317632036065472 0.4672784303497651 -0.20302464557255046
92908000.0 0.6442842912175165 -0.7593568887705849 -0.25360894383798593 -0.9712119928138148 6.705323193406087e-05 -0.0012233846536426544 0.4609141685354509 -0.22050787236122413
93907000.0 0.6380275221242363 -0.7646870192366333 -0.2720623825231056 -1.0020126293918912 0.0018811732574626067 0.003004440409112407 0.4584622048390892 -0.24584991363447942
94906000.0 0.6259306746812003 -0.7729310191977918 -0.2891519537398953 -1.0369063004386663 -0.001806910466207441 -0.0025084632132263787 0.4623348661741308 -0.22987317514174774
95905000.0 0.6183363446202376 -0.7779286553680117 -0.31408488155475484 -1.0692105719243217 0.001180379372535192 -7.860775227944566e-05 0.45629099959514474 -0.25484617690180006
96904000.0 0.6108185977078406 -0.7888286942671566 -0.3372590199162959 -1.1139024036629508 0.0013075028023296481 0.003392789077086891 0.4612095706065772 -0.2508847762716914
97903000.0 0.6006481486175725 -0.7913137916321706 -0.35835715770768684 -1.1474877693272671 -0.001341109878226354 0.0031490868722421255 0.4603493930846453 -0.2799757630092268
98902000.0 0.5961931276043428 -0.7995462104984 -0.3836821392867926 -1.1880030192959572 -0.00407730777096312 0.0019073317584635749 0.4498776142635682 -0.28082781925322164
99901000.0 0.5843081381334078 -0.8044950575908285 -0.41378250030203023 -1.220087638939433 -0.0004482502713123193 -0.0012288279399401006 0.46436987434017507 -0.3010470857279473
100900000.0 0.578347752480404 -0.8082832102010193 -0.44505118145893485 -1.2556181608745576 -0.0011723036318444244 0.0011823318152127905 0.47342223716294385 -0.30341415137833205
101899000.0 0.5683387805354706 -0.8160295475094357 -0.47117467932286355 -1.2969613356711898 0.0012620929227072824 -0.0005650749508527075 0.45621812764254444 -0.30294976729373957
102898000.0 0.5577986820261116 -0.8220477230884669 -0.5127183023002361 -1.331340393254619 0.0006400421009941213 -0.0009305784943163208 0.45149368651640676 -0.32497877477432985
103897000.0 0.5492388616381161 -0.8305586389524021 -0.5504596395559488 -1.3691779717567525 0.0006017740142655395 -0.0009231878557562042 0.4575826430311247 -0.31377523152991266
104896000.0 0.5414750266130103 -0.8391620225435847 -0.6016478797821616 -1.4069334564824414 -0.0008925569134947139 -0.004294384151583646 0.4440495215614545 -0.32028722922721
105895000.0 0.5288766959187288 -0.8413647678403751 -0.6479033760509599 -1.4517828119129146 0.001590747963045465 0.0005214385068929066 0.4423579451022031 -0.33565219560276416
106894000.0 0.5185159272742257 -0.8481234727638128 -0.7073335465852173 -1.4920351244860752 0.0006446707236719631 -0.0029873482123316773 0.432809613448238 -0.3479918706906625
107893000.0 0.5124845131461983 -0.8541307536117079 -0.7563203284975316 -1.53195629685784 0.00240701648524092 0.0003460279974460684 0.44839517033722154 -0.3507331866864812
108892000.0 0.5027809609710194 -0.857137625032327 -0.8149052469870011 -1.5728728494487578 0.0015910022059887595 0.0006498976196201222 0.4363862825049543 -0.3581886368081854
109891000.0 0.49192987378412323 -0.8645653088250399 -0.8774016642476586 -1.6100874101661184 -0.0004948185375968784 0.004437583253308544 0.45018624269043334 -0.3532046294802352
110890000.0 0.4751218111314335 -0.8806445106609059 -0.9639524266664691 -1.6244276542905274 2.596276328210049e-05 0.0012777580625391324 0.4400290197226043 -0.37384558405705953
111889000.0 0.4684164424578853 -0.871565985903591 -1.0103247154159005 -1.6838877725726795 -0.0006103925991031189 0.0032389337521396048 0.43731246016439984 -0.3795505047223099
