! Created with skrf 1.9.0 (http://scikit-rf.org).
# Hz S RI R 50.0 
!freq ReS11 ImS11 ReS21 ImS21 ReS12 ImS12 ReS22 ImS22
1000000.0 0.9881099772393723 0.009283532992184663 0.018220704687538097 -0.04140006896599964 -0.004313707995709819 -0.0022317795816229626 0.3579007854186594 0.2587577200369231
1999000.0 0.9942543543887989 -0.017326718737334188 0.0060397588948523755 -0.03577377255527366 -0.008398517390618518 -0.006679296275168389 0.25931957260911803 -0.08606595414630791
2998000.0 0.9973543703584825 -0.023741433251701034 0.011582436445530319 -0.014821936877319747 -0.005337470739990414 -0.0008743391136179292 0.17899937566362142 -0.1340377395289615
3997000.0 1.000399438875273 -0.0328622604864456 0.01491499111851925 -0.007482153994465225 -0.00513453359915962 -0.0019495237365061678 0.09047191937794151 -0.23293455011080094
4996000.0 0.9948098220874584 -0.037266039279341905 0.011360079178088811 -0.00398545525720124 0.0007672915692098531 0.0008380589565492878 -0.040226279889915326 -0.20150490438356133
5995000.0 0.9936914144307141 -0.047857628273211744 0.005696225183828448 0.003989515585245726 0.001456621204671927 -0.0012031519394490892 -0.10570551038947604 -0.10136758999946864
6994000.0 0.9949518553589498 -0.05918595731069479 0.006394093234711698 0.003964590104363135 -0.0006307924052174471 0.0010842944387485292 -0.13037098506595582 -0.026426940761698544
7993000.0 0.9957504175970466 -0.06662512972262952 0.0015054183675065414 0.009000641149550067 -0.00020273178606382609 -0.0022203279133588285 -0.1575304926397477 0.040966808889250854
8992000.0 0.9951329231353983 -0.07186189651155588 0.0019945277409927917 0.003912007758096882 -0.00036678609241482706 -0.002530679554026361 -0.15908506854065693 0.07957218128230802
9991000.0 0.9932868551202224 -0.08324951456788375 0.0008737444158437566 0.004122052574924639 0.0012553377220933973 0.001503405570193672 -0.14327545470794417 0.08935950414657545
10990000.0 0.9894126838169868 -0.09518577964731563 0.003871960952881203 0.002017050746179503 0.0018247078524032687 -0.0034770894694669354 -0.1334339234204628 0.11432801032827464
11989000.0 0.9890360030664691 -0.10216633582694154 0.0025562420230311206 0.002274756061578859 0.002014796621124193 -0.0002547999567023817 -0.11818979262819382 0.1369883766000041
12988000.0 0.9905739799252152 -0.1102428910185109 0.0017513426611471521 -0.006334572098590876 0.005209398548421673 -0.003970598257177646 -0.09928511926423295 0.17109948482893525
13987000.0 0.986832483599758 -0.11954336291628001 0.002051443016956502 -0.003692477774378663 0.001648552647310802 -0.002441538079970195 -0.10182065153083919 0.1775179455480358
14986000.0 0.987942209694204 -0.12624178163165092 0.00028298882356464267 -0.0011606462846218478 0.0009919197536349363 0.0022837418279982543 -0.07656970852704745 0.20109039888598113
15985000.0 0.990665116715665 -0.1333007891752253 0.0033160051945589626 -0.004292863043710802 -0.0017612335719550374 0.0016274457320041426 -0.058584296589855825 0.22082670430242762
16984000.0 0.9856730031923732 -0.14731722647989287 -0.004760293265922946 -0.005963432995256058 -0.0006685515195778859 -0.002756608452801939 -0.054623950854807146 0.22397972786103124
17983000.0 0.9850068400566716 -0.14801182177978478 -0.002074186060692624 -0.0014667970798063422 0.001851432156538038 0.001090141972468224 -0.053859716185367036 0.22917915475110667
18982000.0 0.9826684889721711 -0.16450564736552364 -0.003729341118939739 -0.006011580143513459 -0.002254103216994998 -0.0007050334824196659 -0.021936070587606823 0.2341047549615034
19981000.0 0.981939114547802 -0.16495635610996778 -0.0013108674599110989 -0.0076329578456156965 -0.0007668005325790813 0.0020085877078577963 -0.01093907807909765 0.2437499885250209
20980000.0 0.9813078921360723 -0.17900049028273318 -0.0014853020179305787 -0.006995186226622659 -0.0005386894148849886 -0.0006453975170426893 -0.002562435621681777 0.25870426533444874
21979000.0 0.9781133489476647 -0.18685884256407062 -0.005392820517135385 -0.005717361208360343 0.0013567575772075006 0.002582570469723921 0.02507927620491306 0.24609979268436552
22978000.0 0.9772100770046303 -0.19463952402737855 -0.004409223858016201 -0.001226241409715366 -0.0028700029662391915 -0.0024713790189847943 0.03806563070125913 0.24722833756767318
23977000.0 0.9769488233515252 -0.2040032253888904 -0.005018207696791408 -0.0008968177054699994 0.0053466024678113415 -0.0010624667411706012 0.043205266251120485 0.2617627885680655
24976000.0 0.9741100816564754 -0.21382633742178458 -0.005108504521474558 -0.00033592915247562685 0.0001869127087323474 -0.0018543945488191927 0.06882060237103044 0.2576557617389693
25975000.0 0.9744210949910833 -0.22185018106005305 -0.004354915716067575 -0.0035280034553905474 0.008646496151184417 0.022605257459607776 0.07413351273488332 0.2735502420329342
26974000.0 0.970155554951551 -0.2286382881794915 -0.007661503199718793 -0.0034524339670439323 -0.0022951714624049376 -0.0012590904167540868 0.09036364136542367 0.2656243045043715
27973000.0 0.967920189703321 -0.24005764951295958 -0.006521471831519112 -0.002286357747970068 0.0020590413308487986 0.0019122639335500756 0.10771434926217578 0.26241046053278066
28972000.0 0.9640947159403829 -0.2470768767526263 -0.003986271356454843 -0.0038637581206912614 0.0009773735949604396 0.0029935155849726437 0.12159588191874644 0.25629209852510526
29971000.0 0.9634781861506488 -0.25629254052518896 0.0024821144841339214 -0.0029287506265731466 -0.0013469414064529936 0.00021277463592127562 0.16195342233130602 0.265768221953223
30970000.0 0.9609696146590423 -0.2612425474268152 0.005056243576848454 -0.00187065439864737 -0.000473234760028766 0.001769798077729919 0.17867352785938276 0.24987550000606779
31969000.0 0.9592771481923428 -0.2695225884429096 0.005712933178723908 -0.004279718708073645 -0.0017431208237503944 0.0018823924639425611 0.1550246411392937 0.24666430712535856
32968000.0 0.957428756800434 -0.27998150988516246 0.004769405789890286 -0.0056253103146902935 0.003018590922775113 0.0017865471636202867 0.1670409191105779 0.2446402091555952
33967000.0 0.9538711786577333 -0.2911756096964626 0.011114833692681306 -0.00939015031088089 0.0019728459589230278 -0.001417008769260473 0.18841857366081577 0.246296275062421
34966000.0 0.9511508149150532 -0.2982719386741405 0.008677765734417163 -0.012096333757224763 -0.00043238288997830685 -0.0019082409991817088 0.20525911485640633 0.2508208078397098
35965000.0 0.948746787797344 -0.30645497027821483 0.015472311596391695 -0.014234932765705748 1.0406977110407462e-05 0.0008617545987264492 0.21706982741632772 0.24660823125647227
36964000.0 0.9462091843459293 -0.3151461418285353 0.017208485618280558 -0.013729437279999179 0.0014793962171730786 -7.214725157610223e-05 0.21967446464314946 0.2487611593170157
37963000.0 0.9421210423430472 -0.32583250553535964 0.021078801591626478 -0.020027851582005624 -0.0004643631652873181 -0.0014214060542833435 0.2327194064999124 0.23416824737852168
38962000.0 0.9389419839634917 -0.3344580034319734 0.021446285842384602 -0.022436087197342008 -0.003771235352854191 -0.0002777742838758201 0.2435456738427353 0.23388549389281932
39961000.0 0.9364311624735865 -0.3412011549707411 0.025509857149587093 -0.02827873219749535 0.0007574373851168822 0.0006822739329487092 0.25450686321128585 0.2173106367492209
40960000.0 0.9341569241305062 -0.3483803004606196 0.023996126588099107 -0.021952485804981697 -8.440794390315397e-05 -0.0007432362346381142 0.27442524082573644 0.21535964565752921
41959000.0 0.9296706141490237 -0.359910023434715 0.02997424162148546 -0.0302092545557948 -0.00036900635971823004 -0.0017561129199423656 0.27517483130976084 0.21242855572084623
42958000.0 0.9270585453764174 -0.3679380513490839 0.029511367332362173 -0.043145787091028794 0.0003609860943850969 0.0015327877669712119 0.2889048288522197 0.20292124260133448
43957000.0 0.924802467431901 -0.3722826960212733 0.03264971905237314 -0.04750019018626244 -0.0019939867147447297 -0.0009083204188487235 0.2925522304144315 0.20974588729112517
44956000.0 0.9195574691457506 -0.3830618412518553 0.035858743306492774 -0.05244423464108385 0.005518872834322303 0.002901085572863942 0.3091317835549729 0.1910666513605171
45955000.0 0.9162093763605048 -0.39393567836525645 0.03721477334742139 -0.05803022533602687 -0.0010213977686079102 0.0002564478658202909 0.31788902645032835 0.19178599617141612
46954000.0 0.91341751519008 -0.4008426158144615 0.03684059619451051 -0.06701363050643516 -8.090909621380171e-07 0.0017622516057412957 0.32707232828201366 0.18108892996862802
47953000.0 0.9101188950825978 -0.40831475747715923 0.0381009574774891 -0.06965004203206604 -0.0024542772794827602 0.0008648306903149894 0.34562071195841265 0.17609538816039438
48952000.0 0.9037326498815154 -0.41896720074861976 0.03815380304270366 -0.08010590514486791 -0.002850894310654045 -0.0008722024568077059 0.3435493780657328 0.16863891565901445
49951000.0 0.9002394464016173 -0.4261799907627169 0.036270072636337004 -0.08813590541592477 0.0020379284025536016 0.0016458782397447652 0.3546978977822451 0.15413200788238635
50950000.0 0.8976402957512951 -0.43480578900415706 0.04125722950568439 -0.09922075142532073 -0.0011951776702687578 0.00020578063317752872 0.3554113798545755 0.14593821832497014
51949000.0 0.8932566660480263 -0.44268816227539304 0.041724472174624994 -0.10378663172123348 -0.0003925506770436067 0.0014172746685387437 0.36873031104187315 0.14215561203119456
52948000.0 0.8907101916299884 -0.45026452222051555 0.04166911005690054 -0.11316670209171914 -0.0012671401836232626 0.0015462322270756112 0.3699691523239593 0.14420473460220012
53947000.0 0.8832619830855898 -0.45849006549838267 0.0403744923087013 -0.12196271877493803 0.0005534995606425903 -0.0002616706969025372 0.37780332915289433 0.12482024115498962
54946000.0 0.8792707272619397 -0.4683915593157716 0.041660384687857446 -0.1302809444128332 -0.0029013934725969246 -0.0003009018491683955 0.3846901924211855 0.12219782503772836
55945000.0 0.875906650843939 -0.47555491738426353 0.04736215202645535 -0.14112116141806277 -0.0010181492959220237 0.00015831470214255927 0.3833027243060189 0.10621039674883087
56944000.0 0.8733133090035655 -0.4836910174793852 0.0466744622253715 -0.15197037066738492 0.00027856632554495124 -0.0028047911373375372 0.4033360033739862 0.1036890905076315
57943000.0 0.8657651165826258 -0.49552767603704273 0.04675662602197655 -0.16437436005801218 0.0011577457155549373 -0.0003456427731259345 0.4008121405105425 0.09416133786946294
58942000.0 0.8621209453868676 -0.4978582169877824 0.04822388610289969 -0.1744746318823873 -0.0033111185088252793 -0.0010510692938639494 0.42349194318987093 0.08129768780695526
59941000.0 0.8575566948630663 -0.5083523332980127 0.05162068466049929 -0.1865055920557646 0.001432922898980593 -0.002006906313951165 0.42158120519893255 0.09017974784010825
60940000.0 0.851341053922631 -0.515427977752376 0.04990902822181308 -0.1894960290432606 -0.0016610922977481068 0.0002710295561334876 0.410557654094745 0.08362205591295724
61939000.0 0.848503246573491 -0.5221149206202076 0.05041035841885818 -0.19819366061466814 0.002751310464235182 0.00045878424688080606 0.41588428361711116 0.06466395579704548
62938000.0 0.8430320632146341 -0.532387052653497 0.05314351825850301 -0.2153230354520114 0.002596157284796743 0.001811436503854552 0.4440043814566203 0.05423832796108319
63937000.0 0.8355567984212119 -0.5414965337775434 0.056006747006937654 -0.23324890235478257 0.002002286806814528 -0.0013544458849494428 0.4352137568684627 0.04616143023606003
64936000.0 0.8294798313513388 -0.548407357436381 0.05599128981703569 -0.24874763460590882 0.0025100039888884002 0.0008113643725437535 0.44096843473484826 0.03889445001678154
65935000.0 0.8266114567391499 -0.5593204835803712 0.054289151816560584 -0.26015690953207155 0.0018118249849698722 0.0031721469071969103 0.44538482183432154 0.014919367240590129
66934000.0 0.8232050426398494 -0.5630926641435879 0.052962977887642815 -0.2736065864379603 -0.0001449527638978004 -0.00045602282441166095 0.4343021384823023 0.013696594992517672
67933000.0 0.8187777456540851 -0.5699373240274883 0.05418374808001067 -0.2885656995150532 0.002857791737173358 -0.002182379659693445 0.44667867962332547 0.00941298108585081
68932000.0 0.8025206201361279 -0.5772990503164929 0.04833806551798167 -0.30187396661393195 -8.960060670258288e-05 0.004338577634810576 0.46317077109685706 -0.009065155309363974
69931000.0 0.8041027619513605 -0.587233760560642 0.05219069833304174 -0.32003334072986744 -0.00043457740446590907 -0.003291142455806444 0.45162313136166754 -0.019130857106830716
70930000.0 0.7988874806108459 -0.5917338675564001 0.04598561596302187 -0.3376265710374577 0.0024913487347621023 0.0015952741724228072 0.45477169668688566 -0.03089171741391566
71929000.0 0.7939518246661517 -0.6022322946499036 0.045289660323363096 -0.3533070617735293 -0.002156042517257619 0.001810233557079702 0.4511090064972115 -0.03251222757577254
72928000.0 0.7884458579570026 -0.6126071803655634 0.038576431227522044 -0.3684253610949566 -0.002226530579622165 0.0009334262516167985 0.46241096116323666 -0.04589798556953969
73927000.0 0.782515954903406 -0.6179716738699362 0.033486621908638214 -0.38991290081050506 0.0025404379923360137 0.0011946921987511106 0.4641925167980071 -0.03974129230072797
74926000.0 0.7759562022788523 -0.6269674163662581 0.023804108046645726 -0.4077838520813982 -0.0012433720929285032 0.001207021875744841 0.4740190386735089 -0.0607017560372219
75925000.0 0.7692618788583024 -0.6305662480853177 0.012763845236795253 -0.4292392945558586 0.0025620884457500936 -0.0013700373823928558 0.4782280741302519 -0.0760300825375738
76924000.0 0.7658241055392647 -0.6377238887825867 0.001013006106790962 -0.45174326804378345 -0.0010466128242171116 0.00019236494140118527 0.46999432660991525 -0.08246284226542448
77923000.0 0.7575848214863348 -0.646074211328326 -0.01368363112187157 -0.4737124269106422 5.591836768072821e-06 0.0009783298835712058 0.47069423759464346 -0.09712464612134943
78922000.0 0.7504657895347474 -0.6563154457514985 -0.024296624768260385 -0.5027907130583066 0.0021443462081846185 -7.792511965502448e-05 0.46233879036941516 -0.09752062342266857
79921000.0 0.7424107960217724 -0.6594893583427395 -0.04294216599176326 -0.529457611880258 -0.003231417671215022 -0.0009049376024540497 0.4597637294645944 -0.12561072342283214
80920000.0 0.7368017424733485 -0.67213940460684 -0.05824183071294995 -0.5570316283795778 -0.0005939948259166723 -0.001931224915572555 0.4753142607483094 -0.1274102748262012
81919000.0 0.7326057887472608 -0.6765024894617935 -0.07889147968833597 -0.5866881603420891 0.002305003508268735 -0.0011624985592115034 0.4680122133000357 -0.13684900732925293
82918000.0 0.7227377576936687 -0.683457145347042 -0.09357568299640884 -0.6143574824194425 -0.0015490022498602983 -0.0018167796350762341 0.47935460651997996 -0.15622007425768045
83917000.0 0.7156998593873299 -0.6925652170972465 -0.10992221355492315 -0.6423991868201467 -0.0038013914442332976 0.003330972146012315 0.4742774117514261 -0.1558822466426764
84916000.0 0.7104298662973947 -0.6984611039268155 -0.12456876012143452 -0.6836594940866458 0.00210283021529033 0.00426674247240937 0.47372628538751127 -0.16856088048817924
85915000.0 0.7027425876092256 -0.7066777445882175 -0.15069920414682653 -0.7130062386315515 0.0016774900502462995 -0.00025901530685592107 0.4667233956999321 -0.18729002705783512
86914000.0 0.6933538414458176 -0.7174140373963478 -0.1590898672611893 -0.7485384436532416 -0.00021059617312317027 0.002610119746777576 0.4684118056159733 -0.1778121094992792
87913000.0 0.6885090245751825 -0.7206836038474378 -0.1811256759757472 -0.7776431590821903 0.0015888419452921635 0.0010760293187995456 0.4675506029931799 -0.18654013091480837
88912000.0 0.6788783184829323 -0.7288651452537611 -0.19890521074209255 -0.812105961232673 -0.0015820499289007305 0.00045521041482614755 0.4643385712702262 -0.21159306288894508
89911000.0 0.6724341001046311 -0.7379138409390863 -0.21951481540864184 -0.8487877738876249 -0.004230299460724119 0.0005647235074142255 0.4722735996284737 -0.20734330725626063
90910000.0 0.6655764133012246 -0.7427526187621806 -0.22993980007959952 -0.8852992548920132 -0.002869613638905642 -0.0004935612046015363 0.47394909587371475 -0.2054809278071528
91909000.0 0.6565791084696248 -0.7476768475024705 -0.25104611404767985 -0.9170456378755418 -0.0017040785150325526 0.0028811516817766557 0.47045378656747233 -0.22678260604668773
92908000.0 0.6478150955103755 -0.7568268170234741 -0.2713387723647544 -0.9491534801619745 -0.0015582890478824747 -0.0018276490645770952 0.4649492317071243 -0.23407990780918125
93907000.0 0.6414703781816983 -0.7631466481230386 -0.2846545206109023 -0.9838619034731335 -0.0003259619546642909 -0.00340697048323528 0.46000030389006163 -0.24479278672185362
94906000.0 0.6314735234152523 -0.7693213172833095 -0.30075049148842137 -1.015462500120252 0.001760249740146296 0.0008979845233582245 0.4727464183775765 -0.24826917866737586
95905000.0 0.6224418423273976 -0.7766175777286237 -0.3278655456311298 -1.0470168576427037 -0.00037275579330992665 -0.002378733042528709 0.4715888339594666 -0.2628217087813535
96904000.0 0.614764807327129 -0.7848043108807685 -0.3443418254822231 -1.087866464764665 -0.005487819260937977 0.00037648499338242505 0.4623399310426526 -0.25986979659913395
97903000.0 0.6046614520464018 -0.7891514612716225 -0.36552871907211243 -1.1191118126632837 -0.0002554722072137476 -0.0036329342531307026 0.4509124852518959 -0.28629319568050976
98902000.0 0.6020625429282151 -0.7973374163124486 -0.3881569617938179 -1.1599690862053147 0.0023333571281118196 0.0032743276456075315 0.4463122089448722 -0.2929894444288885
99901000.0 0.5900859190373048 -0.8016129094637258 -0.42153964945289346 -1.1883253505922238 0.0020906604877346056 0.0026436696798816037 0.453056268618552 -0.3161014426247284
100900000.0 0.5814146071090329 -0.8057130787477942 -0.453608932875256 -1.2123662285859713 -0.0024721051778806243 -0.0005106112406712236 0.46487245610322675 -0.3119163821932948
101899000.0 0.5758257610122899 -0.812306865097555 -0.4739876769221437 -1.2605915643561756 -0.00012313192998453132 0.0011998834822957289 0.4527086171261959 -0.3247945145098472
102898000.0 0.5623990188064654 -0.8180593781300506 -0.5113466084858957 -1.2953397237458488 0.0033987480290745514 0.002210882433523288 0.44874208519039727 -0.33990004027504067
103897000.0 0.5542863573740849 -0.8244651407949085 -0.5518313275328626 -1.3271236348092512 0.0008109615963569903 0.004025735523135384 0.4546720558786 -0.3322229112329962
104896000.0 0.5452305813746458 -0.8355529647119122 -0.5999950233630099 -1.3576807941517848 6.34505357739709e-05 0.000781044062397888 0.4446573517125951 -0.33949624436352976
105895000.0 0.5352526561288656 -0.8366781089666409 -0.6436277207573058 -1.4040454475029487 0.0012824710391203663 -0.0008223126023517627 0.4406440490144194 -0.3614319990387929
106894000.0 0.5268604130624982 -0.8431798176454497 -0.7012892662517841 -1.4420939130445125 -0.0006300375970099142 0.0005218133164916096 0.43552000413680303 -0.36150648127755486
107893000.0 0.5168378095053461 -0.8517489360684377 -0.7515622280198976 -1.4789261440686507 0.0010479266148818338 0.0005727925990324079 0.42987991637338346 -0.3721515797787413
108892000.0 0.5081450438852584 -0.8540274336412437 -0.8152426515780746 -1.5205387244236663 -0.0030627882921445237 0.0013379803310969982 0.4312459818526232 -0.37569937040799917
109891000.0 0.49580814810251367 -0.8635240224516954 -0.8735390772544034 -1.5500080316596831 -0.0007150797169451532 0.003986059915352834 0.44886754208593044 -0.3697455212855667
110890000.0 0.47876700751909074 -0.8630467575857146 -0.9416620533585004 -1.5438674689767424 -0.002792300932138 0.00034449548058320827 0.43414137446589335 -0.3784623389055574
111889000.0 0.47807769373718784 -0.8678146916311867 -1.0017723073508937 -1.6204153847470304 -0.0014422311352927707 -0.0025848275813663327 0.41339468818435043 -0.39536636538527614
