! Created with skrf 1.9.0 (http://scikit-rf.org).
# Hz S RI R 50.0 
!freq ReS11 ImS11 ReS21 ImS21 ReS12 ImS12 ReS22 ImS22
1000000.0 0.9939423017332184 0.01691700141017687 -0.0027228609561167163 -0.04905944914146565 -0.009644874524627424 0.008393274524754501 0.29537226843731684 0.35703709361100505
1999000.0 0.9978443157302446 -0.017307877109861123 0.01485486755547284 -0.016006548703557565 -0.00829524932299016 -0.0025487291461886038 0.2713239690298033 -0.04132382041237613
2998000.0 0.9996885655241144 -0.020684114462510075 0.00979669629638838 -0.017217179564865733 0.0009862787619875214 -0.005635548323479833 0.19600931242333072 -0.1433583742943994
3997000.0 1.000788075722403 -0.029041427153119886 0.011202942009833563 -0.009534310152559877 -0.00454418491211455 -0.005304857688261814 0.10731970646494655 -0.21022145715715537
4996000.0 0.9965006910505941 -0.03767052888304533 0.013303136155903747 -0.0032729709832943024 -0.011709262740186166 -0.0019109082053798286 -0.03577539799768284 -0.21228321514134696
5995000.0 0.996521641230625 -0.04775358332587746 0.0073573688760834475 0.003813991427132288 0.003430309518465835 -0.002001935866236151 -0.12164170335156785 -0.12198493449081803
6994000.0 0.9962988537501004 -0.057850811272151505 0.006293503972674102 0.008661645301490665 -0.001101228431463788 2.4123006794455053e-05 -0.14393289864211728 -0.04366821546523271
7993000.0 0.9973780153562425 -0.06854714677361023 0.005156815289420154 0.00440777867681699 0.0028817999792386736 0.001577144101171475 -0.1508176338886975 0.024567859926635932
8992000.0 0.993415926919139 -0.07306519470957311 0.0049529174777246 -0.0012216622780663214 -0.0031416885022436036 0.002915655758242105 -0.16840567412610874 0.054501067006902444
9991000.0 0.9935612323885096 -0.08491984211499758 0.0028522356253818533 0.002640643600015456 -0.00014920506007709967 -0.00089697811764412 -0.15804470976382334 0.09685543891779566
10990000.0 0.9933254797864955 -0.0900700066166783 0.004083974489337564 0.0016230467975200166 0.003229784302060403 0.0011033995525937994 -0.14628203282027372 0.10241973988918525
11989000.0 0.9902413930908525 -0.09997380694705943 0.0012334636167826611 0.0009197436569036162 -0.0025067980433599512 -2.900343188786169e-05 -0.135141597478612 0.13481832837166025
12988000.0 0.9905610745606416 -0.10705659937279402 0.0016228054969096056 -0.002906084181110377 3.120900821262637e-05 0.0003808340915938911 -0.12167732254323253 0.15733966243357125
13987000.0 0.9871425180551083 -0.11908220715463802 0.0012394285623350688 -0.0030841209113567558 0.0007579204380110772 0.00282829756268574 -0.09272671646010054 0.18635786363697698
14986000.0 0.9876624484479342 -0.12482533620556295 -0.0020692990687165348 -0.005351715060530492 -0.0015020146433812052 -0.003470036756443429 -0.08808938766681869 0.19834347340342445
15985000.0 0.990305859949262 -0.13306976628503125 -0.0037022863453581023 -0.004247144819461062 -0.00217550954577792 0.002516984310882598 -0.06834111586338054 0.21265603743406392
16984000.0 0.9868241529232744 -0.1461315371036034 -0.0006982439244768579 -0.005114341317179774 0.0008561958435745829 -0.004652023732011113 -0.07149115304751787 0.2200492590238294
17983000.0 0.9870239430109572 -0.15192530982394845 -0.0026091262117310145 -0.007530223358842562 0.00011651004727885231 -0.0022653616842918303 -0.04717420948967448 0.2293321992931527
18982000.0 0.9837288562516142 -0.1605140785971462 -0.008128528781338743 -0.0023251251685549447 0.0026362174945161474 0.0006104977237328613 -0.02458854190450691 0.22899120412446045
19981000.0 0.9826701853058214 -0.16609336338644803 -0.003886108317365799 -0.002963465420533932 0.00031559939865383944 -0.0009263081462377058 -0.016357254526919947 0.23904987216192264
20980000.0 0.9797247625991714 -0.1794281430266647 -0.004227658116168734 -0.000587189696280199 0.0005838654628184294 0.0011994771917097139 0.0012639130560375546 0.25797760004106013
21979000.0 0.9794884619929667 -0.1849226429068452 -0.00536402159035661 -0.00046332174411757896 -0.0018818468249714262 0.0001840860977530972 0.011067885738033112 0.24672377460287415
22978000.0 0.9768451926958259 -0.19440013012355412 -0.005950053788158307 -0.003410682522329362 0.001652638374784029 0.004620474494940017 0.028726982724073615 0.25720140666641145
23977000.0 0.9783946879851155 -0.19935410929426198 -0.00422936653404832 -0.003070098154533841 0.003255648623089433 -0.0012713900784086208 0.04220467379564646 0.2520252140251905
24976000.0 0.9722253460670238 -0.2135520241741006 -0.005806484877083733 -0.0028176138679204977 -0.0004533318078855161 -0.0014073847799586472 0.0581191927731443 0.258792120339179
25975000.0 0.9730187995924424 -0.2240966210469992 -0.0021648666176748606 -0.003141901483588722 0.025483875090770058 0.00756428261186277 0.07561388063621811 0.2669256999267432
26974000.0 0.969485510636676 -0.22671520247778615 -0.004474321796247576 -0.0006669493557031607 0.003478160871768702 0.0005864939290036879 0.08781190796744485 0.26162188085417665
27973000.0 0.9700551862656792 -0.23334596308712602 -0.004009554081027365 -0.0030175394326863083 0.002280781512084575 0.0016628154257863983 0.09978978144566758 0.25976431750536083
28972000.0 0.9678295621298566 -0.24428321447150247 -0.0004622370772664686 -0.0014748086587992196 0.00014632274181415055 0.004649348834987217 0.11961571706581292 0.24758713648295905
29971000.0 0.964897556655736 -0.253671729129974 0.0007276771667686149 -0.0006263644059025076 -0.0004104524319433498 0.0022785413549270485 0.14642866996355858 0.2704247066702731
30970000.0 0.9613774588321857 -0.2596373720063601 0.0006153416868977024 -0.0012654641080512281 -0.0006942128440206452 -0.0033869850691428754 0.16685171919628006 0.24469963834514694
31969000.0 0.9595830924175777 -0.26862000430220845 0.0058848199792300455 -0.003799558145436766 0.0009772508454665826 -0.0009206614418758122 0.15059533257575913 0.2502317103334358
32968000.0 0.9578461337331411 -0.27900422308179096 0.008510652628108867 -0.008617339190757413 -0.002248020898543525 -0.0026609252669347106 0.1656892684703311 0.244097310871641
33967000.0 0.9559686065975812 -0.2877671100210709 0.01262772236948064 -0.008946282841908045 -0.0006802625945699129 0.0004735664639298379 0.19365138913878724 0.2485975369278988
34966000.0 0.9521091305774857 -0.29598533396603355 0.013680654178874018 -0.015158587666997765 -0.002498801162216666 0.0008713782708334194 0.20263468729188774 0.24587773288998513
35965000.0 0.9498978651110617 -0.301994420310123 0.015104817927558963 -0.013219798329599937 -0.0013078814786926002 -0.0006420616109758141 0.21794107148342184 0.25554870365873117
36964000.0 0.9485309640530173 -0.31173554657378066 0.015951829772851978 -0.01479484994002823 0.0005834242106389453 -0.001060068921307159 0.2135546366139793 0.2449167302445287
37963000.0 0.944357030980186 -0.3208006876914203 0.023675964960800523 -0.022958285925890595 -0.0007073717136842254 -0.0017979990008530158 0.226871554208082 0.2365510106006933
38962000.0 0.9415902682637945 -0.3304637612929976 0.02412469173276953 -0.02528539876092211 8.530993027893938e-05 -0.0004619416852851153 0.24332171705601968 0.2301604868649489
39961000.0 0.9387058782973976 -0.339343124583233 0.027432380712231134 -0.02934833524118888 0.0006275151023404078 -0.0010620651578484755 0.25396710960472346 0.2288777578709263
40960000.0 0.9346365785679163 -0.34682426973448566 0.02290731937584626 -0.02328568547290327 -0.000739628965391859 -0.0029774602372791424 0.2672007127058235 0.21842430443863148
41959000.0 0.9321755499798607 -0.3552339821086156 0.028031625026385985 -0.03227581104775047 -0.00029030900503053885 0.0005873725083268526 0.27690219984770853 0.21743155401528014
42958000.0 0.9275905155814692 -0.3643426006539781 0.03269772788059978 -0.040796316840816 -0.003957685108031944 0.0008058086585301601 0.2832955296325932 0.20530652293385251
43957000.0 0.9264592438212587 -0.37035721530320126 0.030831010345485202 -0.04647617246693819 0.0013572093168785606 0.00035902814310584483 0.2884293502609803 0.20618586534733346
44956000.0 0.9225673809180592 -0.3780026204499018 0.03576730362415994 -0.04978061186101628 -0.002555757568931463 -0.002016810113062095 0.30211544622675773 0.18985995483831514
45955000.0 0.9179178793740304 -0.38855076291069507 0.038061957367302834 -0.057756599521350115 -0.0007689019270240766 -0.0035805043618657505 0.30527318276371623 0.18849225770654535
46954000.0 0.9148244511366534 -0.39717032222022924 0.036777230362647635 -0.06697688174656051 0.00011775033840014535 -0.0003425996811342522 0.3314167398784283 0.17360794020249826
47953000.0 0.9124418475957372 -0.4045074395732143 0.04003373495489697 -0.0720151595751968 -0.0029556652103519946 -0.0006500656976613196 0.33439823307443867 0.17148524958343622
48952000.0 0.9071646535723067 -0.41404275604221935 0.04097825707188186 -0.0812435975185169 -0.0008763488831839927 0.0030782689875055056 0.3263597754185244 0.16605159023860727
49951000.0 0.9026326107752447 -0.4227194084012059 0.041304197197688235 -0.08578065429538577 -0.00160552284210634 0.00017075599363940467 0.35468063704490543 0.15726433705840637
50950000.0 0.8998769475337913 -0.4305376257219177 0.04078638388493958 -0.09702756861227814 -0.0002016204423806638 0.0013631651019118064 0.35424997523537194 0.13396724575334953
51949000.0 0.8959486164276714 -0.4377566329838316 0.042885461988906734 -0.10470425201914216 0.0005465074017473908 0.0010370341138127115 0.3557178574457998 0.14372471636489545
52948000.0 0.8948518152545878 -0.4456071814822659 0.04445716891079245 -0.11122925714611812 -0.0004862632640678242 0.0012134729014337754 0.37110324917558485 0.1446326473633246
53947000.0 0.8873038620546186 -0.4551136349275399 0.04584188523142894 -0.12356634673319633 0.00018838958610688193 0.0023679607830737986 0.37138722682059294 0.13135475573997876
54946000.0 0.8832862218947073 -0.46198119989884223 0.0431672715160464 -0.13371100752843773 -2.8753136503402764e-06 0.003373740902897022 0.37909072494125656 0.11417604072865983
55945000.0 0.8791016064646112 -0.4721044994991467 0.0480675674590631 -0.1422753815346085 0.0015081636612825685 -0.0015300452471043978 0.3860397908758928 0.10469037373845284
56944000.0 0.8755869138308409 -0.4795248310830041 0.047443828551042025 -0.151700680943954 -0.0008438471555836251 0.0015344503685728729 0.40070453360938046 0.09400110265060123
57943000.0 0.8694109160885015 -0.4912162448404497 0.050032347632660346 -0.163006231201033 0.0026155908280719384 -0.0007102872447024166 0.40469843727601446 0.08475240149542565
58942000.0 0.8649843282227713 -0.49353262295516076 0.0501057855904587 -0.17308959747172267 0.0006205522709087707 0.000954719781105413 0.41764505314097045 0.08825390183802623
59941000.0 0.8611860308510287 -0.5033577287804877 0.05334085207159889 -0.18256938816396853 -0.0007372755958395041 0.0013320844166356367 0.4162044320395411 0.08466982647202617
60940000.0 0.8543877576879599 -0.5112202086087169 0.05235448691732996 -0.18915473934444021 0.0009302791030879315 -0.0005720196577242025 0.4149924424970313 0.0817730101950404
61939000.0 0.8513162849106164 -0.5171066247709328 0.05409225707353917 -0.1991301684825786 0.0020584771346162183 -4.297852345304455e-05 0.4190680296186672 0.06825828326648616
62938000.0 0.8461812187164042 -0.5275884789460635 0.05859119369543877 -0.21331767644579663 -0.0011528700452176832 -0.0008007238722404726 0.44514195055741534 0.0590278485457468
63937000.0 0.8402220818567323 -0.5354595691042776 0.058727817037984624 -0.2361135894888581 0.0007115860181733105 0.0012207341759126978 0.4364702915553301 0.038365487405285864
64936000.0 0.8324319106485811 -0.5424991208278155 0.05695820400369472 -0.2501176080383656 0.001939482227072727 0.000422850454910498 0.4316710994840464 0.04545083537719144
65935000.0 0.8303837667691912 -0.5526154262325739 0.05688341689606934 -0.2647874666246081 -0.004372085975801526 0.0008959027783189538 0.43823184484350836 0.025482150664648057
66934000.0 0.8262965131956075 -0.5565478617170146 0.060582564439036604 -0.2765619953412797 0.002616329698330476 0.0008543269293718643 0.4353424676172905 0.0054436013307671265
67933000.0 0.8237162114867312 -0.5663252934047239 0.05820965231679313 -0.29152287250225845 0.002120341671137535 -0.0009431754533159171 0.4436252488899471 0.013182824186891038
68932000.0 0.8095932342160622 -0.5590209685222696 0.05793434176683194 -0.29861135797731125 0.0031716665774082524 -0.0016152498754841075 0.4434008481377433 -0.0026779727575101477
69931000.0 0.8086302059997259 -0.5831167544410303 0.054165618182504656 -0.32390982490347076 0.00029037738883060137 -0.0014120312127768003 0.43459321722918265 -0.012943890249784288
70930000.0 0.8048961612452042 -0.5882935563736308 0.05525610423282108 -0.3346939986036523 0.0022872097763520587 0.0009828360873658257 0.4439721602160586 -0.024172306408085174
71929000.0 0.7982174512255046 -0.5970474556884562 0.04531035929883287 -0.3521815459840289 9.970323754777403e-06 0.0005286521561615208 0.43984237177573626 -0.026674719177247626
72928000.0 0.7919609464049389 -0.6087178715319548 0.041350385481941046 -0.36924590594521817 -0.0016788658907222161 -0.0010529314741204673 0.4578121756279333 -0.05899804371484139
73927000.0 0.7879911687283725 -0.6121411427130949 0.03798881341553925 -0.39165859153415267 0.003793910741654089 0.0032662572395881066 0.46068690100271675 -0.046446556123711416
74926000.0 0.781140525694035 -0.6220639576148471 0.028724683498600342 -0.4123721911009151 0.001541102095283945 0.0004684819686310619 0.46193247556065775 -0.05763082861882466
75925000.0 0.7737916579499923 -0.627154679328794 0.019242467523568202 -0.43377202240510443 -0.0011255904441065264 0.0017554887379476615 0.47008297805328625 -0.06537717717861195
76924000.0 0.7701919825372474 -0.634629745196634 0.00909574719079885 -0.45510244674830197 -0.0018027879675175096 0.0006889843231852862 0.46468715098516755 -0.08325585669661967
77923000.0 0.7624369096741754 -0.6433198567365174 -0.0035663869635532254 -0.4798686170962175 -0.00020442768638045706 0.0013083706792102814 0.46604259543187676 -0.08259011488743717
78922000.0 0.7544039898304725 -0.6529147082681354 -0.02225363342364624 -0.5066340627400077 0.0027124769342142395 -0.0009012574701247822 0.4559025436387939 -0.10866896401768837
79921000.0 0.7483511520110857 -0.6579055364713697 -0.03936288594020563 -0.5324611631654071 0.003222058183495734 -0.0054800953488756176 0.4591491320788849 -0.10642286892959922
80920000.0 0.7436572246026033 -0.6661615489063845 -0.05348818651836034 -0.5596290486134339 -0.0009649461234251094 -0.004178352523110856 0.4707114677279586 -0.12172983211354141
81919000.0 0.739792862282712 -0.671360723812134 -0.07224515374112087 -0.5906301223413192 -0.0008606726463221436 -0.00014452241825781977 0.46742346637202636 -0.13731313883514276
82918000.0 0.7268788211746886 -0.68035792314685 -0.08633276133160923 -0.6210290454864887 0.0011793816456769693 0.0010356564695714907 0.4648689222348685 -0.13868463882561669
83917000.0 0.7205561807047711 -0.6889876532247535 -0.10435493056821132 -0.6487444487647689 -0.0011385537918580234 -0.0021975981931976825 0.46802173714981377 -0.14269536906385807
84916000.0 0.7148840468604185 -0.6949161090732254 -0.12371839625171253 -0.6860844102272725 -0.00039107225297221394 -0.001963213597212549 0.465154147786889 -0.16620856121648173
85915000.0 0.7079931204209272 -0.7011380754470824 -0.14120210537980057 -0.7179475715498393 0.00290053575355934 -0.0021406733296614757 0.46969757669297707 -0.1740390287399494
86914000.0 0.7003413219734018 -0.7113626493839467 -0.15511946614838645 -0.753670441023024 0.0019444387258615084 0.0019106618796558624 0.46096958224386214 -0.16893782100500523
87913000.0 0.6937019747169907 -0.7161662762276282 -0.17251757868136114 -0.7839291205019242 0.005773541012449003 -0.00233434121877444 0.4541630155006311 -0.1754558939032071
88912000.0 0.6875209882387261 -0.7231908150296472 -0.18905413140989685 -0.8174215380584545 0.0017632306801781132 0.003327295413286688 0.46229474486544636 -0.20298772602005236
89911000.0 0.6776248193101851 -0.7326993098835558 -0.19912216924282947 -0.8578756453851747 -0.0010465969625548723 0.0009187606281246033 0.47580499633866574 -0.19851468124338384
90910000.0 0.6723670945177695 -0.7373595498199862 -0.22109892884536242 -0.8879853844160013 0.0021715253260788867 0.0025799899699025935 0.4596330200175244 -0.21807049579337867
91909000.0 0.663639812539302 -0.7422686465039459 -0.23973293121686076 -0.9239074844372526 0.0037580803051760147 0.003382544117916003 0.46657431432151775 -0.2221270996195771
92908000.0 0.6548272600144529 -0.7513576316208973 -0.2641205116562353 -0.9556107044374548 0.0006812054801668487 -0.0021327771885482206 0.44963655655280704 -0.22502201690575602
93907000.0 0.6481393341306901 -0.758120535554621 -0.2790720427877835 -0.9883659415895782 0.00020353237598491055 -0.0021982821113852007 0.46472120799765454 -0.24084579528445316
94906000.0 0.6344584818637373 -0.7676120340824273 -0.3001492220129242 -1.02370490098516 0.0013616598350413435 0.0013497026724561161 0.4660185292512008 -0.24867337775593867
95905000.0 0.6292518964853167 -0.7727072782047754 -0.3144652850013154 -1.0578739988434547 0.0023364108302987023 0.0023779599884486973 0.4585134932164136 -0.2612419510616199
96904000.0 0.6215727605607425 -0.7787565074969826 -0.33924693349738844 -1.097229995330796 -0.002933605567190492 0.0003470898424586228 0.4579675213702627 -0.2859123731739814
97903000.0 0.6114910032906471 -0.7858750962427794 -0.3657818807014318 -1.129827353209119 -0.002120886053090014 -0.005101123335531916 0.4516509146333484 -0.28411765987326415
98902000.0 0.60936177163549 -0.7922155306949347 -0.38046025788047977 -1.1729224720511238 0.004661323578258513 -0.004394636291352362 0.45021606789614754 -0.2929068472827691
99901000.0 0.5983941194700735 -0.7976092511904783 -0.4119760764131043 -1.2037145512118992 0.0011816136380993685 -0.001791555732399518 0.4562564736835977 -0.3102530909303057
100900000.0 0.586147003341335 -0.8013234734237936 -0.4415695667188862 -1.2297646388165888 0.001998122226021597 -0.0004224610391592315 0.45898671534251306 -0.31637533596045525
101899000.0 0.5778322848588073 -0.8105064665157522 -0.4721858755828051 -1.266834286593594 0.0017958744837038526 -0.00208678923305192 0.4493610600557396 -0.30992764154812324
102898000.0 0.5699492240239773 -0.8152024810066919 -0.5098389834561473 -1.3110917008525385 -0.0034779833627162264 0.00022585523869313135 0.45119638874966184 -0.33267423512689415
103897000.0 0.5616875864472244 -0.8228923518049563 -0.5476849347688734 -1.34779769399091 -0.0024545833180829994 0.0016086233031970703 0.4506130218060999 -0.32632560164316765
104896000.0 0.5537187418244445 -0.8332821502812564 -0.5917493375922468 -1.3787950740393355 -0.0005031941742964882 0.0003960777857265861 0.4358537920066432 -0.32502710750248165
105895000.0 0.542338405650934 -0.8346467580096403 -0.6405923425975858 -1.4255965432622713 0.0011702599121080751 -0.0024120553466106037 0.42763845013130436 -0.3510652152226078
106894000.0 0.535154142253068 -0.8413151028915284 -0.6926737380813047 -1.4640262852450676 0.00222275457912866 -0.0007883211760840716 0.4291557357227977 -0.35350298850536505
107893000.0 0.52742409606833 -0.8468278079654121 -0.7461648937536406 -1.4949835307432715 7.973251866304748e-05 0.0007783550997665827 0.42044041395667414 -0.3745499113081466
108892000.0 0.514563813816596 -0.8522050828054945 -0.8102788009475553 -1.5353968491679901 -0.0007004520192472233 7.895832501064997e-05 0.4263444100615356 -0.35954493980903296
109891000.0 0.5017055971787561 -0.8574511102678145 -0.8639741580065113 -1.5753481977953125 0.0008875161288210195 0.000795601271730728 0.4402056847569514 -0.3581923127436762
110890000.0 0.4851298988173664 -0.8617619870512112 -0.9358754612534099 -1.5727774992743624 0.0005463723264074923 -0.00013608986185996595 0.42903451157771194 -0.3738863842028407
111889000.0 0.48101727560452345 -0.8665296253117963 -1.000131183404186 -1.6463885191784298 4.423102230192247e-05 0.0017807269935804667 0.41891701481611276 -0.3975078210986002
