! Created with skrf 1.9.0 (http://scikit-rf.org).
# Hz S RI R 50.0 
!freq ReS11 ImS11 ReS21 ImS21 ReS12 ImS12 ReS22 ImS22
1000000.0 0.9965337259926982 0.010130907891103231 0.0035766721969943596 -0.061679418485988076 -0.009615178260231177 0.0007441775953888723 0.3424218227705665 0.3135702591453513
1999000.0 0.9930652186283834 -0.009845286476847516 -0.0010322631242140328 -0.032557478536896674 -0.002519571749443429 -0.00327181375683375 0.23911986638412952 -0.08260154962424163
2998000.0 1.000712356713022 -0.019208002473695977 0.009316306062134433 -0.015717497338658504 -0.003729519650324383 -0.004334772265199672 0.18480017338639323 -0.14707331879834287
3997000.0 1.001146482857072 -0.029546432571029728 0.007977027265495608 -0.011185990560032657 -0.0032438971456168393 -0.002038358623662412 0.08669484158450727 -0.23199172746759136
4996000.0 1.0003109939838966 -0.035672376032286165 0.010339761116681674 -0.0018999011467857325 0.003412704237659527 0.003998971571937054 -0.04087289110367759 -0.21762471241884945
5995000.0 0.9967994063277066 -0.04449542705651515 0.00932698776712917 0.0008821079011316279 -0.0015905163765772131 0.0020712198098559436 -0.13115127837909424 -0.10819048616458532
6994000.0 0.9972250584202234 -0.05960000951461406 0.0068820092378120345 0.001716325466212577 -0.0025822168806903206 -0.004171456479262124 -0.14144740562842714 -0.023162930778232647
7993000.0 0.9978025182894428 -0.06668404739858083 0.004485608018648131 0.0019642394322586 0.0017924048357766077 -0.0014861737333450057 -0.16218058421149026 0.037528396529424426
8992000.0 0.9975606610358756 -0.07362611329431301 0.001564885600050396 0.0038566553272563666 0.0004162011166127604 -0.0025429700309384873 -0.15731636689640446 0.044249596643651565
9991000.0 0.9968890681746279 -0.08276818040214579 0.005175040501824024 0.006078288027280457 -9.755729303216963e-05 -0.0016441662790257058 -0.1524749750161384 0.10721597751188004
10990000.0 0.9951296384248197 -0.09361045588227655 -0.0010199142419332152 0.0017220316072598073 0.002481796444814995 -0.0017892142969760918 -0.1349194067199376 0.10275914777449284
11989000.0 0.9956634911629053 -0.09642951955337732 0.0010502066296269822 0.0015443504184891248 -0.0033900809696192653 0.00014395820612003607 -0.12218580058753502 0.15632937383544757
12988000.0 0.9943299033095814 -0.10838403545429827 0.0010798648615885846 -0.006935065898353546 -0.0009269217888381103 0.005189900045203294 -0.12089341462182192 0.1708094921515671
13987000.0 0.9917628641916891 -0.11569051053693769 0.0015122157080394193 -8.635239892318178e-06 0.0012281535416732829 0.0013258452762578944 -0.09918789193727302 0.19018754037948923
14986000.0 0.9908933657183444 -0.1238809852897995 -0.001548138650386591 -0.0011375504509599497 0.0014982338193021657 0.0032658709932266534 -0.09601556896250818 0.2123345019298697
15985000.0 0.9914055517116502 -0.13199138382606077 0.0054426195824608566 -0.0027931514482236017 -0.00023080749124264536 -0.0011157383717656554 -0.06930351293579362 0.2168489057943302
16984000.0 0.9885896603538153 -0.1435367460322546 -0.0026377259330214544 -0.008945065247065898 -0.004520226492281073 -0.0018984543407942014 -0.055787282511168795 0.2222394529229881
17983000.0 0.9905249566560193 -0.1472095469784188 -0.004801709856907122 -0.004937125695967339 0.00121959200255267 0.00390194991668391 -0.06299650546795825 0.21294479978725828
18982000.0 0.9846233923975273 -0.1596672200189664 -0.0013581356534007048 -0.005823575840620765 -0.0030431221347475496 -0.0005022174406703927 -0.024720603312224018 0.24144473400612748
19981000.0 0.9863921977492704 -0.16540179723136023 -0.000751265380159541 -0.008446422625465157 0.005216728003068363 -0.0006207241054215352 -0.01116289779507355 0.23944425207829137
20980000.0 0.9838401535524673 -0.17534760580874018 -0.005139615857130567 -0.0048548905483782046 0.0021342594953364215 -0.0018789253599774327 0.002036935449470558 0.25671596743634445
21979000.0 0.9833396722768647 -0.18468666087302646 -0.00342895112201744 -0.00025917091738723153 0.0030031881639991844 -0.003653720570119615 0.013937171682289253 0.2539352278151623
22978000.0 0.9803343402638611 -0.19152559469799363 -0.004012917506584761 -0.0035608538182780756 -0.002914454223312285 -0.0036520181802966404 0.02863955915126221 0.2634957031226721
23977000.0 0.9828604120842392 -0.19914714115848955 -0.005250134400221852 -0.0036976431601368908 0.00024011158502199828 0.0008523935864588751 0.0369479666702792 0.2600686277404907
24976000.0 0.9764609587964964 -0.21140587830811813 -0.008119746581245006 -0.0019217160883855948 0.0012913597756276998 0.0021108043663709756 0.06423489510737335 0.2499828547825525
25975000.0 0.9746342056623046 -0.21428058288843785 -0.006196686248497269 -0.0008422045045034174 -0.020496681855120016 0.01612672461940099 0.07291816275914613 0.26251664080602716
26974000.0 0.9722814209375771 -0.2272274344871366 -0.0023253947442007975 0.0008516718861552896 0.0005527211721848928 -0.00223513549251484 0.08080620680629304 0.2736553094256141
27973000.0 0.9721260892182275 -0.23489708542950172 -0.005151541610618561 -0.0015127773905851197 -4.5441965431795e-05 0.0010205242412520811 0.09341891346749301 0.26029032515288203
28972000.0 0.9698205970471092 -0.2418273714061098 -0.0012500122112203463 -0.002367446797776039 -0.0004637719671460408 0.002923713944565284 0.11091505321033758 0.2554702733790137
29971000.0 0.966887750592486 -0.25347263217791915 0.00100608868692023 -0.0030183591677557403 6.86196373271746e-05 -0.0015904068971937643 0.13794222408501022 0.2702553084390403
30970000.0 0.9657748346323912 -0.25859828177847094 0.0022578430035031074 -0.0006718578559137843 0.0035235975268042216 -0.0020404695174393497 0.16177927416381188 0.25566745092215043
31969000.0 0.9619703273371532 -0.2676520632236007 0.0058367514706643055 -0.00721814922136541 -0.0011777651630452703 0.0004445093501130745 0.14109839712329864 0.2591101017583759
32968000.0 0.9605771987612599 -0.2763320483294887 0.008879875508143559 -0.003964132576286037 -0.002195440905069699 -0.0002760304052015634 0.1569300100358146 0.249147203974195
33967000.0 0.9584206046015219 -0.2869619610980752 0.012187500003529871 -0.0097499080079742 -0.002113512263395703 -0.00041964781531776495 0.17798001876352673 0.23861249892227918
34966000.0 0.955105785536733 -0.2959010644780786 0.01127678086771223 -0.01198462379558071 -0.000795202962290433 0.00246338768258054 0.19072417759428778 0.2501423315494252
35965000.0 0.9532266606575577 -0.2998581497135626 0.017319882896863543 -0.017307326499460676 -0.0012639842204158686 0.001802246397898936 0.20309518296364767 0.24837795389076398
36964000.0 0.9511281346745815 -0.30922347590610133 0.020660522802996156 -0.011345107685556622 -0.0025784051396808023 -0.0037327032734691926 0.21043028978164832 0.2433156415181965
37963000.0 0.9462993042857654 -0.32064754225360365 0.021725433322580645 -0.02269110857552144 0.0024289803950862826 0.0006514808597430065 0.22061696723483734 0.23728837458481333
38962000.0 0.9436767610832832 -0.329759173372575 0.024254021364118375 -0.02393606523300957 -0.0011036450515860775 0.00047614182622257047 0.2306107548282065 0.24158091608313112
39961000.0 0.9417531269989053 -0.3339223714469932 0.028205289257782665 -0.026803652828762167 -0.000588255736425909 0.0010494058242753426 0.24312361261165022 0.23212907075732722
40960000.0 0.9384628494847497 -0.3438015431422086 0.022288985020841614 -0.024067693408191367 0.0020059720944679846 -0.0006198882537326608 0.26399803070495786 0.23253132990826011
41959000.0 0.9360022720104664 -0.3525307699041955 0.029079009111009312 -0.03205589051097844 -0.000866282401316957 -0.0011212604834513373 0.2620224030237884 0.2146565789316494
42958000.0 0.931365897967404 -0.36134971521141557 0.03228957339917966 -0.04124626705677727 -0.0002695286723389838 -0.0006710635650608553 0.27974951193028036 0.19977431058013917
43957000.0 0.9296655724555927 -0.3670081786157021 0.03200149468694088 -0.046675689990954554 0.00048523001740894827 0.00024022028370292088 0.28569293574211824 0.21548355012169704
44956000.0 0.9255323479295947 -0.3753994071544756 0.03341420699425301 -0.049987269653835 2.1957522699104587e-05 -0.0005478816385381229 0.2889589154626797 0.19869572383831494
45955000.0 0.9215406096563191 -0.3862598687609934 0.033593558683700536 -0.05876037267253134 -0.003710660342556698 0.0010718083925203281 0.29893178514239627 0.19672889170526087
46954000.0 0.919473763592538 -0.3938334968866584 0.034897343990723126 -0.0679474860052463 0.0011416608373513066 0.002374064738662009 0.31618210223484755 0.177968359129797
47953000.0 0.9166097946857785 -0.40165525325843154 0.03422565229980576 -0.07025121215077218 0.0007647169071902378 -0.0011622389098638016 0.32925910227421795 0.16320191454323102
48952000.0 0.9111023376001031 -0.4138888650805044 0.03358669814522769 -0.07998870387343053 -0.002521656699512817 -0.00012248532471661284 0.33371165420303267 0.1670884605772509
49951000.0 0.9090247779402991 -0.41589677364051525 0.034788233013255135 -0.08579756735750417 0.0014757294346926869 6.793205646349471e-05 0.3522340527168096 0.15473185664462188
50950000.0 0.9027888502642135 -0.4267866190634606 0.03859961150606015 -0.09602350899691821 -0.0021057013031584243 0.00047124724949108604 0.3552910508603096 0.14352872391468152
51949000.0 0.899422587416902 -0.4344720385275504 0.038584559316160574 -0.10478112583890138 -0.003004162128609235 -0.00212686465322315 0.35511402356972716 0.15270086018133383
52948000.0 0.8985357182143212 -0.44181188633294366 0.037507768822777315 -0.11332295885983164 0.00208148713458764 0.0018884071168702304 0.3680923138419948 0.13567614159993804
53947000.0 0.8898808770664945 -0.45128751503710635 0.03760462494518831 -0.12118647265388872 0.0008804695208495202 0.0019978193747043345 0.36323760308415226 0.1322529724077303
54946000.0 0.8871772757988601 -0.4578721506524647 0.04102612685363541 -0.12941856524219938 -0.00022476767078195714 0.0004424804201185107 0.37612429566228056 0.12610962026964234
55945000.0 0.8836295430504739 -0.4674609300940674 0.04287973173461984 -0.14032422864340652 0.00013852379093767442 0.0012022511616435459 0.38415442802955496 0.10449931128278044
56944000.0 0.8801031632836529 -0.4757653438819475 0.04333160813378506 -0.1523790560206687 -0.0010815519872046171 0.001725898148312856 0.39638395881188376 0.10544683294925837
57943000.0 0.8759955658286372 -0.4852249241378329 0.04485510406206386 -0.1632636990969561 0.0011240920915005018 0.0006612219514852994 0.4054052766476138 0.08558212700606195
58942000.0 0.869787898977405 -0.4892332643570665 0.04539737363852893 -0.17299993083332085 0.0003439599729651491 -0.00033751883971537636 0.4137550000764645 0.08662388884721625
59941000.0 0.8680959740628897 -0.49694108246330637 0.05015011527649703 -0.18165198346851064 0.0021033421739120608 0.0003661577871190039 0.4176793299621829 0.08752833155174372
60940000.0 0.8595945317092811 -0.5063647391707895 0.04870598859824049 -0.18587208714801173 -1.981970533933381e-05 0.0013867213495902743 0.40174612880334076 0.06837026714017973
61939000.0 0.8562532672517396 -0.5127965890786726 0.04808083529023475 -0.1940008153028057 0.00020855028849498227 0.0015494466808372788 0.41159148590241285 0.06741316637908297
62938000.0 0.8497988065219676 -0.5247489950012667 0.0514758932823948 -0.20993497494448013 0.0002660568271848772 0.0012948417107883558 0.4427196445032151 0.05497425809810278
63937000.0 0.8463691478278672 -0.5314142527239271 0.05045859033307903 -0.2315189191499444 0.00014204094913332872 0.0007375346553473288 0.4350767666159837 0.04729193304339375
64936000.0 0.8414012169443902 -0.5363167869212181 0.05414961734831745 -0.24401156781562797 0.0013429044428266443 -0.002488672361207168 0.4259376072940284 0.04038155067909125
65935000.0 0.8371080593486412 -0.5478101550341611 0.05147211766899354 -0.259175851274611 0.003944551952497396 0.0020665019906230386 0.4357634792798761 0.0197274519404667
66934000.0 0.8329503642703583 -0.5504221759948242 0.05513278057034504 -0.27115314261389667 0.0032134868959295226 0.001324594384024499 0.434423057012184 0.014609300539617136
67933000.0 0.8292462608089182 -0.5606574796856166 0.054076309031568404 -0.2836093311983446 -0.0027439130645013176 -0.003132197641235142 0.44157535362766137 0.010956898802388641
68932000.0 0.8170906283460376 -0.5532934908473777 0.049428276125495774 -0.29606144162606135 0.0024766483698995985 -0.002798015300435947 0.44875782748407084 -0.010268684313823079
69931000.0 0.8140006789011411 -0.5779676689560422 0.05293388070644953 -0.3158518995873151 0.0010490753891507305 -0.0019725237281316144 0.45194174315224633 -0.02326047390314785
70930000.0 0.8081730981965525 -0.5859800378386499 0.04292037192860344 -0.3277503675204047 -0.0019713599782252345 -0.0032593208147023212 0.45603569734719407 -0.029930670032900907
71929000.0 0.8052106901022015 -0.5937836356537088 0.04335079955739088 -0.3458258861450151 -0.004550236477586679 0.00030367073307049886 0.4487578657460121 -0.0338523195656395
72928000.0 0.7996422318698512 -0.6022547461101517 0.0361039846234668 -0.35946527526890343 -0.00025770907217589293 0.00016588868374678371 0.46718555630831393 -0.036077185013540826
73927000.0 0.7945601966673296 -0.607329314841606 0.03128066914069933 -0.37912570845278504 -0.0013506571836652721 0.00027203575980630707 0.45479452254914315 -0.05509650126085074
74926000.0 0.7869119886308628 -0.6170638356418408 0.03055318407069375 -0.39543639019250015 0.004721057818277777 0.0020823536765348667 0.4565085859651966 -0.0562793531225859
75925000.0 0.7846201753946597 -0.6219422944587812 0.02061836440270589 -0.41312368066555283 -0.0004451868273473517 -0.006062418506059475 0.46329651432228247 -0.07339149734692092
76924000.0 0.7767023276227514 -0.6309942986671118 0.0069013746499215324 -0.4367152246375107 -0.004413064734565003 -0.0031370800989357485 0.4577235079487303 -0.08047996001557545
77923000.0 0.770516826315683 -0.6351875608522316 -0.010887430018113374 -0.45783553724499226 0.0036118116323877857 -0.0024361293391460723 0.4567817176574608 -0.09302254196644917
78922000.0 0.7642270487690711 -0.6486332470223184 -0.019147247079546324 -0.48540540825590806 -0.0011386465820089043 0.0014437671047919881 0.4549332677805824 -0.10084818101721489
79921000.0 0.7549594374693964 -0.6509064679859101 -0.040866870718181646 -0.5115047822862885 0.003108819261539102 -0.003926197310322479 0.4551748176741232 -0.11746296389640727
80920000.0 0.7525307272914303 -0.6621942724210402 -0.05747183799838351 -0.5369069399182483 0.001016305924138661 -0.003363519644862605 0.4682516937854482 -0.13252056068798854
81919000.0 0.7475969859076821 -0.6671283484410995 -0.07397027703107342 -0.5639286668204997 -0.00014343062613188554 -0.0033606955841784325 0.46040734958347884 -0.12233258824416442
82918000.0 0.7358203199426737 -0.6736321118477513 -0.08815341464341149 -0.5940659924172622 0.0010161565021537104 0.00012657274737152646 0.4756760415364216 -0.13688612648563217
83917000.0 0.7292185489952342 -0.6820040981293919 -0.11259146128138732 -0.6227523824888364 0.0009789723042098086 -0.005409679581478568 0.46864258771513606 -0.14407688496306761
84916000.0 0.723834209911134 -0.6887214682078121 -0.1269578626667581 -0.6594543345214198 0.0008091789907069641 0.0023425997594967987 0.4684712555738897 -0.16932422831663319
85915000.0 0.7185157085882824 -0.6940096997779486 -0.14062440976347523 -0.6822194760366156 -0.002533682310964837 -0.00094310909497676 0.46576845728043886 -0.16260697981513572
86914000.0 0.7095284298762257 -0.7060322096430005 -0.1624213132941413 -0.7232932714997468 0.0014047460834553439 0.0009872180811177802 0.464106261562997 -0.18069183482110937
87913000.0 0.7042367160167553 -0.711101842258854 -0.18101255260502536 -0.7522185534858954 -0.003052014099786317 0.00043663182415110184 0.4585408325423495 -0.17849866201282574
88912000.0 0.6941342372641093 -0.7198645369170322 -0.19863134420280038 -0.7877509094924541 -0.002139070518038467 0.0041478647002233145 0.4576462518779495 -0.20512830518254777
89911000.0 0.6892583971446978 -0.7288394992901536 -0.21441890802607488 -0.8225003806266022 0.0012903400140654722 0.0010792949131773566 0.47255796122374105 -0.21139647863685246
90910000.0 0.6814080522561065 -0.7321357157716999 -0.231871602689685 -0.8557127341731667 -0.00047804759509598003 -0.00189874583721965 0.4565467121794459 -0.21377546164641573
91909000.0 0.672445387962182 -0.7378477343750474 -0.25442888414220555 -0.8841193666712387 0.003080321088931764 0.003361811352096104 0.4675383848315435 -0.22668743296025817
92908000.0 0.6646814233724749 -0.7459991138443401 -0.2676452556619009 -0.9159023071303377 -0.0030031190996170445 -0.0009110906372256892 0.4559422416644657 -0.23228816594045848
93907000.0 0.6585869665595415 -0.7526239597554023 -0.2877648572455165 -0.9504023470164977 -0.00041548505579998713 -0.0006100784276893271 0.4636953319210515 -0.2623024531788178
94906000.0 0.6474792270544537 -0.7612443089422521 -0.2991519863992947 -0.9852160819243442 0.002860160813078219 0.0017817213233644988 0.4572203063653817 -0.2425061670827084
95905000.0 0.6410784167106094 -0.7665177284373913 -0.3195941341529239 -1.0187604782357054 0.0038837708637587728 0.00015197756460556353 0.47144946847525193 -0.2629925580475661
96904000.0 0.631294362629618 -0.7754489692507589 -0.34310434748910545 -1.0570543641928145 0.002874645409195235 -0.002626824051338947 0.45211398054612895 -0.2617804617914304
97903000.0 0.6225270136419263 -0.7791135870147979 -0.36309821568654094 -1.0863844909447347 -0.004300477920008331 -0.004493175857288564 0.45189451920369145 -0.28455392367469573
98902000.0 0.6200239340564072 -0.7865621380369232 -0.38073619409131815 -1.1237049441489781 0.0009812948096559243 0.0021048329123810145 0.4384667743206533 -0.2968379583979133
99901000.0 0.6057442146705484 -0.792803931457306 -0.4082690533368293 -1.1488671512130761 -0.0002156315571917964 0.002070884779341545 0.45890462968172124 -0.3157682265154021
100900000.0 0.6027128681451267 -0.7968209439800608 -0.4360064473926776 -1.1842436515210948 -0.00027314804597105793 0.0012412478093608837 0.4625696391137056 -0.3152147088497239
101899000.0 0.5918954177716305 -0.8048780132659525 -0.4603640748623772 -1.2246820351001757 0.0028431405804589245 0.0005937445593491265 0.4404987484132154 -0.3121483811705432
102898000.0 0.5805955388384528 -0.8104348966640605 -0.49314546919931124 -1.256080961965506 0.0023562495936456707 -0.0019018745963245351 0.4413003165186913 -0.33311634018988456
103897000.0 0.572195340711197 -0.8200528405489473 -0.5355565205464269 -1.2915847151562319 0.0004954799919096777 0.0007676192180646507 0.45200995897825397 -0.3322986339220749
104896000.0 0.5662013688283156 -0.8273549869958734 -0.5763740515431492 -1.3246859245737215 0.0006106549052190875 -0.0010370436800963918 0.44382095622488577 -0.34220395354324595
105895000.0 0.5559090915405042 -0.8298690330308822 -0.62515386556444 -1.3660006298189757 -0.0018436821368240635 0.0013640484652884793 0.440590967062094 -0.3585423921271915
106894000.0 0.5479215675255452 -0.8359124790941628 -0.6726469477446093 -1.3995874762725125 -0.0016575752062336806 0.00019816490656867256 0.4413602930894222 -0.36194422682095556
107893000.0 0.5375878429650622 -0.8436366368349419 -0.722571488029654 -1.4279582565294449 -0.00048207096544193324 0.0019615203745569107 0.4333191172606582 -0.37912337127700785
108892000.0 0.5276646836217269 -0.8469481206935776 -0.7801658590506451 -1.4630862472803061 0.0017372251761027249 0.0007508904980780195 0.4266559198126384 -0.37774245958434627
109891000.0 0.5160025281293363 -0.8529349976739925 -0.8331300571495086 -1.49826037676869 -0.0005723598011587156 -0.0032068007905179515 0.4401214678230357 -0.39324064826934735
110890000.0 0.5052971706318451 -0.8539839001248514 -0.8890179488855418 -1.5028688520823579 0.0028221846917479317 0.00038504381028609376 0.41878748502148566 -0.3905323204734519
111889000.0 0.49859012467658426 -0.861887148847219 -0.9534805701918119 -1.5661455508242832 0.0021687481045641562 0.0010773203461451844 0.4199633804237675 -0.4016785398301009
