! Created with skrf 1.9.0 (http://scikit-rf.org).
# Hz S RI R 50.0 
!freq ReS11 ImS11 ReS21 ImS21 ReS12 ImS12 ReS22 ImS22
1000000.0 0.9829319252867637 0.012175690376575093 -0.00019462585510779737 -0.02553243952758607 -0.0003937798739725212 -0.000565524150246641 0.3413395716977516 0.28033298513588345
1999000.0 0.9913468673923848 -0.012151531083182648 0.010625335712247181 -0.03400167448909015 0.0007220268546072129 0.00047109648702151736 0.2737662872258878 -0.0651014117420099
2998000.0 0.998242027809697 -0.02151248993943322 0.008786378530381696 -0.01520613508753778 0.001552423260768437 -0.0068835726903349465 0.18155435025748784 -0.15613099915321565
3997000.0 0.9995986172978434 -0.029677989535172283 0.011551841095751528 -0.004135057227585383 -0.005651015239657288 -0.005820917450820025 0.09202091209102621 -0.213144913076868
4996000.0 0.9972916117529351 -0.03822861346678548 0.009125017172859165 0.0018852581147220423 -0.005970969764960679 -0.0008948694678339446 -0.04137710751897046 -0.2100901077456375
5995000.0 0.9945643549013692 -0.04844292622698592 0.009373204413398908 0.000761550674340338 -0.004735491169667544 0.008734087295190079 -0.12700348260445116 -0.11492044949590507
6994000.0 0.9927637105850969 -0.05918187091128463 0.003204891023885548 0.010312089834631865 0.004869739523003043 0.0016969829906637519 -0.16033912846175383 -0.021839542411992176
7993000.0 0.9949096822315121 -0.06593818959777191 0.0022115504002290323 0.005009055070913756 -0.005923625835805003 -0.004829812556443932 -0.16058432800764078 0.019852444395953756
8992000.0 0.9949862541747433 -0.0724454880690517 0.00038631705207766646 0.005048703995789317 0.0007332037977792756 0.0020683167488436214 -0.17348331369495087 0.06380491884627139
9991000.0 0.9917785077810451 -0.0859534648382099 0.0031361698052121967 0.0038695013148563845 -0.0013988984168156896 -0.001201637730570473 -0.1498191817632192 0.10436559604007195
10990000.0 0.993267822031605 -0.09340928806383142 0.0010906293793453083 0.0010577443467156263 -0.0009965910675655506 0.0020489045522289603 -0.14454483033717416 0.12223668439465109
11989000.0 0.9901159688830813 -0.10185717594120396 0.002324826533081582 -0.003521395753160935 -0.0013182964093971738 -0.0015336467172952575 -0.1268446736547915 0.1354319154166013
12988000.0 0.9897044425076996 -0.11159691637999432 0.0014226865674717454 -0.004803729185261744 -0.0014660773146706588 -0.0025871728198765677 -0.12327449995231902 0.16798390709084515
13987000.0 0.9866849729937022 -0.11982530372762355 2.0915093589372284e-05 -0.0045193844395944 0.0032596022072747953 -0.002047623161821843 -0.10495397138097068 0.19875857775794833
14986000.0 0.9870343855691416 -0.12773814567758185 -0.0006168758611301695 -0.0036025122313478562 0.0018606582985837743 0.0005226353681213459 -0.08709814284738655 0.20459825396455916
15985000.0 0.9894830401735552 -0.13545676599527542 -0.0016694691925795535 -0.0028987229470971818 0.004787403707225368 0.0015776631785475643 -0.07499180608752223 0.22086522928116473
16984000.0 0.9845083403000136 -0.14654568429234852 -0.003113110188976186 -0.0055767166553889625 0.001987716904083534 0.0001089834423626386 -0.06110692507778595 0.2241737322790024
17983000.0 0.9871657637809289 -0.15171767584502244 -0.0024408636813493477 -0.004748380310597468 -0.002864120413703851 0.0009484541949956678 -0.0516309373413941 0.22575639554913837
18982000.0 0.9831355367146747 -0.16450124211612632 -0.0033833559876830146 -0.001461378386014208 -0.002870255385155049 -0.005290983854869379 -0.03400305896063296 0.24594454071316513
19981000.0 0.981473982277646 -0.16832067371852671 -0.0055893870004677096 -0.0021837476070971605 -0.0015867889574564642 -0.0004681033257895392 -0.013736515142555666 0.25220756865822636
20980000.0 0.9809043782843345 -0.17674036051401287 -0.001754325316698142 -0.009100753930312146 0.0050921069947314984 -8.73834838830638e-05 -0.002025535700628621 0.26586654176025587
21979000.0 0.9792774367607354 -0.18531531751942118 -0.005847473268226717 -0.004386608087107162 0.003461028635533952 -0.0006496266706062722 0.008063637602876834 0.25157792466569767
22978000.0 0.9748753176760316 -0.198790724320971 -0.006423604998894793 -0.0008610734234998943 0.001831906810259449 9.455538068037781e-05 0.02658908632162816 0.26265981903745955
23977000.0 0.9776445752490907 -0.20446114492006814 -0.005700447457472474 -0.0015369233634100314 -0.004333527268103762 0.0004567436679420451 0.028805046838013045 0.2641259735173159
24976000.0 0.9731088205822265 -0.21340706631475 -0.008986534727267978 -0.0011871698541892196 -0.0004848226136837096 0.0021402949278970635 0.06610994638155647 0.24608663662309607
25975000.0 0.9747216961929986 -0.2219163015365113 -0.008336051948917947 -0.0024625537188539275 0.0024031036998685066 0.025371861139799706 0.0696989739845977 0.2537834223789733
26974000.0 0.9695212304700499 -0.23147724616652982 -0.0015487782246430808 -0.004357123413144437 0.003734930797339093 -0.0006474899032046503 0.07860324310940688 0.26143071628545006
27973000.0 0.9695723835193946 -0.2361970396396198 -0.001111469717355852 -0.0020286355340476763 -0.0004930855299557944 -0.0021157516115395524 0.1047539363964286 0.24897658068873266
28972000.0 0.9651137781495599 -0.24871091843319237 -0.002662515369316363 -0.0026396196580102506 0.0026499204809655175 0.0030587425051415303 0.10358455593755936 0.25704185075045394
29971000.0 0.9633910579090936 -0.25574270994262427 0.0006793093278667581 -0.0017291855663315065 0.0019831401232474925 0.003085392624961355 0.14795770235184066 0.2645964240796994
30970000.0 0.9602285618368261 -0.26061105814370306 0.0007709066023818859 -0.0001526617581649605 0.0016679367432599758 0.0019300436768589734 0.17128277741368214 0.24784198461409848
31969000.0 0.9600886087623516 -0.2702750542184244 0.0021576457665407204 -0.004785429484082793 0.0024474686789156745 -0.0008625666722467101 0.1442451069954199 0.24951671727136815
32968000.0 0.9564647379246685 -0.2800900806324552 0.009501152249146218 -0.0060461055573190065 0.002827860601790452 0.0015926626225730744 0.16741059275712136 0.2464628422495149
33967000.0 0.9555014981578394 -0.2898596658042035 0.011460751102749907 -0.011161411991805373 0.0012259124516596216 -0.0015827002679174272 0.18254657607878494 0.23975775096315943
34966000.0 0.9516315523057124 -0.3000745843856496 0.016990732169250043 -0.013290032691186717 -0.0011851043012918144 -0.0008597655849524569 0.18731429460565863 0.24311357570564532
35965000.0 0.9485286573312371 -0.3059012419154267 0.015953221441852714 -0.014716046536594357 -0.000939875131161499 0.0011290921669465939 0.20260761028732355 0.2546303781457744
36964000.0 0.9466771615360642 -0.31552044831994774 0.01680739512753391 -0.017104425230826947 -0.0009249500319683341 -0.0012608858341903036 0.20941727863843432 0.2533091509907851
37963000.0 0.9442888198774194 -0.323755477234765 0.02099470151067442 -0.02104706756813607 -0.0032660347670930047 0.0015930929031728635 0.2300720998039921 0.23762476936713037
38962000.0 0.9403563531204613 -0.33304984083915484 0.023641920733508112 -0.022020076722857242 -0.002572751289477872 -0.0017975488924059752 0.23684682707189833 0.23197703955989754
39961000.0 0.9366551499676931 -0.3426619200451058 0.026018838747014175 -0.0303025739757677 -0.000610093448046605 -0.0012101351940946945 0.24574233473405904 0.22987785702945313
40960000.0 0.9325067121130295 -0.3481794988237353 0.024518421083425904 -0.026268949086436934 -0.001961440540125122 -0.0011016270532052432 0.2668140929825159 0.2210949850989781
41959000.0 0.9311521211169123 -0.35970473801365943 0.03135207655998172 -0.033163506278695035 -0.00045652232687247375 -0.0033861949671464497 0.261346592034843 0.21003447164637842
42958000.0 0.924868868296973 -0.3695074267942072 0.03493671215764568 -0.0432024652770396 0.0006965455422654925 -0.0011128256413073302 0.27470008323850387 0.20264294051794418
43957000.0 0.9251360298049034 -0.372802174743953 0.03345152203542046 -0.04874253316482207 0.0013827529508958897 0.0015773270430664368 0.28373047603576756 0.2112028755143185
44956000.0 0.9207741336083017 -0.38172972241873065 0.03656807805808429 -0.05323729593769629 0.0015293588712872025 -0.00029264916146152554 0.2988898218984379 0.1880864744486431
45955000.0 0.9169424212470692 -0.3927300821665721 0.03671835150452252 -0.05853542747764237 0.00042149124782120054 -0.0008751184929568837 0.3153128176572388 0.19601717074290428
46954000.0 0.914056331332024 -0.4008035909916988 0.03801281276179803 -0.06769904335237303 -0.0009152105623514585 0.0025558016762263318 0.3247745393561584 0.18261524286322625
47953000.0 0.9099388426980188 -0.41097481558532295 0.039967636045968265 -0.07760690911038151 0.0016152398313818077 -0.0030664662237855594 0.34382582866942185 0.16375254331089142
48952000.0 0.9035817819247564 -0.4196902220896764 0.041474695443371734 -0.08015017639044571 0.0008542077012128862 0.0011395616836979894 0.33542186964566806 0.15924592104165322
49951000.0 0.9011153802722028 -0.42586204131019145 0.04200911162068172 -0.09089632936093242 -0.0025584319709842955 -0.0037899995488714 0.3499298565194984 0.14480382930794078
50950000.0 0.898048269926993 -0.43390644364670894 0.04174409009674557 -0.09916127021087816 0.006678611141716044 -0.00022206609342788615 0.34525302016193393 0.14686256693610952
51949000.0 0.8929714532653712 -0.442062223245926 0.0397541586561018 -0.10721178935245641 5.060788547324217e-05 0.0019045044770039077 0.35934531182267204 0.14012156319805527
52948000.0 0.891678472745093 -0.45007031696278116 0.044714893643253144 -0.11655242067942029 0.0005929249261256692 0.000251652644442433 0.3708644901568783 0.12997812027675557
53947000.0 0.88660511683334 -0.457291532334614 0.042454013966353524 -0.12634172537065758 -0.0009739582556858553 -0.002942779196300899 0.3811964499434463 0.12221212856142238
54946000.0 0.879118504530669 -0.46925379840099346 0.04804590899894817 -0.1368385308409689 -0.0002861539377598449 0.00039530465669472553 0.3884387963428521 0.12170452529267878
55945000.0 0.8774567714219762 -0.4735776399142189 0.049778455148568955 -0.14570792280950925 -0.0023017576458165085 -0.0019442567377857389 0.38775492803582823 0.10442903586785472
56944000.0 0.8733809613911812 -0.4848272375964619 0.05021467007171817 -0.15560848664886015 0.0004897778125394489 -0.0010745779099093154 0.4030654390892789 0.09025402099616857
57943000.0 0.8665812127421126 -0.49516238155519177 0.04934753111009972 -0.16917218119518865 0.00021207481409472786 -0.000721910844708463 0.39671403363270397 0.09217639806740026
58942000.0 0.8602352971807715 -0.5000038534534604 0.0524785626256253 -0.1810687750296785 -0.0010261789713507886 -0.0004520153288976356 0.41878842368776686 0.08825777517230686
59941000.0 0.8595712301500623 -0.5073550602273605 0.05510717418928165 -0.19208266983679753 -0.0028894843943924596 0.004555396364880058 0.4222639325054877 0.08311600758193877
60940000.0 0.8510731237419893 -0.5152993293233096 0.052737964978983295 -0.1944549008689818 0.000127258569319102 -0.00104977288306322 0.40476002157365915 0.06971882662223317
61939000.0 0.8470764178406415 -0.5226755316860233 0.056006623845801795 -0.20376218335963342 0.00023116093343222217 0.0008708959583421798 0.41799967129883797 0.07529359589283416
62938000.0 0.8413539696129916 -0.532459928329317 0.05798161186832427 -0.21929105488651604 -0.0016421787112557136 -0.0006358414840842986 0.43378226857230606 0.05311462006739566
63937000.0 0.8378735584347405 -0.5400246557120383 0.061842628307315045 -0.24040029087295897 0.002057220305378836 0.0016018461948754661 0.42703233079122316 0.031680068839662776
64936000.0 0.8303943057317287 -0.547379138778891 0.05886909522772061 -0.25728247830794765 0.0029052011745158285 -0.0012334955950435529 0.42847288757826757 0.03238096152801697
65935000.0 0.8268293570911392 -0.5587991914965996 0.05528961076447778 -0.2700897481924713 0.0009515587301282273 0.0021350736341439742 0.4376471879992009 0.017430399225749793
66934000.0 0.8233605228971334 -0.5624382553343602 0.05754137975862944 -0.28458232364999975 -0.0004456771084586812 -0.00288564232289397 0.4385421155020193 0.010632856832643117
67933000.0 0.8181790852251443 -0.5718658508462855 0.05634079133136676 -0.30334178059806627 0.003354875758665993 -0.0017720420455551486 0.44377053583884746 -4.202642249758323e-06
68932000.0 0.8163261271255831 -0.5674899255459487 0.055495355971888136 -0.31338659579272604 -0.0017968041240299674 -0.004369345058652258 0.45070474910717556 -0.0072950334370687105
69931000.0 0.8035764661963766 -0.5888328267813739 0.05094623602368017 -0.33421928957266883 -0.002214853500834806 0.0026433077981649817 0.44822226225769285 -0.012520236357034958
70930000.0 0.7994359882576598 -0.5916310115337927 0.050947019855273404 -0.3500872154340349 0.0013448424380135735 -0.0005941661376363582 0.44880403945035396 -0.03419166973891538
71929000.0 0.7959994898889605 -0.6025139755603304 0.043611786047419186 -0.367984792602037 -0.0003368643301260388 0.0008338829305296609 0.45117961150533575 -0.050944085265458294
72928000.0 0.7891966521308305 -0.6128318670553033 0.03814624233893708 -0.38415602014361183 0.0013890913276063245 0.0018480792540551119 0.4644733833560999 -0.050708214244809195
73927000.0 0.7832620784177602 -0.6172175991380111 0.033082025431302724 -0.4069540873329116 -0.0021511523519967025 -0.0009953767361431836 0.4578091798387855 -0.049662672712497045
74926000.0 0.7742236529993491 -0.6274161902448352 0.018170624928817953 -0.42661066244112583 0.00011968675463104787 -0.0020991034329308042 0.45761100584239206 -0.07191593273339496
75925000.0 0.7699651558223125 -0.6321063563645932 0.013741748063388189 -0.4477151486151908 0.0037014697076623473 0.004358722159585079 0.4681105651767238 -0.07541701926573514
76924000.0 0.7637380393315085 -0.6393343128810335 -0.0025608316562313635 -0.47180931871982823 -0.0023899045890356727 -0.002407588878132276 0.4601842755923866 -0.08889218725799448
77923000.0 0.7557574432917956 -0.649313299307082 -0.016992351110771783 -0.4995950882638542 0.0036376219569950546 -5.173921367269555e-05 0.4565951544084508 -0.10505699598181448
78922000.0 0.7510958576908824 -0.6555734874517103 -0.02673880973964986 -0.5263320663755124 0.004983435392278566 0.009068948327241998 0.45520756820514485 -0.11359390322001608
79921000.0 0.7432532963238971 -0.6607280751146126 -0.04933236655268542 -0.5508278093197105 0.004118327199732218 -0.000270607964721636 0.4631752356143261 -0.12212037275415386
80920000.0 0.7392583677869771 -0.6716074327387499 -0.06326390717462892 -0.5851768440300761 0.0005315679814934139 0.002814527444949865 0.4672976190370726 -0.12430021362525055
81919000.0 0.732686700871986 -0.6774675683332192 -0.07895459651018541 -0.6177344827050808 0.0009923387826627922 0.003440338304196744 0.4711110066122497 -0.1419758474874964
82918000.0 0.7239697498041083 -0.6858647118445277 -0.09394598597199319 -0.6439990122164397 0.001219337306021722 -0.00024466004040032675 0.46864064856360427 -0.1436399689358234
83917000.0 0.7151126196460921 -0.6936988195347488 -0.11591705641222283 -0.6758845782037977 0.0057739430588007925 0.0019183202370110551 0.4709886697609034 -0.16256033440189105
84916000.0 0.7090579187021474 -0.7009220868190549 -0.13404929746092029 -0.7137788158212834 0.0009023081120731935 -0.0017184997585355983 0.4568108209829831 -0.17954877901242589
85915000.0 0.703053721694463 -0.7066351232202971 -0.1540406071781208 -0.7425882981741605 -0.0044708551613344945 0.0048672557541564136 0.46094220631303995 -0.18100439373470167
86914000.0 0.6955217564553503 -0.7165889407284097 -0.16994364609961074 -0.7812463159461108 0.0028865529755883685 0.00432164643673241 0.4537851258233158 -0.1838547888919878
87913000.0 0.687785340900861 -0.7228578319724331 -0.19291677449085015 -0.8085240455948398 0.000511527534949109 0.002996373480350854 0.44951786374867336 -0.19184122555079003
88912000.0 0.6821907882399987 -0.7288318419728171 -0.20834799629305567 -0.8475769830538515 0.0032802980686323082 0.0003772255448778087 0.4579790707767147 -0.20690623672692168
89911000.0 0.6726790159649587 -0.7368537309347188 -0.22172000418062207 -0.886127954638124 0.0009356353450657022 0.0004998070320841678 0.4597691424425689 -0.21256584595749334
90910000.0 0.665503642292853 -0.743113768842259 -0.24564136366980202 -0.9234618293180503 -0.0038942019258400083 -0.00031610009006896963 0.4493793843522381 -0.2214464846327514
91909000.0 0.6573231954580055 -0.7484639177367713 -0.2643550937771128 -0.9504359731023936 -0.00014961819815613233 0.00024390701342419887 0.4607415367402243 -0.23073761758815262
92908000.0 0.6482285558001052 -0.7567031740341189 -0.2834360118867856 -0.9882385269183316 -0.0006918997722091008 0.00035653321641187184 0.44417905968793653 -0.23831433472357574
93907000.0 0.6441071753916379 -0.7611398682463071 -0.30303235679059953 -1.0240718347010307 -0.004935025253847411 0.0007768197145337495 0.4594733876850942 -0.25151024571413205
94906000.0 0.6277025944913776 -0.7705242108991729 -0.31761774431530615 -1.0544663821844 0.00473822833450442 0.0031752979410284436 0.45515464912518916 -0.254383534199299
95905000.0 0.6229747515555704 -0.7770743848591816 -0.34711984340760715 -1.0939892925607992 -0.0008813680302435548 -0.00312720635094082 0.4578118684918089 -0.2704232249789923
96904000.0 0.6146969975809136 -0.7850618411475687 -0.3683066255478766 -1.135683361138366 0.0010053962275788186 -0.00296015373493663 0.45138734285338084 -0.28767989988833853
97903000.0 0.6046282622848005 -0.7908145750499687 -0.3952512051618679 -1.1658391340571352 0.002879751475088422 -0.0029680291945542 0.4429126943098371 -0.28903395559034367
98902000.0 0.599018992321821 -0.7985882279314854 -0.418561066309761 -1.2109403678508022 0.003053487204119551 -0.002788349903003239 0.44947912585042743 -0.2986147587590667
99901000.0 0.5916930850525115 -0.8027288639428892 -0.4477492522677991 -1.241523698323003 -0.0008993199031377995 0.0004722561083461166 0.4608921615358699 -0.3253891759966726
100900000.0 0.5812581039214549 -0.8056423981119881 -0.4841499042252594 -1.2713389903069412 -0.0001117479077993126 0.001494882092757314 0.45863459757682595 -0.31933284590618444
101899000.0 0.5699654694123919 -0.8144685531796251 -0.5112051555552077 -1.3113581036630595 -0.0008100509883505277 0.0010084759228148846 0.43872112756746334 -0.31506965765515016
102898000.0 0.5601327268383617 -0.8188689321525279 -0.5528605295760869 -1.350128111938215 0.0005166459522396176 -0.00139735660417748 0.4499953316690736 -0.33947361060477216
103897000.0 0.5526890254154095 -0.8282514842307044 -0.5982254913941477 -1.386367108505619 0.003191410319424006 -0.003248167065526951 0.45397962656301516 -0.33187136231332964
104896000.0 0.5456513817623296 -0.8386386004703459 -0.6492317027171607 -1.427693077839553 -0.002211203886142784 -0.0005021128954757601 0.43763118030837456 -0.3399513964243992
105895000.0 0.5338702576478513 -0.8400157703394721 -0.703388326922009 -1.4750632688636975 -0.00024370152379702358 -0.003905158260429404 0.43156420848247834 -0.36452845522522925
106894000.0 0.5238417498954355 -0.848273517448522 -0.7695703966144293 -1.5106611445505276 -0.002090279816362648 0.0004329751880511563 0.42565375123210203 -0.36878287177150704
107893000.0 0.515708087953267 -0.8514838281380248 -0.8197849399179205 -1.5504457824715354 0.0010126195119936308 -0.0009740888666496403 0.42352032732216827 -0.3800629496411396
108892000.0 0.5051534436928319 -0.85574742442281 -0.8846170013916865 -1.5794613468359335 -0.0006983356001038514 -0.001657647345321855 0.413752872725416 -0.3841200326778932
109891000.0 0.49303128963949755 -0.8627856166849409 -0.9469147390654146 -1.6159553254161076 0.001279350973659243 0.0021211167032243058 0.4381527763692161 -0.3846161722678177
110890000.0 0.49011033775556256 -0.8716855183270676 -1.0089316457497544 -1.6377190030053055 -0.0003729970090533586 0.0035065831299573285 0.4221985570923781 -0.38933232736842444
111889000.0 0.47276950898562103 -0.8703847950616411 -1.078614258450508 -1.6887404947081897 -0.0021361993964200132 -0.0005910644083006271 0.4078690264582778 -0.4137761091230096
