! Created with skrf 1.9.0 (http://scikit-rf.org).
# Hz S RI R 50.0 
!freq ReS11 ImS11 ReS21 ImS21 ReS12 ImS12 ReS22 ImS22
1000000.0 0.977183456488961 0.011611903310690695 0.00904769590161168 -0.03875611649900515 -0.03280712175112979 0.015017857830481238 0.3220223019696706 0.3057263879012643
1999000.0 0.994321635163951 -0.01302285009999536 0.0033430448482628643 -0.030354231397790372 -0.008757738377324754 -0.0019326327483857781 0.27856581092036753 -0.058941813469879395
2998000.0 1.0031224871029085 -0.01925594320528487 0.008944865858547231 -0.02089394878787148 0.002266978206824793 -0.001347057476049721 0.18940858220463538 -0.1540899157772172
3997000.0 1.0002407237251274 -0.027857708900650553 0.013411675898541699 -0.0006258173573429284 -0.003522564683879174 -0.0010056500693438133 0.08844498611069497 -0.23811397641282836
4996000.0 0.9972382816020291 -0.036216067101109625 0.015253514874382795 -0.008219413426509392 0.00022477250481567056 0.0017095179689148898 -0.051725817763129775 -0.19314433944753723
5995000.0 0.9999667227621503 -0.046310364469789374 0.008524778893721172 0.002880319013402169 0.005262188014056417 -0.0011405453474198132 -0.12124356272004845 -0.10609134481167479
6994000.0 0.9966547749904924 -0.05787687891603066 0.005896997589875547 0.007399358803808745 0.004477320288313913 -0.0030451286216435286 -0.14035930390697782 -0.024906467036467348
7993000.0 0.9987766741918976 -0.06435535586089015 0.0009514183732814734 0.0038130113300023694 -0.0010396264083441646 -0.0055556825880870315 -0.16585135238411783 0.042625346130197854
8992000.0 0.9982918485372401 -0.0705167172873933 0.003780715003671295 0.005429270387990891 0.0023938167572170547 -0.002514927588493718 -0.16922463874084745 0.061053117144988366
9991000.0 0.9965468348082641 -0.0813332430645079 0.00464181109801468 0.004310602487651552 -0.0021904236956438103 -0.002409470557459068 -0.14550697949502667 0.08654703866495887
10990000.0 0.9951293228006197 -0.08994749809649995 0.003400205466660777 0.002324385882914058 0.0005190780906766966 -0.0005223252149039284 -0.13738906359322828 0.11371415685382308
11989000.0 0.9955460817606787 -0.0978577940480977 0.00705500056245693 -0.00304796353558116 -0.0006617070638860841 0.0007026633668580266 -0.1284516418563513 0.134494183403624
12988000.0 0.992670500805824 -0.10907944995696812 0.002461345468836238 -0.0035228971929846774 0.0028143049060438178 -0.002845117673755815 -0.11711590673471868 0.1651957376892778
13987000.0 0.990379448421833 -0.11809617589348945 -0.0020790417833534496 -0.00409487935787741 0.0006782711354129114 -0.0013550676169718175 -0.0966286407892704 0.19861070337277434
14986000.0 0.9910748884491367 -0.12446871439253789 -0.00019319849534734428 -0.0036986738623554687 0.00027668620533868144 0.004119547717696238 -0.10145164536317401 0.20242137827402215
15985000.0 0.9910667683179148 -0.13362415166385314 -0.003255015539550991 -0.006235170054760461 0.001838830310289482 0.002864378563608638 -0.07115469114031474 0.21734948107848434
16984000.0 0.9883730626082412 -0.1443949717698156 -0.0033654617379249565 -0.004419192993371428 0.002357283063592555 -0.0034937689258735614 -0.060106223874868886 0.20360596107264184
17983000.0 0.9919456910353702 -0.14587661193749227 -0.0024510945204518158 6.192904678004378e-05 0.00046842723088935087 0.00036512558695787775 -0.048532308331247304 0.22689942193192283
18982000.0 0.9878112737159828 -0.15796541577069267 -0.0030552180182853985 -0.003979769944763673 -0.00162567702459073 0.0017863166605386156 -0.020775050908127278 0.23401174680134054
19981000.0 0.9862105629072011 -0.16301754498292959 -0.005386167022694986 -0.002655506648105598 -0.0018103942339249871 -0.001682709536631667 -0.010061410998614354 0.24439612644662162
20980000.0 0.985690813543129 -0.17441736089530907 -0.0047275770506208445 -0.003432561555026089 -3.169738197234905e-05 0.0013298979878014002 -0.0017950716835649489 0.2622193190927413
21979000.0 0.9811864518401128 -0.1851220776282778 -0.006383626661146296 -0.007283975576400719 0.002447964096435474 0.0005572032734575881 0.009519999177981103 0.24815999786067705
22978000.0 0.9801725969814828 -0.19317407888372473 -0.0066488718461356336 -0.004262989860938557 0.0012310688873091071 -0.00449074488590696 0.023437194010807082 0.25988120786670926
23977000.0 0.9821132062216907 -0.19630681909946648 -0.008158542990081773 -0.005417862802894471 0.0006832251245434879 -0.0030227381551084665 0.04367635052922378 0.2533216953607574
24976000.0 0.97831816937102 -0.20730941143020035 -0.007946821289232695 0.00016565222053151055 0.0020380234656357642 0.0012286281347576203 0.06392949119132763 0.26200811230362303
25975000.0 0.976896104886524 -0.21294117484774402 -0.007267608045735577 -0.004370248301156298 -0.019606048732429302 0.023402578901941713 0.07712636900883946 0.2587761590496163
26974000.0 0.972035665597387 -0.2243703296040831 -0.0014058728135849033 -0.005183679172192553 0.0004767069069270078 0.0011895913742391061 0.0838906534336929 0.26778264169342275
27973000.0 0.9738874793139158 -0.23157914481357575 -0.0035073296355942257 -0.0020862392914003124 0.003910449600813977 0.0015996228176335214 0.10171616595377318 0.25699435130302856
28972000.0 0.9697320408504991 -0.24269682341746052 -0.001925174550457644 -0.0031332265707366596 0.00013034141832157526 0.0012655049804982674 0.11662582217281514 0.2604324984703616
29971000.0 0.9686718171167665 -0.24801127413829738 -0.00035014190528817005 -0.000603335797948514 -0.00019382164550761774 0.000477410963961574 0.1476228313454336 0.26106938050173106
30970000.0 0.965833052967855 -0.25542363870791707 0.0037558564985691275 -0.0003448440289827423 0.0009349567052591137 0.0025278653813427293 0.16742556829572966 0.26142992283755884
31969000.0 0.9639759907230734 -0.26375896620677985 0.005754796154926144 -0.0060141551782230615 0.001652570596690331 0.0011845825745192117 0.14877944019841777 0.2547836185123475
32968000.0 0.9609075472736363 -0.2729234195934174 0.006399411902659511 -0.007530615825422232 -0.0006016480858324901 -0.0019783009891164434 0.16583685171663465 0.24685313591225638
33967000.0 0.9589832578850211 -0.2841094759916166 0.01248421220589771 -0.010314176001897324 0.0006057947421780689 0.00020501915026262076 0.18787579757436756 0.24470581491005738
34966000.0 0.9570937489765807 -0.2904343903189734 0.01254153212037441 -0.011412549186032756 0.00045799571914368134 0.0037679388379120568 0.19736399099895832 0.2586848571098878
35965000.0 0.9526454800138227 -0.2963052953597582 0.017096141794406484 -0.012427657325318716 -0.000955591276395332 -0.0003081500874787162 0.2116795461651163 0.24640834265367395
36964000.0 0.9515319601792153 -0.30606918771986863 0.01701075388311816 -0.014441462025985476 -0.00216363630121805 0.0016290506394067298 0.21820369593404024 0.2520923052231561
37963000.0 0.9493345093039293 -0.31482528706358376 0.019368964073988634 -0.019105690974956593 0.00253137944268851 0.0021955938973393986 0.23125943854205916 0.24132739791663013
38962000.0 0.9463882166816125 -0.32301241314723067 0.02100637177697238 -0.022663914322499947 0.0001081147665135375 0.0008508497035139187 0.2389123489371608 0.23070668782314985
39961000.0 0.9428656186723487 -0.3338004113038347 0.026251995085901987 -0.03127499911462474 -0.0036023214332428 0.0007813756659690263 0.2531079023877192 0.23213393568129764
40960000.0 0.9390722343940417 -0.3413097512102193 0.024113588414252693 -0.022864440107031227 -0.0012536128062898223 -0.0023354685193138778 0.2634477904696088 0.22600295241585033
41959000.0 0.9360993951464428 -0.34951236617101833 0.03070162195572775 -0.032039023793611066 -0.0008844793567050512 0.0027900058116196854 0.2683933452777072 0.21903521808065815
42958000.0 0.9311055669994112 -0.3588325587230137 0.03276265472665287 -0.0397509335696928 0.001340669001103257 0.000851370524803857 0.2812729732653871 0.20060494019701713
43957000.0 0.9313396744489418 -0.3633759131358859 0.03351407291797524 -0.04650355648172125 -0.001681051207662806 0.0006849673621943028 0.28887190350559994 0.22000005861374528
44956000.0 0.9277726841053254 -0.3712935578124135 0.03493741021216894 -0.052648080020420825 -0.0013848433357612018 0.0032243735019221627 0.3071750944794248 0.19652724809948474
45955000.0 0.9229789418297046 -0.3822824860086041 0.03667703489493678 -0.05707756596207997 -0.00224205233862024 0.00020071975633582833 0.3121026652249371 0.19429751784438945
46954000.0 0.9190606490492169 -0.3911899104261664 0.03907128394313426 -0.06424078504567778 -0.0017760036682339785 -9.29805843940233e-06 0.3251767466810737 0.17390143888396323
47953000.0 0.9181427928309023 -0.3966564297281349 0.041004742777187346 -0.06934188776999585 -0.0031098688657951556 0.0026650145748303056 0.3342307629578054 0.18121916599974547
48952000.0 0.9116135494739753 -0.4084658179278408 0.042597591827650806 -0.07822153183481424 0.0020698448005420193 0.003008425991938171 0.3315215448981531 0.1663302104650319
49951000.0 0.9098041363384011 -0.4118949707359099 0.0392133308513557 -0.08687807091753427 -0.0032361132100076915 -0.0032218254564165506 0.35981357091663113 0.15020197575672056
50950000.0 0.9051228113017763 -0.422543280062728 0.042580084944050446 -0.09532513062565112 -0.0016060281345675797 -0.0016243538851732342 0.3502139738436344 0.14553666638565735
51949000.0 0.9004863235741734 -0.4289985815406258 0.04009273637103947 -0.10427988245377115 -0.003358992556182577 -0.0014457096986290289 0.3595370559161498 0.14529697236056704
52948000.0 0.9003573647820661 -0.43651029404550556 0.04619193380956318 -0.10889461783386237 0.002317905200943389 -0.0010720006912029426 0.36624657341800254 0.13700062424883946
53947000.0 0.8960321265856378 -0.44534345259183883 0.0476920641648918 -0.12038686595132313 0.00011268495529339817 -0.003961370845934444 0.37267340565120755 0.12650303719804723
54946000.0 0.8886449477258345 -0.45678423883858865 0.0495503248676377 -0.1296056226346742 -0.000920790284525213 0.0005365805302300649 0.3883343395601928 0.12114607506373809
55945000.0 0.8863820855037619 -0.4638616180705208 0.05204371329324058 -0.14009364659020399 0.0011678866059469798 -0.006729060940381699 0.3809097944611443 0.11347676801710906
56944000.0 0.8821408698179661 -0.47146440246406973 0.05127366916117186 -0.15046226265745405 -0.0028122599937173494 -0.00010658007088243248 0.39459416002887876 0.1032334334809396
57943000.0 0.8781058947654508 -0.48060209202121357 0.055069958519280836 -0.163947715666839 -0.000265079333867864 -0.0018750808402138745 0.4013125872801684 0.09806753513521813
58942000.0 0.8731741085465508 -0.4858869725655715 0.05288360482509017 -0.17228769848965914 -0.00021369459372514848 -0.001956798034318474 0.40798782240479775 0.08156089697447644
59941000.0 0.8688044467460379 -0.49352543970428825 0.054987968496102886 -0.1827139359700611 -0.0021783396680111343 -0.0025348622460538445 0.4220376853567816 0.08855763260798151
60940000.0 0.8616104233543197 -0.5024778207415627 0.058537671333424704 -0.18381752957892766 0.004308513091675088 -0.0010057857671315394 0.40856779223672834 0.08766717369127189
61939000.0 0.8592029985282708 -0.5085449910971775 0.05838410997079978 -0.19527892299264546 0.000746910436066361 -0.0010817542175190068 0.42087473560642175 0.07313483083473035
62938000.0 0.8549766589280268 -0.5185654315091477 0.06175430373037764 -0.21130294676538766 -0.0009086456778588258 -0.004042411207819965 0.4428531685251772 0.047336062082317436
63937000.0 0.8503241977737048 -0.5253047250068339 0.06282774767860586 -0.2351684384075453 -0.0014690470476910941 0.00034998500952337973 0.4390522312796424 0.04458763977749208
64936000.0 0.8416243811239037 -0.5339458084841626 0.061931093234260555 -0.246879752258178 0.00030262336922129933 -0.001152760673557677 0.4408267045023573 0.033680696822235845
65935000.0 0.8393662119428369 -0.5415724492971671 0.05971214427783846 -0.26289858527605775 0.0010115384841899754 0.003421126363217624 0.4380777425400422 0.019216869678490164
66934000.0 0.8359388221260219 -0.549608429323604 0.06027385137264321 -0.2755262556121803 -0.0024466171720191015 -0.0006911794617827237 0.4351098872354974 0.01114259740602705
67933000.0 0.8331735520580918 -0.5564020462829931 0.06288569580618691 -0.2935102023729017 0.0022803015640906997 0.0014773852069130478 0.45174395833105324 0.007954578593590661
68932000.0 0.8277302540857184 -0.5566524526095182 0.06280983650317196 -0.3086123568703217 -0.0032968652279949007 0.0011012255209711273 0.4502509917871441 -0.008631660534512742
69931000.0 0.8170894807864609 -0.5728535621998974 0.05847269546075607 -0.32393678364074935 0.0017370574936517698 -0.004456159438647616 0.4517790704872787 -0.02290748545564237
70930000.0 0.814430425913975 -0.578084495562354 0.05852177239770364 -0.33791173822581444 0.000740732691797086 -0.00017874209901151767 0.45656207703929047 -0.03265119228235018
71929000.0 0.8093268043153861 -0.5882249648787824 0.05239333845664462 -0.36008106550605723 -0.001490543959595341 0.0022625052518422673 0.459942551069274 -0.044953691137639515
72928000.0 0.8031613030167324 -0.5970440495863472 0.048872309487616096 -0.3711387610021172 -0.001555048757399459 -0.0001483048639655431 0.4730511665285612 -0.036756609500978754
73927000.0 0.7977590758738893 -0.6004622266070017 0.040644616416087735 -0.3940305219601003 0.0015796388697672493 0.0021564164279935464 0.45585563149063635 -0.05048265677124306
74926000.0 0.7927125658610128 -0.6107146549232705 0.03575805199749049 -0.4166380939384141 -0.003975960751626025 0.0042897189602268135 0.4701607252978623 -0.056020050420167083
75925000.0 0.7863571162213928 -0.61650456905523 0.025694172852110744 -0.43486246613452156 -6.805495652079822e-05 0.0037035881407443175 0.4781406552154376 -0.07367670980134788
76924000.0 0.7799066660651747 -0.6247899943429824 0.015309522103494778 -0.4615362667721385 -0.001449866576183795 -6.68794228524697e-05 0.48085474693408725 -0.08559994673453317
77923000.0 0.7738801019121387 -0.6318710040138396 0.0052543150540685 -0.4829167996596853 -0.004310523513086855 0.0014349125882524556 0.4610285025654754 -0.08553655325786436
78922000.0 0.7683357911005876 -0.6413064566982266 -0.007267681037150791 -0.5123198122820863 2.486856171925786e-05 -0.005056802863444353 0.46481881726529545 -0.10679014335177149
79921000.0 0.7617289024617049 -0.6474215460760374 -0.02876454871179921 -0.5351334144814418 -0.0023304582402013316 0.0007425342807720806 0.4636845468728365 -0.1080163650394341
80920000.0 0.7561235911644955 -0.6556701168289637 -0.04178776491535368 -0.565425883623901 -3.19450657941177e-05 0.0015439337301007999 0.4689515470277412 -0.12310268993928679
81919000.0 0.7525129087678156 -0.6606495492905456 -0.05184083870072129 -0.5945130038769596 -0.0017336155490751263 -0.002677144873555585 0.46595486632912025 -0.1338825781990011
82918000.0 0.7426836182877075 -0.6697547126128184 -0.06971034485577006 -0.6251632821192313 -0.0024947469435093396 -0.0030435893542084167 0.47563867559556905 -0.13939257592387427
83917000.0 0.7369529142785369 -0.6769894671694466 -0.08925737581644233 -0.6559769915838225 -0.002375341885101634 -0.003948614709968778 0.47827968393597087 -0.14880606760178763
84916000.0 0.7291094509855374 -0.684330445934249 -0.10701919166594843 -0.6923003265405606 0.0020478077925747138 -0.005544979830258203 0.4662079422656335 -0.16285708606764326
85915000.0 0.7240140822919747 -0.6893308261298849 -0.12629390791317502 -0.7229976203999696 -0.005247162740370535 -0.0012756276000742413 0.46530665275762834 -0.17578400047925824
86914000.0 0.7156109927295486 -0.7014102864355711 -0.13980284520612649 -0.7596267571342337 -0.0006195885816640987 0.0013025598342266164 0.4723896481592103 -0.17978668317764115
87913000.0 0.7107630287498699 -0.7076424995308801 -0.15585660955330358 -0.7923455399436214 -0.0028994365365097646 -0.002421091947108218 0.46570291175160927 -0.1885790895037752
88912000.0 0.7048489517546936 -0.7126003595110723 -0.17408170653426275 -0.8249183279707869 -0.0007160494838656414 -0.0031628592835193834 0.46906176328760524 -0.20599510922961886
89911000.0 0.6951173343357064 -0.7220970891133834 -0.19209627525024997 -0.8646357247922273 -0.0009312547789586932 0.0007053535656134415 0.4789247035177765 -0.2021901250937095
90910000.0 0.6879129639142191 -0.7279686077433244 -0.20691382685044496 -0.9002320712544649 0.001014215875923662 -0.0019438253886860308 0.4694365762792935 -0.21247671860506295
91909000.0 0.6803126613758403 -0.7335437787485632 -0.23189746811355041 -0.9302084319008965 0.0006298844140404962 0.0020521205454792028 0.4724357975259518 -0.2287324889254211
92908000.0 0.6733742151439318 -0.7422014657276645 -0.24773657936212268 -0.966960038033607 0.0021201511013223787 0.0030469085744835706 0.4686517507835256 -0.2234807192075777
93907000.0 0.6656098296234636 -0.7460382834510733 -0.2675953594758956 -1.0005714788479463 -0.0027457879250429237 0.0013325645571185183 0.467425667615437 -0.24206508957564074
94906000.0 0.6513729185281887 -0.7549329997510174 -0.2845370495253499 -1.0365003976667875 -0.00012235674358894216 0.002115302794194559 0.46773040577838404 -0.24779647740714186
95905000.0 0.6463699217713665 -0.7609439914331919 -0.31134208787811046 -1.0726412773507736 -0.0003999656676056577 -0.002716196719500589 0.4626765910218017 -0.2629634687583894
96904000.0 0.6390156317797634 -0.7679462898153163 -0.32774351618414344 -1.1142651443100309 -0.0027109999052789915 -0.003850335242089615 0.46486725456888073 -0.27893767752419435
97903000.0 0.6283187794396604 -0.7749342362345694 -0.3554707246271865 -1.1460295904596107 -0.0005149065117606237 -0.0013341769863760605 0.4516602930300062 -0.2744577981257755
98902000.0 0.6243269924111251 -0.7809187366870376 -0.37339218794710394 -1.1886194720279804 -0.0019359455196124632 -0.0025466543855797216 0.4573109329852002 -0.2880632148560551
99901000.0 0.6134981418248631 -0.7878875841663203 -0.40495581452715607 -1.221535066537448 0.0008656078614786235 -0.0003242188078634616 0.4682239289779943 -0.31292655207478026
100900000.0 0.6046133776984963 -0.791413689275726 -0.43976082322194826 -1.2572632698584472 -0.002902247887536547 0.0023567986088950514 0.4700976309706369 -0.3138084458579706
101899000.0 0.6000634814327419 -0.7984491582335204 -0.46359037076323845 -1.2971327904499996 0.0013692222505844733 0.0014483897386423277 0.4561159255585727 -0.311896119380871
102898000.0 0.5895755256466602 -0.8041390193682088 -0.49780417977865216 -1.3336724175823327 0.0009559523604121222 -0.0008955026330209713 0.45606770134373553 -0.3348455939101502
103897000.0 0.5813058990391521 -0.81269114699699 -0.5403830046794139 -1.3725431303761093 0.001452261243991233 0.0036017825024980393 0.46797999259148376 -0.3315776211674648
104896000.0 0.5733527813214263 -0.8216756804049786 -0.5864254017665557 -1.409067193133079 -0.002010376108959106 -4.05502839255835e-05 0.44826396982354344 -0.339818081970394
105895000.0 0.5615637988955678 -0.8239973680431135 -0.634683668082756 -1.4515950315807844 -0.0003950124080414003 -0.0007643982153663982 0.44570917167310575 -0.36125919513069
106894000.0 0.5541602323641995 -0.8293053767768881 -0.6978273085616815 -1.4911129782821821 -0.00390932152306032 -0.00040301977000352954 0.4343049870795856 -0.3611539603421247
107893000.0 0.544941941166033 -0.8372672889365712 -0.7452354084115268 -1.5295151809311032 0.0008054395614541504 0.00017828258671150676 0.43119579993576873 -0.3756567701263382
108892000.0 0.5371331600132089 -0.8396088755809008 -0.8011687052114417 -1.5711051726459377 0.0002122928943849527 0.000507221605332087 0.43143203391568075 -0.37187922753412683
109891000.0 0.5257699556096533 -0.8465804960871843 -0.8578972312720771 -1.604825827769389 -0.00041587377949087477 0.003344538600942285 0.4513482810794236 -0.3799671073285813
110890000.0 0.5207412740463099 -0.8555853212822354 -0.9186978402531961 -1.6275083291688903 0.0035553113593238487 0.0006128308746357417 0.42682067550927805 -0.3823573966458654
111889000.0 0.5053809319300226 -0.8541582962902965 -0.9874839843435891 -1.6789931782961214 -0.004815939202397421 0.003574356940109883 0.42301983736395415 -0.4038474298625333
