! Created with skrf 1.9.0 (http://scikit-rf.org).
# Hz S RI R 50.0 
!freq ReS11 ImS11 ReS21 ImS21 ReS12 ImS12 ReS22 ImS22
1000000.0 0.975881628642506 0.0008515807592039847 0.0044295046954381245 -0.050118098304399894 -0.01580124544393712 -0.012695472455582597 0.29811109612258496 0.32168662094900824
1999000.0 0.995912119279266 -0.010958236845913513 0.0026926218710680893 -0.023728113810489566 -0.0086933003297279 -0.001180753528748804 0.26810965840726664 -0.07337731712797091
2998000.0 0.9992637044619845 -0.02012850771298794 0.005103173770244031 -0.016007904214490203 -0.006580222053207624 -0.0038964671104322235 0.19236704942859417 -0.14338354862095165
3997000.0 0.9960589307420662 -0.02909956445055161 0.011696944475881427 -0.0074127445504176765 0.0007918498496450031 0.002173179840012829 0.09852705334034403 -0.227346594830622
4996000.0 0.9953935956978255 -0.040285460196502636 0.007040676884688185 -0.0011811445677466777 -0.0071297339631908 -0.0039377040706258795 -0.031315559362003385 -0.19013899433436804
5995000.0 0.9961077690082498 -0.05122124943436121 0.007070361252407162 0.0042886255257902186 -0.00047390165644744777 -0.0011002194929978133 -0.10693654460521126 -0.11695255402896364
6994000.0 0.9953104145315566 -0.06016863471594689 0.0078113512157562655 -0.0013582398204305126 -0.0014894597894247366 -0.0020443623812051565 -0.13407427532002672 -0.03768853212397208
7993000.0 0.9981622764871182 -0.06914235322357604 0.007915525518154883 0.006615914117001435 -0.000660057428158235 -0.0035852507290506388 -0.15646038832799006 0.0394845465605793
8992000.0 0.9942621527753746 -0.07161553778083278 -0.003236461379347981 0.009033931165206482 -0.0015536225170504074 0.0017374391674283038 -0.1653905702120966 0.06522734077062732
9991000.0 0.9945483948688753 -0.0809378488705 0.0004639956048702776 0.005692922854580507 -5.6418633298790776e-05 0.001381935325767547 -0.15324357999756338 0.09118738062155528
10990000.0 0.9926337704357416 -0.09502389989641208 2.4936153093162465e-05 -0.002512516869473515 0.0029609740994473925 0.002836164470054884 -0.14758441207075637 0.11161541879923752
11989000.0 0.9911204151018975 -0.09791302651456699 0.0030080743574039644 0.0008829132624429912 -0.0007196814258047269 -0.00011036744346352952 -0.13058112092701024 0.1457286245507228
12988000.0 0.9906259169846168 -0.10876706718206297 -0.002199238901414774 -0.005181942045353646 -0.001200768452055666 -0.0018332840497445669 -0.12654715261205582 0.1751310219429472
13987000.0 0.987292905455704 -0.1174819328485634 -0.0041145926154419485 -0.002528127478164538 -0.0008614498731722486 -0.002075090261659121 -0.10475384169740289 0.1866579300287975
14986000.0 0.9888881464658246 -0.12614678575526952 -0.0015032305250804129 -0.004253202034687098 -0.00017942581399359422 0.001488870140644152 -0.08565291166719878 0.20876263917495158
15985000.0 0.988876589297275 -0.13421304966652312 -0.0008975919879255631 -0.004887757642632032 0.006441814997322943 -0.0027481063162048893 -0.0723687753765067 0.2174764446851997
16984000.0 0.9853376475833534 -0.14611509723811317 -0.0038126112171343813 -0.0033474306425945693 -0.0016368883635049893 0.007492788862581272 -0.061251021436142236 0.22344284008002865
17983000.0 0.9878300546905877 -0.14645376830928789 -0.004825066810874593 -0.006985931939905834 0.0012678199824212493 0.00017911671832183466 -0.07015261583551405 0.22608684306132187
18982000.0 0.9825839370709817 -0.16157146868209446 -0.0075865722179235436 -0.007287021303463485 0.0034814979428153987 -0.002622374558043177 -0.023663568919822835 0.23648771432659416
19981000.0 0.9819060455988262 -0.16719246495125245 -0.005081545954248184 -0.005124873608291614 0.0031329166276213524 -0.0008801234016168716 -0.0211033051466038 0.247778156837481
20980000.0 0.9824503336166106 -0.1757615267503401 -0.0043323285440624755 -0.004686973671741875 -0.0005469825257170639 -0.00224343351070389 -0.005165441341194298 0.26561236153175266
21979000.0 0.979775053229087 -0.18431337807912826 -0.003003431838412555 -0.0038451609449813387 0.0013995201064972433 -0.0018267739708321728 0.013400299507717222 0.25798413958354777
22978000.0 0.9764888152705774 -0.19204701441955288 -0.006038897582096032 -0.0032414115102921926 -0.00010276863309352529 0.00027134279313690716 0.029941261601799888 0.2577393958740739
23977000.0 0.9779406482310119 -0.20057898913522368 -0.005246031846908172 -0.0047100657485140505 0.002845201086461132 -0.0032135727193421957 0.04748537199063631 0.2649494965693479
24976000.0 0.9732109813927838 -0.2107839266417024 -0.0037572425153492564 0.00046858154819944957 -0.0009350293263551716 -0.0006574674207911705 0.0669886144713604 0.26125412678150645
25975000.0 0.9671756633470509 -0.22368802523647116 -0.0044652545423173925 -0.002583687005040257 -0.0014012311038050563 -0.02790699686573475 0.08449139073308784 0.256814887665705
26974000.0 0.9702753337492194 -0.2275946553916435 -0.006806255718310896 0.0006570233130264346 0.0005716211134931371 -0.000602205625607953 0.09460997815682794 0.2598977557640014
27973000.0 0.9696969163014771 -0.2336186414766721 -0.001384524657252666 -0.0009591697914881328 -0.00021956044079920046 0.0020812174411233586 0.1109337074698579 0.24955455437036606
28972000.0 0.9655884863710673 -0.24588411902282586 0.00017037733517652882 2.757599618665113e-06 0.0001945997786071358 0.0009979858952605762 0.12029116701715988 0.25541086057301826
29971000.0 0.96429659573228 -0.252364464099318 2.7715482759350614e-05 -0.0026016263844173353 0.0028677429868859913 0.0006948621258682995 0.1484919639928945 0.2583710896647164
30970000.0 0.9636097122314917 -0.25884952267705963 -0.00023605352919433444 -0.0006879594547063798 0.004515968251426259 0.0018213497599884707 0.16590589026849917 0.2624913571000324
31969000.0 0.9584430260362573 -0.2666247957157436 0.004924733278372168 -0.0015964328957377828 0.0006368479540073288 -0.00016640964163677297 0.15763174564201388 0.24849540912228427
32968000.0 0.9580700935774115 -0.275865313289964 0.009856084433255209 -0.00959203833340674 0.001995930153001522 0.0002613735279696864 0.1718157132486323 0.24543558211038546
33967000.0 0.9566539993993254 -0.2869320937317322 0.00951858654934287 -0.009412291506363846 0.00399584538157873 0.0025205467504920303 0.18889907791490937 0.2438912313694303
34966000.0 0.9527329341576901 -0.2958407541723728 0.015574758470193838 -0.012441949400119152 0.00349625265189909 -0.001130461162441497 0.1971648298701272 0.24665006920794447
35965000.0 0.950978510323588 -0.30151884386838823 0.01632151698819307 -0.014299800337911192 0.0011506344916349413 0.003908334847113282 0.21364739182658868 0.25421130782421164
36964000.0 0.950116058764109 -0.3110462658971429 0.018806632869129855 -0.013965001159175197 0.005313669600625921 -0.00011762792136205278 0.20756150682102514 0.24735485497193202
37963000.0 0.9454777791129972 -0.31965560405466764 0.02051565514622126 -0.0213085634825843 0.0018429172620845248 0.0011269988071026871 0.2401611689238183 0.22707477285278788
38962000.0 0.9434218871106811 -0.32928537567514493 0.024341974269991743 -0.025171349324362012 0.0012717648378780678 -3.131503893869349e-05 0.2469347199963007 0.22272196462259528
39961000.0 0.9397335052971771 -0.3382546693570992 0.02494150495813781 -0.030912759711698132 -0.0004624979764585403 0.0021771295551190227 0.26041619245247477 0.2230444258854178
40960000.0 0.9370350915028183 -0.34383340448290506 0.022736858785030196 -0.024495445569321556 0.001899374916360327 -0.0008396217049035838 0.2732408503383809 0.21636305327702912
41959000.0 0.9340023651475684 -0.35351991981180975 0.02804292438114153 -0.03251176932440894 0.0014761908499192036 0.0027056276376313908 0.2778406710227768 0.20670752015012206
42958000.0 0.9284401484593753 -0.3630489699940395 0.03497632848859362 -0.04235009228275654 -0.0019233473123739554 4.564776975803617e-05 0.2864239484423017 0.19883876248036172
43957000.0 0.9261145735525576 -0.3687564345439471 0.03481480349705888 -0.046770339390912886 -0.002071396181548171 -0.0017084610559119152 0.29393909576342614 0.20352131801798898
44956000.0 0.9231757615336962 -0.3771780017003646 0.03530864240459372 -0.0508719045028248 -0.0013138546695406566 0.002328814598852002 0.30696991068028034 0.18832195324746578
45955000.0 0.9196944234848607 -0.3879764903326614 0.03544780815277522 -0.06120916251987151 -0.001175313009837399 0.0018733033924879744 0.310280316888573 0.18550693785550643
46954000.0 0.9156967572859113 -0.39580821619828294 0.03599553535110855 -0.06641100556411637 -1.5432351347292414e-06 0.0031383380253418086 0.3294964867405347 0.17337372038069848
47953000.0 0.9121267359248911 -0.403654128228616 0.03753374568418961 -0.07450199265559666 -0.00038189518948956677 0.0002398665069777936 0.3375983407363903 0.16855771213752327
48952000.0 0.9070044113604769 -0.41361658115776095 0.03882161794053806 -0.08284319941847305 -0.003893685601365191 -0.0025920403176496673 0.34216248483261136 0.16064116605395085
49951000.0 0.9054332617110032 -0.41828682304893855 0.039672030147204454 -0.08964206826847149 0.0004330734095873291 -0.0015742354963169918 0.35723225624288224 0.15238424626128425
50950000.0 0.9009886764383968 -0.42705203043632267 0.0395816959966869 -0.09714783535223963 0.00220372035511549 0.0016130059736249149 0.3594571552918462 0.14112105785280094
51949000.0 0.8954532988368056 -0.4367219623413532 0.041606504503253476 -0.10516571467936094 -0.0027321707665484305 0.0013019075153474463 0.36510351147651804 0.14568537613815624
52948000.0 0.8956596544829846 -0.4441360217449388 0.04461184024800005 -0.118501337543873 -0.00042919916240729953 0.0011712317276648854 0.37628112069331876 0.13992663278940193
53947000.0 0.8876251861831598 -0.45415223974270025 0.0449444457890559 -0.12496698375556888 0.0012572724973933826 -0.003635666729321901 0.3819407480123815 0.12226209077527891
54946000.0 0.8833090946613072 -0.4611198266965123 0.045948922079930704 -0.13600252881818947 -0.0016865887368209351 0.002781052794919356 0.4008849209532388 0.11708112434613661
55945000.0 0.8812627689072443 -0.47031200097269177 0.04724294341694803 -0.1488657610647695 -0.0016476968084691798 0.0011784665165207196 0.3951006182508435 0.09307149124222296
56944000.0 0.876255602947096 -0.4775371253178346 0.05176258948407935 -0.1574368652925759 -0.0011304170542143423 0.0012665175409923733 0.4134034854105967 0.0952352260083452
57943000.0 0.8733489616223651 -0.48833639070126295 0.05122384286033184 -0.1682088113918829 0.0035934821990850504 -0.0017939962360213773 0.403943738781145 0.09326264065782235
58942000.0 0.8653002507636985 -0.4935741298825137 0.04888076294841419 -0.1811645975721276 0.0006124562073503722 -0.005924404876470463 0.42522718284910566 0.07725288997457125
59941000.0 0.8636672402297592 -0.4997809839818953 0.05273367847218956 -0.19127018445278324 0.0007930736129816368 0.0007024390508601103 0.42573629694806353 0.07842413692352815
60940000.0 0.8551624423014788 -0.5082884700462621 0.050686143554660695 -0.1957857827555319 0.0012039037019429774 -0.0014492900252703028 0.412882319916174 0.06630448101658089
61939000.0 0.8529553116079808 -0.5150067197471626 0.05318668094020315 -0.20282331496495917 0.0005589487922467086 -0.001489166376544255 0.4140171276528193 0.05666104868354574
62938000.0 0.8481366361207713 -0.525834692269103 0.05865644715174935 -0.22265343191925885 0.0004797370636895689 -0.0010746290847666977 0.4465053593803494 0.04861928856559955
63937000.0 0.8432890908458613 -0.5330574821624404 0.05839255025448535 -0.24108696193703094 0.0032860906546023556 0.0015164491246115253 0.4377185679909443 0.034403230991392676
64936000.0 0.8371517936554411 -0.5388487702764828 0.058480467588272446 -0.2567534796501637 0.0019434996582188284 0.0013271700119062732 0.4364437203448679 0.031215036490378045
65935000.0 0.8347233478219258 -0.5478111216523046 0.05674140212532325 -0.2704255070474905 -0.0004163122932578287 -0.000322531237194799 0.4403880424206801 0.01778799687658484
66934000.0 0.8282846024540641 -0.5554694635508894 0.053660653750973425 -0.2845099272433532 -0.001809185079252356 -0.00010577199995274021 0.4343171543586358 0.007301661579181863
67933000.0 0.8264645302457049 -0.5621940538210506 0.05883341917687184 -0.3008932349259592 0.0002616395517226143 -8.23000198337731e-05 0.44796342710154075 -0.010469741030826428
68932000.0 0.8176553748379893 -0.5565249020560957 0.04966021600435188 -0.31375164872300054 -0.0008945727363946336 -0.001412955838037204 0.4503564217299594 -0.006687797211859123
69931000.0 0.8111310119468976 -0.5788141396121917 0.052526487012356154 -0.3313685508261621 0.002123252719367131 -0.001555966741354096 0.4510703854417643 -0.02857411522529066
70930000.0 0.8026798610865034 -0.5875157862076149 0.04873213395519159 -0.3472630300282817 0.0005584242954629325 -0.0031399180947331616 0.44730733427065905 -0.03845427574258623
71929000.0 0.8023532096628043 -0.5932106578718861 0.04758439169848397 -0.36507143563633576 -0.0009103173568369773 0.0009318748511744157 0.4501477146060585 -0.052262857893081945
72928000.0 0.7946775553438172 -0.604442414501807 0.04049025130832247 -0.37991116773681305 -0.0003254459050617293 -0.0045736892802828825 0.47040488809413666 -0.06661527302528104
73927000.0 0.7896540609675324 -0.6078152546477298 0.0313519212104991 -0.4066192417823709 0.0013601897558269567 -0.0017254737755015006 0.4583556696160603 -0.06345254886529793
74926000.0 0.7831079691314038 -0.6184384383654433 0.02534613131933521 -0.42643109032423504 -0.0028804594270288825 0.001294379635207709 0.4683440192572777 -0.07727061011755161
75925000.0 0.7788757525554079 -0.6238688603787234 0.02090680850599077 -0.44595800739839864 0.003286779426751925 0.0004113627211650137 0.4733842265320774 -0.08115086280888716
76924000.0 0.7717849499692405 -0.6309514266161674 0.0010699171397053127 -0.4656850363204772 0.005145923622713895 -0.002312791000435426 0.46204455368304825 -0.10178537474427606
77923000.0 0.7632350736278956 -0.6401939393630814 -0.006564591447994665 -0.4895527627657829 -0.00011438054715487104 0.004569930123196803 0.45865792844889186 -0.09094642297512967
78922000.0 0.7597756152018591 -0.6482857140070547 -0.02361740786105896 -0.5178326030448106 0.0020344662918591995 0.0019942310968863856 0.46412157006497734 -0.11228330804451904
79921000.0 0.7503645633615822 -0.6518434418026939 -0.03993602159063662 -0.5433841188681836 -0.0013268521742580664 -0.0019604684243737878 0.4555084873328866 -0.1287886523328256
80920000.0 0.7451530383020347 -0.6626999859523511 -0.05230451131893909 -0.5782976153660822 0.0028966791982272216 0.0017709052199250247 0.4742876901740186 -0.13635655659481177
81919000.0 0.7402019158810219 -0.667786944903885 -0.0779167607206677 -0.6037190108186078 -0.0042768035393174015 0.00042163708027538073 0.46503151154027056 -0.14586054897596945
82918000.0 0.7300495977531272 -0.6759073477500426 -0.08811939944631508 -0.6356213066498171 -0.0033063273077162444 -0.0033876532259441566 0.46927470094110113 -0.15839623758675628
83917000.0 0.7218127086852885 -0.6839082930520779 -0.11306533977979032 -0.6638757943994347 -0.0009538820084358713 0.003385493012215997 0.48052791213882967 -0.16091833410925313
84916000.0 0.7182348794196545 -0.691408467286187 -0.12941182483343402 -0.7002347793778031 -0.0014899146187684164 0.0032865366174409444 0.4670028700771823 -0.17179333504439107
85915000.0 0.7128094892851183 -0.6950630630885867 -0.14853728740720473 -0.7320915435734179 -0.0030314233046874074 0.003389616061768365 0.4652225339678235 -0.1848859317594428
86914000.0 0.702510273529227 -0.7074114915174129 -0.16406951097328362 -0.770515147673936 0.003171472510619074 0.0012027609238782846 0.4587538238138746 -0.18562692379110468
87913000.0 0.6991604931992016 -0.7131857544226813 -0.18346608446189544 -0.7976161399352578 0.005152535996610544 0.00023031662009849083 0.46018874116734004 -0.18719393688850863
88912000.0 0.6908904531776958 -0.7186697273921575 -0.203604161145178 -0.835614150227465 0.00517755018075953 0.0025107482929630663 0.460649817744359 -0.22378507730652836
89911000.0 0.6828464251515597 -0.7293730273205442 -0.22057853193998272 -0.8771365999160006 -0.0001487112252912408 -0.0007563750386265915 0.46780971241902075 -0.21185243728461817
90910000.0 0.6766488489132648 -0.7328342632228338 -0.23357774123223118 -0.9088174937741069 -0.002874912885007533 0.002786881580515696 0.4646447959566972 -0.221074881975224
91909000.0 0.6655911765024971 -0.7385353063828577 -0.264357259823055 -0.9443440752246216 0.0018363431207243845 0.00019212875758872942 0.4665908187047257 -0.24008405038538858
92908000.0 0.6587494100744347 -0.7473336175842649 -0.28046473100250957 -0.9816954857432573 -0.001351053557941497 0.00024013156833207393 0.4507303494179917 -0.23402731378096672
93907000.0 0.6532555940429335 -0.7520574713714465 -0.2967952362680151 -1.0134044303527654 -0.001290028105628943 -0.0018385182643605696 0.45332802057763627 -0.2573256960510593
94906000.0 0.6381785878189814 -0.760511536937061 -0.3212321412481422 -1.0460017117051643 -0.0011948176955831917 -0.003457568014894468 0.4542746160135799 -0.2642078990032557
95905000.0 0.6335633720868153 -0.7671184366047942 -0.3431964879884331 -1.0818134480105177 -0.004427731466782996 -0.0008756282557276853 0.46744080547697975 -0.27603111095677674
96904000.0 0.6265204564761256 -0.7748959873001972 -0.3647131858131051 -1.1258382757585814 0.0017844235361354648 -0.002432863965491248 0.44765678609598986 -0.28419415875631426
97903000.0 0.6176725631120611 -0.7803425337398807 -0.3877807682549183 -1.1576118305181688 -0.0025920688936483974 -0.0022465534912573027 0.43943235568704536 -0.294627714693194
98902000.0 0.6126084976942944 -0.7890785230550504 -0.40982988995557423 -1.2008541645595447 0.0029589789102174736 0.001939212124778569 0.4424704797687087 -0.29574021904578485
99901000.0 0.600034614057902 -0.7920408109923279 -0.44308174517263066 -1.2259048693266439 -0.0002239843656422509 -0.0036392534544514537 0.4519603237413224 -0.3224018592310521
100900000.0 0.5954562020610081 -0.7961709329466128 -0.4724297510062165 -1.2590742868175826 -0.00317993165269743 0.002852267558745671 0.45004999974048 -0.31961739155057567
101899000.0 0.5834775354208348 -0.8052567304799311 -0.5014253289830776 -1.2950785807472118 0.0009350567931168284 0.0001909457375357531 0.43906845085830865 -0.33008740285246413
102898000.0 0.5750650798784728 -0.8097477389732963 -0.5413265781931262 -1.3365689389877058 0.0008820544751864668 0.0027708318650007486 0.4403561023516438 -0.342085030429086
103897000.0 0.5673806492893768 -0.8174093444712786 -0.5798431964909733 -1.3748600909271207 4.162900162207361e-05 -0.0009283805252495549 0.441655671169969 -0.33167983025110864
104896000.0 0.5574062995641365 -0.8268182369252727 -0.6219520799939816 -1.4082491325455022 0.002459092928250528 -0.0009145707397070183 0.4384940601186459 -0.34414472320328465
105895000.0 0.5486165608062081 -0.8300150312820654 -0.6720914849141144 -1.4563356012629578 0.00020072677474882537 -0.00051642349170805 0.4204842703080463 -0.3683343152090365
106894000.0 0.5405977045951523 -0.836951228234628 -0.729272216091079 -1.492838527315867 0.0009100435311015958 0.0018048481590427876 0.4214524084985435 -0.38749839157185784
107893000.0 0.5325159474238618 -0.842335961003249 -0.7836507913392207 -1.534822449392246 0.0006943733402693116 -0.0010703985624281448 0.42506335945288903 -0.3892140883981771
108892000.0 0.5200044746287364 -0.8469240544577133 -0.8455222450739974 -1.5712555909316686 -0.0035302484771221935 -0.0011316556654479457 0.422924207508518 -0.38393009089844987
109891000.0 0.5086503348506402 -0.8528071579591319 -0.9002045381388581 -1.6071339407822254 -0.0017541018670160342 -0.000680581335412501 0.44618801382417994 -0.385995246581656
110890000.0 0.5031508280569111 -0.8589235405521523 -0.9597490626200936 -1.6240301051704218 -0.0007230213047247103 0.0010555376092390917 0.42180812029647347 -0.3934148380424356
111889000.0 0.49072783539095194 -0.8598757729029879 -1.036854051987034 -1.672465933787014 0.00036390271055987243 0.0008630719805445997 0.41765637408364287 -0.4111260928332136
