! Created with skrf 1.9.0 (http://scikit-rf.org).
# Hz S RI R 50.0 
!freq ReS11 ImS11 ReS21 ImS21 ReS12 ImS12 ReS22 ImS22
1000000.0 0.9828860904475416 -0.0036649592657979606 -0.009898909305359518 -0.05584376837153064 -0.02644473266926412 -0.009595678907776921 0.3250255478127592 0.3836955027023587
1999000.0 1.0010846749735238 -0.010996588745787282 0.0020229568116034704 -0.02724294208708904 -0.006852859335390969 -0.0014414755471546675 0.2548700403534249 -0.053179020407426954
2998000.0 0.9970074165864479 -0.022561278329637453 0.0029589665791353347 -0.017832149973742936 -0.0039863278311477205 0.0026965249787860514 0.20068762605458626 -0.13147984586838599
3997000.0 0.9930592689743716 -0.032494806984760836 0.015228387214457215 -0.007983255279587147 0.0019368001671723444 0.0014206168021113853 0.07099346125207057 -0.2174397618489791
4996000.0 0.9948987384220741 -0.038398145358929194 0.011519005413418748 -0.005930438144355739 -0.0006879347588145657 -0.002610267087027445 -0.06473066225179792 -0.19187279538538982
5995000.0 0.9937626975292713 -0.050513723768456614 0.008293409056645256 0.0005415111521874851 0.003245908334218162 3.469509901020488e-05 -0.11069988181579547 -0.08875736518204512
6994000.0 0.9898082152021942 -0.06118939034871004 0.006197906085317163 0.005451027012681966 -0.0020314400534796762 -0.002266346959231638 -0.14732149174800313 -0.02495285108265274
7993000.0 0.9898460011495966 -0.07091273326133066 0.0024611966766912284 0.00495158689495035 -0.0020864197078186504 -0.0017418433735918787 -0.15085636158537616 0.03731820714761427
8992000.0 0.9912969469304886 -0.07355699428023102 0.003341093937376505 0.00701643299334683 5.07008188573878e-05 -0.001499087534925813 -0.1577746726864211 0.07815382549295136
9991000.0 0.9893864356129476 -0.08288910552627975 -0.004436700954468381 0.005244470659887359 0.006707137317285093 0.0024212175866042507 -0.14901845236888525 0.10496174152319633
10990000.0 0.9902527848046361 -0.09232452287265337 0.005267311998447819 0.0016712275626938535 0.0016580247564593313 -0.0013889411720688443 -0.14426763908568335 0.11230392093174225
11989000.0 0.9862028010218711 -0.09949548686556511 0.005527873297316897 -0.0038511182380200717 -0.002674137604484129 6.745552671858944e-05 -0.1142165542420739 0.13380160099964197
12988000.0 0.9862399612084275 -0.11149185769642261 0.0013799749507950026 -0.0034284521938884216 -0.002361436757477705 0.003076901479448632 -0.12541162306636328 0.17567971171384708
13987000.0 0.9839980254015777 -0.11847462921569396 0.0028788727062714773 0.00010719651141539894 -0.0007452163708092118 0.008851873045226865 -0.09422539402895394 0.18778431349049998
14986000.0 0.9845040952847919 -0.12469853203816551 0.0015729458608244053 -0.0057270697921289 -0.00037757517154040975 -0.00163872820751253 -0.08861146853016785 0.19841351469213755
15985000.0 0.9837563244486549 -0.13249310457632388 -0.005713927059580344 -0.00438847711932004 -0.0026535601252959473 -0.00301533918887069 -0.07343946763847035 0.22449268634908368
16984000.0 0.97995788680983 -0.14607568319269462 -0.0030897928380287936 -0.007807694988955829 -0.005777222968962421 -0.00030239442361595345 -0.06503236827878509 0.22437840588680202
17983000.0 0.9817787562275184 -0.15102999669054798 -0.0036908931405413284 -0.005023119878283313 -0.0003388917223674629 -0.002379210069631476 -0.04264282925762175 0.2277955429774589
18982000.0 0.9774839613155568 -0.1620694770147884 -0.004772739425627862 -0.004473838018285577 -0.0013757507615725212 0.002777343433000792 -0.012346981465992047 0.23979960187957142
19981000.0 0.9810707160189134 -0.16445343564406484 -0.001463524012515208 -0.0025927208610437387 0.0016405471364180698 -0.0007768698185889779 -0.007664590171220308 0.24117282395168352
20980000.0 0.9768152037464588 -0.17614713155417616 -0.007846868629064079 -0.003126200678173112 -0.001412285875395662 0.005045629688984113 -0.0028586582910747793 0.2587257367814816
21979000.0 0.974743289234816 -0.1885022474234509 -0.005054552058258156 -0.005211410973427278 0.0005670001868154003 0.0004262003855011176 0.003798675514562656 0.2509173528148421
22978000.0 0.9716819764466779 -0.19506745535500716 -0.006881177955593608 -0.0003989372043838156 -0.002342531040068015 0.0013680322228726434 0.03131516974857817 0.2585436275633529
23977000.0 0.9739063018708128 -0.20177302807936734 -0.006521921106832932 -0.004594969941539019 -0.0021806614067629536 0.001256366628916343 0.04512596262955801 0.26570968236849357
24976000.0 0.9701092981116335 -0.21298661542771602 -0.003783113868147086 -5.849789396509775e-05 0.0007490464131085992 -0.0006406415435593775 0.062486013210933306 0.2581920586555928
25975000.0 0.9666437869758574 -0.21840551648475628 -0.002266774246829878 -0.006074827749064894 -0.02346280351549089 0.0015516645949006937 0.06882737056261842 0.2693604337070425
26974000.0 0.9675189759258833 -0.22779818042365926 -0.005161538532823961 -0.003070649061269208 -0.0003501892364382587 -0.00154797952899216 0.08078981367157372 0.2636488575831733
27973000.0 0.9642703814570177 -0.23581522275870492 -0.005482361733188612 -0.003685236088837343 -0.001412981622376962 -0.0025322070951296557 0.10421043052181965 0.26172099881449523
28972000.0 0.9619262416237745 -0.24585075394547773 -0.0032279069813920115 -0.0003256413085846344 -0.0012191062453334731 -0.001999544735830865 0.1231423356981116 0.2645537280682576
29971000.0 0.9612501141592499 -0.25514494338283317 0.0022136439500084083 -0.00384172715535489 -0.0009184234321146172 0.0005937140993717491 0.15301890854556516 0.2611702285417003
30970000.0 0.9583504514527964 -0.26074154333596566 0.0033961738054618666 -0.00011086557544911919 -0.0020591190696019287 -0.0026227546236164924 0.1665070454369695 0.2489997709012018
31969000.0 0.9571404596089529 -0.2690406549437506 0.003621234901849305 -0.005885755901609279 0.0015061042752373256 0.0014568613799918815 0.1538914689006545 0.2441240325973641
32968000.0 0.9546693207668759 -0.2811199710292955 0.008711141843477817 -0.007250471183296288 0.0028106142775637 -0.0020816444825558183 0.16414771755661786 0.2509770365769602
33967000.0 0.9535456221415317 -0.2880565548789324 0.010729832613699527 -0.010017561069541327 -1.3442149594720579e-05 -0.001837711634677618 0.17237832450047888 0.2505932758623176
34966000.0 0.9490245789082156 -0.29836003205202316 0.01092355946343952 -0.012704952074632193 0.0010598858965180855 0.0021626753763942597 0.19098770880189164 0.2575518982585915
35965000.0 0.9468823395484456 -0.3047435913817751 0.014129758715461389 -0.0162584060425013 0.0012244767740643982 0.0031626086515370256 0.20983104492893315 0.2522333862854639
36964000.0 0.9447209929408945 -0.3137882643149205 0.018287088405853573 -0.014207838520214676 0.001569145095599304 -0.0008087220284081864 0.21361645336076537 0.24705091947930072
37963000.0 0.9391331238446733 -0.3260264231649723 0.023767442508841982 -0.0215931228007644 0.0007264141184011622 -0.000506675687969595 0.2303834909053424 0.23356397232935566
38962000.0 0.9375118214119758 -0.33454906976077453 0.026660038726007324 -0.026075440958453416 -0.00320417421901655 -0.002275827786935928 0.2398799413064572 0.23888938127888948
39961000.0 0.9349396294427067 -0.33894298265273815 0.029977521321489526 -0.026585957582521656 -0.003158274610658835 0.0007671344278102652 0.2513545337030161 0.21774178947308062
40960000.0 0.9322808702956626 -0.34850296671012965 0.024375920155312102 -0.026180531183913152 -0.001843272149578324 -0.0014834879853200375 0.2680370376555798 0.22336807997746969
41959000.0 0.9278408417226932 -0.3584508764689022 0.03177284242442367 -0.032517458457461644 0.0008871861760274508 -0.0012753734725149293 0.26735407916562687 0.21165995445879626
42958000.0 0.9238844631476404 -0.36700003482206417 0.03138113218662554 -0.04425661910342378 -0.0010666267682733913 -0.0018462034007396535 0.2687560719126885 0.20080333448441987
43957000.0 0.921984848945459 -0.3740512352673349 0.03494130626566001 -0.047444255814896585 -0.0003703245930770637 0.0009829273650266875 0.29220363580704334 0.21036772553351613
44956000.0 0.9179588038756872 -0.38286294591683523 0.03267339535865813 -0.05535184069267089 -0.0004546724414255352 0.001171221969693253 0.29685170382156856 0.19059793850467463
45955000.0 0.9136185729894587 -0.3933840200538213 0.03617773925003398 -0.061278449140024345 0.00224529318311895 0.0033646584785888113 0.2979366645800523 0.19696128368010146
46954000.0 0.9092080461751846 -0.4003188528789314 0.03822738602288253 -0.06693521232025433 -0.0039499006948686705 -0.0007047742643407124 0.3180718213939915 0.17306380543634411
47953000.0 0.9087285875457288 -0.4083270030038974 0.03747961438294511 -0.07314930402981107 0.002557313211284314 -0.005165269245933914 0.3323257476142856 0.17187415704987807
48952000.0 0.9024149074631339 -0.41765731948728413 0.03655729405219609 -0.08237157968972834 -0.0006530787034876773 -0.0028882116186621184 0.32480991327843006 0.16486694541981037
49951000.0 0.8985245452545034 -0.4264704646094354 0.03675866686003111 -0.09363186478482233 -0.0005306698366660763 6.984221724573221e-05 0.34897392544371836 0.15915552205752118
50950000.0 0.8936331637922938 -0.43375355211868316 0.04215672886555852 -0.09760937780272848 0.001692437344263392 -0.0011318791385314408 0.3512795858230949 0.1367093820992361
51949000.0 0.8910053401552365 -0.44269669013880275 0.041667725982127486 -0.10749756431421291 0.0016004524742635857 -0.0007090818039017547 0.35338625677342017 0.1485290619295441
52948000.0 0.8867856416966982 -0.45319906900342954 0.042284138464628376 -0.11768173788534113 -0.001447424336900802 -0.003466002785478868 0.3692082387532943 0.14736839506722754
53947000.0 0.8808305243832045 -0.4573160891022847 0.044294250751000144 -0.12637621792686124 -0.00024708513714928056 0.0017466303199658254 0.35936188874388847 0.12546966600906026
54946000.0 0.8764057199915769 -0.4683063634193387 0.0479801024866102 -0.1379859363241935 -0.002388829818020898 -0.0002456988546148581 0.38090533198284493 0.12020037279492392
55945000.0 0.8741037012951299 -0.47776166927889274 0.047920393557213926 -0.1481368168402836 0.0020374574783683995 0.00231095345877858 0.38653383111195555 0.0922480406575893
56944000.0 0.8694857465544324 -0.48442700844263553 0.0503207665877797 -0.15568173102939276 0.0005200067450866512 0.00011594466934446211 0.39275184846764166 0.09797703102978092
57943000.0 0.8642445133274312 -0.4952238294634371 0.05156331490242024 -0.16902298727544088 -0.0005706345480542594 0.0007402001281517798 0.39559991965649455 0.09061768074600587
58942000.0 0.8581840637675564 -0.5016393972420852 0.05066225248958478 -0.18014212699524662 0.004097173554940836 0.0004937440624224964 0.4208420366573491 0.08500150214610595
59941000.0 0.8557776086942128 -0.5071009770722343 0.05488883976030703 -0.191310823293031 0.0016773861720771133 -0.00015370896444088294 0.41549870361058294 0.09246417988937647
60940000.0 0.8475805981989002 -0.5170742285685823 0.053157226026599336 -0.19679536923748242 0.001904394548213044 0.0009511223793142688 0.4038145324855319 0.06623513250904925
61939000.0 0.8448998097743067 -0.5226127039408249 0.055147237266058885 -0.20249989514113584 -0.0001873890825758343 0.0011072465240209099 0.4174177989839542 0.06515051135364335
62938000.0 0.8389865858481025 -0.5335604114549212 0.05768949148386999 -0.22095439877488862 0.0010858454128789337 -0.003846974756211662 0.43163008412740933 0.04602196618361248
63937000.0 0.8330045143386006 -0.542547772552346 0.054817187156325886 -0.24102069850829896 0.000543816415485827 -0.0012580708319455413 0.42779008347479996 0.03390326666950884
64936000.0 0.8263358099580022 -0.5475802259605915 0.05726708565749186 -0.2553019855442913 -0.005410163126935192 -0.0032420503743697177 0.43110406459142797 0.04792741113225189
65935000.0 0.8240124327959273 -0.5557497440851749 0.056517976445474086 -0.26773942839215675 0.0005386066634043713 -0.00041993365713456496 0.43055141215133236 0.01599094168177505
66934000.0 0.8187931231362039 -0.5642091659543127 0.05829110826807595 -0.2834696689631705 -0.0013763301054353274 0.0029368820363903586 0.4272952116523538 0.014863489079290955
67933000.0 0.8156859216564369 -0.5712557300224559 0.05625546997291878 -0.29820889603324385 -0.0029594496847815547 0.00027656013937362 0.4331676001910703 0.006176357013566009
68932000.0 0.7992840468635142 -0.5764940046960451 0.04862002822910965 -0.3100612169166608 -0.0015387721132203728 0.000355378390615282 0.4603126539024837 -0.009591226733438553
69931000.0 0.8007725864346243 -0.5878249323019583 0.053103988438756154 -0.33264168584700327 -0.0011267724164363987 0.001422740601008518 0.442236606641568 -0.016473292876382117
70930000.0 0.793094097673271 -0.5954793473839544 0.04955199752294337 -0.34287058639394286 -6.218192108528708e-05 0.0009207732026965942 0.44674310132836914 -0.033354452074655004
71929000.0 0.7908369366568787 -0.6018030992518766 0.045894666447448634 -0.3604204019875088 0.00097949462969439 0.0010566121344376326 0.4446250407304849 -0.04333141226529134
72928000.0 0.7844165571144662 -0.6113571356782279 0.03829771163486491 -0.37954131743218056 0.0004903443317879012 0.0005045176909846441 0.4542548358031165 -0.0481338476202943
73927000.0 0.7775380525048056 -0.618394948851488 0.03245297180302248 -0.4022263396360535 -0.0005392878224393522 0.0007701066808972778 0.4542712670837142 -0.06033314474645617
74926000.0 0.7726860446536433 -0.6273668285672329 0.02454031241052016 -0.42148113703662243 -0.00026389648102240654 0.0009295861997383517 0.46083914928772085 -0.0632435831494367
75925000.0 0.7646468335703384 -0.6320560232327949 0.01025730451393866 -0.44227207231674526 0.001924176203412561 -0.0024017162000371365 0.46386922916702744 -0.07845742168200398
76924000.0 0.759725514451204 -0.6421054117758652 0.0003388084446843628 -0.46451504683737405 0.00044259230168789017 -0.0053093782995501295 0.4632139080583509 -0.08431114020287976
77923000.0 0.7522993619329773 -0.647626587026996 -0.01425782146732171 -0.48928750308404156 -0.0001700473961351392 -0.0011703617680408303 0.4518490370305344 -0.09478927555150277
78922000.0 0.7458637638499332 -0.6558799740574573 -0.02825790932393324 -0.5150832468617577 -0.004074771585139381 0.00184578914379208 0.45861931826828617 -0.1102511453007741
79921000.0 0.7372033355599701 -0.6616047111593555 -0.04644986286713954 -0.539892724557679 -0.0008657522813892304 -0.0009408668443384231 0.4545579024048045 -0.11270214078864806
80920000.0 0.7321233970158765 -0.672135972326235 -0.05937690784901203 -0.5749102766756653 0.00390875491758939 0.001115919363486789 0.46444994638910936 -0.13853710269871186
81919000.0 0.728962778439693 -0.6761518587458613 -0.07835579082498202 -0.5994641341383083 0.00017034434603216013 -0.001179230382513288 0.4662972103155612 -0.14031518068949383
82918000.0 0.717089089219564 -0.6852652129535368 -0.09082777775472005 -0.6323630949550576 0.00486096805309758 0.0004384342148135053 0.4791618084980287 -0.1422502500310578
83917000.0 0.7085710246806165 -0.6925673906560005 -0.11422028157840339 -0.6642280862716888 0.003427202239873801 0.0024706861306738265 0.46982035748923034 -0.16121979442268194
84916000.0 0.704092971638403 -0.6997584285125853 -0.13547054028233774 -0.6970507819008681 -0.0010460911561669735 -0.00463128202063848 0.4554553844319255 -0.17020646496525013
85915000.0 0.6975826929342647 -0.7042208288502828 -0.14892955509756145 -0.7273769194519732 0.00272277214120073 -0.0003949792125292052 0.46491844902591073 -0.16954807430443342
86914000.0 0.6899507736864122 -0.7150735968769377 -0.16822245874257694 -0.7693836820024207 -0.00427474097107855 -0.005006704225883772 0.45261334846244283 -0.17442013639088608
87913000.0 0.68278334848397 -0.7218701291520639 -0.18871064342173335 -0.7919103998050255 -0.0021727750024885294 0.0018209779133918599 0.4582740228450885 -0.1930864475704581
88912000.0 0.6754003754412303 -0.7287034752235267 -0.20189070453460745 -0.8328325735659718 -0.0006962815375647559 -0.004523748553019549 0.45833151659509175 -0.2086558466677681
89911000.0 0.6681855943662163 -0.7368464965754172 -0.22097872149110903 -0.8687679199326798 0.002392308882361102 0.00023117281471095576 0.47292548898568815 -0.21171819117082918
90910000.0 0.6613150782153254 -0.7408458224212766 -0.23916148497781015 -0.9007226633232944 -0.000862529559217882 0.0029980495182061963 0.46278419448822783 -0.22107457709307532
91909000.0 0.6514122243252517 -0.7468486638038713 -0.26058702644124415 -0.9349838078964311 -6.537665721436192e-05 9.980813238927888e-05 0.46407577719156956 -0.22573437257989906
92908000.0 0.6440878899071153 -0.7552628018729638 -0.27680246962094335 -0.969860490407124 0.005226518390883419 0.004021852389715142 0.45553201484158085 -0.24377506528636145
93907000.0 0.6370160000175079 -0.7606739564377726 -0.2952730483921366 -0.9996855421747457 0.0009048739580558525 5.334443587128369e-05 0.46152278030139227 -0.2572973274402064
94906000.0 0.6237734883550351 -0.7688739269934902 -0.3158179956927224 -1.036456047654039 0.0028753258968646144 0.0025887348921277554 0.4514244327442808 -0.2548941433958503
95905000.0 0.6177709427000868 -0.77515335039942 -0.34202456036688433 -1.071807470820128 -0.002627430016482092 -0.002398248206043093 0.46063942159835974 -0.2683505563056066
96904000.0 0.609590893007318 -0.7837581122326841 -0.3620457346351549 -1.1097709871448664 -0.0019826431777596972 -0.0003700260164352341 0.4514897096798659 -0.28424430371986414
97903000.0 0.6001412043224433 -0.7869773953770257 -0.38583003563341 -1.1434952895867658 -0.004170025272255155 0.003717929610906226 0.4440989125079957 -0.28799676207592256
98902000.0 0.5965826572885551 -0.7955795518761946 -0.40263130809886083 -1.1861721063183033 0.00018813668838088765 8.80168210284987e-05 0.4481298691672847 -0.2926553182313834
99901000.0 0.5829832515484519 -0.8003613358371295 -0.438493404025363 -1.2103035535873838 0.0006491755466497642 -0.000655738275714465 0.46096509547999776 -0.31779669118339876
100900000.0 0.5753917289800617 -0.803759157806824 -0.4664827673777041 -1.2456416461521505 0.0007812544162485279 -0.0014096443814356767 0.4496305624844985 -0.31594689728635333
101899000.0 0.5692930370763788 -0.8107978568215094 -0.49544747824822266 -1.2886196271334212 -0.0004940119509509936 5.341562005250108e-05 0.44202951238318156 -0.3188866449371732
102898000.0 0.5574837269058073 -0.8187184650221412 -0.5374839206789481 -1.3228822465119812 -0.0005771811571713818 -0.00047717210952894623 0.4473351442007773 -0.3363357975712217
103897000.0 0.5474596243544536 -0.8240184000662125 -0.5773114507615222 -1.3583979428152217 0.0008688865820030473 -0.001928898272238342 0.4563119165159525 -0.33517707881288433
104896000.0 0.540018795258481 -0.8344675198817381 -0.6278395677851303 -1.3901702854054898 5.2297609810497506e-05 0.0023703535233313 0.43763384622665136 -0.33344881617553795
105895000.0 0.5300573810721623 -0.8365335195991375 -0.6748310501283575 -1.4404861856563076 0.0005668470255621722 -0.0009552330965724114 0.4415871525404562 -0.35335736859900324
106894000.0 0.5207957817949835 -0.8431400987698022 -0.7331384482984913 -1.4773954498801194 -2.81803895577025e-07 -0.003632677752632012 0.43530368386703316 -0.3566932584964146
107893000.0 0.5135930629367781 -0.850613018067099 -0.7824021022237905 -1.5160785354195188 0.0030239855057492076 0.002280013915882688 0.43081524772038904 -0.37710470922095346
108892000.0 0.5049264435192767 -0.8524243788436453 -0.8469673147150065 -1.5510498475240735 0.0011413732355317475 0.0014365050275275024 0.4225409942282325 -0.37492326702622336
109891000.0 0.49153996128093846 -0.8614684896117405 -0.9054371862148431 -1.5903691062829872 -0.0021429278503194123 -0.0005591607192520085 0.44106695323404393 -0.37958146143197996
110890000.0 0.4786994377957967 -0.8758732956740879 -0.9921835512246604 -1.5982511131481252 2.5266411200344826e-05 -0.0004026430183776879 0.4350382542403538 -0.3861584139877122
111889000.0 0.47017395559352926 -0.8670831197915998 -1.0359796210333239 -1.6617736522473965 0.0006981133273576795 -0.0003732146929189545 0.4152382840008226 -0.39880005195592966
