! Created with skrf 1.9.0 (http://scikit-rf.org).
# Hz S RI R 50.0 
!freq ReS11 ImS11 ReS21 ImS21 ReS12 ImS12 ReS22 ImS22
1000000.0 0.9807009195235967 0.0057462823227091495 -0.0038579074544139043 -0.028674435129677406 -0.014548074567793948 0.009491182303528202 0.3052837547120315 0.3205499027513878
1999000.0 0.9955552333739867 -0.011203956070376015 0.002531295673288538 -0.022413066181457428 -0.003979720827299439 -0.00330350566243787 0.2318417224337959 -0.041220382401680224
2998000.0 0.9932479703908421 -0.024131462924628283 0.00964459665430849 -0.013971582450238109 -0.0028838229592086425 -0.005773391153900895 0.18233231927537416 -0.13438684535944365
3997000.0 0.9940027056958511 -0.034537062454226844 0.01045536825520121 -0.011290179095928055 0.0034354334500426836 -0.0005742450043246571 0.09503838817017865 -0.22302523859790946
4996000.0 0.9922458264429455 -0.04156706838118702 0.01199387963336116 -0.005382533309887117 -0.004877181752665105 -0.0024912840457223125 -0.0242550470216759 -0.193764793795303
5995000.0 0.9949303236866289 -0.04819924773344256 0.00629598266499386 0.0031234811629009085 -0.0034713070423039428 -0.0017682042707931264 -0.11551848993060262 -0.12032223145019069
6994000.0 0.9910022293659909 -0.06016315624936783 0.00690388162186597 0.006309986795846826 -0.002569254019967007 -0.0063935051390753865 -0.14672130969208855 -0.022089258664071118
7993000.0 0.9926163845207506 -0.06887502166818668 0.004989217805474339 0.005690908895452273 0.0009290130495980924 -0.0031496815045654143 -0.16787487807000945 0.03718970647732337
8992000.0 0.9913120064207082 -0.07093879756268776 0.0043381491456030595 0.004973147847742257 -0.003292880309252507 -0.0029100291587778144 -0.1581819620840078 0.06694530603868741
9991000.0 0.9876668379507433 -0.08056931807046802 0.001930954498830116 0.0055103646405975475 0.0018500708356623367 7.083761033590863e-05 -0.14973106221503876 0.0844520921245068
10990000.0 0.9876908348783001 -0.0935830674983807 0.0036093900187343917 0.0017555467834155115 -0.0011448606462117151 -0.002656493122757086 -0.1436998949141083 0.11560363342764891
11989000.0 0.9867700231888461 -0.09950397293015086 0.005381140311294949 0.003445535187188849 -0.005173542848156766 0.00496179566576315 -0.12789228710018866 0.12855034240826788
12988000.0 0.9856270130388926 -0.11067486164902475 0.00026753426931309173 -0.006180585562660557 9.685850249702476e-05 0.003863817097488316 -0.12336080022602183 0.15503604378206876
13987000.0 0.9824397654648673 -0.11704585107698819 0.001982318663476738 -0.005212969422318896 -0.002418788583999205 0.0006975563257910585 -0.10867658777635614 0.18625625652656064
14986000.0 0.9833510256316879 -0.12389653305120203 -0.004610781544060631 -0.0009156208898506306 6.171302799153919e-05 0.0025499038613234254 -0.09784419841428234 0.20041552141714614
15985000.0 0.9847558183328786 -0.13478432367876683 0.0017836464085613688 -0.004252845168005312 -0.002063625227734162 -0.0023527537372957513 -0.07362294609049179 0.209275534688617
16984000.0 0.9813739161201508 -0.14542885169043737 -0.002074385169012828 -0.0005779928213262001 -0.003210659984439832 0.0013334128609012352 -0.06122092598758302 0.21478093504960558
17983000.0 0.9819199006331497 -0.1499210944149804 -0.003149145094629245 -0.004573913031997062 -0.004287846272848685 0.002502246595705075 -0.05709845756282471 0.22462072322480914
18982000.0 0.9780755280259757 -0.1604261867704542 -0.005742295332517293 -0.004542550700636165 0.0008795835918015089 0.0026762333513276745 -0.028067527908572226 0.23806871322076642
19981000.0 0.9798835201260402 -0.16378336183324604 -0.004338070195480897 -0.006610676406305207 0.0014778249490332654 0.0009427383363790964 -0.015235945166263127 0.24777919781043087
20980000.0 0.9773378121735723 -0.17340060840082208 -0.0040547532309475045 -0.006239802624916975 -0.0003623720098805689 -0.0005650111491529321 -0.021823112258855012 0.26283827115088737
21979000.0 0.9770590584807385 -0.18182488104143774 -0.005382489239445118 -0.0056238717057341845 0.0005858274958693341 0.0031780940361794624 0.01837682312295549 0.25368310855040704
22978000.0 0.9744871325684393 -0.1916365056129468 -0.009213471318789891 -0.002889843651884319 -0.0018058283643032518 0.0018924594826779891 0.027393326033711834 0.2570340923745735
23977000.0 0.9751829347286972 -0.19744777091404528 -0.009223859438508427 -0.005723417636748084 -0.001840579084431983 0.001310140185038045 0.02630214148597621 0.26044971489763946
24976000.0 0.9693501221499993 -0.2093028923301859 -0.0050190804101786736 -0.0027893724798887425 -0.002802084911559322 -0.0014121714784726346 0.051288741201986954 0.2576929886027278
25975000.0 0.9699897823818283 -0.21457440010134776 -0.0050271562049620305 0.0009684981628334407 -0.02126308841190438 0.019467843104913743 0.08751440797963377 0.24490997711692805
26974000.0 0.9665753008943007 -0.22679107246779376 -0.004034587270093264 -0.003480191249486353 0.0011629231758497702 -0.0010532884816950598 0.08827264449234817 0.27537790955669905
27973000.0 0.9646786969265271 -0.23251871984237688 -0.001042231964918707 -0.005909188193610159 0.00182320892663117 0.0024061165528819293 0.10536244636934253 0.25603192019954746
28972000.0 0.9636914172792085 -0.2441167897285854 0.0019639407075216445 -0.0033890802001928758 0.00040135868241012655 0.0012782418548655053 0.10861547290578956 0.24276284478159277
29971000.0 0.9615055949802462 -0.25131086128275987 0.0005992176735465871 -0.0015379603804033496 -0.0009443441307052185 0.001469841559442243 0.15977017134708046 0.2664232098461479
30970000.0 0.9594160303525773 -0.2564383408531231 0.002166849780987628 0.0012052824686080309 -0.002103322655234031 -0.0005108983740973006 0.17866146220946807 0.2521630367642625
31969000.0 0.9588815161527459 -0.26491066679469794 0.00481068745204059 -0.006498686179327266 -0.0027597268541979985 -0.0006915039169140119 0.1518078006270592 0.2512516256360843
32968000.0 0.9565664454347528 -0.27539739818183145 0.009071133388997382 -0.005866873051014217 -0.001037244734049508 -0.00099901084191092 0.1565509469209477 0.24503054677969155
33967000.0 0.9530614345907503 -0.2840860752585756 0.013166981257294656 -0.009050498492909174 0.0009798216614109528 -0.0013232006391242714 0.18305109513330464 0.24679322099178058
34966000.0 0.9492947518454874 -0.2940426522234737 0.014472402807051787 -0.011827836636107193 0.0029611566920200103 -0.0034136987109739353 0.19314221951805613 0.25139997306610645
35965000.0 0.9481071962733638 -0.3006147500184599 0.01640625363662162 -0.013568027198559115 0.00022587187079074248 -0.0006263820639916904 0.21354252943608573 0.24771688357283694
36964000.0 0.944511341250163 -0.30987386842684617 0.014189005859713043 -0.01607266461800995 -6.412970989485443e-05 -0.0011315957337714746 0.2081483967919663 0.2528591600356494
37963000.0 0.9406974170050743 -0.3208110101508072 0.02351600823091468 -0.01829933638178044 -0.0005582658036242419 -0.0010985808089347727 0.23165845357700532 0.23299472793029133
38962000.0 0.9387355398561996 -0.3287848239151095 0.023000639717321063 -0.02576459341507242 0.0017391275575827465 -0.00032785358280224854 0.23672159879182972 0.22382079098117763
39961000.0 0.9362326472272016 -0.3363126091034148 0.02817653957645543 -0.02884057409183182 -0.00038901271424420463 0.0006163154207387292 0.25460059814329483 0.22628865121582326
40960000.0 0.9332053355906577 -0.3437361841560005 0.024069013983069563 -0.024640824159366137 0.0005099468986495851 0.0028678341343610983 0.2705281270265587 0.22220412175408022
41959000.0 0.9313055979179717 -0.35357316742599293 0.030861173569316967 -0.03104253034442411 -0.000541146892737898 -0.0037189519249521256 0.25892796095277865 0.21822686285339923
42958000.0 0.9245280802273832 -0.36432754402607187 0.0351677898474685 -0.039497927896844046 -0.0007284330144124359 -0.0010990758119233685 0.27029197228070495 0.20598784825714023
43957000.0 0.924271577888266 -0.36761550347194993 0.03557367611340596 -0.04606189876056446 -0.001110997510173454 0.0007457713868669043 0.2768940766387556 0.21263851902317918
44956000.0 0.920330257306061 -0.3776415402030865 0.03584739058883414 -0.05296060227736808 -0.0008208542008380258 -0.0006658068092589367 0.29430615202665955 0.19495958120662024
45955000.0 0.9165476071708515 -0.38692545583534116 0.03777589863605397 -0.059427052233125076 0.000355426721731607 0.0002312732677832067 0.29742589947673137 0.19701844143748898
46954000.0 0.9117052821692052 -0.3965086796033221 0.03904071765891977 -0.06461146028102531 0.002674791757433147 0.0023052918536202085 0.31612790857633233 0.1818752697844159
47953000.0 0.9103508424796167 -0.40304133909768125 0.04117428996082824 -0.07492105830853991 -0.002252498004085808 -0.0011445010300080338 0.33210767009726666 0.17920552958144204
48952000.0 0.9042867445784623 -0.4128569483752054 0.04072218959735089 -0.08254758635991369 -0.0009306076739730529 -0.0013055713194009984 0.3329259658440259 0.16772823966411418
49951000.0 0.9007056514806715 -0.42101181334468407 0.040802736500727375 -0.0900721269586336 0.002322906720853365 -0.0016475880526437027 0.34103130515537156 0.1623896401684043
50950000.0 0.89760674052092 -0.42994182364176864 0.0401014887625352 -0.09898271709035 0.00011670721408998007 -0.0015131198492899878 0.3420715997397833 0.14373409684714866
51949000.0 0.8931097251120766 -0.4378751239043282 0.04210973090945424 -0.10506499421569182 -9.523120360968599e-05 -0.0030192872473580666 0.357941309499952 0.14259830349081848
52948000.0 0.8921068991438879 -0.4446697895977162 0.044852654045748834 -0.11539695396786855 -0.0013877238174118136 -0.0006169946102584556 0.3653781045393384 0.13299796163941874
53947000.0 0.8867479643541231 -0.45147619918974546 0.045556975747930516 -0.12475619858372758 0.0018015280869285346 -0.0006305247350077662 0.37133991622476037 0.1347554054878243
54946000.0 0.8802572960839461 -0.46173411604080145 0.046246989177937015 -0.13283168373537912 1.0294834317901844e-05 6.744099234981852e-09 0.3797802089947586 0.11534875616727498
55945000.0 0.8775739985354947 -0.47161947577302554 0.04808197058219679 -0.14571250604647074 0.0020474686841890693 0.0008259267794266513 0.37796949223447657 0.10196442280742797
56944000.0 0.8716993014970631 -0.4781519107130416 0.051817904846195056 -0.1534474612862353 -0.0016203272926340036 -0.002553772934766394 0.40003432055665383 0.10685535484020585
57943000.0 0.8667444933465871 -0.48835579823871034 0.05281513550795538 -0.16525071912728947 -0.0031716327066641744 -0.001424253091138679 0.3978581042616972 0.08952806409377173
58942000.0 0.8613153995069587 -0.49586982043896166 0.05204189128034382 -0.17566291556274724 -0.0003533351998458228 0.001880897164335656 0.4176120002658971 0.08935989051222204
59941000.0 0.8613445655663843 -0.5008626767281193 0.05340826846619008 -0.18229311570833764 -0.0016942779502642136 0.000833836316820331 0.4151667671931715 0.08242348355372345
60940000.0 0.8518380044142096 -0.5093475612198578 0.05437890610785352 -0.18905137672527872 0.002505214776316621 -0.002310484994438367 0.3976226338870588 0.07657709470179715
61939000.0 0.8491633840470718 -0.515595308168844 0.05754837583126185 -0.19921252558620361 0.00029867231559810287 0.002827133234447267 0.41613328841904773 0.07279954402769066
62938000.0 0.8418670630890593 -0.5265147605364944 0.059004749043796545 -0.21629162172670627 0.0005978909435646454 0.003094798795299523 0.43153536963759986 0.05140701268066523
63937000.0 0.8387750694319956 -0.532714876035343 0.059312412122312065 -0.2356435816725612 -0.0027739892270981685 -2.8958922360901594e-05 0.42208166068079117 0.0438029450277658
64936000.0 0.8301178032782485 -0.542878662760377 0.05725388492528594 -0.2486696499752274 0.0029876629048941816 -0.0019998377431229915 0.4253729920356179 0.04547829913602955
65935000.0 0.8279002027094546 -0.5521161121418608 0.05900937769731717 -0.26383143123218916 0.0010779378226818811 -0.0006687494754628564 0.42934449688577553 0.015954065376836156
66934000.0 0.824310680753397 -0.5540978416127167 0.059363535036195104 -0.2776926267202038 0.002738891016621769 7.374643682628415e-05 0.42338583738334795 0.013678574810309721
67933000.0 0.8196333196279207 -0.5646452282068047 0.06112852817891232 -0.29100354133475753 0.0017412180012575105 -0.004017680823198478 0.4340896312026585 0.012871524199952753
68932000.0 0.8160387344516064 -0.5671570555248526 0.05541860132245047 -0.30885755285036065 0.002308824220231927 -0.0013134870726697063 0.45295721042585063 0.0001042320567402761
69931000.0 0.8055661801041989 -0.5803800048522773 0.05088970939912594 -0.3252701496011008 0.0012353222261403702 -0.004200425827503635 0.43833853827674013 -0.02459805141267896
70930000.0 0.7980045883301845 -0.5874492650986746 0.053873038350475314 -0.3377392092720776 0.0011451196980496851 -0.0017069454962413413 0.44952105048800045 -0.02103189739810746
71929000.0 0.7966519036681977 -0.5969914749255942 0.04623695099216267 -0.35775923358050227 -0.001657992817349454 0.0036715332749707747 0.44657975745855194 -0.0459054046803957
72928000.0 0.7894912212596226 -0.6042230759073917 0.042866062309659024 -0.3711250622569492 0.004611966107921029 0.0006469371937860356 0.45562965015739315 -0.0446491110834418
73927000.0 0.783124441719887 -0.6104104237223634 0.032821930742823406 -0.3952983587037514 -0.0021417634438691538 0.0005031347702621468 0.4525852682438286 -0.0518279121099021
74926000.0 0.7783278472822497 -0.619357441006386 0.03272142291647975 -0.41489507902390516 0.0004283558758003936 0.0015779665415233868 0.4595063993887957 -0.06179148535764888
75925000.0 0.7711152573360741 -0.6234455705741442 0.018117219114494522 -0.43500234466283905 -0.0003423775662031293 -0.004129468066587975 0.4658162702548691 -0.07777034963173814
76924000.0 0.765365363144272 -0.6313281573611592 0.006755993278866951 -0.4568650459998619 -0.0007909098441328327 0.006172108293968502 0.4575112383517079 -0.09440501746669351
77923000.0 0.758268880090516 -0.6395128087476237 -0.004857751859969827 -0.48492977991856406 0.0028342596418110115 -0.0004672089357261013 0.45846759961271305 -0.08288187393125891
78922000.0 0.753976448155236 -0.6472895614153025 -0.024559554303316977 -0.5121224943726964 0.00017106325374227304 -0.002877632343533718 0.4579417134560816 -0.11865645176267524
79921000.0 0.7449578213705854 -0.6532088858388188 -0.03648405406844471 -0.5358683971321511 0.003594536009703131 0.0018937543215125593 0.45798443502948816 -0.11599187560652896
80920000.0 0.7401903349851472 -0.6641463562653759 -0.054655124987335504 -0.563013501835097 -0.0009831246743448902 0.00012047067977833233 0.4646065065027604 -0.1284386424729738
81919000.0 0.7343547453516263 -0.6680258249765111 -0.07198015120177226 -0.5944942861129702 0.0012047670107958458 0.0003680769846296321 0.46251910340329067 -0.13762431221269053
82918000.0 0.7267773967412469 -0.6756782015649285 -0.08297075218334098 -0.6260921931721642 -0.003082273062051916 -0.0014577437041706277 0.46394457231691033 -0.14468013665558635
83917000.0 0.7192558700966278 -0.6826936467644494 -0.10245720950266607 -0.6527267872432744 0.0005895442802187706 0.0038201601867232393 0.4678122329307419 -0.14216051395993634
84916000.0 0.7119169094264326 -0.6908481522829142 -0.12380337926260715 -0.6892003684888445 0.0010413519267039827 0.005051837475488489 0.46540978458015275 -0.15726972539575376
85915000.0 0.7056248261670809 -0.6966003499896315 -0.1357432050297899 -0.7186861160431863 0.0023536893027754475 0.007253538652030498 0.4577950235466324 -0.17545564922492046
86914000.0 0.6992833229062254 -0.7067368349719915 -0.15679752730338786 -0.7589984741272827 0.00010149408958398383 0.0011926196272556975 0.4525686699932899 -0.17537043309949563
87913000.0 0.6904166817128632 -0.7116230611901211 -0.16860290369711992 -0.7876204958239087 0.0017955430655111429 -0.0014811383946123494 0.45900161246825144 -0.1799553671373686
88912000.0 0.6853585822854721 -0.7190511531481246 -0.18763173250986373 -0.8205713142995842 0.0026104396622388067 0.0014315059670886971 0.4575780631008155 -0.20756701342435435
89911000.0 0.6760675913290854 -0.7285398322703356 -0.20438782605945638 -0.8583059374830687 -0.00152555735471769 -0.002260726099169637 0.4683954990233812 -0.2121748572867147
90910000.0 0.6693902878157425 -0.7324586005385951 -0.21978283417563715 -0.8922014768984213 0.0019351742057725843 0.0023972085454362223 0.4625651216709143 -0.20419804770754363
91909000.0 0.6609497310670954 -0.7373964150159221 -0.24071738995688075 -0.9234312376638268 -0.00043073986308117746 -0.00225910817651608 0.4545493126183286 -0.22697511942546683
92908000.0 0.6536434719338217 -0.7465071636249041 -0.25875854635811 -0.9593285066298395 -0.0011927872975239023 0.0015234868477494732 0.4662160282278099 -0.23036956596843677
93907000.0 0.6472970780836056 -0.7521292414747791 -0.2797351611709817 -0.9895469068769025 -0.0003665765632649299 0.00048566436973786003 0.46155089188740367 -0.24760914480677448
94906000.0 0.637137784820656 -0.7601707534355866 -0.2956442366771612 -1.027637611898075 -0.0008936605756256217 -0.0003710996909409685 0.4521717881806742 -0.2443795687562516
95905000.0 0.6294085816268934 -0.7669243212823689 -0.3222920465492289 -1.0593101996205405 0.004193933391826839 0.00019546510405653647 0.45560500331827475 -0.26986237196273744
96904000.0 0.6214440168773182 -0.7749721753149486 -0.34047205986613344 -1.1020754036088056 0.00036667919734004683 -0.004931317793790932 0.4496272850579423 -0.27719355173673127
97903000.0 0.6111036737912006 -0.7821500929060213 -0.36592455556419684 -1.13092016604009 0.004406329419553907 -0.00047831773238583586 0.44495839541410487 -0.2841393047353799
98902000.0 0.606483641864462 -0.7871077306772046 -0.3823169601160564 -1.1740393864652148 7.32137871037372e-05 -0.0025493201576306437 0.44345016044570273 -0.28721273573029527
99901000.0 0.5975065969663899 -0.7928302964087866 -0.41237974832315405 -1.2046869672694778 0.0020455786867679417 0.0016319263878743862 0.45391789184848097 -0.3117467036647392
100900000.0 0.5892732585620793 -0.795568291646059 -0.4436691741187971 -1.2331693022017474 0.0012034763101120814 -0.000952437342400543 0.45388782819008844 -0.31702936562861933
101899000.0 0.5816805169580794 -0.8033156590708173 -0.47069068459100244 -1.276294559311546 -0.0008967271351727944 -0.0029991668972474328 0.43368660678157395 -0.31987348794528814
102898000.0 0.5684878305805449 -0.8104126052041798 -0.5139208369338583 -1.311171957855339 0.0022547339025906984 0.00027493394504293995 0.4448792341217689 -0.33591368421698503
103897000.0 0.5618863499722514 -0.8180373422209165 -0.5518887151136947 -1.3508984027506121 0.0006726180053228273 -0.0008679062533456831 0.4553586165987931 -0.3296203750896376
104896000.0 0.5526528368799466 -0.8262979423340876 -0.598548659042562 -1.3813882475420698 0.000941988507636977 0.0003940990018584934 0.431050615742991 -0.33877287913525256
105895000.0 0.5431909891297092 -0.8295004966082227 -0.6445132317798676 -1.424925760868148 -0.0018558444483563993 0.0010372004163153488 0.43535495109647604 -0.35805789231042645
106894000.0 0.5347914015276822 -0.8350158245069715 -0.6995327035430363 -1.4643156669908202 -0.00142459967812964 5.4212124003084977e-05 0.430673765654665 -0.3575460412042492
107893000.0 0.5266781601697131 -0.8415853652489722 -0.7556157478736641 -1.5066164624632652 0.0007057966537872263 -0.0011659399349892576 0.4228893486923169 -0.3696454448070313
108892000.0 0.5187735414651068 -0.8453527437796315 -0.8134017123805987 -1.5421475060383525 0.00044009146481956054 -0.0011427798629403537 0.4268920574268775 -0.367284270165287
109891000.0 0.5053108269575701 -0.8534598375081611 -0.8694926985667683 -1.5812068845154572 -0.0004695981764067395 0.003340185797823282 0.4438893782578741 -0.3549680974606562
110890000.0 0.4949594320772328 -0.868138515330234 -0.9554492992108949 -1.5972928183139776 0.0001839193106625632 -0.0004881917875440016 0.42497214006271067 -0.37528055301403485
111889000.0 0.4837334593841307 -0.8602249986237679 -1.0013626666971482 -1.6520925483595572 -0.0019880833457982727 0.002076623041228125 0.41746999966243303 -0.401320616417657
