! Created with skrf 1.9.0 (http://scikit-rf.org).
# Hz S RI R 50.0 
!freq ReS11 ImS11 ReS21 ImS21 ReS12 ImS12 ReS22 ImS22
1000000.0 0.9827883598825804 0.01641998295210606 -0.0020207781757235334 -0.04452001250044882 -0.027361855545234546 -0.0003026162926853236 0.3238126652571835 0.26417085416267866
1999000.0 0.9996574961158526 -0.015284060835855802 0.002554070435053555 -0.01933064017685874 0.0003098793690029334 -0.005370767427617988 0.2610895091602239 -0.05393399481517557
2998000.0 1.000755106455401 -0.016370983956039364 0.01103439580510213 -0.011822259952155701 -0.0006896169528666554 0.0010327372606059632 0.18495043263568248 -0.13346290447114464
3997000.0 0.9941093888350157 -0.030117812903854596 0.013681135801175172 -0.00710887351078235 0.00012917080187220976 -0.006831274951858745 0.09190214701210599 -0.21585842840807778
4996000.0 0.9985481090677906 -0.03734679903217772 0.01095852269407819 -0.006728507913332142 0.0056126247950339676 -0.005941657172470482 -0.022024341793303353 -0.21302280546038202
5995000.0 0.9994366211331321 -0.04844430137206937 0.004066698527005371 0.0013514483025822142 0.0030957896456994603 0.0007885757543216811 -0.11771454384391823 -0.12161904118853369
6994000.0 0.9976281684045918 -0.05609494388034948 0.009454696508208658 0.006556887519377392 -0.0020907133400277066 0.0008866961905924661 -0.14570797823809373 -0.03708190404668025
7993000.0 0.9960652608566826 -0.06665218358965377 0.008712528886910275 0.008595287791549158 -0.00252176183646104 0.0008023592470487527 -0.15967407807693568 0.02565880387392692
8992000.0 0.9950291082038626 -0.07017171653818792 0.006152171652077018 0.006784304283224621 -0.0007350168452797914 -0.004587630383281869 -0.16336438701903538 0.0557959457461277
9991000.0 0.9928581464986358 -0.08150296473198611 0.0035321598542402085 0.00425007133872995 -0.0005025982964272646 -7.228271071183915e-05 -0.16141403438639643 0.09483990455576823
10990000.0 0.9930892151411167 -0.09368157425769924 0.0010240596310663068 0.0022403653587128015 -0.0026836625755330868 0.002970141769121992 -0.1521508627389831 0.11681613541280643
11989000.0 0.9933402879926732 -0.09720430276810445 0.0031180297549712865 -0.003515709726913429 -0.0033160508106069727 -0.0026957284406951745 -0.1344423500147229 0.14290820704045915
12988000.0 0.9906044197174918 -0.11043840762240006 0.0022533337705600027 -0.003749449145481752 -0.0016174176494574764 -0.000796708192381283 -0.12990349525926462 0.1682545792554432
13987000.0 0.990441391533166 -0.11783941910008684 -0.002368165710119105 -0.0023720061024196538 -0.002684497353528755 0.0015898920355159685 -0.10493871264589466 0.19045004549808423
14986000.0 0.9894685570747981 -0.12507928422131698 -0.0025386101171820464 -0.0003537176007169533 0.001389835536887363 0.005169987755972447 -0.0914456958155892 0.19770200717808287
15985000.0 0.9888229982977694 -0.13277564645073012 0.0014937754700959714 -0.0026666109359708926 0.0006358182657006888 0.00018626365048330897 -0.07376272882272143 0.2205882915772858
16984000.0 0.9881694853125633 -0.14366584264223634 0.0018655745835338218 0.0005753687824418418 -0.0036999764814939747 -0.0014332997558401618 -0.06322150125552281 0.22084991139388743
17983000.0 0.988884085678853 -0.14899190929744763 -0.003337121040260207 -0.005566413049608575 0.001154030003556545 -0.0034801716068882695 -0.06812909497697525 0.22879723201773722
18982000.0 0.9852823086696836 -0.161510799782982 -0.002731488562824476 -0.00034498361524002666 0.0031788013839206715 0.0007605907315265063 -0.03119202168519671 0.23910787232174147
19981000.0 0.9839902887510711 -0.16560373574766857 -0.00239960745278535 -0.00518811803311538 0.0015531615558466467 -0.0004567581283798063 -0.011252689182802752 0.2393237521214878
20980000.0 0.983451207533728 -0.17445941945751275 0.00046584994758060866 0.0021624817535831706 0.0035782768259914224 0.001170464982249683 -0.00029334731239292724 0.2575876735713819
21979000.0 0.9808672288840155 -0.18335174751660355 -0.006058226093404072 -0.003760950595434357 -0.000345053268536683 -0.0014697679987998621 0.012182872338352298 0.23840778136534765
22978000.0 0.9769072755808501 -0.19472133133583763 -0.005709760709773268 -0.0011082814545134573 0.0047230410569698445 0.00034354637619712236 0.015213754993764582 0.2596209189061615
23977000.0 0.9777511601780452 -0.20006775506184551 -0.007719212403097889 0.00019412297575432992 -0.001210049798880946 -0.0034684432020040605 0.03930230588410174 0.24957324092026073
24976000.0 0.9769498242287974 -0.211253436223702 -0.006303690952807711 -0.002266788743374689 0.0007369030142749264 -0.0018906726851312806 0.05574207475356666 0.2612028587009104
25975000.0 0.9782155556179012 -0.22112196684897886 -0.0065170013840596475 -0.0020550577088404693 0.013645972043242824 0.0225491674277574 0.07554899173825337 0.2537901310958
26974000.0 0.9718127197537949 -0.22628896275057697 -0.0045460336429274835 -0.0019945782388944983 -0.0004950926154034003 -0.0009711577401169292 0.08653036357589491 0.2592343893617964
27973000.0 0.9715548411155707 -0.23241900137015048 0.00033950110707940483 0.0010895141191870157 0.0017834276089734584 0.003854789227707685 0.09408869416682566 0.26086096922303564
28972000.0 0.9669356185152079 -0.24469849050333803 -0.004513093920038312 -0.003497314908299397 -0.0019262775530801304 0.0010901462594531182 0.10875903865467651 0.26083016425810607
29971000.0 0.9659222097177579 -0.2521328606230527 0.002389708614359554 -0.001300378622308034 -0.00046385968170539765 -0.0016894472362027667 0.13404929476333133 0.25999468768314
30970000.0 0.9638298798892572 -0.25631482758642754 0.0023267592181002673 -0.00010432001155307717 -7.382496361176946e-05 0.004320331144624995 0.15133944763195795 0.2506844885517528
31969000.0 0.9606779635804643 -0.26497728511684165 0.005844436075989673 -0.0038039729346395763 0.0015849599412074064 -0.0016385292134313062 0.14875971462522852 0.2522382077592936
32968000.0 0.961959025830984 -0.27399329568130687 0.005943042254783713 -0.0065264329489511585 -0.002175949778117964 0.0008384000700485309 0.15559188627870388 0.24843646505542394
33967000.0 0.9574160643906666 -0.2846090573676232 0.01010743248975516 -0.008345805329022588 -0.0008897272479261107 0.001117361619037825 0.1764840475815392 0.2406913060856935
34966000.0 0.9535635418904745 -0.2960500931181968 0.017349395857867975 -0.011442922557502238 -0.0022309201889622985 0.0010195084624368854 0.1889839658567802 0.24649249701774562
35965000.0 0.9525388489816708 -0.3016690845822186 0.019176409534251506 -0.013468219169016667 -0.004105481992971439 0.0027077817282763527 0.2031564186116129 0.249783396239428
36964000.0 0.9494377219902778 -0.3108875579223329 0.015334961939530526 -0.015975805755990845 -0.0020371123511697575 0.0009213181778167745 0.20941825642222592 0.2505981142767735
37963000.0 0.9471999295797403 -0.31780891545885714 0.022180730646638964 -0.02119653836080909 0.0036146730197564314 -0.00035444654277608874 0.23442380690911657 0.23183904258825178
38962000.0 0.9445038781815761 -0.3256534429496525 0.023830842842415854 -0.02340252179638077 0.0005109145093773393 -0.0012334581432836352 0.23225939853129207 0.23547185265734508
39961000.0 0.9401199115660109 -0.3369387456528496 0.027809893961909523 -0.029251695600039127 0.0010840660440795647 -0.0017287347050874184 0.24902914625965447 0.22182855541428298
40960000.0 0.9368933544237031 -0.34338507915414934 0.02158354039744635 -0.026727824349202116 -0.00012536356701078798 -0.003780396502911081 0.2543532774933887 0.22660232185564913
41959000.0 0.9341735806082613 -0.3530474949331045 0.027983144373396936 -0.03612731882630683 -0.000652756895939916 -0.0011451639194905178 0.26577533597286235 0.21408942438502687
42958000.0 0.9288051969458138 -0.36184179577192027 0.03341564715651179 -0.04271151043350616 0.0007745075581999228 -0.0009430893001138297 0.27373393341211205 0.19844482906776226
43957000.0 0.9295921715493799 -0.36502353524547987 0.035800029833818484 -0.04725691454991224 0.0031210532788507384 0.0024005162350575872 0.2877422266590322 0.20494606196095141
44956000.0 0.9254468481878706 -0.3730389498271415 0.03830475063946814 -0.05139850752685496 -0.004397791833154907 0.0012122223843981784 0.30278877595605197 0.1885707290860269
45955000.0 0.9200917835822352 -0.38619055781629513 0.03485752197859539 -0.060336985265769943 -0.0007770145514475647 -0.0007896714205938694 0.3005295590283601 0.19297488336625415
46954000.0 0.9170555240627718 -0.39355103701928534 0.03773128268788324 -0.067324298913966 0.0007743923301617576 0.00391896901788055 0.3174473477408662 0.18440132040820525
47953000.0 0.9132618399076646 -0.40326641706255073 0.037461388264972265 -0.0745045073890231 0.0016100096668363454 0.0022187781552001815 0.3297354281981101 0.16880320025405032
48952000.0 0.9097644354449119 -0.4107549501449748 0.03984225904848054 -0.08174272929676235 0.0012877254938046298 0.0006425074463433263 0.331249689622972 0.16399829886521597
49951000.0 0.9060465323363094 -0.41900837148122605 0.04126292493884036 -0.08824202990758784 0.0023477089113622214 0.004005573474499053 0.3408574528442255 0.1565456271204871
50950000.0 0.9021808603295141 -0.4244047709912057 0.04221569435827736 -0.0993103615789335 0.0023479064046495364 -0.002487058931168638 0.35384927039708397 0.1386496685659628
51949000.0 0.8989880712085355 -0.4352380252537192 0.04222848949638636 -0.10474819482556054 -0.0016529043289627001 -0.004267877371773511 0.3541645110946501 0.1430752045641993
52948000.0 0.8972156321297847 -0.4419505900798762 0.044485762827198926 -0.11569216512232887 0.00011679561759455248 -0.0032347454802962657 0.36230007860081365 0.13374977379735736
53947000.0 0.8897467372679648 -0.4530495444109961 0.04522930512870825 -0.12628243392817629 -0.002410470269944644 0.0005511517644297204 0.36924180547747726 0.128727219350582
54946000.0 0.8851982923055141 -0.457982931215129 0.04556173963189341 -0.13247763500533044 -0.002404370723137509 -0.0005235793239617203 0.3820520637319893 0.11317140568950258
55945000.0 0.8817682028782234 -0.46726744427245104 0.04611173182615313 -0.14567436053414798 -0.0003745230494724956 -0.0007540709389161094 0.3792094729535483 0.1061787287372198
56944000.0 0.8787135830582861 -0.4759519900639859 0.05203261998218899 -0.1537947962418726 -0.001522418451144987 0.00030480209991615615 0.3895401939073349 0.09973576565047218
57943000.0 0.8734944891511313 -0.4859332746536342 0.055132844322705314 -0.16764903721673544 -0.00035573322556355737 0.0026477223272265817 0.39082687088687856 0.08787201777318628
58942000.0 0.8670837456454534 -0.49208567732809544 0.05382709907507993 -0.1762038170476495 0.001593581281265641 0.0016017092385947455 0.4199532900044757 0.08734372700146652
59941000.0 0.8664689591733195 -0.4983920750715289 0.05452375596007844 -0.1891634578384943 -0.002774502221038059 6.199034895755118e-05 0.40558343140242425 0.08155489792676471
60940000.0 0.8575248535434913 -0.5060587942573608 0.05053921201686081 -0.19367153062222336 0.00012063188318122689 0.0010497240343943501 0.4013053148063733 0.06912972715234468
61939000.0 0.8547819151477755 -0.5131887867152801 0.055719812572903815 -0.19862995886018925 -0.0011540351305697443 0.003050962332686504 0.40830149599748283 0.061527415145344086
62938000.0 0.8488050080429977 -0.5234554268417957 0.05740640496031114 -0.21755534556067052 0.0023250033703224406 -0.002550536844076025 0.43674977940589377 0.045358482749240696
63937000.0 0.844907699897277 -0.5312255864943753 0.05841462394916808 -0.23668042860548752 -0.0016230685435637683 0.0006442330389647744 0.42777419166267905 0.025537407173594453
64936000.0 0.838755914728393 -0.5370352423380954 0.05656785682003002 -0.25223099284098416 -1.9741499025552315e-05 -0.004418933046074044 0.4285852772663839 0.03617338702287646
65935000.0 0.8357598265355937 -0.5469004576768924 0.0589630348362194 -0.267511105333952 0.0029361522804775245 0.00041756768631640067 0.43836031915193746 0.01497509561386699
66934000.0 0.8293018044777923 -0.5540411312916013 0.055628972283788054 -0.2788384046441407 0.0035130918912176295 0.0022783902754490814 0.42308211119034794 0.004966862209491315
67933000.0 0.8277424256182736 -0.561377724587979 0.05742265300833622 -0.29748912752787154 0.0019486814162739826 0.001492483761877638 0.4407913285828238 0.0002486889604464563
68932000.0 0.8224882954287073 -0.5641121732100625 0.0546898782407209 -0.31115934931358746 0.002624820044086242 0.0014768850600717371 0.44942168817563405 -0.014951569812337561
69931000.0 0.8131797936678236 -0.575694537320232 0.05299984954189251 -0.3244358225554428 0.004057185127822485 -0.00254205172086959 0.4444501541663851 -0.016442048904152674
70930000.0 0.8060512273518374 -0.5847389890409196 0.051027334831217665 -0.3426502333246875 -0.0046933199028206 0.0011670776184933155 0.4374019561927269 -0.042218492864807194
71929000.0 0.8055462895198484 -0.5910088565578392 0.050939995757024896 -0.35979126171473963 -0.003226214134656046 0.001193520024065596 0.44019447966629976 -0.04797924043537573
72928000.0 0.7967098969966644 -0.602726836346752 0.03981812629246706 -0.37750478997697123 -0.0003221005065231188 -0.0012167124097117404 0.4617807741202245 -0.05305197881904291
73927000.0 0.790264083409133 -0.6082727452167515 0.036296021036926134 -0.39771037514716284 -0.0005416114718717161 0.0032319158410164324 0.4510139175382431 -0.06873895231451252
74926000.0 0.7866118319471714 -0.6178856695455194 0.028999369322338743 -0.4196079035985613 0.004769656060452955 0.0009116941025943968 0.4560986084678951 -0.07589918290502046
75925000.0 0.7799727397841001 -0.6229209257712286 0.01765969507987748 -0.43472205334454306 -0.004865900734446057 -0.001691340020639647 0.46114182831896944 -0.08122612230457696
76924000.0 0.7752645204749047 -0.6293199150176452 0.008110836816048468 -0.4619487776475152 0.0017596679317734459 0.0014008718296789908 0.46600634704343663 -0.09446673700426028
77923000.0 0.7654333700811204 -0.6380312545261857 -0.006986392313284153 -0.48616509271248065 0.0005804960007512995 -0.002631205298844571 0.45245106894419684 -0.10361938648367718
78922000.0 0.7620731504458035 -0.6468329728729109 -0.02358370810721547 -0.5115766395909059 -0.0018256278857307368 0.00251991687635571 0.4532753232912463 -0.10300389298087796
79921000.0 0.754305278046015 -0.6514111713134217 -0.03717850962199584 -0.5384541096032021 -0.0029301837454937577 0.0034468572451211515 0.4502884464583604 -0.1284305988895024
80920000.0 0.749938384101289 -0.6617709441978754 -0.05501116117906899 -0.565785510573336 -0.004535172812542936 0.005443406949225034 0.4615350405888364 -0.13725224937559727
81919000.0 0.7435106089854913 -0.6666924130676933 -0.07409691599345801 -0.600500856959637 -0.0014317211217536544 -0.0011103300149164922 0.4504955798712151 -0.14053323675379314
82918000.0 0.7340140774919964 -0.6749810452076217 -0.08275665579002515 -0.6251819370578866 -0.0008818141229932021 0.003498700370599164 0.4652938082043836 -0.15237482794957413
83917000.0 0.7257283563596232 -0.6835114110916948 -0.10957006936601518 -0.6532032254146688 0.0030733129686612783 0.0014929817301823898 0.4650201511113141 -0.16000338005933068
84916000.0 0.7195094720553409 -0.6912598953741238 -0.12263105383593997 -0.6913150404982427 0.003183943681853278 0.0009398480322831937 0.45712708882023984 -0.16735428271703295
85915000.0 0.7159760971958983 -0.695187687883013 -0.14403367401022246 -0.7186048504512873 0.000851013932759709 0.0025311233600614678 0.4584290307921538 -0.18606413530814167
86914000.0 0.7083716314259119 -0.7055104066673943 -0.1641077273768969 -0.7589110458342203 -0.0018043143753394132 0.005778519730332634 0.46132802206533985 -0.17924259388404687
87913000.0 0.6994325422160245 -0.7124282596488078 -0.18161035062114084 -0.7883781178573301 -0.0028801280545196276 0.00165561445160671 0.4509662326594019 -0.19720121837855423
88912000.0 0.6937974334014684 -0.7177008280276227 -0.19819777751347814 -0.8169158117711505 -0.0017512147905834523 -0.000454138081810758 0.46050724191180603 -0.22574283932780975
89911000.0 0.686458318739653 -0.7267648092107438 -0.2089334073312839 -0.8630822357237692 -0.0010739630781174492 -0.0019821896393989384 0.4624854020646178 -0.2252800205835591
90910000.0 0.6783602820124155 -0.7320243356043814 -0.23144744306593354 -0.8964008760896217 -0.004743251518322123 -0.00039563273746988196 0.46188467862360805 -0.22061788601508797
91909000.0 0.6696437954965968 -0.7365700890186297 -0.2500872097885074 -0.9280734612223319 -0.0014461295939014085 -0.00045831214283231406 0.4664250923740163 -0.227239556047996
92908000.0 0.6623117161525705 -0.7461851802086644 -0.27061532344242345 -0.9628134545835723 0.001890857274965547 -0.0019920269260755154 0.45311108735402766 -0.24388667201971231
93907000.0 0.6580753196350063 -0.7511732280694542 -0.2887764487108189 -0.9940807473158142 -0.0012523229814774297 -0.0004900111586611894 0.45648361487144795 -0.25348532931689666
94906000.0 0.6440676678523588 -0.7600390696255184 -0.312761842089877 -1.0334074531652784 0.001342007985063541 -5.7017661182257226e-05 0.4538452525417282 -0.2655466809156819
95905000.0 0.6390133779344708 -0.7653404337193855 -0.33098674135708156 -1.0674948631922405 -0.0014306459894392928 0.0018759949527920557 0.44772670767776845 -0.2756506993860637
96904000.0 0.6309294884028401 -0.7741566690539651 -0.3527323638944282 -1.1054169264605318 -4.303465552539462e-05 0.0023675654717290944 0.45581091419983977 -0.2920767537519997
97903000.0 0.6205527696526898 -0.7801527778880081 -0.3787608504288959 -1.1408846744116514 0.0012619783742020049 0.004316815158336811 0.43778855709119874 -0.29557474804862177
98902000.0 0.6150325919111768 -0.783669178896312 -0.39204438333864805 -1.1765651387375964 0.0008216925001732552 -0.00088152116778443 0.4370260932579632 -0.3001447027296702
99901000.0 0.605755660279997 -0.7923031430808191 -0.42888095115302227 -1.2122971865623868 0.0007330535950116333 -0.001239197373441584 0.45412326604708725 -0.318457934081923
100900000.0 0.5981685900835184 -0.7951973230579287 -0.4616721054045913 -1.2427554154990803 0.0016597407712135304 0.000567965379579174 0.44780225122724343 -0.3211781447729792
101899000.0 0.5878645565471327 -0.8043055503511354 -0.4903062579751875 -1.2798827757694722 -0.0013336499525966692 0.00017553791763576755 0.4437168946817562 -0.32487067399040387
102898000.0 0.5773049864638902 -0.8122852723205853 -0.5298115242489521 -1.3200335788869169 -0.0023810403485933227 -4.49809993951694e-05 0.4403677529116088 -0.3436336427964822
103897000.0 0.5699381920693333 -0.8181048528671249 -0.5692475420921812 -1.357912444132909 -0.0012482329166257746 -0.003448934320852155 0.4489166936352541 -0.3428820951006212
104896000.0 0.5631689440744597 -0.826713216700361 -0.6147239321559623 -1.394279153310309 0.0024627414298602 3.4960009598660724e-05 0.4234924594676456 -0.34975240613903513
105895000.0 0.5520007643266022 -0.8296093016521976 -0.6619961761129384 -1.439020726466734 0.0008969280067583146 0.0013823690382428842 0.4305866802730633 -0.37195569656132804
106894000.0 0.5430509974099449 -0.8368535841621664 -0.7214564788675403 -1.474534271618008 -0.0001193860093884098 -0.0006328196824090654 0.43054654516979923 -0.3795646182448386
107893000.0 0.5341451785585974 -0.843744278761998 -0.7746231969695182 -1.508035856927057 0.0015451201841895027 0.002378051908897322 0.4251345100029532 -0.3970689899633927
108892000.0 0.5262536507439045 -0.8451361106997574 -0.8329477887885709 -1.5430094646463548 -0.0008227042754494388 -7.500336214771767e-05 0.41519744386842233 -0.3778864145627999
109891000.0 0.513305304953495 -0.8548657599948659 -0.8931420788341082 -1.5794855688849734 0.0015405602403720333 -0.00030134314581364407 0.43243620890697393 -0.3865785599786466
110890000.0 0.5079736827334109 -0.8681866788308008 -0.9702565927085554 -1.6048640463308985 -0.00025259711372349353 0.0008841370356407203 0.41579958475899825 -0.3911946980254776
111889000.0 0.4960721870019545 -0.8606744329420376 -1.0159676400365447 -1.6511927042288475 0.0017234429084938697 0.0008402666032053105 0.41119625065702664 -0.40683458944711637
