! Created with skrf 1.9.0 (http://scikit-rf.org).
# Hz S RI R 50.0 
!freq ReS11 ImS11 ReS21 ImS21 ReS12 ImS12 ReS22 ImS22
1000000.0 0.98052000344342 0.00627933560940552 -0.0039431896718031155 -0.050009228644866996 -0.0066450270219002225 0.0005772195112925911 0.29690378824552094 0.337779628116408
1999000.0 0.9959888314597314 -0.011376106731605514 -0.00033324275645563563 -0.031306603456155234 -0.007287332978665473 0.0038621635174801443 0.24676052830276804 -0.08057581690370144
2998000.0 1.001650224795417 -0.01837260289264224 0.012293759691533951 -0.0102570847250481 -0.003802134326178756 -0.004166164527979329 0.1965296350133833 -0.14966524856995478
3997000.0 1.0005166739117843 -0.02960357880831377 0.01108210229425282 -0.006209381301813925 -0.0044043185603839605 -0.00015381860763041648 0.0655381218620869 -0.2208865929975838
4996000.0 0.9962880425275208 -0.03404869434561102 0.011443735498972677 -0.0024635849050626576 0.002782343584805151 -0.002483679849536494 -0.04218880212547539 -0.1850678709236627
5995000.0 0.996783466239615 -0.046855339333188084 0.009538801104212832 0.00161898747545126 0.003778117915056095 -0.002135548551059467 -0.1394855073121245 -0.10251673175574445
6994000.0 0.9959124791636323 -0.05866811854182433 0.00775580486702576 0.0017451774898329183 0.002026775098719193 -0.004422193647106808 -0.13630207003931796 -0.012485694807933666
7993000.0 0.9970870704565619 -0.06676752409248991 0.0036963051856281405 0.0062889094222447275 0.0034172158714789185 0.0010252677622029165 -0.1626585616606571 0.03646431412279983
8992000.0 0.9970231699675952 -0.07017213177271814 0.003397981618627333 0.0075844720582233524 0.00032099372415503725 0.0025301457268894776 -0.1704440881672752 0.05989861800839921
9991000.0 0.9967807235553954 -0.08296301020860099 0.006777428355265022 0.006299828478089674 -0.0010490363509972004 0.0024900571116515534 -0.1461824284566959 0.09628199062889686
10990000.0 0.9933669011375523 -0.09396698534259874 0.0013686948894808591 0.0016334497929562997 -0.00016535128982863206 0.005523249318284302 -0.1305103260358835 0.11806584786045196
11989000.0 0.9924085570223371 -0.09821387762858612 9.454607897449704e-05 0.0014704562809504226 -0.0029399916596529784 0.0007095327996787209 -0.12248927841103709 0.15163513457752278
12988000.0 0.9909461936557273 -0.1074354396613417 0.0026642454652511392 -0.002897337258482129 -0.0019235677045071873 -0.0008038743504913872 -0.1035386748789422 0.17437208228473017
13987000.0 0.9886567814626289 -0.11729565821868972 -0.000320923085759971 -0.004851963650944049 -0.00030713573711139383 0.002188933861663719 -0.09174389987349928 0.1898076101694854
14986000.0 0.9878744063983348 -0.1242165782338963 -0.0001741980615866117 -0.000892365601375057 0.002448828841600571 -0.0008801458119227777 -0.08187282901655725 0.20657631315984798
15985000.0 0.9917874228720939 -0.13175915889884274 -0.0043505781535491325 -0.005869801646151343 -0.0004317055674057555 0.00071202283964763 -0.06838198583996466 0.21552897101880034
16984000.0 0.987766762225888 -0.14030332065487944 -0.0015367869033134749 -0.009510052612115464 0.0003183820401801516 0.00274898986867808 -0.0565126369507822 0.2176668152610983
17983000.0 0.9856954198432906 -0.14636347950209128 -0.0026060869368203024 -0.005290293407953341 -0.0008876443782739083 -0.001759993524915 -0.05594477555539031 0.22766928535552838
18982000.0 0.9829297381668126 -0.15809541839446595 -0.0023753509437994687 -0.006543479783226274 0.0007806891490821443 -0.0019778985143230677 -0.02335454704433935 0.2327871087963501
19981000.0 0.9828439765718389 -0.16418605405287817 -0.0018172442621156705 -0.004538486384061065 0.0005302161922799535 0.000902519378485663 -0.011079466903031071 0.23920459779009068
20980000.0 0.9828680763065968 -0.17350669548282513 -0.007426069684971159 -0.009764239487458937 0.001181494057001785 0.00226897475256325 -0.005706472253423819 0.2626575312402311
21979000.0 0.9802914319153784 -0.1821403223844108 -0.005872488779796925 -0.0055630098300973015 -0.0017483065469645236 0.0009850740356140664 0.007171208179421719 0.2521879769923368
22978000.0 0.9780537473748471 -0.19218138892988246 -0.006249088860506078 -0.0010845542736626212 0.000936613416443865 0.0030735521126875904 0.025911863454853853 0.2601852804611686
23977000.0 0.9806859177992487 -0.20071090955711637 -0.0063671730881167754 -0.004071566755201428 0.0002986894744930845 0.0034903304644334243 0.03845029672080529 0.2613026547536822
24976000.0 0.9754134903188919 -0.20998585619968993 -0.0024872410491632397 -0.00033217923123119185 0.0005077863802357151 -0.003539039806465464 0.06789885480281567 0.25066666662814613
25975000.0 0.9726453698495209 -0.21390352439192947 0.001086430130985806 -0.0017346886887814092 -0.02032562687529895 0.01946414893223243 0.08645626214884924 0.2638447093902955
26974000.0 0.9711756590522707 -0.22638063424327523 -0.0015328234906557636 -0.003082875463896309 -0.0028020995602858973 0.004188123440784139 0.08422513304608222 0.268733338148079
27973000.0 0.9684523094055926 -0.23578893400873235 -0.0030511059997083197 -0.000909283684457109 -0.005001092134194523 0.00164405687216035 0.1081178087212466 0.25816472854035644
28972000.0 0.9664260987400786 -0.24278048800105806 -0.002469350548060202 -0.0013829556496123725 0.001322367410474471 0.0022608152717581865 0.11920608506320196 0.2582816913157118
29971000.0 0.9655096240072709 -0.2524675097400423 -0.0012310336610504308 -0.000959574812037484 -0.003716267499714937 -0.0021550862453884505 0.1496459263315342 0.26391538835084444
30970000.0 0.9621166459328391 -0.25735141352622054 0.0022608326235576707 -0.0009090943314564996 -0.0022959693009316907 -0.0024943130085414785 0.16682719911428126 0.25249367041707
31969000.0 0.9610636685814444 -0.2660621780388478 0.005051447200693713 -0.005537801792300232 -0.0014493411259168905 0.0020632623077849214 0.14928872552332917 0.250277505724386
32968000.0 0.9582509145758147 -0.27528700388615285 0.010928893445003404 -0.006272122049686342 -0.0009668978735159166 -0.0003423019320109052 0.16441961198630983 0.2523455453604666
33967000.0 0.9558164545337716 -0.28554375962274225 0.013287965445118627 -0.008656470746871 0.0007787612188147488 0.0023417707589015128 0.1892386978278276 0.2491438410365148
34966000.0 0.9551092965012236 -0.29236138756158914 0.012654574493458477 -0.013664001044698075 0.0015930406762602039 -0.0003510049507363572 0.1967783619466036 0.2538208937451987
35965000.0 0.9515973309709947 -0.3022212048911843 0.017695815788914934 -0.014530709381334038 -0.0006329652810373252 0.0040777872378412955 0.2027462791412007 0.2515980029777628
36964000.0 0.9468651837872428 -0.31141886874842806 0.014044527161022322 -0.012227746521878276 0.001399693678545972 0.0005951892602311011 0.2049628174554886 0.2546018211358828
37963000.0 0.9442066637900102 -0.320198016108062 0.023205942494446196 -0.021632384890123795 -0.0010966880621220317 0.0022402851776724816 0.22656655057080266 0.232647826758489
38962000.0 0.9423734178260923 -0.3288369449009181 0.024403028139761865 -0.021955831620323347 0.0020089033952080506 0.0011376294943528703 0.24644695034462336 0.24204728135394282
39961000.0 0.9406866052069262 -0.33430691828059544 0.025258287102726946 -0.027622079947140436 -0.0007548240035152074 -0.0018101418617316363 0.2462532483537233 0.22613819760544537
40960000.0 0.9361410822549359 -0.3449372864805392 0.02231995584040029 -0.023391628612231794 -0.00013467687262660812 0.00011333596066349099 0.26688888977020564 0.23101935806167204
41959000.0 0.9340836786531262 -0.3536390882380555 0.02873629890352111 -0.030741546753172515 -0.0006400274040086057 -0.0012828109472977712 0.26575555391764133 0.21621601806278745
42958000.0 0.9289061601085653 -0.3614838594091863 0.031869774641603864 -0.040299990774110395 -0.0008001765311952476 0.0004964080366032977 0.27738759981155814 0.2036718862552779
43957000.0 0.927115465359466 -0.36806745516046474 0.0319511801157425 -0.0484620633488854 0.001875656623037676 0.00048509977208807426 0.2956004471585701 0.20948563193845407
44956000.0 0.924661376259947 -0.37379860162266637 0.035201105110679476 -0.052142167853637386 0.0003399066767630431 -0.00021938532440868554 0.30084653094825703 0.19685526735497683
45955000.0 0.9194286237467203 -0.38724634000621866 0.03399244570497867 -0.0595377631434376 -0.0004378444458838839 0.0018273291540892775 0.30725864363160554 0.19502200925450958
46954000.0 0.9159504360215929 -0.39499541419344847 0.03715088034406127 -0.06582360989911783 0.00036930898190344575 0.0005784442370820548 0.32706178384741785 0.18148532600611247
47953000.0 0.9140803905446493 -0.40287163629466566 0.03812006706409999 -0.07275177210679146 -0.0007303831659037885 0.001396650987993908 0.33739902908552705 0.1774157739947147
48952000.0 0.9088478227872787 -0.4108552757940721 0.03809706361859109 -0.07968100215635483 -0.0007488267610963282 0.0008312790387078111 0.33723800672215315 0.17066009016483313
49951000.0 0.9044265358374584 -0.41991215040536106 0.038342758740632754 -0.08662034781024394 0.00017717934457623047 8.620916252318838e-06 0.35963990062928297 0.15159499249434158
50950000.0 0.9010928792939817 -0.42721566039961767 0.04034509826192473 -0.09421820509034143 0.0012584049000294868 -0.00311357867062674 0.35367832047493175 0.13774266353614426
51949000.0 0.8969393443076644 -0.4363738346944474 0.0400013367640414 -0.10310775312991623 0.0024380862596403543 -8.707598723474787e-05 0.3530897109321715 0.1387860916476703
52948000.0 0.8963810903058199 -0.4435088316991552 0.042338393122805885 -0.11240835942730748 0.001705617513446587 0.0017727173835172603 0.3713712872713666 0.13428632785361322
53947000.0 0.8888921277080949 -0.45072837757076706 0.042422894997324795 -0.12024632398762115 -0.0004269250327915847 -0.0011690314957912402 0.36572113890883573 0.12556907513087798
54946000.0 0.8848854435842105 -0.4603001206069524 0.04492972316785126 -0.1288058768175981 -0.00015240805178953784 0.003470163523743781 0.37852916448482005 0.12332697711135246
55945000.0 0.8819211426502986 -0.4669898376692918 0.047475230683272834 -0.14088705136232366 -0.0010156470471409968 0.0013522684161104163 0.3820542700602958 0.09673438206519208
56944000.0 0.8762884437927099 -0.47582251210230775 0.04654271137635076 -0.15097797525012616 -0.0023857309421711115 -0.0031710637938343876 0.3980396499078674 0.09457251333676395
57943000.0 0.8722710511406978 -0.4868457928368099 0.04667545145302959 -0.16301887796591497 0.00010569089902470974 0.003038966370866803 0.4042824807146911 0.09214868638925587
58942000.0 0.8660645478851104 -0.4921869932957993 0.05501981690915072 -0.17404416620126495 -0.00169792484739702 -0.0003287556133373338 0.42019445349273876 0.08574527835921092
59941000.0 0.8656625755531657 -0.49844432884792633 0.04720591847068128 -0.1834613973013925 -6.313096237508589e-05 -0.00012423744543234736 0.4194678719246885 0.08665347132956158
60940000.0 0.8555936930281973 -0.5072036139218361 0.05113956315640762 -0.18612995282979522 -0.0006574264766394453 0.0005676491186124091 0.4156752159449281 0.08088937485447252
61939000.0 0.853334283909169 -0.514143516413682 0.0539874616731915 -0.19426511396371632 -0.0012147732901836286 -0.0014925186747094463 0.4275553187494657 0.06741514662064325
62938000.0 0.8477990852954443 -0.5261131944061164 0.057761667167778655 -0.21460145551465573 0.002781463622449468 0.0019434589697213274 0.44529379305201916 0.05536519607104731
63937000.0 0.8419746797838824 -0.5313785930773168 0.05562201381583432 -0.23412760424740853 -0.001698721339587069 -0.006385594977207019 0.44140950486347896 0.03450201845498813
64936000.0 0.8360271699305644 -0.5397904339518174 0.056513103669586194 -0.24720751118952802 6.636509723006575e-05 -0.0021904485268912153 0.42894670876494023 0.04390743224655154
65935000.0 0.832393318831131 -0.5494425912052094 0.054713360551607165 -0.26374749862167385 -0.003480723871910731 0.0012845288757014261 0.4401672919540551 0.010308863229457996
66934000.0 0.8304008353425318 -0.5517657541452035 0.05400704812947454 -0.2777798423891673 0.0019623489285559505 0.000777048995041699 0.4330989124555604 0.00624194550607971
67933000.0 0.8254964349969043 -0.5634471849352002 0.05646101122895513 -0.29078204296167226 -0.002531329439674579 -0.0014908985403228423 0.44893943811022885 0.003646022823847526
68932000.0 0.823370460922839 -0.5611432419139623 0.05170529330819814 -0.3031956668117194 0.0009831138793555717 0.0012045688378496426 0.4476851619166994 -0.005056729043430235
69931000.0 0.8103772546026565 -0.580183478819986 0.051207184419367814 -0.32019672059883886 -0.0042966624323421 -0.0006790878575678327 0.44868066373894866 -0.020325440169071524
70930000.0 0.8075118918144522 -0.584573422354493 0.04910142890591291 -0.3348450302666706 0.0010741882725363646 -0.003045190180698299 0.4532805461105528 -0.04213806605634645
71929000.0 0.8032017638093981 -0.5945481741747022 0.046544565708618695 -0.35256940440933904 0.0010575260361613721 -0.0007188097531091354 0.4524165235148619 -0.03939012802932212
72928000.0 0.7959660765570773 -0.6035576529051162 0.042217799955818494 -0.3674060064091638 0.004319601179301421 -0.0024411751691301815 0.4588551144801495 -0.04236076909888327
73927000.0 0.7900426307729942 -0.6071133903401295 0.030953086552227442 -0.3892615520526356 0.001650075948021867 0.0024017384995789477 0.46424306453877556 -0.06200226184750252
74926000.0 0.7870395319233245 -0.6188543458229199 0.03155335982096588 -0.4107387814003659 0.004593485617368899 0.0022647838389402786 0.46047005791325973 -0.06444944517192712
75925000.0 0.7775281742824882 -0.623130471728787 0.017805144088890848 -0.42889895716764737 0.0019754409891537825 0.00237895721511992 0.47041166816412955 -0.08290883031403144
76924000.0 0.7718827782400876 -0.6317086436454418 0.006528261793375376 -0.45334298176696985 0.0020591665980109843 0.0031953254354659824 0.4558509501858063 -0.08543902075572704
77923000.0 0.765517810439715 -0.6369051662410853 -0.0064597818161389 -0.4739064298822901 -0.0019359464203874757 0.000568396977990664 0.4607652850796793 -0.0942696252004955
78922000.0 0.7598876981108188 -0.6470634139532547 -0.021121925387530608 -0.5027422271146255 -7.771487209371184e-06 0.0025016264340447705 0.46332922443061253 -0.11047914025972104
79921000.0 0.7504536752204438 -0.6505493733823197 -0.040585239248065834 -0.5269496615931992 -0.0001031497729774062 -0.002490071882024836 0.45425890557783904 -0.12495981563776376
80920000.0 0.746763540024003 -0.6633916261793024 -0.053688515320460886 -0.5513453894889162 0.0029948045584273645 0.0034452810237951092 0.4694470622624825 -0.13970972247529811
81919000.0 0.7419972332835627 -0.6670408581635296 -0.06862616122981441 -0.5860506720709904 0.0032927637866537788 0.002438372780011594 0.4774253345092376 -0.13285080073805555
82918000.0 0.7329857663519135 -0.6749846782753651 -0.08459971762604603 -0.6130557763683443 -0.0024214185701454493 9.946111338987838e-06 0.47218135449443654 -0.1541170420874968
83917000.0 0.7239276840962741 -0.6826849987248915 -0.10559360507703519 -0.6406841959092132 0.0007735810996091857 0.0018161408301550963 0.4709420081526775 -0.15092593530975196
84916000.0 0.719505781310493 -0.69028260300313 -0.1213585593449653 -0.6734920988844001 0.001963559926699788 -0.0008305608084317032 0.4683979430609469 -0.15807665496610793
85915000.0 0.7137361749475204 -0.6956398010560368 -0.14185587438223624 -0.7073967251495099 -0.002191600598355766 -0.0004074701393177781 0.46710502254201564 -0.18272685840079192
86914000.0 0.7056916549684071 -0.7060963914685802 -0.15462814307473643 -0.746476742377322 -0.0004477446244276707 0.004923899327318962 0.4626649047538682 -0.18203380037535363
87913000.0 0.6989046755394344 -0.7127436669596707 -0.17517923355351817 -0.7736747693182207 -0.0006887161195270155 0.004484268308110884 0.46960222466288043 -0.18700972918186254
88912000.0 0.6913309468958083 -0.7184086234199483 -0.19199544700993287 -0.8124788312297472 0.0012523789125640451 0.0001459974364463288 0.47239759141598014 -0.20642824280940983
89911000.0 0.6815871174782325 -0.7277847892452232 -0.21174603035738296 -0.8494976814170185 -0.002713991655435316 -0.002452367645669685 0.4712303270542723 -0.2167819728121403
90910000.0 0.6756735972176106 -0.7325459003782726 -0.22514499177857902 -0.8799062094433835 0.0012591874204570328 0.0011810664876554424 0.470923784806497 -0.2301058131024163
91909000.0 0.6673499793740933 -0.7373650592043246 -0.24488031060217602 -0.914277960692689 0.00231408902661749 0.0015432238391395194 0.4737479632629048 -0.22659067705722014
92908000.0 0.6599989255717722 -0.7477330121534732 -0.267237874728304 -0.9511648080877988 -0.0011299020403223216 0.00021319984206479708 0.4690904016773771 -0.23794772575327758
93907000.0 0.652884897732374 -0.7527764166025578 -0.28747360386520066 -0.9778918200101449 0.0007320586243486107 0.0005546396990387719 0.45858972714682944 -0.25368856091750863
94906000.0 0.6410706097796721 -0.7610505832976671 -0.30253072882493603 -1.0130905138938242 -0.0001582877631759263 0.0003705412529378637 0.4572665594725 -0.2550461373637769
95905000.0 0.6363974238932374 -0.7660725057473681 -0.32620508736368203 -1.0468733862789008 0.0005240931723375279 -0.0026595997459785536 0.45883865819753994 -0.27881935093619503
96904000.0 0.6290453914838948 -0.7753241101873936 -0.3426866757047683 -1.0879024797151693 0.0023829832354536917 -0.0020304123642370425 0.45181927790276544 -0.2751509540169243
97903000.0 0.6190914400994809 -0.780221835377959 -0.37120542178173144 -1.1203147969458613 -0.0010679178149614105 -0.0057190655031209466 0.4531844364879055 -0.28586089054492836
98902000.0 0.612954542188281 -0.787366301338046 -0.38404928725034654 -1.1611287420551182 0.0013056134219106663 -0.0021993081948255278 0.4540651287528384 -0.2888961547609596
99901000.0 0.6050337150796096 -0.7942626512149276 -0.41790983242212576 -1.194174229993643 -0.0021682249109050184 0.00030769702016744324 0.45731117057106285 -0.3147984038188953
100900000.0 0.595123350873506 -0.7961986292817201 -0.4511978268587532 -1.2242225820960577 0.0015573636927111287 -0.0024638598708378603 0.46751273046754827 -0.31823727396359086
101899000.0 0.5849981390805086 -0.8048633280013084 -0.4769763265280821 -1.2591377343471113 -0.0001457758349701351 -0.00167573797985925 0.4576493033168906 -0.32274355325484766
102898000.0 0.5765921479645948 -0.809042251156004 -0.5113263926703425 -1.2980062572267264 -0.003195647352572378 0.0020109967632239373 0.4516197804558413 -0.3390718889513221
103897000.0 0.5691762809073923 -0.8166585761365819 -0.5489447211886238 -1.3341731876290064 0.001031041861123357 0.0027613958431581816 0.4551335283220655 -0.3444193118962809
104896000.0 0.5604370824756104 -0.8273969017190154 -0.5949565753345369 -1.365378281467154 0.0008134038074164901 -0.00035578497164067725 0.44013187332418185 -0.3388539473713511
105895000.0 0.5493468204204146 -0.8304841100556837 -0.6431140604134274 -1.4124389671060322 -0.0011112316574027246 0.0009502358027279303 0.43846117977249716 -0.36524733948724386
106894000.0 0.5400551002671162 -0.835331884681457 -0.6945032805953235 -1.4485035035367824 -0.0027996606000267156 -0.0002337139197961059 0.43130931127034966 -0.3707830003485822
107893000.0 0.5335082015811063 -0.8417704385125993 -0.7504806265179758 -1.4891742877454563 -0.00035691292010176515 0.0010748474118685086 0.4410852524084701 -0.3747490147682262
108892000.0 0.521945248346836 -0.8467775301418665 -0.8062161064794467 -1.5218502877974303 0.002806071337587018 0.0021811049738085977 0.435978359225453 -0.36999879376030653
109891000.0 0.5113309843608204 -0.8527953595028496 -0.8624206897763655 -1.5659271488308957 0.0002817490802214078 0.0005118876662749268 0.44790605451891746 -0.3749527837145586
110890000.0 0.49095812946972844 -0.8593974932524444 -0.9347727741271241 -1.5561438008586097 -0.005005668214879799 0.0018610367586756797 0.4355155559550319 -0.3838464832901033
111889000.0 0.49161977919438765 -0.8607146413381508 -0.9864040465485655 -1.6277759913921248 -0.002733758516530738 -0.001592936463075555 0.4166532895578023 -0.4078487503985542
