! Created with skrf 1.9.0 (http://scikit-rf.org).
# Hz S RI R 50.0 
!freq ReS11 ImS11 ReS21 ImS21 ReS12 ImS12 ReS22 ImS22
1000000.0 0.9894601470996504 -0.001556858379961321 -0.00960029739843798 -0.046786520600853025 -0.0038541587950455475 0.0076315929502937365 0.3332752848859801 0.31996682169276364
1999000.0 0.9961829035518924 -0.012515205530916543 0.004925958999412578 -0.01752617354706116 -0.00584232083421299 -0.002999737156589029 0.2393886294469083 -0.020932019886547696
2998000.0 0.993856219971405 -0.02275939926074638 0.013506177449877938 -0.013402826325533308 -0.003587445387026711 -0.006379959527269806 0.17075554947590074 -0.14010876339538228
3997000.0 0.9958387897676507 -0.03168614897934124 0.0163189481531039 -0.010747844299965772 -0.0017523293259511684 -0.0018705974564057137 0.09694984092328644 -0.20909734893821455
4996000.0 0.9948983735728669 -0.0399194850832791 0.013374248646393574 -0.0029602191658793845 -0.004532924410358966 -0.0018778551563078069 -0.02373405574808734 -0.21057964293327758
5995000.0 0.9929693214571997 -0.04975695235761689 0.007098915015104848 0.0017343187551367033 0.0012122702756393704 0.006301907881943471 -0.11625574086739966 -0.1253362375387582
6994000.0 0.9923080437811896 -0.05880941235813155 0.00782410848599862 0.0018950429060642406 -0.0006485434147954032 -0.0007600727948858041 -0.14871785066631527 -0.030039043817031787
7993000.0 0.9962183905846967 -0.06903424655724545 0.005368533463360305 0.007283306241651561 -0.0013232651700446415 -0.004862391241575149 -0.16861106140349022 0.04339642520298713
8992000.0 0.9907852351447445 -0.07413947865627074 0.00588434005670247 0.00465556661020834 -0.00036348905089556987 -0.006531087552290816 -0.15871094575075648 0.05907101925699644
9991000.0 0.9923313021887931 -0.08164291578933426 0.004912123569515045 0.0097427769548684 0.0021319990957849463 0.0017793499549476409 -0.15930604220546302 0.09531315928307718
10990000.0 0.9916523038807018 -0.09091683563618065 -8.33088726072419e-05 8.365975511792001e-05 -5.266861823413949e-05 -0.0019077135678294754 -0.14152103782237052 0.12206825984947592
11989000.0 0.9870977886550711 -0.09990453103973082 0.0032099968553144266 -0.002547695986940258 0.0015223902632079016 0.0013438598246058907 -0.1387730565669236 0.14795931870305915
12988000.0 0.986584495824429 -0.1099223374199124 0.0058587879508536465 -0.004738558356993414 0.00021521357681129425 -0.00041404408064370295 -0.11553961567960382 0.16440610004075107
13987000.0 0.9844897113057977 -0.11743180709683028 -0.004009238891653604 -0.005463452024430359 0.0021172915633608357 -0.004241483850425583 -0.09027659863935204 0.1991653640576075
14986000.0 0.9865660155396688 -0.12419618767169135 -0.001099402386423745 -0.0055052596653769 0.0038140552339883532 0.0002282793930911142 -0.08971712024001126 0.1987997988576431
15985000.0 0.9876590168353352 -0.1325698387600253 -0.0024481875941321733 -0.004458032853909594 0.0017267009712285011 0.0005196308583596155 -0.07134009722599298 0.2189439985842861
16984000.0 0.9827046137566957 -0.14653654334432564 0.004654299506618037 -0.006595771322513774 -0.001882769036590507 -0.0008974129395412424 -0.06722611569040755 0.2135840042274232
17983000.0 0.9858275918588603 -0.14791213988973476 -0.0036350198650630773 -0.010291205979315389 -0.002969258431888724 -8.699272486022102e-05 -0.053281026640343086 0.22049530591718056
18982000.0 0.9818597498572035 -0.1622293226865902 -0.004611024029301217 -0.004452999354918746 0.0031501218741620185 0.002273192340064072 -0.03025336598763002 0.23174987533851774
19981000.0 0.9821624375345518 -0.16417780884512823 -0.004901029832428938 -0.0020467681732041806 -0.002741790734218378 0.002907732373698489 -0.01595462093629492 0.24410583363741872
20980000.0 0.9796829617208669 -0.17241734922805868 -0.007024267341620467 -0.0019458358621538812 -0.0036846645691990896 0.0033626241470894255 -0.008669381966160563 0.2512879175932922
21979000.0 0.9784811626174565 -0.1832698353051877 -0.0046718310667565556 -0.005579879170106491 0.0011144649249872525 -0.0016826650671696844 0.00873198092405092 0.25171002631232636
22978000.0 0.9743045032727456 -0.19519721685374608 -0.00319723821343978 0.0010095485164272216 0.0005225550332888537 -0.001252089392748571 0.03073756603984594 0.2557512287530719
23977000.0 0.9765854719139327 -0.1982451732240694 -0.0071429163808828565 -0.005294156044452728 0.0026506695504292586 0.0011655946542976053 0.03946757619800639 0.25152267986615945
24976000.0 0.9722053096038732 -0.21100416849919584 -0.005182058265201903 -0.0016601600801286144 7.608254029572947e-05 -0.002672857403464173 0.0696360941078878 0.26016151177181723
25975000.0 0.9704392467596108 -0.21578987028736818 -0.005117601660500695 -0.00022234974127885757 -0.024285644829743894 0.011396012785774401 0.07286236243435096 0.270774108406205
26974000.0 0.968630431273022 -0.22784227136736349 -0.004599408606697405 0.00021559047377338404 1.082481787146477e-05 0.0038228565690257136 0.08176976038644213 0.26627414399155214
27973000.0 0.9670810060112983 -0.23362956459355758 -0.0037248310259506224 -0.002695428422461935 0.0028768710242569324 -0.001767398338205304 0.111864761567814 0.2587106590930805
28972000.0 0.9652965544822243 -0.242015009397653 0.003151987089885721 -0.0017335445798114747 -0.0005650566794069247 -0.0009017909988587266 0.11991425184332077 0.2589316085723345
29971000.0 0.9636206193145241 -0.25238813611557304 0.0016019628363881037 -0.0023718343615293587 0.0008980445734860779 0.0011421274080277593 0.14539792576765057 0.2680773727778321
30970000.0 0.9611075182741124 -0.2571977759137442 -0.001320281687259924 -0.0016520561839072205 0.0009808674196981962 0.0016334637909591395 0.16713046812573357 0.2609274900524533
31969000.0 0.9579249774826516 -0.268632164177824 0.0034013636602128923 -0.004549155672669726 0.0035533824703444924 0.0003800879629631447 0.15604808362098094 0.2535862335542277
32968000.0 0.9558717820777597 -0.2782614791549275 0.00961794277694158 -0.004808597714508593 0.0014472542525718773 -0.002624982567411185 0.15788538130699054 0.24251362209481386
33967000.0 0.9544115526102104 -0.28792927006674357 0.012656768890164536 -0.010904523879609012 0.0010393377293030897 -0.0010426549562281367 0.18813612143337818 0.2450831807795165
34966000.0 0.9527920754584226 -0.29361609795212484 0.013346386660025984 -0.01255467823964758 0.00017158746815979422 0.001246604873484582 0.20821873347945424 0.2474732986752551
35965000.0 0.9474179506972298 -0.3030525074993795 0.01875974949720789 -0.013346971562568354 -0.0036441659306350963 0.0012208130945392268 0.21749286671827503 0.24661377643527269
36964000.0 0.9465031633811257 -0.3122560784508799 0.015507886623517392 -0.014845775180910237 -0.0016437935136118483 0.0007567527363866048 0.2103301860732554 0.25688312133417746
37963000.0 0.9423554416134697 -0.3219916423534661 0.022274510807122453 -0.0217790580152904 -0.000929229603391277 0.0014862933854869606 0.22367507664711195 0.23322610380467407
38962000.0 0.9404702359726393 -0.3288604108426064 0.023573847490616702 -0.026610977529191684 0.0002638569158216907 0.002499260086288353 0.2364692483260213 0.23377502712677944
39961000.0 0.9373503563311493 -0.33801179960449246 0.027452511148519054 -0.028069276616443768 -0.0008884614990450351 -0.0008507858777904398 0.2521719198362788 0.22446511572644284
40960000.0 0.9335083772260945 -0.3457881945768297 0.020479103473267837 -0.02501279859614252 -0.002415505446283524 0.001682900541557531 0.2636568635718108 0.23143976133861607
41959000.0 0.9313407564758205 -0.35526201433314886 0.030850875166890297 -0.03152808482427932 -0.0005685938820357508 -3.44878059727609e-05 0.2690864670492695 0.21470777634017457
42958000.0 0.9272906571161907 -0.36380464256936473 0.03300212956193864 -0.04109401344206983 -0.0036417344991842345 -0.0002965640167524601 0.28477106022345516 0.20071758248147892
43957000.0 0.9245654808167437 -0.37120021630126165 0.03546300746095459 -0.04651263576743721 -0.0013302961875559518 -0.00143995466018 0.2862990277070222 0.20681700543962464
44956000.0 0.9215115997844503 -0.37999593331995396 0.03820064140173118 -0.05547097301126366 0.0018583885518070622 0.0016693369256721216 0.30587207763018825 0.20206603531071737
45955000.0 0.9167537300768616 -0.3884613849833223 0.03565069295722278 -0.05965591802931061 0.002466789924328665 -0.0008142838867708114 0.3055896810209211 0.19330322786371595
46954000.0 0.9135972892886687 -0.3973452673512001 0.03837747881930343 -0.06834007755310141 0.003409088912988324 0.0014357359553344364 0.3249236584087708 0.18816732405032607
47953000.0 0.9114922641100216 -0.40558954271231723 0.0382937550976986 -0.07478990609813253 -0.0010074747405830285 0.0002172023936128688 0.34030202002281595 0.16819520632108087
48952000.0 0.9037081555677031 -0.41657927758641566 0.04124408637289994 -0.08082244773195604 0.004555185690870659 -0.004641176114972064 0.3295682026637165 0.16790212303007807
49951000.0 0.9018194897926808 -0.41912341475998316 0.03870306655138188 -0.09190521973146741 -0.0021185238795270226 0.00036817550187074287 0.36028836623548 0.15019663465060948
50950000.0 0.8981921870696744 -0.42930951490503344 0.04164259103225298 -0.09703016300805913 -0.0006205966356962044 0.003616523811450929 0.34459453248319244 0.143616371012117
51949000.0 0.8947275362848096 -0.43859853872957066 0.04175638876121288 -0.10579829089253973 0.0037619267105745975 -0.0003638783576490738 0.3647025516602376 0.14618871857127597
52948000.0 0.8908942226217003 -0.4483937682029896 0.04396373759348738 -0.11525854605299767 0.001406642674972036 -0.0005876926174357769 0.36877678214654996 0.1428049966409999
53947000.0 0.8849399242641938 -0.45487222216275514 0.04301090776820569 -0.12480943478024771 0.00018784389259151793 0.0012004414771012648 0.3741169277409555 0.13257220507583287
54946000.0 0.8792718100700835 -0.4650465947677492 0.04758818876274197 -0.13699260691103604 0.0031716016591542585 -0.0005941924696038761 0.3802533077969557 0.11235190407159863
55945000.0 0.8776859284380208 -0.4715374715236205 0.04883669066298267 -0.14516207606939957 -0.0010826635168808846 0.002477729770062933 0.3841711737682748 0.09770618643031762
56944000.0 0.8736831889918693 -0.47851114240422626 0.05380041960404413 -0.1560618719722046 -0.004806121548472307 0.0014054818020202752 0.3967818622440513 0.10617016568764837
57943000.0 0.8669419289601898 -0.4903904921170325 0.051007770743184674 -0.16641106592763208 -0.002935011593526776 -0.0006272117184718529 0.3980754328553356 0.09629607185990109
58942000.0 0.8614654961921687 -0.49569486048614686 0.05499842454165672 -0.18068801268367443 -0.003053253664204701 -0.002497882570502578 0.4285236099660132 0.09232296571247155
59941000.0 0.860980746957199 -0.501548566675276 0.05555054436022992 -0.18758067640149434 -0.0005144160693069819 -0.0010963602715871978 0.41401857616410115 0.09133963431796932
60940000.0 0.8517084344207343 -0.5114833565323331 0.05571438469200967 -0.19331265258953118 0.0004163093213326087 0.0009228563311786851 0.40484823859381536 0.06656366817179764
61939000.0 0.8490500402090332 -0.5191775648841533 0.055108148446708936 -0.20324954804361925 0.0009622825666876517 0.00026806778513283725 0.4194458453587258 0.06888896422906866
62938000.0 0.8427230272729271 -0.5289097574709256 0.05873653409407268 -0.22089086152266652 -0.0011153152215520772 -0.0007260898231178017 0.4311333099671138 0.04557544582163251
63937000.0 0.8374379681669187 -0.5366350175132656 0.059684937392441795 -0.23959191116275255 0.0015560448065661703 0.0007841366554111914 0.4266808785527731 0.03631866727997731
64936000.0 0.8319390102673172 -0.5405939863931495 0.06006944268787238 -0.2538237804048478 -0.001626565893841024 -0.002686870417398865 0.42966947098224817 0.039276774966830276
65935000.0 0.828140107255906 -0.5539166675585564 0.058664602800636276 -0.26698240127816214 0.0006528005399293133 -0.0024428592533733903 0.4377456137586617 0.021125046336093963
66934000.0 0.823522350757641 -0.5580127251126169 0.05693768763842088 -0.28369894303327886 -0.002339141936224429 -0.0027353017614508692 0.4369921795884224 0.004725170003287456
67933000.0 0.8216517090694178 -0.5664498035204044 0.05921891956651846 -0.29935312977955353 -0.005285572429953658 -0.0004442391217067421 0.4484571844026639 0.01146041660128715
68932000.0 0.8159701492394077 -0.5705082371177639 0.0536719068769214 -0.3105414814456276 -0.0032395532496260317 0.00024296525711800645 0.4516135383752856 -0.01217177917128205
69931000.0 0.8075360832437699 -0.5818998241246607 0.055055447049295256 -0.331184966182362 -0.00013656847785637366 -0.004313144290535733 0.44816541411707195 -0.01612485618427166
70930000.0 0.800004832216794 -0.5883515075240137 0.051992046331696504 -0.3445783053582056 -0.00011803738386617732 -0.001907919757334157 0.45078795165385543 -0.025617691767238642
71929000.0 0.7963223131509533 -0.5967533865156652 0.04304077630074364 -0.36222323622296704 0.00037377989715841535 0.0025547382345957174 0.44929978656007113 -0.04739710638545904
72928000.0 0.7896556448983281 -0.6090976845959978 0.0388133001821233 -0.3798965610652494 -0.0009558275806454053 -0.001021393320127732 0.4656520667906231 -0.05140491163333644
73927000.0 0.7849061635385045 -0.6129399668354696 0.02971656947475591 -0.4036467228191268 0.0027426454072908167 -0.0017800227574855867 0.45958546960373203 -0.05677044200468331
74926000.0 0.7795177520600257 -0.6221321538960064 0.028708787920203562 -0.42446400387735966 -0.0031839026805266886 -0.0020877685932676943 0.45564589299186725 -0.06614357639176963
75925000.0 0.7714650439656952 -0.6255845390904479 0.017112596171106834 -0.44454858643599865 0.0002621214832957009 -0.0006042572514549259 0.4678218748499441 -0.07938457706559437
76924000.0 0.7649993404721576 -0.6347452544337484 -0.0014872786810260095 -0.46782948450601636 -0.0003869059542060152 0.00035960890579201857 0.46657818416438634 -0.0859828501903951
77923000.0 0.7600314413060267 -0.6406256173392412 -0.007714930446665119 -0.48969023636030673 0.0009736699376769745 0.0008849078715691915 0.457575208384634 -0.09227031016398946
78922000.0 0.7533739683076783 -0.650575978770613 -0.024090095576226427 -0.5214853239313052 0.00119321369134304 -0.00625810771960922 0.4619284795649313 -0.10656173403164376
79921000.0 0.7446688449843852 -0.6557701337081627 -0.044842844930573035 -0.5482167171929204 0.0005275076709996809 0.00023801461692613007 0.460283398693709 -0.1166691584651577
80920000.0 0.7409011180016468 -0.6652370315165189 -0.05785075153883099 -0.5750898759988673 0.001360460785483747 0.0007282319342194121 0.46461939380294953 -0.12667213322660859
81919000.0 0.7342670283707143 -0.6727196603732053 -0.07487175772287928 -0.6053668266039084 0.0026060619458442287 0.00296518872657755 0.4545186931746828 -0.13283250877619757
82918000.0 0.7247869931707147 -0.6783817952153155 -0.08964716145805413 -0.6336851498555994 -0.0016125705779714082 0.00023108206777021505 0.47493753013151446 -0.14950755340643082
83917000.0 0.7174252583769452 -0.6886601927277151 -0.11394698126983312 -0.6676064485881577 0.003862497522728105 0.002643354175270361 0.46635640808399614 -0.1615642933602387
84916000.0 0.7138282530971138 -0.693234405909951 -0.1249320978424562 -0.7042188171226916 0.0013460015045989179 0.0015904742244429646 0.4636980654226855 -0.16777199498503584
85915000.0 0.7059225054661791 -0.69953986560192 -0.14678061362707218 -0.7329227094368548 0.0017594321282103779 0.000506864997139376 0.468241431278123 -0.17773108731624526
86914000.0 0.6980574599048972 -0.7087826621645897 -0.16170992921748628 -0.7710379686114528 0.0025251318129124786 -0.0006720342228438516 0.4589396375835766 -0.17896573238655314
87913000.0 0.692064842689928 -0.7155162456699115 -0.18162104023092676 -0.8018212635210146 0.0005275538419948708 0.0029161074941333096 0.455257947768925 -0.18841997147655756
88912000.0 0.68375277041697 -0.7224325542250419 -0.2023916484412631 -0.8350730679762269 0.002952792931316852 0.0007097851207134688 0.46718366121127863 -0.2111527218536982
89911000.0 0.678492500831215 -0.7316299840314118 -0.2143754635537862 -0.8746204470460883 0.001381285065766793 -0.0048217688133587065 0.46637928905445003 -0.22094514686923034
90910000.0 0.6700231575158465 -0.7359091925084883 -0.22724932256674468 -0.9094413806425105 -0.0025520363420034895 -0.00039247588224303594 0.46273257629153536 -0.21508213572400292
91909000.0 0.6608276179330373 -0.7416139049545576 -0.25209546428351115 -0.9421597146071791 -0.0020894178037806814 0.000900350396981261 0.47625807679186016 -0.22861635739053893
92908000.0 0.653090356263604 -0.7497512427015235 -0.27285464131138026 -0.9763370000101594 -0.00046658339646231525 0.0008893596728358499 0.45261476547285084 -0.23497198331919542
93907000.0 0.6442265058156603 -0.7539754716736777 -0.28977532673632994 -1.0056410527821809 -0.0031636182773110886 0.0024450395181802725 0.46531641496856707 -0.24161377618381008
94906000.0 0.6349760064774579 -0.7629444122817463 -0.3037815760982529 -1.04511096610229 -0.002210300925244633 0.004551311016878842 0.4570961122820758 -0.2519369697079251
95905000.0 0.6252215034775526 -0.7694996807856834 -0.32976620308947935 -1.0787763170560187 0.0008535808192199063 -0.0009845835543801622 0.46000929510628075 -0.27088552388014886
96904000.0 0.6188425586573431 -0.7778603475968119 -0.35292820130900077 -1.1185556389334388 -0.002242663863124919 0.0031044104917252184 0.44591631348206523 -0.2765880404131106
97903000.0 0.6095510118867716 -0.7832988931543392 -0.38020284624943945 -1.150298627049874 -0.003985323751863579 -0.0003986880106830627 0.44109266797876046 -0.2884581976948808
98902000.0 0.6049678709923275 -0.7909404722107793 -0.40685245870388603 -1.1949250359175687 0.0008963394087738204 0.0023474745180254884 0.45270258411406816 -0.29216633253070945
99901000.0 0.5938329046089356 -0.7958385055874809 -0.43601683479152964 -1.223215287546463 -0.0013420771342431024 0.005091158420955571 0.4542957782707436 -0.31474599405612674
100900000.0 0.5894222955971645 -0.7993741887758002 -0.4678985182169487 -1.2602420971917991 0.000765158484590898 2.951756266686643e-07 0.4628697884388896 -0.31649147522253684
101899000.0 0.5764224086718169 -0.8089964879936011 -0.49869906169779465 -1.2919406301551706 0.0028467293509728485 0.0023750255887484044 0.4396655798495037 -0.3197342792782777
102898000.0 0.5679433005518253 -0.8152710085476479 -0.5369060080864632 -1.3340114501238955 -0.00023058986433414368 -0.0020103497727677546 0.45056305185477125 -0.3372362975308481
103897000.0 0.5599973423720807 -0.8224960325315903 -0.5760128929016266 -1.3691296762951635 0.0018609681794364023 0.0011017463263061791 0.442982559953689 -0.3343717548805167
104896000.0 0.5514954884693526 -0.8291498702182557 -0.6218753046662634 -1.4058084269014899 0.000521527462357418 -0.002345827602095054 0.44081911600277873 -0.35307832504492365
105895000.0 0.5395617057518624 -0.8330057087506307 -0.6772522225996473 -1.448487689568965 -0.002942772334134305 0.0010051264390382602 0.4378911630745798 -0.36269976400211756
106894000.0 0.5308518431666378 -0.8398235592043031 -0.7341062862990457 -1.4926778602137245 0.00022884757950653907 0.002073175730568443 0.42771345820328516 -0.35104289997917154
107893000.0 0.5254769099569131 -0.8452517333328187 -0.7823093168768309 -1.5345780289228388 0.0006343422384377696 0.0011526192943529792 0.43565725433236163 -0.3868613174415193
108892000.0 0.5146061701242274 -0.8500102251920706 -0.850794966747453 -1.571978134121846 0.0006879063084669971 0.0013731128721890667 0.42267860506352667 -0.38400458473116084
109891000.0 0.5029155332455737 -0.857533770501384 -0.9040200157299996 -1.6046037832310913 0.0015733937903853155 -0.0001881035635014126 0.4356210569863591 -0.3797160239061387
110890000.0 0.4927440160086999 -0.8732128528873233 -0.9915526018482939 -1.6215990981336537 -0.000288365090702968 -0.0040390766476249085 0.42497583504737674 -0.3817607391492542
111889000.0 0.4824497059624962 -0.8634698527271818 -1.0345002912272676 -1.6766263585100583 0.002091466353665853 -0.0014007407954306401 0.4160225532358083 -0.40568217472198487
