! Created with skrf 1.9.0 (http://scikit-rf.org).
# Hz S RI R 50.0 
!freq ReS11 ImS11 ReS21 ImS21 ReS12 ImS12 ReS22 ImS22
1000000.0 0.9839388926957775 0.007583800512197019 -0.006612819599209364 -0.04378186808274302 -0.0016191983331172 0.002641201323646208 0.3078256161468137 0.2980846459109132
1999000.0 0.9952682974349601 -0.011063334099895392 0.003682090026557002 -0.018936246219521162 0.004277214344134369 -0.0034067654157618776 0.2599182035992804 -0.04528061915171897
2998000.0 0.9962782733825348 -0.024267850916910007 0.016404471899173538 -0.012362143267218097 -0.00025204884302743014 0.00023399324464294663 0.1868240798068175 -0.1333182591183064
3997000.0 0.9965271221256178 -0.031502883163991025 0.014682710793191616 -0.009215233895300457 -0.008358792794463932 -0.0050486621526616175 0.09156484798197498 -0.2293836171078436
4996000.0 0.9976232302766872 -0.03784684246205881 0.010851247912614192 -0.0031114061064068995 0.003230810848218564 -0.004114972871542806 -0.04912815513949684 -0.2054507129236585
5995000.0 0.9964769316001123 -0.05007804793385072 0.007872007244937957 0.004084838315300168 -0.00014720771206616816 -0.0023701810526576333 -0.13246581550253403 -0.12926626169363997
6994000.0 0.9928721172216919 -0.06163559790182 0.006738699265763275 -0.0003070250394308184 -0.0014465580319970263 -2.879938658124358e-06 -0.14649276902816155 -0.02639996414300054
7993000.0 0.9962364148803238 -0.06858216221911874 0.004824747785959293 0.005101816237251289 0.0020002582795045657 -0.0015023790883373729 -0.161542072561657 0.04335374397597448
8992000.0 0.9967917922271159 -0.07234156905026515 -0.0019044299111965987 0.003950243531219274 -0.0007388660460970597 0.004486559205775056 -0.15444304430244774 0.056186491227715615
9991000.0 0.9927308154271867 -0.08357812443626035 0.00225778527196932 0.00029969442124841704 -0.0011573444730931485 -0.0014693108282459305 -0.15097514694837483 0.09804375541158458
10990000.0 0.9933398330027717 -0.09257217771569118 -0.0009910587749318498 -0.00043806308942044087 7.804356377117132e-05 0.002562949308128215 -0.15169053145527234 0.12470464446770631
11989000.0 0.9918290379111419 -0.10208000212215323 0.002294110550825337 -0.0029477551345035206 0.0022536486262380744 0.001138954623132651 -0.12033910932483859 0.13528764728128193
12988000.0 0.9913200421064835 -0.10958743253676373 0.0013396946564885625 -0.006452223600618316 -0.001864284663555377 0.006031227627376719 -0.10786952638499335 0.18178399770738135
13987000.0 0.9880008773798421 -0.11739148532437248 0.0044712718368247065 -0.004336857021740309 -0.001767553174932114 -0.0008735049653455919 -0.09198828560938596 0.18439242147359539
14986000.0 0.9868982430256066 -0.12507111791685074 -0.0007769473185189046 -0.004170766610652685 0.00258701962972957 0.002820066004456967 -0.09088336443384407 0.20562758398151518
15985000.0 0.9882325548720492 -0.1370770911569915 -0.0029378644179373424 -0.0035382703628069013 -0.0015475270463891468 -0.002514727232364195 -0.07033231007071944 0.20756649649419864
16984000.0 0.9864136376087483 -0.1481097286489885 -0.0009700729681779518 -0.003202219481798588 0.0023133780257634296 -0.0014419263917464361 -0.06610790470399608 0.2152758256847651
17983000.0 0.9858138533955827 -0.14919599684426088 -0.005825202755425115 -0.005196989431573596 -0.0036901775957145213 -0.0021658563146678485 -0.05706467473792778 0.2332292474265278
18982000.0 0.9822155948661088 -0.16241853952925503 -0.004874270622457745 -0.005067630405371469 -0.001541049702368583 -0.003861561932033423 -0.011191113198602536 0.23570538259912874
19981000.0 0.9826984122769411 -0.16626783527002154 -0.005768069793160755 -0.0060578726262464815 -0.004167970075023137 -0.002096730499470933 -0.02099317473271078 0.2434253822589006
20980000.0 0.9822230121818911 -0.1751304911211423 -0.0014778696180273287 -0.009103296030263532 -0.0034820990842507516 -0.0021969900389305543 -0.001635148324002681 0.257110324579927
21979000.0 0.9798941196482669 -0.185383335175382 -0.005503145822040055 0.0008739803077341521 0.0008472570832948837 4.9863800574027386e-05 0.014857805202907654 0.24940221043920693
22978000.0 0.9763221482374719 -0.19497584065203508 -0.004571081757458464 -0.0009992786809191107 -0.0009407060107465904 -0.003366465589879872 0.034731425239241775 0.25569203745735014
23977000.0 0.9790007428650856 -0.20326388398731904 -0.0036247075365205524 -0.001882462792113328 0.0015477074140853244 0.005538360295149216 0.03311395469464333 0.25913843364210015
24976000.0 0.9743515467212884 -0.21164383985326102 -0.0071971379671352306 -0.0031437174304349558 -0.0007550442140748237 0.0019325514679552863 0.0581081907559308 0.26064060247519444
25975000.0 0.9706997911712127 -0.22604857773090303 -0.007538495396594003 0.0007438422837638504 0.020420352948126837 -0.014370071464120409 0.0764652047370379 0.26492737787320675
26974000.0 0.9713598206481907 -0.2267334932896212 -0.0034381927499589054 -0.0009347184833274776 -0.0007831255307555674 -0.0002865353897004887 0.09182071818715645 0.259945558186411
27973000.0 0.9709173239336703 -0.23399865096508649 -0.0028539685366077037 -5.870250244909179e-05 0.00029001685723101196 0.0004250216297223553 0.10006994754647712 0.2561200418867007
28972000.0 0.9669653168935166 -0.2461842101963911 0.00021978730067229009 -0.002275467010625992 -0.002249343147089491 0.0016813126764351545 0.11373850539242533 0.2513107153765976
29971000.0 0.9646972943042308 -0.2519560945920865 0.0010243343484296302 -0.003426209190147654 -0.0002862012765856637 -0.002906142014561872 0.1443223065255651 0.262340981427113
30970000.0 0.9627432577039342 -0.259525630325053 0.0019910820294348898 -0.002482077208521411 0.00043452244884162035 -0.0035862140986814605 0.16787335398829303 0.2480099886732816
31969000.0 0.9613001751021248 -0.2671051208300284 0.0036751730286098184 -0.005030048736322437 -0.0007522587013539435 0.0018054694661282086 0.15454641444122427 0.25062359999282063
32968000.0 0.960183875501725 -0.2768242950293342 0.009298495702096529 -0.006054156346824251 -0.00015471975645029522 -0.0013749592892111247 0.16746097096522597 0.24591705863641045
33967000.0 0.9565837191419314 -0.2884777763270345 0.013114103687389626 -0.011328825720541112 -0.0012267706006353165 0.00011507533917336515 0.18937103875586003 0.2458932755658978
34966000.0 0.9546532076829041 -0.29260008609489835 0.012575517259497132 -0.012304035731258654 2.815285721719661e-05 0.0004815700030564592 0.19539191572876022 0.24700196187246176
35965000.0 0.9494729858025127 -0.3023403795745148 0.01807272743000866 -0.014084925470893081 2.4423565593996913e-05 -0.0034283657315887063 0.20545169727135246 0.2536083387062037
36964000.0 0.9493942923561077 -0.3117633609063858 0.01894151435195068 -0.01598919031673732 0.0006716325213416179 0.0013398980694352466 0.21907541025617744 0.24710861791950425
37963000.0 0.9436905908561194 -0.32144036458047437 0.020011821957119577 -0.023813093681555677 0.0011711313981857814 -0.001918539114113501 0.2323835282457306 0.23857032114256316
38962000.0 0.9419112847494031 -0.33028609017294214 0.022043077451221183 -0.024554815767573256 0.0013773487277614835 0.0016807921453391621 0.24284336962312286 0.23073833219924103
39961000.0 0.9408010997555505 -0.3357288437351589 0.028386343629999995 -0.027937917266316736 -0.00156531740578501 0.005001061602534654 0.2532511694926758 0.2409664907214113
40960000.0 0.9363078940229653 -0.345816999407605 0.022798796627352635 -0.023102491965037324 0.0009020605077279495 -0.00020778618684983327 0.2673813244962047 0.2280323205592911
41959000.0 0.9343810906350812 -0.35459606478582967 0.03282845530980257 -0.03263557667810231 -0.0019148805860009872 -0.00024976032745917877 0.27054076372082775 0.21764787564630914
42958000.0 0.9274530852691776 -0.3636935398184624 0.031227395565201328 -0.04349823738939826 0.0006976749208175348 -0.002536249454213494 0.28210487714108723 0.20003112320389557
43957000.0 0.9282795686299191 -0.3672742883585118 0.033420157936039765 -0.048564425712450864 0.0009501559971976839 -0.0015495032526552743 0.28789896955288313 0.21436698090048312
44956000.0 0.9244754562010294 -0.37523978298935556 0.036111218345909704 -0.054682330082523316 -0.00012615440262031836 0.00034243892669571114 0.30928313489701115 0.197937569905961
45955000.0 0.9190729605141457 -0.38703210493673973 0.0365739559163384 -0.05860688096042763 0.00016221903035803503 -0.0012295972484349087 0.3144576118800096 0.18202512589123854
46954000.0 0.9157925941703232 -0.39397791532367626 0.03867529013868793 -0.06647372883288788 -0.0010649029193310424 0.0017001268796090555 0.32014415185801287 0.17562238581716624
47953000.0 0.9127702835547579 -0.4031894407550461 0.039286825898367905 -0.07273719326397829 0.000905986268668524 -0.00015700043712386626 0.33838216756854217 0.17203351715178958
48952000.0 0.9065773615960862 -0.4140557787200649 0.03936183910406119 -0.0803577010490345 0.0003772028773098489 0.0015635908648828731 0.3279141618990118 0.17501434115828532
49951000.0 0.9048451761722245 -0.41867320679481745 0.04250968408805491 -0.08796210644688866 -0.001780170952291726 -0.0017384624455871259 0.35514277937671446 0.15300649574963252
50950000.0 0.9001666212298627 -0.42969421461501306 0.03972104985705738 -0.0967930507533633 -0.00018888045993935794 -0.0026593414436452303 0.3557917329035667 0.1449951131848141
51949000.0 0.8968849602696248 -0.43699885499524294 0.03927619067189814 -0.1068169025721805 -0.0018791317653629035 -0.0009497561234886031 0.366810674747156 0.14329648464472575
52948000.0 0.8949191093039811 -0.44347576282765355 0.043792650984444854 -0.11452381576386024 -0.0005016458556125909 0.00011763273768263502 0.3684176160405196 0.14639164884316433
53947000.0 0.8878101539556674 -0.4525810755491375 0.04376450321387724 -0.12458201984910394 0.002596466526768687 0.0012644320513850284 0.3714375382539187 0.12420764076685754
54946000.0 0.8846196571912247 -0.46035362381530126 0.04849907937501954 -0.13376152917287376 -0.00082980824399623 0.000902572142650599 0.3935836998457016 0.11751455196276196
55945000.0 0.8806511148942535 -0.47062751859247276 0.04765674856229059 -0.14512520291100584 0.000792841367102715 -0.0003939158381122774 0.38607898291700543 0.10221807163618679
56944000.0 0.8767636712002527 -0.47771167803232034 0.048882669543838235 -0.15436700680270998 0.0035679042559734154 0.0010861366556979783 0.40666815157809755 0.10734201213533998
57943000.0 0.8725644375562379 -0.4876362714330898 0.04909635284698663 -0.17000440531399233 -0.0018983597577440063 0.00041171169618814206 0.3984538989083719 0.09544530801253104
58942000.0 0.8662906070566775 -0.49198338275837444 0.05134097827374256 -0.17926055384547124 0.0022110478288060566 -0.001371283766706229 0.4253722311076082 0.09381933018038208
59941000.0 0.8632145912940771 -0.5029712665620167 0.052038304762328104 -0.18807612389549358 -0.0012981409455192416 -0.0029279071975843785 0.4236034607520678 0.08426153356681447
60940000.0 0.8544056711978044 -0.5094102786291511 0.052686716400897046 -0.19110433041177127 0.0014465852574595402 -0.00019613415355239808 0.4072270470312238 0.07841659689931363
61939000.0 0.853161810443698 -0.5157118043029767 0.053010098616163494 -0.20330915160708982 0.0012277064098031609 -0.0012583586128875317 0.4222425536917277 0.07180611465528873
62938000.0 0.8472334451510918 -0.525668887949831 0.056135412258280754 -0.21720098867646268 -0.002641047175421799 -0.0012534283669187228 0.44728057876240646 0.04602089772708372
63937000.0 0.8435742752543349 -0.5322086860425369 0.055291446771458315 -0.24012097786492748 0.000644604452400475 0.001070171872153947 0.43089851205899643 0.043174577885405206
64936000.0 0.8352750137945683 -0.540441044547399 0.05629420713766338 -0.2548467937682989 0.0022955162519180906 0.00017477964103502242 0.4345990999583715 0.043604762201087784
65935000.0 0.8345432639695569 -0.5486335368796174 0.055149416883668555 -0.2696494119822095 -0.003736781959177672 -0.0007727986082158029 0.4401916459066956 0.016101698398439657
66934000.0 0.8289227930946962 -0.555331845578918 0.05435153654904298 -0.2834915098636254 0.002425018648656824 6.872285080584677e-05 0.4394124046284652 0.012300786787436164
67933000.0 0.8260406079046028 -0.5633134656526455 0.0568344808244892 -0.2968345952581181 0.0014330316888716418 0.0024824862364350967 0.4494639860726932 0.013910163883141015
68932000.0 0.818718064417951 -0.5672670334487311 0.05322749106843011 -0.3100350634209786 0.002391414895684934 0.0032220354012170963 0.45792568182036825 0.0009484230864130221
69931000.0 0.8115097156573413 -0.5793685622846143 0.05266916737086681 -0.3277038614034013 0.0015148031235422278 0.0011155602359831183 0.4550436781576082 -0.02230450150160543
70930000.0 0.8069539848730021 -0.5853365297156695 0.04982959436461958 -0.3429590743431313 0.00347122597252743 0.0005006243366787083 0.4537172776853595 -0.02364546579106285
71929000.0 0.8010038625119333 -0.595906408280666 0.041340723177230865 -0.36312175218594867 0.0009378937712761692 -0.00020923669087032692 0.450869597186574 -0.03640931200265264
72928000.0 0.7948061486575737 -0.6038202234060357 0.03827234120988169 -0.3778530414930577 -0.0043333512361511594 -0.0005567344278452891 0.46878188431067436 -0.04887704441702178
73927000.0 0.7887425619549586 -0.6093286625735969 0.0361873690720032 -0.40134311215808427 -0.0036002703489513613 -0.0056225223942516795 0.457159001995013 -0.06192320006115377
74926000.0 0.7825176244405843 -0.6188279125571702 0.026128090848571137 -0.419569351291824 0.00037979497126255023 0.0056098672792593484 0.46577733710877556 -0.059363573782396636
75925000.0 0.7789432934932887 -0.6250810300127722 0.01978511319705923 -0.43799629571143583 -0.0016662771005456797 0.00030814934943640925 0.47027893813307203 -0.07386433846877803
76924000.0 0.7727640162769321 -0.6311797622575878 0.006042238630958491 -0.4634223715225847 6.26784716226824e-05 0.00034231751907444735 0.4705714301708687 -0.08298032150421701
77923000.0 0.7634703880576297 -0.6408688083275175 -0.010995238760662452 -0.48462390796971216 0.0008378140534671083 0.0039040131691136766 0.46901300528524564 -0.09002373737688396
78922000.0 0.7593839905130386 -0.647590468652445 -0.02499593629065286 -0.5149014562847862 -0.0020816173407341263 0.002932590897014956 0.46997343287329535 -0.11061813367748594
79921000.0 0.7500126108505369 -0.6532075658549593 -0.040560617588150875 -0.5367630995750619 0.001779663089392121 0.001747343143762922 0.46003995600255143 -0.11150466640087557
80920000.0 0.7470793432117756 -0.6636825511637788 -0.057514183835971566 -0.5661162153798212 -0.0006292950949987983 -0.0025088448945103114 0.47006850708045644 -0.12186824340717674
81919000.0 0.7395457411045545 -0.6690828880595551 -0.07352882985802936 -0.5963068936619038 -0.00011571813685510489 -0.004261170310072549 0.47397004059646813 -0.1323725853301291
82918000.0 0.7319253577516712 -0.676644714299231 -0.08711502621394722 -0.6278726606125985 -0.00024773506458530614 0.0009184908197385068 0.4739936512398028 -0.1367921696346695
83917000.0 0.7208565406097972 -0.6850174709509793 -0.11393759864232111 -0.6557500416665037 0.0005729291267378738 -0.0017671079831666702 0.46848189900331033 -0.15152896099179222
84916000.0 0.719059429701255 -0.6917457162048102 -0.12350410798791311 -0.6899417490332861 0.0003965246840223669 0.0021088575933421775 0.46817980813483884 -0.16694782023083002
85915000.0 0.7125144121247893 -0.6994323675491905 -0.1488830940683256 -0.7234910987155558 -0.0003448167212729733 0.000271077208498901 0.4661429328962198 -0.17639217194340095
86914000.0 0.7030004610527335 -0.7092061302531474 -0.16522937831043266 -0.7639763141571523 0.002187638704959039 0.0029283969335226973 0.4682645496612559 -0.18263525271026185
87913000.0 0.6975575515447722 -0.7141815636677151 -0.18527516780550235 -0.7948750980793416 -0.0022054949371056744 -0.00014184664177529192 0.4621700186645581 -0.18814454326289143
88912000.0 0.6887312421599417 -0.7209146687679643 -0.20044703111781415 -0.8281107641258229 0.005132140755584337 0.0037595098124715985 0.4634518144171716 -0.1998445776533142
89911000.0 0.6826675744453401 -0.7293295943275002 -0.21727522936803895 -0.8641023210668203 0.003341240974298789 -0.00031347074212257915 0.47367343578229143 -0.20709373480189938
90910000.0 0.6757593431608664 -0.7344509798079067 -0.23546609601234367 -0.9014630849450829 -0.0017251864737917028 0.0004473119254191078 0.4633995589270221 -0.20844272722079177
91909000.0 0.6656577118153804 -0.7394850121542099 -0.26034415498701713 -0.930324947663501 -0.0005616190524021373 -0.002816271908694884 0.4757401820651012 -0.21552045744584047
92908000.0 0.6579669974449305 -0.7477638680661848 -0.2757335034362378 -0.9676430229442975 -0.001116698120682792 0.004355267835208821 0.4598188961554294 -0.237046665069143
93907000.0 0.6536597697253785 -0.7530814303636528 -0.29329135139614954 -0.9990588545607412 0.00171188793305891 0.0002804519931686928 0.4660441024691803 -0.2547444726342382
94906000.0 0.6412347991279971 -0.7620485787174446 -0.3130478353557896 -1.0341726484683562 -0.0019900339982082066 0.0009703803714397045 0.4684819095513123 -0.23267100660193138
95905000.0 0.635678561091025 -0.7664464593161378 -0.337506361861634 -1.0711311015613 -0.0042585593601301005 0.002337676865875245 0.47189684845363056 -0.2596345617469509
96904000.0 0.6253598747486845 -0.7771062859347554 -0.3623127973177853 -1.108766693082346 -0.0003453759936960735 0.0009999969062969394 0.46247200977656494 -0.26841162967208554
97903000.0 0.6181431247021677 -0.780161678024139 -0.38046765149715717 -1.1411156075478235 0.0021668699321040334 -0.0003625688209422609 0.45084610319075885 -0.2903165815565959
98902000.0 0.6114271319091704 -0.7894683895472483 -0.4046717986313314 -1.18372727298837 0.004036380322521632 0.001948756063431278 0.45191373653819894 -0.2894567798931013
99901000.0 0.6011152950505814 -0.7935664195895972 -0.43507393629301633 -1.2099076727926392 -0.004558956391386009 0.0026467979612997774 0.45858236537761643 -0.3050894013591268
100900000.0 0.5910366970206256 -0.7980896885845283 -0.4716924940214907 -1.2423719888877027 0.0010467943518974916 0.0015078808064749381 0.4580992994634276 -0.30249802243339863
101899000.0 0.5818501299136185 -0.8060950760620643 -0.4973373935601932 -1.281328933916172 0.0002583351324265295 -0.0023805618223829133 0.45260979033416227 -0.3137176639968901
102898000.0 0.5738418259119932 -0.8137824109219797 -0.5362607116667104 -1.3219673176620945 -0.00015564323383220342 -0.003286390195142119 0.4481940516058374 -0.33526725942320096
103897000.0 0.5651829660265586 -0.8193192178378473 -0.5723204652392465 -1.3589541481850418 0.002671084367424008 -0.0029530300032175574 0.4611413327711617 -0.33208530400340924
104896000.0 0.5582254356054629 -0.8300530120559115 -0.6180808620920705 -1.3930296024293678 0.0035532383478019086 -0.0032073418547934615 0.4375968261779005 -0.3349348265558963
105895000.0 0.546980339237501 -0.8313288821024013 -0.6677957152966724 -1.4328312778437682 0.003066494157656564 0.0016362510913237498 0.4253286089334629 -0.36028180707291535
106894000.0 0.5366173422790198 -0.8372386161820304 -0.7201516528634236 -1.47460760714133 0.002040638067147654 -0.0016314120303000971 0.4349282882356576 -0.3583770965232025
107893000.0 0.5301233802091967 -0.844214643553152 -0.7721561383847395 -1.5086652391156121 -0.00221050758658676 0.0019215117678646624 0.43289452787699806 -0.37747464453940605
108892000.0 0.5224067697599861 -0.8461359890401405 -0.8334470909469451 -1.551078761601768 0.0018048572260323083 -0.0007413225094538551 0.4190712709220111 -0.36880226958603496
109891000.0 0.5083753064507787 -0.8558452041041515 -0.894466281839843 -1.5869895069443927 0.0006198381617678981 -0.001056260158881889 0.4368797720992249 -0.3774235570755082
110890000.0 0.49003819168691315 -0.869368840376868 -0.9818734377000757 -1.5911346795413126 -0.0012622862119760164 -0.001011553148976483 0.4250603535965103 -0.39315896392859934
111889000.0 0.49013223011934554 -0.8617249000918082 -1.0187326020552816 -1.6586248697971686 0.00179867558472355 -0.002495536974424422 0.42336273692375 -0.3924439753906686
