! Created with skrf 1.9.0 (http://scikit-rf.org).
# Hz S RI R 50.0 
!freq ReS11 ImS11 ReS21 ImS21 ReS12 ImS12 ReS22 ImS22
1000000.0 0.966714519074574 -0.006062337346541143 -0.0015616600580847274 -0.018722017893843142 -0.014944704988311994 0.013933556151332028 0.39828531747784945 0.31057645218942254
1999000.0 0.9975633616724354 -0.008751719850964252 0.0022965425793453026 -0.021744975843234548 -0.0023422245002650854 -0.002090414411942754 0.2260540077740735 -0.05728941280270824
2998000.0 1.0000583810781642 -0.023131286611890955 0.01245371932047712 -0.011948987410520393 -0.005054023080176988 -0.00858953999385522 0.19308355666828073 -0.14842778784758204
3997000.0 0.9988383766603025 -0.02951919666761647 0.009924007510092984 -0.009329505663582503 -0.0020836120478789273 0.0027561925196425926 0.08695415332166595 -0.22134481224894836
4996000.0 0.9980397264883593 -0.032796722879745666 0.012522481790546103 -0.0010897674474589984 -0.00279585230592252 -0.005068453272347268 -0.03936666657942418 -0.20032034219128733
5995000.0 0.9986527570276641 -0.050038328054455405 0.005256515764110384 -0.0010308525109146442 0.003280576321876185 -0.004274010198589298 -0.1241404514639658 -0.0994641241381673
6994000.0 0.9932367908400934 -0.058728372050249125 0.004146407321030899 0.004353065608017109 0.00017242732372444933 -0.0008896017293341013 -0.14368281237599428 -0.014972321995429546
7993000.0 0.9984297995240592 -0.06364110273712245 0.0007580703877373521 0.001974472265153588 0.00026918635373547806 -0.0013721642581715928 -0.16510706253081367 0.032295639843266534
8992000.0 0.9942113478216835 -0.07451131227942215 0.009395420726673277 0.01057663996876599 -0.0002702525491238221 0.0033859260179442898 -0.1470490097070717 0.06938933458255334
9991000.0 0.9958499734011178 -0.08229181280074521 0.0033890378872787836 0.0033175478536245652 0.0013280165222409042 0.00592911955805035 -0.14733965549136854 0.09485218133034592
10990000.0 0.9951267095513351 -0.09062925249577303 0.004249370431809026 0.005884353509559667 0.0018496878998292277 -0.00357383334706941 -0.13624589760099887 0.11513160403598195
11989000.0 0.9938632143685077 -0.09748797336132227 0.0005734816944322391 -0.0015146536537030924 0.0014599799309277844 0.002680513073235813 -0.12086055733635266 0.1411807674201632
12988000.0 0.9909951588377698 -0.10625782537349207 4.0934895147616646e-05 -0.002424057734702186 -0.005860922987515206 0.00016454524945991552 -0.10618479952752287 0.15453651974306842
13987000.0 0.9898829389548712 -0.11512088425245363 -0.0009690292992975643 -0.0065416717562717 -0.0023042791474617488 -0.0017565733532001896 -0.07840865287892085 0.18006719054384368
14986000.0 0.9893615153007028 -0.1233545108858904 -0.001907033604795392 -0.004816567732979688 -5.0182120895842025e-05 0.0023249626213311054 -0.08720370803725531 0.20859940955564357
15985000.0 0.989469501391971 -0.13332188792589283 0.00012084462651370467 -0.0023214971531390627 -0.0014658565685624278 -0.0009220375961978904 -0.05767288522748286 0.21779371927892593
16984000.0 0.9875586433555938 -0.14526985420815655 -0.00609587419309367 -0.004608889693025274 -0.004229220679885123 -0.0007096025217634305 -0.058811005288678594 0.21539831377700017
17983000.0 0.988455147713567 -0.1467812247378742 -0.0027779075907321967 -0.0011225026565012855 0.0022487494669569262 -0.0009148125626760602 -0.047766160165766736 0.21219418855232186
18982000.0 0.9835085952439812 -0.1610484387947023 -0.00625060944615536 -0.006737588778170822 0.001125295630436875 0.004191667523279927 -0.018902707732036263 0.233240039582931
19981000.0 0.9842679228792414 -0.16575602918441196 -0.0011854967562187513 -0.002409277984375157 0.0012811736209644325 0.0009982025441606951 -0.004287157710504661 0.2377566208739065
20980000.0 0.9819211694789446 -0.175812998251272 -0.0038875855531391415 -0.0054274541704213254 0.0007321792143921266 0.0008732842541888229 -0.0026259180780220863 0.2673566789038522
21979000.0 0.9807798969586742 -0.183121343231018 -0.0007607667192962655 -0.0017483671300145163 9.101733562908155e-05 0.0033585816062497247 0.007170551163015389 0.2464080104648966
22978000.0 0.9776383197806527 -0.194256923779983 -0.005180910979233467 -0.0018941276455820275 0.0015423728367449333 -0.001355715399990495 0.03292770952416212 0.2531283048212949
23977000.0 0.9793935286788391 -0.20055829120485633 -0.006550579651497138 -0.005847408924711152 -0.0035233181706304517 0.0008555752375620093 0.04543968729400636 0.2577155180089723
24976000.0 0.9744073032007717 -0.209377139119817 -0.0016168521179127445 -0.004163671464873409 -0.000261764309235419 0.0005756593125447585 0.06636241956423174 0.2541776858131745
25975000.0 0.9755244986858506 -0.22358815288990574 -0.011781238131746103 -0.006298514438301433 0.02591791537559437 0.0064078764708465396 0.08356873617211162 0.2660311973833257
26974000.0 0.9705285824670725 -0.22573234041106 -0.004563660256354523 -0.0007223851350949634 -0.0006416127588925931 -0.0023413014936686893 0.09832918206699226 0.2620822493608376
27973000.0 0.9704825923547487 -0.2358185337784259 -0.00038347173885353307 -0.0009563080786130836 0.002706287108782347 -0.002478503281849448 0.11234530307656994 0.24859394631131637
28972000.0 0.9662927438273922 -0.2415934191457416 -0.003329280427669502 -0.003075244001121989 0.0004274421080623736 0.0026187423052700686 0.1209577327455568 0.24591910435355457
29971000.0 0.9654413783343444 -0.2517150075618881 0.0014693200449850266 -0.0019359399564566047 0.0030588152813192677 -0.0005598101392228689 0.1461370084521293 0.2646756681122432
30970000.0 0.9629870175456193 -0.25606599015018194 0.002177204114591312 0.0015330398691510475 -0.0028295122207476265 -0.0008478004624443388 0.16428069232877957 0.2560346241291925
31969000.0 0.9611459176451765 -0.26621699435425156 0.007026474547941356 -0.0007389251959713631 0.0004703483333351591 -0.0017012685378813182 0.1507160210468873 0.2483935743327396
32968000.0 0.9593246924206665 -0.2744454986039916 0.007066398091070125 -0.009411124796251533 -4.9565247926759e-05 0.004057342602350331 0.16538153335473502 0.23933793230960418
33967000.0 0.9577416518193911 -0.28528091287757795 0.010691050617405957 -0.011305415679047973 -0.0011796038625847874 -0.0023131701674487873 0.1881599993650472 0.23829326710577756
34966000.0 0.954056944162886 -0.2936403181914497 0.013913974671334222 -0.012282934861647265 0.003268117255022436 0.0002545045849500881 0.18573377979657593 0.24648653261887765
35965000.0 0.9524076741446258 -0.3012739198543819 0.016044863186369458 -0.012977450821354944 -0.001511588771152062 -0.001010464369520766 0.21444280666080726 0.2385040141285585
36964000.0 0.9495657932246739 -0.30768193181205117 0.016665966107123356 -0.015987506433343995 0.00020148906417253258 0.00020703751286391809 0.2182243995739634 0.2462452067667169
37963000.0 0.9453592023250833 -0.32140135476578535 0.02113703291726232 -0.01821368707056781 0.002092856888937549 0.0028193444679617714 0.23317868485752724 0.23293850385480283
38962000.0 0.9437634676303144 -0.3286346739396263 0.020343676396903647 -0.02300507348364846 0.002306128457071721 0.004442269990791194 0.2384576729761443 0.2225558116266619
39961000.0 0.9416062755262753 -0.3334300873369649 0.024931592762176304 -0.024086549793422018 0.0004386213007781252 -0.0006629102233581147 0.25215972145271776 0.2244053904809058
40960000.0 0.93818612395941 -0.34358507147287176 0.024635371721153175 -0.024541689718937578 0.0031095864824338387 -0.00192452037382428 0.2615803574203748 0.22170224749611583
41959000.0 0.933291549442319 -0.35272683152342654 0.030884870177367095 -0.02940833633797024 0.0011937587680936428 -0.0005035635636149109 0.26585016475823936 0.21631535984071265
42958000.0 0.9298780585784213 -0.36099895182593816 0.030919881302186668 -0.041761997916271776 0.0020258366807950445 0.0020572562277084783 0.28060408000869846 0.19374785868874
43957000.0 0.9284728812792284 -0.3685069116665897 0.03183598782648594 -0.044746383398123236 0.00202366315950608 -0.0034227651817438295 0.2909399706945971 0.20143394962177302
44956000.0 0.9250175723258399 -0.37638085051900505 0.033835937355806804 -0.052579500382790995 -0.0016350296807747225 0.0028703193263094804 0.298910110538625 0.20121631138102838
45955000.0 0.9204839576621022 -0.3831999041267014 0.03663552542759077 -0.056694482140807585 0.003006933654957825 0.0019289470876314814 0.3020206630111685 0.1877887886011681
46954000.0 0.9177624180532082 -0.3939590773191149 0.0390417281729883 -0.06369702745589069 0.0003442884478568938 -0.0015442395468907313 0.3270722256398482 0.17261204386425705
47953000.0 0.9133117219841299 -0.40211241455889335 0.038770577589223296 -0.07228680941290754 9.223631853615099e-05 7.510803497881467e-06 0.3421615317212406 0.16463252258340227
48952000.0 0.9082772378825106 -0.41281878817408163 0.03455394886389855 -0.07981430990211645 -0.0028301473217641564 0.0020049158596836853 0.3433151943517402 0.15570477002400046
49951000.0 0.9071552285389731 -0.4149605076334417 0.041471723967268705 -0.0859576658197666 -0.0003876874348967619 0.0033322847086956976 0.3494480641723751 0.15513415731611016
50950000.0 0.9012963391376567 -0.4272218322722494 0.03759847330372437 -0.09553197654649007 0.0016407840464952074 0.0005755917343463276 0.3507644434468806 0.130389409993297
51949000.0 0.8982899353941521 -0.43407579189304013 0.03932447539838594 -0.09987619487085869 0.0011149891043401227 -0.000494385300548885 0.3589283853236895 0.14541594340693556
52948000.0 0.8949086678498607 -0.44204777964286607 0.04298329732846119 -0.11232661607572403 -0.0013240758164826468 0.0014489336118697132 0.3762364365764274 0.13505200548778207
53947000.0 0.8910735166424392 -0.44783704045498135 0.04398997988697522 -0.12000511472447128 0.001829335419632376 1.857419874042303e-05 0.3753135338134612 0.11711843633882713
54946000.0 0.8848584458206421 -0.45842132415156867 0.042920344601143245 -0.12770137536189308 0.002229231358679196 0.0019145609572905498 0.375681750265085 0.118801978408452
55945000.0 0.8824496076107354 -0.466252806607809 0.0429718377911517 -0.1399154525257698 0.001317599003207979 -0.0013913422818434505 0.38210468415807575 0.09443445283611893
56944000.0 0.8780131645545345 -0.4737964372533125 0.04789898914539979 -0.15001404825435138 -0.001158061595258016 -0.0015258852232682702 0.394012178198926 0.10100987488274508
57943000.0 0.8737404544061401 -0.4848327883550695 0.047605420981273856 -0.1624980331554991 0.0009810599622307248 0.0011218607732280544 0.39682937599752205 0.08742069163091355
58942000.0 0.8681197123470987 -0.4881166380245509 0.048965505514093996 -0.1717378621511262 -0.0011533434385137045 0.0005031346672277557 0.4166401801082743 0.08020453276782277
59941000.0 0.8651699758643465 -0.49983530352295646 0.05135669374242549 -0.17947051803317643 -0.00017172339478417622 -0.0008830666711261375 0.4135697608170202 0.08501593529893509
60940000.0 0.857021933371044 -0.5043786417939974 0.05026203394726939 -0.18231784679151283 0.0008679263137852336 -0.0014292182374151879 0.4080416961538252 0.07340146501201049
61939000.0 0.8546187389343497 -0.5115791552284571 0.052395466543482774 -0.19695350970597295 -0.0011807028292094084 0.00465682738391256 0.42310360975519895 0.06475615192520574
62938000.0 0.8480681646164164 -0.5229932756060472 0.05034283650345065 -0.21158813457854114 -0.00032342870976562367 -0.0042335951186409345 0.4417196622062952 0.04545164497481321
63937000.0 0.8445603717837193 -0.5305314768621613 0.054488308431807096 -0.22950277643307554 0.0004442215038172851 0.0020515631302366276 0.43759000246439206 0.03658668782526468
64936000.0 0.8375446740947113 -0.5377874079630202 0.05227449030581156 -0.24465671804965344 0.001842837044159056 0.002162845993032124 0.43299055278472154 0.03229925622901635
65935000.0 0.8359685022056966 -0.5456427488613445 0.05125009858042828 -0.25707091171150886 0.00040249039811291566 -0.0017087559687242958 0.44149355220682607 0.01004664852369207
66934000.0 0.8297648671408012 -0.5520124228428273 0.05230420149499434 -0.2701043778859963 -0.002857816225695395 -0.0005163679372435201 0.4385066682711212 -0.005950267062985331
67933000.0 0.8275895636631581 -0.5605551929942524 0.05600486147886493 -0.28731941673213307 0.0004918412649689141 -0.0002963165732840105 0.4362333752308757 -0.012811016988826102
68932000.0 0.8178018332425306 -0.5689076727854494 0.05070081091410764 -0.3002638649152806 -0.0015496970934667513 0.00027108635764402185 0.4553923852412161 -0.014986678088416586
69931000.0 0.8131192035705425 -0.576324265706214 0.05519181011764174 -0.3151181263361855 -0.001237866944881393 0.0032860281555351905 0.4529624374891193 -0.02272388657504972
70930000.0 0.8081886709584997 -0.5824807021175329 0.05106263132679159 -0.3288797161169934 0.003653293922839814 0.0003353926455748304 0.4482986921300614 -0.03679360759855468
71929000.0 0.804701105563184 -0.5930064010703336 0.04411639548733536 -0.34521455965118997 0.002876931621126173 -0.00046381139984408233 0.4469608190049371 -0.0484565680423805
72928000.0 0.7977155592781895 -0.5995031297261803 0.04228699236248547 -0.3614966958824729 -0.0008602984011178271 -0.00047795930094005946 0.4627809790758471 -0.053008619313187
73927000.0 0.7923457353088316 -0.6078999082973339 0.03639101367478753 -0.3821354845087426 -0.0006395422348849769 -0.0015318344480205193 0.45795293157306255 -0.06240519693365203
74926000.0 0.7882033360151278 -0.6163699978126964 0.030963953035190277 -0.3999484910303257 -0.0023508017502706685 -0.005391547137346048 0.4623318321806897 -0.06929787171433607
75925000.0 0.7810567649831779 -0.6212473101141065 0.020241116830310154 -0.42123218745126995 -0.004002114108977701 -0.0005136791843073053 0.4584796161061827 -0.07617420117157328
76924000.0 0.7759010311591534 -0.6281927840807806 0.009415402568516664 -0.4421482822696847 -0.0026773788146873803 -0.0072749662322215075 0.4607270140131722 -0.09519579924821388
77923000.0 0.7677661889984033 -0.6357213158042351 -0.006206714488532549 -0.4639425627149851 0.004830442211104791 8.876797729510522e-05 0.45892558513732234 -0.09706688977898856
78922000.0 0.7640471547613807 -0.6446543393649333 -0.01802865824449981 -0.49083926183399695 -0.0010786083093829214 -0.002173176306200239 0.4670283485107037 -0.1122616963009409
79921000.0 0.7547066762218807 -0.6494643293823931 -0.0353376008570488 -0.5155881937035679 -0.0030503645625676026 -0.002053031491217745 0.45337310979053846 -0.11823864082801505
80920000.0 0.7492054219025951 -0.6588805901684724 -0.051114224580024945 -0.5440377466792473 0.004307952935669723 -0.0016284409155553079 0.4690930797897306 -0.1340236663369027
81919000.0 0.7439822696126809 -0.665868494835853 -0.07027439334854108 -0.5725730856445268 0.0020539520302344408 0.00023286512970109761 0.4618644730827209 -0.14143176173696134
82918000.0 0.7367419858598027 -0.6734956789440852 -0.0862727888105393 -0.5998742327253707 0.0019228821316486365 -0.004883018973932663 0.47167268897845915 -0.1539204297967939
83917000.0 0.7270761256055438 -0.6825225516174769 -0.10716631711258662 -0.6261709078650368 -0.0002442139747152011 0.0009323467280142099 0.46476775841645523 -0.16991473309146415
84916000.0 0.7245731267010358 -0.68635683483716 -0.12016591072655025 -0.6650506834063542 0.002312031928261646 0.0006593427073341575 0.46545100342741086 -0.18359429495879326
85915000.0 0.7169584081382796 -0.6937619876296365 -0.14032592272127434 -0.6981564141203767 0.0009815938448154507 -9.079935606281107e-05 0.4690782119113279 -0.18947782282914086
86914000.0 0.7084529173958402 -0.7034848327756064 -0.15689741374613606 -0.7307703986073696 0.0005283943475371434 0.0028246968694696775 0.4575349748281552 -0.1822888297016562
87913000.0 0.7027339366878613 -0.7098789247274362 -0.17781494511936147 -0.7596068454649408 0.0010569287049622673 0.00454999160213805 0.45559330512882695 -0.18765793862981542
88912000.0 0.6963246895826929 -0.7162613304783153 -0.19352637013327026 -0.7985401928676105 2.2999794304942168e-05 0.0029205710075322477 0.4610437516215959 -0.21072786592352755
89911000.0 0.6867511140894125 -0.7258105886475829 -0.20771416307731136 -0.8320548931297094 0.0048551743058215776 0.004227071002229554 0.4739570680200659 -0.21883109181929025
90910000.0 0.6815555189365509 -0.7295655853123342 -0.22736673703843566 -0.8646261448819915 -0.0019197102059869936 0.00411624770935003 0.4585008062132365 -0.2173648395182905
91909000.0 0.6727086491586911 -0.7344166041614861 -0.2475208451263923 -0.8953321482153517 0.0008680546432142507 0.0009545971629850888 0.46077313640135453 -0.2330524737046546
92908000.0 0.6629491236430147 -0.7428914260145683 -0.26552521642747656 -0.9296779825999655 -0.0017578244983404508 -7.649907212445375e-05 0.44986982322909624 -0.2440077995245679
93907000.0 0.6582709334783605 -0.7500851011355498 -0.28062710385024303 -0.9630032589465235 0.002335604380396717 0.003279706454238194 0.45583174508106516 -0.26364451204861217
94906000.0 0.6459986831152923 -0.7594661420085217 -0.3017486140151889 -0.9946828336916811 0.005017822692550111 0.0009388949951694048 0.45643572396144755 -0.2596855528823066
95905000.0 0.6394314572583708 -0.7646018251092765 -0.3221757583751322 -1.0282920397748923 -0.00022950601289199895 0.0035593127995392844 0.4664885670254572 -0.28476299299511426
96904000.0 0.6324747640373011 -0.7729811571597075 -0.33834706392356906 -1.070582457815978 0.003921510566351955 -0.001751088942055761 0.4505122519390152 -0.28269879431267003
97903000.0 0.6210686089400337 -0.778977687325697 -0.3633462572724317 -1.0967699314925239 -0.0006187354230580989 0.000617635621336007 0.4490324443600241 -0.29663895671516555
98902000.0 0.6159360938122558 -0.7854895616348443 -0.38153085733266384 -1.135049960646668 0.0004721159742254258 -0.005101097814371057 0.4330250147666713 -0.3038940902671918
99901000.0 0.6073224718006065 -0.7904471477524614 -0.40820547708567156 -1.166463698574996 -0.0007019455645399465 0.0011748475343650747 0.4618464962196431 -0.31486941270094687
100900000.0 0.5964495355540842 -0.7942695706530103 -0.4419970423523353 -1.1958823364996192 0.0037533953030804306 -0.0002809215560236717 0.4677283037195547 -0.3080237787649324
101899000.0 0.5912077211294348 -0.8025599342491129 -0.46342157368817666 -1.237199113710228 0.0004478721403689537 -3.8799317909239467e-05 0.45156476584286404 -0.3313822869425572
102898000.0 0.5814855375607557 -0.807473545237043 -0.4987270257245744 -1.2711488233849408 -0.003598254480374315 0.0030795000426962443 0.43758920335442003 -0.3437572241795713
103897000.0 0.57200574864817 -0.8176351340221668 -0.5343834978326132 -1.3047325114245378 -0.0039078372468103655 0.0002801081171665351 0.4482560812799352 -0.3379154624067329
104896000.0 0.5640617374532941 -0.8246552689404046 -0.5801487979840068 -1.3361323422800273 0.0003624371024387199 9.010232144215187e-05 0.4344761837971152 -0.3485684260487392
105895000.0 0.5528195710820736 -0.8265861793428634 -0.626287696490774 -1.37668351854022 -0.0019754428347199334 0.0005300482263706518 0.42494087216597826 -0.3575803657540745
106894000.0 0.5447680690144847 -0.8346331260776975 -0.6770212916176541 -1.4159454237195597 0.0005609083903329415 -0.0015607248735965953 0.4244786115748977 -0.37626539486836574
107893000.0 0.5383763099861808 -0.8398381666485895 -0.7257137453964778 -1.452392746878962 0.00033771663068924194 -0.0023255532387973636 0.4272720073272679 -0.3844875001395066
108892000.0 0.5287579410423839 -0.8432428330917606 -0.7869475890389984 -1.491885768584749 -0.0011638204968718322 -0.002108392191780505 0.4176401012208074 -0.39022776274923565
109891000.0 0.5159024512045663 -0.8522332821980847 -0.842803702363773 -1.5249854214509453 0.000505275101125913 -0.00178636223293547 0.43369361849556176 -0.3829334171657341
110890000.0 0.5120628935266984 -0.8597952458132488 -0.9024265947614554 -1.5470670128560184 0.00041956959468150484 0.001133992788099994 0.42224088132263643 -0.38878375535107346
111889000.0 0.49803021428761923 -0.8596362411733396 -0.9632307889802503 -1.5927174313293881 -0.0003636521797944273 0.0002813415465439854 0.421899484477092 -0.4008973214901342
