! Created with skrf 1.9.0 (http://scikit-rf.org).
# Hz S RI R 50.0 
!freq ReS11 ImS11 ReS21 ImS21 ReS12 ImS12 ReS22 ImS22
1000000.0 0.9906325898820116 0.014564767956205538 -0.014926261290141893 -0.05402792224533914 -0.008573888935534587 0.01750889650882424 0.34530764122089064 0.37573655547399787
1999000.0 0.9900090222469297 -0.012566274819461366 -0.006029633747866831 -0.01932044852728542 -0.010377877699887156 -0.0052218619376794015 0.2520181234445779 -0.05210439394440264
2998000.0 0.993180175274504 -0.020843118389425094 0.008317207407028042 -0.018027161875696848 -0.0004958797794564834 -0.0002570373512997469 0.1903352620572969 -0.13697749524494932
3997000.0 0.9990103340484889 -0.030522992912993343 0.0063956605672292575 -0.01148355652667277 0.0031382603491174497 -0.0016101875796494098 0.09503888070048248 -0.2238662421694916
4996000.0 0.994813172083874 -0.03803133456060529 0.011526031943039826 -0.0022981485545816136 -0.0053017557282273465 -0.0007188102573958748 -0.042498151642835234 -0.19848097890526584
5995000.0 0.9957891881205043 -0.04746421730943015 0.008634960737254315 0.0026145009444397595 -0.0018918330492707304 -0.0036212284088257963 -0.10593606113199627 -0.10370085366976468
6994000.0 0.9935609954161704 -0.05971799413232625 0.003235259024312929 0.003551536287876241 -0.002655826863804 -0.0028900059768791147 -0.13097761195126614 -0.025525100320146547
7993000.0 0.9959552591061837 -0.06812983287147135 0.0031432679452060167 0.005019050579007981 -0.003309410079588807 -2.3875244608054065e-05 -0.16263263356888527 0.01932595608860506
8992000.0 0.9944859082537223 -0.07170582478801256 0.0019084408034699817 0.007798217515390992 -0.002040129568534815 0.001235885571559904 -0.16166248181439288 0.06462277023349508
9991000.0 0.9937886669073966 -0.08173035100517792 0.0017400229228701199 0.0035377319464293113 -0.00468770134265445 -0.004194757384626156 -0.14924810070946673 0.08535802354803486
10990000.0 0.9928894636884077 -0.09397417297612155 0.005412753601665449 0.004764902112893581 0.0007825462265494149 0.0014547699327416936 -0.1428229875076915 0.12737177594890398
11989000.0 0.9893891085853217 -0.10145431230727679 0.0012015503287331295 -0.002253512172525657 0.0031371289259455493 -0.0006815422741251819 -0.12638138707901686 0.13803100805610205
12988000.0 0.9901614897303821 -0.10939424690042224 -0.00017579222850287613 -0.0034856088404356268 -0.0009202006782120659 0.00466474451995327 -0.12404404602840444 0.17148624357336387
13987000.0 0.9867644223796608 -0.11826344976675819 0.0015046882323494109 -0.0033442972038276154 -0.0002879857062304293 -0.000756120845236369 -0.10531401762907922 0.1851070363541645
14986000.0 0.9875741039484758 -0.1291021288413375 0.001550243916918155 -0.0014250461984996333 -0.002981149334954809 -0.002655840607359278 -0.10058347195414928 0.20394829187158905
15985000.0 0.9885788835947891 -0.13604113392823727 0.0018565587183802178 -0.005315818993871631 -0.0006509597213996312 -0.0011345210838125989 -0.07249352679467841 0.21070175073615136
16984000.0 0.9873393493413638 -0.14769073486232032 -0.0020218402568900197 -0.007269701006239452 -0.0006078937505656525 -0.0041978915918951774 -0.06773672483881855 0.22347541480921382
17983000.0 0.9852271461883788 -0.15187650225924645 -0.0025353291081555286 -0.005512766805728253 -1.9159575198700423e-06 -0.001655740266228273 -0.056419016092572244 0.22078810893577594
18982000.0 0.9836931855466176 -0.16282384061969418 -0.002527788274210033 -0.005222236517313847 -0.0031381654430435225 0.002311059697668464 -0.019603908755876403 0.2400920180416277
19981000.0 0.9833335932322145 -0.16903196627271874 -0.004800607802792742 -0.004071831113278821 -0.003508978343430232 -0.0017196046078786905 -0.010065097176552703 0.24587386997331
20980000.0 0.9816454642867134 -0.17748192746114447 -0.0015147558461581154 -0.002746708323890582 0.0015925303016159078 0.0012138039672596008 -0.004546372019082419 0.2419722947510259
21979000.0 0.9755920672295021 -0.1894575996703927 -0.006981498443330808 -0.005753330268945936 0.005539187304587803 0.0012145683075452432 0.0065166899787241425 0.23868018924244885
22978000.0 0.975929577032008 -0.1977552982201137 -0.0019463107106699898 -0.0031368551534189906 0.002853110528531395 -0.0005951680879275209 0.02731666317572518 0.2504461459748063
23977000.0 0.9765571066816847 -0.20443560837950073 -0.0045077597484363035 -0.003557692104437576 -0.004231180295579643 0.006036842326125353 0.03912701036361058 0.24427876076649788
24976000.0 0.9731070890597975 -0.2128137645350206 -0.004513260039151259 0.0007309323687841232 -0.003435585980079746 0.0025515383546361767 0.0679126796585227 0.24881739141474593
25975000.0 0.9691097005656375 -0.2195416609156004 -0.002889063716077634 -0.0029408633701251225 -0.028859656140205366 0.0022198987598552266 0.07196635500888515 0.2641556215599909
26974000.0 0.9688751990848655 -0.23072008472446037 -0.0034699148319040883 -0.0023116607365986958 0.00030041213699256146 0.0034637059636729505 0.08829469351391718 0.25913775684034046
27973000.0 0.9695726469093517 -0.2371237391219903 -0.004156895228705691 -0.0015187684351683976 5.9754543740167316e-05 0.0011012176943982713 0.09915080994217228 0.25899216763796395
28972000.0 0.9648280489849093 -0.24914285343347373 0.0008766485857574151 -0.000340488895716915 -0.0026423962760239138 0.0018161578585725838 0.11503509475083275 0.25364001920175555
29971000.0 0.9626449750065295 -0.2580700357261151 0.0007498027689573497 0.0005997941626932453 -0.001320700070754895 -0.00048238832656793794 0.14167940255911773 0.27719341386745006
30970000.0 0.962133502334827 -0.26285363850994997 0.0003655319102757868 -0.0010182734094294785 0.002745368802470472 -0.0030673465076058565 0.15915931489214807 0.2536769918539363
31969000.0 0.9600780205631406 -0.27153678988409985 0.005790412580380723 -0.005601929186938073 0.0016002751761713594 0.0016785753944728622 0.1472598906553099 0.24496366285877214
32968000.0 0.9568520264385884 -0.2825378250241321 0.006706860660587888 -0.004064936746563051 -0.0006011395204874203 7.17301715444373e-05 0.16731403054645566 0.24890005823080816
33967000.0 0.9550122879143182 -0.289908964258885 0.010355012902666787 -0.012958955126552617 0.002855755731062051 0.0012893691121266438 0.18168457371650482 0.2462936769822805
34966000.0 0.9523424997133825 -0.29921778873701044 0.01371598377297834 -0.009858328452602642 -0.00012572439731909518 0.0013311851915513333 0.19803312780797366 0.25208952734215434
35965000.0 0.949044697131323 -0.30831433845819645 0.0148450757838903 -0.015578387820970239 -0.0010422950970640633 0.0008244024344045903 0.20452999464688576 0.2548990552272504
36964000.0 0.9471127351718468 -0.31592647246678024 0.016694013674182606 -0.012847410914896596 -5.9784818252749244e-05 -0.001390543727943313 0.21523494793987555 0.2513785122625223
37963000.0 0.943175313990807 -0.3260167887215973 0.017427723994805716 -0.02111129374104944 0.00034358192361144766 -0.0013424607519002024 0.22707265543407895 0.23442058921117845
38962000.0 0.9416082615712495 -0.33394996040390434 0.022644801784826127 -0.02408508890010447 0.0018460780763501347 -0.0003678687758092377 0.24350811644028122 0.23799566365105568
39961000.0 0.9360214272390236 -0.3431140433724932 0.024226210281364322 -0.025982530495183058 0.0006499558194479216 0.0015059475380735483 0.2507439184651988 0.21971632081781672
40960000.0 0.9330188687774887 -0.3503497247453964 0.019332565947932263 -0.023372636203878455 0.0037591229294632223 0.003813137868223996 0.2683015340730826 0.2257182847866572
41959000.0 0.929819810240015 -0.361613203556262 0.02707563255247637 -0.03038282893483229 0.0008401353162481258 -0.0007338329964247056 0.2671168134062688 0.20617326648157025
42958000.0 0.9251051832406141 -0.3703878205966683 0.030142974696765974 -0.04029048776920088 0.0026831606732213692 0.00017399602068923593 0.28414778353400566 0.2039561202948121
43957000.0 0.9251622577064685 -0.37413909063404466 0.03132986404020451 -0.04326181218201914 0.0007596288392708408 -0.0003347474667148879 0.28192526088934794 0.2162341031254624
44956000.0 0.9208575600614324 -0.3813998254243247 0.032972122722602575 -0.05173859018765041 -0.002699290371585114 -0.0021396161298625274 0.30202787083422333 0.1992950060597247
45955000.0 0.9158519866274725 -0.39448578070002976 0.03335241994356813 -0.05674634236871905 -0.00021599472612395925 0.00047810182202814904 0.3057884403702816 0.19429118369321532
46954000.0 0.9127886253232859 -0.40094111726340337 0.034329513025174466 -0.06770313360771699 0.0013895600624389266 -0.0017472997167557506 0.32053222511126456 0.17229194693374858
47953000.0 0.9093763459320325 -0.4079437092875738 0.03578814281432552 -0.0721883619594699 -0.0018984814776410671 -0.00033058731695240554 0.33604655956268403 0.17378569058205987
48952000.0 0.9034254794534785 -0.41983726472795674 0.03521973441115151 -0.07957450382256838 0.0025309375209704534 0.000914598702341598 0.3284723224536956 0.16792139905883174
49951000.0 0.9004255232466042 -0.42760647855017236 0.03538308104625633 -0.08820691329665752 0.0072145561446601905 0.0003077048757980582 0.3469725921733947 0.16663194621222882
50950000.0 0.8980726859880692 -0.4353433545193665 0.03600922969351583 -0.09526864751076095 0.0023288399296099663 0.000674536704726472 0.3548151506844951 0.1455327670002155
51949000.0 0.8933624049165098 -0.4424879541544493 0.03633531493146532 -0.10263188750345204 0.0017678128140374727 -0.0012529574051119662 0.3594395597631208 0.14736466469711776
52948000.0 0.8903975508421602 -0.452388490614298 0.040531614823862055 -0.1126696933545578 0.00015966210891152523 -0.004894827111714357 0.3738522829116654 0.14113128998112398
53947000.0 0.8843077441312871 -0.4589645513625578 0.03870355208125434 -0.12068340481960904 0.0019209517252707943 -0.003969592535208011 0.37187042308442 0.126238053054594
54946000.0 0.8784385922049125 -0.4699581017655208 0.040673108142792645 -0.13245530248444076 0.00257413757389408 0.0008683513383462373 0.37894026154321314 0.12142175036442701
55945000.0 0.8772962787922 -0.4768000592096844 0.04164609079474516 -0.14063298460036266 -0.0018853402489281733 0.0024072946172563614 0.3904827333068243 0.10026257024174837
56944000.0 0.871444500808805 -0.48434584335791775 0.0425791366835817 -0.1509199112694242 -0.0017500104236419871 0.001320277532242518 0.3983629739387948 0.0981760142124294
57943000.0 0.8670971199335593 -0.49535021597646106 0.04425383002439879 -0.1616542679282289 -0.0005136171329483129 0.004641112628554812 0.40967370419500354 0.10017804563253749
58942000.0 0.8602814900594776 -0.5010967629730259 0.045158996749262076 -0.1721339488068816 0.0022446679844883802 0.001814370199687173 0.418748859984209 0.09745746226064637
59941000.0 0.8591122247366894 -0.5091528330246 0.047490442654960704 -0.18080836957584648 -0.0010616286240359891 -0.000861967586413464 0.42757507317058363 0.09607933757062474
60940000.0 0.8497567417672658 -0.5171592001512496 0.04656173191171878 -0.18396188999798635 0.0015107978918037816 0.0011119340508417075 0.41319954623987326 0.07137659551395592
61939000.0 0.8477883774696059 -0.5233835616901366 0.0488156013531572 -0.19357303149501387 0.0004664995462223192 -0.0012137905661070078 0.4216041129055272 0.06965127062181622
62938000.0 0.8419916948299507 -0.5343842961599706 0.04952644534789164 -0.21099318088640281 0.0025364220938104325 -0.0030188049682830288 0.4403968379746408 0.051504112637516426
63937000.0 0.8375866285258425 -0.5414821203693729 0.05219399897042481 -0.22680746977653823 0.0013751151106146076 -0.0014278453310353247 0.4301654369871896 0.04421278294464405
64936000.0 0.8307582860575989 -0.5479574979427152 0.05007558010235949 -0.24408510104767184 -0.0026552432250187925 -0.0013370596355405395 0.43927563395741687 0.03842666463016944
65935000.0 0.8254969527234177 -0.5586934957025644 0.05030317854158374 -0.2573916084162488 -0.0003455229879771429 -0.0004976930523739982 0.44119023853745537 0.014635706570684795
66934000.0 0.8220509342671544 -0.5609642697102003 0.053323975498856875 -0.26911577644257 -0.002827236620248108 -0.00314978044790872 0.43483837352305826 0.016277810030259677
67933000.0 0.8188330464814841 -0.571560402527897 0.05153574996883941 -0.2827849461201025 -0.00036768529708431974 -0.003629955470910355 0.44546053958319437 0.01073517411360034
68932000.0 0.8130287889710259 -0.5755891194005555 0.04866972188004125 -0.29407756211586333 -0.0005806938394311023 -0.0010305989790722505 0.45840899919792755 -0.008334507601802151
69931000.0 0.8035654757521838 -0.5877075173971883 0.04908867176361159 -0.31130745855941905 -0.00110407326214581 -0.002902315510349402 0.4487881198115426 -0.02408914318174191
70930000.0 0.7976715592288341 -0.5950245433521549 0.04112729648947081 -0.32311982442138576 0.001287131256619322 0.002898104938806317 0.43782718576859586 -0.03430296128968239
71929000.0 0.7948814324510219 -0.6024801441330754 0.043048428357368385 -0.34098163848324814 -0.003976449464123322 -0.0005117840366691244 0.45005371499689967 -0.0447933258739448
72928000.0 0.7865522517175354 -0.6130905936564961 0.03404131288472931 -0.35485025364986567 -0.0010815386417833443 -0.0006161376200610046 0.4617524024563769 -0.04617279037229824
73927000.0 0.7813463571552243 -0.6184138085863388 0.032047298115236544 -0.3784555588770492 0.0003166443334893363 -0.001399353022704812 0.46678956250179854 -0.056899642647204124
74926000.0 0.7742211653104483 -0.6281856756647126 0.01941757472416456 -0.39184403406421986 0.0005641150062411472 0.00029804840267740154 0.4617390943849411 -0.049259802826791856
75925000.0 0.7701436091220378 -0.6326575409251691 0.013979621816169099 -0.4165729458002366 8.560077886637501e-05 0.0011228089667407674 0.46672317122238394 -0.08093632683240157
76924000.0 0.7620934859378985 -0.6403579095474827 -0.0036706747363448896 -0.4350836239023367 -0.001795473252263796 0.0008749371222009425 0.4648000535325666 -0.08371821479895032
77923000.0 0.7559581611059221 -0.6468920792924836 -0.016510247742059107 -0.4596282363775488 0.00021157783229068156 -0.0004122126819885291 0.46137258988179963 -0.08775824425523063
78922000.0 0.7515035995814862 -0.6564287608294362 -0.026856019134829913 -0.48742596572011804 0.0016570141565959559 -0.0003892143276198772 0.4598650968965398 -0.10057481621328505
79921000.0 0.7412658269729779 -0.6601361742959304 -0.046006767082766124 -0.5099901823017794 -0.0002105147390793742 -0.0012527925572473452 0.4647554629832261 -0.1101948645275591
80920000.0 0.736820560557489 -0.6719420144355819 -0.0645601685882332 -0.5360561496605173 0.0019594401729711216 0.0002649783615753371 0.47348798606787873 -0.13472469351749977
81919000.0 0.7317102041425484 -0.6773706191847048 -0.07971866896590067 -0.5650033385558931 -0.0013024515145042847 0.0015515765157946596 0.4711233820783997 -0.12674646552866964
82918000.0 0.7219444399101305 -0.6861178715438391 -0.0970531401593366 -0.5962224326626868 0.0014348136638951815 -0.0014898479215341696 0.477246368178955 -0.13335228232016638
83917000.0 0.7160487655489147 -0.6916903173941902 -0.11300568028958559 -0.6262575189107816 0.001624206186477943 0.002900259899355018 0.4716489017514925 -0.15096270853628377
84916000.0 0.7096450668610829 -0.6999435869266387 -0.12802129501387363 -0.6586093181029029 0.0034763157617904122 -0.0017614230260864505 0.46390691271498463 -0.16137996652698752
85915000.0 0.702523107237324 -0.7071122021423583 -0.15042760800908522 -0.6884961225661804 0.00037120093211146345 0.0024660767829618726 0.47819916657012573 -0.17533119651572882
86914000.0 0.6923617018742646 -0.7174980199573878 -0.16740835634484685 -0.7295176578554605 0.0012804100469754123 0.0007944390687651401 0.4662567047592043 -0.17054595299827033
87913000.0 0.6882254466751828 -0.72163357836006 -0.18515433715162136 -0.7539912398761299 -0.005829710417787773 -0.0024032029701913883 0.461678793769885 -0.18895961731593336
88912000.0 0.6796686987071575 -0.7294153189546537 -0.1948015333831526 -0.7866985093900791 -0.0029869871237688636 -0.0020729151118748235 0.46343080554591676 -0.19272476430667304
89911000.0 0.6727354959851474 -0.7373959292446751 -0.21289153536111835 -0.8221412532439822 0.0004094265340679877 -0.0004509533825342426 0.46735081103983905 -0.21637282786987067
90910000.0 0.6646581906907427 -0.7445828966748484 -0.2354115867112512 -0.8548589807957165 -0.00029168492595926847 0.0013292912157582839 0.46302568885965156 -0.21972262869592005
91909000.0 0.6559496171852192 -0.7466531259959771 -0.2498149673165829 -0.8860449172754249 0.0026875191104980684 -0.0011385355722188357 0.4731569905930584 -0.22119297376933214
92908000.0 0.6478047071349612 -0.758413553322188 -0.2701635979136803 -0.9190707450301829 -0.0003799243490781841 -0.003293823111878736 0.45822666667058687 -0.2389750343989156
93907000.0 0.640722612278127 -0.7620985874599774 -0.2867472105986897 -0.946435387490277 -0.0003080914545163882 -0.0007614466178268679 0.468673136004787 -0.25180507423091864
94906000.0 0.6292648193862894 -0.7717965620211976 -0.2998851056008134 -0.9848924273649325 0.0010113622765270068 -0.0003257615424756429 0.455077796728789 -0.251461596878074
95905000.0 0.6235379780022103 -0.7758348845688205 -0.3189681309344221 -1.0167417216939616 -0.0022479515885452345 -0.0012630855964885978 0.4601996060344903 -0.26834805235309594
96904000.0 0.6147623958149534 -0.7857927091732645 -0.34009502535797115 -1.0537365484198415 -0.0005978009370701744 0.002333886612731437 0.4574700099638018 -0.2660232764021206
97903000.0 0.6051754314737349 -0.7889110176227601 -0.3633768623898067 -1.0876235987917602 -0.00032500753037122376 -0.00017496857447838474 0.4477888233474629 -0.2923611331642677
98902000.0 0.6008574819598326 -0.7975799715896139 -0.3825723430017322 -1.12118987872312 -0.0012273549306613114 0.0043898631943031395 0.45340984928481926 -0.29549302698290103
99901000.0 0.5870006592703105 -0.8032911577082255 -0.4084100423371934 -1.1498356751845595 0.0042457576725409285 0.0025044238952421443 0.45716260546523896 -0.3089645168368599
100900000.0 0.5796369852237082 -0.8058485683518777 -0.4400346140755783 -1.1763820316361335 -0.002542680048836763 -0.0030680841869393798 0.4610159013320492 -0.3092074109315595
101899000.0 0.5720492927088946 -0.8144381316584174 -0.46531353848624896 -1.2181133557852515 -0.0012725325046569927 0.002114838795745766 0.4455822167221472 -0.31044308704491624
102898000.0 0.5608873145273283 -0.8192576832549828 -0.5000189837652094 -1.256096560784802 0.0007469698872170423 0.0027354092534922375 0.45885703345974277 -0.34298871677290566
103897000.0 0.5518203647344563 -0.8260046229485231 -0.5375553649840172 -1.2888795285665375 -0.002556259913108467 0.00033914041610326353 0.4542319703796631 -0.3320799470639697
104896000.0 0.5443821908333971 -0.8373220643387053 -0.5834398002979119 -1.3241058503206353 -0.0030006046995503183 0.0012014851394572233 0.44944611373148113 -0.3307978079910273
105895000.0 0.5330970675189539 -0.8394487050658258 -0.6266286741703392 -1.36142705125046 -0.0013215613840737402 -0.0025212544326634508 0.4382016706798877 -0.3504842947099845
106894000.0 0.5237900852604935 -0.8471253973478808 -0.6859897935722458 -1.394299045153409 0.0019304002908153367 0.0019830464305507483 0.4379399900031654 -0.363464398131409
107893000.0 0.5149256592256785 -0.8543925890918065 -0.7370863224096952 -1.4295062910461607 -0.001176475533812218 -0.00027976823147429926 0.4375926241156535 -0.3698071013117196
108892000.0 0.5053972340034419 -0.8555956638071923 -0.7980865991633966 -1.457738399372399 -0.0010752490071382688 0.00035040040298088565 0.42889043423262185 -0.38368083270571796
109891000.0 0.49335568673379576 -0.8646762386792092 -0.8533255208674182 -1.4938481301445437 -4.972042311616548e-05 -0.003693474493858208 0.4378106949424979 -0.37703533693802105
110890000.0 0.4879976716993879 -0.8769249601995467 -0.9275841904177233 -1.5174425796672164 0.004034362956768401 -0.0009080630907348457 0.4195034113966308 -0.3855475295298742
111889000.0 0.47444822120722324 -0.8708092361965976 -0.9718450636674302 -1.5605421638088632 -4.67865263724333e-05 -0.0012321496526859074 0.4138455243524537 -0.41203515624572945
