! Created with skrf 1.9.0 (http://scikit-rf.org).
# Hz S RI R 50.0 
!freq ReS11 ImS11 ReS21 ImS21 ReS12 ImS12 ReS22 ImS22
1000000.0 0.9772061781422469 0.0013806229623624397 -0.021622738392929983 -0.04438507181475447 -0.020034388935325907 0.0108158813495753 0.3627382811682149 0.30455905594174854
1999000.0 0.9978442603766537 -0.013386747916463805 0.004294419686960374 -0.029003932595342088 -0.01157360233108263 -0.0036424816368045934 0.2625097206370661 -0.06071535648161437
2998000.0 0.9987723041683126 -0.01762475537871458 0.00941182238225034 -0.012931248061674928 0.004171883235795544 -0.002558245988834558 0.17259883841264867 -0.13969254411959284
3997000.0 0.997339489737059 -0.030728910745954484 0.010174244120962878 -0.006282958663078434 -0.0018185967615806148 -0.007771747331692436 0.0878614239724689 -0.2274158467412068
4996000.0 0.997956809572898 -0.036338508128053414 0.008288317808510283 -0.00206312844186476 -0.0016444357475921482 0.0017762171778645348 -0.05642120694157633 -0.20375882775846993
5995000.0 0.9961883830143514 -0.04762329048072926 0.01188410755203208 0.004935185429316118 0.004006080419300756 0.0031487459313344224 -0.11380506507434464 -0.0979026692982075
6994000.0 0.9928475368757255 -0.05969330992971283 0.00751943730829735 0.00037331472082802566 0.0040302939152715 -0.0012301725687583508 -0.1548578830609047 -0.018623512683034808
7993000.0 0.9971451181699713 -0.06794845599271446 0.004234239882993763 0.004539290369459192 -0.0023939924223103214 -0.0023037291841752493 -0.17327689406923596 0.039202892686749286
8992000.0 0.9955870804544403 -0.07173148542093476 0.0013577527915403533 0.005264131525861068 -0.002078524166073578 -0.0020138309378763997 -0.16241267395479964 0.053417256457178215
9991000.0 0.9938949084841147 -0.08276218059333237 0.002795164092174662 0.0043573323530707855 0.0026997253229626185 0.0002598215147950301 -0.14136466915856008 0.08991577558499315
10990000.0 0.993949351360622 -0.09433254482838202 -0.0027042032730545916 1.9303578679431005e-05 0.0007582846583331633 -0.003491391247582052 -0.1394300613287157 0.11051347688798221
11989000.0 0.9943579959368605 -0.09756192063725797 0.002495025791313762 -0.0014383360878039372 -0.002149290814161629 -0.0031021035541000945 -0.1277799839477677 0.14068514622485281
12988000.0 0.9906938650171639 -0.10885232012848096 0.0031446508564667306 -0.005825832327163481 0.0017465631669084328 6.4826016217046e-06 -0.11636141822247148 0.16561986512871907
13987000.0 0.989991910658596 -0.11654368612474202 -0.0007375502214656683 -0.0033291516324763498 -0.001316276314942599 0.00028060657322509746 -0.09979633369322512 0.18228497474106437
14986000.0 0.9900897254309892 -0.12305318381085684 -0.0008785235917945321 -0.0035261537212714416 -0.002485208340554531 0.001428231437036098 -0.10138561567542928 0.20740657926498896
15985000.0 0.988571446104624 -0.1325900568655598 -0.0002585519103116311 -0.008268695073599836 -0.004349238853954401 0.0006017852734899742 -0.07024816013810042 0.21331311078426896
16984000.0 0.9857044040344788 -0.14416158278831812 0.0010468410254167026 -0.005151845265219104 -0.004316109478612846 -0.0023525896830999555 -0.0602273324920801 0.2129621829486363
17983000.0 0.9873469690492288 -0.15082268685546305 0.0013575086420944136 -0.0028394461610389762 0.000748923316308562 -0.003580009849415695 -0.06595218347929913 0.23261902473598947
18982000.0 0.983301277960078 -0.16004166148874283 -0.0007037273558362983 -0.0025055043407642805 -0.0006892290471781087 0.002562190433213534 -0.03128608440574861 0.2327336107163002
19981000.0 0.9837469175362099 -0.16640599720865057 0.0003142869366540299 -0.004454454180993405 -0.0037738913081896263 -0.0016641882231198469 -0.012398484277354693 0.23630340934410296
20980000.0 0.9811677011054215 -0.17338908521444482 -0.006125847229770736 -0.0073090643751721205 0.0015364817824496527 0.003573920545031792 -0.008286981269637637 0.25644983119807874
21979000.0 0.9799099631767528 -0.18569509306638896 -0.003451255742041723 0.0040363569719518155 0.003409813499609553 0.0014482922474005205 0.008669474923880397 0.2532103748221708
22978000.0 0.976636936324983 -0.19246019253277016 -0.010205202783501082 -0.005245264831981484 0.000753910121885884 0.0018337364632143875 0.01710669632094227 0.25532610876695133
23977000.0 0.9788493932009447 -0.20104651408602506 -0.005404590804266785 -0.0009604038859619953 0.005835644442766325 -0.000290675845770682 0.029854817571708922 0.2601420168095111
24976000.0 0.9748522489687982 -0.21082599496617138 -0.006525020419443491 -0.0029777564305438894 -0.0008513295572614443 -0.0008589125096830487 0.0724445162789871 0.2511706485266811
25975000.0 0.9701707136821237 -0.21507560197176914 -0.005689401542966924 0.0016827203764694784 -0.02808606327360745 0.006611195009483441 0.06418285892580794 0.2733275234780973
26974000.0 0.9717726716071335 -0.22615684861072438 -0.001523950935138901 -0.0036357063171946753 -0.003424512310219336 -0.0034156429850551165 0.08668649093452487 0.26707682229092544
27973000.0 0.9695661034179281 -0.23320864392851165 -0.002885532949671171 -0.0016163960525694167 0.0028397179612288694 -0.0009083914012688329 0.10569067209887949 0.2560240184207082
28972000.0 0.9668160834839606 -0.24208664587237225 -0.004241879866035987 -0.00284258395278284 -0.0024636054145967005 0.000933880631949725 0.10949500775444887 0.25153112589469556
29971000.0 0.9650181918084318 -0.2528091753571946 -0.0007511745592027937 -0.0008473544019732762 -0.00034563914474060575 0.0008904885230720172 0.14529657619049774 0.27368160718674334
30970000.0 0.9630610446018322 -0.2569373396753143 0.0038291329262719748 0.0003035055124438784 -0.0009692370787703689 0.0022774979925647976 0.17474617105834403 0.25782919788388586
31969000.0 0.9628448847128747 -0.2663027317607749 0.0031183235647745384 -0.0037205030574603503 -0.0013419540294552482 -0.0005390899215880621 0.14847919889759545 0.251043375584237
32968000.0 0.9594555192993104 -0.2777471261311097 0.004822599680387474 -0.006738026768285105 -0.0020465089010888505 0.00034158751889977647 0.1594641109795764 0.24657332258477055
33967000.0 0.9579735240845021 -0.2853422256223566 0.011561083536517996 -0.010238670639377582 0.001887426987390021 0.003170704297434851 0.18506983527084872 0.23302140369034968
34966000.0 0.9555096635739151 -0.29085778781195354 0.01816643184499316 -0.0115547858479168 -0.0019202139406974859 -9.822976392515723e-05 0.19492692466368014 0.25681862221645835
35965000.0 0.9507728295779204 -0.30039061852260773 0.017038115452921557 -0.012411101852088541 -0.0030396433138033933 -0.0011463231316475855 0.21050528048856462 0.25490818395342024
36964000.0 0.94949756189071 -0.31005626002968784 0.016880588564890567 -0.016239467423622173 0.0013111758624712061 -0.004015874567385402 0.20892030995744923 0.25624953624988933
37963000.0 0.9480010125955222 -0.318509362460297 0.020843660484430447 -0.021347429252952046 -0.000238586422811837 0.0006448805402885494 0.22209259297356407 0.23152485017008173
38962000.0 0.9435478832078324 -0.32898202442081653 0.024861343839456505 -0.025070206750170975 -0.00044448169409863603 0.0015455281353994193 0.2378815206125613 0.2337270497162354
39961000.0 0.9404397510856628 -0.3349907223774063 0.024853234225876382 -0.027117584737098667 0.003204721703490479 0.0005309453060655904 0.2562562861460113 0.23477739548059898
40960000.0 0.9369697100127921 -0.34327934919616737 0.023019066792839594 -0.0219520372791864 -0.0020926834376269673 0.0014908716459782105 0.26886871793794326 0.230969373801824
41959000.0 0.9344409995452124 -0.3522714355847555 0.028263121600481167 -0.031911640484412813 0.0017713279364481968 -0.001707564979132031 0.26177413733904337 0.22056952550250375
42958000.0 0.9295505449303516 -0.36025344273120624 0.030419366281459664 -0.0401345894475625 0.00264224686608488 -0.001310704904188823 0.2711688570460522 0.2018929058123086
43957000.0 0.9276101991633405 -0.3674905162873562 0.03314894205743176 -0.04633331437565234 0.00014342445375324325 -0.0008436200156027498 0.277346406773258 0.204917253931831
44956000.0 0.924862944965894 -0.376471841615032 0.033881612232000945 -0.052389841516178724 -0.0009263067520990634 0.0017720839158393952 0.2948221994847361 0.1996042663396313
45955000.0 0.920280382379968 -0.38625321955497016 0.0376463888568576 -0.0554427533653251 0.0001393596617646254 -0.002475586634331719 0.3022662460984891 0.1897785551571294
46954000.0 0.9159277416365368 -0.39515344888864834 0.03803386960190917 -0.06252554292731068 0.0015110748668658183 0.0007664232734693338 0.320426024814502 0.1904184785323529
47953000.0 0.9154845467148699 -0.4004242093908274 0.03208836498268674 -0.07210555009302602 0.0058091080414286135 0.00030681028828488953 0.34071015581706676 0.17414846672913914
48952000.0 0.907883618121663 -0.4137470168548874 0.03456196132698971 -0.08073675979801065 0.0005260430720399888 3.09850425549354e-05 0.32486830242659975 0.17544343330959786
49951000.0 0.9056028147976689 -0.416369867976225 0.03466168541955229 -0.08793595421598606 0.0009211503993492252 0.005081493356276161 0.3520640736568969 0.1574401476406545
50950000.0 0.9020631621348932 -0.4258422368638382 0.036018919587102044 -0.09117344383968327 0.0009263229553044687 0.002021917601554523 0.3543956659312932 0.14829123772871822
51949000.0 0.8984398897383808 -0.4354945444065699 0.03853745177908889 -0.10019782029377884 -0.0049604233609768945 -0.0035264119885195897 0.3488623765790612 0.14252199973902016
52948000.0 0.8962052060469914 -0.4410552688351764 0.03841343828498261 -0.11149089628851241 0.00032852822234556847 -0.002190172888670312 0.3798366199599954 0.1393076610899991
53947000.0 0.89040117653935 -0.4496288428396706 0.04089087503217671 -0.12026071274669425 0.0001139457898752603 0.0030113287564578037 0.36289430749034346 0.13814952938068253
54946000.0 0.8863548348751308 -0.4579887865259144 0.03918483546955771 -0.12763558951355886 -0.0012743181985440369 0.001176309339357416 0.3780908867669677 0.11982245394235583
55945000.0 0.8833008465505052 -0.4677058782741145 0.0445085163360912 -0.14095644064266769 0.0031290533006834644 0.00056259257298503 0.39073565671088106 0.10711175499204789
56944000.0 0.8783768359159436 -0.47547076312986425 0.04571791952613103 -0.14907722502881587 -0.0018934555010096212 -0.001718714857617867 0.3964120788477131 0.10654967897368106
57943000.0 0.8734996187153287 -0.4847205423305012 0.04764601728836092 -0.16058679711830984 -0.0012241854339430974 -0.001915584276851726 0.4020135491399897 0.0908610374622097
58942000.0 0.8687032049622706 -0.4895851860721271 0.04678976676067191 -0.16714387537308067 0.0014121808718975453 -0.0019002932319899183 0.41111278440897925 0.09514347637282423
59941000.0 0.8645697733426642 -0.4990439256530571 0.04967841769404876 -0.17967821508526186 0.0004408475251018787 0.00014288897765939957 0.4172672924576786 0.08979960637106477
60940000.0 0.8573560089472624 -0.5070098444675623 0.050768788369244644 -0.18815957369764327 0.0006371624020574051 -0.00022662621457906787 0.4169925714177709 0.07456259956462927
61939000.0 0.8553283631115607 -0.5129175697857292 0.04817041301408581 -0.19046437673817745 0.0006780504841597669 0.0017393005788634427 0.42808205431218976 0.06565630669132572
62938000.0 0.8495867962070054 -0.5235796816872444 0.053400100723309425 -0.20575349440711915 -0.0006213542657108908 0.001354799568743244 0.4366240332886045 0.06416981164100127
63937000.0 0.8446226572224659 -0.5302045984075023 0.0563495425302809 -0.22465291354112918 -0.000546080327074584 0.0001723892669719184 0.43164850843742 0.04397032371941977
64936000.0 0.8384008377883877 -0.5363568483768336 0.05446084469311057 -0.24077780057912918 -0.0020871366313793827 0.0004716623227514833 0.4324785454079 0.033645797343308914
65935000.0 0.8344732057898476 -0.5490260924189437 0.054432770842038306 -0.25581487088208565 -0.0030582985478622917 0.002103018295365829 0.4352412669202387 0.014909354265881644
66934000.0 0.8308493591670219 -0.5543223367037893 0.054785160648930395 -0.26653938462281873 0.0010577836152619782 -0.0013920686155643692 0.43605419984783117 0.001401720395706711
67933000.0 0.8274563087332223 -0.5604337017449881 0.05779031551949578 -0.2815652673398427 -0.00189025226172793 -0.0004124139760197826 0.44641629803754385 0.010345829386996283
68932000.0 0.8225691139952309 -0.5673930896002353 0.05182175006903719 -0.29300286083726595 0.0009175562021414547 -0.0019472016075488302 0.4554684742613831 0.00017988857055439378
69931000.0 0.8137609556274319 -0.5763681097192391 0.05639427694374508 -0.3107830870546886 0.0006487487816659903 -0.003413881433184652 0.4488419782372117 -0.01636389539554565
70930000.0 0.8075691078176629 -0.5834168514189354 0.051181086990681704 -0.3211339313442481 -0.0028925371651105495 0.0015961568715055 0.45310622492873764 -0.03347158191538302
71929000.0 0.8036909234926111 -0.5935403057287635 0.04824532691424185 -0.3407812513749809 -0.0026473523209292332 -0.0015996324645588442 0.4478158100870454 -0.03515792763294332
72928000.0 0.7973598261700187 -0.6009510274973475 0.044501638358427985 -0.3540992989516157 -0.004155052745120918 8.896933489761066e-05 0.46316826827853563 -0.050612422258794164
73927000.0 0.7915651310502677 -0.6083118864417927 0.03634502185457723 -0.3750426766329804 0.0018598664150898097 0.0006803524309841036 0.45907029996847387 -0.05699182193565532
74926000.0 0.7851151161832995 -0.6164182084992978 0.02975938649104803 -0.3942188893650061 0.002150430004375241 0.001378419639290844 0.4575583218081024 -0.055935696811544186
75925000.0 0.7814995846990588 -0.6217867994089281 0.02284355063696076 -0.4134555894682119 -0.001155252478024177 9.379400052774433e-05 0.4635593487270745 -0.07126080870808661
76924000.0 0.7726822111648476 -0.6301629373347832 0.0077032022409189126 -0.43556807723882324 0.0018835649263446357 -0.00042306049765999964 0.4727093078518899 -0.08998959992792022
77923000.0 0.7675360686341639 -0.6364050983851497 -0.005236945025936975 -0.45357597318711157 0.00221164963462641 -0.0013339285760702731 0.45960971426500785 -0.08600488194421224
78922000.0 0.7615860643320388 -0.6459406993062411 -0.017403847422046603 -0.48472847325590446 0.0016956761417058672 3.089465800916613e-05 0.46348692091346033 -0.1116653813057557
79921000.0 0.7538004721997723 -0.6479204384308311 -0.03801785292905241 -0.5048046524929767 -0.0027202375357196504 0.001870547634828336 0.459276485782329 -0.11544468647986422
80920000.0 0.7493799957929452 -0.6612912906801096 -0.05002218630519406 -0.5365072265082163 0.0006769811260552465 -0.0004771807364667715 0.45895538323075663 -0.1311370495493524
81919000.0 0.744082751988887 -0.6659005618293504 -0.06659489340124186 -0.5585009102569818 0.0013313386891286871 0.0033773416202287133 0.4738964235240133 -0.1282440998297739
82918000.0 0.7353804862707644 -0.6725314264517117 -0.0801030110485343 -0.5942082842286519 0.004464157832933098 -0.002581089593768891 0.4777854286324547 -0.1432124732259784
83917000.0 0.7272120773986455 -0.6806981686779732 -0.10109335914777823 -0.6189965374008309 0.0003028112817871981 -0.0011512072856802958 0.46685528315577896 -0.1488362638523873
84916000.0 0.7236948344403721 -0.6869238407497024 -0.11347599026747109 -0.6581435307186548 0.0012654181868910657 0.0008783765870748879 0.46589018367567425 -0.16154614957852292
85915000.0 0.7156334344039411 -0.6928815794269755 -0.13474911656512797 -0.6860349177978607 0.001094723637525859 0.0057578023060836465 0.46247868239462403 -0.16671386174680383
86914000.0 0.7080781197348623 -0.7051361061367812 -0.15620741500184024 -0.7189095153462935 0.00034051082216943993 0.006048518650775121 0.45292704625189006 -0.1662874083824096
87913000.0 0.7017211408340788 -0.7093853686935747 -0.1739941447269452 -0.7509344367244979 -0.004871748777568118 0.000584409718081036 0.4651290406153032 -0.1823372851237169
88912000.0 0.6940762935453088 -0.7172393878687968 -0.18509523177301274 -0.7857587251917059 7.246348803014971e-05 0.0020028941526497356 0.46336575867005875 -0.20001034679516166
89911000.0 0.6851253320372342 -0.7267769109120552 -0.20421149201110694 -0.8195350423158229 0.0010958539936613049 0.0005267178420611639 0.4600196912832616 -0.20663566695189076
90910000.0 0.6802906996474936 -0.729965706751436 -0.21850863770148773 -0.8541791932626548 0.0019093374368485468 0.0028126089243349526 0.463370597715485 -0.21797783195268783
91909000.0 0.6703270825512249 -0.7362275590185164 -0.23676756596888587 -0.885529921307106 0.0013100390202395703 -0.00016640955133268915 0.46022389797574126 -0.2247201233668549
92908000.0 0.6632497186201659 -0.7447324147868619 -0.25594860918751944 -0.9200734289522627 -0.003737021711788976 0.0001853583311933681 0.45545080060939797 -0.2342426496803228
93907000.0 0.65589354972837 -0.7509008219856457 -0.26798900778537554 -0.948668213189527 -0.0013415634935749347 -0.0011623065927744778 0.4650671474465478 -0.2510059938147512
94906000.0 0.6453441835956572 -0.758657389649145 -0.2865023597557972 -0.9814912708177082 0.00012194638162145833 0.0010498996802806606 0.45475860257146056 -0.25159914720096405
95905000.0 0.6390322326433856 -0.7631826870938635 -0.30657990266218976 -1.0132416966033535 -0.00046085663324817356 0.004527098736335668 0.45553363162690663 -0.2765139348419926
96904000.0 0.630002490651331 -0.7747040237549561 -0.32916620042618433 -1.0543726191541531 0.0017725990697881043 0.0006906583642346973 0.44658284316606367 -0.2702333257015406
97903000.0 0.621657218875937 -0.7791883537524387 -0.34851448223336556 -1.0830657460665114 -0.0022595688116351814 0.0005264352856587177 0.45574975364379366 -0.28546413761210243
98902000.0 0.6171948160299005 -0.784352527167993 -0.36386697099261905 -1.1234045976052691 0.0033778034959440436 6.458727014045563e-05 0.44696484986723056 -0.2955975886930813
99901000.0 0.6048868563409099 -0.7919427353735947 -0.39515315801810796 -1.150905383532598 -0.00021340664288545822 0.0007424139363807488 0.46659427791632785 -0.3063084540536559
100900000.0 0.5989892162170279 -0.7940867206317648 -0.41928457663286556 -1.1832851697569773 0.002808911029553379 0.0012943894651353492 0.4612750615539646 -0.3099101439343124
101899000.0 0.5891577869434544 -0.8031108524219376 -0.44854552807643383 -1.2201454481817458 0.001526264931717203 0.001932039620170943 0.4523219628953032 -0.3169874889716311
102898000.0 0.5795114107455601 -0.8080838306764284 -0.4770618757384827 -1.2530517464916924 -0.0011607807762949503 -0.0006361894370296414 0.44815806653028584 -0.3292796559732105
103897000.0 0.569955432948693 -0.8151447257157884 -0.5180325398887051 -1.293264245717965 -8.176277269777112e-05 0.00039482958710692213 0.45839263266190367 -0.3322768704654134
104896000.0 0.5638807208555627 -0.8255590443501972 -0.5567954271978144 -1.3236597093213207 -0.005193289713850628 0.004569514839117307 0.43317867082109646 -0.33358951720740293
105895000.0 0.5521565445861083 -0.8266712961194003 -0.6006012353955786 -1.3604785226313958 -0.0022181798124216007 0.0017722454146548874 0.4378893618728472 -0.3538627278869458
106894000.0 0.5435759372841054 -0.8343343654085611 -0.6481742655512096 -1.4018429164204347 -0.002135428768815058 0.000868875813863526 0.43150657397535935 -0.36216795348711867
107893000.0 0.5343427075290647 -0.8406269614368246 -0.6998442671354235 -1.4358946339413914 -0.004437166605892796 0.00019000336363813838 0.43324969243257044 -0.372645793937196
108892000.0 0.5262098731899981 -0.8449463515740901 -0.7541204649976716 -1.4777794965338014 -0.003181277387246519 0.007163068664496659 0.42667137706918745 -0.3613215450521644
109891000.0 0.514606491418462 -0.8518347583809788 -0.81431978201676 -1.510157767467087 -0.0014102964797998146 0.0011893215491465086 0.44869556102804803 -0.3759803796818728
110890000.0 0.4990391110344764 -0.8547560290491781 -0.8759205580140275 -1.5093290728493884 -0.0029302307371834382 0.0039523249300842415 0.43239151758157407 -0.3830501986417751
111889000.0 0.49249984601289604 -0.8590562905323922 -0.9354027712308226 -1.5750790207394987 0.00027943310621068905 -0.0008834808879174726 0.4210590909624034 -0.40000113248079
