! Created with skrf 1.9.0 (http://scikit-rf.org).
# Hz S RI R 50.0 
!freq ReS11 ImS11 ReS21 ImS21 ReS12 ImS12 ReS22 ImS22
1000000.0 0.9845456228539391 0.0031023394783847294 -0.008322758130265145 -0.05519746364823935 -0.013784284853140233 0.012383328547183456 0.3248474321172295 0.32990732282239804
1999000.0 0.9975643890969159 -0.008039223839835683 0.007222266207801704 -0.021739329812890864 -0.0037435631555287736 0.00045594059339288165 0.2705449288991732 -0.06321714145064869
2998000.0 0.9967685000954903 -0.02043626188020733 0.008225439538744213 -0.012217842606862449 -0.003201260881759354 -0.003495957174654364 0.1840998518963536 -0.13683213663734356
3997000.0 0.993893201191619 -0.03355315950497175 0.009784167359364894 -0.004400548091060775 -0.0039699463745742165 -0.002042416078668849 0.08900167715461213 -0.23877081859372218
4996000.0 0.9959102432858512 -0.039897310910346165 0.010280637090590662 0.004831325452096097 -0.0009456910249699989 -0.006374982801891798 -0.03947448584898679 -0.2109226538349974
5995000.0 0.9944285162762786 -0.050727746094707114 0.0065339552136429195 0.0023326956814399306 0.004705249078202852 0.00046070968791117253 -0.11265870261323148 -0.12139898420704956
6994000.0 0.9910566981170926 -0.060517340163674244 0.008451337148378743 0.0029543886406045933 0.003223974410752572 -0.0015701482149506163 -0.1568896090221192 -0.022875884766420936
7993000.0 0.9938571999990513 -0.06956688757919093 0.009318437810759481 9.970282081494703e-05 4.084838548448473e-05 -0.0030326431919343675 -0.16619109267191853 0.03736639213937833
8992000.0 0.9942212774916201 -0.07197527565505372 0.0036317330355144207 0.008605438846052723 0.004580318083732133 -0.0003619230511274511 -0.14807655098631045 0.06493563497193663
9991000.0 0.9911207362999149 -0.0825408267195967 0.007137096919529331 0.0059919685571058305 0.0011908818578699515 -0.0014360438607146414 -0.145983705365262 0.09499723923587661
10990000.0 0.9907835832664664 -0.0923723662935021 0.0020800632272378497 0.002384756914382022 0.0017835836452253868 -0.0001798418962325576 -0.12994575647264797 0.11044395119584988
11989000.0 0.9906203840811213 -0.10217575922385722 0.0034218845789397555 -0.00488431810201939 0.0005013036001322991 0.0030274450031205187 -0.13368911457857924 0.14143320731424963
12988000.0 0.9888153544346328 -0.11138003761586486 0.0041056378534414465 -0.004987670805384885 -0.0061752718600189185 0.0007075395040154889 -0.11895817799898209 0.16901888235390297
13987000.0 0.986085820648367 -0.1178816570346571 -0.0003593286134275719 -0.005623243996869443 -0.0045009630433500095 0.0010965058851631511 -0.098633739973999 0.19481996855515493
14986000.0 0.986265472708646 -0.1285134385338397 -0.0022295204351089606 -0.0023158868465086007 0.0004471209232927639 -0.0015153628937168242 -0.08946480936848764 0.20268351048881647
15985000.0 0.9878721760760882 -0.13758232518275818 -0.00034411401672887015 -0.0024110301885956805 -0.0031272228881113243 0.0017509917904069867 -0.07496759643606538 0.21661314325395686
16984000.0 0.9849788637803651 -0.14500506829397714 -0.0009643628505919952 -0.0023948810205098037 -0.002161332629534576 -0.0016380585368994467 -0.0703487501706832 0.21987251110446435
17983000.0 0.9857223491372653 -0.14969235138547096 -0.0020081651280193288 -0.0070373183769605815 -0.0006316843204055338 0.001713100012644562 -0.050870465350537485 0.2176685331516243
18982000.0 0.9808352935919836 -0.1586862801578232 -0.0030986308229605294 -0.0023164037464999386 -0.0013389500129149955 0.001571428345650839 -0.01487769682952146 0.23087556439246412
19981000.0 0.9817152820742273 -0.16789876329181286 -0.0035376618443810916 -0.006956480506902191 0.00018029375953688227 0.0005394716631539204 -0.017839765252575 0.24836997726853585
20980000.0 0.9790423871744545 -0.17741530503523512 -0.004016169305550009 -0.005606553425390501 -0.0008625789182116213 0.0012356318908177586 -0.000504885876997495 0.257590498177342
21979000.0 0.9766185476956114 -0.18705089780836323 -0.004858002347708047 -0.006889517345080359 -0.0015968270201466574 -0.002142410779876153 0.007663584730226047 0.24231032349877843
22978000.0 0.9749906015654062 -0.19550031771618023 -0.007882352338767985 -0.007264517167693864 -0.001637804923844682 -0.005478171064673877 0.03201426317406392 0.26527333513073226
23977000.0 0.976577180093559 -0.20160534230399904 -0.0003730408287188885 -0.0002986303061056009 0.004137753947010885 -0.0028208249830139836 0.03354492702696535 0.2557862401022494
24976000.0 0.9730095416187733 -0.21234188478683302 -0.007970361107800476 -0.0030302303582007716 0.0004089179544759009 -0.0012131159036333852 0.06849744773194072 0.25080888470128015
25975000.0 0.9757069936176552 -0.22014532836196427 -0.005314346306787225 -0.002068342582005451 -0.0006104237004314189 0.0278108455592109 0.06767999663956197 0.25647946052600173
26974000.0 0.9693762859452517 -0.22742683086872012 -0.002753734663030688 -0.005978507674597672 0.003273053775767877 0.002579760731333749 0.08602132630059205 0.2757389571982477
27973000.0 0.9680654719402785 -0.23495105308562905 -0.0003173578995862857 -0.0012000259436887942 -0.004409400087326299 0.0008095648604422174 0.10581375478226239 0.24381637032586478
28972000.0 0.9647088817558799 -0.24810483022972277 0.00027377230855438363 -0.004099886468112234 0.0006993441774744787 -0.0021953673027938956 0.11416258029227748 0.2582630553815417
29971000.0 0.9636789571004416 -0.2535637239271525 0.00021737590149127764 -0.00502356984949479 -0.0007312402932430094 -0.0010064267277988387 0.15626459076916083 0.2651612380510144
30970000.0 0.9598300630452121 -0.2602850156417464 0.0036282442455613582 0.00021147123120284864 -2.2910401068830452e-05 -0.000626138529461257 0.1655051866940237 0.24430136680415104
31969000.0 0.9594866894504636 -0.26914984528583613 0.005866309369189397 -0.004896950208564582 -0.000763826830904742 0.0012654401345836234 0.14538953060647314 0.2501155257536593
32968000.0 0.9580642087722315 -0.27737443282616736 0.006125850661418947 -0.009564995393856343 9.150172536053424e-05 0.0013832174224557199 0.16197280140653325 0.2509081835443391
33967000.0 0.9550126478083474 -0.2876644124393726 0.00930500345581209 -0.009321923991077436 -0.0012083761368205373 -0.005485350608198411 0.17705540468463568 0.24315328225002408
34966000.0 0.9509125052539648 -0.2982305441644579 0.013378543035090416 -0.012515460035421538 0.0008010984259507153 -0.0038485653646572362 0.20373968273389728 0.25010417123368994
35965000.0 0.948715291945905 -0.30499470591470323 0.015233167927454825 -0.010300441654315684 0.0009803686318818863 -0.0017846710219102113 0.20728639598193213 0.2510883401132391
36964000.0 0.9452745847528721 -0.31349525218938395 0.020075718118574698 -0.013901201534886528 0.00166505197011852 -0.0003257896954991594 0.20812569580816634 0.25242417766205877
37963000.0 0.9436053063890233 -0.3228034256021418 0.02161035477811955 -0.01927174463855843 -4.5694231207833825e-06 0.0015867996729275892 0.22788384874825773 0.2357307473722535
38962000.0 0.9408214193812762 -0.3321391458446305 0.026745161873302996 -0.021413509308397347 0.0014928700864702364 -0.0001349145858361835 0.23127793740014616 0.23003174836733747
39961000.0 0.9365834471844894 -0.3404504710380336 0.025811717530291354 -0.028826401231274945 0.0011732620341012503 -0.0003650743129303904 0.2456116603456747 0.23613616903863102
40960000.0 0.9334477312404591 -0.34541205090158533 0.023369766940651612 -0.022038438885493384 -0.006295193304787746 -0.004041569143668771 0.2634297473940825 0.23481272372231
41959000.0 0.9314805069315646 -0.3567704130901489 0.028861953432245843 -0.03228145005672565 -0.0029471510909123443 0.00312349757415212 0.2693684634555761 0.22901228576996033
42958000.0 0.9266406861881866 -0.3649066787723769 0.03443275018595141 -0.040554737371629755 0.0014195610925010808 -0.0016873693806505848 0.2775003628444473 0.20535698973056676
43957000.0 0.9257483231791482 -0.369941127763588 0.032908606339344726 -0.04649339414800817 0.00030490358651031626 -0.00039602806631114677 0.279691637125452 0.20838470939846923
44956000.0 0.9224289364953241 -0.37653642362075046 0.03614677978706849 -0.053811928600220015 0.00037519376059407113 -0.00034264741803824943 0.3021343781103916 0.1901619541492118
45955000.0 0.916598189246502 -0.3881467295366967 0.03624855999045955 -0.055259798807705186 0.00045395851416088636 0.0002747004196317152 0.3057344734447965 0.19091515161828568
46954000.0 0.9125609523902467 -0.3997655284596282 0.0398624070325713 -0.06430066637306033 5.167207366214983e-05 -0.0018257907691892692 0.3151323238004123 0.17521584909234697
47953000.0 0.9109933666275576 -0.40645794716992384 0.0420031210001023 -0.06811332856079466 -0.0016242376520640282 -0.00034463463206493427 0.33663788473630823 0.17254879950397808
48952000.0 0.9045659482174327 -0.41714589630307597 0.03937502026535586 -0.07844009174142275 -0.0011993248974040422 0.0017951254192581597 0.32871322751976945 0.1692601651881986
49951000.0 0.9023334986022371 -0.4210672637622718 0.0401328688757 -0.08505250595053547 -0.00015637368571271482 0.0020691550535087287 0.3557830204578348 0.1563354238165488
50950000.0 0.8974470325299311 -0.4328154997469716 0.04187718883789598 -0.0933555394192289 -0.00038851799896794066 0.0018778456469353245 0.35038237443590864 0.145691939013985
51949000.0 0.8939241962462428 -0.4399173650192825 0.045142437883512715 -0.1040209038127587 0.0012241183220622364 -0.00018498623667866557 0.358834579140262 0.1508544273603895
52948000.0 0.8915444811562311 -0.4476706521415791 0.045833673926757926 -0.11289293024532417 -0.0008401063512612722 -0.0002569434133782609 0.37898419750386386 0.14851229869392063
53947000.0 0.8851231727983697 -0.4570034717902559 0.04825373518343035 -0.12118695970729432 -0.0003531533133925058 -0.00014801358573081935 0.3712539701266371 0.1308778085169908
54946000.0 0.8807022100657006 -0.46308292757279523 0.051515061957724505 -0.1298496461439222 0.0009440477922808109 -0.0022131455768834383 0.3786052101268044 0.12752967354242806
55945000.0 0.8776320239878476 -0.47418780344816347 0.05056781690529829 -0.14142261908433257 0.003313703258912709 0.003054095791944204 0.3858126854802907 0.1144289432421987
56944000.0 0.8731876539370202 -0.4811499569125644 0.05436440847065311 -0.15331229361028417 0.004290035330157646 0.0008223186935660494 0.4006954431747481 0.10850767798470398
57943000.0 0.8662137318179318 -0.49323280471806835 0.05565267578824547 -0.16033382976533192 0.005103355314439996 -0.00336386842732843 0.39461646918311044 0.1052247027921452
58942000.0 0.8641907905176894 -0.49608366742960897 0.05924645819360678 -0.17407254524350818 0.000408964458275899 0.004778777600452976 0.4167348473195518 0.09864416377181097
59941000.0 0.8592324047105098 -0.5040648793324076 0.05915718325924083 -0.184174376100267 -1.5411986175204814e-05 0.001235931763163576 0.4128042522079568 0.09395689189404662
60940000.0 0.8521583710742793 -0.5120270117611286 0.0571631792618938 -0.18804284718000466 0.0012528297710402087 -0.0006943950679197961 0.40790795504356875 0.08385812433142026
61939000.0 0.8501542645786226 -0.5185546447114147 0.058200223224163884 -0.1928593817922724 -0.0030643960912869984 0.001690248948588629 0.4217237620483651 0.0722556230408675
62938000.0 0.8432040241329795 -0.5296161900725374 0.06477448026572481 -0.21621608586299776 -0.0002762214453689315 0.0012303478844161511 0.43825151408936036 0.06046753919644161
63937000.0 0.8370921498325797 -0.5396409362878892 0.06346498546391964 -0.23716499144069403 -0.0017645102540422362 0.0031670566385178216 0.42613985772890656 0.04511032717490857
64936000.0 0.8308955320650805 -0.5434574813279202 0.06278109313373902 -0.2513686137894363 0.0008829895947882907 0.00025428330186547864 0.4345226184406471 0.044433887177848706
65935000.0 0.8284904779472041 -0.5541975828103306 0.06327417312055024 -0.26479357311776025 0.00065008392630069 0.001775115302864994 0.43612818983573215 0.02543155816052159
66934000.0 0.8239141943471704 -0.5600670830661743 0.06571985180357287 -0.28029971413008326 -0.00020152847579063665 -0.0028014763339713404 0.4387120679472753 0.02004225764368053
67933000.0 0.8203959311840204 -0.5679658371290514 0.06566562015980819 -0.2964725927705086 -0.0002502787015185695 -0.0032449507967028065 0.44439330745671357 0.022569776311777826
68932000.0 0.8086813731151866 -0.5747770200369325 0.054835769703180506 -0.3089588114479173 -0.002623884472891226 0.001126369205820336 0.45170862995325944 -0.005468630084338032
69931000.0 0.8082638468403016 -0.5836018667644214 0.05766443921681653 -0.32756272958602917 -0.005811971328585934 -0.0011064657625950562 0.4411200992982477 -0.01516582367509597
70930000.0 0.8007014597111053 -0.5895343017301921 0.05869442395298582 -0.3402654796914715 -0.0015889638834670917 -0.0015059091336588602 0.446400932776577 -0.020827478032925523
71929000.0 0.7976879861726487 -0.5997865166147235 0.057565708084894376 -0.3594963541819231 -0.0013660098008384928 -0.0050609080439199036 0.45233709469108696 -0.028145492293200042
72928000.0 0.7898937346974978 -0.6079574994147525 0.04739386369561179 -0.3751776147142734 0.0006048005908544418 -0.002400999422232983 0.4661896576565072 -0.045801428582508324
73927000.0 0.7830134332271526 -0.6146384873588927 0.038676272665559334 -0.39978556757583394 0.002027468643192726 -0.00018636310164366768 0.4614997455571501 -0.04608291194277633
74926000.0 0.7803643070105934 -0.624453307642674 0.0334407064399832 -0.42004037531784355 -0.002809438279201688 -0.0039051404443318375 0.461701596240991 -0.05505979998620497
75925000.0 0.7718900429218566 -0.6292964001987413 0.02423163218386531 -0.44070510456547457 0.0005346564102212073 -0.0037230021144513703 0.47830041773841603 -0.06746002730074144
76924000.0 0.764696565876838 -0.6392689610493933 0.014062852194069697 -0.4658723443047545 -0.00036551000243142533 -0.0027989096491417113 0.47652502339749175 -0.0765060021241467
77923000.0 0.759229641304877 -0.6420955975289567 -0.00011036947973077926 -0.49319171194356864 0.0020979115515442474 0.0011289271871122639 0.46133351943224965 -0.08744118984354082
78922000.0 0.7539511052735637 -0.6544107328595486 -0.00790036364262708 -0.5198338999372341 -0.0005328518791392461 0.00035823043573484124 0.4590146286769729 -0.10410222330738501
79921000.0 0.7444645675304493 -0.6557880424159173 -0.03111213429766952 -0.5434924934973837 -0.004622997606224938 -0.0012387743797671528 0.46497879117515356 -0.10545098631256557
80920000.0 0.740070525979431 -0.6675003703980458 -0.040294368241394714 -0.5722597625870938 -0.0035430541319425427 0.0029516896821862684 0.46488080694135553 -0.12658509202332682
81919000.0 0.7356894608185097 -0.672930351928467 -0.058308764123226484 -0.6022401388967876 0.003596343154108894 0.0036588057452253586 0.46559476250969073 -0.12209493302158253
82918000.0 0.7242734128734618 -0.6821556215597933 -0.06991954903571047 -0.6330184054414555 0.0014267466172860964 -0.0029371174758532695 0.4718951571465861 -0.12686225970949283
83917000.0 0.7185459105628416 -0.6880023761284674 -0.09145245291901327 -0.665957251427669 0.0003151510878157819 -0.004420372437158721 0.473460683371369 -0.14158031346029826
84916000.0 0.714471700985675 -0.6952161038724837 -0.10624193940860427 -0.7017039782178084 0.002779453323882677 -0.0007546438060817427 0.4663251476948126 -0.15806085330470415
85915000.0 0.7073201044995362 -0.7029961999234171 -0.1261904045790417 -0.7305162702918927 0.0020639643509448927 0.0017407587618129706 0.47152526952560064 -0.16730368287581024
86914000.0 0.6966438874357331 -0.7125650880891018 -0.14404219266665566 -0.767286465156777 0.0008318341741002977 0.00039784932442430473 0.46638589361344973 -0.15481189235773832
87913000.0 0.6914724650763525 -0.7180027216426357 -0.15801038452093616 -0.8000813284807651 0.00022889295736732153 0.0007375252871364083 0.45991679523790524 -0.17823354412145528
88912000.0 0.6858365709749037 -0.7249443886612172 -0.17804210678868915 -0.8368300911148243 0.006040918541214458 0.0031170780673270594 0.4669888488809039 -0.19836408497731714
89911000.0 0.674735737515305 -0.7343629731254685 -0.1928101542406349 -0.8716731421368348 0.0010443310856327707 -0.0009480383764289707 0.4769689785379982 -0.20462116381845413
90910000.0 0.668971139032919 -0.7379703094657662 -0.20946302734382924 -0.9103757682726173 -0.0008742618652672363 0.00197075274103284 0.46538785903792435 -0.2003201550121632
91909000.0 0.6601207316082194 -0.7431885673703742 -0.2328505803567972 -0.9382600741561493 0.0018521574376030856 0.0018172404426304112 0.46287450940081665 -0.21901406933563256
92908000.0 0.6515569180173063 -0.7519304214791347 -0.24643785290476372 -0.9761063936788296 0.0004234048344902697 0.0009017533852291697 0.4603024624548455 -0.22376855598141027
93907000.0 0.6468666567042934 -0.7570924221521502 -0.26858376855696214 -1.0097068130961284 -0.0012205482938326623 0.0004919472989235507 0.4635399606473355 -0.2384731459851752
94906000.0 0.633222242396968 -0.7652832178636583 -0.28962293302552095 -1.03953285474279 0.004233594973802885 0.00430181233484109 0.46203102172704386 -0.24627632753852724
95905000.0 0.6276576275897694 -0.7712353476056334 -0.31130620198611025 -1.0789849681130796 0.0028468967588733355 -0.0013523864867768002 0.46239922314219095 -0.2448077342885602
96904000.0 0.6171930534408315 -0.7812827393833701 -0.33259482091632697 -1.1208085088379889 0.0009281736472717823 0.0024855697433405883 0.45309272742697926 -0.26633659188662206
97903000.0 0.6085403552299579 -0.7849231293200608 -0.35668363087994415 -1.1574933749539564 -0.004398960323004282 -0.0007673260011612174 0.4574215304054164 -0.2731547330920091
98902000.0 0.6043397478297554 -0.7930563498756362 -0.3810002709947994 -1.194612346528316 -0.0034901650060298376 0.0006048148996062698 0.44862690665151106 -0.28960881142205663
99901000.0 0.591849406191538 -0.7980120738583621 -0.40934320998550106 -1.2303782801966905 0.0006226661628523072 0.0010008638927060881 0.4597377882554787 -0.30929108321120513
100900000.0 0.5852870773487204 -0.8012426756068307 -0.4454702007320114 -1.2598244803879555 0.0005102099282792152 0.0016388713631427328 0.4612372600322908 -0.3114867433614229
101899000.0 0.5772486753239493 -0.8089112095111217 -0.4720085835840547 -1.3043485914325106 -0.002641938815099138 0.0006559698475704229 0.4529988780418736 -0.30663655885396923
102898000.0 0.5653869685130102 -0.8179202143734243 -0.5165886042763554 -1.3448488396350748 -0.0014640589921779406 0.0006179674927428734 0.43606432587078436 -0.32989078312808073
103897000.0 0.5585536948578488 -0.8252957037363307 -0.5546014241884474 -1.3826747682677027 0.0028490079516900785 0.0008409950345339161 0.4751132293264329 -0.3191741590292178
104896000.0 0.5513914599861718 -0.8327265422852319 -0.5985831524391351 -1.4187010660660784 0.0018169587106246742 -0.00017559641690285488 0.4329473612616976 -0.322584480776018
105895000.0 0.536582876357368 -0.8346707278011213 -0.6536172210349163 -1.4616159292466655 5.8779153794855365e-05 -0.0016040031046853248 0.44235275409776903 -0.3448927150174655
106894000.0 0.5303488833078247 -0.8402775772440577 -0.7024242025877273 -1.5082370307478181 -0.0002802639179404981 -0.00036408396598263125 0.4384272398067787 -0.35589786658592004
107893000.0 0.5219587243505711 -0.8469926624064251 -0.7579963964943585 -1.546775673264086 3.0802794417901885e-05 -0.0008459736024082893 0.43959480062426864 -0.3692434886536383
108892000.0 0.5112095755600893 -0.8519654106990924 -0.8182389255558015 -1.5865635611614457 0.0007328535262139773 -0.0006598652118309763 0.4235219387005983 -0.36936824227901166
109891000.0 0.49786507361957166 -0.8578480117560328 -0.8814190877175537 -1.6187297540995396 0.0006062488809327384 6.335381574271824e-05 0.4389668672317273 -0.3719842580792406
110890000.0 0.49274313427446653 -0.8618575688211916 -0.9358024165257519 -1.639384185608902 -0.0003933855428301936 -0.0021117546072383017 0.4442061472203345 -0.371164841087712
111889000.0 0.47742684593061685 -0.8656091989123863 -1.0076411705434205 -1.6960344917559567 0.0003054858885681301 -0.0015034041369178617 0.42847318188541544 -0.39210574631722456
