! Created with skrf 1.9.0 (http://scikit-rf.org).
# Hz S RI R 50.0 
!freq ReS11 ImS11 ReS21 ImS21 ReS12 ImS12 ReS22 ImS22
1000000.0 0.9914993325991178 0.006887953240273981 -0.019034962584132595 -0.05874632877474704 -0.008401666742472532 0.011977490035935366 0.33429558737421533 0.35894274545131616
1999000.0 0.9912152441470218 -0.011928898378307273 -0.0017598181822070416 -0.02427789065471862 -0.006616372206949542 -0.00017266405860700792 0.24246591568017015 -0.05930120433968114
2998000.0 0.9986702902433996 -0.021097389737218 0.009454505719775838 -0.012680827232464999 -0.0018690558147565629 -0.007277247374235995 0.17554357148531455 -0.1314929537852894
3997000.0 0.9959151085706405 -0.03299454260524676 0.0055619393565390285 -0.003840221252373648 -0.008066364750203786 -0.0035514152528914157 0.08307524269669178 -0.24672495686923476
4996000.0 0.9947280048637814 -0.04287134820052634 0.008133408925145226 -0.0037970559661490324 0.006422362333449388 -0.0077646765752857035 -0.042516428210435664 -0.19052698152174372
5995000.0 0.9939067087709319 -0.0514681493141517 0.011713993489901884 -0.0022028619381468887 0.0077971503488138885 0.0012448790277338022 -0.12690369196320223 -0.10270174290200083
6994000.0 0.9937594207574647 -0.0589430151752363 0.01245860897170427 0.0039831550382291026 0.0015156232405104488 0.00026295996408884473 -0.1543429862615067 -0.013652649956706378
7993000.0 0.9962452026144843 -0.06848081207597538 0.006684396849391003 0.005649587824970209 -0.0012032413606356234 -0.007216391580482293 -0.15634585322431624 0.035962411648283045
8992000.0 0.9932275942870428 -0.07327838115306262 0.004738509821199742 0.006143850949273884 -0.0009845395749251782 -0.0007697720576483334 -0.17215036432979303 0.0799316057422189
9991000.0 0.9926909124357745 -0.0826139834853606 -0.005086705576523682 0.0035781276004584954 -0.003942128468253955 0.00010847614810050565 -0.13989524997565672 0.10059471300346018
10990000.0 0.989712729579488 -0.09160974293883442 0.0025200013231803085 0.0013265077991740175 1.197529086219969e-05 -0.0026065656218125445 -0.14320205590763252 0.12103976425054411
11989000.0 0.9881776891628552 -0.09810116200004766 0.0013442086301891465 -0.0007302568744086005 0.007778036605344844 0.0007764447870851205 -0.12820734124623345 0.13754849237840397
12988000.0 0.9865556939453097 -0.10806255370889674 -0.002572128663551678 -0.004588918257273261 0.0019890119778725175 -0.0007164726042945797 -0.11686392122289167 0.1699601594415873
13987000.0 0.9861495850668132 -0.11694923057699934 0.001112261010506654 -0.005812176675369282 -0.002738618239603822 0.00044139771570575996 -0.09284809635056106 0.19420196037351664
14986000.0 0.9849959719368137 -0.1259274886522068 -0.0024864299653675013 -0.005696261386964485 0.0016415281288223629 -0.0009593217431002759 -0.08558157482364163 0.20504552590572522
15985000.0 0.9859027159171951 -0.13226304227220215 -0.003145299868067606 -0.007901855049919219 0.0024760218029481725 0.0030048788734864636 -0.07051562900839606 0.21016784216999104
16984000.0 0.9856532969867079 -0.14249033175704484 -0.0031790114065460844 -0.0037157861426553983 0.0037674049488845497 0.0008958842748950339 -0.05917123635392219 0.21738322228311058
17983000.0 0.9824970911993861 -0.151829176187402 0.0009165164081490304 -0.0011954671797207983 -0.0010738057168992387 0.0007043223761059361 -0.04927370518641215 0.2331630804227859
18982000.0 0.9799610167308462 -0.16298001337846926 -0.004434759070542376 -0.005876665577744076 -0.000684701036816921 -0.0017579021538489657 -0.014680826716018147 0.23281416783783637
19981000.0 0.9822823723416572 -0.1671786288400704 -0.0038256591036608402 -0.00789600313188115 0.004977476523790181 0.005737131937764514 -0.01536944425478681 0.24482635612937795
20980000.0 0.9811784221882657 -0.17578390458783633 -0.003966259332119261 -0.0013327123212369851 0.004030265132692069 -0.004282519990929007 0.004796086799596728 0.25977788142954117
21979000.0 0.9789082986078906 -0.18333273081914442 -0.007891111070457854 -0.003607885090533997 0.001459788222195039 0.0016664325312597112 0.008107374418741785 0.24156386350496287
22978000.0 0.9754914080865176 -0.19274879635002437 -0.004019611534932693 -0.0006759798435693442 0.0029379810130849065 -0.002243434093806321 0.03056630442858158 0.25997160864953944
23977000.0 0.9753134244740634 -0.20091834686428095 -0.00586895973303046 -0.0025739786766340988 0.0005131249308857622 0.0010123196292848825 0.041612928613355415 0.25315484134835303
24976000.0 0.970858519342443 -0.21272227559472764 -0.003403736249024206 -0.0013294273075195305 0.0012622266955521929 -0.0012943052084942682 0.06614569166151428 0.252399991870899
25975000.0 0.9677287468638427 -0.21604553278958744 -0.006171125620132501 -0.002303098849277699 -0.02853256263882375 0.002722785720268712 0.06930078362764296 0.27310638139485977
26974000.0 0.9692572147448216 -0.22649966365120855 -0.007500784591035024 -0.005851635712233935 0.00018844286542015298 -0.0005813392167205324 0.08038542248138351 0.2781203199489916
27973000.0 0.968455280595565 -0.2365740423684845 -0.0037757058264854372 0.0033751248916660736 0.0020662814286579365 -0.0019649819873432226 0.10137710663725823 0.24615662292706644
28972000.0 0.964093874182769 -0.24493415038385116 -0.0018181615520478551 -0.004589263362322425 -0.0011164700344796828 0.0017800571679047097 0.11164765936141935 0.25861531481935957
29971000.0 0.963584518660743 -0.252505753048013 0.0017154668214887123 -0.004860485469392066 -0.0008606844892251782 0.0021961887626195053 0.16075891192023864 0.26648360917553815
30970000.0 0.9626631299057844 -0.25874783960643777 0.003187859144982983 -0.003770744222119602 0.004843698627615063 0.0033743377355178834 0.16925080769463877 0.25296391540832935
31969000.0 0.9598566831689362 -0.2675537031717715 0.003996562968722643 -0.0051548338506235926 0.0005369525815992054 0.00578090698944923 0.15631924030451252 0.24623997470682954
32968000.0 0.9567358704675594 -0.2775278516918284 0.00768262271619164 -0.00903316784052838 0.0011400477248452979 0.0006298258331626765 0.16898913496756265 0.24135596556313849
33967000.0 0.9544134324627329 -0.28834765322385497 0.014049556137672626 -0.00943913308095534 0.0006210842649194694 -0.0020529377709152417 0.18463921271956393 0.2473094724152304
34966000.0 0.9514379161620208 -0.2961813957126136 0.013766470148522768 -0.013610413529714352 0.0006683138299021037 0.00011451431608227882 0.20222110494427867 0.2475286607023822
35965000.0 0.9479041293613413 -0.30451490255768726 0.014599020414696557 -0.015327002269891955 -5.154142810420316e-05 -0.0028371756453848566 0.21929578935835584 0.2500812687501718
36964000.0 0.9479972623091322 -0.31365069968739173 0.014544398801014952 -0.013429164537194222 0.0024489238070004075 -0.0005550976563016918 0.21788322471041316 0.24594270007420752
37963000.0 0.9439758208440676 -0.32050551175723746 0.02016499364713064 -0.019796633199137197 -0.00019563001384582045 0.0011051644025694477 0.22849442799986455 0.23779555776972522
38962000.0 0.9393356550461832 -0.33315661837033617 0.02618314814810883 -0.024473711163290807 -0.0014084356800097837 -0.0015254449562915663 0.23406496415032838 0.2308578953843803
39961000.0 0.9371762434956341 -0.33776414314786585 0.028683795887125062 -0.024408541032920162 0.00021685911045020255 -0.0006764187834461331 0.2504008025286189 0.21788595898089347
40960000.0 0.9347269457764427 -0.3480501060888263 0.02224345169399293 -0.024390015908502455 0.0018399953887073457 0.0017754152511555439 0.27874715100879516 0.22904630399218393
41959000.0 0.9300194936040754 -0.35698350944605156 0.029171189968422086 -0.029733864092583575 0.0001989011110721389 -0.004021688324052237 0.2647074254930197 0.21950058481210807
42958000.0 0.926728129105269 -0.36512782518598597 0.030727104986935115 -0.040712083706215124 -0.002245824706775427 -0.00403366293964147 0.28897129288025597 0.20837677268859245
43957000.0 0.9254242420697594 -0.36990097263269184 0.03285840585964963 -0.04398364238103232 0.0036664739864646022 -0.00017362435286377739 0.2891856418773271 0.20634657624006833
44956000.0 0.9210450239305971 -0.37912654446989835 0.0351532782324136 -0.049377964672660576 0.0002632183002070235 0.0003935441661632469 0.3129159941082208 0.19021237711375127
45955000.0 0.9175767542671868 -0.3877349972203887 0.033640673563846785 -0.05520885819631394 -0.001529747408995472 -0.0006418242571573938 0.31106039196448737 0.19034149935287228
46954000.0 0.9144980709879671 -0.3982109955592476 0.03334151074786936 -0.06281385259717567 -0.000581270767977073 0.0011179259025250036 0.3263540550657845 0.18096080273948523
47953000.0 0.9108054804963037 -0.4048850050852677 0.034772634490352644 -0.0725769648724052 -0.0020354008234156184 0.0025672213732631285 0.33385035242711203 0.16331642550672326
48952000.0 0.9046365853723229 -0.4175911056834231 0.03512999173073161 -0.07624640603234181 0.000415227236173069 0.0030500639725692755 0.3380625330122653 0.15869143570883415
49951000.0 0.9023430370357155 -0.42127510509186433 0.04048803915207948 -0.084723369922765 9.709865291610028e-05 -0.0006813203431156072 0.35332776523128884 0.14737842410835864
50950000.0 0.8991811348752653 -0.43146354188671615 0.03878614575835918 -0.09534059790210735 0.000340238625470373 -0.0009258060770010269 0.3551600326011899 0.1526226965812154
51949000.0 0.8951830977891857 -0.4388100114600362 0.03911527517581896 -0.10198151474125083 -0.0014638987858980696 -0.0026804531320555034 0.3645560476457907 0.14654232368118097
52948000.0 0.8929187561953578 -0.44620490689876463 0.042322194163663535 -0.11015861749192916 0.0006299596852640233 -0.0006984687349531494 0.380790419391671 0.13388515941475854
53947000.0 0.8844557428664952 -0.4568373324329746 0.04282204862209223 -0.11790693237366143 0.002066254835420981 0.0012690915204190021 0.3834629839710864 0.12885860225064658
54946000.0 0.8800883357414292 -0.465178267954213 0.04516174254856848 -0.12623585679681829 -0.0053133352615386195 -0.0004434115175447419 0.388700538162088 0.11183802193687621
55945000.0 0.8782630509174845 -0.4708642779083078 0.04265507222299015 -0.13684564622526907 0.0042769232099316495 0.0012921190507642671 0.3925013346789404 0.09110100383689755
56944000.0 0.8728187444814055 -0.48120349020648523 0.04427815826432371 -0.14705001683699157 -0.00012794112561576327 0.0014330094157115408 0.3954548856265041 0.10554402060343629
57943000.0 0.8696343837344754 -0.49081783774813975 0.04721599322691488 -0.16051442425400878 -0.0021564571014869856 0.0027830464874928603 0.4069628417475961 0.07820875104028359
58942000.0 0.8619580393538898 -0.4951955867798075 0.04913203923760927 -0.16742636340183714 -0.0028790363533188887 0.001823496931576326 0.41818189512468795 0.08060633250362212
59941000.0 0.861403100653136 -0.5050444731894048 0.04909325198082653 -0.17804797917684176 0.0018674326243975962 0.0010260816688141868 0.4173695949288947 0.07924194615543176
60940000.0 0.8522115312268541 -0.5124610612953736 0.05248574875657139 -0.18313995993289414 -0.0007658683041712139 0.0012365832678659003 0.41216415250072774 0.0666531023187731
61939000.0 0.8498318686226553 -0.5179864186581788 0.051107641962779435 -0.18916457407729478 0.0017776994246507288 1.2102090582526404e-05 0.41512665546890465 0.06797493312693544
62938000.0 0.8444707246197238 -0.5291931405755734 0.05795874117796877 -0.20580772066342704 -0.00017102730726237432 0.0009668768519799103 0.43348396020646207 0.05239748925027266
63937000.0 0.8379582026289446 -0.5358644553129724 0.05557910983088402 -0.2215979806017341 0.0013569213705601337 -0.0004299179929395942 0.4302681236834644 0.028787523987439858
64936000.0 0.83158589532765 -0.5427027260260544 0.05836732815412513 -0.23969216543967112 -0.0005575090191530872 -0.003445289131516245 0.4322370488541906 0.038492911023590475
65935000.0 0.8293743650371449 -0.5549804803848803 0.0543575750977767 -0.2527747313802936 -0.002044678236377397 -0.0022129547766469642 0.4312644429430222 0.017784149426070758
66934000.0 0.8240585836110058 -0.55710258703135 0.05580388773774853 -0.2675734192279808 0.0008694021669945743 0.0006095111743628155 0.43293796712311666 0.003801894678067644
67933000.0 0.8206626374097789 -0.5680448800866229 0.056562826528332895 -0.2807432320081389 3.929079179067236e-05 -0.004447418918597782 0.44942321784344663 0.007634008202894542
68932000.0 0.8125649717114772 -0.5586359876677534 0.0523992720465222 -0.28980427127674385 0.0004996669576411073 -0.0005047960198047126 0.4547347752656667 -0.01770537740698042
69931000.0 0.8049005006608563 -0.5854723991691689 0.051877050891908055 -0.3082205912919647 1.7228396892854186e-05 -0.0002750852594243005 0.44628027370136514 -0.02249808696410922
70930000.0 0.8014181815000676 -0.5883554828818414 0.051857101126730906 -0.32063737279321014 0.002026001964028503 -0.002621652584430792 0.44451117931012535 -0.03307754063668531
71929000.0 0.7967544155066576 -0.6001662412670714 0.044831908705619865 -0.340137089812418 -7.898161785732714e-05 0.0019711724418860184 0.4482804704529718 -0.051191008266610945
72928000.0 0.7911273782029469 -0.6080382502752039 0.046527365960562866 -0.35600710273140884 0.0018163567708579188 0.0008582735323238125 0.4573755232278788 -0.05809276554128001
73927000.0 0.783831138169352 -0.6139734974134783 0.031838682218729875 -0.3753370319345999 -0.0003772955602266114 0.0008093187345695684 0.46155054886751606 -0.061876862830178
74926000.0 0.7766117064917805 -0.6234786624014688 0.024622627860474467 -0.3952968284781823 0.0015808612412680579 0.0026165455520316123 0.45610369618773927 -0.07448210548771031
75925000.0 0.7694201224446333 -0.6271934520690451 0.019765026513954807 -0.41146345200017787 -0.0018004198649327605 2.7345315805468426e-05 0.4634877546768501 -0.07989947931377321
76924000.0 0.7660697784921502 -0.6362741061091421 0.008001602833103449 -0.4383316901426946 -0.00184129624687693 -0.0002781074523379972 0.4696944387941267 -0.10429353161088359
77923000.0 0.7585184689571725 -0.6438604668985874 -0.00571358701111458 -0.45755417868527487 -0.00324710843594374 0.0003302300336311003 0.4634668095737069 -0.1105699498442923
78922000.0 0.7530235075301469 -0.652324251988223 -0.02235010508859235 -0.48631690469027383 -0.0016710652535458295 0.0019793136960552294 0.4488027575840849 -0.10813807139449605
79921000.0 0.7451261894247623 -0.655810346428244 -0.03774992444026478 -0.5084272838447541 0.0019817857982942864 0.002512668625839682 0.4661007358312984 -0.11971632003416308
80920000.0 0.7396687781145619 -0.6678882462197632 -0.048582098793831574 -0.5353682158808332 -0.0013784608194939757 0.0009725409254216484 0.4781374841601912 -0.1283675535560405
81919000.0 0.7365738590010709 -0.6726382819801967 -0.06685760759683662 -0.5625743633684593 -0.0008195919352111598 0.0008687128362847104 0.46038584200157323 -0.1364496255344897
82918000.0 0.7236341275687252 -0.6785362940947595 -0.08184119065915038 -0.5970925920755444 -0.0005846382278757454 0.003172018218605831 0.47766341603634804 -0.15326976499455683
83917000.0 0.7161117498982355 -0.6891001023506579 -0.10240712272848261 -0.6213854807721803 -0.001583387274800095 -0.0005654206804514043 0.46928590637350465 -0.16123372298684358
84916000.0 0.7127705753534164 -0.696665978550955 -0.11514047944401973 -0.6597736721106726 -0.003585365430087717 -0.00011788083913818287 0.4645767325067174 -0.17276589738250406
85915000.0 0.7042912105057773 -0.7010030644100688 -0.13378421526047413 -0.6861635894334084 -0.002611764756872928 0.0016572825274395716 0.45886998328967493 -0.17231232144200667
86914000.0 0.696068425506916 -0.7124974008046084 -0.1521528955210245 -0.722943809663357 -0.001821046617964417 0.0021632825801777165 0.4602375537154658 -0.18657316787524325
87913000.0 0.6879625707152714 -0.7176003566664632 -0.16669632895893136 -0.7482045086262283 -0.0032212115572246547 -0.004002412183346727 0.46111396003915667 -0.18631066962739143
88912000.0 0.6842516561905341 -0.7249632069046753 -0.1829330367876993 -0.7856461474923875 -0.0059531987166694215 -0.0020370858578728484 0.46511555140138106 -0.2086153035172378
89911000.0 0.6743374622232495 -0.7347046481051469 -0.20151140954437224 -0.8199795730190114 -0.0008676666399700042 -0.0028886850090107026 0.4709786343841747 -0.21700076877655972
90910000.0 0.6688504396347412 -0.7376177734317505 -0.2137717724153745 -0.85188189661149 -0.00022101888979838964 -0.0035935922764850897 0.4689187419414331 -0.2172952691479123
91909000.0 0.6593322742136543 -0.743664618771964 -0.2318830161501702 -0.886890399011118 -0.001644500828029854 -0.0022727615041638494 0.47248297483846297 -0.2328440392898138
92908000.0 0.6523458811186018 -0.7523416127056877 -0.24899530837545056 -0.9163170420640523 0.00045618188795755525 -0.002688655821069049 0.4528411790742421 -0.23566966295993674
93907000.0 0.6462066896170052 -0.7568689664659473 -0.2661722918315365 -0.9460546412164297 -0.0011843093360687678 0.0015494258652482714 0.46154484063185747 -0.2534289754213462
94906000.0 0.6331652893262877 -0.7655894552678728 -0.2828614099017378 -0.981612206222193 -0.00047673033054677764 -0.0005396235022659411 0.45710743906774237 -0.24740183666644483
95905000.0 0.6260947710341243 -0.7747197758781735 -0.30946692081673155 -1.0150807032414766 0.0035095852410294425 -0.001535550515498696 0.46467183602786255 -0.281141283684014
96904000.0 0.6177149760188212 -0.7830221521643352 -0.3239352917219832 -1.0572089517394343 -0.001066562587529643 0.003777556591251291 0.45684617298390956 -0.2843782845857886
97903000.0 0.6099311279222139 -0.7843427627820224 -0.34180462820664315 -1.0863529873850941 -1.0691295557928324e-05 -0.004468057320057935 0.45084486767328763 -0.2979724133282405
98902000.0 0.6061997448834002 -0.794464226276615 -0.36450916541525047 -1.1228497930218795 0.004249370587465049 -0.0031039639526558517 0.44604315489251467 -0.3024397095530483
99901000.0 0.5944836969750094 -0.7996742441469059 -0.3902542243395351 -1.1518268740284485 0.0010437019205174931 4.001072166477715e-05 0.46162557454359016 -0.3201483224058816
100900000.0 0.5856408409851438 -0.8021398217986772 -0.4183233769311793 -1.1792590103742664 -0.0006334455536767153 -1.1811873160498589e-05 0.4548013864261981 -0.31837684785456377
101899000.0 0.576479956873581 -0.811248159862341 -0.4484937378093685 -1.2191830595713598 -1.022105225545309e-05 -0.0012013738432393938 0.4625797533962963 -0.3252310815002491
102898000.0 0.5660039365928299 -0.8149762265357314 -0.4783008799290191 -1.2559230391421785 0.0003087165877380789 -0.0015022191843573815 0.45548394053142777 -0.3353151000834331
103897000.0 0.5577126947368227 -0.8220573764217384 -0.5149861650020837 -1.2926783959208286 0.0005080252443448179 0.0025418170714967647 0.45710577446246503 -0.3376181913790636
104896000.0 0.5492429666324984 -0.8341187298836613 -0.5649855441566701 -1.321738139343036 0.0003504463657676382 0.002556328371418909 0.4309752448501523 -0.3435446979948188
105895000.0 0.5400631687330416 -0.8351865736887932 -0.6064209135471117 -1.3619270628446616 -0.00031122637207020473 -0.004369833867392675 0.4347219555563953 -0.3634313374479744
106894000.0 0.5314563236190497 -0.8411169227968986 -0.6581912724479658 -1.396270649399438 0.0021039135733334504 -0.0012365991262908412 0.43681261177891206 -0.37046017087925315
107893000.0 0.5234428029714556 -0.8472200467661196 -0.7042191534166143 -1.4366314382993943 0.0020181562138343045 0.0002018524616281527 0.4359368275125884 -0.37895003993173004
108892000.0 0.5127405373321882 -0.8525993870806492 -0.7688059379610271 -1.475243715952 0.0018512351641953606 0.0017766122987434756 0.42712437807247194 -0.39011999807393116
109891000.0 0.5002865515898078 -0.8604720966326441 -0.8230483062020828 -1.5095333069720198 0.0010237320592182053 -0.0011061571357532589 0.44408621653716324 -0.3703755419175351
110890000.0 0.4956450968547898 -0.8636182454474929 -0.8802570930041144 -1.5271288715481566 -0.00016908579732111524 -0.0008030418633553811 0.4246088087949453 -0.38276279140838343
111889000.0 0.4815995210074817 -0.8669023990913649 -0.9446251372831649 -1.5789157347093485 0.002290882038533191 0.0005460843457296776 0.41595720218597737 -0.4085880773769762
