! Created with skrf 1.9.0 (http://scikit-rf.org).
# Hz S RI R 50.0 
!freq ReS11 ImS11 ReS21 ImS21 ReS12 ImS12 ReS22 ImS22
1000000.0 0.9778960785416178 -0.0008484237425999706 -0.010283911851976985 -0.026786144631707774 -0.00891132258459574 0.018280123790449944 0.3833676744577404 0.32344112104348144
1999000.0 0.9961498281586968 -0.01137403238297441 0.008001320818661277 -0.02073229884086561 -0.004548558822087064 -0.0031024892106361847 0.24705423646600524 -0.04289127992213766
2998000.0 1.0005956380351804 -0.02049210495801835 0.007871683922132987 -0.013505826959710133 -0.006306018390213358 0.0011990393032719658 0.20089075179269894 -0.13518539254728756
3997000.0 0.9984181279302143 -0.03238184516941672 0.009883389289929212 -0.009410552442609974 0.004742367722082516 0.0011378927080572612 0.07504051474473167 -0.22328919926242674
4996000.0 0.9979904464514164 -0.03578355984181087 0.009401090689487412 -0.0023022424342655796 0.0006565582347814415 -0.0057481062993964965 -0.0446406994596457 -0.20995721266973325
5995000.0 0.9975703116400331 -0.04897554591648158 0.009372618683642475 0.005663662182654965 0.0033643046572567168 -0.004182087557447927 -0.11896031832126591 -0.10754704396171512
6994000.0 0.9928763456852261 -0.056977489903920396 0.009454870834837472 0.0081346457505745 -0.0033632601955265696 0.00013830101874743412 -0.15240270936625705 -0.02573573243632634
7993000.0 0.9965176080811876 -0.06904985714509926 0.0012993399093457747 0.0070847500955560395 -0.0021150703844928687 0.0017421939272196964 -0.16108211218211432 0.035947622288528956
8992000.0 0.9959069275436301 -0.07405860211107664 0.0012921977760136187 0.008671023674570694 -0.000806780646860592 0.0038897194159954788 -0.16843318799562468 0.062340337564297466
9991000.0 0.9932545849045505 -0.08390107535293666 0.0035764377289565076 0.004716589208495523 -0.0018265839828017763 0.002547306170814965 -0.14896094290145423 0.09524340031492833
10990000.0 0.9933998796609012 -0.09268362007230437 0.007365529144464788 0.005868528581769011 0.003440424416685314 -0.0023795032628629686 -0.13659271744698778 0.11588048319474403
11989000.0 0.9909867855345961 -0.09892844521576506 0.0010335498043140907 0.001906531090489296 -0.002526626395517151 0.003012727748482429 -0.12356260442279911 0.13300157830738274
12988000.0 0.9902433337727704 -0.11178748802790771 0.0017107696049195866 -0.0030395438851385714 0.002216056781694127 -0.0005607240467212624 -0.11465449712111135 0.16982643954904394
13987000.0 0.9887326847207825 -0.11812581223777392 -0.001934035975241955 -0.006970804706163407 4.0278329747571346e-05 -0.0025134903059774146 -0.09368743567607188 0.18280466336516665
14986000.0 0.9882986442520235 -0.12556326871188206 -0.0032372041809896083 -0.004928204246841176 -0.0007833124398136448 0.000836631734065948 -0.08757452945499411 0.20789676047811897
15985000.0 0.988447072466048 -0.1339578785637454 -0.0006355480131723396 -0.0027876313476298637 -0.0005103443325515886 0.0015900434499036414 -0.07166690130905613 0.21255029155284172
16984000.0 0.98706625130323 -0.14275971973630672 -0.0016514179082527478 -0.006426083720183089 0.0020971976903269964 -0.0030667944897379597 -0.06066059520862444 0.22516830205580762
17983000.0 0.9860447627770631 -0.14951449465829464 0.0005370416185148724 -0.0019084485705616818 0.0034941155454396053 0.0035394024860585286 -0.0671985982186087 0.2224693686759236
18982000.0 0.9841679209742832 -0.16180486961200266 -0.0025565626423362893 -0.005804454086235027 -0.002640777271988761 0.002517350725772553 -0.01607021192008044 0.2326254220390448
19981000.0 0.9848332052003841 -0.1646522412077591 -0.0012259849531052228 -0.0028937254304545867 -0.00493532738125787 -0.000787825119891044 -0.019961165649565772 0.23514730293684127
20980000.0 0.9834735601886117 -0.17565321062803615 -0.0021301436042972474 -0.0028217615234940622 -0.0013300908393542401 0.0002965817186239456 -0.006043957336416393 0.2729352232651148
21979000.0 0.9795512109499552 -0.18645894831430423 -0.004228935388686334 -0.004353723320965214 -0.0007514701147772266 -0.00103162351049048 0.014272127036326014 0.2560096577780201
22978000.0 0.9756730648693392 -0.193446260388952 -0.005128658106627033 -0.007467826945894557 0.0030577047909576076 -0.0028179023157581056 0.03158281484030813 0.2519415381511608
23977000.0 0.9783202534102275 -0.19908791941589044 -0.007102059069039756 -0.00028761934947974275 -0.0006227814338983437 -0.0046638427916587755 0.04128128321996162 0.2562167809249686
24976000.0 0.9741314041623972 -0.21159251487138242 -0.004176594969635617 -0.0013058215903079767 -0.00015527703122385824 0.00010843363911307668 0.06239333188966515 0.25960787653188816
25975000.0 0.9720828287589005 -0.21582745098131995 -0.009557315877913568 0.002136863258957203 -0.018811416872341526 0.013400129968958679 0.08000174845504592 0.25990217425836504
26974000.0 0.9723493027220617 -0.22635164223817844 -0.001522262076205019 -0.004011394428605592 0.002423513350672389 0.003847133455849002 0.10178873863058126 0.25245601409551566
27973000.0 0.9697491314397155 -0.23283017234009243 -0.000992121679404617 0.0007324308700972142 -0.0019497705247936501 -0.0007428746032641681 0.11097769721099822 0.25111198844687604
28972000.0 0.9674169893435529 -0.24118453160693376 0.0017569438635875508 -0.0019722262667103006 -0.0017779749020824704 -5.4725466950860217e-05 0.11222935996155899 0.25351119533980904
29971000.0 0.9655965107159837 -0.25285341607563305 0.00016407141813061215 -0.002599804631693076 0.001453950993266836 -0.004524456342023689 0.1517604623932252 0.2663815455323332
30970000.0 0.9635133094503769 -0.2569414025278569 -0.00036532379894422087 9.796499423244254e-05 0.0031391534105700853 0.00030605256579744645 0.17214053945728214 0.2518845272488088
31969000.0 0.9619680631449724 -0.265807439990137 0.005759230289459704 -0.0073406040447275105 -0.0013854336998435257 0.00015366964383989112 0.15547289324670172 0.23945718754194809
32968000.0 0.9601308893125896 -0.27355149157300496 0.008559705240479136 -0.0071529163171194735 0.0010593329473232496 0.00045207250126438447 0.16986908428462663 0.24583566919652325
33967000.0 0.9578953606212374 -0.283092545539987 0.011396658763120342 -0.01085731123285099 -0.0020484704511401367 0.0008428965023339014 0.18215942806969262 0.24047260694374833
34966000.0 0.9547229284547656 -0.29074418388465906 0.014344913339571788 -0.011770363311307574 -0.0004409388855759424 -0.0006603468051463912 0.1884401090736669 0.2503884026633512
35965000.0 0.9510144017826072 -0.2996878832453356 0.017710088076622242 -0.016609426243199454 0.0005832581416800244 -0.000987869248412949 0.22131913808111353 0.24485029108423173
36964000.0 0.9501737662570717 -0.3092585604277616 0.01854298230136528 -0.014357371989025501 0.001421631465036374 0.0030649135654400653 0.22338166167198492 0.24248706312226814
37963000.0 0.9463004285488364 -0.31864245603699537 0.02240925087587759 -0.022310521037886572 -0.001504690303414792 -0.00041429398721017156 0.2281590520460818 0.22978940200852024
38962000.0 0.9437421058042894 -0.32808207854298527 0.026767163844577217 -0.02353244497470584 -0.0003924584471716122 -0.0008923197069238396 0.24103357082194918 0.22744332411134957
39961000.0 0.9403522551896648 -0.3342142518575645 0.02564416821808171 -0.0275882152928153 -0.0016771767583393005 -0.00010752667988213616 0.2556130341726619 0.22981043213275937
40960000.0 0.9373203537009966 -0.34395051758332695 0.02444438194564574 -0.02576668163550341 0.0003285801829752716 0.0018018743305713463 0.26632118204603056 0.22093134745799442
41959000.0 0.9352459234259713 -0.3523947301352594 0.029963274875158607 -0.03320045270603534 -0.0004479769826833156 0.0016762603548956684 0.2765743709097335 0.2199835833099487
42958000.0 0.9296731501755052 -0.36130565941699905 0.030499041601052983 -0.0410974424287843 0.00010863843350236218 -0.00023663408530081386 0.2897439463974489 0.207767304554957
43957000.0 0.927420607350733 -0.3685993972298348 0.03570402634230252 -0.048320881870658854 -0.0010322445522526406 0.000642834547056041 0.29218383475830095 0.20696380488127358
44956000.0 0.9235169001302284 -0.37584395205437837 0.035810040936997974 -0.05279935499549714 6.30361854621286e-05 -0.0012495812307643846 0.3133065876405258 0.1910583527251544
45955000.0 0.9216967641207832 -0.3862607537626328 0.03480628051174027 -0.05798581183063707 0.0008196207150255914 -0.0005025568632840847 0.3127225667135388 0.18928444970756653
46954000.0 0.9173627385699356 -0.39482476393137766 0.03523138757708836 -0.06448402780102204 -0.0007778032824441902 -0.0014011067925194152 0.3338247233070569 0.17043751650081881
47953000.0 0.9141069508730925 -0.4022730508379822 0.033630143897658886 -0.07295587612305643 0.0017061163377257718 0.0023571790374609224 0.34031130663435244 0.16566098363169218
48952000.0 0.907987865478294 -0.41379871297307286 0.03812939630153583 -0.08401283240898634 -0.0010737652119943203 -0.00015457216675324273 0.3411795680116301 0.16420230667502045
49951000.0 0.9051429161822229 -0.41725124375505646 0.03587082889701964 -0.08767552514522364 -0.004441539876019886 0.0026516158851962795 0.3575126411149859 0.1543665149926866
50950000.0 0.9017771903259749 -0.4271618978523137 0.03709492786104479 -0.09817913462963444 0.0010461910128675062 -0.00031924696333130836 0.3625477780347842 0.13794240986020506
51949000.0 0.8972619042132982 -0.43459481105568437 0.041396793772542684 -0.1033721533897963 -0.00027654579700854 0.005621137715322573 0.3665413899561978 0.13947839825212557
52948000.0 0.8962744564488218 -0.44072680973293327 0.038704623390839375 -0.11539681430149314 -0.0013311686900543465 0.002985356593845867 0.37904203186118 0.12568682929626415
53947000.0 0.8890295654069356 -0.4511915491145145 0.03962344755869145 -0.12279970975524994 -0.002792481613855147 0.002265923250880522 0.3777387621210798 0.11963409085722297
54946000.0 0.8849480978799182 -0.45817685839063776 0.041463617999905916 -0.13153964495237883 0.0074183983940239685 -0.0018675858941538982 0.39354976007042275 0.11843716256949377
55945000.0 0.8826971495509751 -0.46504162867380316 0.04365814787423195 -0.1455364252200517 -0.0001956707701355554 0.0027043849539130334 0.398748930952001 0.09464118673007187
56944000.0 0.8782432371045785 -0.4752349679696048 0.047760884795587696 -0.15377694979818204 -0.002815273907348892 -0.0007568271963298515 0.4001934269601831 0.09122878572092587
57943000.0 0.8738822000166796 -0.48541149569206543 0.0456418757190942 -0.16456197127554337 -0.00026880866636079065 -0.0011184568625947687 0.39982435672402106 0.08584342701839628
58942000.0 0.8681735452255744 -0.48968491351731197 0.04580217113146884 -0.1754579144133534 -0.0037240417268559673 0.0016310507364382086 0.42946308100447594 0.0878876940375209
59941000.0 0.8648484826544139 -0.500147130583949 0.05029621188529705 -0.18655183827665517 0.0007102796230445683 0.00111876089555037 0.41855136399189463 0.07440982565316577
60940000.0 0.8582486678139031 -0.506017154109088 0.04834812352501811 -0.18948912548750546 -0.0005839125787517913 0.0018237813426865165 0.41960560251343204 0.07532268425932319
61939000.0 0.8542894043041014 -0.5135142326691088 0.048244738500314174 -0.19444289247675345 -5.6439814020699404e-05 0.0007730372188501333 0.42746847585939546 0.05471344422795414
62938000.0 0.8496734253533686 -0.5231974861993063 0.054089882979940364 -0.21492786643349987 0.0001709887622419097 -0.0022568086041252744 0.45024945440325626 0.04081419049129939
63937000.0 0.8435977243668309 -0.5316105203973154 0.05126875097826777 -0.2349123344412089 0.0019991004097235435 -0.0038219732882822668 0.448827438277235 0.03114187777763809
64936000.0 0.8389127581365592 -0.534515705645504 0.05037010596363671 -0.2484851936362648 -0.00012488891796495711 -0.0015252129321489975 0.438648736299471 0.030379606514350243
65935000.0 0.8353257092284059 -0.5486906719555752 0.05176559170147798 -0.26187074073472943 -0.001342587678134099 -0.0051707661119627605 0.4480599953920041 0.01379585997889548
66934000.0 0.8330510986767639 -0.5510985320987859 0.05230620837106577 -0.2744641491394508 -0.0007684587905436874 -0.004138561738522833 0.4431199787948699 0.01485145618118533
67933000.0 0.8269499854225366 -0.5605982821358502 0.05242130582503467 -0.2888291744331901 -0.0002851166014597681 -0.003731333617900178 0.4526489094418919 0.000713965878703064
68932000.0 0.8227037434342752 -0.563517494173189 0.049283114246933345 -0.30271297784854506 -0.003994294655418916 -0.0011676071505159107 0.46027889555210133 -0.017524416645008433
69931000.0 0.8141405869999088 -0.5750581654375876 0.048868788200676985 -0.32044437829488814 0.0005447243375678876 -0.00039875863004858723 0.45207800940919507 -0.029559326969160516
70930000.0 0.8071731019534506 -0.5826012906575513 0.04458448276444299 -0.333411351601467 0.0002840442150093771 -0.003801182567442788 0.45412001301702754 -0.040995492525700075
71929000.0 0.8038433106799303 -0.5936561856025161 0.04289614659800287 -0.35320778915484385 9.994861867193858e-05 -0.002303547244709772 0.4530794694934039 -0.053349104292627916
72928000.0 0.7984854369428308 -0.5992357827952338 0.03675647436687242 -0.36656465097207264 0.00019897901187957808 0.0005919967011364394 0.4600045553728142 -0.05235526208223515
73927000.0 0.7914799612205387 -0.6058824276337238 0.02953317315870591 -0.38864144220833524 0.001721867758261613 0.002176808891740184 0.4577138142299637 -0.06949815434972535
74926000.0 0.7853098141353663 -0.6156552257292034 0.023557483019844238 -0.4011365034426683 0.000532119938942238 0.002912597967914746 0.4644541746255508 -0.06734802053110668
75925000.0 0.7801538455840938 -0.620844865635007 0.01606680480511974 -0.4247352472418603 -0.0012387068589079645 0.0018876373806942799 0.48149994546108654 -0.08232598249016326
76924000.0 0.7746449298656375 -0.6292854407242087 0.004092246824685303 -0.4462343946723133 0.0005340914135974015 0.002680363162729545 0.4661673399557341 -0.09524808345890765
77923000.0 0.7705922645831697 -0.6356134928512627 -0.01611730380869938 -0.4708252810505699 -0.0008024554848083422 0.002393233561293383 0.4685134882792637 -0.10441276224866507
78922000.0 0.7626110682030466 -0.6452071326327758 -0.027952259874461198 -0.49616509979058443 0.0021581864040181005 0.0014471430704707192 0.45308643995084386 -0.12257787949573277
79921000.0 0.7531521962540477 -0.6499362467794086 -0.04406423230135525 -0.5237798197524818 -0.0007368122710706959 0.0032387912798332104 0.45397277613898107 -0.11824405105402357
80920000.0 0.7497081786274779 -0.659875303029345 -0.06273169802734214 -0.5493567839926038 -0.003969656683352904 0.0028537868880334463 0.46677690248851905 -0.1354146471812541
81919000.0 0.7451444170002334 -0.6649271115719243 -0.07600896588379225 -0.5767631399207793 0.00023153628344200661 0.0037160014444931077 0.4706317421787201 -0.1350075907711218
82918000.0 0.7340406481708084 -0.6731616255201863 -0.09501247944333568 -0.6077583398810992 -0.0005232761870104586 -0.0004318577465737944 0.4802701691894256 -0.16112031688077236
83917000.0 0.7276345138159351 -0.6810669185570885 -0.11703354191844012 -0.6336030536945231 -0.0016156950113350634 0.0008520071206644865 0.4707122283096818 -0.16509997923601916
84916000.0 0.7214204579642843 -0.6885495887760026 -0.132787568761337 -0.6706571188561657 -0.002243878240196368 -0.0022007198407960177 0.4611295696159353 -0.17085509483425496
85915000.0 0.714654161305687 -0.6954009893180085 -0.14882002751894927 -0.7010281259245305 -0.0011459226958756756 -0.004331081702978717 0.4675320989766511 -0.18940438718912214
86914000.0 0.7072608944432099 -0.7045148945603568 -0.16659719942788687 -0.7381493013529071 -0.00028674331052395963 0.00044128069579549935 0.47338394745783047 -0.17151092013700478
87913000.0 0.6997559568161927 -0.711179540306282 -0.18934720449310807 -0.7669984995921733 -0.004894262848830293 0.0014805618171017333 0.45555838075106697 -0.19067544509838147
88912000.0 0.6941534391854363 -0.7171723539206114 -0.20496990370867915 -0.8017356471871852 -0.003637070763517965 -0.0003703076575044122 0.4628372100363587 -0.20948376467583252
89911000.0 0.6871001639323236 -0.7281878410967696 -0.225413640137137 -0.8405791526757758 -0.003298017597003848 0.005572220409805499 0.46922405196147243 -0.21553354970597363
90910000.0 0.6780385364534175 -0.7312780047157905 -0.23873178344759086 -0.8718388606754878 -0.0010111912284986161 -0.0016967156463613634 0.4594772197551753 -0.23038227200688507
91909000.0 0.6693612674227758 -0.7367788421922655 -0.256178480407072 -0.9047245864689007 0.001335863746931004 0.0019257737358618896 0.4669110499123551 -0.2249420264462429
92908000.0 0.6617851817334586 -0.7476022798895233 -0.2783506777265922 -0.9395395134884679 -1.4477153567918397e-05 -0.0020866146285851567 0.45360371062377397 -0.23970653251078392
93907000.0 0.6585074428951025 -0.7509198617574004 -0.2922847058949453 -0.9710344839195492 0.007304695533980341 -0.0002694988229225915 0.455148117167763 -0.25925431457285397
94906000.0 0.6438819023578786 -0.7579582762236976 -0.31200006751396897 -1.003879099410023 -0.00011492968563391483 -0.001528309396504546 0.451070240895522 -0.25450725881289854
95905000.0 0.6388863622875022 -0.7658474998151021 -0.33271625110713116 -1.0395133081063543 0.001280738602171611 -0.003805155788856944 0.462231854913231 -0.27411775917928727
96904000.0 0.6288950612707855 -0.7742719263503067 -0.35767606542949826 -1.0741252123634717 -9.661132514485033e-05 0.00042299207287017324 0.44525572939371477 -0.2751573547464633
97903000.0 0.620168233809174 -0.7797785303962977 -0.3758049203978119 -1.106736627942617 -0.003083241677885811 -0.00312235360602349 0.4337516645658658 -0.3031219243907321
98902000.0 0.6163092742509357 -0.7871028667393384 -0.39560772618064627 -1.1472095507892965 -0.0009421215956443088 -0.0013742556577364424 0.44726638690739184 -0.3023244391755442
99901000.0 0.6035252222722315 -0.7910292422630492 -0.4267381929289154 -1.1730095063535348 -0.00039191071393681503 -0.0023486051449738282 0.448822976933979 -0.33280421204233723
100900000.0 0.5973245923011617 -0.7957458554119217 -0.4549030393046224 -1.203933350328172 -0.002202729767514837 -0.002403280474456536 0.44821555563090965 -0.3214165299023604
101899000.0 0.5900582312324204 -0.8039298225572101 -0.4764311080201663 -1.2480003979609449 0.0010988503000682022 -0.002531735992193701 0.4513816702402861 -0.3215387729358461
102898000.0 0.5782329891271962 -0.8092081465420549 -0.5162222707449676 -1.2770706459655665 -0.0012836928857318944 0.002043648530844118 0.4451168633519109 -0.3420442910337143
103897000.0 0.5696487326796689 -0.8181124858046399 -0.553305644538287 -1.3132234809833667 0.0012219611621090472 -0.0031534536830627635 0.4538207093862654 -0.3359005422995724
104896000.0 0.5629605209899514 -0.8279608131166127 -0.595514479906158 -1.343111039799427 0.0012949411431069917 0.0012244462327471784 0.4325075666496677 -0.3465343216938017
105895000.0 0.5531469436803721 -0.8305467934596239 -0.6403300060071486 -1.3825637161938995 -0.0013831296941623642 0.002732471939384982 0.4331722574228001 -0.36843006997832767
106894000.0 0.5432017971489355 -0.8359983137729208 -0.6956184343132498 -1.4221674477921307 0.003450499864133905 -0.00195456817630184 0.4218839267677677 -0.378626663330792
107893000.0 0.5373761872133694 -0.842202012548665 -0.7402795184677899 -1.461146435177904 -0.001510959752318444 0.002256876342574796 0.41904213535644586 -0.38139949555015157
108892000.0 0.5254745439047063 -0.8467462593056676 -0.8042066976506894 -1.4967921414741503 0.0019765510475517937 -0.003162457248157183 0.4096130422645534 -0.3771104327803425
109891000.0 0.5136101932369321 -0.8528725015734305 -0.865830225582778 -1.5306010286705272 0.002646040609938783 -0.001398205828179382 0.4317457768040775 -0.3912886462317092
110890000.0 0.5003020986223121 -0.8722408792730998 -0.9503651973859416 -1.5412490253679254 -0.00010754377714403502 -0.0007666481229759806 0.41645963721178686 -0.40670542127617
111889000.0 0.49416675196138066 -0.8600992831301161 -0.9898924615461209 -1.5897957509926113 -0.001756685985048985 -0.00044206409858467063 0.41918297510108066 -0.41209017339704523
