! Created with skrf 1.9.0 (http://scikit-rf.org).
# Hz S RI R 50.0 
!freq ReS11 ImS11 ReS21 ImS21 ReS12 ImS12 ReS22 ImS22
1000000.0 0.9735539430803172 0.004000996570191611 -0.005629337619563995 -0.03473273908310374 -0.013795603013053541 0.013336220817991433 0.3964038976077378 0.33164190362708107
1999000.0 0.9926463615810867 -0.014037406314582342 0.012216197118341387 -0.025427130706704354 -0.002534883488885891 -0.00452785122726815 0.26206538197335477 -0.07926471631186002
2998000.0 0.999045305296211 -0.017233556408667014 0.00816487149687147 -0.015160994146558327 -0.000629150558567186 -0.0009551428226184805 0.1959403759281932 -0.13584666692310982
3997000.0 0.9992513378341732 -0.029800591246234232 0.00789179587501723 -0.006171108369025861 -0.0041898678145985396 -0.0043787066643235254 0.09910545045874662 -0.21478861454781284
4996000.0 0.9986431878848208 -0.0368954900154806 0.016609600666125834 0.0002015444865464411 0.004891960670365268 -0.0023450687305278262 -0.020406551436572506 -0.2138401289714036
5995000.0 0.9959014914643334 -0.045884133903957555 0.007061269789752822 0.0029996234290864143 0.0005227811838344195 0.00064670879960743 -0.12752512963119733 -0.12838375836742866
6994000.0 0.995883278116524 -0.05611854732515911 0.00903990906767435 0.005072095999306309 0.0023761408318786026 0.0010268120322528675 -0.14472243397509882 -0.03302333639963065
7993000.0 0.9963719566606203 -0.06778062008935012 0.008062044881019829 0.004013508870367918 0.0022079212344929436 -0.0011564475655969687 -0.16608014102394994 0.022167287107693216
8992000.0 0.9974866381233276 -0.0731015652808596 0.0047233005128041634 0.005257272313371634 -0.0016335923917389684 -0.004630816152715692 -0.14508638753265385 0.05115682365398172
9991000.0 0.9950094046942425 -0.08175895236027139 -0.0029928582390237636 0.004166449110358552 -0.0016635160773171773 -2.770974319911258e-05 -0.16031047986341151 0.07734722466231568
10990000.0 0.9939300422667032 -0.08981642753928377 0.0007521780917397828 0.001398570608124845 -0.0032769919273639894 0.0025338679817408097 -0.1439927480241469 0.112769106094952
11989000.0 0.9920801848456596 -0.09749419595341012 0.005747823698055013 0.002673907378103661 0.003318858456204608 0.0029115376398183767 -0.14589372591507216 0.1351222993869546
12988000.0 0.9919997457877147 -0.10955690540586482 -0.0007828574980685729 -0.0038441060826422072 -0.002923173087264458 0.006102334104823561 -0.11654593500638041 0.1655738808220927
13987000.0 0.9892580756743409 -0.11622641303120386 -0.0027925375753186142 -0.006349024347302004 -0.0011253965520188454 -0.0007723782936282546 -0.09751229691894049 0.18570161981682443
14986000.0 0.988472157992236 -0.12380190844721237 0.0008077951821019772 -5.882718606429667e-05 0.0020886606386896892 -0.0014483928344507851 -0.08556699593804488 0.2015151473538121
15985000.0 0.9904531038881543 -0.1304972231440998 -0.0010512260338168405 -0.005372473361295122 0.0034737319970964803 0.0014566452022878118 -0.07481212299537088 0.21883326761152086
16984000.0 0.9880832332268265 -0.14157687242279662 0.0017614016805396824 -0.008205285676245037 -0.002202689614099215 -0.003479815603525487 -0.06557271103019603 0.21607042018608288
17983000.0 0.9853875548930201 -0.14996262164604657 -0.0038614371828484665 -0.006389203699422591 0.0015108364860562955 -0.000375131068030982 -0.054479275206524604 0.22724302988345266
18982000.0 0.9847486282794239 -0.15955717923613763 -0.004024493256923847 -0.003492126430439552 0.0017550171841998557 -0.0009426620604751264 -0.029176366094008945 0.24772757139002183
19981000.0 0.9847127828673137 -0.16486332285475347 -0.0038159977614439216 -0.0002997766077448003 0.0052018891333588365 -0.0029151489750685548 -0.011472926277968146 0.24366270566033946
20980000.0 0.98261750009046 -0.17319712713834107 -0.0008063574350942889 -0.002355909998653845 0.001279192962832824 -5.0209884889545956e-05 -0.011111843807339119 0.25638281625130754
21979000.0 0.9808782046205364 -0.18206931680377428 -0.0021617796252691663 -0.005835967893183709 0.002956330141218963 -0.001403832156997505 0.015477264253105078 0.2331337814684941
22978000.0 0.9799158446328516 -0.19084066009759304 -0.0055213185722715824 -0.005324693634030872 7.079741802975918e-05 3.625463956529605e-05 0.027719064219999225 0.25954450087000025
23977000.0 0.9797097863618583 -0.20046980912796314 -0.009929392534333493 -0.0022645838498325196 -0.002881179418454275 0.005460833850903677 0.04111395066444897 0.2571196409229004
24976000.0 0.9780593222167371 -0.20783604142433248 -0.00619997325915352 -0.0021754636700210077 0.0008912202971111132 0.0029583597006214743 0.06768067247852208 0.2540918913263763
25975000.0 0.9774147216830981 -0.21716372746651755 -0.004189627053923426 0.0038030531833689787 0.0019400922534533994 0.029284276435865546 0.0706105464337159 0.27055693397571984
26974000.0 0.9710616542866107 -0.22633824422786125 -0.004702390343674969 0.003284864781115412 0.0019003792486501107 0.0008914056230157181 0.0845048605293872 0.2678743633026476
27973000.0 0.9709685240387838 -0.23107059776385597 -0.0002213627945639037 -0.0023192887192438672 -0.0015662023044823777 -0.0005620201587977873 0.11023730617689138 0.2585568554783692
28972000.0 0.9674279805713006 -0.2429658033977935 -0.00405415820647407 -0.0033674029515160415 -0.0013787161478281912 -0.0023384289084378415 0.11567024016317083 0.25055177218011127
29971000.0 0.9672371505862047 -0.2501956369621171 7.928374783722747e-07 -0.0018455744468326449 0.0005406692104447268 1.4544602939236858e-05 0.14433304204082129 0.2613429409726663
30970000.0 0.962997586794531 -0.2565798902289691 0.002898035845653658 -0.001628185940182044 -0.003148900800526882 0.0010536186984109394 0.1619873909923919 0.2529318830860949
31969000.0 0.9599217577570237 -0.2653470279363723 0.0034187176815408523 -0.00533619241804678 0.0010608958490799284 -0.00016928302370284473 0.1420438135577564 0.2544534643701463
32968000.0 0.9593776692436912 -0.27593859955711636 0.010935668356225088 -0.008131737014854652 0.00015807182744822658 0.0003448003788298064 0.16534338458385525 0.24774401592037562
33967000.0 0.9590057155437347 -0.2807053989282168 0.010856780680140963 -0.007927235536914365 -4.338311501323817e-05 0.00267985273670309 0.18554482166543762 0.24947923468124744
34966000.0 0.9538471885174462 -0.29147060563693783 0.01574916763511314 -0.011707312827933861 0.0018080467567766702 0.0008452263234982479 0.1814403610796447 0.24982880814927677
35965000.0 0.9514332714762894 -0.30068851363649635 0.019595103159787623 -0.01569719324870791 -0.0035450106101895247 0.001350055806603451 0.21097002419922484 0.24843314007068074
36964000.0 0.9492991468483128 -0.30966531697635324 0.01672101743569655 -0.014718686918510492 -0.0051294477211410675 6.886838149478393e-05 0.21357316031314713 0.25262804103831143
37963000.0 0.9479217527957422 -0.3178535836224722 0.023387465736360018 -0.018100405180011474 -0.0023062828752869 -0.001063298535536652 0.22746945360253495 0.23428997508165855
38962000.0 0.9440553178172575 -0.32666789777839667 0.022010183055344176 -0.026490727655733428 -6.917667881442508e-05 -0.001713749792246291 0.2466526655770311 0.23476412831125898
39961000.0 0.9406391336305434 -0.3351160044623065 0.025412648622325035 -0.027025165404456666 -0.00020517124759671755 0.00035676370841862044 0.2562625814335378 0.23056130186572812
40960000.0 0.9386406050025607 -0.342874772957164 0.025011887165114682 -0.02320665314623312 0.0006282965720140081 -0.0003231211760569809 0.26522583157412527 0.21891509838020243
41959000.0 0.935281774905614 -0.35160694420532196 0.029490653676113077 -0.03258361790463972 0.002389217014964737 -0.0016546370994278451 0.26605703773269945 0.21147962571108578
42958000.0 0.9308212913274831 -0.3592672578630518 0.03175148067686861 -0.038721730187924706 0.0007959521588926472 -0.0007018360087557021 0.27984583928269086 0.20156886373933441
43957000.0 0.9280537105525245 -0.36765601748875415 0.030646231363004067 -0.04701062924334481 0.0014162195869518554 0.004192115704991206 0.2877365423139823 0.20166268661106812
44956000.0 0.9243668997676121 -0.37509683719276227 0.03476340178625269 -0.05251865483851965 -0.0001412829506262116 0.0028229290690254976 0.3091936548556575 0.18802039256953107
45955000.0 0.9215553093085356 -0.3860221106481461 0.0372307281207749 -0.06014618993898899 0.0011586887134196996 -0.0035654143371274256 0.3047995829461185 0.18981782876714254
46954000.0 0.9179718046759755 -0.39214024191089186 0.03810889899608076 -0.06556925087650853 0.0023187876439506355 0.0019919355241477727 0.325527736880527 0.17885479642000762
47953000.0 0.9127862982540916 -0.40206384601029765 0.03488743119738549 -0.07136767765436743 0.0007798991986128076 0.002479884298319601 0.33540081517328346 0.1755400855448606
48952000.0 0.9108165697378937 -0.4079316004624998 0.03748591956376373 -0.07951727725217354 -0.002698109105022667 0.0027961399365542816 0.3351177615410208 0.16654591827101478
49951000.0 0.9060869469138789 -0.41749027508707975 0.0397875685032307 -0.08645672226241709 0.00035920677242299036 -0.0014961140582219854 0.36066227053574706 0.15383512011891048
50950000.0 0.9029228865758124 -0.422707953072334 0.038874216260244586 -0.0954215137070867 -0.001981726284426805 0.003940810126371471 0.34526997660179104 0.1417760951162031
51949000.0 0.8995707346600356 -0.4339299486878081 0.04150117681772652 -0.10157389104245146 0.0012222385916180786 -0.0001503432458192116 0.3584009747034363 0.14639219493069575
52948000.0 0.8971091597388154 -0.4392386321838238 0.041659965924297354 -0.11197508378026061 0.0006437822668956717 0.00018188644415313143 0.3721584655601364 0.14327839943594003
53947000.0 0.8912650589694836 -0.44777917391067096 0.04652153815376547 -0.1220425689280906 -0.0016994643588628547 0.00029770905286011505 0.37190637590848713 0.12220355462757641
54946000.0 0.8868910770441902 -0.45659314820022884 0.04414596433192519 -0.13116653632864744 -0.0003690209535343104 -0.002027176658059585 0.3834240879942275 0.11767146680395754
55945000.0 0.8828840634651609 -0.4657695456942691 0.04530390426731863 -0.14344183213675024 0.0008827531032718899 0.003650039433302584 0.39272431232371385 0.09086073381756324
56944000.0 0.880015988697002 -0.473744193073264 0.04912188623202073 -0.15032995912079006 -0.0010029164366343838 0.00032963085027586575 0.39940713859172616 0.10591785657791439
57943000.0 0.8757496712443068 -0.4831064811120715 0.0467352190286377 -0.1644026086466856 0.0027487227683681017 0.0017207986676699857 0.39645394676844814 0.08679429145214843
58942000.0 0.8694258420720329 -0.48780764912241437 0.05311899412888139 -0.17478811502209143 -0.004275221877644073 0.0026294952434475875 0.4211707298926267 0.07348928841995991
59941000.0 0.8682852752745674 -0.49521916665489485 0.05256528673516817 -0.18537118604772304 -0.0005065586404789847 0.0009263601398398371 0.41626921471452777 0.09080579183042455
60940000.0 0.8588767362020268 -0.5042111053556375 0.05027066639189933 -0.18956589224466086 -0.001717678056687671 -0.00021076622333444676 0.4063319081713066 0.07365196001163099
61939000.0 0.8565159706580657 -0.5106807762513402 0.054155623192653456 -0.195712328872903 -0.002064908767181472 0.0014507263716211597 0.40927334727832143 0.06073483027422153
62938000.0 0.8507593117779565 -0.5215438754008123 0.05516071645691669 -0.21431144103283345 -0.00281369801311169 0.0006703454855933075 0.44622340354585094 0.04317094408333778
63937000.0 0.846009434506448 -0.5288410274468879 0.057758201675612075 -0.2342191065301021 -0.0023482210764479445 0.0008355784595414467 0.4315068622504166 0.03527418724350661
64936000.0 0.8404777159061317 -0.5330979506668654 0.053139181596282656 -0.25252128161110954 0.0011141427637063712 -0.002966820105598034 0.43803097152767695 0.035296177052472344
65935000.0 0.8371060977381397 -0.5436276604254275 0.05684660500621142 -0.26366031985763005 0.002793995560713869 0.002384622243713078 0.442815741702964 0.018098266106283924
66934000.0 0.8313434276551469 -0.5510828897866378 0.056985320692347734 -0.27873705374578445 0.0004262983523237684 -0.003554525841294594 0.431058374325147 0.013696978798314496
67933000.0 0.829517867130099 -0.5575154930519254 0.05680981861161181 -0.289919754628338 0.00033031175047740295 0.00277699805956586 0.4355183939967648 0.013137070187782297
68932000.0 0.813085031853974 -0.5662741320774083 0.04921786019492482 -0.30333279064987817 0.0019150380453844121 0.0007139155674687656 0.4602974327246815 -0.018498742983168667
69931000.0 0.8159716550898181 -0.5742326088676809 0.05396835870121338 -0.32067750727219263 0.0010430088940132022 -0.0034726452080460733 0.45177921578616487 -0.029190879712641383
70930000.0 0.8109166119441517 -0.5805934109426478 0.04968381708607254 -0.3364772586966431 -0.0033628182134779728 -0.0003520360943380885 0.4498703298548465 -0.038259600511918256
71929000.0 0.8060205125010539 -0.587538275401304 0.04287143707141452 -0.3538163903373072 -0.0010696793626559962 0.0003982556847351479 0.44998674668403793 -0.052150427612105865
72928000.0 0.8001152343060096 -0.6005660976282622 0.04150138039925798 -0.3694456728105583 0.0028987327031647263 -0.004825648639924308 0.45726255052912956 -0.0517410015534609
73927000.0 0.7938390490211155 -0.6049520117325431 0.03468837396765842 -0.3883019848645122 0.0019524184096617542 -0.0007824274570430576 0.4635626172666454 -0.06525671137850628
74926000.0 0.7888931978655295 -0.6144500510354756 0.02904337883938084 -0.40714347672162426 -0.00039522018066459244 0.0029245976749357246 0.46192721328185415 -0.05345672989353587
75925000.0 0.7833006159521699 -0.6195025313805836 0.020908206655479742 -0.4284683879351948 -0.001270517837829554 0.001612110984100324 0.4637501107227963 -0.08738059936618724
76924000.0 0.7769431271679332 -0.6256420167631908 0.003437668952361861 -0.452744220427974 -0.0009987567648702515 0.00097870454455362 0.46896149647515983 -0.09182654954194139
77923000.0 0.7706469273060805 -0.634793055171287 -0.00936415603096252 -0.47634955632811055 0.0010037967526188689 0.0010853042495225999 0.46173484164291945 -0.09708904572086452
78922000.0 0.7648398056049712 -0.6425102018599782 -0.020833421004700058 -0.5010353756181303 -0.0008143683216828341 0.001903419972513813 0.4528991136113688 -0.1115385959210374
79921000.0 0.7573781118187356 -0.6468824794929036 -0.03761372014954006 -0.526792043678302 0.0005023204973173352 0.002287884234959204 0.4604100390469801 -0.1148856068824911
80920000.0 0.7525619254211139 -0.6591057770467998 -0.052295158725584295 -0.5569046160259008 -0.001114510419854767 0.0014522317935285506 0.47203043989981674 -0.1290551448683293
81919000.0 0.7466038695261699 -0.6628331747714123 -0.07210651944549502 -0.5856268800340849 0.0024409743572211696 0.0003730178782373561 0.4651042596904263 -0.135335486092231
82918000.0 0.7363622596831185 -0.6726634187499506 -0.08689985268579041 -0.6155488330678468 -0.0013272369920218567 0.000847531779907263 0.4734274614785569 -0.14253044369175843
83917000.0 0.7299185317753394 -0.6797262418767814 -0.107152488163885 -0.6403431027818512 0.0007657781800777291 -0.00019075167330810238 0.46821628929972214 -0.15673590860871325
84916000.0 0.7254888703624636 -0.6857670606883919 -0.1207444605827008 -0.6831849782662033 -0.004838144472673797 -0.001177803938193869 0.45809546780660393 -0.17239977448085225
85915000.0 0.7183326357319335 -0.6924027880413346 -0.1421753635864837 -0.707290477098378 -0.0018531319291731517 -0.0006914424465622525 0.4690739733664926 -0.1690616225941623
86914000.0 0.7092122429687865 -0.7051903047555198 -0.15905892592595472 -0.7467786170621663 -0.0011221929854219738 0.0011326300373333377 0.4588511174802996 -0.17594895324235463
87913000.0 0.7014433267323283 -0.7100660795902619 -0.17874188059526028 -0.7755195446584631 0.0027731635513488307 -0.0007369484033223376 0.4604418592236493 -0.18030235033318115
88912000.0 0.6975676962767776 -0.7147087521844889 -0.19233333702142635 -0.8105757326142958 -0.00024241103128105752 -0.0022930184073044974 0.45664063797531096 -0.21354290592642267
89911000.0 0.6889208834125932 -0.7238045612090408 -0.21165786514551382 -0.8474812878801771 -0.004263443984574511 -0.003843838266784312 0.47039541743562935 -0.20592299114125154
90910000.0 0.6830566325310491 -0.7288371850264936 -0.2273666213591489 -0.8840346560043477 -0.0018750162253074615 0.00027925032071200636 0.4678704979661221 -0.21627606706460367
91909000.0 0.673362034175986 -0.7346642248778541 -0.2518384765589732 -0.9128712309682323 -0.00046950966757805675 -0.0030264761647610483 0.47022746519191216 -0.2351075642428142
92908000.0 0.6665482039059029 -0.7451387235607976 -0.26517817592828 -0.9482704848762035 -0.0016279959821076965 -0.0003071260824111101 0.4546354391359111 -0.23703145563763742
93907000.0 0.6598206442790455 -0.7480185599590329 -0.28170636044039116 -0.9818187353745235 -0.0029332445421567928 0.0017370855055256736 0.46739825583446226 -0.24864805346694865
94906000.0 0.6461366933795973 -0.7570972405401305 -0.2994383741918597 -1.0139891950515725 0.0001035763690876936 0.0037170718958834535 0.46376081755999843 -0.25705217372759526
95905000.0 0.6400202698367318 -0.7640488940579112 -0.32891633508284435 -1.0504229890461603 -0.0007498105703297966 0.002455079688068334 0.4577648891386869 -0.27714816422961497
96904000.0 0.6340817444294179 -0.7719570702398847 -0.3454762966734457 -1.0876885081022971 0.0023166808174294603 -0.001203465312567989 0.45264099405726277 -0.27879988818479273
97903000.0 0.6257170761027777 -0.7755502595676123 -0.3634913242722699 -1.1212043612293843 4.760201053745784e-06 0.0014200264595728238 0.44640366009112575 -0.288376481222458
98902000.0 0.6213041261540693 -0.7841116302950291 -0.3887275145353261 -1.1587887391768994 -0.0022328019098853793 -0.0036837977666685515 0.4386527503848428 -0.2897179680254796
99901000.0 0.6107052651399152 -0.7897127539728518 -0.41840924600268103 -1.1935338222519996 -0.0002066252770185312 0.002452561461665067 0.44984070961451705 -0.3176465430529786
100900000.0 0.6024675109754668 -0.7934515658684063 -0.449446536231497 -1.222769170544265 -0.0013012821903556544 0.0006139586700578394 0.4589173680104878 -0.31742778200454747
101899000.0 0.5935119945182686 -0.8009298823635853 -0.4729948655573519 -1.262670409472077 -0.003794301966971958 -0.0007754497613731841 0.4385175828306141 -0.3273199461832345
102898000.0 0.5836228508153367 -0.8065728477008008 -0.5080772794516484 -1.2988289475038703 -0.0001379403196028479 -0.002728631950781905 0.4412766266681835 -0.3468881764796094
103897000.0 0.575683051672149 -0.8131342310605562 -0.5512036700134004 -1.3329754538493042 -0.00027996011183667414 0.0012463671474250264 0.45840446111701494 -0.3336378752735054
104896000.0 0.5675899163307179 -0.8243650452182508 -0.5960626341176959 -1.365335409935842 0.0012946793821044097 0.001361213377855854 0.42509244865777734 -0.33593485047272925
105895000.0 0.5539925002776074 -0.8262550946070865 -0.6425147724083279 -1.4051971404105812 -0.004483904184271605 0.0009793851595626664 0.43229509024174273 -0.3598448881085898
106894000.0 0.5499817699706 -0.8329085471899098 -0.6925637195081248 -1.4481883800863309 -0.0026706860303233287 0.002231412164131902 0.43289036324311414 -0.3652648876585932
107893000.0 0.5405708065650263 -0.8405265253962168 -0.7450886953403215 -1.4880117030494278 0.0015189213982660051 -0.0015966585058770845 0.42549245520286205 -0.38265276003896853
108892000.0 0.5311337596061507 -0.8416417215553396 -0.8036202297306222 -1.525870057430744 -0.0006751698365011895 0.0005802018739059339 0.4166395682367127 -0.3740973853591142
109891000.0 0.5182803562715378 -0.8510838142809719 -0.8599287955561663 -1.5633365189469994 -0.0009030064055493009 0.000960490959460802 0.43221300908372323 -0.37997456725916984
110890000.0 0.5139206139429051 -0.8611770695557026 -0.9301638118290334 -1.5848496185012895 2.593599692756131e-06 0.0005832044697556114 0.4284244367847155 -0.3934642053131382
111889000.0 0.4985114867068555 -0.8581355863634375 -0.9892937080209813 -1.628128633668144 0.0005262861184471373 0.0030088116264282557 0.4164709239246078 -0.3977222871079562
