! Created with skrf 1.9.0 (http://scikit-rf.org).
# Hz S RI R 50.0 
!freq ReS11 ImS11 ReS21 ImS21 ReS12 ImS12 ReS22 ImS22
1000000.0 0.9815894770757438 0.0022049058007863626 -0.008259886381828032 -0.06396075820444433 -0.01635237173015777 -0.0034942319812423777 0.3586828443808126 0.36192372207398865
1999000.0 0.9965433541052444 -0.01813757161694015 0.009381438127831224 -0.02744379174300218 -0.0009222699713791823 -0.0010374195086329551 0.2648108210130078 -0.05956425120847861
2998000.0 1.0003676393410579 -0.02127549019880249 0.003999885024836201 -0.02077669669564898 -0.007524402646071605 -0.005899520296286014 0.19707364572423375 -0.1561229197714391
3997000.0 0.9990413901330621 -0.029522804974438457 0.014635452548924325 -0.0037453516965279105 -0.007479851178588114 -0.002640178690671147 0.09115245945380604 -0.2291759789807218
4996000.0 0.997776857530011 -0.03752418526465545 0.010210818868251216 -0.00045983539154894536 -0.006883327924645499 -0.004620386397823833 -0.03880121832390004 -0.2223581942560945
5995000.0 0.9951184527197403 -0.046856948256476086 0.00816034786191247 0.005491917608411525 -0.0038472029487124225 -0.006477298337387158 -0.11849340320017956 -0.12124589764622833
6994000.0 0.9959095435049999 -0.05750481536899774 0.00626213275595066 0.002733882674302208 -0.003613880669507556 -0.0006848059901903746 -0.15263399953746792 -0.03208387623957318
7993000.0 0.9975051197719631 -0.06427831790177517 0.006153231161231308 0.0037335015459153105 0.002739095809641898 0.0009380725903288052 -0.16689611418639214 0.03320533507996504
8992000.0 0.9982316343880265 -0.07179361635005818 0.0024185020913771406 0.005812576161987419 0.0005712366645620771 -0.0009192161783111702 -0.15634848217389183 0.047227475674761904
9991000.0 0.9951121663022101 -0.08126085910401519 0.0007962505096088051 0.005095339158620525 0.004157110807226847 0.003036721442219841 -0.16173330552425846 0.09317681012052763
10990000.0 0.9933563527519357 -0.09081294575318949 0.003420359214528394 -0.0012758614321667949 -0.0006039880004377649 -0.0022071775470784375 -0.13687987618084554 0.10104126084781596
11989000.0 0.9915401644957971 -0.09827775579269127 0.005296242093672347 -0.00441887797819912 -0.0030196409854910066 0.0061149818894697386 -0.1402425874482115 0.13816247224854783
12988000.0 0.9908541284811765 -0.10896555273024704 -0.0007631249418130227 -0.0038994341786479578 0.0014383140082744079 -7.505137079265575e-05 -0.12572592648922942 0.1772559642139719
13987000.0 0.9898714914556395 -0.11533503596213943 0.0006750516567818973 -0.003287808722909533 -0.002147581614087601 -0.0008324443117457733 -0.09634407683139554 0.18303495277404302
14986000.0 0.9888815206273064 -0.1238276811655056 -0.004585596938367136 -0.0007920227508846903 -0.002145761209417549 -0.0030253798583581098 -0.0963591298544008 0.20184643932691188
15985000.0 0.9911211869370369 -0.13152621538886933 0.00669447686766619 -0.0017295533719380472 -0.0018635768795484237 0.001739624007655838 -0.0837938156206197 0.21390111881048585
16984000.0 0.9889207013403928 -0.14118870730488958 0.0016053340333881082 -0.0010771464534806159 0.0017074820945128914 -0.0016008030070617275 -0.06038635110459839 0.21828147430847672
17983000.0 0.9888679595788396 -0.14794003290314156 -0.0007442295040720232 -0.004536234546404067 -0.0005826587109018064 -9.826318885465307e-05 -0.06222435131068881 0.22796394207693021
18982000.0 0.9860452137294388 -0.16038630840026713 -0.007204810761158357 -0.007197485370294041 -0.0012389997538197314 0.0006633389291596305 -0.02895265517830889 0.2416123293902154
19981000.0 0.9854353094726682 -0.16529908001712143 -0.007588633166613222 -0.0018260203462934852 0.004061070647587506 -0.00042970450961003147 -0.015381392078940053 0.23229357922179839
20980000.0 0.9828060440635046 -0.17451196559618623 -0.005304750873849269 -0.003258041718102366 -0.002144448149106115 -0.000865404945918591 -0.00950868339965603 0.25481839197521183
21979000.0 0.9797175687441959 -0.18332728197123777 -0.00565772242710995 -0.005944481436843511 -0.0028168477233659756 -9.276825993884103e-05 0.022118788004493378 0.24432433036922926
22978000.0 0.979650792440534 -0.19002369477681888 -0.004377417783599488 -0.006853638981214793 -0.000790037687721764 0.0031256295983086747 0.026211391764111587 0.2584076504991256
23977000.0 0.9793020813586193 -0.19642729733078382 -0.004187340251274415 -0.005605524031146162 -0.001319718977605348 0.006547978925244666 0.03299714842015488 0.2562675536403863
24976000.0 0.9752223649282451 -0.21007594551675976 -0.006287690751540979 -0.00033532748438955934 -0.003230098987990828 -0.005870747119079533 0.06952108195035092 0.25000902769088673
25975000.0 0.9765848169508418 -0.21889352604883244 -0.00561058495979831 -0.00031315042153890594 0.017042887052066816 0.01854589841071317 0.06406432362726497 0.2646489758235067
26974000.0 0.9719211201076122 -0.22426093430815014 -0.003257956097843093 -0.0034754062188939883 0.003338718183736391 -0.001696951369776981 0.0869560526949358 0.27175799881689877
27973000.0 0.970874276562842 -0.23135492576683597 -0.002956593251839842 -0.0029000990836306113 -0.00030156046068309034 0.002241115678834228 0.09808170487401005 0.24983837522287802
28972000.0 0.966332540921302 -0.24450032285782364 7.788405491565835e-05 -0.0038446330809635276 -0.0009083027761226054 -0.0021520010373949562 0.11581356254579621 0.2550484958423612
29971000.0 0.9667934070485983 -0.24891955637185942 0.0006951978355666711 -0.0023251927418920385 -0.0018511037264102876 0.0009266473991901918 0.15174766099406314 0.26068347848076384
30970000.0 0.9635218401891565 -0.2541201942359196 0.002327257444142552 -0.002668669082798217 0.0012987599800901816 0.0028782134286074322 0.1658335980477317 0.2513328470366406
31969000.0 0.9622929764147687 -0.26337768437133285 0.005458086887230487 -0.004309925015814384 0.0012591793238054833 0.0002907667443600902 0.14638207313091806 0.24651836248826284
32968000.0 0.9588666821964188 -0.27338394943674377 0.007692220945402234 -0.008332079211674306 0.0004015584076092902 -0.00039696334924434917 0.16509201340325408 0.24338854562090587
33967000.0 0.9570586092521342 -0.2838040686571826 0.012077168949874666 -0.0108058838498377 0.0024331886308091824 9.260848521722136e-05 0.19214342309443846 0.24691553829103507
34966000.0 0.9542090571110581 -0.2918970105160813 0.013102491994345508 -0.014223493102192297 0.00235947803896398 0.0003004103432019105 0.19244265799897467 0.25035810248979296
35965000.0 0.951467164831491 -0.299607966904294 0.01819599953245597 -0.015413509110999422 -0.000427363370365463 0.001123798388264493 0.20432307360207136 0.24389348273129915
36964000.0 0.9499557479000118 -0.3072934535614602 0.018439215073054155 -0.012945412137496917 -0.0037968424085390987 -0.0010832458733953329 0.21024156347166456 0.24529980062973972
37963000.0 0.9474842110934315 -0.3159277323149359 0.021876215505535392 -0.018781816942334762 -0.0012938886044732462 0.0005070786246680838 0.22644797218214363 0.23929137815557644
38962000.0 0.943167013067082 -0.3275768970472718 0.021444610954948422 -0.025207640792246033 -0.002638659793072828 -0.001650032863436622 0.23330445312333178 0.23272409049521084
39961000.0 0.9413392738967571 -0.3358715973471501 0.026787707146837852 -0.02880423618836737 -0.0002477760120081436 -0.0013973790038959869 0.2427165475950811 0.22337684417934803
40960000.0 0.9376028064919311 -0.3394038861466594 0.02409470038974641 -0.0229000106359878 0.0011354280160650939 0.0005357762385459857 0.2689148884963108 0.23055169775565898
41959000.0 0.9344363723074087 -0.3503803915374974 0.02923151591176079 -0.0322918649284998 -0.0004424773180143478 -0.0010860601796050854 0.26682641485139635 0.2097812927492595
42958000.0 0.9303222190021427 -0.35919247942980265 0.03059578889471493 -0.04045923827557853 0.0007748042248980477 0.00019013254381650607 0.2777240066350466 0.20254011973823016
43957000.0 0.9286257776274551 -0.3659653997727165 0.031030021966462457 -0.042363901993688655 0.0038053899404667853 0.00047564221293972295 0.2800976057670437 0.20586986303140578
44956000.0 0.9255084092220142 -0.37503605754558716 0.03200393602196959 -0.050687691787076654 -0.0011180933894882324 -0.001390927361181279 0.30146652772171506 0.19700141112289632
45955000.0 0.920963703098498 -0.38428194539960064 0.03407931506950501 -0.057461566376869756 0.0008945110184045579 -0.0016139330659732578 0.3085095784276149 0.18183401323024065
46954000.0 0.918178911612947 -0.39028947214761534 0.032556832088368445 -0.06483472086875816 -0.0022336990135460445 0.002394787331410334 0.32964155458815503 0.16971659523660143
47953000.0 0.9165155550278127 -0.39859254597779464 0.032903676364967015 -0.06957788157244738 0.0006040395085380962 0.0012796924012019669 0.3324079121919049 0.1741413401269752
48952000.0 0.9104913268089319 -0.40860375374647623 0.03589600059169251 -0.07874886182270327 -0.0005134827397969752 0.00045241988985741103 0.3266556017223972 0.16408045336473998
49951000.0 0.9058268947013448 -0.4164844332273642 0.03696930739199722 -0.08583945058081406 0.0014284485175830712 -0.0016928532081414286 0.34564583584176517 0.148764718351656
50950000.0 0.9035675505422427 -0.42439054939064286 0.0367168786791728 -0.09668263397942212 0.0017716837045774556 -0.0009877012747965366 0.3459019056893616 0.13628283646324654
51949000.0 0.8989823026951065 -0.4308159453444172 0.036968835847573656 -0.1011581358978365 0.0025783730946971673 0.00123810199609796 0.3594524767931382 0.13455042634000997
52948000.0 0.8991904906136593 -0.43804650811753615 0.03846620485005295 -0.10788899185757445 0.0021404290415183436 -0.002092577053282594 0.371927444070868 0.1349803355008106
53947000.0 0.8923634789028576 -0.4468276726495228 0.038321935295945124 -0.12012590298588142 -0.0012106248301489723 -5.4038601161969394e-05 0.3641379878287778 0.13118806522320875
54946000.0 0.8873136265532899 -0.45764151355274657 0.03999806584291411 -0.12690630674271436 -0.0028825166027545107 -0.002567195389475564 0.3874830227541543 0.12230059994253302
55945000.0 0.8833875218804352 -0.4633758231489247 0.0424849733976223 -0.13839864170292035 -0.0017544951756625568 -0.00019464635220268898 0.38526397704790866 0.09750694141156577
56944000.0 0.879955748736708 -0.47213321847781453 0.043372370293570765 -0.15029973126096194 -0.0025092074309378673 0.0015616134656585763 0.3969002163758575 0.09691307433492903
57943000.0 0.8761883549016989 -0.4827854302613682 0.04576949637223103 -0.15990825755326812 -0.0033257197334751894 0.0004462738630860134 0.39334031496940597 0.08510432363293018
58942000.0 0.8708973231893081 -0.4870037310161982 0.04265696189440285 -0.16953826618857898 -0.0035952181406442535 -0.003415135125025433 0.41264893690126275 0.0876244892382129
59941000.0 0.8673239327082468 -0.4947867022399657 0.04558760709306565 -0.17667622211610215 -0.0018166856640061243 -0.002325282038526644 0.42104645083247194 0.08912311587724475
60940000.0 0.8588917437355955 -0.5042493777208139 0.045300741944353226 -0.18344207717350758 0.0024297886979518187 -0.0006091831602249069 0.3970815108256372 0.07249364193906527
61939000.0 0.8565972989135174 -0.51028693527472 0.04753759770939459 -0.18705266075495897 0.0007859913071490491 -0.0007785546064054396 0.4129436822252454 0.06681891357554055
62938000.0 0.8512782439303733 -0.5211184351333389 0.053769881918312674 -0.20550861952514476 -0.00029642989585336964 -0.0020152518890372887 0.43821680449045586 0.051009349409432324
63937000.0 0.8443496128402733 -0.5274393666332468 0.052076421124452044 -0.22483247136203152 0.0012870181287287824 0.0004814721185899176 0.4300496693378688 0.03143576772264643
64936000.0 0.8396942692463021 -0.5334007597341035 0.05060440271835614 -0.24045649303898706 0.0008032089189349826 -0.00048568819036424657 0.434877297133916 0.0399380082835854
65935000.0 0.8371025334732134 -0.5427454675349466 0.04822478873632176 -0.2533305892605493 -0.0025341664495078867 -0.0009512150631258905 0.4368083407818407 0.01803356490237586
66934000.0 0.8321629591371169 -0.5493503349822926 0.04914856917954484 -0.2674153950207308 0.0012115768786645936 0.0008049375200283318 0.44116738865541566 0.009132020297909237
67933000.0 0.829884598306147 -0.5572237787318888 0.05297126786265516 -0.2777588151437553 0.0006210718362124995 0.0010328057450637242 0.44728463168700533 0.001975278456310009
68932000.0 0.8267989138963183 -0.5549371871922698 0.05384546195613438 -0.2922875943917916 -0.0001715660743216691 -0.0009990278324865888 0.44972279976258717 -0.0017624953162933984
69931000.0 0.8155400540241594 -0.573211508715824 0.050362405399358025 -0.3074913995601027 0.0005179918207710591 -0.003223757342250543 0.456247133823826 -0.014076094762178406
70930000.0 0.8101688220424559 -0.5780709884437548 0.047759964465750294 -0.31955376595119367 0.0031131381055001465 0.0025983412014943226 0.44770280656545514 -0.03631832057591052
71929000.0 0.8079849675396085 -0.5869958794191129 0.044657616478957066 -0.33711712667287963 -0.0012557913714531883 0.003427759738879567 0.4478777457107717 -0.04168218306467756
72928000.0 0.8013541141392816 -0.5956646608227211 0.041868217593125846 -0.35247040561168347 0.0002656028484814201 0.0011159860766512975 0.46206993259918216 -0.05170189755702683
73927000.0 0.79457391688966 -0.6038946327958412 0.03321049659988772 -0.37280381518400374 -0.001001189438897581 0.0006776662937050556 0.4572706731851201 -0.06034302611335559
74926000.0 0.7901650772524281 -0.6132794837263548 0.0302946628175544 -0.38711317719836286 0.0030157478843612128 -0.0014391301122799395 0.4687808992177113 -0.06280039529329376
75925000.0 0.7814389794583172 -0.6177903516105959 0.015620171850902996 -0.4057361049955848 -0.004523867493173255 -0.00010866202737998811 0.4691762962735249 -0.07443063603152622
76924000.0 0.7772401531206676 -0.6264262390425237 0.004990691957964508 -0.4293051003328411 0.0014138041712138854 0.0016720329536101311 0.4669236333199512 -0.0928531652249712
77923000.0 0.7717910177858626 -0.6313214582802191 -0.011231272798980053 -0.4504452051041446 -0.0013648955480663044 0.003009848600472918 0.45524731462514884 -0.09536420277331935
78922000.0 0.765512940252509 -0.6403921580109788 -0.02376120375525701 -0.475610447723335 -0.0011446795103480336 -0.003403061182683818 0.4545247728639834 -0.11332037143843249
79921000.0 0.7562193332367747 -0.6470427361557566 -0.03878271104668484 -0.49934164541812387 0.0007870144435088285 -0.0003025747138782239 0.45279416536417155 -0.10958197661186468
80920000.0 0.752654517882556 -0.6570364738703455 -0.05666524561032793 -0.5281128843714867 0.0010244314799933054 0.00023981874039099972 0.45973413931267837 -0.13350026768673834
81919000.0 0.7472527552310196 -0.6629521888127754 -0.07265990589726269 -0.5532242893284792 0.0007797354909988658 0.0036207346965742683 0.4600117541345741 -0.1355005653568726
82918000.0 0.7382947289499646 -0.6700955269039618 -0.08545659750114945 -0.5840080108453364 -0.0020927915423398892 -0.003162343717373339 0.4705602812879143 -0.1467568106604902
83917000.0 0.7306479085713885 -0.6798173434101661 -0.10471835196987296 -0.608798448607348 0.0020105247099802053 0.0034927083852304376 0.4755306819743989 -0.14743036188642797
84916000.0 0.7256605373299132 -0.6852031684537524 -0.12031592689683737 -0.6457132357943074 0.0008302774048997708 0.0018581118005550424 0.46487707035487486 -0.16316221220083024
85915000.0 0.7179961329658514 -0.6903719668063611 -0.14273916321269797 -0.6745299034315224 -0.0017972343643824246 -0.0021172790891337175 0.4672746743196748 -0.17510859827958725
86914000.0 0.7103540352539067 -0.7022136207988929 -0.15859705502369498 -0.708551183937908 0.0011050337239787115 -0.001571529492337239 0.4505637920251885 -0.1777045832720212
87913000.0 0.7042523722561516 -0.7068226592898553 -0.1712763688489938 -0.7395770658017347 -0.00018575914704646688 8.11676930709448e-05 0.46742757417829195 -0.19026026394861695
88912000.0 0.6976655987916041 -0.714043428881432 -0.19328599182514783 -0.7698052198161356 0.00014435248209439773 0.0015771603097520512 0.46365745206631176 -0.20831335106847038
89911000.0 0.6922772178863849 -0.7230533628996457 -0.20570601719158438 -0.8115500211208028 -0.0030975309984981525 0.003102797902513639 0.46826207781036816 -0.21007693072233483
90910000.0 0.6845009115040162 -0.727893538774848 -0.21899777396482994 -0.8444401340310923 -0.0047355360721985165 -0.005375140480676449 0.46136017275012464 -0.22242839163194789
91909000.0 0.6743986843539254 -0.7342869313467961 -0.24577901512142772 -0.8714357311150037 0.000856857669945546 -0.0033508119016858423 0.46156966145301076 -0.22963111946370207
92908000.0 0.6670027898478498 -0.7433080197012442 -0.2573979912201454 -0.9055742861940338 -0.000357543260413408 -0.0021781193943073806 0.4530444442093162 -0.23417413781430213
93907000.0 0.659863504225174 -0.7471021981172815 -0.2762621345057404 -0.9328066031114554 0.00025467937001542494 -0.0037068868883421554 0.4567227954746739 -0.2553604254848412
94906000.0 0.6502882332364965 -0.7559830925173894 -0.28985772415783945 -0.967789896042544 -0.0008039693377525489 0.0007664072586939192 0.46189806765950253 -0.25187326990456455
95905000.0 0.6445104845816653 -0.7609779522570329 -0.31412780418275205 -1.0013643769294587 0.002776895024701233 -8.025384268394882e-05 0.459967169297534 -0.27055096102659415
96904000.0 0.6351486670872768 -0.7711121554263398 -0.33164867275328475 -1.0399867943204781 -0.0027402949184790353 -0.002429565576344457 0.4438126768841725 -0.27216626640696145
97903000.0 0.6252322545520912 -0.7744929946698739 -0.34879634954074307 -1.068319090485634 -0.00040466986736527815 -0.000253411091443465 0.44899122738804387 -0.2925448808534819
98902000.0 0.6208021117546776 -0.7836813762505351 -0.37059739063869973 -1.1068257533938155 0.002248808196863173 -0.00018442369399023411 0.44549586026839005 -0.2941888848354524
99901000.0 0.6105540330572622 -0.7882703903372951 -0.39352779543020977 -1.1343710610046602 -0.004599297550899366 -0.0011738745943392316 0.46186978033402437 -0.3185560635998004
100900000.0 0.6047337950618998 -0.7924843024918741 -0.4205454746155681 -1.1619152179489545 0.0023720152554769867 0.0004731957816944755 0.4561669338174401 -0.3175373801327888
101899000.0 0.5925742313130327 -0.799567099486196 -0.44766509191896664 -1.196885115914716 0.0030653493808371957 -0.0028082241014564737 0.4400747981295027 -0.3176325185828388
102898000.0 0.5845702004127498 -0.8070717752910194 -0.4810331677149487 -1.2351075077494762 -0.0016698795752122463 -0.0011711089436892575 0.4432561676732888 -0.34423334119110155
103897000.0 0.5763377248256236 -0.8125249363353865 -0.5143437204135668 -1.2690106036228108 -0.002084857995102213 -5.865683096946163e-05 0.4557666593837924 -0.336387360137295
104896000.0 0.569267150867128 -0.8228592532970768 -0.5589733690645982 -1.3025093038825375 -0.0008583694855607447 0.0018990248495462563 0.4381130483418745 -0.3318214008417637
105895000.0 0.5596445827047084 -0.825956356867161 -0.5970170493349097 -1.339296563060041 -0.001420056944838726 0.0005906131689518134 0.4325853924540362 -0.35754870243980397
106894000.0 0.549217415801751 -0.8304448790498057 -0.648607764879608 -1.3690798884264859 0.00044029483983380003 0.0008082840594665518 0.4191072915433128 -0.3628943563852002
107893000.0 0.539139834760804 -0.836901630267317 -0.6988232877023681 -1.4104479079830823 0.0005372291464503745 -0.0015562882777237007 0.43430813547485414 -0.3793712361030495
108892000.0 0.5320739025603106 -0.8405207522311636 -0.7564537307338836 -1.4470642359618282 0.0026343981908702875 -6.772482853691909e-05 0.42498049699597057 -0.3743102125965278
109891000.0 0.5209072685789948 -0.8487147069113219 -0.8095897258194144 -1.4787382656669321 0.0024969813985595128 -0.002284822294303822 0.43525688930545575 -0.3678011249277771
110890000.0 0.5095677916885829 -0.8501969005487029 -0.8644536311484351 -1.4838525467074835 -0.0016735410312477344 0.0027941318300377794 0.42773520848541013 -0.3786299957503932
111889000.0 0.49781408822610385 -0.8557391107514094 -0.9319371276721291 -1.5453427581175063 0.003269671202892977 -0.0022245537640102992 0.41998203847388854 -0.40051584301787263
