! Created with skrf 1.9.0 (http://scikit-rf.org).
# Hz S RI R 50.0 
!freq ReS11 ImS11 ReS21 ImS21 ReS12 ImS12 ReS22 ImS22
1000000.0 0.9944955191212428 0.008900737658123332 0.0028747624257861805 -0.055610845552061944 -0.01858132352368063 0.0005340453708897954 0.3002036574967774 0.3150403780637611
1999000.0 0.9987502873956166 -0.01193382197509158 0.009897962930932999 -0.02756872213270641 -0.00907702599359922 -0.004784123981422732 0.2607700683296831 -0.0706092483855508
2998000.0 0.9986788326973449 -0.019319638259513484 0.010019916818947488 -0.012301384531871738 0.0019120027104819262 -0.004939297179317091 0.19051342507121874 -0.1280459879286857
3997000.0 0.9993946757631887 -0.028258607944322695 0.013553732259543863 -0.006641903710465854 0.0016908402251619714 -0.0004005036638661551 0.08942030018806993 -0.22919326838263696
4996000.0 0.9949098008950691 -0.04040971717760514 0.013656168061895783 0.0015833274788424334 -0.0038254112345389134 -4.744205157563646e-05 -0.036925426556607556 -0.20679327573606593
5995000.0 0.9953752743553836 -0.05355600374733518 0.008243290138316593 0.00294693084446045 -0.0015700219649107678 -0.001128561207997923 -0.11097486237139388 -0.1099348343458532
6994000.0 0.9916128268314328 -0.06185616184451388 0.0013363762746514216 0.004807033500751663 0.001820430955044431 -0.0028193554446922825 -0.1442717565111241 -0.022973524157928506
7993000.0 0.9961608236803167 -0.06907329283133266 0.003866595470459661 0.0072029903498145005 0.00029379942355799204 -0.0011922716845169945 -0.1620618214294102 0.044369751793558176
8992000.0 0.9955120473830992 -0.072346264775179 0.0005551416091134055 4.816685577218873e-05 0.0006601964014750617 -0.0026589251894597143 -0.1494460385993661 0.06436645405369779
9991000.0 0.9927252704576937 -0.08278241963447891 0.0006631986071833241 0.005879079488726622 0.004008878223588435 0.0017814158725683437 -0.138600195135231 0.09497270919251431
10990000.0 0.9924627116137414 -0.09165246074874107 0.005950083104529892 -0.0012862969006368328 -0.0019909661187043405 0.0036213692788186315 -0.13784378057116478 0.11183874700142422
11989000.0 0.9905862480272178 -0.10210832236580543 0.00026613658719093524 0.001146130395347476 0.0029899160721276186 -0.007835514370335426 -0.13596362386988578 0.1514004994482126
12988000.0 0.9896810256050105 -0.11201441086938123 0.00040285213956711355 -0.0037423042317009983 0.0037069228217819603 -0.0022393249245815294 -0.12113289245521108 0.17347903605460305
13987000.0 0.9872608903150313 -0.1189978744321589 0.004761945440595205 -0.0037221438736962527 -0.00031538037085077346 0.0019312380150678034 -0.0940750902300839 0.18679710846212683
14986000.0 0.988387892453548 -0.1266035161724726 -0.003857308788430887 -0.001955697566699371 0.001158027485142571 -0.000770478115298788 -0.09173329767126136 0.20771969535736318
15985000.0 0.9894620796580226 -0.13389384384213132 -0.0005145840111822977 -0.004393591336357597 0.0023787803808108876 -0.0021555643892886165 -0.07472959935601899 0.22227210293219185
16984000.0 0.9855251882178451 -0.14492806433945427 -0.005807289572558465 -0.004933743272673774 0.0005846397916879841 0.0005638896859564206 -0.059803140865298414 0.22478651457090407
17983000.0 0.9854934451649989 -0.15355433325641246 -0.001294643681641245 -0.004612216981212658 0.00410885915191379 -0.0016210442598936924 -0.051694298042947825 0.23682880010422483
18982000.0 0.982454730867316 -0.16297378396671527 0.0024191958271858644 -0.0009358777797701475 0.00020985667097914255 0.0026074653246380003 -0.02856393534053026 0.23182743395274
19981000.0 0.9840710287435923 -0.16842911565560117 -0.005135640209757247 -0.008126054240486248 0.0005150168178474574 -0.0036843646737518094 -0.010906225706229681 0.24599392786002908
20980000.0 0.9821256151803089 -0.1779910532995964 -0.0057409420424788 -0.0043758281561093485 -0.0008477945901171423 -0.0002506356964702086 -0.002957254656931447 0.2597890808438808
21979000.0 0.9785529975262022 -0.18482436151786005 -0.0033070212004632526 -0.0036658777298331415 0.0032008559967655415 0.0037013180617139724 0.010935805599042826 0.24137016562603578
22978000.0 0.9753704511188527 -0.1973870819613223 -0.008048660645757984 -0.0007499186397654453 -0.001028990359612455 -0.002103931344014018 0.026940055338021823 0.2681991568489251
23977000.0 0.9770749677710694 -0.2017397202341762 -0.009374213810745708 -0.002317321044055925 -0.00033183550780868675 0.0049607315557432 0.04134614928474178 0.2569320077465707
24976000.0 0.9731942204736693 -0.21427561272026993 -0.005986774420909694 -0.003345613672264237 0.0016422945171842551 -0.004283121596876107 0.06558551604931735 0.2560314352166639
25975000.0 0.9662699379314592 -0.2213060169401954 -0.004392477944142157 -0.004343810827214359 -0.025027739090193186 -0.009432207167239066 0.08609260602820588 0.25625513542436984
26974000.0 0.9697800446118258 -0.22921486860298815 -0.00672375284236779 -0.0035312498099187317 -0.0016055205625430126 -0.00039693441861416947 0.09486330431890158 0.26592143167428134
27973000.0 0.9677097471382364 -0.23854272412641386 -0.0050887698296356 -0.0035984100860644657 5.573367177780577e-05 2.152033164112857e-06 0.10090001932957977 0.2582424906948708
28972000.0 0.9647439247049594 -0.24830257246527151 -0.0042488246580999 -0.001961478168556119 -0.00027332991190160246 0.0017461167244777374 0.11881589097726625 0.25699263786396365
29971000.0 0.9632641178682104 -0.25684400019774345 0.00438555391236742 -0.0019471700505397098 0.0006700376225306468 -0.002607100268931457 0.1524994903389547 0.2777842847811212
30970000.0 0.9620044621209053 -0.26200142866302784 0.002827922820219379 0.0012930897126195364 0.0010227943217955302 0.0029080808668609653 0.16563326166820364 0.26131336285990503
31969000.0 0.9598098878609953 -0.27028753056192517 0.0029870715276538794 -0.006077927578318083 0.0011083042928600074 0.0030364241692537094 0.14301616585224491 0.24882946792316052
32968000.0 0.9576608942258139 -0.2783961183828079 0.008611439130027694 -0.006447641409975267 0.00014967417292571447 -0.006172077596201124 0.170933275180743 0.24373103963177195
33967000.0 0.9545429241088947 -0.29149105073507975 0.011096102875082123 -0.009587797849120217 0.002562374595525055 -0.004439676229141919 0.1844968548612747 0.24457391776577023
34966000.0 0.9505039120422869 -0.29833064704838613 0.01639550287651711 -0.010224996727438061 0.002420249792999493 7.193995141722035e-05 0.19689367185387585 0.25170087566176297
35965000.0 0.949108009723173 -0.30692739775444844 0.015000568583933178 -0.015669765275163408 0.0021273419230650762 -0.0021387424114581405 0.20801821995350286 0.2500122157363038
36964000.0 0.9465710698427952 -0.31530864994266566 0.016321041555778102 -0.01605676113712116 0.0006005105458405397 0.0006395212139767508 0.22019296867656507 0.25638334506438054
37963000.0 0.9419830488325378 -0.3251959344151717 0.02264150554737985 -0.02030702428244886 0.000473009717017514 0.0014060672170661014 0.22911057244173366 0.249462039117019
38962000.0 0.9395966337360755 -0.3346355947472341 0.026305073934547965 -0.02549428981905488 -0.001959286245197803 0.0020545845936049204 0.23820673785924665 0.23263759663574615
39961000.0 0.9371753452782053 -0.3413267613133735 0.028545029359332643 -0.028945633170045483 -0.0016044438281812442 -0.0011660901939005894 0.24847140270290274 0.23838730689542162
40960000.0 0.9343632152673704 -0.3499680907386007 0.021474888709663457 -0.023115939525737837 -0.0013482757131956422 -0.003554933305493477 0.26814552471656694 0.22777296312661205
41959000.0 0.9310156091978733 -0.35932509410687263 0.03205261001060602 -0.031816517234732014 0.0006734686214782929 -0.0017650196648196666 0.27630398171521947 0.21509658483647684
42958000.0 0.9249574972792122 -0.368782793850223 0.03247005871625138 -0.04079440592352324 0.0009032070715006283 -0.0026097765804710678 0.2798357079157843 0.2055234000601193
43957000.0 0.9252497748948635 -0.37393332197332235 0.03605512065201293 -0.04632701836799763 -0.0012439041808027106 -0.0019551313628453555 0.2951409720824616 0.20550892109156627
44956000.0 0.9219113847382888 -0.3834636600956219 0.036664856372556766 -0.05542331176743035 -1.1181688618023738e-05 -0.0013702693609688205 0.309357320944986 0.18181026319419075
45955000.0 0.9168446451988662 -0.3933436331786305 0.03758541469948674 -0.060953780525883745 0.0002792347055718001 0.00016759478668869777 0.30508073949018844 0.1905040702192994
46954000.0 0.913773030695993 -0.4021029942199634 0.03623047714133194 -0.067450339701379 0.0011841076763115118 0.0005277350498584986 0.32319206146147783 0.17744860094483794
47953000.0 0.9108540113454658 -0.40884365924503957 0.036844927684020944 -0.07413841708412222 0.003379605848805844 0.001873539838625624 0.33526096321380605 0.16820608052609454
48952000.0 0.9029652709031841 -0.4209603965502447 0.037743046444064024 -0.08302489297229611 -0.002883014907009663 0.0011151771235369144 0.3300443595156967 0.16554462867116385
49951000.0 0.9015597731222796 -0.4258950866548047 0.03835201632883747 -0.08819261442100798 0.002432283704363134 0.0050713944681014065 0.3539216560166741 0.16221849498874985
50950000.0 0.897393059298113 -0.4354149475518423 0.039804236402607926 -0.09985853378037003 0.0018856785658297808 0.0016965948801555845 0.3541801115781439 0.1391013583416552
51949000.0 0.892344612000203 -0.44339526864210815 0.044026312714342965 -0.10682820173188766 -0.0014436882776673304 0.0007725630843671847 0.3639047131777984 0.14627492620399535
52948000.0 0.8916354641739765 -0.4504635792961039 0.0452322626399766 -0.11602611448410301 -0.004952041324059087 -0.0017182359726798653 0.3736492090238037 0.13970613841161683
53947000.0 0.8847220893322468 -0.460491652555813 0.043715661938069784 -0.12421981575065386 -0.0022270862940174173 -0.0015705521653226824 0.3737577285187242 0.12588124610728818
54946000.0 0.8794635314880039 -0.46898049015246773 0.04656278452157072 -0.13654116905020905 -0.0022757713372166194 -0.003614798785659207 0.39437321518669927 0.12838568372410306
55945000.0 0.8768611464277106 -0.4769816434198292 0.04771094283655001 -0.14654896635751974 -0.001061822944591358 0.0012734847812107288 0.3956783641160372 0.09686411487138406
56944000.0 0.8727180435709341 -0.48320886805782154 0.04956151510090195 -0.15414292079428452 0.0012926858096741468 -0.0019327487269604128 0.40167895503287215 0.10498999559072221
57943000.0 0.8677833174184497 -0.4946704086421889 0.04762836580310505 -0.16741626899714857 -0.0024306535882104795 -0.0006898066802688423 0.4075102355818519 0.0934983117269161
58942000.0 0.8621116472659693 -0.5010959886821653 0.05153904318121031 -0.17808934027396287 -0.0017079576298379927 -0.00329367990174792 0.4243680390601737 0.08812553529178078
59941000.0 0.8585371127192577 -0.5074209247800888 0.05331360065665433 -0.18804915191529792 -0.0007716120451411782 -0.00047518979767146566 0.41268722877098574 0.07556156623981589
60940000.0 0.8513576206986952 -0.5137314025132751 0.05330152345581762 -0.19127989565746037 2.5883156331872374e-05 0.0015606702221655604 0.4135048955145094 0.08220378230972514
61939000.0 0.8472280180653445 -0.5220751556606275 0.054616857453540946 -0.19988790696075034 -0.0012793841908731983 -0.0009657730652217072 0.42745515389298 0.06322537042626794
62938000.0 0.8424650961648679 -0.5329922644878817 0.05745759226044807 -0.21806359248767798 -0.001589214431932758 -0.0016462722160495331 0.4397192589336412 0.04951334375761146
63937000.0 0.8379113033306951 -0.5387441623216495 0.05999499445371184 -0.2386637527556061 0.005940267712242549 -0.0015883910953819534 0.43151639576164835 0.03787106682992298
64936000.0 0.82983667547715 -0.5463836301153532 0.058234381704818705 -0.25209228332183725 -0.0008172405961864227 0.0014744578002590853 0.43620870164609965 0.03520405503564855
65935000.0 0.8284411782934049 -0.5564868609813127 0.05564240358494998 -0.2631393558268689 0.003651417438030679 0.002243130866032 0.44013276040970833 0.024192749830696574
66934000.0 0.8224755711988996 -0.5623305451129644 0.05420464652498993 -0.2797886782388825 0.002038539852621645 -0.0008651928271624318 0.43939177658584144 0.007355839853340398
67933000.0 0.8195636423827458 -0.5715319309796493 0.058268981538433934 -0.2951753019955492 -0.0041351234224094304 -0.0063020560063713265 0.4457686322919248 0.008393514257253322
68932000.0 0.8059154162443899 -0.575160174821442 0.04715488916115114 -0.3067885271556933 -0.0016487904872662922 0.00023595423111523703 0.4612253168342599 -0.007470563661906019
69931000.0 0.8036608256570187 -0.5874198259033134 0.05230417386994958 -0.3235023761566862 0.0023291361466445367 -0.0009373353278810301 0.44628791338074353 -0.015066214344419147
70930000.0 0.8014768951201984 -0.5919021188528443 0.05055172654528079 -0.33788507473294993 0.002021852374182131 -0.001419478370639751 0.44697224114671025 -0.027707839217937222
71929000.0 0.7952867029757315 -0.6015567504998931 0.04297218580543619 -0.36053616168283736 -0.0009300000896192213 0.0029447265631994154 0.45671195389344443 -0.052881940551782934
72928000.0 0.7888245309699945 -0.6129674798926679 0.03862020229462842 -0.375877666006176 0.0009759734836136437 -0.0031442669153885537 0.4640688218190005 -0.053672105592800855
73927000.0 0.7820795588249851 -0.6188232879038383 0.027568511854841857 -0.3962618626793523 0.0015210494597966806 0.0006842084116350995 0.4521011270283816 -0.06916087553926135
74926000.0 0.7749819080753583 -0.6282293041604131 0.021851208701141964 -0.4160575652983481 -0.0035708655350650364 0.006107157268008144 0.4692076473130437 -0.06205666105840989
75925000.0 0.7679173586096948 -0.6326415204291522 0.010719240948308607 -0.43505472989583976 -0.00019304624051242684 0.002780377691803252 0.47537832566597776 -0.0803794861392607
76924000.0 0.7627166839505873 -0.6395070357395765 -0.0010828975032124873 -0.4599554117381896 0.0010251283286481932 0.000901855348234384 0.4631796541637035 -0.08034819537980922
77923000.0 0.7570997896734323 -0.6458798376148963 -0.013016093288170515 -0.482769971734742 0.0022999247395235805 -0.001798192566308567 0.46321463221161685 -0.09017637991212864
78922000.0 0.7508618632654066 -0.6565119924377633 -0.032941308834613055 -0.5077669590282068 -0.003784799127860588 0.006394733910550597 0.45474760065311937 -0.1170577396553986
79921000.0 0.7428272042232302 -0.6614410796880545 -0.04962914220583952 -0.5368183321142009 -8.648181785147602e-05 0.002002554040282657 0.46053849854343365 -0.10746172879848793
80920000.0 0.7380366404439606 -0.6736616253537024 -0.061195569303923725 -0.5655172326795787 0.0018397438296385686 0.0021304016512871025 0.47478711396492035 -0.12303687371622256
81919000.0 0.7299288384253728 -0.6793231767847953 -0.08045791675711397 -0.5955246667167576 0.00313068675072589 0.006430932177657401 0.46843330995896376 -0.1307962365088898
82918000.0 0.7198151137779935 -0.6872580361034525 -0.09599673136091805 -0.6265950325752828 0.0018186864879266899 -0.0009196183103510296 0.4738447514236178 -0.15672379721436633
83917000.0 0.7130156406603017 -0.69584526569833 -0.11923390293560497 -0.6545372942046486 0.0010186674092920035 0.004524246379016766 0.4709784318027766 -0.15374150090849675
84916000.0 0.707445157130373 -0.6998980437962243 -0.13074281024371967 -0.6884000943743215 0.002903732828478826 0.0006609219031590316 0.46592681269372027 -0.16964401838282098
85915000.0 0.7023826189674838 -0.7070415406532905 -0.1524267376461177 -0.7196138015717609 0.0025735484907525906 -0.000717482422297622 0.47033848768540065 -0.17792642145226836
86914000.0 0.6946187315951025 -0.7166519574069489 -0.1640443234137237 -0.7575089375768009 0.0012709539784221185 8.8809978514798e-05 0.47367487161526156 -0.17653547004855857
87913000.0 0.6856390941369207 -0.7235584779802546 -0.18609335361424426 -0.7865161504537614 0.0013805043715437405 0.0013378366051011695 0.46365667196970495 -0.1848644438364972
88912000.0 0.679434319002488 -0.7280246546694867 -0.19799668797038567 -0.8233830118831441 0.006730432736867467 -0.0029299381326920028 0.46424864942203575 -0.20159386591812697
89911000.0 0.6710690452341209 -0.7389876110264404 -0.2174017185798612 -0.858724251321414 0.0004981948703371811 0.0022011655097458525 0.47159987147708066 -0.2020833357375145
90910000.0 0.6642909884591067 -0.7441711546183598 -0.23521396201922845 -0.8946115253366776 0.000199073583335755 -0.0004319971740855051 0.46133920750153445 -0.21622251303658482
91909000.0 0.6556904866268871 -0.7494212190857662 -0.2576459197235832 -0.9245080073410878 -0.00018606519086235 -0.0005435470512396855 0.4698325900931435 -0.23031720120600674
92908000.0 0.6464565752594941 -0.7571657915475093 -0.2775291170536792 -0.9590505466279686 0.0008978053990248576 0.000989341820437616 0.4687198514344251 -0.22882342420585006
93907000.0 0.6437480135999935 -0.7629253182756899 -0.29090055749203425 -0.9905074223602889 -0.0030070815477690823 0.0045557691846236795 0.45931291044651873 -0.24727184365015806
94906000.0 0.6280719582517865 -0.7717258844873391 -0.31504528664578796 -1.0218581948760177 -0.0007549804351335018 0.000478484496980444 0.45956347945014236 -0.2595157862552462
95905000.0 0.6241783110991351 -0.777401295282836 -0.3296902625958814 -1.0621881260141532 0.005731615112816162 -0.0012373945139030576 0.46225908118209863 -0.26791384950144315
96904000.0 0.6147857176703403 -0.7863557243516224 -0.3511763111872423 -1.1024325977500489 -0.001055362714093734 0.0029697411970280685 0.4528432102382068 -0.267676071700769
97903000.0 0.6039322951500852 -0.7904158837566148 -0.38163982971227256 -1.1328901222453955 -0.000984497512503433 0.004079557989383599 0.4518333252156309 -0.29376439851279784
98902000.0 0.5985068344611069 -0.7976801980169403 -0.3951326017278123 -1.172910021121744 0.000246336316927961 0.0026237583602508763 0.45121195907021594 -0.2942946515807206
99901000.0 0.5859995874879809 -0.8044731696737415 -0.4295796323970199 -1.2009754468471205 0.0008990517087292903 0.0013589299242900432 0.4664665582395173 -0.3114660387284286
100900000.0 0.5805947341353085 -0.8071790351956316 -0.4607444873918036 -1.230761163370889 0.0031431589172315525 -0.0015304731164995271 0.46286224793445174 -0.3114247246720565
101899000.0 0.5704925269568399 -0.8150576358095171 -0.49085692463598296 -1.2697370355069215 0.0003335773656116262 -0.00129509793186176 0.4544763200113522 -0.3229999993915464
102898000.0 0.5596568488212423 -0.8230787740869504 -0.5353698528256458 -1.308786121047456 0.00029324256760463683 -0.0015260125735634161 0.45811321345114475 -0.33744953418024737
103897000.0 0.5520811142430048 -0.8283101698887938 -0.5707550558199646 -1.343827050379605 -0.000505510657713212 0.0007124331848583107 0.4571645261742694 -0.33988646059508715
104896000.0 0.5450303598344327 -0.837617445357216 -0.6174726560486394 -1.3735185104235903 0.0007799420868243832 -0.0009797346287357747 0.43513540130246664 -0.3347082759648189
105895000.0 0.5321760872393836 -0.8402555131747604 -0.669725994642539 -1.4164021056762313 0.0013836603900644366 -0.0019394915937602647 0.42768322882559606 -0.35541632035447224
106894000.0 0.5236954298842464 -0.846235567386738 -0.7197498942446836 -1.4566964415621282 0.00015488991260845307 0.0026020933044332106 0.43679648370889346 -0.36520794003080814
107893000.0 0.5155479863282572 -0.8541016836477253 -0.7764836511772094 -1.4969738667176222 -0.00048963891639165 -0.00306791251601326 0.4354020696309348 -0.3696876314432207
108892000.0 0.5058901306026704 -0.8553135841332189 -0.8334194707611778 -1.5328945501097453 -0.0021118881681733543 -0.0007549049969753774 0.42973046525892744 -0.36168525829005777
109891000.0 0.4928717658529818 -0.8641329463259477 -0.8957181988814495 -1.5677509700818468 0.002348387049972606 0.0028840434077906946 0.43489634774287267 -0.37545443200728146
110890000.0 0.4795809443156179 -0.8641542754823008 -0.9572661847271628 -1.5681281714445094 -0.0003107746911500542 -0.003581028148655856 0.4326156133315557 -0.38125933335691853
111889000.0 0.4728622955007471 -0.8693628280061002 -1.0246517212782125 -1.6354308906773152 -0.0015550110312100977 0.002530650816630953 0.42022773938474234 -0.3981335799221023
