! Created with skrf 1.9.0 (http://scikit-rf.org).
# Hz S RI R 50.0 
!freq ReS11 ImS11 ReS21 ImS21 ReS12 ImS12 ReS22 ImS22
1000000.0 0.9871622699826659 -0.0009316230980562339 -0.02065732080215553 -0.033363369338495055 -0.014907524656735692 0.01888174697581814 0.3585574042971545 0.3366933354681777
1999000.0 0.9991480887951516 -0.009717200605410235 0.007551544123818444 -0.020715473627470435 -0.00410137459361656 0.004406596137852503 0.2491395335891541 -0.03323188676585715
2998000.0 0.9965223394813391 -0.025881242427651063 0.01145157647416737 -0.02252623135494032 -0.005958227020141092 -0.005637621573647934 0.1923158185721745 -0.13268719398613588
3997000.0 0.9958054537372074 -0.033771768040693116 0.007900590271629968 -0.0065145286262266065 -0.00348853102160203 -0.007960895291373973 0.08261068739148213 -0.21987143988600888
4996000.0 0.9969357226653041 -0.03881791576383267 0.012377113781058402 -0.002659727008855264 0.0038252932323623342 -0.003710463281713339 -0.05994759732891725 -0.19288853215912033
5995000.0 0.9959078989565622 -0.05207848385433221 0.013011397719354716 0.0019246989916272446 -0.0001748536693148874 0.0017967423381464913 -0.10452410091444925 -0.09694422186508088
6994000.0 0.994924783410831 -0.0587700023256002 0.004327741673096611 -0.0015491504489374 0.001481109926313944 -0.003300207562771515 -0.13397291166404277 -0.01906192466721552
7993000.0 0.9957206217620591 -0.06923652628734686 0.007417455093092922 0.003377690105212417 0.0030011641932565104 -0.001466531143349843 -0.16359362949257827 0.049677686396359264
8992000.0 0.9941456955222976 -0.0718500166996321 -0.0011509150398215122 0.007067047554220407 0.007611279121554245 0.0024145639885479195 -0.15809915849781753 0.0863331900677947
9991000.0 0.9925444901981506 -0.08072494581015949 0.0013442184794114687 0.00374482869372001 -0.0017537073424759868 0.00010427974801375419 -0.1395761165062024 0.0814676948971616
10990000.0 0.9921174019558686 -0.09104969940278416 0.005138825067923612 -0.0015681752221546853 -0.00423319295985653 -0.0008006089517492978 -0.1354876869021133 0.11040972963880907
11989000.0 0.9902540806085325 -0.09882243210501401 0.001990475344921632 -0.0008487246763839914 0.0029440182585526954 -0.0016329801269790016 -0.11605294480178126 0.14694575006727725
12988000.0 0.989147345853979 -0.10978074036473219 -0.0004984239292413804 -0.003770187012661784 -0.0014888937816392577 -0.0009565028100413248 -0.11190620782929109 0.17321369888454988
13987000.0 0.9857464049403808 -0.11934557983903309 0.003684741079251177 -0.005150774059399119 -0.0029387889212304156 -0.0035811618312292692 -0.08305411643227412 0.19146969794099078
14986000.0 0.9879267307325826 -0.12621910120513102 -0.0007439834435627377 -0.006563568396560558 0.0008069215206901804 -0.0007474927427554377 -0.08653630602693405 0.20846709357705073
15985000.0 0.987196183287429 -0.13441565188895582 0.0011906193987218426 -0.0008716921994094233 -0.0006188165769770125 0.001583302081165326 -0.07638755865956784 0.2351738164845761
16984000.0 0.9856542748761417 -0.14303646273376405 -0.00045949030566323437 -0.005665823884512958 -9.966291308904065e-05 0.0022163513180980254 -0.07763211061541338 0.21433175877990226
17983000.0 0.9860622953213273 -0.15000389687483273 -0.0020203298211305715 -0.00690702117422196 -0.0017920361976764578 -0.0016397457834729453 -0.0385016902274385 0.22390333763566445
18982000.0 0.9818906692169569 -0.1613221815767333 -0.0022829298042774584 -0.0025243593309871087 -0.00469886885417169 -0.0013867141549343293 -0.017473546226280202 0.24055608258723798
19981000.0 0.9824158340071694 -0.16547623259247152 -0.0047427336573901925 -0.002460595988446345 -0.002379998022026641 -0.00018602123687975962 -0.011382802644887792 0.24608846596842596
20980000.0 0.9800804574722732 -0.1751198462451919 -0.0016070462243213011 -0.0007077886304248253 -0.00036669922089492383 0.0015572829856551622 0.003496698930396374 0.25864441617896
21979000.0 0.9797241635498024 -0.18536460419033648 -0.0028355107796994615 -0.0016264000435342323 0.0013811166952494294 0.0010637025580975611 0.010045033445894587 0.2552263897228515
22978000.0 0.9769712250325996 -0.19200384010561233 -0.005386317843345157 -0.005781345764868382 0.0046958236816179826 0.001990443648073399 0.023620565101642694 0.2629531607775785
23977000.0 0.9779374519335263 -0.20230610797195936 -0.009084981482991639 -0.0011580026083714216 -0.0025655130895495585 -0.0023499737129061417 0.03617232819651572 0.25664351374831895
24976000.0 0.9742253077004925 -0.2128577198714686 -0.0032921619768442527 -0.004164196268455767 0.0018417203084451872 0.0017095787036461834 0.05964694116900462 0.25443500947428854
25975000.0 0.9689244465015708 -0.2165934455347731 -0.005572452223874911 -0.004583878196236409 -0.026625797230032767 0.005311959387954634 0.07994126294961618 0.27301838617532764
26974000.0 0.9693154494174573 -0.22769731916215613 -0.002895616641486726 -0.0012594484913822932 0.0014504493944017154 0.0013636906692793996 0.08808045452981855 0.2607360735479089
27973000.0 0.9697111096089894 -0.2345773705153645 -0.001917140567814494 0.00029352608125330157 0.001207547040525579 -0.0004762515584005119 0.10729097645814943 0.25611496655146265
28972000.0 0.9660863746171209 -0.24374642187147655 -0.0020194744990373373 0.0019196206168766515 -0.00044519400932462993 0.0017833482479755495 0.12233158403072593 0.25910500723361835
29971000.0 0.9638701735694148 -0.2535887291664716 0.00305184514296176 -0.004052728856607695 0.0008862031945463051 -0.0012050301009069954 0.1466705819615876 0.27305509667656674
30970000.0 0.9612228849753728 -0.26059696927750564 0.0008754497376457682 -0.0005484648925300102 -0.0024128467758063763 -0.0032432726072103117 0.1801759603385612 0.2503520990466771
31969000.0 0.9605385778239287 -0.26787152809133047 0.005153381652478029 -0.0059152969330374975 0.0009429698227779327 0.0011155887007612412 0.15523687723374793 0.24757271443500042
32968000.0 0.9597462582700707 -0.2767512029433638 0.003952023475243012 -0.0064951405009921175 -0.0021354593118785487 -0.0005062468932054753 0.1727153517767832 0.23762070355215686
33967000.0 0.9550722000875984 -0.2894005436343104 0.012304559459570395 -0.011896365362407827 -0.0002873994848780834 -0.002658972211099772 0.19078854795167582 0.2507319570686814
34966000.0 0.9541691793974046 -0.2939321260224607 0.012885012381512496 -0.00977821698921995 0.0019363774849703726 0.0016596467281321692 0.20475577136019457 0.2547760583153208
35965000.0 0.9493019229121945 -0.30503224402054624 0.019048215142727858 -0.014346045129106248 0.00019106293485575353 -0.0012004332298750755 0.2151868396050388 0.25419984385871547
36964000.0 0.9469080408050625 -0.3143128971768706 0.014660829875960991 -0.015484078687417269 0.0006434250831114181 -0.0014219947378380359 0.21835995993734028 0.2544690010613535
37963000.0 0.9428016911358018 -0.3231145325367959 0.02074544758720542 -0.021905206497235142 0.00048420276318916024 0.0007298830687918319 0.23065983441348148 0.22950399150852543
38962000.0 0.9410620069374633 -0.33144600615610603 0.02273163884304927 -0.022576817129063467 -0.003409334800396072 -0.003615757833001026 0.2485697323409487 0.23065477784114755
39961000.0 0.9382138659177803 -0.33962506219743765 0.025767468183748757 -0.024640846061965795 -0.00034723245947336696 -0.0019886491434310573 0.2539813628831886 0.22926450952774627
40960000.0 0.9350887202399583 -0.34667412344447796 0.02170609007136805 -0.022545175379749375 -0.00043433667811735617 0.0031741104781231196 0.27044950641504356 0.22531932637006374
41959000.0 0.931181100546679 -0.35770959987492057 0.031930363190426914 -0.030970811420068252 0.0023907847728978876 -0.0020493421479781254 0.2724202586827283 0.21614127637319852
42958000.0 0.9276198830284769 -0.36456423673645616 0.030144406197779517 -0.03997984186015838 0.0018167818599538093 -0.0007420306186693224 0.2784444433703701 0.20906079344574566
43957000.0 0.9257063023531601 -0.36943775886289654 0.032884167704585965 -0.04463036520214309 0.0038420575457411192 0.0013599914615958903 0.30077431652179304 0.2031565094720035
44956000.0 0.9213055666979458 -0.3801291488117911 0.035543818428042835 -0.050949155188033515 -0.00016005321812257453 0.0042019298922742416 0.3104266292258381 0.19197118366433033
45955000.0 0.9179532052086592 -0.3897529775693179 0.033709575910446404 -0.0570879346919982 0.0014856049467298117 0.0019704231485272177 0.30598468056704 0.1948516788182398
46954000.0 0.9143136293800289 -0.3984997277764682 0.03758061686403218 -0.06503040888022173 0.0021677463092628184 -0.0015403629956206527 0.32580412811711906 0.17876990854963226
47953000.0 0.909529381921405 -0.40689508877186903 0.034453615420703236 -0.07352219219067314 -0.0009545094568809095 -0.002070078932631534 0.3292042871476677 0.16825664760893097
48952000.0 0.9063178405647374 -0.41575472909405503 0.038062737693144784 -0.07984840137380868 0.0032480514084768726 0.000575753296692605 0.33373026260764155 0.17067707870957555
49951000.0 0.9021826989461776 -0.42356689842832446 0.0349440423099787 -0.08740689692929511 -0.0008103546850949271 -0.0003023391504828669 0.3510841549352364 0.15996212697514023
50950000.0 0.8990225319954174 -0.43192400917817547 0.04102950697635441 -0.09499143419323285 0.002767622007924663 0.0013863675979158836 0.3505207339189577 0.14087926276750318
51949000.0 0.8950764522963189 -0.4402094523265436 0.039599526006718476 -0.09902350497575425 0.0005561987584381754 -0.0018322720796052187 0.3572232916702317 0.14660539350680307
52948000.0 0.8907695776376682 -0.4484842426632293 0.03856443149569576 -0.11132638899835828 0.002119027274297179 0.0009582150344310332 0.37246857671880673 0.13466190553035554
53947000.0 0.8869008961331286 -0.4535646131503793 0.043471696690317474 -0.1217601836952665 0.0014494645971596682 -0.002911233591122629 0.3828035747533496 0.12426865350544651
54946000.0 0.8802924667016951 -0.4655496862508287 0.041703646250494296 -0.13118100496479523 0.00024758273604167074 0.002144052463399653 0.3832286537979493 0.12730647269173512
55945000.0 0.8786765659055199 -0.4727727850093346 0.04377979093507338 -0.13944900203243216 -0.001533468729908028 2.6016395028128348e-05 0.39080745695537317 0.10220454426631025
56944000.0 0.8739463190798489 -0.4810903817410851 0.04871653526345069 -0.1488376954612472 0.0030418372057486056 0.002349587172488715 0.3866015495728261 0.11022041095504792
57943000.0 0.8696149897359483 -0.4905174215820947 0.04746254149190422 -0.16025350885961678 0.0008821868559482991 0.001492194217887221 0.3893386841874454 0.09845136931596575
58942000.0 0.8641057192546246 -0.4943869082009026 0.04911398726571828 -0.1706298700939342 0.0012085396142690677 -0.00014312065408728856 0.42116241379883873 0.09032222869867476
59941000.0 0.8597492536039671 -0.5049366449094592 0.04726883414869355 -0.17827660597709757 0.002324472885212226 -0.00023894290183671367 0.41684295176879127 0.0880331703148942
60940000.0 0.8525283966860443 -0.511858886668897 0.04839767924887801 -0.18316397535018375 0.0032833869090171794 0.0012783864180656063 0.4086446655048686 0.08119094812122879
61939000.0 0.8494243139413524 -0.5193146822546643 0.04972402331880634 -0.19086486928932417 0.00020506681555828 -0.000853430379030877 0.4141390317446397 0.06494700056671071
62938000.0 0.8443089063068606 -0.5295889067105852 0.05192245373777911 -0.2058934713451065 0.0012336121054961297 -0.00026535261325716353 0.4376028656745912 0.06074665249604858
63937000.0 0.8380072338478256 -0.5365789320022877 0.057084228623800984 -0.22604081132765744 0.0005549211589453358 -0.000541095196910641 0.4345451849922833 0.043796966997525354
64936000.0 0.8324388504489294 -0.5423438506144096 0.05546683558979845 -0.2428081818218947 -0.0009622691739093296 0.001113800954611216 0.43895087131841426 0.03773815087699668
65935000.0 0.8297337675318528 -0.5545123779956558 0.052603995548514165 -0.25506247808270804 -0.0028034181239472438 0.001956652249334081 0.44276427702138904 0.027210182531196864
66934000.0 0.824147466844486 -0.5601446068818451 0.05499667148386482 -0.2688138493789631 0.0018551048797396511 0.0012743432148625167 0.4421997235531381 0.0054421624827134555
67933000.0 0.8221779034601336 -0.5673961329890248 0.058784933621739095 -0.2817857517563614 -0.0007666615439827442 -0.0029417612191566457 0.44650994152962015 0.00898990914665758
68932000.0 0.8030380557280463 -0.5668948595546789 0.05125502169103118 -0.29121887226782184 -0.002656207558544459 0.0017050018134686206 0.45307687176328465 -0.010974583098966735
69931000.0 0.8055194128589994 -0.5849805814275313 0.05135130495473721 -0.31122726328264616 -0.0029247302596697292 -0.00300502891291785 0.45398029172266646 -0.010026869402393964
70930000.0 0.7998329664791226 -0.5891183107375011 0.04961491151805234 -0.3229478445196621 -0.0010124711713873913 0.0020777660848260676 0.4496624962854828 -0.03545541734908942
71929000.0 0.7976720067359234 -0.6007429624613881 0.0462099325442847 -0.342170640281443 0.002323919004402003 0.0006245110340443984 0.4543270652802472 -0.03705140594954533
72928000.0 0.789579410196071 -0.6077936668544882 0.042291913280353095 -0.35402237387493907 -0.000264903419259155 -0.003885371579881236 0.46952977915546756 -0.04082414273757412
73927000.0 0.7843148964486925 -0.6141494858425568 0.03635780630567366 -0.37630550990003214 -0.0009914204574324296 -0.00461601163941172 0.4676330637300906 -0.053747144793458664
74926000.0 0.7787276971734245 -0.6235586651213944 0.030469580070920474 -0.3911326326320603 0.0013564436644152168 0.0006033025514257494 0.4705671010488832 -0.0540964482377554
75925000.0 0.7707330369902634 -0.6281224695047656 0.020175554227029536 -0.4122638370617561 -0.0029837229999967255 -0.0018898481958851984 0.46734465499473404 -0.06746378817182593
76924000.0 0.7669108531528254 -0.6362294920399444 0.006732589218124698 -0.43394830943769097 -0.0018617958995130071 -0.0014771491883884152 0.4774967700162213 -0.07443766015314975
77923000.0 0.7607099528352189 -0.6447653660157616 -0.006943646406719001 -0.4586310389795031 -0.0034207138385246782 0.0012125997538865666 0.4688454525510316 -0.08847799735650896
78922000.0 0.7544162510931446 -0.6524082720318354 -0.022468637062010407 -0.4853155149253583 -0.002176011360930217 -0.003210410042549491 0.4634999968900655 -0.10504667287881748
79921000.0 0.7440728842661045 -0.657497430967544 -0.03779452810651503 -0.5080166415150352 0.0027967129166198176 -0.0012464294823662796 0.4561891790252671 -0.11941415669950019
80920000.0 0.7403033747095549 -0.6681673325175697 -0.0554914849628857 -0.5407674884621059 0.003897912148967281 -0.0020463635428567607 0.46748750468846045 -0.11983195742854508
81919000.0 0.7335386771442232 -0.674515752378329 -0.07195229332352779 -0.5662234604274933 -0.001417678229587351 -0.0009709668669702763 0.4726620579756243 -0.1346323139600878
82918000.0 0.7258866626074073 -0.6813816620673615 -0.08465207383716225 -0.5980714080743766 -0.0020317092096950183 0.0009511001671960975 0.4790674598184927 -0.14448629750968384
83917000.0 0.7191895823994281 -0.6883543925581767 -0.10472385774204057 -0.6248566979761239 -0.004173683579716445 0.0026310461570267668 0.48003703839164846 -0.14726132099833628
84916000.0 0.7121035728655453 -0.6971021203641005 -0.11974441656705602 -0.6590400421173325 0.0003042630114169042 -3.7284181289212237e-05 0.4678685032000385 -0.16465412379699318
85915000.0 0.7067947382319791 -0.7026245236060211 -0.14165222286504187 -0.6872534377414147 -0.0035182160624104616 -0.0026732722297583213 0.465116726323093 -0.16708371919337042
86914000.0 0.6976871982532711 -0.7134520692264483 -0.15434189115387548 -0.7264556120665909 0.0023814089018683393 -0.003118786827566487 0.46709629782796336 -0.17410470228402952
87913000.0 0.693718913758412 -0.7183325675443435 -0.17478524412435809 -0.7533803799969764 0.0006390923079081761 -0.002061773357015169 0.46316944180754793 -0.17454595204897883
88912000.0 0.6824956618235225 -0.7265554153655948 -0.18729583957176016 -0.788822876921752 -0.001954304923653228 -2.1349439003167394e-05 0.4662497764198253 -0.20453885670567076
89911000.0 0.6773163910150862 -0.735034466620647 -0.2052665843301558 -0.8217869598974122 0.004307382811454449 0.000439077547874507 0.47807455691704004 -0.1980055842181625
90910000.0 0.6702388348648942 -0.7391641303390938 -0.2200294072907888 -0.8579678764640691 -0.0006688161026827783 -0.0013140872819722516 0.4759725261199928 -0.20802667957007998
91909000.0 0.6597668151125708 -0.7451925062701682 -0.23569504545329711 -0.8870908424996666 0.0016906933431938582 -0.0018149515331765682 0.47383685931161595 -0.21454416481392313
92908000.0 0.6512646312458202 -0.7521400817834707 -0.2568313889196036 -0.9210948871542103 -0.0012165020438638274 0.0009369048877421498 0.4609044119018552 -0.22946831017464045
93907000.0 0.6467783951715756 -0.7576457565012036 -0.270233787109128 -0.95043469613733 -0.00012919990563388492 -0.003673709026026448 0.48103053983180366 -0.24561658841805353
94906000.0 0.6315096437287194 -0.7662686567514202 -0.28823240577926296 -0.9840439211075379 0.0023125660280118986 -0.001019378389257528 0.45994892091813855 -0.2423460134007571
95905000.0 0.6266153996200869 -0.7735758340634477 -0.30805227536517843 -1.0216623301107546 -0.00024420536849827963 0.0002087228058493357 0.4641289727076067 -0.2654052573299587
96904000.0 0.6196145295305514 -0.7789025596534097 -0.3200590855441605 -1.0594435771369024 -0.008763785986344499 -0.002427120598168082 0.45872708625616787 -0.25627872801878493
97903000.0 0.609585095712917 -0.7870756216715608 -0.34889288100825044 -1.0870702378437942 0.003520924591026219 0.0013066419854355091 0.4527413046662686 -0.2759065773882256
98902000.0 0.6045476501482953 -0.7939401194304105 -0.36435429250644635 -1.1289916180260715 -0.00015462170270794158 -0.001182771096197695 0.45164960647042535 -0.28667465126883807
99901000.0 0.593906335490168 -0.797767086388402 -0.3905252101702891 -1.1574948209829932 -0.00031286875500402225 -0.005180451919537738 0.4529630709244444 -0.30966327547950656
100900000.0 0.5854704422079127 -0.8017226488648498 -0.41787485655504086 -1.1833244080758685 -0.0010642103500313178 0.0028067232795005318 0.4586524648658855 -0.3019401231245157
101899000.0 0.5763781822675381 -0.8107010703545228 -0.44567719798243455 -1.2214204626202747 0.005129368612064138 0.0005071069731732233 0.45946819578696285 -0.31649102118902706
102898000.0 0.5673279916802966 -0.8145326556559912 -0.4766824064224906 -1.262911260626123 0.001522090051027042 -0.002861059224267211 0.46056819872981364 -0.3251915683097809
103897000.0 0.5574163060567582 -0.821579270000186 -0.5171939466190749 -1.2951377365502812 -0.0011040111526361238 -0.001285297577082855 0.4633747289873847 -0.3212602606063623
104896000.0 0.5521854306741697 -0.8345277914480631 -0.5600448885431247 -1.3267725435886586 -0.0005487355279152439 -0.0012683369898034112 0.44730923463354494 -0.3370653731259743
105895000.0 0.5377614590810402 -0.8354067955720916 -0.6092491322277757 -1.3623118940990357 0.003179399430242523 -0.0013125076411105282 0.44372649766749195 -0.350391818999447
106894000.0 0.5317491620219031 -0.8406308583260573 -0.6532509080878373 -1.4024840804153236 0.0013791267179126012 -0.0013019163476735427 0.43514641715785674 -0.3649385065934815
107893000.0 0.5230825953646323 -0.8478443219297987 -0.7072928597453554 -1.4391291359201357 -0.0010612463811957456 -0.002726108959395961 0.4335479534358922 -0.36301870760685245
108892000.0 0.512422663138723 -0.8509707652715331 -0.7638737461418142 -1.4754924183011824 -0.0008833826347772218 -0.0008725598298386497 0.4393068907611566 -0.3731893848366607
109891000.0 0.5006095607154332 -0.858873765908181 -0.8223347104295365 -1.5123863196031528 0.00026386058073227 0.0006656647623035407 0.4450494145519782 -0.3645867843147107
110890000.0 0.48033863684102296 -0.8673546284373582 -0.9023575854383569 -1.508940462212429 -0.002340820469523783 -0.0018719820765056635 0.4305520856247564 -0.37143286896715594
111889000.0 0.4775108762390671 -0.8664493726487419 -0.9517531632155449 -1.5776659962137756 -0.0016029286546832026 -0.0037468330654161124 0.429125654606333 -0.3933048056770806
