! Created with skrf 1.9.0 (http://scikit-rf.org).
# Hz S RI R 50.0 
!freq ReS11 ImS11 ReS21 ImS21 ReS12 ImS12 ReS22 ImS22
1000000.0 0.9854965900054672 0.0009010036416687143 -0.022155618593737776 -0.0453616196075363 -0.010951625402006105 0.014555009277019875 0.3696580375808152 0.34355479128794086
1999000.0 0.9968377539263812 -0.012503561766459354 0.00631712428649232 -0.020616625632947524 0.006162365633564275 0.0039219391695902136 0.24529849405586615 -0.029739364182244897
2998000.0 1.000792772765481 -0.01937069749054311 0.012825785614521537 -0.01427885816934717 -0.008469793454662554 -0.001069924879117848 0.1794950093468394 -0.14136645315129764
3997000.0 1.0000921826077989 -0.02887312090888308 0.008710987195351565 -0.009203326082727977 0.008587663078440102 0.0006213253505182942 0.09661113257880322 -0.218992881612807
4996000.0 0.9940809960276275 -0.03498170222730795 0.007662054018695349 -0.0010838070177824329 -0.00213875570096716 0.00010414277976158993 -0.051541922365215695 -0.1997026356990515
5995000.0 0.9983276641441854 -0.0508036994068795 0.00912140919551533 0.0009091183901722521 -0.00017272552819108525 0.0011198847132214596 -0.12780642498814496 -0.11803702569850562
6994000.0 0.9976290003528419 -0.06109862784997248 0.006040289279600208 0.001495888509129873 0.0037401116401248055 -0.0022386941090293995 -0.14737140390572812 -0.03199873925117586
7993000.0 0.9965756833006179 -0.06803333784922332 0.00658515362853908 0.00569688461702873 -0.0035824750926677037 0.0010868506692805256 -0.15720619510042808 0.047017781739317956
8992000.0 0.9972642503929015 -0.07083400329993032 -0.0011193306965787886 0.0044460054176188825 0.002223404952593449 0.0005097029612273431 -0.17015773603370807 0.05770048641643263
9991000.0 0.9945231446160591 -0.08278723099292161 -0.0008981158239940938 0.004652589303291277 0.0026640985428810567 -9.831696592160558e-05 -0.1591263889053577 0.10227585784993859
10990000.0 0.9946133542309645 -0.09123418829819108 0.0047458722188625764 -0.00029152175741169764 6.840454640853595e-06 0.002558092042829092 -0.13226381078912963 0.11403974661729707
11989000.0 0.9913664016111796 -0.09849754309880665 0.009356806803750542 0.00023416847499942734 0.0018960476205265753 0.0027683673081250458 -0.14203504114814072 0.12589309953705152
12988000.0 0.9922784106033071 -0.10916379610738558 -0.0018911385526351728 0.002598320625892221 0.00016490321657545596 0.004465673919813119 -0.12346736856557797 0.16511152004778992
13987000.0 0.9902092635601931 -0.12026235896813217 -0.0007299046084792127 -0.0024200391411497474 -0.004224674927993419 0.0005946330465487039 -0.09655810759326677 0.17805614434300523
14986000.0 0.9888203723112408 -0.1238164613864379 -0.00014916343915001513 -0.0023326016121553933 -0.001834656760440432 0.0013090179574666726 -0.09354212298039573 0.19650493685739936
15985000.0 0.990805889518145 -0.13495583002285375 -0.001678765526723605 -0.0034030787190402188 0.002656370986332729 -0.0013062041841035742 -0.06675716049512266 0.2132832514016711
16984000.0 0.9883886237615721 -0.14457176501207056 0.001843175939074932 0.0028358832307793 0.0017546385532483983 0.001760081235470218 -0.06959688715160234 0.21594789347918433
17983000.0 0.9875553910008713 -0.15195762530757115 -0.0018389149051237592 -0.0037375525683144145 -0.0028749115745698908 0.0005088836248387952 -0.06544072194127121 0.22759507459838674
18982000.0 0.9862243068098281 -0.15804210370174854 -0.0023927550310560227 -0.0101272223783699 0.001068719154938479 0.0016605843025777353 -0.042943107127157286 0.24183076555243233
19981000.0 0.9854656674584942 -0.16438042970677663 -0.0034975229929408284 -0.006208511207330646 -0.004484192330219076 0.0028665228219926 -0.019340754220635744 0.24190647578999813
20980000.0 0.9838632327635347 -0.17512815797891151 -0.004542039712854903 -0.006444020486423748 -0.0029143258145615672 -0.0009864225533228936 -0.0041115715000537125 0.2584945726438542
21979000.0 0.9808637584535533 -0.18407393928899674 -0.0026922660606651717 -0.00538100015338138 0.004647726101279686 -0.0008190310947256712 0.015150531955388947 0.24106715378142818
22978000.0 0.9777124218592882 -0.19543569851755668 -0.004860068555978426 -0.0029469836104888294 0.000337972378867156 0.0006985205000705962 0.035640792299405526 0.2533128856021948
23977000.0 0.9778279784553586 -0.20240667360516215 -0.005528935330022787 -0.0005392097845568178 0.0032098462417772056 -0.0016782406629112369 0.03330091389748137 0.2599392976108702
24976000.0 0.9762880218708492 -0.20788776264490472 -0.0007945500724755199 -0.001514124908770127 -0.0019650802633280006 8.670074785580771e-05 0.06578287779628465 0.23907549669936706
25975000.0 0.9667335318252714 -0.2166410868432788 -0.007216800734815644 -0.001975140586886001 -0.023600351599099262 -0.011461424801868784 0.07647699881677716 0.26246006205643685
26974000.0 0.9722133879662703 -0.22670486055474504 -0.004024132466450523 -0.0026863658774744057 -0.0005938986689632343 0.0010414067433163177 0.08443666311821907 0.25904964715349527
27973000.0 0.9712979567479395 -0.23406259360110881 -0.0027248056755041087 -0.0014083137834092932 0.002059526628599964 0.0013889635728080365 0.10592789345309873 0.2554983645145091
28972000.0 0.9685139677872597 -0.2427089069852585 -0.005017122627796431 -0.0023466548324057035 0.0019149478394520285 0.0008464111586445495 0.11406468937198767 0.2535611748877812
29971000.0 0.9661627617540518 -0.2498809805823234 0.00048821309833324555 -0.0020061101401218856 -0.0030199476356659524 -0.0021006172383220187 0.14693246904110127 0.2569189982435822
30970000.0 0.9640959181634509 -0.25862360943767815 0.002310032158229741 0.0015971453308777019 0.0016001115893301192 0.002719005326399976 0.16039721739534316 0.2508094682041151
31969000.0 0.961745310292366 -0.266406732211558 0.003530453710784793 -0.005627758411037727 -0.004328499821523629 0.0027954180530414255 0.1498631400382175 0.23933586590372452
32968000.0 0.9617133061818235 -0.2749675850910904 0.007966018114618023 -0.008168137962961784 0.0011582081692749092 0.00043157541708125984 0.1606289466014658 0.24773250461274446
33967000.0 0.9581972931156583 -0.28498559777614235 0.009711222151070582 -0.012008844052557937 0.0019153895903220098 0.004569800744516777 0.17567588745053644 0.2431425766139416
34966000.0 0.9539766596454844 -0.29510836294426396 0.014243810805689979 -0.013117311787546616 0.00011715559947223841 0.00027782695955810415 0.19330769263744194 0.25137253438708906
35965000.0 0.9514929431572996 -0.3015250776152125 0.01644149857957187 -0.01605597829806506 -0.0015193168625694 0.0031281913351987084 0.20470855725967643 0.23715696639496336
36964000.0 0.9501540090025148 -0.31139324252374034 0.014648186360364154 -0.013322340405951259 0.00128655720311011 0.0003825759014646524 0.21167585751540915 0.24770075577219422
37963000.0 0.9473233768418146 -0.31973693070088366 0.02177055559768998 -0.021774905017195586 0.003793524245092892 0.0003552702387161109 0.2249228603749827 0.2401949549235704
38962000.0 0.943353201432842 -0.3307414595592876 0.02558134708026123 -0.025373417870070452 0.00022588336048621745 0.0016213361784255152 0.24100696654447915 0.24068633967474828
39961000.0 0.9402773817228826 -0.33656816752384733 0.027646353818599347 -0.028648142328549286 0.0032334992267251663 -0.0027545226421592096 0.25103344330531946 0.22391091041589503
40960000.0 0.9371008937274885 -0.34394117306472943 0.023137181761964574 -0.024192600767255552 -0.0022270047721719244 -0.00029378562237195136 0.2595648332580858 0.21808091730525647
41959000.0 0.9349103661903035 -0.35364352849431946 0.02872935225940218 -0.034076060802346014 0.00189113061762833 -0.00035875289614676535 0.269371176262806 0.2059982920409592
42958000.0 0.9297174667389874 -0.3616412619232488 0.031188981529580398 -0.04028473237899804 -0.0012090288722894924 0.001146944706762448 0.27312208091757634 0.203132056129142
43957000.0 0.92855623612924 -0.3662191831055538 0.029603740531036628 -0.04790000436963507 0.0014127732236668808 0.0007452018741997968 0.2784573764114023 0.2109646215792559
44956000.0 0.9261820297706813 -0.37404752309681305 0.032887299959986 -0.051555071843921475 6.038509011615188e-06 0.0026803573644029106 0.29744874278452527 0.1947415247986554
45955000.0 0.9205189754578481 -0.38662115751602827 0.03328934681849797 -0.05601306341781138 0.0015229165054044902 0.0007430980786562266 0.29455466005992126 0.19304293714607695
46954000.0 0.9173214465616211 -0.3947183309945143 0.03490161218875859 -0.06460532051824755 -0.000545202222175322 -0.0028416680502182327 0.3241571451665048 0.16712175144636784
47953000.0 0.9136971120021855 -0.40328864775600315 0.03461389826243556 -0.07069914665770556 -0.0005581916911337783 0.002293899678723813 0.32851351915387567 0.1646144681920036
48952000.0 0.909355277953358 -0.41205414995528317 0.03248462911014267 -0.08001211032354084 0.00337472242414885 -0.002903016533529719 0.3237412520087127 0.1520946977045262
49951000.0 0.9058544058026439 -0.42016059428739755 0.037542404017953356 -0.08771857296834441 0.003768197778393982 -0.0006986258792820797 0.3483472298559864 0.1532911283397072
50950000.0 0.9021154597314743 -0.4282202086806165 0.03543584464095149 -0.09488547764706858 0.0019271786459446746 -0.00027602679131535587 0.33843915378288636 0.13972857353713947
51949000.0 0.898000274373914 -0.4338413852093584 0.03793052377051433 -0.1018798864287473 -0.000651971713847279 -0.00027586272746429836 0.3565398666014406 0.13329118574694637
52948000.0 0.8964934576282823 -0.4430933385164884 0.03751343527216243 -0.11168408755879809 -0.00019670604771084056 0.0007048909988444884 0.3669445106901936 0.12854106536175283
53947000.0 0.889955457922025 -0.45301691484512885 0.04075770140567174 -0.12245499407441945 0.0010453306572515131 -0.000606376619857758 0.36974447707575653 0.12031426628615315
54946000.0 0.8843467048768047 -0.4613434894799512 0.04076921777435664 -0.13244463417151744 0.0030927757748500134 0.0004938203537896144 0.3782179267146594 0.12070513500122731
55945000.0 0.8811779585446566 -0.46763299813536624 0.044138435347178484 -0.14234334911176194 0.0026203526666637223 0.00031981388224609243 0.38168901915306713 0.09750982066673873
56944000.0 0.8780735463449528 -0.47530728702724295 0.045422262738224896 -0.15258336357054025 -0.0002564731778524808 -0.0038290247310220197 0.3932727852300475 0.10114952633305285
57943000.0 0.8733124353984786 -0.4853695757702353 0.04668263855174529 -0.16279226025784244 -0.0008668407994291607 -0.00017806295433361058 0.39728382103481474 0.08262014812542585
58942000.0 0.8679557945403836 -0.49065106911508016 0.045267581772317364 -0.17622329892918973 0.0024273414790787614 0.001756356542944436 0.4129465941281227 0.0859967582207232
59941000.0 0.8643565743634631 -0.498986740031896 0.046699066697978214 -0.18577883168460765 -0.002834130217971533 0.002082712404721456 0.4119347877742431 0.08442991000989691
60940000.0 0.8569892333514869 -0.5084488304516301 0.04798598561700239 -0.19061011528923338 -0.00047637388941829074 0.0013647008120762185 0.4030964463222773 0.06784211295052205
61939000.0 0.8550225348662637 -0.5144258118367205 0.04712796092652855 -0.19389721082900496 0.0013142184384542562 -0.0019940460108349703 0.41607834592316123 0.0619248766824462
62938000.0 0.8487318476578484 -0.5248343342201375 0.049702961455338854 -0.21120039346284158 0.001288335930663355 -0.0013387550955129123 0.4343330552865703 0.04936558897332314
63937000.0 0.8435594032899307 -0.5319360914265321 0.050793355058658805 -0.23062967420140243 0.0006213729142500183 -0.0038979226756415326 0.4260594773719829 0.03112574080723539
64936000.0 0.8371336198213699 -0.5371651970788597 0.0543289873222117 -0.24535478865468058 -0.005576024193829385 0.004196221713545337 0.4308386044909223 0.030414543839601346
65935000.0 0.8344535799556168 -0.5481788570168089 0.05215141906187039 -0.25856432447418803 0.003365283167043307 0.005026623106421942 0.4346285499331926 0.009510842035295784
66934000.0 0.830918613179577 -0.5532726791969114 0.05493911861298453 -0.2747517033395579 0.00218667357560028 0.00030760285503793154 0.42861396875937463 0.012533973024459103
67933000.0 0.8274176841422517 -0.5623591648427836 0.0528706593727154 -0.2858687413315669 0.004126331710474163 0.0029511763127497777 0.4469676100150792 0.0008090397073700142
68932000.0 0.8176280596863239 -0.554715383091705 0.04966620946827217 -0.29648037910874253 -0.00409904705318493 0.0005943577138154613 0.44931200687594397 -0.0070262468723875275
69931000.0 0.8142957567358557 -0.5776244793998779 0.046767516298893516 -0.3165039018827299 -0.0003196562022885114 -0.00028060793626069505 0.4433891513718045 -0.024570355347065136
70930000.0 0.8052032324429761 -0.5874952679880774 0.04347050397734851 -0.3295287751280536 -0.00048612841924188904 0.0017647130307872673 0.4454840239056367 -0.03780303668294538
71929000.0 0.8049244456159754 -0.5924176088991738 0.041316670915189264 -0.3463225729950272 -0.0048133496497980805 -0.0005011023271675123 0.4531294411930802 -0.04131896037664622
72928000.0 0.7962341613303117 -0.6026332116931619 0.03561362776881317 -0.35703973777071984 -0.004970138397953766 -0.00048298021196998696 0.4600486623994449 -0.05363332707674905
73927000.0 0.7908260568042846 -0.608492790446515 0.033132957605534405 -0.3824201467001254 -5.736885024134376e-05 -0.00038755532838827836 0.4509826530918991 -0.0697176905504034
74926000.0 0.7874540972508851 -0.6187246207706572 0.025317437736843473 -0.39820304737602136 -0.0005660928369941811 -0.002249401841358693 0.45781447273252523 -0.07015882686768572
75925000.0 0.77988879322834 -0.6240376934175078 0.01590616250631171 -0.4216632408597325 -0.0019867107804539307 -0.003087063735287649 0.46466107558574987 -0.08170926997895675
76924000.0 0.7717794272844823 -0.6310199357393047 0.00024544531785329366 -0.4396720080479948 0.0013452820109001132 -0.0017094112650700964 0.4608405826322178 -0.08354401572942295
77923000.0 0.7665110738317779 -0.6382922959516705 -0.014139198761037964 -0.4652760710788336 0.0011141910205029575 -0.00395886128083248 0.45784631988763563 -0.10171002002924202
78922000.0 0.7623904392035403 -0.6471984695818069 -0.02828685684508394 -0.4930714665112104 -0.0010328431896366706 -0.001102886423264494 0.46040736210153543 -0.11267736921274671
79921000.0 0.7524169041139621 -0.651690371766041 -0.04392485662915954 -0.5162976318998547 0.0021463150181396965 -0.0031413840627035707 0.45036739987017604 -0.11958407305396883
80920000.0 0.7495446282574224 -0.6617590557404126 -0.06273291263493802 -0.5414075235380251 0.0015833954987594565 -0.002024046494354389 0.46534547516350183 -0.13906051659926588
81919000.0 0.7440377127072846 -0.6684669593946376 -0.07539716038584793 -0.5682569742139121 0.0019274465183248643 0.002147364334596567 0.46708249029657434 -0.1391573492071135
82918000.0 0.7341385485708373 -0.6757762401211694 -0.09248372025252224 -0.6000627734981177 -0.0042132252311422 -0.0001456498206890526 0.46843599581091117 -0.16007865213275643
83917000.0 0.7268721841212599 -0.6830063654980013 -0.11539111696451149 -0.6269749709196393 0.003130421112484531 0.0002431227876418034 0.46952827435931715 -0.16675705800403712
84916000.0 0.7207684254438351 -0.689955427526456 -0.1290191425583841 -0.6654614474892586 -0.0014692968104522378 -0.0002374527310242631 0.45811228259261916 -0.1819461194496333
85915000.0 0.7148439633854965 -0.6968399584526672 -0.15405133032201299 -0.6947197821654555 0.0008794789591321684 0.0021169778683878104 0.4655396074703808 -0.18587592185736096
86914000.0 0.7072444517447091 -0.7074140652413732 -0.16802654072630316 -0.7267862752835609 0.0026770510238433645 0.0011064216725915103 0.45774548252599534 -0.18958555030129204
87913000.0 0.6981980637767409 -0.7127886982468298 -0.18529752829381418 -0.753543185263594 0.0023751441874271017 -0.0018058670724699687 0.4517400989674443 -0.20021396810883
88912000.0 0.6934467194265146 -0.7190913763754956 -0.20198075416478325 -0.7895597748568661 0.0010356393283981352 0.0006214857227958333 0.45498091134227125 -0.21083049509773566
89911000.0 0.6847635796715145 -0.7283873379442104 -0.21872988424968073 -0.8290672405306588 0.00040681608767550255 0.0017864928187981608 0.46313307090330025 -0.220674187968776
90910000.0 0.6786462942802127 -0.7330984165988458 -0.23073831407629333 -0.8612855369615988 -0.000733261962390301 0.0003034653287750098 0.45752253132225673 -0.2260127354032835
91909000.0 0.6700096971145588 -0.7368994611576649 -0.2580521090875931 -0.8945938851324914 0.0014055536074983083 0.0009094967603974694 0.45114297218690486 -0.2352339633797925
92908000.0 0.6610719317519589 -0.7450236266627611 -0.27436391766004836 -0.9230978030795167 0.001680489126199656 -0.0018855478699902363 0.46252068642327193 -0.2469204247050968
93907000.0 0.6550327852503732 -0.7521887779295424 -0.29209684284423315 -0.9578858305484174 0.0026940538997530868 0.00036202877437323223 0.45171924158379106 -0.26003365675036105
94906000.0 0.6422200804388961 -0.7612944873845191 -0.30893984062625823 -0.9901178130095539 -0.0008421103217155236 -0.005455751756500673 0.45071971554578355 -0.2506749439799039
95905000.0 0.6379167365243741 -0.7666754478083229 -0.3294641025696699 -1.0232359465299106 -0.0018021822924821603 0.0009451710994120305 0.45512470985391873 -0.2824891101518539
96904000.0 0.6300815589484755 -0.7753075576847287 -0.3459712708682928 -1.0656859417622897 -0.004064183599834227 7.624333493820707e-05 0.45665222235886493 -0.28610023389663586
97903000.0 0.6194815378536447 -0.782953825447889 -0.3766295197157185 -1.092466146662544 0.00143795433217138 -0.0021181160848946783 0.4471269307411867 -0.2969570948116345
98902000.0 0.616130151689464 -0.7868952129217193 -0.3896254613010363 -1.131509209935984 -0.0005812992287175366 -0.0016509488191162674 0.4425026693994434 -0.3060360017177177
99901000.0 0.6063997101952142 -0.7941691239774814 -0.41754243099808713 -1.1611272446365246 -0.004006414537824791 0.0010125369952777856 0.44945976431215323 -0.3139303037339079
100900000.0 0.5990667092633253 -0.7981982629005219 -0.4491647982095138 -1.189736845471891 0.00037502512744729173 -0.004233298929470494 0.45441502994759225 -0.31422786826080346
101899000.0 0.5865001732153292 -0.8066427285907861 -0.4761426738744586 -1.2267078557279565 -0.0018925210603112472 -0.0005902566254049104 0.43239155138672636 -0.3135928206374948
102898000.0 0.5793189553735164 -0.810381523852153 -0.5096921579401813 -1.2610875157415846 0.0037726908699037514 0.0018582117692676676 0.4413075593878301 -0.34575645338324035
103897000.0 0.5702397874058102 -0.8205176332659624 -0.5502460653143494 -1.2961218635460467 -0.0008138671633393272 -0.0005575602955071289 0.45952776597946066 -0.34185579704156854
104896000.0 0.5629700028805031 -0.8290744154216353 -0.5919406647269685 -1.32830929027226 0.001578866818635429 -0.0013675459218658948 0.42731789619621025 -0.3521078608373362
105895000.0 0.5509689041942544 -0.8306003564777603 -0.6306603878647342 -1.3668027820217161 0.002237744940803755 0.0020457653740610627 0.4277050972740321 -0.36674674413116565
106894000.0 0.5435701388855002 -0.8355017361202776 -0.682917839230415 -1.4027608946323893 -0.003542843661718292 0.002335464095875277 0.4190136354022059 -0.37572571771310426
107893000.0 0.533244298231399 -0.8433624049136308 -0.7377630540691225 -1.4410865012814469 -0.00039297183949344437 0.002432864287622748 0.4183943582127128 -0.3812064443340014
108892000.0 0.5232021436799331 -0.8473976963467168 -0.7936806411916041 -1.4762251257591723 0.0006489393562200898 0.0015640460757016254 0.4185752137289426 -0.37852124979288826
109891000.0 0.5122666080482587 -0.8528330067538027 -0.8522110681104658 -1.5068249807705008 -0.0007502800049541247 7.377931871492672e-05 0.42381653618693865 -0.37994337601740774
110890000.0 0.5060550117780332 -0.869350975083904 -0.9315456092385835 -1.5312258072238452 -0.002606131220503333 -0.0034249981471699813 0.4284191026691613 -0.39583063544039976
111889000.0 0.49381925318518965 -0.8607091491814303 -0.9760132561887899 -1.5754906169964185 0.00018558944821479682 0.0010878482187034768 0.42359635546832125 -0.4022352698595135
