! Created with skrf 1.9.0 (http://scikit-rf.org).
# Hz S RI R 50.0 
!freq ReS11 ImS11 ReS21 ImS21 ReS12 ImS12 ReS22 ImS22
1000000.0 1.0023355876755267 0.018147847014080357 0.01730664571155257 -0.04790071959485367 -0.01123054879063289 0.010082050429908299 0.31702221739436953 0.31217234947758765
1999000.0 0.9956529021152087 -0.014660496400964984 0.0034211142772351526 -0.023735533423460232 -0.007928595970004032 0.0006970993852506386 0.23733903090979197 -0.047008108619267
2998000.0 1.0005266971618394 -0.02333592185518491 0.01485367969886294 -0.01118668870593917 -0.0019043852877980109 -0.00407811978319893 0.1957712036221933 -0.13619898429253327
3997000.0 0.9949352898868743 -0.031241695139851443 0.01982105252700243 -0.00953874758012868 0.0021718441743273625 0.0026245048605289907 0.09160852260593363 -0.21553739562070928
4996000.0 0.9922937331434238 -0.04212574713328815 0.008541071190095544 -0.00441001451175842 -0.0023597609606569197 0.001731442505271119 -0.04883729761870545 -0.20891727626336215
5995000.0 0.993533700611895 -0.05039584055577473 0.011165392159680673 0.0018608888572242443 0.0001042970268809038 -0.004205423270617716 -0.1315963331537236 -0.1003456537977813
6994000.0 0.9885083853097302 -0.061315316877515055 0.003515018638938707 0.0030381096717718202 -0.0019505002251606035 -0.0015615563413941987 -0.1460850267707984 -0.018920535556244483
7993000.0 0.9920522175795405 -0.06984679212588006 -0.0007111410248053637 0.0011008092365436333 -0.0026334935597087453 1.566354537007376e-05 -0.17104548510518502 0.01941569564609861
8992000.0 0.9901576432911035 -0.07234783309276117 0.0013908572193448059 0.004725006997391266 -0.0015698125046227013 -0.0018070444691070007 -0.14409155003255536 0.0754449714309416
9991000.0 0.9885143343338934 -0.08217262711134175 -0.004020280085075482 0.002552877205438106 0.004405109716736528 -0.0036689489218594226 -0.14805783672418946 0.09871303833107993
10990000.0 0.9865661391533916 -0.09601765011689518 0.004210502788090854 0.0029633546524975955 0.0019911693215937643 -0.0007775336688065853 -0.15182069731740697 0.11084195501278521
11989000.0 0.9851306160888502 -0.09693011175275935 0.006704339144440806 -0.0031490663195332547 0.0029826786473106893 0.0023034311722682052 -0.12145210677579334 0.13362736687041804
12988000.0 0.9831904507952801 -0.11088617523827675 0.0008303822089320153 -0.003536675211645846 0.005023876141653186 -0.0015309168561773378 -0.11383055561278102 0.1742705198760983
13987000.0 0.9837533722245274 -0.11599094146902388 -0.0019826095626481236 -0.006799385019499647 -8.201871335071965e-05 0.0017245578626109512 -0.08543196549243907 0.18154032049136826
14986000.0 0.9836912997727519 -0.12505065198308168 -0.0009990619341291955 -0.004139177370332664 -0.0017407899090022725 8.532836163819936e-05 -0.08530348993583757 0.20625534342716184
15985000.0 0.9835901333326024 -0.1325758421913799 -0.004158292942750895 -0.004482678178529895 -0.001352156319055966 -0.003320617446701294 -0.06764422202316453 0.210693755551798
16984000.0 0.9823799125681515 -0.1425551349078351 -0.0015905435832058756 -0.0023654391743865694 -0.00011885112233692492 0.001338072282532324 -0.06337440372138047 0.2213111224818343
17983000.0 0.9829009008900988 -0.14728557786298044 0.00025275658269711563 -0.002227929172677461 -0.00037044639157760316 0.004071437187461956 -0.0546674666504838 0.2176007401711176
18982000.0 0.9785902002991972 -0.1616119365126751 -0.005027305215849713 -0.004808168139197117 0.0053798815321902905 -0.0016150374895022874 -0.025167868666304 0.24372951910762816
19981000.0 0.9796170588851502 -0.1647721972124186 -0.0033766383309727353 -0.0056732720308042385 0.002901836271354248 -0.00296866786863281 -0.01725272255592525 0.24689418549382297
20980000.0 0.978943875228092 -0.17481007406727395 -0.0010146869947133398 -0.0038662222476158314 0.0024196398446212444 -0.0025564506678638025 -0.0077085363061672844 0.2615706559453107
21979000.0 0.9767710433898674 -0.18433292336712334 -0.0017700613314971278 -0.002531972277166284 0.002946384791180107 -0.0031728596123375137 0.009684174249783854 0.24846903590344982
22978000.0 0.9719409570759278 -0.19384950049801397 -0.0070715510504016765 -0.006538341035351624 0.0029255283081788637 0.00015564880755844298 0.018172697206789334 0.26578031882236947
23977000.0 0.9738681771619405 -0.20084578511952703 -0.005234569128193267 -0.0011518826547726 -0.0010488615623007657 -0.0022078768385777312 0.027469852014641624 0.25955743485121685
24976000.0 0.9689423545437313 -0.21028974266295095 -0.00504901950584417 -0.00029992391514197685 -0.002540644908178456 0.0029858098803250822 0.05599270272028845 0.26111141579580044
25975000.0 0.9704182283370447 -0.22363281381807865 -0.004643055044413779 -0.0019709516930010635 0.02595246746872499 0.00930373302961619 0.0649416793136686 0.2552808249213611
26974000.0 0.9670781536061985 -0.22691018229164106 -0.004587892319673961 -0.0013245861841257006 -0.0006998777654500319 -0.0004873700766457356 0.08765797360157897 0.27470295608716133
27973000.0 0.965287670208187 -0.23378385878424232 -0.005041555285139557 -0.003707114163669822 -0.0023898262891282216 -0.0013567597694107952 0.10285449953020777 0.25081785540784474
28972000.0 0.9606861848478093 -0.24419665231849613 0.0005011179200302264 0.0004110919616114862 0.0012070809564888247 0.0007802514531854615 0.11114718847406337 0.25726996063145624
29971000.0 0.9615829982687518 -0.25205827330495945 0.002546637698249701 -0.0024811238814604693 0.0014181923554654721 0.0022652007626034597 0.1498401894011858 0.27554854362383546
30970000.0 0.9593609480535927 -0.25722246325449843 0.0026550071430615258 0.0004319655081002109 0.004560449536560191 -0.0008693288458851123 0.16254652688221935 0.25821409224232506
31969000.0 0.9568820772231595 -0.26787504328341444 0.0055736174831926945 -0.002408292975542788 -0.0014299853139860886 0.00016775349572544743 0.14594629109365634 0.2431035294787094
32968000.0 0.9555228157157529 -0.2751692819622847 0.004816302249958595 -0.007563841234441914 -0.0005947995814128519 0.0016688858790223182 0.16741048440728443 0.24881785328733622
33967000.0 0.9537641536707933 -0.28511585139664813 0.011659453911941146 -0.011561490038715611 -0.002819426596888127 0.0025085038722832053 0.1832467214022856 0.24879304982517722
34966000.0 0.9487469119346449 -0.2960017898991076 0.012435455221612813 -0.011899906214809533 0.0040138453050557734 -0.002001672606617206 0.18758425933731726 0.25404327263848203
35965000.0 0.947837087557001 -0.30389949586575843 0.01411316896102577 -0.0145194152374515 0.0003107299954090894 0.0007813615675102451 0.20039286706331075 0.25677357819516056
36964000.0 0.9448961962891379 -0.31198880000942175 0.01607584360734744 -0.012237114414440461 3.294065027483931e-05 0.0007818893441881855 0.20813180921752952 0.2568887958569581
37963000.0 0.942773874144381 -0.31986041941414817 0.01966153398791724 -0.020920266636493313 0.0011732686723735844 -0.0015118353472606488 0.22228754408542328 0.2329520629495927
38962000.0 0.940132751326624 -0.32937456462670595 0.024216739902835637 -0.028350342679558715 0.0008755364081007712 -0.0005386031033293438 0.23267687667386017 0.2360268675411705
39961000.0 0.9357198075604096 -0.33892435190778214 0.025585273284722057 -0.028950886626597252 0.0015873388059021254 -0.00046946202174213687 0.24961709901366796 0.23119050274611347
40960000.0 0.9334800301705666 -0.3463066696914137 0.02351254404130537 -0.023935531734968315 -7.012423851606409e-06 0.002014895861444987 0.25932804295887757 0.22949065356811055
41959000.0 0.9295720676971947 -0.3561713641032391 0.029915748311920985 -0.031558318995596024 0.006121878834932663 0.0043418843602868445 0.26441166099460484 0.22339825839534683
42958000.0 0.9266856866107978 -0.3639231992545603 0.02697597980028424 -0.04099301507518881 -0.002325002136805357 -0.0002593472237667562 0.2733318243557686 0.20879612608558443
43957000.0 0.9237293879052545 -0.37158233230898363 0.033464276906633054 -0.04453046007864937 0.0016841257094200306 -0.0010706861239740048 0.27930973752923055 0.2078123304170191
44956000.0 0.9202314249447084 -0.38092424597186164 0.030888708610994218 -0.05112515030506113 0.004041225626063903 0.001843574274566778 0.29127243593651814 0.20198982890385092
45955000.0 0.9161902382756983 -0.39016812163260994 0.031452732065449615 -0.057564865566759015 0.001635883861911249 -0.00037770424188687373 0.30000434814893273 0.19385725377383733
46954000.0 0.91273427102151 -0.39696210097669643 0.02968818111443922 -0.06501110011156751 9.235753261133872e-05 -0.002216258873906292 0.32796875692373184 0.1890183164323027
47953000.0 0.9081500494269265 -0.4075330063760124 0.03486523761112616 -0.0713077722502934 -0.002105358635413591 -0.001292090298543187 0.33174805401374075 0.18251619858822443
48952000.0 0.9025827997975874 -0.41627659063481826 0.03774192110986164 -0.07813057334403084 -0.001549094612075394 9.628865841304512e-05 0.33393363259466274 0.17104028340169689
49951000.0 0.9023248103697075 -0.4199551551728726 0.03530539903500561 -0.08607997655215192 -0.002087355902246647 -0.002324672465909141 0.3503999368363312 0.16422592593770058
50950000.0 0.8966299079599339 -0.4322953839549532 0.03633990270324308 -0.09432015909193976 -0.0021032766845296503 -0.001886361790965339 0.35147987347975307 0.1567110349773007
51949000.0 0.8921142165222219 -0.4399559188599943 0.035850445537910225 -0.10063617714591176 0.0031977280711407577 -0.0013388942936014068 0.351220563758568 0.15974192952732744
52948000.0 0.889783308157492 -0.44966548713939536 0.03735509677683055 -0.11148794130489459 0.0007818705730377047 0.0017368213619617565 0.36636281999375486 0.14582460716636123
53947000.0 0.8834235069935087 -0.4550300311015636 0.04035840337879926 -0.11952807058960721 -0.0010432731826621768 0.0018190302991533517 0.359947915889077 0.13239878898279236
54946000.0 0.8784053290252865 -0.46468307365555955 0.03760480156152139 -0.12634408506617395 0.0015252940048436747 8.355807824952996e-05 0.3731330120253358 0.13271731201655892
55945000.0 0.8762116657011029 -0.47097804826477707 0.04219917559905428 -0.13842906940252897 -0.0006787742331065052 0.0007114093475234043 0.37885763357308716 0.11033982331144275
56944000.0 0.8718335569911142 -0.481303222894073 0.040671091341066806 -0.14840085212345178 0.0006603642027612597 0.001388004455843167 0.4007546964926902 0.11649674368003488
57943000.0 0.8664168192181247 -0.4910401541513152 0.041025956604139435 -0.1577606545071529 0.0008777973180096913 -0.001764017291275795 0.3981508325287835 0.1082374429055241
58942000.0 0.8621212143276009 -0.4949603445047923 0.042598227096935906 -0.16814652946628983 -0.002351880508620026 0.0021916770013789004 0.41365150972626674 0.09826462513631376
59941000.0 0.8576784614305331 -0.5049782715168581 0.04627609324664957 -0.17661676590606395 0.0026347388685509696 -0.0008772670683131543 0.41372869193939904 0.09228591984373248
60940000.0 0.8497513041250317 -0.5124224529095187 0.04399472096588581 -0.1798277668063079 -0.0005315169714988979 0.001080749582368478 0.4056398912779986 0.08390841344861348
61939000.0 0.8477925886622002 -0.5188802946243435 0.044955371326140935 -0.1878601560562771 3.060040479140553e-05 0.001665903789164189 0.41313415418114086 0.06736659656033787
62938000.0 0.8416232368005463 -0.5278463662367787 0.05156170687210092 -0.20459306635476562 0.00022149480083475588 0.002023113205122039 0.44451759039103905 0.06530243048183167
63937000.0 0.8372984012727281 -0.5362991439030399 0.05158836278672632 -0.2244825332584812 -0.00026193813389398154 0.0004918161116841727 0.43009638586858867 0.05648132318800716
64936000.0 0.8289257582488992 -0.5457536858295025 0.05065493276676293 -0.2375620600903998 0.0015995913936521818 -0.004359722869157382 0.43095517676486367 0.05188471942263071
65935000.0 0.8262360134918797 -0.5546873684978292 0.04874618938690652 -0.2514551146882796 0.0036210198013469355 8.938050251257786e-05 0.43330291326235293 0.031200160255658214
66934000.0 0.8208401771641753 -0.558542889063217 0.05046633862317538 -0.26280400294404005 -0.006423843546054622 0.00260119108377535 0.4401467613518892 0.027310736676762856
67933000.0 0.8168673236859225 -0.5670315298325114 0.05128876676345729 -0.2749364132924806 0.0019954581199838257 -0.0016510568206729334 0.4390081751749276 0.0239808896976423
68932000.0 0.815793681554719 -0.5673656246446358 0.04792755238123967 -0.28612532032910604 -0.001974477497347422 -0.0014614921259003286 0.45204618205153435 0.004169513049634933
69931000.0 0.8034916883939232 -0.5822064106516541 0.04512271198290165 -0.3036811850541092 0.0020410148634395085 -0.0019191200752998762 0.4546445116734351 -0.009623964330446664
70930000.0 0.7985994923654062 -0.5889426673180638 0.04368622168752872 -0.3161192103968345 0.0005476925553646281 0.0011875147153712093 0.44589151411216604 -0.018000289267676595
71929000.0 0.7952900882037968 -0.5968827567536167 0.041427311280210176 -0.33448997742369285 -0.00202482941173261 -0.0032241714594578516 0.4444267850342715 -0.02980046730609064
72928000.0 0.7885791156756884 -0.6073412114727185 0.03739431636726328 -0.3467444243148367 0.002435254940556628 0.0005975307514216606 0.4637070021364399 -0.03982981694253381
73927000.0 0.7804659182661441 -0.6132933503683083 0.030627329021231164 -0.3672725627807931 0.002722774779855167 -0.005393193217879798 0.46223606647809384 -0.042839967023203904
74926000.0 0.774536382018542 -0.6220459766959571 0.022185932615325803 -0.3835383458521302 -0.003546656698604001 0.003255518161452547 0.45770135819870494 -0.05979565791218283
75925000.0 0.7707591457990203 -0.626962159059193 0.015517784984995614 -0.40093640026882 0.0008508244455497662 0.0007429710347005009 0.46049436099103697 -0.06345650671142011
76924000.0 0.7630534766375765 -0.6349816649607353 -0.0011766417114692093 -0.42401841199651086 -0.002462794229430297 -0.003247122076298461 0.46557972124972963 -0.07519588881065264
77923000.0 0.758105672602295 -0.642432909484891 -0.009198007327656894 -0.4458038673065212 0.002933532051032056 -0.0022961279312938244 0.4642191358738853 -0.0873499552461435
78922000.0 0.7522937535210348 -0.651441298373255 -0.030892231421806783 -0.4727783864793541 0.0010590157798677988 0.002628076165218771 0.4652192077909951 -0.09449093837675064
79921000.0 0.743151055089246 -0.6537780717527473 -0.043066721356869085 -0.4949275780336046 -0.0022185082623077937 -0.0006571668884941274 0.46276995450219643 -0.1002849398017219
80920000.0 0.7390723608219499 -0.6648914433545295 -0.05505323071611454 -0.5198311874942848 0.0043541894870530295 -0.0018090801948329627 0.47186387865680257 -0.10757818213726371
81919000.0 0.7333806673259313 -0.67154331854436 -0.07225534818035663 -0.550122091704501 0.00022334883077501676 -0.002234795039236861 0.47285923756780646 -0.10923744640366162
82918000.0 0.722224892708204 -0.6794626607111116 -0.08762942265362768 -0.5817601690648749 0.001236612136644838 -0.0014076630993610255 0.4720143168404297 -0.1304532507937707
83917000.0 0.7154624448384402 -0.6877357750661237 -0.1065112838666658 -0.6073082323779866 0.004063222867098579 -0.0038989067491140648 0.47013253253338605 -0.12890736838034017
84916000.0 0.7086979591120078 -0.694178207068239 -0.12385430589146935 -0.6395820658931444 -0.0028612828579885536 -0.004500507407513164 0.46622033458073786 -0.1550351277369902
85915000.0 0.7021099305562657 -0.7006400412952973 -0.1395390540468224 -0.6664775384697655 -0.0023042387866940915 0.0015874217482743959 0.4720643486873888 -0.1655042308321798
86914000.0 0.6952135161472768 -0.7106625626682048 -0.15818025967386828 -0.7019074766566514 -0.0004675423547513898 -0.00202253385917604 0.465058465356035 -0.16123571818207513
87913000.0 0.6871961100691847 -0.7159731074298679 -0.17110992869269853 -0.7284942074009784 0.003579928901042106 0.0025564658727789545 0.46176004126644205 -0.16193353724788975
88912000.0 0.6831504402437498 -0.7221208887594727 -0.1868433622544008 -0.7662862680313871 -0.0027629037524508782 -0.002253943681992266 0.4695722483111041 -0.19975918260258982
89911000.0 0.6723619468167609 -0.7311988222568301 -0.20736729377865915 -0.7992786775592824 -0.0024319348976162953 -0.0010818662695694055 0.4733844340823744 -0.19937999238015364
90910000.0 0.6679567517709394 -0.7355252429057859 -0.21798989903805077 -0.832385600840368 -0.0010237307334337786 0.002757150349989666 0.46882120200946964 -0.19405006880544
91909000.0 0.6581023470501182 -0.7410699301254408 -0.2383060510179458 -0.8627564839311451 -0.0035852809402937753 -0.0011678360886281027 0.4694411985836954 -0.21207315454178413
92908000.0 0.6493141142777208 -0.7505737227706144 -0.2503664636825671 -0.8908507004123002 0.0019705578862714364 -0.002513686902172474 0.46117107940775115 -0.22848491735318036
93907000.0 0.6437696495949284 -0.7551514680144792 -0.27058483324052723 -0.9218865647866858 0.00020177841919140983 -0.0007157271404764638 0.4697114012963445 -0.24317824803675273
94906000.0 0.6310068042104285 -0.7618927077779009 -0.28722977432039587 -0.9552393762203558 -0.001419164589349052 -0.006281213740610785 0.4665683960019441 -0.23679861701913102
95905000.0 0.6244351056956962 -0.7699681074380968 -0.3078569593541194 -0.9861601865605993 0.0008892303007881342 -0.0022985282560186735 0.4731052715945969 -0.2621639991959282
96904000.0 0.6197865446197421 -0.7764275895911482 -0.31911359319104377 -1.0270840087805384 -0.002359443876054668 0.0016026720520892989 0.4555558862850199 -0.2684140897662975
97903000.0 0.608764966574283 -0.7833598092172026 -0.34167371367222454 -1.0534318056720287 0.0022436691171991716 0.0035477196888038785 0.4552249099102019 -0.2722324411642531
98902000.0 0.6029750170271173 -0.7908404268543355 -0.3561037726441952 -1.0917510776567025 -0.0021881441357700445 -0.0012913764950606636 0.4498177778379327 -0.27607868463708707
99901000.0 0.5924540884011197 -0.7953478337367861 -0.38614569343625865 -1.1209161242022665 0.0008523432537906189 0.00026016758644885124 0.47589697806918213 -0.29890278919511665
100900000.0 0.5863886521335747 -0.799790213217172 -0.4168650508873903 -1.150821451387075 -0.0041128153077833966 0.0014545958981664183 0.46134632042093915 -0.29753671963987943
101899000.0 0.5748101799592976 -0.8091663101904082 -0.4416528021944635 -1.1859007005216662 0.003964454079096679 0.0036689346471603587 0.46090137935423414 -0.30825934226778
102898000.0 0.5654835154621292 -0.8126063769947858 -0.4721237611509936 -1.217923785154736 0.0021686381875215305 -0.0017110274847071658 0.4610967445462568 -0.3211613215034525
103897000.0 0.5584479210152505 -0.8214807835675431 -0.5113506722013585 -1.2560583178611646 -0.0007046942437177607 0.0013725301686374886 0.46750176213107186 -0.31249461360052705
104896000.0 0.5478544885598884 -0.8302380690324813 -0.5579453232978749 -1.2792186017249083 0.00021703180565917172 0.0011929488709950312 0.4338059966884567 -0.3223152425842357
105895000.0 0.541687284441464 -0.8302982347924344 -0.5907475598956702 -1.3257260727847633 0.0008237550931538606 0.0002617377619547367 0.44363009199358966 -0.3461852152688777
106894000.0 0.5288905703350315 -0.8374857170624972 -0.6461540914104597 -1.354801281744863 0.0003894752430025988 -0.0006418463454605522 0.4414952216301 -0.35683559657465347
107893000.0 0.5227846792318057 -0.8449218868188336 -0.6924713615851745 -1.3905531352481193 0.0022057307081207868 -0.0003942311706879263 0.4435252264582316 -0.37202034834827835
108892000.0 0.5120728296998392 -0.8483565758053622 -0.75038567078025 -1.4275433740141399 0.0006026455106438299 -0.003577259058638309 0.4322690069866638 -0.3528993072375797
109891000.0 0.5008189909418131 -0.8548320015681584 -0.8049391062799635 -1.4655939997496625 -0.0033907072975580955 -0.0006161533160758594 0.4568663096493164 -0.3539225977419567
110890000.0 0.49680419264780623 -0.8669582422951877 -0.865681511377042 -1.4854885434967042 -0.0007414380842957171 0.0019561833105258557 0.4360298988039793 -0.363439064567902
111889000.0 0.48183320811098823 -0.8616102343794863 -0.928228776724995 -1.5264011618705025 -0.0035426156241088465 -0.00031435639415301964 0.4258245250064686 -0.39156746968053335
