! Created with skrf 1.9.0 (http://scikit-rf.org).
# Hz S RI R 50.0 
!freq ReS11 ImS11 ReS21 ImS21 ReS12 ImS12 ReS22 ImS22
1000000.0 0.9752331885384173 0.004886858363221417 -0.007466742193603582 -0.03680028264271702 -0.006947491137226391 0.010788270138120419 0.402021438730917 0.29229153537303054
1999000.0 0.9944334992378081 -0.009421954250490675 -0.00392887695006837 -0.01948062213524305 -0.004780907894147883 0.0007573102244988166 0.26390815228765696 -0.0591604427609772
2998000.0 0.999515271199708 -0.019567362966535547 0.008262064105277921 -0.01770425753656951 -0.004649134620831747 -0.009136612478713523 0.18716329968276987 -0.14833146430160282
3997000.0 0.9983871876795822 -0.031812447284901145 0.010189568630588867 -0.010253059590801144 -0.00403260455601629 -0.0012329911417754214 0.0775210649198832 -0.22717302187919947
4996000.0 0.9962746430327921 -0.035598565467201776 0.009700643456495774 -0.00697685693519265 -0.0015345873916053207 0.0006660002256380833 -0.05054855226989763 -0.19536049480500767
5995000.0 0.9974412683529341 -0.04896740527432556 0.005178948046310459 0.002129097060637932 -0.0009698177700105397 -0.006300241747883314 -0.13086214610978936 -0.11426812752705864
6994000.0 0.9955010381263274 -0.0585953702578482 0.0024361739179190106 0.004735158535693514 0.003772337356107388 -0.005997649678350406 -0.13201492526040315 -0.024947809056110958
7993000.0 0.9978433298825675 -0.06856421296944597 0.001955201495000724 0.00581725336855349 -0.002251305607141773 0.0013476706978531566 -0.15450664611097734 0.03771442104258286
8992000.0 0.9985272136384304 -0.07186805287825947 0.0015528378983302054 0.001776925082300723 0.0029317302334147858 -0.0003333189814677296 -0.1609264028318019 0.07194591983473848
9991000.0 0.9938627560995177 -0.08203992823150534 0.003394579182906113 0.0035272117182812354 0.0019821883292190793 0.001978918491072251 -0.13470152309300198 0.09404106436507118
10990000.0 0.9938077781691474 -0.09106972794239904 0.0034890720835795037 -0.0009290825881944944 -0.004662187889752145 0.0011572868548240022 -0.13139989832800703 0.11185250720207131
11989000.0 0.9899097999218235 -0.10138157994298266 0.003172602047669547 -0.0025153396716990324 0.00032713328015849727 0.0008361485365278959 -0.12799591312305514 0.13008548469293305
12988000.0 0.9908300869107609 -0.11149097368582889 0.003968751691721207 -0.0025863624196272375 0.003776742426195043 0.0007502760359456918 -0.10202950411079746 0.16132853807341332
13987000.0 0.9878690180186749 -0.11866214779287958 0.003270429518296192 -0.006170976600211425 -0.0025041140552735787 0.0018793204769493982 -0.08988043082169953 0.185938903789701
14986000.0 0.9888381157331844 -0.12606641831290955 -0.001098686130953546 -0.003596159591932806 1.6310235839169054e-05 0.004823337098908713 -0.08890412494192171 0.2047570433887713
15985000.0 0.9885724524205945 -0.13288407044913741 -0.0039884514594893394 -0.002001792807284849 0.001647242723981293 -0.005737227711080561 -0.057843047123353024 0.21840252330256069
16984000.0 0.9869182972217039 -0.14476707211936246 -0.0022150936212569556 -0.001296690494901057 0.0035209198034035086 -0.001406092437822279 -0.055470094124031186 0.2222069042353795
17983000.0 0.9880154498216285 -0.14556482194117207 -0.003291718566438693 -0.003237662017623643 -0.00017935442436489105 -0.002202939280885821 -0.047459942960654034 0.23596837043337285
18982000.0 0.9831347243303781 -0.16285172427957753 0.00040874514493433365 -0.0017187236825309097 -0.002250628457430705 0.000628216007080436 -0.019437434454854248 0.24254579298026024
19981000.0 0.9839377884264514 -0.16580965980142343 -0.0026363459872087184 -0.005858374092333852 0.00029336297235422944 -0.0013704411713939026 -0.005660470749558837 0.2297088328938038
20980000.0 0.9825403468989569 -0.17609697064878105 -0.009195657487429322 -0.002120815775116981 -0.0048917177595640925 0.0026254470112659404 0.005754089256425937 0.2604770174707149
21979000.0 0.9812796019189753 -0.18267390278509202 -0.004989079707550447 -0.006396889167635183 0.00034663637779525867 0.00041787908302639735 0.011783410088064055 0.23645419903521803
22978000.0 0.9786911371402546 -0.19204187804516828 -0.004944552729402507 -0.004359496466090807 7.935195673187499e-05 -0.002894977897947249 0.030043257840386292 0.26116695246402455
23977000.0 0.979462466701177 -0.19854846246860142 -0.010616573010944748 -0.0010520041725789677 -0.0024722568400000265 0.003642317586986764 0.040133325935369155 0.2548867606684495
24976000.0 0.9740574783051437 -0.20999972770178654 -0.004417579518269899 -0.003641908815588645 -0.0032799935209348705 0.004732038139388277 0.05954103868949827 0.26266262405996343
25975000.0 0.9754208880450592 -0.2182321339546223 -0.004287187005067689 0.002831284374992866 -0.00025681592636043663 0.026427084621396126 0.08539099245048021 0.2646420141499305
26974000.0 0.9708527378195647 -0.2256918767551362 -0.0040192091578537025 -0.004116631224195937 -7.427405492212162e-05 -0.0007810634618518943 0.0818106897472874 0.26096955707460034
27973000.0 0.969764837359949 -0.233908104306438 -0.002425772088692825 -0.000183385739870499 -0.001069240406678291 0.0013422978695976698 0.11985607901693937 0.25046316373408123
28972000.0 0.96583403495818 -0.24302818434371173 -0.001961699904355471 -0.004282895219749339 0.001431687220336215 0.0025519806070434707 0.11730157303474596 0.2556503137423738
29971000.0 0.9641859572936202 -0.25245832109634514 0.0006551278457517562 -0.0028884994080519842 0.0013941244899865293 0.0010307422631505895 0.15591737345506956 0.25283739773987624
30970000.0 0.9649004987206922 -0.25765003143520004 0.0025148485802650193 0.000937687988159716 -0.000427554179503106 -0.0005045538327933163 0.16496415258102198 0.25180773921431665
31969000.0 0.9612884799816348 -0.2664191848095741 0.004496770364669768 -0.0054272597650958 0.00015177839528450354 -0.0014251496334100713 0.15410833970204935 0.2513772839603407
32968000.0 0.9597424172097012 -0.2756042181561809 0.007295928570765647 -0.0054692413350377524 -0.0024746849336280594 -0.0016396250497215166 0.16672503307742884 0.24330002588436
33967000.0 0.9575024577636156 -0.28614119841371216 0.010358772064175795 -0.010423732854522466 -0.003737131346066288 0.0017544097900857646 0.1873580678254284 0.24824967282299118
34966000.0 0.9534660353446187 -0.29301465073305505 0.014308321458573303 -0.011539538021867718 -0.0020203645104162602 0.004050405796219739 0.2074053731433874 0.249892475485462
35965000.0 0.9496288754278108 -0.301486199602422 0.02162441468337439 -0.01514696835810593 0.0008296575495220661 0.002732046777235895 0.21810813120859296 0.25065437696097626
36964000.0 0.9488799137190284 -0.31128332797239444 0.01849186091912282 -0.016535807651210092 -0.002074867326910744 -0.0004479759728593311 0.2164581262460711 0.2476668915176995
37963000.0 0.9452576802464641 -0.3183580461604098 0.021846756641748673 -0.021874126793456475 -0.0022845314921348574 -0.0013657749537695006 0.22884316197137147 0.23323757291642494
38962000.0 0.9420481143936236 -0.32961617700807483 0.02433797604518458 -0.025645333737817126 0.002341584234300431 0.0034915810200646445 0.24741119755368474 0.2299790792790761
39961000.0 0.938349011393465 -0.3340944090731044 0.025710725004224336 -0.030644102586911463 -0.0038575371255380876 -0.0033702102605023547 0.2468531670755112 0.22524252884566395
40960000.0 0.9371329570184881 -0.34397107198394533 0.022716669813581294 -0.025871653673291247 -0.003365719924192885 -0.0028176916545979694 0.2715533217425677 0.22715809863303912
41959000.0 0.9339369469537604 -0.3520273045030584 0.029306212935296536 -0.03214284125697444 0.0017487793579732825 0.001839211833483722 0.27088453901130044 0.2022665436315043
42958000.0 0.9278363763711281 -0.3622195188107541 0.031320314879095985 -0.04247111830131482 -0.001049445491074899 -0.001105205209570858 0.27377656329837974 0.19448584552488202
43957000.0 0.927846641575093 -0.36562935213932285 0.03350267241074553 -0.04748474545354824 -0.00046633974564830327 0.00024153891487434443 0.2903074652076407 0.1970610756458883
44956000.0 0.9246046755886392 -0.3745383171314082 0.03294084905993269 -0.05439587469239494 0.001669394337376947 0.0033658201787430337 0.30505460289222264 0.19066238591622717
45955000.0 0.9188368788547594 -0.3874176466985521 0.03352499859350185 -0.060569464271658366 -0.0012947397856428258 0.0002256726558149418 0.3100449664725548 0.18266894768961786
46954000.0 0.9172694917534927 -0.3947954717613782 0.037006935661879604 -0.06847144130962561 -0.0015053514428845709 -0.0014656040231949903 0.32571472403549906 0.17352603860942215
47953000.0 0.9121987473528687 -0.40377528661355333 0.039006191041872994 -0.0755441651550595 0.00130613523093196 0.0034501539804070074 0.3351924267485704 0.16966820882063985
48952000.0 0.9091089520172656 -0.41159602711890825 0.03571671250621773 -0.08222306368822672 0.0031812867301526495 0.0026859054096439556 0.3403022515658909 0.15744626931174047
49951000.0 0.9042251896200058 -0.42077750565074734 0.03648231914315125 -0.08986611159156303 -0.0020643364611742624 -0.0018716447869899149 0.3548420712281357 0.14594605648501321
50950000.0 0.901040283907935 -0.4268345846520732 0.03870624652670947 -0.09926741652679189 -0.0008346511530946173 0.0013755517460229644 0.3515350456175019 0.13307424914949126
51949000.0 0.8972241728174513 -0.43570857330220186 0.04020500372209653 -0.1062488597852523 -0.00380794114314657 -0.0013323890616601425 0.3597705433492443 0.13793220511247378
52948000.0 0.8937277729215032 -0.44433739362084995 0.039287480818547736 -0.1163908916772367 -0.0010066830186495899 0.0031062477225402593 0.3726200683606706 0.13662622844786865
53947000.0 0.8897675270744414 -0.4507821915968212 0.041240577787041155 -0.12657535474313714 -0.0007630315150344536 -0.0012254391668149937 0.3785971459574207 0.12359130682169961
54946000.0 0.8834021616832355 -0.4624218971744165 0.042908804487376426 -0.1364842536706125 -0.0014807330726992183 -0.0006041242533914124 0.3823845951996467 0.10887397419696919
55945000.0 0.8822242197216054 -0.4678023130774417 0.047608170714437646 -0.1483360261205111 0.003333217784769957 -0.004801053126741388 0.39202340687663295 0.09670257047688985
56944000.0 0.8775786061491367 -0.4758769739610632 0.04649835191123041 -0.1547353898463418 -2.4184412663208957e-05 -0.0012687359752637842 0.3966933214433711 0.09019258667576982
57943000.0 0.8733192428790258 -0.48684403792919645 0.045571062694264176 -0.16988271152155374 -0.0051150627352686984 0.0015785101519995043 0.4053536042672525 0.07747304584633073
58942000.0 0.8677519630070104 -0.49000248781254163 0.04757034706648292 -0.1810633026740216 -0.0015772623338998122 -0.0004169822084237142 0.420548596231136 0.08708512346997578
59941000.0 0.8639483264011176 -0.5007348726359169 0.05115300570843742 -0.1894023427293141 -0.003203933841262903 -0.0006919791358699617 0.42289217480031327 0.07320931895367758
60940000.0 0.8567021835523829 -0.5071650035891465 0.05110073244910296 -0.19513172136804205 -0.001750459306232486 -0.0004194100044885482 0.4131830218326377 0.06514665779715789
61939000.0 0.8535802874555435 -0.5145160526604702 0.04943563211830481 -0.20402794382719647 -0.0015529499812268668 -0.0004585869073615974 0.42000362081574266 0.05110113965368989
62938000.0 0.8473928525191788 -0.5256162638963994 0.05072255588926218 -0.21936293113138025 9.991182814479578e-06 -0.0027589840994443893 0.43888925940760776 0.03733121088314162
63937000.0 0.8434793894429936 -0.5314607444119225 0.05398123414057633 -0.24321774668288554 0.0003609501613223204 0.0009449893954131923 0.43072677904892814 0.031356979837859636
64936000.0 0.8360230671378099 -0.5393910492161406 0.05394142502802826 -0.2554489114931508 2.2314789200433283e-05 -0.0006420099979552891 0.4355699206761898 0.02666020443903761
65935000.0 0.8336629715641258 -0.5472467988795104 0.05164931494714225 -0.26774217128583033 0.0025170443947911793 0.0005965782193571162 0.4363034705042209 -0.0030669729673485986
66934000.0 0.828621640396301 -0.554759087294605 0.0492257260221792 -0.28038654201633745 0.003474506627466354 0.00280077764390399 0.43772474799338784 -0.004201845580827976
67933000.0 0.8253350338363975 -0.5617516842229069 0.053032178948996506 -0.296586965599909 0.001050119702139878 0.00015871082818807246 0.44199970076283923 -0.003660232890213239
68932000.0 0.822254911708615 -0.5598044443375363 0.05180273842253803 -0.3115620402996586 0.0018260594818120227 0.003297727209258584 0.4588164370753262 -0.020278805826607276
69931000.0 0.8111797656241397 -0.5785567778454986 0.051877876471250854 -0.3278635742776005 -0.0004641701887761801 0.0017383257683117068 0.4471740245652182 -0.03480571918572658
70930000.0 0.8053455305343813 -0.5846164084477068 0.04598413130477994 -0.34111870572097736 0.0025386752098194736 0.0016156048253047686 0.44434877589633975 -0.04308636898816596
71929000.0 0.8007790884551482 -0.5930448042508609 0.04122000346991324 -0.36138387010932066 -0.0008158993358934747 0.0017156500855082851 0.4503821747443184 -0.05108603968980367
72928000.0 0.7956554920127543 -0.6013366582538784 0.036796839258085245 -0.37153850345134437 0.004488464792508808 -0.0007418860163858507 0.4670835221826989 -0.061499346547863785
73927000.0 0.789956371189175 -0.6092079805826827 0.03108067631493007 -0.3959054333421044 -0.0005168476316840733 0.001004481957151827 0.45083985275352956 -0.07080564684702637
74926000.0 0.7825277905935772 -0.6176238084714145 0.023111235064466225 -0.4148847599439423 -0.004111985922686748 0.0012350533232318413 0.46734844727585456 -0.08635267934376901
75925000.0 0.7757613435535736 -0.6236077443713751 0.010816364600178728 -0.4345426740100976 0.000595459601645963 -2.59132170451881e-05 0.47106971211860954 -0.0921968427577124
76924000.0 0.7716667934375494 -0.629899909125101 -0.0038689554020050147 -0.4579917809616099 -0.00130796837626542 0.0011449226017026656 0.46707649261741474 -0.09681045167343294
77923000.0 0.7663841696475844 -0.6386595292944297 -0.019514710464775917 -0.4821486457123322 -0.0017118585160384669 0.00045157268642221715 0.4560880566224874 -0.0998834452866075
78922000.0 0.7596619343797527 -0.6499751783217667 -0.02848850248634602 -0.5104028620189403 0.0007205834824653605 5.412503987789268e-05 0.45672884983686857 -0.1117162175500548
79921000.0 0.7497344250653555 -0.6529499058679165 -0.04627608118192228 -0.5348229982482561 -0.0017910222716885436 -0.00120939399507175 0.46475981301557534 -0.13406020837566768
80920000.0 0.7474944605904604 -0.6622916311222546 -0.06224728702057785 -0.5646892748295984 -0.0003788039084280604 -0.0031490752289020704 0.4632347774320008 -0.1364137222955399
81919000.0 0.7427683332738811 -0.6691221272006633 -0.08231502856469358 -0.5938710216851751 -0.0019823946662541345 0.0018856963958461498 0.4672745323759862 -0.15131022231760616
82918000.0 0.7308192917421545 -0.6761165107564638 -0.09684721291841535 -0.6234509995051216 0.0006786147374867339 0.0028130255022466135 0.46991559886845047 -0.16724712538667325
83917000.0 0.7218906128775354 -0.6856110798669288 -0.11833331730499144 -0.6539630882707343 -0.0014125668053070817 -0.0010739068085939977 0.48286648617860345 -0.1599368243230075
84916000.0 0.7183001563997414 -0.6910919172650676 -0.1355548981204835 -0.6885778035868897 0.0026060885988357465 -0.0005632466698546329 0.465387674101005 -0.1887514467304999
85915000.0 0.7129817408911618 -0.6954565137007548 -0.15565577477261783 -0.7183569091906448 -0.00123493784149306 -0.0007123382920196427 0.4585336444925105 -0.19516967867324064
86914000.0 0.7062147711757891 -0.7072809189834883 -0.17548669078935294 -0.755198863233918 0.0028630142083885483 -0.001465172999022742 0.4593971152624763 -0.19829443187723417
87913000.0 0.6981502733738836 -0.7127932892592156 -0.19373837138426991 -0.786751149397553 -0.005184227955439769 -0.005095482585755425 0.4594476423011662 -0.20162086887249459
88912000.0 0.6907064165392542 -0.7183988851581704 -0.21246278877527092 -0.8186416213495588 -0.0045508240142393954 0.0009161941464133197 0.4711562174004546 -0.22095367018878764
89911000.0 0.6850628284458589 -0.7273473715163613 -0.2269356594146844 -0.8596221946942869 0.004327513064763716 -0.005059430314481992 0.46104295340330265 -0.23405139686436416
90910000.0 0.676726924562138 -0.7333618020299874 -0.24234079143551285 -0.8928653193726415 0.0012497469743005672 -0.0027023925565184967 0.4578951645289769 -0.2219061512396202
91909000.0 0.666388824191774 -0.7387806289537544 -0.266411470609437 -0.9268714434810887 0.0010358153288178055 -0.001527497719095535 0.45662013385436495 -0.23946631450753528
92908000.0 0.6608374317827573 -0.7477567468146104 -0.2858141416053715 -0.9579812597975936 0.00026756002520938473 -0.0009566737124469102 0.4400167153969361 -0.2526976678232146
93907000.0 0.654226528775085 -0.752042783080127 -0.3064688429500503 -0.9898733055653423 -0.002475988784652471 0.0024165949508089227 0.4627558301067272 -0.2724388802781897
94906000.0 0.6413393777752702 -0.7601830253661477 -0.3240624673635469 -1.0260366620663464 -0.0020561874358784277 -0.0003553502207747968 0.4543338616711025 -0.27389005470082967
95905000.0 0.6366995232371143 -0.7661470844737527 -0.3458749492917002 -1.0609813986382908 -0.0010033125817829089 0.0031303758278123915 0.4578126824978952 -0.2852979926814792
96904000.0 0.6284145177178561 -0.7754365481317183 -0.36437580556197885 -1.1016407948242743 0.0015199494670126359 0.0011966183788192474 0.44755774797392606 -0.2883203261608652
97903000.0 0.6175534341045579 -0.7820494052287665 -0.3918674004399244 -1.1310777943874843 -0.00014345354307100015 0.0012872876776681959 0.43375483715114704 -0.30912131718789937
98902000.0 0.6122307818395906 -0.7864259083576047 -0.4121661483472356 -1.1679646100364536 -0.001241999787610548 0.00027738739627343044 0.43876545426146724 -0.3141062757534913
99901000.0 0.6016455369371999 -0.7932762669716954 -0.44342031751612104 -1.2018988254049932 -0.0011725906353545921 0.0015632294976677973 0.45566056909837843 -0.33818836781584005
100900000.0 0.5942071259381068 -0.7960608291810212 -0.4715795798139322 -1.229024557884632 -0.0013624919715221927 0.000640431912276058 0.44989396198189835 -0.32076338204700083
101899000.0 0.5869871443796263 -0.8058143584530197 -0.504133289479054 -1.269626889664845 0.0012175663673467747 -0.0002600363199669977 0.44352639782298586 -0.3382993498725152
102898000.0 0.5771877995992521 -0.809560061092303 -0.5366967950501019 -1.3108836036959761 6.91718962091755e-05 0.0019675686820499632 0.4563020310752955 -0.3515601484832433
103897000.0 0.5691187404731843 -0.8192779321831001 -0.5791643735994649 -1.3405805800134283 0.002543338125633622 0.0038889697267012065 0.44481507110844787 -0.35891216988670993
104896000.0 0.561866201719585 -0.8287004902992435 -0.6249697978189059 -1.375929300427604 -0.00102173436701369 0.001471226088238016 0.4303436514512293 -0.35154662725252095
105895000.0 0.550451730737369 -0.8297565427450603 -0.6716637154685843 -1.4179359136431156 -0.0023394896428351277 -0.0007763755410670581 0.43072476773056884 -0.37101300846122304
106894000.0 0.539749088272653 -0.834741280195151 -0.7249404683429224 -1.4550782444455501 0.0005384961193592368 -0.0001416775509812425 0.4216406144071529 -0.37948348717218067
107893000.0 0.5350736636721467 -0.841431227012919 -0.7786991318866454 -1.4928021405206335 -0.004191592958094479 0.0024236690147486683 0.42256756080065516 -0.3981269114126607
108892000.0 0.5238042915013814 -0.8464327279528692 -0.8394644795887926 -1.5281423813744313 0.003193776642586195 0.0014629151627728971 0.41233317042000106 -0.39169090131938267
109891000.0 0.5113821783294518 -0.8523887882574622 -0.8945608621270738 -1.5637192264439503 0.0017959378786566956 4.7451772675929326e-05 0.4368012321236792 -0.3983259238666694
110890000.0 0.5062708048947695 -0.8594855632663077 -0.9574690887177054 -1.5831610824392084 -0.0006294783489936872 0.0008138691474611761 0.4248769428685047 -0.39797900806790476
111889000.0 0.48971258593866834 -0.8605726276580393 -1.0258740017985288 -1.633895765290391 -0.002494886592729592 0.0028308924736058284 0.4076825553408882 -0.4175319743249894
