! Created with skrf 1.9.0 (http://scikit-rf.org).
# Hz S RI R 50.0 
!freq ReS11 ImS11 ReS21 ImS21 ReS12 ImS12 ReS22 ImS22
1000000.0 0.981813619894867 -0.005473411702591853 -0.03477147800270857 -0.035767428101935894 -0.021326131628642865 0.015302596927247298 0.34329360897828004 0.3330867456019044
1999000.0 0.9981117743037778 -0.01675642683880896 0.0052019969465417325 -0.01669903970865003 -0.006751046713220211 0.0009522287036440217 0.24630747471768072 -0.041630239963866195
2998000.0 0.9980503316042211 -0.023969115715738214 0.006785128906428704 -0.017668917791863928 -0.0010842603444270685 -0.006412098895736317 0.18608918716181558 -0.11971976628132366
3997000.0 0.9946523172435364 -0.03124737784364273 0.007256735829955197 -0.006206871395634395 -0.0018494205007146016 -0.0074436600404328345 0.09862670513046284 -0.19087326681261244
4996000.0 0.9951369441381005 -0.04400561716330346 0.009792657818087162 0.0002574398253114747 -0.0009507617171860637 -0.003379322809582181 -0.037583214591596706 -0.19056404081075212
5995000.0 0.9929264746441266 -0.051801983729163406 0.008784701193494652 0.004653496588148921 0.0026856401319367974 -0.00699239384799158 -0.10680716562071846 -0.11174061722161918
6994000.0 0.9908594886430052 -0.0616209229577274 0.005367048765052844 0.0020575361542497245 -0.0017095978202949335 -0.0005504381969229717 -0.13264081551764537 -0.02742489274480336
7993000.0 0.9940001683893592 -0.06866913246259577 0.002912294782343059 0.006733118958197411 0.0035247725428009225 -0.003684753054428032 -0.14661423433802262 0.028040057653924234
8992000.0 0.9897162945970723 -0.07415092878913368 0.007388017113869988 0.004410031576764976 0.0004232098814265317 0.00044421980984974205 -0.15973542875055957 0.06824661230775422
9991000.0 0.9903619177818093 -0.08427590422408456 -2.1054535447193957e-05 0.008840487404440612 -0.0021273683333189017 -0.0008158469760690163 -0.1398683418327309 0.0834030723199232
10990000.0 0.9883000282304177 -0.09287561611507886 0.005754476464192615 0.0012582136400282992 0.002054821485356826 0.00452932907695124 -0.15040572360835625 0.10850068646716826
11989000.0 0.9869703470466602 -0.0969582542984104 -0.0035756819847247226 -0.0004171358934341042 0.005316847423804648 0.00177013504614249 -0.128763742112345 0.12746397959512135
12988000.0 0.9847961914717205 -0.11283831710812758 -0.0010313014763556033 -0.004711123555020263 -0.0011452840949901669 0.003377675842093577 -0.11127364163399829 0.15716794016118085
13987000.0 0.9838710537617648 -0.11719986994324948 -0.00023455074600474264 -0.0017693721830492925 -0.002075580103852509 -0.001385049537811413 -0.09325785453374255 0.18915246683541642
14986000.0 0.9840092431527386 -0.12409077438300825 0.0010806967710655414 -0.006016636635478705 0.001112799029593249 -0.0006100643775310301 -0.08116870766594961 0.19735671257345067
15985000.0 0.985507209294108 -0.13582177807457554 0.00045514940180961213 -0.002302307208746989 -0.00027847327571817713 0.0004251137185022239 -0.06603692473419985 0.215772141593139
16984000.0 0.9825685752132839 -0.14131830249949043 0.003315856726959809 -0.0009392432102897433 -0.0023964382197157784 -0.001040814398569443 -0.06269865280642728 0.22472572963214307
17983000.0 0.9812267025157724 -0.1502796489715887 -0.005253417139958003 -0.0033547403022134914 -0.00011329544775308074 0.0016756529049143406 -0.05443267335302024 0.23207035305700596
18982000.0 0.9784607482718836 -0.1600528245306083 -0.006022660058952335 -0.004091585987303731 -0.003236715917037103 0.0008598047861809469 -0.02268775195466138 0.24189716582929152
19981000.0 0.9796507599490518 -0.1657626421822639 -0.0051006841110512995 -0.006680876718116328 -0.00101294548413863 0.0028917290738608545 -0.013736028914611169 0.23489283811271444
20980000.0 0.9770650967393691 -0.1767530576982683 -0.007389064499060398 -0.005541073140613226 0.0008275209293248214 0.002516378253536893 -3.929575627505387e-05 0.2598495876243284
21979000.0 0.9756009377219417 -0.18392471052326853 -0.003753101844050826 -0.0058258638002087115 0.004442683630642728 -0.0012305312302087834 0.01625090274678243 0.24666117007416188
22978000.0 0.9726881764953417 -0.1925378019277431 -0.003984519553047006 0.0020455905918306543 0.001717061704639445 -0.0018964155074668325 0.021985954287636472 0.2619885238061048
23977000.0 0.972873413734972 -0.20063103241438457 -0.011715809979521038 0.0008051617513613191 0.004642635160692054 0.0014492494831483838 0.030720331701342675 0.25916672297995647
24976000.0 0.9703766834844747 -0.21181956013237196 -0.006981973190435768 -0.003995479418810237 -0.0007274810598839276 0.0006299186584394507 0.05529668021024933 0.2614510252119227
25975000.0 0.9643815804217523 -0.2244126874916915 -0.005227509236169632 0.0019666127794411357 0.01447847584049697 -0.020906989329555453 0.06315155875862581 0.2689060765725569
26974000.0 0.9659802891378696 -0.22820653317360962 -0.0041667406577245315 -0.003067204428101482 -0.002476355065553617 -0.001740173540600748 0.09408714382003867 0.26146250973282453
27973000.0 0.9655502812707514 -0.23542984311886367 0.0016267805132598174 0.0008281155908006594 0.00024238250856118963 0.0013552250485980492 0.10135176702485411 0.2654469730510026
28972000.0 0.9630144700163181 -0.24331756860570058 -0.0013631147747276266 -0.0021186855259144174 -0.0015687008888428603 -0.0004309995745573535 0.11618983983839658 0.26037303849348103
29971000.0 0.9612866960934369 -0.2529875127901857 0.0009086478831579529 -0.0031076699069683337 -0.00029294757716006095 -0.0002029533011065603 0.146335443391006 0.26312262054327007
30970000.0 0.9592579874811968 -0.25847209684901 0.0016514183566085645 0.0004231672693064382 0.002127756108672899 -0.002383068107420592 0.1627901735540676 0.25594494652217015
31969000.0 0.9558044759553829 -0.26857893568121816 0.004688328803584777 -0.007127664232718691 0.0010565044798993815 -0.001682941086816035 0.15393093323642246 0.24407313499228886
32968000.0 0.9555907341300791 -0.27579481540583145 0.010059063586623956 -0.011855201411969178 -0.0023906247568056586 -0.001119698410755273 0.16206384742788035 0.23666372073867328
33967000.0 0.9517592244920043 -0.2870593019332044 0.010712413951452754 -0.011697207809247488 -0.0014662289134858928 -0.0010029692321935793 0.18325306575732903 0.24904635744282638
34966000.0 0.9496339999840879 -0.29479596205379327 0.01080077386846225 -0.010081364083413664 -0.002622112940105108 -0.0006506623911079728 0.189634835717228 0.2511006674134897
35965000.0 0.9478674522798 -0.3029517685929582 0.016327885256003438 -0.013662733042725587 -0.0009810814324336108 -0.00411716956136543 0.2114815081788355 0.25152685881910336
36964000.0 0.9455225026264711 -0.31172707043177245 0.015372310667070533 -0.017135159598179107 0.0035848517040297997 -0.00044236279091221524 0.21777188220583835 0.24874755530160786
37963000.0 0.9415116517403495 -0.32167900254470905 0.023729138905014775 -0.02448721936514055 0.0026150752037523927 0.00020770962964627103 0.22691290185765461 0.23121436030562292
38962000.0 0.9389191836248848 -0.33112228984346503 0.024457305274386856 -0.025581062559742296 -0.0034336833348244163 0.001489864051566141 0.23382457553386526 0.23426760993446732
39961000.0 0.9370476642751087 -0.33670166849685096 0.025851429810235804 -0.03066921304608991 -0.0016414731947435345 -0.0047908755500992144 0.24440861952199097 0.23279826808495513
40960000.0 0.9337000456305017 -0.3457070821687037 0.02349407573282502 -0.025400207184199945 0.0003631709617455359 -0.001051032696260598 0.2687471635883491 0.22932993154888676
41959000.0 0.9298457114366483 -0.35619134168712396 0.0313263418953972 -0.0356460050797096 -0.0014349696254953577 0.0004008114573084369 0.2653209106693258 0.22544364100723632
42958000.0 0.9233603162926017 -0.36639743373149675 0.03144221722973196 -0.04212894422518023 0.002142031810071544 0.0009428623695564612 0.2820762761971968 0.20453133969082282
43957000.0 0.922348895298065 -0.3719909619230541 0.035404119527436516 -0.048180408770961955 -0.001433503088604297 0.000911131124000789 0.2812577712979482 0.20907650976977551
44956000.0 0.9196756220706294 -0.3785905700806622 0.037946605957115694 -0.05540295071433824 0.0001816080521603349 -0.002247143057978181 0.30563791569114657 0.1943675016070629
45955000.0 0.9144900142784654 -0.3897835811805984 0.03426247894103952 -0.062128334566885206 0.00227172912548525 0.0001773138846821144 0.30264074184188755 0.19666442998771277
46954000.0 0.9133774138026767 -0.39807026719303445 0.03782876848062517 -0.0667501606923104 -0.0014320595722833653 0.0022531770380135657 0.3277767434202458 0.1825056036477191
47953000.0 0.9093993033799048 -0.4041987428050018 0.03749106738843609 -0.0748960067173527 0.0014659270378441652 0.0034598621548578247 0.3371511941669548 0.17079510813192617
48952000.0 0.9033291626258322 -0.41666541903992077 0.036823917376934925 -0.082291320530094 -0.00030779689353541 -0.0007015765173450089 0.32673442142771264 0.1650349465607145
49951000.0 0.9001676986097337 -0.4199287382278756 0.03932864369273012 -0.08720628782089214 -0.0030277433146016 0.0006116282520537445 0.3432834773310597 0.1545399977885849
50950000.0 0.8975443928269263 -0.4303743635417243 0.04264964268885631 -0.0993107379094672 0.002363125701960601 0.0004218866784543174 0.34789909302695604 0.14112064013467834
51949000.0 0.8921637226519644 -0.4387631736470013 0.04181933526369675 -0.10727616224615108 -0.000280513424795025 -0.0004787602488279138 0.3604952595665239 0.14205279083518405
52948000.0 0.8880112221109359 -0.44758194183304817 0.04084668035500487 -0.11773591161585348 0.00247975706999949 -0.0022932395460325424 0.3663155817331216 0.14474618352662943
53947000.0 0.8850802223232311 -0.4527094828223281 0.044641455254607595 -0.12403232149726484 0.0027391184634390463 0.00043299655256285767 0.3704801101074081 0.1306063445771406
54946000.0 0.8793179274128704 -0.4645646288035003 0.0467636631599414 -0.13476703383195587 -0.0029223172243596214 0.0028438427201079673 0.3788763736378152 0.12346306815829054
55945000.0 0.8765743322724565 -0.4706015340445641 0.04908656088720389 -0.14465203894227285 -0.00022580764699347316 -0.0030774905651623488 0.38598693945354473 0.10032723235440905
56944000.0 0.8727556216612614 -0.480438086058615 0.049835976304630776 -0.1547904174642742 0.0009556385942996547 0.00195609535403696 0.3784928322823493 0.10916066374315148
57943000.0 0.8660410989056457 -0.4917749971595766 0.05209828646280559 -0.17087259584743086 0.000970349943320595 -0.003394047262414994 0.39274814284786214 0.10081901125107952
58942000.0 0.8613909610751734 -0.4950116785804039 0.05020328066762257 -0.17960184270281837 0.0019619131579599733 -0.003586904497351933 0.41094729230816435 0.09358375054756095
59941000.0 0.8572195103403925 -0.5034463348677573 0.05435528064740234 -0.18952119460723155 -0.00018140063869653188 -0.004070205735112722 0.4184533507837325 0.09191218485117482
60940000.0 0.8508011721689615 -0.5118007792890914 0.05242965773233022 -0.195426755143892 -0.0004934814458997933 0.0016055072094053797 0.40724252700636904 0.07877646543522222
61939000.0 0.8476908641489339 -0.5179405727913521 0.056100880744084446 -0.2037695241447504 -0.00115861562231461 0.00023211674386939182 0.4092302358684533 0.0688723298593861
62938000.0 0.841926788648165 -0.5282713147934387 0.05667006581144674 -0.22352044038569782 0.00011374552355800567 -0.0011762234587016003 0.43393550069051695 0.0669003345997639
63937000.0 0.8364223369814573 -0.5361809434057475 0.05731780942857582 -0.2412945697582096 -0.0014533593464627452 -0.00032453009717649007 0.43176111438031856 0.03951775526665778
64936000.0 0.8306853795939356 -0.5411289444613726 0.05568150645967426 -0.25636166833524715 0.0011698400395317513 0.0018328522479753656 0.43916998624077574 0.04155027853236166
65935000.0 0.826515892231939 -0.5538590606499472 0.054847345669892966 -0.27116516020473075 -0.00035321982341513474 0.0005113966268206911 0.431688711406679 0.021388766806757126
66934000.0 0.8219775979868861 -0.5559812891974956 0.05708619830634971 -0.28090036359515114 0.0022901563270071763 -8.539514781297677e-05 0.4321589441101309 0.02109164808743813
67933000.0 0.8187029948226081 -0.5663612750466726 0.056182587850337036 -0.297887587013439 0.0001139136214269201 0.002625665213609192 0.4365518096463127 0.011983414183342107
68932000.0 0.8117332001162726 -0.5705575030082379 0.051763082781289424 -0.3147039029249993 0.0032332779607063735 0.0023955074084023274 0.4467929039774761 0.0030018447034769473
69931000.0 0.8038716629846173 -0.5827709895304894 0.05118759056505671 -0.3306776465323051 0.0010817031774852473 0.0007374324156689341 0.44939472214107873 -0.02673202321379054
70930000.0 0.7972686147284703 -0.5894540563241092 0.04458863869571906 -0.3441453543383996 -0.0014480240165494845 0.002856725696946751 0.43970579840241325 -0.021623145219562854
71929000.0 0.7944747031682486 -0.5996768246203308 0.04309079916915773 -0.36590058111740315 0.0008493836505727954 -0.002097125338415335 0.4532507001050032 -0.02846949443464832
72928000.0 0.7874324004611517 -0.6061558591129745 0.03908129184299643 -0.3806919842247077 0.0009431901620735602 0.002281456061437005 0.4617653951852689 -0.042997056846166684
73927000.0 0.781744542463403 -0.6132913102251529 0.02775634355620079 -0.4043248417092372 -0.0017470535913902655 -0.0037598490021954842 0.45626527181155857 -0.05526493644811893
74926000.0 0.7771821424375519 -0.6217806433109483 0.02398253971170221 -0.4208797085234529 -0.00060609415607929 0.00040124307734281636 0.4649516541948946 -0.04790075496984504
75925000.0 0.7675894981838415 -0.6275395211601245 0.01161518341897092 -0.44483587826089704 0.00031861844492388734 -0.0026296884808939885 0.4676034111676271 -0.08320505591248106
76924000.0 0.7640127255604673 -0.6354815064395392 0.0015279583480784635 -0.4708831412742726 0.002730052752361983 -0.0015399923588514208 0.4748987636944001 -0.0886437322405276
77923000.0 0.759054203910508 -0.6397578056817949 -0.01782840773005695 -0.48967713489789455 -0.0010183916065425386 0.002163017374971294 0.4514455390436848 -0.08961680328240279
78922000.0 0.7516650878844379 -0.6528219929511261 -0.029020000942792647 -0.5211628001853551 -0.00011325311555179977 0.00029315555926683485 0.4631362871264757 -0.09946543599010997
79921000.0 0.7406604000323412 -0.6551123570998583 -0.045779907804163335 -0.5492757583540367 -0.002223408561534731 0.003534396606352215 0.4626141727739631 -0.12341954498644785
80920000.0 0.7381015403263406 -0.6648860987025398 -0.059623675489629685 -0.5788268949531521 0.002698586316965697 0.00042662953756920544 0.4771287792647541 -0.11629283867601445
81919000.0 0.7314215160857033 -0.6727472979536161 -0.08031682038197525 -0.6042226720520585 -0.0015094288019814749 0.00035686492188189247 0.47059203280110457 -0.13009608460335828
82918000.0 0.723407858761699 -0.6780029017185795 -0.09205693946205902 -0.6356905712505722 -0.0012557143873398006 -0.0002486684550819207 0.47755650874632477 -0.1358512146578801
83917000.0 0.7164221666797023 -0.6854576543521569 -0.11654985049132699 -0.6648554224494596 -0.0031387164151116804 -0.00421122053292255 0.4661088985344114 -0.1473110112111032
84916000.0 0.7110326212190764 -0.6923999172027171 -0.1277872213533189 -0.7030684894573203 0.003917203809085953 -8.511604544092327e-05 0.46501367841415997 -0.14772337651750386
85915000.0 0.7036508919646414 -0.7011640183347723 -0.15246669566608123 -0.7305334955398463 0.001137758494671668 -0.002514310961542239 0.4695465592331806 -0.1727096816344737
86914000.0 0.6971780257017933 -0.7089727555164229 -0.16884856936939288 -0.7695748193430638 -0.002097627091228556 0.0018773957600740521 0.46118870830172437 -0.17620161572751536
87913000.0 0.6898007074660018 -0.7157034773119405 -0.18420855953102658 -0.8004633574596055 0.004059044361780376 -0.0030063747706496843 0.4585084783208911 -0.17493355026369553
88912000.0 0.6852494383266748 -0.7213776787972972 -0.19943012141093108 -0.8355868166001792 0.0024093449477195312 -0.0012520447976803269 0.4619933532892242 -0.20174265890628604
89911000.0 0.6742191088640547 -0.7316170962460897 -0.2183493786043583 -0.8747383672345066 0.003029645952634247 -0.001700853108938842 0.4683654633226249 -0.2032958310531303
90910000.0 0.668526370882905 -0.7351076042254852 -0.23194710994251597 -0.9089276143804381 -0.00029239294979080947 0.0011797284824880804 0.4603216721671069 -0.2148964335355023
91909000.0 0.6600158494696385 -0.7414496583051822 -0.2585444533164066 -0.9386143753492807 0.00349900517987631 0.0003125487596139122 0.45899472874672376 -0.21352279206380168
92908000.0 0.6505417702005339 -0.74816928376428 -0.2734848189680247 -0.9751159979130826 0.0020972202134269227 0.0003899933896138921 0.45031033043740976 -0.2212996271152548
93907000.0 0.6447924842321964 -0.7542738882148001 -0.29971736896330026 -1.0050664491299655 0.0035108076056289 -0.0012450112200130057 0.4562474621948493 -0.25236460203990485
94906000.0 0.6343817318735483 -0.7618716538303008 -0.3145638224825637 -1.0387596393190093 -0.00013383353128431006 0.0020619656108209136 0.4570772310770944 -0.24636970417625714
95905000.0 0.6289509702289109 -0.7672494701843147 -0.33655220658440566 -1.0816773040547571 -0.005521786879048744 -0.0033320962261263 0.46425654068024247 -0.24896549673521898
96904000.0 0.6179322415317496 -0.776284942972326 -0.35865161346026925 -1.115852626845654 -0.004568322904268386 4.429468863023701e-05 0.4527038953009977 -0.2669704511594932
97903000.0 0.6099966533779705 -0.7810176624204321 -0.38439302665161446 -1.1532859991721962 -0.0006982166305417353 -0.0009472172184667812 0.45462021307754963 -0.2794193580790768
98902000.0 0.605427199337947 -0.7899758865635138 -0.4060779925000938 -1.1908313302492062 -0.0011722155827532726 0.0006080089615716249 0.4436808965955205 -0.2905885228724545
99901000.0 0.5917879791268098 -0.7940802804106185 -0.4371206521287486 -1.2202216923356743 -0.002213261018801813 -0.00210806125744779 0.45916956036608564 -0.307624967649272
100900000.0 0.5875166974504283 -0.7977067474115672 -0.4698592688007103 -1.2519931053656255 0.0011028975374936204 -0.0055160678882181565 0.45939191752781283 -0.30448705907988804
101899000.0 0.5767312484991723 -0.8058698733769528 -0.5012495314359398 -1.2920683333845975 0.00160168967037031 -0.000894748509431029 0.45318368731384945 -0.3187024287162291
102898000.0 0.5680398505729026 -0.8097550796056265 -0.5382384693718069 -1.3305037346389879 -0.00038214205826066596 0.0006010958397105256 0.45631883376112703 -0.33355936624967514
103897000.0 0.5596719109809727 -0.8180229911267203 -0.5800277530332025 -1.3684512707203915 -0.0013629289166870696 -0.00015194848570279 0.45930088535058194 -0.3213097381051057
104896000.0 0.5515442716841112 -0.8304234294818779 -0.6305925669262844 -1.4000109327281411 0.002781087928843045 -0.000517328809036865 0.4387460879775442 -0.32789791784395494
105895000.0 0.5424432308518181 -0.8297405206858594 -0.677416912664763 -1.4491121879136002 -0.0009333391039315399 -0.0007081997830706179 0.43833714622814246 -0.34665855460174066
106894000.0 0.5316309740126298 -0.8373569161160505 -0.736326615005534 -1.4862407440554481 -0.0015038056469473778 0.0026020495577926987 0.4413171075774185 -0.36716726538391353
107893000.0 0.5251381818382272 -0.8432711492619921 -0.7953571484929031 -1.5232592566343517 0.00022147721645836862 0.0006949038841558255 0.42964549445887523 -0.37063607611130983
108892000.0 0.5147297375936752 -0.844522896053 -0.8534832837521604 -1.557923321718893 -0.0022683656677665916 -0.0015347279621476329 0.4302866694362565 -0.35706272144184104
109891000.0 0.50234935177017 -0.8548144022775294 -0.9140870256416188 -1.6035081959733348 0.00042812784879645374 -0.0006032755474714029 0.4460691153667732 -0.3682195567061917
110890000.0 0.4802093421077012 -0.8622573724233901 -0.9923449002816881 -1.5948542077208583 -0.0015874790588748025 0.0006689202450441839 0.4215532705941678 -0.38169072084000205
111889000.0 0.4828175707772475 -0.860836283385382 -1.0470294052773081 -1.668903502748031 0.000616444535202547 0.001282436900579485 0.4283743832947105 -0.3968892821264848
