! Created with skrf 1.9.0 (http://scikit-rf.org).
# Hz S RI R 50.0 
!freq ReS11 ImS11 ReS21 ImS21 ReS12 ImS12 ReS22 ImS22
1000000.0 0.983702291739821 0.00834102456641593 0.00031953089589630717 -0.03767605890322618 -0.018577316696377823 -0.0013063772481874004 0.3607664293056769 0.3254332975680762
1999000.0 0.9953454912747771 -0.014871557091727598 0.006384078093206362 -0.02063114498306729 -0.004656988782282583 -0.0007181627225846388 0.2816430453839914 -0.03742405052731408
2998000.0 0.9975277686979869 -0.020737079415040455 0.006866361725359376 -0.013954517129640132 0.002717275120953554 -0.003939187630051005 0.19487369810370192 -0.12477033897279931
3997000.0 0.9977295757353654 -0.03325179864139631 0.010756929277513563 -0.0067350716051851715 0.0012377885495180457 -0.002289470399193231 0.08519191191806183 -0.2088571854353716
4996000.0 0.9954578286745974 -0.04012567916454149 0.011076196736399351 -0.00017757754592669938 -0.002799958433445364 -0.0014822776058074213 -0.047405072940270535 -0.20786289583842912
5995000.0 0.9951831737599541 -0.0500876931497624 0.011152589973233902 0.00519802958493145 -0.0022950413650227853 0.002310644171077483 -0.13009628359446984 -0.0990393294851458
6994000.0 0.9946782274803498 -0.05963405656761543 0.0030281599434228753 0.0058737626198246354 0.0018255456872962052 -0.003004780437651681 -0.14060083868922452 -0.022145851888935423
7993000.0 0.996966868416777 -0.06898337235076969 0.006224854402575877 0.003844447508879749 0.0007972460071437558 0.0015360189923898527 -0.1681575909290603 0.047829064148222834
8992000.0 0.994517783966394 -0.0753518123289871 0.002101719421257103 -0.0013414471940448147 -0.0005626333581169919 0.0010939565366517065 -0.15832545797906375 0.05951131917509247
9991000.0 0.9945450501763873 -0.08532912876302723 0.006527806440830234 0.0032552811385893085 0.0008345655834011725 0.0031041479132237334 -0.13725573218488818 0.09054179194377726
10990000.0 0.9918316063125705 -0.09360139586793666 0.0030374434635541273 0.0029137930825321673 0.0022011037369611543 -0.0005500225887503554 -0.1322707330058896 0.11932262953892973
11989000.0 0.9895883892555102 -0.09866757726165633 0.005675682873883338 -0.0022375677400265173 -0.002168197361008853 -0.0007561095186137015 -0.11372722695420376 0.141550264871907
12988000.0 0.988410643482008 -0.11073928645915454 0.0011306926741616668 -0.003986400060141624 0.0010549926068821915 -0.0009326400060087053 -0.10491544350319576 0.17310151984464997
13987000.0 0.9873848913187608 -0.11884341812418127 -0.000755056078718923 -0.00403534642519705 0.003983222288359718 0.0015738168874473218 -0.09202107340565631 0.18737072844518912
14986000.0 0.9876643395007138 -0.12749088257055444 -0.0007016243439306104 -0.003170202426852257 0.0010778813364965144 -0.00036857783523767116 -0.0879816740494633 0.19874794637735002
15985000.0 0.9894340763093581 -0.1371132754398615 -0.0005680700796519308 -0.0023225732867733686 -0.001674462092239616 0.002100892724927317 -0.06513237043356239 0.22584503330094557
16984000.0 0.9844712702973706 -0.14498612479848363 -0.0013520465293466687 -0.001068297342588489 0.0029372948694679746 -0.004260520631366208 -0.0558734544408438 0.2157889000622992
17983000.0 0.9850456323300959 -0.15368664223152792 -0.0036981347818439802 -0.00238862073293685 -0.0019883395323636545 0.0028510749300816145 -0.05055697348266281 0.22221913481940148
18982000.0 0.9837488359079971 -0.16171797261795154 -0.004035847740942694 -0.0037327519184011883 0.001546609369766827 -0.00017968777212002348 -0.021193550695863553 0.2367906853497237
19981000.0 0.9818282151839317 -0.16703626916850972 -0.006098176538296398 -0.00400409043832321 0.006241393043898875 -0.0019229544248293387 -0.0017904146189306996 0.23520236305796827
20980000.0 0.9806952246816767 -0.17755585102315152 -0.001949907386325326 -0.0011507580393609843 -0.0007331096401244594 0.00019555709037666078 -0.0010205925964828042 0.25569753660341143
21979000.0 0.9791297933356371 -0.18640237152867062 -0.0032871474841096628 -0.002224871660346168 0.00034124807856036286 0.0015404326177132386 0.011817226496632194 0.24294171174412865
22978000.0 0.9750609476294716 -0.1969097847896766 -0.003694975249438602 -0.0018167702050716661 -0.002199769923089195 -0.001897302595178786 0.03518713601121077 0.253441759327007
23977000.0 0.9770821406385074 -0.2045470594637622 -0.007165727905762989 -0.0007772547346819865 -6.298165111387607e-05 0.003069147554171878 0.04392925546388073 0.2552257519986553
24976000.0 0.9736154403050074 -0.21367352729967945 0.0006659364421318192 -0.004011602163890359 -0.0007226447314463928 0.0014074867110497955 0.06925411116733245 0.2518309600828158
25975000.0 0.9751157375680245 -0.22595565066660245 -0.007427841847883082 0.0002841650243535455 0.020398360443346326 0.019510478434506002 0.08128224682815821 0.2567340387199492
26974000.0 0.9712642661369975 -0.2297492425022545 -0.004321439892358484 0.0008159025391900032 0.0017568559352039111 -0.00169686843621973 0.08958610503857156 0.2698728599471574
27973000.0 0.967790953500514 -0.23864862751033364 -0.004373555567572142 -0.0032678818787341014 0.00036860736279373924 0.0014343669174790128 0.1124044161114109 0.2475666412820047
28972000.0 0.9641266397838093 -0.24919632429107133 -0.0006310221951697505 -0.004986086476360709 0.0014959286041451064 -0.0035738008960909495 0.11970723397016374 0.25637041791168586
29971000.0 0.9639980398626119 -0.2571845299411342 0.003328679419491501 -0.0023432766981843437 0.003003798669899718 -0.0009049144640288858 0.1453388183271428 0.2659440365852744
30970000.0 0.960497034167766 -0.2641017045892085 0.004376783433960342 0.002708859511881396 -0.00013399411059454873 -0.0012539274433403138 0.1722912881684076 0.24109022046999484
31969000.0 0.9606127008646276 -0.27100334637706125 0.005739256427675919 -0.005588211722141588 -2.269189931018145e-05 -0.0006083626060707434 0.14294298171331318 0.24510987909080165
32968000.0 0.958492610764087 -0.2801706520116702 0.009582539750747132 -0.0066474529147449455 0.0014550779819383218 0.0033205462914674597 0.16314692864249533 0.24959207175814005
33967000.0 0.956688238898987 -0.2882895096293915 0.013359384999281987 -0.010749793458525583 -0.0006429367867611335 8.123190859673684e-05 0.19071705648414206 0.24340444576059936
34966000.0 0.9511647170416098 -0.29941462617773773 0.014142392395440646 -0.01325858856716591 -0.00014117032762046722 0.004716448650907589 0.19638829675536282 0.256203327994637
35965000.0 0.9488962048157324 -0.3067378122033531 0.014932396803985627 -0.016026573540789055 -0.0018318502521287392 0.00021934114179714275 0.2119197316613545 0.24730972588553712
36964000.0 0.9476070060992682 -0.3155514174704049 0.018480548440163898 -0.01267568331099968 0.0006417220497196215 0.0015675492440965445 0.21056941394820947 0.25405346021951286
37963000.0 0.9428227237174215 -0.32518633818176124 0.022795408890892453 -0.02043265664633509 2.5725912655329798e-05 -0.0012839445969790677 0.2268137060726771 0.23104090945886022
38962000.0 0.9413901202588845 -0.3328522161860468 0.025558469838303417 -0.027630302902692444 0.0007957479922649715 0.0016007219180389414 0.24342273850028598 0.230421146926712
39961000.0 0.9372063893835989 -0.3430086549674195 0.026940122568076895 -0.028028765474365683 -0.0005162875922509976 -0.0013829062479997216 0.2566256040051786 0.22120746038499076
40960000.0 0.9341806464835606 -0.3504172862853041 0.025459346921225024 -0.02616423109484989 0.0013615338509019605 -0.001657444119404355 0.2747385849173238 0.22621828721530554
41959000.0 0.9313335494772487 -0.3602179765060444 0.02802529111684654 -0.03081943546377841 -0.001692309708298621 0.0011979368568076686 0.27200297838977594 0.21217792839994237
42958000.0 0.9248844936702505 -0.37068261054482243 0.03165154236311591 -0.04294414005351462 0.0027291473330306837 0.0033349066016024357 0.28285902847195177 0.2048404931743321
43957000.0 0.925225970962709 -0.3728797929643179 0.034984258417763966 -0.04582985191170827 -0.0013514907092167065 -0.0017107835226588207 0.2859387777833884 0.2050015217595763
44956000.0 0.9212154362511785 -0.38065485453038805 0.03330743279581146 -0.05205285767690861 -1.1986451663556467e-06 0.0030616818522102795 0.3104874257070837 0.19185252116870447
45955000.0 0.9172494584506965 -0.393265458814913 0.034840716411681405 -0.05931633904634367 0.0010553918673724743 0.0002660224388374811 0.31777995281535987 0.1879713432458992
46954000.0 0.9108594671244077 -0.40313450588462413 0.03372143231545609 -0.0653075428370576 0.0027084483497093505 2.5560618648560974e-05 0.33326665001544364 0.1803731539821927
47953000.0 0.9101990022354415 -0.408850592194272 0.03738088501622083 -0.07534953521133408 0.0015685064188268746 -0.003957662748605405 0.33414155911028715 0.16828538029296095
48952000.0 0.9042776576263074 -0.4183203819501014 0.03534831558786801 -0.08137743225459063 0.001209954877049515 -0.001440773821078136 0.33983411200950575 0.16417982571470438
49951000.0 0.9003304026985182 -0.4260473146455966 0.03569753743786095 -0.08878158126842817 -0.0003551096025910837 -0.0013172775920023854 0.3569117191159996 0.1540052952065668
50950000.0 0.8975715948576934 -0.43604783779032386 0.03799813118028168 -0.09686782977865306 -0.001092016205058376 -0.0017304382723431376 0.36218331390834285 0.14481411638500843
51949000.0 0.8935214482949312 -0.4435842986275873 0.03723127485436489 -0.10551874057497435 0.0011850752881109158 0.0004130594838819585 0.363766084989289 0.14120209344257392
52948000.0 0.8920891526981266 -0.4509964589476713 0.0390360023456472 -0.11520594779073096 -0.00096272604267786 0.0018982886635364041 0.37896912169126995 0.14127655148165053
53947000.0 0.8848980072259358 -0.4602717596394195 0.03811546660735631 -0.12186194610670513 -0.0034308466402909995 0.0003316199004703428 0.3766001357556998 0.12167084777705993
54946000.0 0.8791459691796102 -0.46863385752231357 0.04100831074579287 -0.13187207898102044 -0.003236180206778811 0.004200747224215359 0.3887725902305054 0.11838327378149126
55945000.0 0.8756822471486165 -0.47789864368686935 0.04405416974315941 -0.14276023018519862 -0.0021732669941041684 0.0011511322997542176 0.3923821114974861 0.10130662327145436
56944000.0 0.8727818947985037 -0.4849633523184344 0.04366999608876954 -0.1513197012244171 -0.0027476314923867125 0.0012317339102439154 0.40699026114081754 0.09329750984184478
57943000.0 0.8664667147721948 -0.4951114874014539 0.05038252757818147 -0.1617873402929716 -0.0012336803803966931 -0.001031394472866842 0.3972105706926782 0.08498333204809583
58942000.0 0.8631744188560184 -0.499167881696704 0.04498197779733394 -0.17263502410128181 -0.003175361799210337 0.0011563798418407726 0.42294872441422776 0.08113507301122999
59941000.0 0.8592434833386839 -0.508195471452673 0.047462413979560296 -0.17957939924123492 0.0018290260989891442 -0.0024189476641127547 0.42168658874539744 0.08273206755708491
60940000.0 0.8509563618251156 -0.5174440662896453 0.04518239967688088 -0.18434095773063727 0.0015017069860544382 0.0001505733369989032 0.41623504353447704 0.07159731890295912
61939000.0 0.8473484660646621 -0.5234729762068566 0.05171028418472753 -0.19297044265126384 -0.0013236404063621681 0.0023338805838442967 0.42433062679549516 0.06971713607415474
62938000.0 0.8428150344892518 -0.5330557323468921 0.05553370461136445 -0.2085965245110707 -0.0024857926666657666 0.0008446590661626118 0.4422022255426662 0.05302990981251032
63937000.0 0.8364268022628121 -0.5421403779478213 0.05365627167900454 -0.22943657774992826 -0.005067082928649756 0.002428072232839505 0.43644798643679605 0.03156743930494212
64936000.0 0.8304643712169888 -0.5464399067373936 0.05398402838416323 -0.2418506612994429 -0.0018825092714318075 0.0020942048954849866 0.4368817601947334 0.036468684454494645
65935000.0 0.8281168659028055 -0.5574970359529408 0.05255407501712598 -0.25846693562988726 0.0026794998371234497 -0.004592922600453376 0.4411742308851193 0.01814687453571676
66934000.0 0.8229653582225047 -0.5626581755015245 0.05144400312282763 -0.2693423489593653 0.002049811794220697 0.0019673007967196394 0.43719057939289585 0.007696558737126387
67933000.0 0.8173636764841381 -0.5722901592071395 0.05306765919293576 -0.28440784000730784 -0.0009188631365452491 0.0008677670023573302 0.4495212180223316 0.002574080977633442
68932000.0 0.8080035201254917 -0.5789959099767581 0.04981884817410881 -0.29808946281880727 -0.0030943729577364854 0.0008747384787061535 0.467647651730421 -0.009757402406013542
69931000.0 0.8027857486324013 -0.589468115482691 0.047941794995020826 -0.3130868708016122 -0.00031340932100064366 -0.0054338851716942745 0.4562400344331723 -0.01940344382391465
70930000.0 0.7991151443408578 -0.5945853417761744 0.04600297110722083 -0.3236501154564111 0.0006999476179058293 -0.0013592068155321158 0.4440158833716185 -0.030061684681355443
71929000.0 0.7965992500054095 -0.6032775774217198 0.04288594733456716 -0.3408706260639903 -0.0014378929655655265 -0.0027678411638815503 0.45013975230974884 -0.04190009069152397
72928000.0 0.7881018747967801 -0.6146176802003017 0.03485183712429476 -0.35960422322228375 0.001561071049482359 -0.00040550658033137565 0.4635188581457477 -0.05148638118242741
73927000.0 0.7799463871766579 -0.6182444626117398 0.02765589944852124 -0.37974637023453334 0.0004363197090027297 -0.002579651286278782 0.45234966042100966 -0.06129951178017041
74926000.0 0.7746951891799252 -0.6278743601155248 0.017301500042787857 -0.39572658345255174 0.001762106816734996 0.0013470955583833166 0.4574730238205561 -0.06663969651316655
75925000.0 0.7700998799066583 -0.6338317984589844 0.011135193238631103 -0.4175937118641735 0.0013643206009932652 0.004345554331521512 0.46796349686606703 -0.07191194866559018
76924000.0 0.7635096331342917 -0.6409904347391928 -0.004466987343344919 -0.43917450647605266 -0.004448823477257266 0.00041600691918952784 0.46665036739546695 -0.09346544930976204
77923000.0 0.7566801092354716 -0.6494436701488396 -0.014814702574371777 -0.4637535921530343 0.002171394608154605 -0.0017702514741632356 0.46967171559572113 -0.09641681933341337
78922000.0 0.7511074708806542 -0.6594256730824689 -0.03332215266752589 -0.48822662615834683 -0.0007341649109747046 -0.0031458588314788546 0.4589039240817835 -0.115919149493691
79921000.0 0.7401635148581569 -0.6609029793568939 -0.04797293787786275 -0.5161596178484488 0.0017081040239626782 0.0008386382744351141 0.454402879611319 -0.11802462713747976
80920000.0 0.738667684473747 -0.6738475162692174 -0.06613477187671955 -0.5415604006071845 0.0007848244248492785 -0.00020366931778988972 0.46605521325311855 -0.1284935127879621
81919000.0 0.7307818001567268 -0.6782334679774317 -0.08560283285777957 -0.5712367167967435 0.0025285763992456446 0.001455409314687085 0.46624669772471744 -0.13569859012088517
82918000.0 0.7220663034992877 -0.6849348101482904 -0.09442767873004981 -0.5959654398936691 -0.00011156727837664961 -0.0016137183759552432 0.47789192482158127 -0.15126144337313482
83917000.0 0.7136679565633494 -0.6943243725519748 -0.12120355464928602 -0.6262045851543867 -0.0047516369591786385 -0.0017349589469977612 0.4688904655248629 -0.15410134368290684
84916000.0 0.7077814266578412 -0.7005467562170216 -0.13421385408613376 -0.6630673809262119 -0.001996614430500591 -0.0027993663367299393 0.4664030542393554 -0.17652771063263945
85915000.0 0.7002816703543788 -0.7087276731881443 -0.15574773109584764 -0.690650933542043 0.00509930242058744 0.00024370841049720557 0.46749306004564584 -0.1717347400532525
86914000.0 0.693772798085893 -0.7183773262075236 -0.17226787553938339 -0.727549624776996 0.00249849385603859 -0.0002701828231280055 0.46621005510705 -0.17306208689970598
87913000.0 0.6859380356198678 -0.7230832054376294 -0.18653866330817884 -0.752216340698072 -0.005373119430157834 0.0017038408535600842 0.45598087799299075 -0.18928610131158938
88912000.0 0.6796390215773677 -0.7310395554731347 -0.2060781029863439 -0.7879758922553087 -0.0029387602170722737 -0.0010383085222116421 0.4695821688907046 -0.20801625076157337
89911000.0 0.6730734469962454 -0.7390717690681957 -0.2144751311119069 -0.8250785027223352 0.002516313738448422 0.0032360319122338287 0.475131466498693 -0.21822062673084186
90910000.0 0.6642775232939458 -0.7447122347319541 -0.23686017511728674 -0.8542260379626744 0.0010685858454259586 0.002045171378773742 0.45707949514383417 -0.22346157738425126
91909000.0 0.655161613607002 -0.7482866780645433 -0.2526175698880363 -0.8882816118961729 -0.000425790918939193 -0.001504163772949248 0.4682644096253154 -0.2254972432165298
92908000.0 0.648461193670886 -0.7587139837270234 -0.27123315734384457 -0.9209499035188012 -0.0011405534439859692 -0.0021329087581778423 0.45125008167202385 -0.23882088590613632
93907000.0 0.6400693334157126 -0.7624370999825266 -0.28385377115504523 -0.9526588666768705 -0.0030379632268295936 0.001189976503352534 0.45337053843815867 -0.26454537252859683
94906000.0 0.6300235785883735 -0.7707549246211142 -0.30285010483694774 -0.987423847624337 -0.0007978350939556657 -0.001350260381760775 0.45792048094786697 -0.25530742506334253
95905000.0 0.6197131428509725 -0.7769526734871116 -0.32500344224229183 -1.0148435640563827 0.0007499481741081609 -0.0017310524354972137 0.46251564161564795 -0.27587195899704176
96904000.0 0.613670868166122 -0.7845387508837521 -0.3417338971758915 -1.0526814924192298 -0.0019192117342769596 -0.0046113674545316405 0.44482972407404026 -0.2758388759062312
97903000.0 0.6054713172579284 -0.7926243999896477 -0.36806845292731977 -1.0862899394543288 0.001129597855052276 0.0020964670583296314 0.44323923586688674 -0.294287472375462
98902000.0 0.5981100774407059 -0.7979414275458273 -0.3826885939291318 -1.1212030969635 -0.0015043104461812103 0.004486311245704437 0.44489486766885705 -0.29835887416651463
99901000.0 0.588285208239355 -0.8038869898541577 -0.4153645220514433 -1.1525167825871239 0.001179129704867066 -0.0019017389169455163 0.45689108699817577 -0.31999322023853155
100900000.0 0.5799505783082868 -0.8075503736807282 -0.44577557449258415 -1.181165543890782 0.0012863839738555482 -0.0018068958821159586 0.4515049104153051 -0.3226889409553221
101899000.0 0.5722426918012142 -0.8157853205060145 -0.47070347250735567 -1.2236784804242973 -0.0002156038919530864 -0.00128784487977034 0.45179024429738734 -0.338442828447741
102898000.0 0.5607177498746888 -0.8207504594701521 -0.5082677951067793 -1.2541424227520146 -0.0004010099138315498 -0.0009306719416855829 0.45036742136280883 -0.3404195393863493
103897000.0 0.5523583128201099 -0.8297754701818568 -0.5473874322045096 -1.2856634416318111 0.004839234971061927 -0.00012530215038967173 0.4583224743385636 -0.3465992041511012
104896000.0 0.5436287171009799 -0.83912464230777 -0.5919302602962556 -1.317132721538193 0.0061264414982905545 0.00042277238889546685 0.42752996822792894 -0.34363836760761457
105895000.0 0.5339803765411494 -0.8407060773938608 -0.6358259340449679 -1.355656900923255 0.001952356240938847 0.0033710607267990788 0.4266621001968211 -0.36209208408033133
106894000.0 0.5255922250926917 -0.8464745839912226 -0.6916649387375746 -1.3923270179344172 0.002395206398302397 -0.0004236888520922613 0.42499231739507454 -0.37512441151191983
107893000.0 0.5157862492624905 -0.8539723786819642 -0.7424446472317534 -1.428357669654529 0.000218241559440549 0.001496970195472828 0.4197298748068548 -0.387800128631518
108892000.0 0.5063434064804219 -0.8569608709870026 -0.8063413424103043 -1.461110893097765 0.0015819891054769473 0.002262063249370417 0.42128282777150816 -0.38474616126199596
109891000.0 0.4926841481192756 -0.8639474939439223 -0.8648233618686824 -1.4914013869398641 -0.0024889666704938328 0.0015070071751557268 0.43456772499139457 -0.3889580971426146
110890000.0 0.4895996914161714 -0.8739081368989476 -0.9295605617130903 -1.5129365330071332 7.059052868003547e-05 -0.0005996712888769672 0.4309887629887692 -0.386668006573353
111889000.0 0.4708374800823145 -0.8707991105414246 -0.9876173135853101 -1.5542553337230454 0.0013056305053113658 -0.002929220411311069 0.40943449832659723 -0.40589939008336495
