! Created with skrf 1.9.0 (http://scikit-rf.org).
# Hz S RI R 50.0 
!freq ReS11 ImS11 ReS21 ImS21 ReS12 ImS12 ReS22 ImS22
1000000.0 0.9860272652563892 -0.008075668259855655 -0.00912547514087015 -0.044883875801181215 -0.011116337848513706 -0.0020698267892994503 0.34759198836466265 0.3214295675707203
1999000.0 0.9989992868274933 -0.014078333882944993 0.018440605948835308 -0.021918658741806714 0.0006951172189547994 0.000512858017573622 0.2658307769626421 -0.054145116336083564
2998000.0 1.0016623872157004 -0.019922327628924173 0.009954930498576523 -0.016626633034219858 -0.005426977120623199 -0.006129111241863075 0.1945525713370266 -0.11310815450333883
3997000.0 0.9964359645284839 -0.03314613192274284 0.009694229852531487 -0.010177650078966528 -0.003456710795102364 0.0009997941033146693 0.10105763055156243 -0.22285781938111107
4996000.0 0.9956970707270136 -0.0364402166521347 0.010271368636569793 -0.0005596387216940671 0.0022961969887679875 -0.0042050764916316125 -0.04469823938301129 -0.19347471455192541
5995000.0 0.9933275638710112 -0.04978434821399296 0.009809112324879457 0.0015079527680925372 -0.0030798991490827766 -0.004590504607118829 -0.12447972887753947 -0.09369447802306315
6994000.0 0.9899119179170901 -0.062282527831794034 0.006139828731219881 0.004769750192335744 -0.0036851668438339417 -0.0008907071032516724 -0.1330858307207711 -0.014735717580160587
7993000.0 0.9909460958639013 -0.06823266210937234 0.003958013719726673 0.009497622869805655 -0.002360972779369671 -0.0034400565858246357 -0.1584598431250564 0.040310079351726875
8992000.0 0.9938713299298633 -0.07277644205101677 -0.0007856997737728877 0.009611691678899933 0.005035876579686526 -0.0020896643310026443 -0.1519935382846649 0.060296231032363146
9991000.0 0.9905024018286636 -0.08402341564497769 0.0024978850615586003 0.009247943053038462 -0.005779620761205965 0.001735842267499261 -0.13669392035957967 0.08910383197112728
10990000.0 0.9913415984799697 -0.09158869287842482 0.0026968747264888046 -0.0005350593682489231 -0.0004348171546096108 0.0021848726971091933 -0.1339038434676575 0.11820159821926725
11989000.0 0.9894343060603386 -0.09937926214203929 7.366595059489103e-05 -0.005353733215182337 0.002045001497041354 -0.0027840966303450424 -0.11648538581009867 0.13780261391088508
12988000.0 0.9876106171571555 -0.10991968968052328 0.0004964383074134248 -0.003321306310075675 0.0017243867928890837 0.0006338533349487882 -0.11585072910241104 0.1675277115537599
13987000.0 0.9868136674317053 -0.11480082288462821 -0.0006586288493207819 -0.002728044959869867 -0.0020308567427412376 0.001621791952552007 -0.0808416329156591 0.18950109398673617
14986000.0 0.9849361337365715 -0.12460045158045946 -0.0001626654327181607 -0.0044820299459265795 1.4414455073633041e-05 -0.00100754098583519 -0.09173022510742708 0.2116570867424494
15985000.0 0.984145334919645 -0.13664744337491266 -0.002914797901844894 -0.008129935551644957 -0.0022277917259870923 -0.0052012345163166265 -0.06526042274618558 0.22227084922409224
16984000.0 0.9824921459468375 -0.14306861291973894 -0.0031898315478219325 -0.009079230181800652 0.003086801297904782 -0.0017904171981561591 -0.06397553306028005 0.22533649396256925
17983000.0 0.983380107277127 -0.1489570500400242 -0.002235402806831077 -0.004225530196757768 8.985969475284635e-05 0.0047000355941503175 -0.0448149534945485 0.22762974928229712
18982000.0 0.9799839272946642 -0.1619220317595053 -0.007400782288024932 -0.007219038084000973 -0.0035720533621471794 0.0017005780810280455 -0.01829223529632035 0.24249552550895465
19981000.0 0.9811918729283414 -0.164206952372223 -0.004950747501821455 -0.0029634350627284925 0.0007645026266825754 0.0021517980169115415 -0.016329541927294612 0.23670499412419402
20980000.0 0.9792723619798488 -0.1764571419025255 -0.0026566990235684694 -0.005434916844181735 -0.0002869336061833977 -0.00012926086243171534 0.0011449352699596147 0.26304326151898383
21979000.0 0.9763594576064261 -0.18653161914936991 -0.00583054621583393 -0.005396301815570052 0.000585574440076576 0.0013009035238702386 0.029609180854094457 0.24895496831457195
22978000.0 0.9753087042096086 -0.19300980457472694 -0.0098020498886018 -0.0027440334452519784 -0.0014317056501859673 0.0005056975766301209 0.031784567116134844 0.26388234579541303
23977000.0 0.9770079438939892 -0.19914650913596202 -0.004280115195868945 -0.000990625650352212 -0.0016567075263658098 -0.0021635320072009292 0.04605008624203758 0.2634788983720346
24976000.0 0.9707354702048341 -0.2121792434504362 -0.003706670855966239 -0.00813134738657933 0.0016284692481678207 -0.0009019249194205316 0.07167832114132469 0.24853804311423056
25975000.0 0.972266127897888 -0.21707433371876944 -0.002426795417913291 7.173282300352903e-05 -0.013580864696646341 0.02219474502627559 0.08360423696437874 0.25281267922389494
26974000.0 0.9682035858117178 -0.22790742466477812 -0.00042707932118645327 -0.003991218102298585 0.002621244847963011 0.0004905391049767297 0.0858577373171743 0.2737374522133665
27973000.0 0.9686567815816345 -0.23387408934063147 -0.006582231413035247 -0.0017379419125367866 -0.0055421243603679185 0.0021449194236419448 0.10658103228217226 0.2581119080295726
28972000.0 0.9644432530274645 -0.24318455316652393 -0.0025561173747152416 -0.0032355092377520512 -0.0013468736374879172 -0.0001298883724437145 0.12610716722671914 0.2548269535254312
29971000.0 0.9629106218496848 -0.25610016650336914 0.001668981957798795 -0.0031980016371856504 0.0012452356082725245 0.0006083278160787617 0.15703317942778036 0.2748952072041318
30970000.0 0.9606079338151615 -0.26031134177435716 0.0025382914960787872 -0.0026369059828204176 0.0027555799068092702 -0.0030784815670211537 0.17586328758183342 0.25811616130128184
31969000.0 0.9584997529217618 -0.26915098032502427 0.008432585361527483 -0.0012809831853121336 0.0018666359484310491 -0.0014372351794069464 0.15431348911110215 0.2525984735194529
32968000.0 0.9577578495615865 -0.2780893209531166 0.009682443145997394 -0.0040886213623332855 0.00665378179612759 0.002071660240126526 0.17245304445577322 0.2401831096225026
33967000.0 0.9554216661262331 -0.28668687573129775 0.010598543061825907 -0.009716837502841236 0.001368663988145971 -0.00023896325093278442 0.18987997383440178 0.2519940640662928
34966000.0 0.9506958371450739 -0.2974452009715863 0.015997064517061173 -0.013900484922727779 -0.0015077117097023818 0.0004466651768465053 0.20677873519875553 0.2613311947981009
35965000.0 0.9483450093980119 -0.30350744943556923 0.01667122671357085 -0.013632375613396284 -0.003931414625306741 -7.791361579658355e-05 0.21011563547407738 0.2485646162979048
36964000.0 0.9471538749654181 -0.31331685572913753 0.015482251860720634 -0.012642287178007486 -0.0001431064426973477 -0.0015543650352537884 0.22029836428226934 0.25506609954197473
37963000.0 0.9426317036634916 -0.32181973167980765 0.02087792899817099 -0.020419548213595005 0.0037741730212952677 -0.001062496126782094 0.23308802584132324 0.2320845130429746
38962000.0 0.9406508445662316 -0.33038984163081514 0.026941167178249743 -0.022846895516100186 0.0017456682167613377 0.0034740590263824377 0.24152352299219434 0.22436764377119747
39961000.0 0.9376229932848975 -0.3408069312814356 0.026542314231335542 -0.028730891543685914 -0.002168259820625389 0.0022226719332284635 0.2512949984316061 0.22433484351134375
40960000.0 0.9343437001390811 -0.3456651432418529 0.022684552425727294 -0.023854852527408967 -0.001222663197196582 0.0020451393492427433 0.27914572589068304 0.22497813019261145
41959000.0 0.9310319247416581 -0.3568759167341552 0.028343596426965125 -0.0309660213756196 -0.0033666598320083127 0.002047874665022682 0.2749676293532712 0.2200081050048886
42958000.0 0.9252884890109613 -0.36794038867840023 0.02932232540948807 -0.04019371092646323 -0.0020551336776544107 0.0011914874561952627 0.28087170480211643 0.1979844977228085
43957000.0 0.925250862287094 -0.3708925050078379 0.032218021569475584 -0.04586493408911437 -0.0006008609212534002 -0.00011196406930138423 0.2847913707572845 0.2091047738986055
44956000.0 0.9195175686349285 -0.37977184232340017 0.03410530187379666 -0.05140575800576432 0.003132297467049401 -0.0005800944407007419 0.3072127635136967 0.19652724217847625
45955000.0 0.9164753758810462 -0.3897409161246674 0.034318879211638294 -0.05881208107997013 -0.0021316264531778357 -0.00016949478255902186 0.3147574847771717 0.20087952638521556
46954000.0 0.9131053566847169 -0.39798694898033515 0.035603160756861874 -0.06552365957126517 -0.004357656037211846 0.0034546953601368603 0.3329492497574642 0.17805486537284426
47953000.0 0.9091226514364108 -0.4063310902678139 0.03502638790241003 -0.07154849307120245 0.0003020985594908644 0.0013694379389930544 0.34182093094213506 0.17338475645757379
48952000.0 0.903336254435641 -0.41789381421503086 0.03670648692908983 -0.0802747321784667 -0.0011361296946700973 -0.0010029492738183878 0.34164297945222133 0.1749418470664154
49951000.0 0.9019268932264536 -0.41985570193207744 0.037133210697507045 -0.09032184956373818 -0.0010713184806294795 -0.0012086115301294057 0.3555141395994029 0.16159066615957823
50950000.0 0.8977896748901908 -0.43180151690049157 0.041831338064380844 -0.09755555395569995 -0.0011409175482800296 0.0012195073282792056 0.355384759248995 0.1589193622015073
51949000.0 0.8920884015674769 -0.44163923896862234 0.038795237524075654 -0.1048776553561842 -1.5151700150531986e-05 -0.0012194562010605827 0.3688171549294197 0.15254373390856948
52948000.0 0.890153315995584 -0.4493141351794599 0.038822710697675115 -0.11360793343444209 -8.945815730754317e-05 -0.0032162050547107747 0.37998100740407015 0.14039024605786546
53947000.0 0.8866352675136449 -0.4547199353723205 0.040667187338761526 -0.12314290439990473 0.0031233419389799177 0.003494553735845132 0.3789887488460892 0.14383707667383938
54946000.0 0.8806626807062433 -0.46349417862719 0.04156574277395037 -0.13238004442668008 0.00205948884457203 -0.00010732387186625949 0.3878064370234143 0.12093969087195744
55945000.0 0.8776210873307598 -0.4732939212470139 0.043957823740393025 -0.14147977124882036 0.0012469006604675043 0.0011516617539128848 0.3996624969892572 0.11499864703900635
56944000.0 0.8732434200370286 -0.4820493718013059 0.04627676055128799 -0.15431826385457026 0.0010038520648404793 0.0006665591594296086 0.40948125239439426 0.11122075883790027
57943000.0 0.8665740596261657 -0.4925925189454532 0.04619918107294514 -0.16346130057539376 0.001290140012670269 -0.002472975564437942 0.4162993787610685 0.09071608185409274
58942000.0 0.8632132016089822 -0.49492727220064425 0.05010499799705731 -0.17519444014273078 0.001855741407873455 0.00027040341929207844 0.4253958597226391 0.09526767308419345
59941000.0 0.8587762337000051 -0.5075794497199765 0.050956698804161815 -0.18561702633923954 0.00020467514217900154 -0.002337116557760619 0.42637106356210397 0.09629112131100308
60940000.0 0.851943181527917 -0.5120574495523824 0.04718547633314102 -0.18363662102199166 0.0005582306928240945 0.0011005180250886995 0.41368542396402175 0.08424597594376591
61939000.0 0.847357111809147 -0.5206034573881169 0.04855523485096533 -0.1955574634980153 -0.0007760103623964175 0.00023729855561166135 0.42495659838782746 0.07615812438772844
62938000.0 0.8425490095581101 -0.530099674205378 0.05315566171672174 -0.21230733749359074 -0.0021973630585332 -0.002054950663810112 0.445389694663227 0.058039371182305635
63937000.0 0.836558657306877 -0.5385512433380087 0.05002283468475471 -0.23268698104318536 -0.004478024408387773 0.003073235394300823 0.4432919903199916 0.03789700517060025
64936000.0 0.8310597586855888 -0.5425377859342618 0.05480742414537775 -0.24530605254652538 -0.0004989818475986972 -0.003485152576109544 0.4458929537013023 0.047387658609476906
65935000.0 0.8281413929166651 -0.5550594091509895 0.051608340936136414 -0.2605762567192558 0.001137574047836373 -0.0009117814174341183 0.45162375520694387 0.02550181509259396
66934000.0 0.8235634114843179 -0.5605349392226252 0.054339945889998464 -0.2723384617908974 0.002451248112972545 -0.005222174683486617 0.4501101628938521 0.016333475316659792
67933000.0 0.8188518736322316 -0.5675434815007426 0.053390189006388554 -0.2869584920963694 0.00047478356253915734 -0.002611196784032683 0.451240691102723 0.02129800585514535
68932000.0 0.8154375756753086 -0.5703618458652149 0.05003712900334766 -0.30006339860286585 -0.0023656740905276417 5.229917236644056e-05 0.46692815345938116 0.004757193427077046
69931000.0 0.805429663304444 -0.5833907443234678 0.048194315183484764 -0.3132070621674341 0.0023630130307995397 0.003382408046536014 0.45155926255372686 -0.011114400920623985
70930000.0 0.8000481375921987 -0.5892506413541309 0.04700362184555256 -0.3306981757987944 -0.000705672192603467 -0.003440571223010972 0.4553556936566052 -0.020810273628953196
71929000.0 0.794868182671108 -0.5983978160664776 0.04223131320198012 -0.3470785010750108 -0.002464311036206097 0.00098509351537447 0.4567615375422509 -0.029057740453946056
72928000.0 0.7882213587237856 -0.6068219543462721 0.03637062359490216 -0.36316899087169646 0.005964400904280328 -0.002963013458967072 0.474080641788395 -0.04056634961077395
73927000.0 0.7825258943750378 -0.6142517628216847 0.029372034881579228 -0.385885280444294 -0.0036915387983513827 -0.0009073138319734969 0.46633886222887927 -0.0381705368355539
74926000.0 0.7775991912803417 -0.6222083479552153 0.02068704439687903 -0.40337366749985254 -0.002207959387663253 0.00299174998202218 0.46950893111489556 -0.05852512640181347
75925000.0 0.7687966223042314 -0.628617596926466 0.012258828386311253 -0.42404251642121327 0.006954767790835344 0.0036123700452831884 0.4631771766476512 -0.07060322838730942
76924000.0 0.7668144026656458 -0.6364632061891157 0.00019808978485396934 -0.44684294876558933 -0.0018403841686665823 -0.0002867326594275811 0.4737808409508763 -0.07525284183923195
77923000.0 0.7580764407686764 -0.6415961212799649 -0.016933207611183138 -0.4701286640278452 -0.002512848154939569 0.004128650123456431 0.4709152650893431 -0.0878841008535318
78922000.0 0.7518200409815761 -0.6517604494816029 -0.032963981385886194 -0.49767886105507936 -0.0008990569741871169 0.001343493577595928 0.465521814662092 -0.10038623964823498
79921000.0 0.7435894370566268 -0.6564810335080586 -0.047713760967536496 -0.5183420664776619 0.0025916937467063144 -0.0027609345019908357 0.4640270359158241 -0.1056852381563975
80920000.0 0.7382690915916785 -0.6688908117476259 -0.06604232577930584 -0.548079800481335 0.0010657698090649475 -0.0013986520005568452 0.47694514995587456 -0.11830527507921343
81919000.0 0.7323961468712177 -0.6728192967864355 -0.08008748598434721 -0.5797386186349043 -0.0011860770127742224 -0.0005812123432047679 0.4734501182911382 -0.1219642213278439
82918000.0 0.7242658268158921 -0.6799396009254735 -0.09528603776007198 -0.6082521026128772 0.0012198318659532013 0.002503844400697681 0.4758123426965588 -0.13237437848244077
83917000.0 0.7164390073973873 -0.6883062972554054 -0.11487463935694689 -0.6391401795057258 0.0002536720844655525 -0.0031376752718814786 0.4747330861531838 -0.14514228049563557
84916000.0 0.7102057176986325 -0.6953265737537795 -0.13198096759889183 -0.6742605110931977 0.000488586031477291 0.0028474019656757757 0.46967286762618055 -0.1600888131813096
85915000.0 0.7052552953912924 -0.7022131773525337 -0.14733505931398555 -0.7030960118660498 0.0006801930514382334 -0.00014784141160427511 0.47553785933045506 -0.15988137979267103
86914000.0 0.6953388964660483 -0.7131144618862937 -0.16615225121658916 -0.739422874506638 0.0004885893004297804 0.0011460497886769743 0.470484887277964 -0.1656755549048847
87913000.0 0.6884106954712875 -0.7164083628732555 -0.18323531027764542 -0.7691732554161351 -0.0021087969461408966 0.0013673605005801608 0.46715937861081436 -0.1675204985187119
88912000.0 0.6827500369302958 -0.7239880061062336 -0.19903156596443958 -0.8010958186651225 0.0008922592467496714 0.0003282812399874672 0.46443032804012946 -0.19343796468774616
89911000.0 0.6735262837617069 -0.7348818330467456 -0.21757669186888107 -0.8350338550953452 0.0031910623057955618 -0.001053050253563766 0.47287554449201386 -0.19977695256055295
90910000.0 0.6675713209233871 -0.7381160738654888 -0.2348531394615825 -0.8724793000513184 -0.0027315508254369615 0.0016637436886896536 0.47255176902143203 -0.21156982250716933
91909000.0 0.6592134689039522 -0.743494450330746 -0.2534929555031581 -0.9046068186031287 -0.0012343831661618039 0.004717030558295796 0.4732245594226472 -0.21964326687663663
92908000.0 0.6491977805047211 -0.7516740892792194 -0.27185196204275347 -0.9343141081619742 -0.0006056593307179486 -0.003393690560955475 0.46423462797339315 -0.2228937049456651
93907000.0 0.6455189518227213 -0.7582671287334662 -0.29005396850137755 -0.9642681208245983 -0.002133490281456943 0.002812989239959651 0.4670766126867571 -0.24787767161659618
94906000.0 0.6335383340375325 -0.7656405105654663 -0.2997150479008226 -1.004859713619671 -0.0019482774696187959 -1.7609766942857716e-05 0.46668576398877665 -0.23601592055455048
95905000.0 0.625762250093752 -0.7717485514127024 -0.3269348580119817 -1.0325789606159352 0.0024422214784994485 -0.004087985386918105 0.4761180798792315 -0.25521978820834745
96904000.0 0.6179420170639915 -0.7797151062977334 -0.34615706546487884 -1.0754812924685133 -0.0058650813582151635 0.0006570834456269414 0.469410098826327 -0.2589050372971873
97903000.0 0.6071894463326388 -0.7850457635369187 -0.36667007443351785 -1.104276387730408 -0.0025042935853800234 0.0006555987478484588 0.4605292704982658 -0.28253983791376236
98902000.0 0.6024322887067812 -0.7920761092448815 -0.3872140801655801 -1.1403972575162236 0.0011234847396757869 0.0035992307391601933 0.4561762334363421 -0.2846286871167976
99901000.0 0.5930879353168396 -0.79816600762912 -0.41514414395143007 -1.1721196843491855 0.00022668247702911916 0.0007626873432855319 0.46471627153347767 -0.3070821709787513
100900000.0 0.5831500220763476 -0.8014928850447491 -0.4473893025702529 -1.200168144520468 0.001261407251369724 -0.0005780723603562772 0.4753608861910241 -0.32086961888699317
101899000.0 0.576589574491224 -0.8092109095149603 -0.472485197230051 -1.2397148251765322 0.0013192414964932452 -0.00012876466934397384 0.45022623575463483 -0.3069098567628808
102898000.0 0.5654178864178824 -0.8165374703323386 -0.511404440462011 -1.273646194308191 0.0022638454334257397 0.0017665190528430273 0.45729494259834863 -0.32900096383897276
103897000.0 0.5561136433012062 -0.8240096211569734 -0.554037980576889 -1.309964243580443 0.0006111711370283044 -0.0008917164994971943 0.46496951035325185 -0.32278648811072824
104896000.0 0.549697436226587 -0.8322218676356189 -0.5944016862720567 -1.3413028240337583 0.0005502406369911013 0.0011476582916389471 0.4442744113959017 -0.32391104787090097
105895000.0 0.5392735215726917 -0.8357826838817538 -0.641967984202398 -1.3845919805993785 0.004424071763444355 -0.0005975971113504025 0.4429028867170486 -0.35144401955177046
106894000.0 0.5298519455402178 -0.8423821263299965 -0.6944770058957083 -1.4237451934749883 7.885960558932024e-05 -0.0011369961429571812 0.4450156851093275 -0.3444540708652982
107893000.0 0.5230813151376198 -0.8471577045974958 -0.7451201224652197 -1.463958477416083 0.0004056447650735782 0.0017346986258034566 0.45672861115198266 -0.3604829241284267
108892000.0 0.5108379948515442 -0.852339138911885 -0.8108230364857382 -1.4956964685189464 -0.00280206407065284 0.002243452406661759 0.4405003551299855 -0.35192503533331737
109891000.0 0.496352907385086 -0.8576826658178258 -0.8673925728922518 -1.5271965940871397 0.002226625762216262 0.000703290917489946 0.45683451202966074 -0.35974152658766234
110890000.0 0.4840273437200724 -0.8604981954317458 -0.9333966368730112 -1.5255335416745681 -0.0009392033009878859 0.0027962252692652393 0.4429847227603019 -0.38312244115162253
111889000.0 0.4815995685859939 -0.8657098052804905 -0.9923094395430808 -1.6028426947750354 -0.002115102060994097 -0.0003851265621578495 0.4366937763689428 -0.3921846534613916
