! Created with skrf 1.9.0 (http://scikit-rf.org).
# Hz S RI R 50.0 
!freq ReS11 ImS11 ReS21 ImS21 ReS12 ImS12 ReS22 ImS22
1000000.0 0.9872661149568798 0.009670667557824428 0.0038744455088941102 -0.03996066079534609 0.00231371564862584 0.007199375317331631 0.35254329221415215 0.2900296206386633
1999000.0 0.9961556447297998 -0.011853223167005785 0.007217978421382757 -0.014392604764758631 -0.003542790688730868 -0.0018255992114486303 0.2335978061852087 -0.043852024606255986
2998000.0 0.9983054849691692 -0.01965255502249375 0.00410471476071087 -0.017713723096664413 -0.0019705437422802385 -0.005026106486412738 0.1966416780947732 -0.1287069064039362
3997000.0 0.9990565698071627 -0.031629965485053195 0.011116472654965896 -0.005515192038569057 -0.0011226500131630336 0.001705411775274535 0.0984382802192208 -0.2287768960516821
4996000.0 0.998684016113904 -0.03403739021566431 0.011394170348730344 -0.006190685627538702 -0.006875967717507897 0.0022782251804396446 -0.034586608316001306 -0.22351379259518978
5995000.0 0.9995902868862776 -0.049943935659590925 0.00829002543196272 -0.0007907252139190473 0.00027579779218686194 0.0004955846057393757 -0.12077402577865859 -0.1195121820828986
6994000.0 0.9944524517186025 -0.05581647253473307 0.0058444925784465794 0.006214910033378026 -0.0010427464408935495 -0.0031061672847745715 -0.15373177654371234 -0.027284144825779177
7993000.0 0.9998426428954403 -0.06801627778481419 0.004686127947198524 0.003249284165625554 -0.0019323678851212425 -0.001633855900363327 -0.18061045858797448 0.03744848359548826
8992000.0 0.9961928865616663 -0.07118202568587881 0.0003313140488795868 0.00526234152754114 -0.0012890045151180375 0.001415537944141842 -0.1539177613862712 0.060992029814385486
9991000.0 0.9933194560111859 -0.0824766712039944 0.005832577762282136 0.0038677964129762454 0.004220835741679153 0.000731038903875707 -0.14637804388584538 0.0947821233534759
10990000.0 0.99530074364225 -0.09020510348280772 0.005393306947287713 0.001700561555380483 0.0011681702750589043 3.028450231328989e-05 -0.14808589505570316 0.110345809089205
11989000.0 0.990717626463112 -0.10145832809729098 0.0022242064833637156 0.0009085575620750806 0.003890505117101274 0.003919043313591827 -0.12703978462607807 0.1348181959980169
12988000.0 0.9908729965749152 -0.1100374095280697 0.0009425034196621018 -0.005035180918380316 -0.0006603706390269043 0.003977644840281772 -0.11305634035381909 0.17084466199387507
13987000.0 0.9889614243445338 -0.11718001776510764 -0.0007548105551664267 -0.005096716247081581 -0.0010020893741246144 0.0014843135034117755 -0.08889676210763237 0.1958299422013626
14986000.0 0.9879119683733005 -0.1259042361074111 0.0008255636529862496 -0.0017854331996162724 0.0018695461311354327 -0.0012388133827403284 -0.08619818561685742 0.20313244998454036
15985000.0 0.990634364396128 -0.13198289121882212 -0.000705991825951621 -0.0071222372856128225 0.0010168694445686275 -0.00014959518208381917 -0.08373943679144707 0.21235970292146117
16984000.0 0.9865441047786875 -0.14475648837761398 -0.0024265628580831576 -0.002848673998156212 -0.00044378636017203423 0.0021493598897172287 -0.06079147241889034 0.2184368001939767
17983000.0 0.9875065213490806 -0.14935706887535632 -0.0008397640744950349 -0.004988128576308303 0.0010467961506116705 -0.0010263210275369926 -0.05945749272943117 0.2264069124846228
18982000.0 0.9834199296570181 -0.16045179533861778 -0.004537981505192014 -0.001438369600288891 -0.0013311113808300815 0.0018636013001242068 -0.027143493128497374 0.2383223202766229
19981000.0 0.9835599639973677 -0.16723230125336677 -0.002902216121882082 -0.0058015865629918615 -0.003903916556764837 -0.00023323124238913505 -0.015173497954840897 0.2435535509021875
20980000.0 0.9807624377852711 -0.1762297870012117 -0.0030311067462863036 -0.0034295568069384217 0.000857620119953436 -0.0020312177136848366 -0.0029784593359052695 0.2648161808237328
21979000.0 0.980667011158898 -0.1825413563378826 -0.0030721986595612506 -0.004549869994383362 0.0027918941247831027 0.0016219185654346494 0.017407573301273654 0.2544123764848141
22978000.0 0.9804667015729528 -0.1907258488109423 -0.003901509262576853 -0.006651489672737005 -0.0006126690703669918 -0.0017619881512702194 0.026144794574385625 0.2664228319882948
23977000.0 0.9794735169448732 -0.20070368679384323 -0.0018930617152902193 -0.0029208723767741806 -0.002219847276180604 -0.001625928668617893 0.03497171378345562 0.257675977240037
24976000.0 0.9753613203082736 -0.21054209292087261 -0.0006221731605978475 -0.0024562672915740837 -0.0029304989845662876 0.0038227671943182676 0.06655935213563402 0.26587224677638815
25975000.0 0.9679137294154345 -0.22363767169934773 -0.0036789522413994647 -0.0015201456248997507 0.011577693447549471 -0.022533862245176034 0.08401288765220134 0.26250892410847404
26974000.0 0.9717298192713835 -0.22598978970697856 -0.0016854813912749369 -0.0023420127722465355 7.722364389216227e-05 -0.0032347007375911154 0.08257374231289676 0.2608815537103636
27973000.0 0.9704161342634552 -0.23345144541461238 -0.0021341142995811475 -0.003546950609710159 -0.004302574651963901 0.0014356449014912133 0.10021496537882892 0.2562074193912427
28972000.0 0.968559892102695 -0.2415714260151971 -0.001413133280560613 -0.00292149862354443 0.0034438979273770324 0.0016868012197079351 0.11296805033511978 0.26480413125267105
29971000.0 0.9667971626885561 -0.24965370001936207 -0.0005496940798364212 -0.004710773816325062 0.0019035218321906055 0.002976981693405876 0.1467024339235667 0.26882195308028983
30970000.0 0.9636181363133172 -0.2574638174288753 0.0011741061572087836 -0.00018726227379913752 -0.0007484564742110281 -0.005074797150189906 0.1659349230544861 0.24440917133344603
31969000.0 0.961461833567307 -0.26448474289151747 0.004310032756117778 -0.007314321747345532 -0.0010918419580295032 -0.0030212340352720607 0.15359034266457722 0.2546617396335338
32968000.0 0.9597996989291037 -0.27618283703300944 0.009441817426474432 -0.004174639228966224 -0.0023000189446612863 0.0029852114811515754 0.15958134037315513 0.24869430614653645
33967000.0 0.957149017846334 -0.2845767751254452 0.012713598596825096 -0.00846945420754531 -0.0012635556653850099 0.0010843075139799804 0.18674406842333224 0.24934486126989225
34966000.0 0.9543833381554302 -0.29358156479468817 0.012439594006616 -0.011613728387152996 -0.00011757454902487115 0.0024214620831625585 0.20072974115146677 0.2535190007519459
35965000.0 0.951534647875556 -0.2996879358905556 0.009325865550875593 -0.014599467048871745 -0.002286277666393853 -0.0009824569297046453 0.21593914010422244 0.24624993345592802
36964000.0 0.9508690130757202 -0.30865235595635027 0.016516608978352058 -0.016445562039231747 -0.003947326211301351 -0.0014924459126123538 0.21282818281709875 0.25179788591402347
37963000.0 0.9449553839737372 -0.31946640754709543 0.01966353310817289 -0.02222508737876611 0.0021621418796270273 -0.0023564567394422724 0.2253954142179774 0.235246348769766
38962000.0 0.9440861890458795 -0.32831978366042464 0.025748304608801727 -0.023397499401695894 -0.0013839651524016725 -0.0025773783367479862 0.2422604736287813 0.22718671253213413
39961000.0 0.9418936983078806 -0.3326448426969868 0.02548411313508347 -0.02844176530330468 -0.0014502901971557866 0.0004767428248802805 0.2553480239836405 0.23104735193602666
40960000.0 0.9375557499813613 -0.341064541043022 0.024765571175338064 -0.024937846900028565 -0.0013538101151007451 -0.0026304083777715787 0.27682667934188515 0.22245297571969025
41959000.0 0.9343632350813464 -0.3518599532787451 0.029016953631341626 -0.030616082878881977 0.002138592869949855 -8.561257489785563e-05 0.2700407587327841 0.21700514396673243
42958000.0 0.929695578253524 -0.3606614063756276 0.03133143811684987 -0.04136239595393389 0.002207400973988028 -0.0004146919638969469 0.284066088572158 0.2064798436756355
43957000.0 0.9273800071263049 -0.36893115108704877 0.03079856570018845 -0.047095465672516455 0.0035166241467569693 0.001228435066637963 0.2817739520032965 0.20627605054500134
44956000.0 0.9236060169927522 -0.3759235961678702 0.03195949352019153 -0.05245212600631967 -0.0027518162239659224 -0.002399972354532013 0.3053879037205607 0.19179055281781096
45955000.0 0.9194757715255644 -0.38597251620091816 0.034169249224084236 -0.05836797163824026 -0.0005166205260005502 0.0011658477292575196 0.30062254606836425 0.18831805414344693
46954000.0 0.9186758871160721 -0.39310283887616204 0.03345876860977843 -0.06529482760783817 0.00197116007800808 -0.002990358419548931 0.32474124401444 0.1778475079947816
47953000.0 0.9145732473893049 -0.4007046849498782 0.030944127977819685 -0.07472863661403382 0.0004566804917746422 -0.002124478616911329 0.33184385504099223 0.1642431989110446
48952000.0 0.9101502496629064 -0.4105506773146882 0.035506682658880614 -0.07603086408039532 0.0005748394432675267 0.0017542432635366965 0.33337677440017516 0.15803449208174364
49951000.0 0.904890142914951 -0.41841305685334407 0.036734354831151596 -0.08570718594399801 0.0014791709140483215 -0.0006806501872544023 0.3551037602568086 0.1534662766847329
50950000.0 0.9025874543762531 -0.4279104231817627 0.038455712411479485 -0.09656906254202526 -0.000933957890500741 0.0013052401990711923 0.3649122937428228 0.14956631477492452
51949000.0 0.8981880174443295 -0.4348931050102137 0.037193286310574836 -0.10119338188567278 0.0019993641053088307 -0.0007997000676051114 0.3622448174835612 0.13723381588843714
52948000.0 0.895443322920468 -0.44338001271386895 0.037627382573624 -0.112031366369683 -0.0010918815909571745 0.001280527003826483 0.3799255574421524 0.1415957465613632
53947000.0 0.8905089120308096 -0.4495988584457303 0.03968073878020114 -0.12036461756686406 0.0007279262087171671 0.0036843318052285482 0.3731641360555935 0.12093638320572733
54946000.0 0.8871553638389307 -0.4571483828264238 0.041035689332431007 -0.12915083932078106 -0.0029556673877232285 0.001008706050169894 0.3907443881461926 0.10871621114400348
55945000.0 0.8834473592291855 -0.4678180211962539 0.04189338061045799 -0.1402334461568541 -0.00033489506854027245 -0.0008765461748507069 0.3993014723895169 0.09924816786849949
56944000.0 0.8781934825405906 -0.4736955689039423 0.045919556347002385 -0.15020087171815774 -0.0026432313190188446 7.386223516046051e-05 0.4103780423346134 0.08935229721445481
57943000.0 0.8749716820975344 -0.4840981024548754 0.042386384174598675 -0.1613515008966552 0.0004251663162565373 0.002018466242576488 0.3990593924053713 0.09183746781165027
58942000.0 0.8665930739758239 -0.4912682892240574 0.04763968912500312 -0.17350061166890177 -0.0005583156959869959 0.0027827563827765374 0.4235255643603894 0.08508528772486834
59941000.0 0.8671330389042824 -0.49690822093081155 0.04748606126709409 -0.18089705597200245 -0.0033031839427834406 0.0004883913543190988 0.4256375807455402 0.08277559014186331
60940000.0 0.858713910039692 -0.5054512330268309 0.04778488075758425 -0.18652505440284278 -0.0003277431628009718 0.0009233091993770103 0.40829722287636505 0.06656806169784352
61939000.0 0.8558022979875072 -0.5136996476164861 0.0513343254477748 -0.19331775750525856 0.0006326566518356437 0.0030804341844956067 0.4136394795160709 0.05795320924818561
62938000.0 0.850113961166093 -0.5228413497118363 0.051887399829423024 -0.20899091986041304 -0.0006738741689344114 0.00047379531675498476 0.4468926311680645 0.045952123356535826
63937000.0 0.8452226090124154 -0.5308298438391021 0.05269777149385927 -0.22814690456824302 0.0003385737211541908 -3.290877715829378e-05 0.43682981436906626 0.03219891426449096
64936000.0 0.8390103763396565 -0.5357351726136601 0.05206538515525041 -0.24338522432729034 -0.0022665542769640785 0.0007379270531643645 0.4363384879115159 0.042358619818189204
65935000.0 0.8353738232877851 -0.5468400466457705 0.05488099014042462 -0.25747260822574236 0.0005139115807610516 -0.002785640380189747 0.44679271189507164 0.010206565403578113
66934000.0 0.8314197826188605 -0.552594996237757 0.049807128439606635 -0.27098503781812483 -0.0021705709491220836 -0.0005963011623234155 0.4364638801252837 0.001924985252415462
67933000.0 0.8279933053301032 -0.5603144220110083 0.054597444382717984 -0.2861858112595487 0.00018370111188061738 -0.0002456425381602806 0.44110157383720394 -0.006515161440185906
68932000.0 0.8230479352260799 -0.5564611018931033 0.05236380700565734 -0.29760020249494834 -0.0011377785871973477 -0.0006865654936160188 0.4534570005723357 -0.01838776001531318
69931000.0 0.8138485257315585 -0.575837950802627 0.05163449880522065 -0.311108980537325 -0.0021793520787175445 -0.0005248968717896089 0.4465429908578567 -0.028992372432764597
70930000.0 0.80741442693074 -0.5828972488561813 0.04765840333507466 -0.3259902235628568 -0.0013680559117195173 0.00027334250955583187 0.449776749633609 -0.04703798120440324
71929000.0 0.805861221348577 -0.5894967167021201 0.04335387056123251 -0.34458443716542086 -0.0055438469871821995 0.0014500941601188685 0.45004476131540333 -0.052081657396550456
72928000.0 0.7982026873785204 -0.6019205356113945 0.040008041769592696 -0.358423402412081 -0.0034125958112447004 7.79344429576885e-05 0.460960477411999 -0.05260720823719828
73927000.0 0.7922078299084488 -0.6067783669024022 0.03417132599257982 -0.3794319760690562 0.0024824980543571647 -0.00029300625735449953 0.4610947601153159 -0.05960552397755838
74926000.0 0.7860739965725215 -0.6140982754400988 0.02417935899156167 -0.39821161799407373 0.0011701825358926515 -0.0013849879888258394 0.4640186161612712 -0.0724722211111186
75925000.0 0.7805091845875698 -0.6202356077318093 0.015606748219361172 -0.4146029733658786 0.002792087286191105 0.001570643231797084 0.4793954724095141 -0.0812529069218992
76924000.0 0.7764152658949931 -0.6276148458172472 0.006979876650971881 -0.4395540774772738 0.001254852087290476 0.0008800566238871997 0.46643341310549674 -0.08893239742499372
77923000.0 0.7697696150138301 -0.6356762358673318 -0.0061248323889415675 -0.4606712089154448 0.00435958855976 -0.0025492590155787886 0.45639906218338516 -0.10832193126106353
78922000.0 0.764138697471367 -0.6441089514917199 -0.024989022003431918 -0.48365441118604713 0.0015599204153507098 -0.00042564328014908103 0.4550573354013061 -0.11712974962179006
79921000.0 0.7555488120977181 -0.6494670064381463 -0.037344086464751194 -0.5107719029621277 -0.00294106630036714 -0.0027470944702621247 0.45767344497089846 -0.1280350347735727
80920000.0 0.7503982602061213 -0.6604039961490439 -0.05322893574202187 -0.54118875007319 0.000480378036723315 -0.004387088135236612 0.4683710983151662 -0.1379216638677364
81919000.0 0.7440081136985205 -0.6666536050722064 -0.07061137843201482 -0.5642044569603566 0.005745812262335918 -0.0031015564299380735 0.4829844232532662 -0.14632943065121864
82918000.0 0.7357017358813304 -0.6726510370185994 -0.08524427959137992 -0.5949297014244177 0.0017429147631379109 -0.0005041378036409496 0.4670985509124778 -0.15274705604843386
83917000.0 0.7271326172922256 -0.6821776317871745 -0.10551969535372692 -0.6245309076262412 -0.00124600585654286 -0.002638532716390095 0.4654870048949003 -0.1605763892606104
84916000.0 0.7221235447052121 -0.6888986532897124 -0.11791318632960321 -0.6583411467761986 -0.001468864752231752 -0.005562428323156278 0.46129033733097236 -0.17200063826066964
85915000.0 0.7149357550858009 -0.6945651436725686 -0.14292179109309502 -0.6876662350753755 -0.0004757064400019353 -0.005060661181485743 0.46218028695391644 -0.18487786290736768
86914000.0 0.7089457463631946 -0.7041802604202513 -0.1564923166854077 -0.7242013751356967 -0.0013068449612580885 0.004461807889715036 0.45260237184308233 -0.18426814064025346
87913000.0 0.7029542130683507 -0.7092065451350938 -0.17557073449882998 -0.7517168437101441 0.002005861216394471 -0.0010004990138748233 0.4603902213241609 -0.19745039230675168
88912000.0 0.6950366487370502 -0.7177491328106015 -0.19302065263344723 -0.7870143661375936 0.0014491840767309081 -0.004754331484556959 0.4626775741641959 -0.2089500490321431
89911000.0 0.6879735200300533 -0.7262783628626546 -0.21205034034613318 -0.8263296397123179 -0.0007440319145059377 -0.0008842652329729068 0.46494865894683884 -0.22727857144160368
90910000.0 0.6799880729709699 -0.7312610233515984 -0.22960717544590387 -0.8577299206438783 0.0015671250433664887 -0.0025103396591803226 0.4490168160660226 -0.2223552153445735
91909000.0 0.6720073645825227 -0.7356031318447822 -0.24143347075643898 -0.8924041116240443 0.003011160932425501 -0.00038766984238574454 0.4708475350200214 -0.2344395557037457
92908000.0 0.6624290770420039 -0.7453382401744049 -0.26489936462264374 -0.9238133705481425 -0.0005010426631712745 -0.0005791225576294164 0.45570098813475607 -0.24693889775611885
93907000.0 0.6577401003501738 -0.749683262623185 -0.27978275425792226 -0.9549256507754156 -0.004022015821750976 0.0028053622284448087 0.45794511523855497 -0.2674731054688426
94906000.0 0.6470769848878273 -0.7578176077239683 -0.293697378504537 -0.9886868757405263 0.004545266502216296 -0.0003739850339658514 0.46279087705790284 -0.25734612001927876
95905000.0 0.6408637633952777 -0.7636898124283457 -0.31973002019252317 -1.0228075246876556 0.0007564834431904161 -0.004944129281114601 0.46222641339226006 -0.28326393648949993
96904000.0 0.6308258933042626 -0.7742264548372646 -0.33744802085604125 -1.059251896904764 0.0018688030565550877 -0.00040379640058618737 0.4479291442552027 -0.2910463448332616
97903000.0 0.621551983693955 -0.777822371850482 -0.35718595808205017 -1.0932321336061286 0.006011500926733575 -0.0005067243945246568 0.44112788914409157 -0.30360500199482554
98902000.0 0.6167546967113521 -0.7852959401133359 -0.3777014142299154 -1.1310384813032321 0.0015941766117645144 -0.001344084328717143 0.44262881738839044 -0.3080524361165724
99901000.0 0.6085975904337647 -0.7906293494850894 -0.40354333892263583 -1.1610540526763473 0.00047883012744692695 0.0020244981690861466 0.4576088776854548 -0.3276165508173518
100900000.0 0.6015894503047116 -0.7940241132100933 -0.4322891344562829 -1.1908728621477769 -0.00027634792563213277 -0.0022862557847983275 0.4506877529414847 -0.31469210862930014
101899000.0 0.5910852875077829 -0.8023527748701574 -0.4571425522845527 -1.230518079418082 -0.0008953824348160419 0.0032569971550989877 0.45327436366464186 -0.33258868459166496
102898000.0 0.5813518319083264 -0.807037582166923 -0.49217060729161377 -1.2645082735333146 -0.0009179072154385673 -0.00037935286448215417 0.4405351096354811 -0.3476549681659312
103897000.0 0.5727666515925325 -0.8152374335176709 -0.5282716213302041 -1.2986568806244232 0.0010416311094576043 -0.0013436631067046236 0.4388421353050976 -0.34173534122455407
104896000.0 0.5654497561407235 -0.8245709829786617 -0.5709637776254228 -1.3295890154494008 -0.004245459634198085 -0.00020494105721076145 0.43180152987836795 -0.3420165014143337
105895000.0 0.5551041604072977 -0.8279537975699545 -0.613972188856236 -1.3710175083298837 -0.0010784855499971836 0.004035472181645077 0.4302545439679408 -0.36462766637069566
106894000.0 0.5488562419555101 -0.8333277043051398 -0.6660984260512197 -1.4065284317997584 -0.0014249255933429985 0.00045026053376362365 0.42288176700752306 -0.3678304288087039
107893000.0 0.5397221513738902 -0.840547557908141 -0.7138459836266448 -1.4457618576795794 -0.0003835762682637521 -0.0025090924945983667 0.43483449882359826 -0.38408809762583124
108892000.0 0.5288944881265065 -0.8442133545463497 -0.7737216967768494 -1.4815650397892606 -0.0020027581724316275 0.0005654792274233667 0.42207082014399966 -0.38083930798694027
109891000.0 0.5178246758281918 -0.85144000009421 -0.8342396803116555 -1.5140196624580233 0.0032009585984068556 -0.00020198347657473641 0.4389900622138923 -0.3885931427720296
110890000.0 0.5150918499498534 -0.858687404675437 -0.8900067155043596 -1.5386357199990977 0.000671371336908321 0.00268943255129738 0.42655046943222 -0.39201069357882673
111889000.0 0.4980048153506307 -0.8585517307335558 -0.9540431103590319 -1.5792561438146961 0.003300359955075793 0.001901501715232492 0.41319332371409756 -0.4042751324334666
