! Created with skrf 1.9.0 (http://scikit-rf.org).
# Hz S RI R 50.0 
!freq ReS11 ImS11 ReS21 ImS21 ReS12 ImS12 ReS22 ImS22
1000000.0 0.9737118819232538 0.008626915653956298 -0.006833989801488371 -0.03793374806832635 0.006692727651883419 0.0062692556109808645 0.37363332162863705 0.3592587655906971
1999000.0 0.9964434873598308 -0.017371195643039954 0.0007072771147333928 -0.019840133446246033 -0.004508979934988574 0.002245337733453575 0.23458483960365226 -0.03116908486591704
2998000.0 0.9965466178499375 -0.027139451651436282 0.011707608621177406 -0.013881201751769639 -0.009185420370559725 0.0025018607757839855 0.1961230020812314 -0.12788001573602226
3997000.0 0.995822482659869 -0.03538609804902257 0.011930954960614915 -0.0011211910232776434 -0.002034952456629362 -0.0017875097436820101 0.08989892633534914 -0.20519941339826359
4996000.0 0.9936971718285335 -0.041039209629500285 0.012293344892069643 2.73045497324799e-05 -0.0014751682931873017 -0.0033861420775529874 -0.03749679434403297 -0.19090565982487606
5995000.0 0.9921668608392373 -0.05268568682264087 0.012233202282404196 0.005739088273217339 0.005124642680051495 0.003324917320219351 -0.12276497490547635 -0.11275579791060751
6994000.0 0.9880943045418269 -0.06141127378269943 0.008273115187491747 0.004232912719829382 -0.0019043062344361685 -0.00467691634861984 -0.14066023558790405 -0.030915791704488733
7993000.0 0.9916451252738764 -0.07019846706765022 0.0024164537277004744 0.00480416133164598 0.0006520869749034983 0.0006829960985563566 -0.16739951748821205 0.05794001428895049
8992000.0 0.9878708805706744 -0.07468598982413228 0.005031358356960583 0.003261132638876086 0.004354026997187653 0.006402507010559308 -0.15675254568520156 0.044412926506804326
9991000.0 0.9865696527895981 -0.08335352831435458 0.0003664201668775753 0.006150482997905645 0.0004335556011730886 -0.004508826339790815 -0.14829758937545798 0.11071438061709983
10990000.0 0.9870445078640823 -0.09421708121328937 0.0016175512862241024 -0.0010129405920066348 -0.006269462155249308 -0.0022212186161872293 -0.13929604344947855 0.10940542221170299
11989000.0 0.9851674468219571 -0.10222523899363835 0.003812165535893059 -0.003996398268960338 0.0021956205211995043 -0.0005576908578492365 -0.12801848426787119 0.1346583434130868
12988000.0 0.983127808867836 -0.11052125334399515 0.0011610315719405584 -0.005020573301422581 -0.0026077148603502317 -0.001959536716473711 -0.12665003286198825 0.15572905941428303
13987000.0 0.981157838881349 -0.11752202986113228 -0.00017882417398851257 -0.002546929617951255 -0.0032516527106089196 -0.0013162307494089583 -0.11398414358541105 0.1708479752033965
14986000.0 0.9805752499456944 -0.12417479613004698 -0.0012679397440057178 -0.004537428407564213 -0.0004917055218291377 -0.0011099682387252056 -0.08796628901843026 0.19877915440228133
15985000.0 0.9831516411277198 -0.13287172322533994 -0.00018683736863289182 -0.0003148414268665051 0.0007120643472918935 0.00021220375166516148 -0.07381703202076978 0.21127597539297896
16984000.0 0.9800561831655216 -0.14570824363785903 -0.0047974787860706174 -0.002475046627722877 0.0036774894590556515 -0.0027356521466616645 -0.05738331817999144 0.20742811638496325
17983000.0 0.9777414052617537 -0.15051041303102966 -0.00497305865342119 -0.005363964960514994 0.0020656863508259713 -0.0004031490974022914 -0.05747670823059167 0.2283251426992118
18982000.0 0.9781217076715853 -0.15952864376851422 -0.002836954566636995 -0.0043223216148775305 0.0010950533350664916 0.0035385386395883475 -0.028287626897875923 0.2318411048897209
19981000.0 0.9775678555066085 -0.16672524598635471 -0.0053210402137348995 -0.0019090183111526333 0.00013676279996202416 0.0010796503556923173 -0.019402790431813484 0.23602822335837112
20980000.0 0.9763533329660606 -0.17639679609353714 -0.005902696424126169 -0.004815239338964174 -0.0023822847440600034 0.005255466106438035 -0.0033732553627345485 0.2459568990217542
21979000.0 0.9727663882722429 -0.18365774532476445 -0.004276910396659056 -0.005200103624251124 -0.002358568039390947 -0.0009873059246315432 0.009425184748505325 0.23662870221734839
22978000.0 0.971467471846415 -0.19169560826825102 -0.0052283255576528005 -0.003935701933962294 0.0005746218730215164 0.002216029754627461 0.029502009929989803 0.2581124500682809
23977000.0 0.9739575676574778 -0.1992759031687716 -0.007299589946512097 -0.0024201633016760486 0.0004311173313024616 0.0008942515208534138 0.03920784212802347 0.2568673537170965
24976000.0 0.9675432153406752 -0.21071088692620468 0.0006623556910182008 0.00044698070888328257 -0.0026682494781556532 0.0028333796988617823 0.05404616797615002 0.2551496652601053
25975000.0 0.9644346346278833 -0.22532135973800024 -0.006562937312298748 -0.002384883767091573 0.018338929197356777 -0.020895110798087077 0.06410810407934207 0.24680628541654334
26974000.0 0.9651638723766627 -0.22829040016366228 -0.0016369482858826002 -0.0024215528476260887 -0.0019078840847293712 0.0013822356671842793 0.07878569144830268 0.2667326256296047
27973000.0 0.965135501167765 -0.23327142090201944 -0.004195411619961506 -0.004251202421197086 0.0008340925436961484 -0.0017360951930154892 0.10589578674122473 0.25285221454528944
28972000.0 0.9605190695547644 -0.2469606961819018 -0.0018351416431607085 -0.003876024182940222 -0.0009110882008890369 -0.0026553316070822073 0.10796506054398185 0.2446316927581836
29971000.0 0.9602164618846032 -0.2527181454977348 0.002746015677836407 -0.0005757473720241 0.0010173172270681343 0.003009727865557018 0.15065168367856038 0.2630587473869953
30970000.0 0.9567631071114118 -0.25864434068913494 0.0005862520984378844 -0.0006495521706939152 -0.0034834930678390038 -0.003751841783780015 0.16411941752317016 0.2557004972010327
31969000.0 0.955393206454246 -0.26820194974323824 0.0059782995418144955 -0.00603133222875681 -0.001808507852572348 0.0034849030659236642 0.1474556402664574 0.2430424551423251
32968000.0 0.955505891324222 -0.2763423103357571 0.007381606994026224 -0.007828027370081375 -0.0020785366915569343 -4.51451965364201e-05 0.16090560337793122 0.23593941988905517
33967000.0 0.952354140363028 -0.2858436641967039 0.00948524043897358 -0.009187405788216838 0.0023496734795849057 0.000787740525903905 0.18457298236212985 0.24973057682019817
34966000.0 0.9474175483140048 -0.29762174371453526 0.01256455917241162 -0.012704584442356509 -0.0007611929442628164 -0.0010106729405413527 0.19084329903293673 0.25129737383073686
35965000.0 0.9455027706953558 -0.30367363354167837 0.013182846297405005 -0.013170163333041662 -0.00231409239800404 0.0010530158377251076 0.20670491847230102 0.2535930095337003
36964000.0 0.9441623551824918 -0.31133386319552564 0.01616534949547966 -0.013296776674780833 0.000383783707038131 -2.612579072315374e-05 0.21259585642289397 0.249149477053066
37963000.0 0.9402627531194012 -0.32139391091979935 0.02153493209874523 -0.01771685327597518 0.0038756886975049093 0.000499270724674198 0.22418591536846214 0.23850738071473748
38962000.0 0.9381019719249349 -0.33081035709836604 0.02487233469500894 -0.02301790860415982 0.00029842137218739125 0.00011838444387585102 0.23402697906585024 0.2289824500683668
39961000.0 0.9329177266364493 -0.33982435773864006 0.024460859811488767 -0.028945699988818612 0.000931876650986712 0.0004433079499871278 0.24042707810872593 0.22669779523652323
40960000.0 0.9314966194311278 -0.34794497425366055 0.024943667451249235 -0.023343501697292317 0.0008319058358500845 -0.0026079534359690114 0.26512737086842986 0.2184507359598361
41959000.0 0.9267115399910361 -0.35754157475941517 0.03294292302737242 -0.034171786064860814 0.0028323141864793726 -0.0016084339794867834 0.27152454711521434 0.20612884181471966
42958000.0 0.9232589636200792 -0.366094976072026 0.03169926993060671 -0.042851982529126156 -0.00036562008164227176 0.002495994861504306 0.28473789060054655 0.19454880385227555
43957000.0 0.9224847963274098 -0.37208278191119953 0.037291073797749597 -0.04659519113235606 -0.00026871529820929747 -0.0008943560495531343 0.2821167773039933 0.20876087440803903
44956000.0 0.9180253136400538 -0.38186679459738426 0.033735439502783314 -0.05258434437362557 -0.0012702784946043493 0.0002048321722061947 0.2959613998060516 0.1974858321420615
45955000.0 0.9139197137886176 -0.3918825660188665 0.03816198357777673 -0.058477136680154744 -0.000762085802420788 0.0016480974542631463 0.2973168041965026 0.18469566856691186
46954000.0 0.9108827298695821 -0.39840076541384556 0.03912818871799989 -0.06609019653669208 0.0009976633325399433 0.00678583943610555 0.31982800580683945 0.17596772973082392
47953000.0 0.9075397861805681 -0.40637130944042893 0.03582594916997567 -0.07436726976143684 -0.0030572700472378616 0.0040243897627792215 0.3343586832994591 0.17168474348133556
48952000.0 0.9034327639064395 -0.41575018203528397 0.039125170866852015 -0.07698750529715608 0.0006468229595150958 -0.0011688872199849447 0.32129651192502645 0.15387344588918314
49951000.0 0.8981784495332288 -0.42499202531351704 0.03878873186262593 -0.0886965796901961 -0.001706827852386505 -0.002225042341601092 0.3490863705549417 0.15998033603470752
50950000.0 0.8946406785014249 -0.4330790714956221 0.03775052688654945 -0.09781507384103898 0.003090239947296295 0.0011520411844418543 0.34324012302540996 0.13338343472673586
51949000.0 0.8895836781933372 -0.44151381640670445 0.04388484127011919 -0.10458163855216863 0.0013920753264889947 -0.00015318773413546704 0.34235936774406545 0.1436210346950744
52948000.0 0.8869430711345005 -0.4507807820121663 0.04466502714693069 -0.11168450209520542 0.003590065465168179 -0.0009387150470226758 0.36432194163846165 0.13144847529652587
53947000.0 0.8833309813763919 -0.4549337346313419 0.046902953882471156 -0.12153198307893599 0.0019962334600228363 0.002925337318598533 0.3634995913520254 0.12147169625847223
54946000.0 0.8760939668247557 -0.4670977381825606 0.04751561750593244 -0.13206041508866284 -0.003906805177364388 -0.0018175983219399195 0.38049714479621677 0.11943750175688894
55945000.0 0.8737605716439188 -0.4734001456870203 0.04956782194479569 -0.14374537986387262 0.001782118987565584 -0.002096202951018392 0.3816630196604237 0.09509578392088164
56944000.0 0.8706028736627268 -0.4819341813279094 0.04995211987164338 -0.15413946926215547 -0.0018781958279329787 -0.0005657502667601254 0.3916632059807545 0.11151986510894413
57943000.0 0.8653487351850838 -0.49262586582068113 0.05100549948019481 -0.16449400075363188 0.0024420860771468974 -0.0009276444068743575 0.39105839192659153 0.09712437289474947
58942000.0 0.8576680716410374 -0.5003133983260335 0.051579957578961576 -0.17743409069398847 0.001339330778991505 0.004135651987588657 0.4100875563542505 0.09092499932009573
59941000.0 0.8555075486470526 -0.5058582327015256 0.05624024223635528 -0.18499730885511845 -0.0030475658881145896 0.00031670097641834575 0.41355700245351 0.0824136102086757
60940000.0 0.8483132004511892 -0.513903313410471 0.050240638880786434 -0.1875622106105076 -0.0022933666148994203 0.00015592118542640093 0.40436449085927756 0.07084283280281262
61939000.0 0.8444402396379727 -0.520119125129199 0.05378445096707449 -0.1967710473727534 -0.00044441341763601415 0.0006550573435677809 0.4016533472430038 0.06799000660936148
62938000.0 0.8370573652401476 -0.5324036090319282 0.05812393870470358 -0.21456454709411305 0.0013148205439267406 -0.0002271195520187321 0.42551718291897306 0.04761674264942155
63937000.0 0.8319352361172726 -0.5392571473708047 0.05779020727285394 -0.24068238589144944 -0.00020209196694494244 0.001573043263925212 0.4307570642602249 0.03664237975790421
64936000.0 0.8284755798031125 -0.5433476084477568 0.061536052185907054 -0.24930036766331357 0.0024002917750686895 -0.0035388903578011006 0.4283262539101287 0.0402282580970889
65935000.0 0.8226989309825937 -0.5553490522005934 0.05953584241748924 -0.263015408469998 0.0013644775587696213 0.001842487757086623 0.4270829322780122 0.03159680276086879
66934000.0 0.8183211777593342 -0.5588106426783371 0.06034728393152773 -0.27655297909004267 0.0033506656137787067 0.0014317268633161015 0.42830761279675916 0.004307945685755658
67933000.0 0.8153020379595787 -0.5689678370382263 0.05794223042574405 -0.29514359079317637 -0.0005196652770264851 -0.000314750014123886 0.4368031798129347 0.009817447221605978
68932000.0 0.7994858470760735 -0.5732113122532154 0.051126022534248375 -0.3035825139019663 -0.0035109384487002717 0.002370134754025207 0.4456276697386186 -0.0071071443863675015
69931000.0 0.7984804132869296 -0.5879353961466635 0.054521965587708124 -0.32598698073219545 -0.00016817847713726508 0.005835188722265012 0.4330595823989657 -0.030436993909442437
70930000.0 0.794836503924945 -0.5914508730506456 0.05111088063979606 -0.3388037496148243 -0.0023458814757829575 -0.0014759023253855166 0.4408116050852344 -0.03819298888630358
71929000.0 0.791132777934789 -0.6021250028683277 0.048279678923844334 -0.3577702611426787 0.0015483686838721428 0.00041177197771709534 0.4459740419017136 -0.047726396694162926
72928000.0 0.783539045826852 -0.6090605793562299 0.041017954540952195 -0.37425105844230283 0.0007423262329106711 -0.0038941819634626287 0.455613381666795 -0.04516956302763422
73927000.0 0.7764494253766376 -0.6138741936075253 0.03857589900357623 -0.3958790712473984 0.00025795641977315807 0.0023244731351843616 0.4522435135246854 -0.054275787049915036
74926000.0 0.7711550294756148 -0.6229940378651015 0.02942309849886005 -0.41622652939989874 -0.0010164284682608318 -0.00011238999385149542 0.4509563529672495 -0.058970395270571845
75925000.0 0.7660649958665157 -0.6287097761257059 0.015784696209886335 -0.4372623521649235 -0.0001963717345279184 -0.0017478037275330707 0.4570426303475538 -0.06788575050295376
76924000.0 0.7582744994301195 -0.6382459573573512 0.0033097087776781577 -0.46147097610537435 -0.0004780400429075786 -0.001054547276643831 0.451952093906183 -0.0882800584436641
77923000.0 0.7526821560285484 -0.6439279680035773 -0.008479068835418596 -0.4850609032320006 -0.006933243656890189 -0.0010076113462843496 0.4508552554110889 -0.09344191847453613
78922000.0 0.7462439645640223 -0.65447249922038 -0.02117404930593061 -0.5109331929337534 -0.0006268911586244759 -0.0027292611918003492 0.4524517004675282 -0.10288093901710926
79921000.0 0.738049893257952 -0.65792424745705 -0.04137735799661154 -0.536360517550938 0.0030581475941791002 0.0017586336706422346 0.4524629764830092 -0.10986589090857923
80920000.0 0.7342505045651998 -0.6674848546676919 -0.04871907232742789 -0.5663497158298526 -0.0012256314848512334 -0.002170286767305501 0.461320597155433 -0.13439359375414697
81919000.0 0.7276460901088322 -0.67356346931624 -0.06998603872832117 -0.5947436542007976 -0.0021908060344910515 -0.0020792517390969267 0.44682767679597446 -0.14266503398910402
82918000.0 0.7178467425828288 -0.6813914599437111 -0.08477138081357129 -0.6265509180744695 0.0008685990648626632 0.001967028759682915 0.4696408649767094 -0.14641275402070741
83917000.0 0.709350139968744 -0.6885192399216767 -0.1021273271863713 -0.6565568048225285 -0.0008611957439965039 -0.00036092785952224345 0.4576382394942853 -0.15201334982353099
84916000.0 0.7050815376105275 -0.6965999740932913 -0.1169731775561518 -0.6903539115739238 0.0014911386154738916 0.003330093098089392 0.4594556043841843 -0.17102469068811046
85915000.0 0.7003410946696175 -0.7015900310879295 -0.13711719366560157 -0.7217377792337532 0.001013530649977288 -0.0011293261781866282 0.45165157445865317 -0.18368112023291797
86914000.0 0.6905165984573668 -0.7114602651279042 -0.15488538452955197 -0.7585422833640408 0.002118814454472275 9.527972787721729e-05 0.46112752347040775 -0.17177710745919708
87913000.0 0.6824942826404151 -0.7176658282662935 -0.17187000405276665 -0.7898841908709795 0.005994334529986648 0.003298794029203666 0.45054801764788094 -0.18611114422990568
88912000.0 0.6780070820757904 -0.7241548510885447 -0.18879009307369105 -0.8230970828567108 0.0047319902997264365 -0.00473632135765669 0.4594148381370002 -0.21351139055458834
89911000.0 0.6669793167272977 -0.7320428917563419 -0.20144560578304294 -0.8581467996652454 -0.0030870365338043983 -0.0013564833875713072 0.4665588578999262 -0.21372868429884767
90910000.0 0.6639278114292468 -0.7376031600656078 -0.2237375134398793 -0.8964150920822004 0.0009031818423420972 0.0032474939094882895 0.4617041976958907 -0.21325128060575352
91909000.0 0.6538520195195997 -0.7421519725845516 -0.24180912615668945 -0.9284808135935487 -0.0011161641621507386 0.0014863709735645878 0.4598224212842204 -0.22045935101355282
92908000.0 0.648088635844028 -0.7504646695333679 -0.2577759461732825 -0.9629556931258412 -0.000927327607241332 0.0021558602543179984 0.44946277900901593 -0.23303275890417752
93907000.0 0.6386966326016493 -0.7565078409668425 -0.2774481876127933 -0.9981753384808585 0.0025430695243620345 0.00028427281284886874 0.4519066605550843 -0.24925521011796672
94906000.0 0.6277274246144743 -0.7642981038919824 -0.2988917371887421 -1.030945240267055 0.004599121721285874 -0.0026126104805914833 0.45002428148321993 -0.25057890742939964
95905000.0 0.6219272875256824 -0.770967624334477 -0.3190236975078135 -1.0652579053583422 0.003120417571224776 -0.0030172511037684065 0.44932818800460433 -0.2692062359112413
96904000.0 0.6117253337707619 -0.7791926756021581 -0.34024408406177686 -1.106678458684799 0.00066431335214302 -0.0006544427030455025 0.44893378703294556 -0.2651936794670225
97903000.0 0.6031700245277166 -0.7826603226229331 -0.36526490823150326 -1.1376486037782632 -0.004876111897495989 0.0025000903891055763 0.44639447684323286 -0.28522642484324
98902000.0 0.5979816322790464 -0.7914591721635976 -0.38648256447385987 -1.1780053931891437 0.00294047419486534 0.0007526499417790664 0.4351573691693236 -0.2944379314263585
99901000.0 0.5850946990520348 -0.7972669581226911 -0.4186948289592372 -1.2098412665001947 -0.003464508091307198 0.0039337216706659545 0.4564200693759373 -0.32138756610650715
100900000.0 0.5785895430428165 -0.7993957548664522 -0.4484175298878345 -1.2444517224425755 0.0012973498863779115 -0.0032069712387159353 0.4536642343845868 -0.3035440559988725
101899000.0 0.571508547893115 -0.808123896309287 -0.4797225173789762 -1.2878643512496095 -0.0032109146884252535 0.0009935509474883304 0.4347464946928068 -0.3129911741907706
102898000.0 0.5596069742756388 -0.8163159526691025 -0.5185899145147217 -1.3248655596658152 -0.00011952848162132945 0.003244546136855092 0.4439018176920337 -0.3376483672205576
103897000.0 0.5533046370209803 -0.8222813232319467 -0.555781060101302 -1.3607095643279918 0.0010820146227623238 0.00019568632046585804 0.4491863790475894 -0.33552268087733705
104896000.0 0.5428243713720473 -0.8316327220633768 -0.6061822680006643 -1.3933286702847865 9.818026363899258e-05 0.0012316803800725973 0.4243905561571694 -0.3375927675670918
105895000.0 0.5336331304524736 -0.8325206480127043 -0.6477808265466554 -1.4375233484721326 0.0038596786713011606 0.001290830032174611 0.4373203835898375 -0.36629847221198913
106894000.0 0.5263601534164289 -0.8387529373346083 -0.705591245122945 -1.4767582229149268 0.0021216282879077033 0.0007859638831643778 0.4193631862922925 -0.38063219836579243
107893000.0 0.518913818513195 -0.8446570429079812 -0.7606895298018458 -1.5213235711507418 0.0008301510017239034 -0.00036473450038322365 0.4177528693301976 -0.3874571485369534
108892000.0 0.5069995839284488 -0.8494735311952808 -0.8229657263215789 -1.5580903201355165 -0.0019490452697963141 -0.0002740084650954678 0.4227280918851827 -0.3703175342434012
109891000.0 0.49503932318669586 -0.8566962168562776 -0.8820444075236169 -1.596250577621293 0.0017864351203692405 -0.001969122880449907 0.43068157384002226 -0.379830024989707
110890000.0 0.48091255788209125 -0.8725766700532993 -0.9638372805307314 -1.6070835215256 0.00029767154453601145 0.0006421019541805999 0.4266846756214236 -0.37813365920906933
111889000.0 0.47542976474164367 -0.8638156536175444 -1.0057123144053643 -1.6677967950722914 0.0021582454041288823 1.207539878210216e-06 0.4128746203741712 -0.4013045168209349
