! Created with skrf 1.9.0 (http://scikit-rf.org).
# Hz S RI R 50.0 
!freq ReS11 ImS11 ReS21 ImS21 ReS12 ImS12 ReS22 ImS22
1000000.0 0.9937614809136012 0.012500844071359223 -0.017281455627557136 -0.056567520019201595 -0.02317051125855459 0.008906811382088152 0.3056583922285764 0.36701225467992443
1999000.0 0.9917116519592414 -0.012431511832133726 0.008618201309327264 -0.028823653967016565 -0.015109926826407643 0.0015676172322051844 0.262807859008675 -0.04969848884509857
2998000.0 0.9985249550252321 -0.021971307104227154 0.01199256072099037 -0.012992618575689773 -0.0035990240420052453 -0.0023476855179236054 0.19929021052059753 -0.13769559761900851
3997000.0 0.9976192421635269 -0.028901247674803066 0.009359531433941267 -0.006201099883106653 -0.005379388595013612 0.00025183496014945467 0.08107498617581911 -0.20764882696502465
4996000.0 0.9973563481263114 -0.0346144726059498 0.014561084903115307 -0.003347837818334013 -0.00015834604292821886 0.003929688664099228 -0.033000523343874405 -0.19844373666072307
5995000.0 0.9965083748943381 -0.04951005640973657 0.008619835133089112 0.003295753184214894 0.0015793527099442779 0.0007860551767501222 -0.12385228720640425 -0.09396293321359415
6994000.0 0.9943725961489495 -0.05711862710542286 0.008312751539578077 0.005437578671076154 -0.002174828448606439 0.00400793612679046 -0.1353194694951406 -0.029255506324685532
7993000.0 0.9968951510020013 -0.0657901747288838 0.005000478631430039 0.0017531070905998766 -0.00669966191342738 -0.0008391971310077155 -0.15735994902597422 0.03653441020165504
8992000.0 0.9941488150367414 -0.0740054480621741 -0.0006550573629224507 0.0032393188361786933 0.002817779315231089 0.006285567577590413 -0.1554737394616998 0.06792771670537368
9991000.0 0.9941719610839733 -0.08389470421669457 -0.00013605871922038384 0.006599485536008041 -0.0017571317797791372 0.00382504393615161 -0.13748251888213817 0.09490164729504186
10990000.0 0.9927227785151389 -0.09067934656900806 -0.0022710894459697186 -0.002513440299311873 0.0011101267969173747 0.0013116397261694883 -0.12964170394260596 0.10839582789414778
11989000.0 0.9915527217316178 -0.09735944159464434 0.0015644415851083315 -0.0007457198567717844 -0.0038364509055281585 -0.00030752035895558534 -0.1284609904286142 0.12889429229449803
12988000.0 0.9884289078973528 -0.1086626116143288 0.003119132160389758 -0.003048763352184344 -0.00014510133763688743 0.0006184170613210685 -0.12180149042009329 0.15856430864303583
13987000.0 0.9878482470208695 -0.11671094174838641 0.0017827999375956479 -0.0007726847348103587 -0.005979405714170201 0.003631219530054435 -0.08884445015751376 0.17730950208110408
14986000.0 0.9880717532495452 -0.12750634340051378 -0.0021955300930673986 -0.002337766982429057 -0.0014331342121355149 0.0018113919941875412 -0.08017551158941205 0.2007292626714552
15985000.0 0.9883219570600852 -0.1355107475070639 0.0018991539259596265 0.0012342470117493248 -0.0008055951455476891 0.001071508756700568 -0.05578372374206212 0.21190265288985718
16984000.0 0.9860944634167735 -0.14413331233543983 -0.002906369272931125 -0.0025553963347124454 0.00014338393784281637 0.0011996242859786091 -0.05787261941944257 0.21388645671798007
17983000.0 0.9856561449243376 -0.15266595845470365 -0.003071112155401682 -0.0023915243392121344 -0.0054898716540973695 0.000908855769876724 -0.04626783900763845 0.22378799846712794
18982000.0 0.9826352545460112 -0.16363122156940493 -0.00038148315719090694 -0.006451041806592224 0.002630688022055476 0.004671542309977921 -0.024464416114828216 0.23666039655119853
19981000.0 0.9819564630813471 -0.16861730189328444 -0.0022589615761422757 -0.005246727767905707 0.0009674283643557241 -0.0034455149684515965 -0.01985133131414691 0.2310734613422017
20980000.0 0.9820022446855212 -0.17699224414814863 -0.005647863530792608 -0.002079790759558002 -0.0016582249613423653 0.0021589710828265186 -0.0003711843898512168 0.26056551409157414
21979000.0 0.9795012091788703 -0.18504430846997436 -0.004751554056211917 -0.0031926392461247605 -0.0005007903127068886 -0.0020256599311700707 0.010633892426378435 0.2355361418485584
22978000.0 0.9757657263778695 -0.19707821553451432 -0.00767352311083161 -0.001046399691460764 0.00033054296855108744 0.0013879437615877796 0.03776830381862048 0.25805552110564184
23977000.0 0.9765855030026922 -0.20376127637747704 -0.0028701277107442873 -0.0025026511383965918 0.00026996615916177643 7.21654987575669e-05 0.036857099195599145 0.2402163871377758
24976000.0 0.9727178801616545 -0.2149896924827262 -0.00306567288519315 0.0002938334766504779 -0.0003876323081695243 -0.0003438619369444181 0.057894202527721914 0.2519614297716401
25975000.0 0.9740922324633493 -0.22582275484009193 -0.004671964770242786 -0.001995271944901315 0.025309688738898946 0.00649835276744437 0.08715932022089735 0.2534340456932357
26974000.0 0.9699158900227421 -0.22989722849654354 -0.002293514795365992 0.0006203186508249549 -0.001258057757752686 -0.0006601744785428199 0.08093878588325142 0.2657050273646232
27973000.0 0.9693305607144922 -0.23454523737208624 -0.0036159185529820656 -0.0001625779097081967 0.0005478811470647275 -0.003372067424316281 0.09625410705728561 0.2567353396877894
28972000.0 0.9660216260140978 -0.2473810322520272 -0.0007496488764529323 7.601471732405773e-05 0.0004921261889503327 0.00036802111302236654 0.12159892736203483 0.2512494999167214
29971000.0 0.9635046968222978 -0.2532987968514105 0.0027193797800218237 -0.002878482228277336 -0.0021910877632499723 -0.00023822418939358896 0.14726054057530558 0.2669546644103991
30970000.0 0.9619532800110194 -0.2606133427897377 0.0016758355146322696 -0.0031085025157456757 0.0032992324288458243 8.381242219577816e-05 0.17359459056841137 0.24900515697347642
31969000.0 0.9601243857775723 -0.2697549340350226 0.006096162225312564 -0.005479620411193841 0.001600593379105869 0.0004194869784766333 0.1516462358823184 0.24571678671943487
32968000.0 0.9578035941375372 -0.28055483437505757 0.00739516375445078 -0.008065685087496128 0.003022313867035993 0.0017470495094363938 0.15617456460049028 0.23709808553813186
33967000.0 0.9560586562540837 -0.2902286114042441 0.009434871253348865 -0.009888103479193128 -0.0014173923005765265 0.000373538711517804 0.19552880070788026 0.24365103757985115
34966000.0 0.953533019795513 -0.2959686757912906 0.013008647520142634 -0.011708315508077445 0.0017308952613304485 0.0033543814760405226 0.2005074654126625 0.24103217976608426
35965000.0 0.9497356252583091 -0.3040611980509986 0.016725461320402518 -0.0162487604890256 0.0014100258748296643 0.003985463018484909 0.20865515296497694 0.24652581840683965
36964000.0 0.947921390594065 -0.3138679126769959 0.016564484221971484 -0.015052664245244356 0.0008704936884838238 0.0032876864705762058 0.2168881324947022 0.23875606995416992
37963000.0 0.9442462410898725 -0.3217869612843976 0.0217731747628191 -0.02283873881189015 0.0015506602961990372 -0.002154386428705843 0.23678615878782405 0.2406663725565069
38962000.0 0.9416910620282679 -0.33176019510042604 0.023892258161385616 -0.024186369295942343 0.0013365603495801338 -0.0017014188465014225 0.242927526314958 0.2204990056814211
39961000.0 0.9383426396119293 -0.3399573848353895 0.024614251551706007 -0.029961047665249263 0.0011785576982648299 0.0029872498472107594 0.2445199581131748 0.22891076841059974
40960000.0 0.9339560903785705 -0.34866827755013097 0.025239932833261057 -0.0235064943456584 -0.00260768772318905 0.002113245597115752 0.271903513131347 0.22419358551669447
41959000.0 0.9306994962137994 -0.35827583504386684 0.03143895256571118 -0.032979723037814664 0.00020699081249091707 0.0050775246127881405 0.27626880324306224 0.21836755280866743
42958000.0 0.9274606721760825 -0.36568081763566584 0.03442959889088504 -0.04361949728381528 0.00120091519794532 -0.0025970869850168578 0.2833420198257342 0.20427454586921312
43957000.0 0.9270585435183307 -0.3710757359174422 0.031910482865198445 -0.04765326647303285 0.0006278396556963515 0.0042186492982712 0.2859816050995588 0.20124932469372414
44956000.0 0.9220828441101541 -0.37829565983596636 0.03467078833070071 -0.051705866314643134 0.0004935120464272272 0.0011643181032841544 0.3048593251982288 0.19374184847285986
45955000.0 0.9177024938152717 -0.39136842667010246 0.03341906581644483 -0.05965135682954855 0.001114279259298542 0.0029203920353091458 0.3111905627800178 0.18987543330735496
46954000.0 0.9137140774011525 -0.39966861246908136 0.035167510165317196 -0.06446974270448358 -0.0003327649887180633 -0.0017655475489851491 0.3287873807087997 0.1824157578298728
47953000.0 0.9101475376994106 -0.40826372219032636 0.03711902888137494 -0.07421839854203034 0.004883912141850962 -0.00043041536060153465 0.34125486474999306 0.17065611264312786
48952000.0 0.90682838082397 -0.4163441683561531 0.03987554437037721 -0.08230983249634322 -9.227842531016724e-05 0.0017275333468420445 0.3392653075738062 0.16955715093398663
49951000.0 0.9020060189528456 -0.42446543122124647 0.04030314299990456 -0.09004453377223541 -0.0005905253283558946 0.004019160276807353 0.3573491327568375 0.1435453996857306
50950000.0 0.89716426634111 -0.4319303933790928 0.04067333735107473 -0.09818803159797872 0.0016819813274690735 -0.002182825694838086 0.3553464733157229 0.14218541562016215
51949000.0 0.8955816144361446 -0.4400693944367738 0.04076241462490074 -0.10927751672831736 0.0013811650854270786 -0.0027941016167808237 0.3635821558432113 0.14255904114577517
52948000.0 0.890755929643844 -0.4481112296175263 0.04214721341319112 -0.11465948218962495 -0.0026159463538012687 -0.00217642806344107 0.3675810397860562 0.13438830594885015
53947000.0 0.8862275909218014 -0.45564130380919193 0.04267079502735888 -0.1236822767019314 -0.00042925254148158394 0.00034069043747161595 0.374593139966895 0.11851886302079606
54946000.0 0.8809783609320146 -0.4662119604423946 0.04626734008791995 -0.13465501018186718 -0.0005742987003731372 -0.0032916886508802326 0.38065742461813656 0.11661336076559878
55945000.0 0.8777873003069341 -0.4730983240932738 0.049563937659375605 -0.14411137877415345 0.0013789387489787867 0.0018395222537835247 0.3895625497540464 0.09686875164476985
56944000.0 0.8745548501465974 -0.48138688627865917 0.048952726076526516 -0.15513468403911668 -0.0006931821718628323 -0.0025651323373127415 0.4027055700956528 0.09373535799758434
57943000.0 0.8678737620194994 -0.4933387090611493 0.04979614002234546 -0.16341979688484798 0.0022095407242207596 0.0002910029636120594 0.40219750215751876 0.08922500162209414
58942000.0 0.8640252351968646 -0.4954039958649937 0.05132359883332919 -0.17439245385117869 0.0021598907253343753 -0.001876013180021544 0.4205622707857257 0.09179638110728507
59941000.0 0.8608725031995017 -0.5055848233926961 0.05576521740563883 -0.1853487052270445 0.00085036396217427 0.0021845849648734835 0.419727439700167 0.07053330952076937
60940000.0 0.8531652263376355 -0.5126164016818533 0.05167884230267414 -0.19145442842009514 0.001113806778030281 -0.0009060764785126056 0.41106926113816566 0.07503085792180826
61939000.0 0.8494695289466017 -0.5193960739207014 0.050270283986433566 -0.20198611347704903 -0.0004001982398724833 0.0013951333608365065 0.4223512312748776 0.06451664238384426
62938000.0 0.8440959708521714 -0.5296217623362264 0.06005023548746192 -0.21655103434419418 0.00041733510882279974 -0.0021210705288294547 0.4461740978539631 0.05007209546695832
63937000.0 0.8395809735968145 -0.5372218971665478 0.05714444372321588 -0.23788812721910738 -0.0014126302118728632 -0.0035057268390740358 0.4305713680901581 0.029407098496445017
64936000.0 0.8330663788883884 -0.5438089540434106 0.0545399212458679 -0.25101969809107516 -0.0035767913226073802 0.0008545319965457976 0.4407559614686604 0.03295982055364271
65935000.0 0.8292139218714586 -0.5560467969375908 0.05499750099776088 -0.2678674481285311 -0.002482230089472235 0.0004767787401076737 0.44208614043835975 0.02332312573830621
66934000.0 0.8252265469010146 -0.5591111605931574 0.056739125317730246 -0.27878071202459276 0.0012860254077366878 0.00094500312576186 0.42970535853823977 0.013203271735551294
67933000.0 0.8217995522284277 -0.5690645754799325 0.05716245655833553 -0.29425648878906036 0.0006666967915074553 0.0002908834658306735 0.44373455726858324 0.01427302381923364
68932000.0 0.8040207779179047 -0.5641343882004425 0.05126107334596711 -0.3031033771383443 -0.0026931374120759714 -0.0003093190105236007 0.44782494636792003 -0.015621116767361332
69931000.0 0.8075675733921733 -0.5835717455853023 0.04967192302310353 -0.3266208593968653 0.004742361128189571 0.0053503424181669465 0.45597114684813794 -0.012646783439034087
70930000.0 0.7998366448340338 -0.5922131767232436 0.048518039141201834 -0.3394140605217952 0.0003305516233286914 -0.0024351928061892283 0.44296927081033644 -0.03653482957287198
71929000.0 0.7983692708473881 -0.5986503127633107 0.0473264012128448 -0.3612956102893181 -0.0014589184229093055 0.0006053110716027132 0.455794879755572 -0.049128331463765704
72928000.0 0.7907883916242171 -0.6088017541058696 0.03524057258837485 -0.3756336347608233 0.00033391315709289764 -0.0023718464978670635 0.46385532160739174 -0.05707773194042665
73927000.0 0.7839411108925972 -0.6148488207823779 0.026037297115313572 -0.39700996901026475 -0.0037822902013859264 -0.0011017295536841182 0.4492849421311361 -0.06640732156947489
74926000.0 0.7794447294041844 -0.6237315777584437 0.027636295423688055 -0.41499005305695646 -0.0004154877957761848 0.0020796516963128816 0.45655869051119014 -0.06632012861837114
75925000.0 0.7725463979162467 -0.6293591546514854 0.009075874381157704 -0.4387864700443456 0.0014299906334257495 0.002077593891094846 0.46169949192580384 -0.07252341584243428
76924000.0 0.7670466754100445 -0.6363787646578081 -0.0007249141875652813 -0.4613914932246374 0.0007507987275451844 -0.000679852177848635 0.4681293693828707 -0.08697002060018051
77923000.0 0.7603864273330545 -0.645081448678129 -0.013577435087541908 -0.4847960338128331 -0.003608144893776396 -0.002691620163027339 0.4627272269163828 -0.0966507359479192
78922000.0 0.7539322915264531 -0.6560648825029968 -0.02883845790908464 -0.5167182942097812 0.0011993933480594948 -0.003395665913997818 0.45925078731818686 -0.11194499412490737
79921000.0 0.7458284637387161 -0.6579151219003456 -0.04467428547257777 -0.5378399188177413 -0.0033718707801646945 -0.0025808447600682094 0.46109108417878814 -0.1191820988061114
80920000.0 0.74195518817584 -0.6683287334859648 -0.05838037232959711 -0.5715185547002456 0.005657082213825847 0.0004192601982054294 0.47239434211795006 -0.13657520909721926
81919000.0 0.7359760861724219 -0.6741958739181987 -0.07886092307987885 -0.5958234378580534 -0.00021111163240561447 -0.0014311164535117458 0.47110783195368783 -0.1278786078313955
82918000.0 0.7271108557008781 -0.681554104144298 -0.0893802713880022 -0.6275411971628693 0.0008942061915454469 -0.0021465417483938643 0.480920297839277 -0.15032755801309713
83917000.0 0.7179573867063883 -0.6900725784544214 -0.1150398601671559 -0.6546384834156339 0.004351144217865019 -0.0005321596448846977 0.4701279393355235 -0.15507971149100822
84916000.0 0.713498860395773 -0.696878143338513 -0.13109033524626582 -0.692223875143744 0.0013919734657426301 0.0004004750962762247 0.47452316627629476 -0.16438477023471468
85915000.0 0.7075859970851855 -0.7029459492229568 -0.14894346423969101 -0.7253213515168845 0.0017780748212184035 -0.00011153690650695678 0.46615863164900506 -0.16740905792736313
86914000.0 0.6977583538655018 -0.7114294981204429 -0.16473556014018154 -0.7614269754515535 -0.0025379058255397117 -0.0007698062988444518 0.45271164002404285 -0.1789480859013067
87913000.0 0.6923876601510089 -0.7177686554654019 -0.1855032955834313 -0.7865168717533567 0.0016338608575184677 -0.0003220295585393026 0.4570355185028879 -0.1896878753710852
88912000.0 0.686093858066701 -0.7256398369715857 -0.201215290218587 -0.8235016565959354 -0.0022387866504643647 5.1278259979755076e-05 0.46608645475244787 -0.2119650216670061
89911000.0 0.677088530115486 -0.7351136841088258 -0.21660917010865754 -0.8597009907548314 0.0011816475361714062 0.0003526817086610039 0.4621458668456703 -0.21199197305196252
90910000.0 0.6715055238858103 -0.7394830095078881 -0.23340032682599202 -0.8999620702982544 0.006827888141147307 -0.0028847961548920543 0.4624391940164623 -0.22213995527685865
91909000.0 0.6613774575281273 -0.7452887352118173 -0.2555800317417795 -0.9308541427672066 0.0015409429270164625 -1.458654633342889e-05 0.45771078846667634 -0.22331548946325566
92908000.0 0.652633194403475 -0.752942436370614 -0.2767601462281281 -0.9626643354803299 -0.0008352273370172462 -0.0002704426206944451 0.4617467569245424 -0.2338677586472054
93907000.0 0.6445740900644694 -0.7601239338545795 -0.29281018496833605 -0.9984240114554582 0.005084635143972923 0.003835064851430216 0.46245449670592065 -0.2517461397707493
94906000.0 0.6333195981766196 -0.7666917287270061 -0.31256276692765855 -1.0273906338362864 -0.0008022117010262897 0.0009458527740962155 0.454160422146318 -0.2474788059125028
95905000.0 0.6272601575889083 -0.7738147172182357 -0.33281381142878147 -1.0617980148908959 0.002205356974146305 -0.0014841110718488196 0.4622592405596379 -0.2655351715126017
96904000.0 0.6197030175556405 -0.780771754899877 -0.3537562796026399 -1.1058190241814883 -0.0007117398932669656 0.002394847865677761 0.4561929067077606 -0.27552464600199456
97903000.0 0.6088340906773783 -0.7886135906038203 -0.38746284531191655 -1.135648675186034 0.001581480340310659 -0.00477153269319313 0.4444287806402104 -0.2977801838196352
98902000.0 0.6055643525420453 -0.7927656381651096 -0.4012137071826076 -1.17806001456326 0.0032642077217766934 0.002260833080612854 0.4493255483073069 -0.2799529751642908
99901000.0 0.592016988655872 -0.7991528517147599 -0.43613805817870527 -1.2057550673619861 -0.0001684029331657157 0.00025031319031801634 0.4552587410640855 -0.31436495907264206
100900000.0 0.5883395450453459 -0.802991543229339 -0.46810858388636095 -1.2420148528467385 0.003010398788188608 0.00042092012969133507 0.4552433038770238 -0.31857902096517876
101899000.0 0.5799645499452329 -0.8107923713971559 -0.49348609079037387 -1.2795295778904194 -0.0002649791519297321 -0.0004120527100221524 0.4495982896250657 -0.3236515802003993
102898000.0 0.5669492249049247 -0.8163457636863838 -0.5393165163103132 -1.318356250792595 0.0034022207978124767 0.0017286791141887016 0.4525366189015847 -0.34546024440031003
103897000.0 0.5590462033052858 -0.8242210184664943 -0.5812321515295585 -1.3536193989483603 -0.00033672766529673886 0.0023689609522172493 0.4579240461287239 -0.33184493714248287
104896000.0 0.5516704798939852 -0.8339711176710739 -0.6286773675681528 -1.390764928595619 -0.00020533047357664192 -0.002669157205759299 0.4364418661119497 -0.34356403655900736
105895000.0 0.5369628920713646 -0.8357534895741424 -0.6786166232292659 -1.4281333101895315 0.0005337874792206899 0.002486355426924361 0.4262965820031202 -0.36276246788836497
106894000.0 0.5321789976716806 -0.8419262695789729 -0.7365470543395491 -1.4743386533777554 -0.0007281278475526442 0.003402032082321293 0.42423488694433004 -0.38077595078120613
107893000.0 0.5222304272217067 -0.8473690804583524 -0.792754889374446 -1.5062087804978797 0.00093296630465761 -0.00036514914197560916 0.42913755742656434 -0.3851758070569362
108892000.0 0.5139586630553669 -0.8512620061616399 -0.8540059087408058 -1.5440204240669195 -0.0010090915270016647 0.0022989461803038036 0.42649226168949805 -0.37716234327538156
109891000.0 0.4996029993667808 -0.8599465898692293 -0.9109126435550483 -1.5753675474667979 -0.0010694265073413773 -0.0012901014858900145 0.4337330665182854 -0.3802590266616226
110890000.0 0.48112806176862016 -0.8647918400567681 -0.982147333912938 -1.5711222347696907 0.002841394626823848 -0.0020894192694757468 0.4235848956718942 -0.38571608548727976
111889000.0 0.4804543316289153 -0.8658045328485017 -1.0387745448091643 -1.6377236522247929 -0.0012493887472531527 -0.0012734625649139428 0.4203916168131623 -0.4015029847936567
