! Created with skrf 1.9.0 (http://scikit-rf.org).
# Hz S RI R 50.0 
!freq ReS11 ImS11 ReS21 ImS21 ReS12 ImS12 ReS22 ImS22
1000000.0 1.0022366005381353 0.01614596148646771 0.005221940676796247 -0.046980831806260316 -0.01474963471679798 0.004441596601609355 0.3298461838816642 0.3300588658644143
1999000.0 0.9929738367136166 -0.009621241870455014 0.004823761767907922 -0.023744136675324073 -0.004597635714447743 0.004926509723448699 0.24396524827882202 -0.05742010584405725
2998000.0 0.9953074908963853 -0.023180328335725895 0.01482999985501413 -0.014480613487013624 -0.0017510523640997771 -0.0036678096445536238 0.17619141367235017 -0.14153364352032624
3997000.0 0.9985107003762644 -0.027853803469936433 0.012985082635598572 -0.006438695824798405 -0.0041649209182216245 0.0006934826289885999 0.09891501097100383 -0.23232533976552402
4996000.0 0.9969502514995882 -0.040436132041378664 0.006863645402576487 -0.004473156186429293 -0.0037119501678033445 -0.0012115523895584214 -0.03079838883024447 -0.2152080717127057
5995000.0 0.997710875443553 -0.04810711623761287 0.006808461597975519 0.001437201032943076 -0.0009433584534851515 -0.0007241959072972614 -0.12272737773401184 -0.11379779522703053
6994000.0 0.9941922135504903 -0.05913188299738436 0.006269876472459017 0.006118436515173208 0.0011463430421545736 0.00016461394972722558 -0.1385354092307168 -0.036467912121313215
7993000.0 0.996870125576497 -0.06853754334916867 0.007886748065452231 0.003845568582015601 0.0012242148603153957 -0.0011364492681078889 -0.17136000429699808 0.03075317769504159
8992000.0 0.9951526332954975 -0.07167481385763753 -0.0004796580232252333 0.00851332109019222 -0.001621676634997294 0.002515177505386817 -0.1644778207107944 0.06230564675723842
9991000.0 0.9952755671682739 -0.0836555543157216 0.0017483135570364019 0.005273242408469643 -0.002676951564031304 -0.001890853857687144 -0.15904851598644956 0.0920029506154455
10990000.0 0.9937932070220068 -0.09303695077717679 0.0039320939608784595 -0.007255843789396458 0.0003662167648613122 -0.0012547939983991452 -0.14374899061833005 0.117198504172243
11989000.0 0.9915915933051161 -0.09783020682601609 0.003951357814876339 -0.002235835971469213 0.0004031536244557418 0.002861083419565602 -0.12301021385825961 0.14264852858527924
12988000.0 0.9918769185264138 -0.11101835484525072 8.356442369153985e-05 -0.004510436907718762 -0.0006584848947362199 0.0001329357713380014 -0.11947234428672403 0.16662051243059628
13987000.0 0.9902206162142729 -0.11693698724195697 -0.0005517575137307253 -0.0017250489920528891 0.006811791229918503 -0.002541775395448108 -0.09930778425090475 0.18855204434674197
14986000.0 0.9879593978970658 -0.12538958822752103 -0.0014709645126771958 8.885373419468822e-05 -0.000280698328993741 2.392572973835804e-06 -0.08761939897466238 0.2109444384690171
15985000.0 0.9900200025873807 -0.13306136262222268 -0.001960390708523577 -0.0064019287852282785 0.0013317628947249406 0.0005973135575716045 -0.07237485939871462 0.21976756441683176
16984000.0 0.9869524391295794 -0.14367146300561498 -0.00386780166456668 -0.0021234432284794476 -0.0011215128591983198 -0.0018443210285231824 -0.06136878807536798 0.21640449207934798
17983000.0 0.9887544831521131 -0.14732269984831828 -0.0020153616924896453 -0.0031377484268413354 -0.0017551086827866452 -0.0016167153660762083 -0.05636768610936813 0.2252727318065055
18982000.0 0.9835909512902794 -0.16187321420755002 -0.002854670790208502 -0.005757379390567411 0.0023157808666699055 0.0028443304824801183 -0.02257377221145491 0.22726468336359554
19981000.0 0.9856164125032569 -0.16542101316401564 -0.009009938579953901 -0.005846121166000434 -0.0014757038810040521 -0.00032984808385918873 -0.02006784616035935 0.2480312989671347
20980000.0 0.9830839345995517 -0.1747270303538186 -0.00903274401895672 -0.005125442178563876 -0.0032043328226313596 0.005524411070169141 -0.002419865735763964 0.25310110822181175
21979000.0 0.9796550522780856 -0.18564886067795117 -0.0028212092344520987 -0.0014907772216673435 0.004017041926200378 0.002474883026114235 0.020698270574141447 0.2518177519535302
22978000.0 0.9777873138394155 -0.19297876034346428 -0.004604408069625486 -0.0033602380810245735 0.004454312928528143 0.0014977556445385355 0.024155418452430636 0.27210806088829487
23977000.0 0.9799163813458128 -0.20123074573018754 -0.007334574312266901 -0.001470925072440644 0.0014988981616233011 0.0001289318000589767 0.03527812387049012 0.2531691661880221
24976000.0 0.975843512384963 -0.2107338709205958 -0.006086827804294558 -0.0012394051360901648 -0.003388985682360542 0.002216489369984718 0.0654121428188997 0.24528116393396346
25975000.0 0.9780043088877105 -0.2186290328709153 -0.005832418062699954 -0.002003725459560593 0.0047488905438556155 0.02151818625151708 0.08477759146933944 0.26129706837363825
26974000.0 0.9721783548721974 -0.22587744730713555 -0.0027484567294803557 0.0007749958903266172 0.0005622301673077354 0.0005348933459093653 0.08275335684178592 0.26161374182212993
27973000.0 0.9694298917169653 -0.23525647384638101 -0.002887821824715633 0.0009948504733356023 -0.0007470238378500507 0.0002210992406087846 0.09987070450425788 0.2633053557427634
28972000.0 0.9673626621966988 -0.24250827688496673 0.0015227730892381824 -0.0018788447918846312 0.002118347248730998 -0.00039508854184070087 0.12531137040271179 0.25145498406234534
29971000.0 0.9653240596375073 -0.2528783842521189 0.0026378269369531746 -0.0047569796528137715 -0.003068430553503685 0.0021483181842606707 0.1469618723648425 0.268323229013106
30970000.0 0.9632646728083654 -0.2568069189963401 0.0023924160465385296 -0.0011167301100825358 -0.001258701238247445 -0.0010427812497999513 0.1700439307150468 0.2532482874117343
31969000.0 0.9617520477155069 -0.266800694909195 0.007465304783208628 -0.0036677889618000623 -0.0010451699273705203 0.0006580872170383658 0.14203199916810796 0.24903625933247267
32968000.0 0.9612522761608234 -0.27451035941405927 0.0074968181734883935 -0.00571031327184894 0.0021791039847259704 0.0008942120638122688 0.16676237793630133 0.2504416974927102
33967000.0 0.9589885712969723 -0.28360210948931935 0.012859138488758635 -0.0076552426240143615 0.002937140086042402 0.002070111899261205 0.18695434610485948 0.2502281150820275
34966000.0 0.9540055005210969 -0.2945992772894927 0.014919776270084593 -0.014029361211068047 0.0007502580929513739 -0.00028817761132670874 0.20155698495808613 0.24459818746590462
35965000.0 0.9517490388919156 -0.29953429184705177 0.01470991402233589 -0.01567859052515519 0.0030566083270723654 0.0037445700712060224 0.21536774157049693 0.24336266593876651
36964000.0 0.9509094509207742 -0.3099987503193389 0.014950905151909014 -0.012142077696532031 -0.0005984216441973569 -0.0015577510475942977 0.22300749944314835 0.25105963255193814
37963000.0 0.9464459702389273 -0.31924406190169874 0.02426858757921978 -0.021594897908296284 0.002315945720620092 -0.000954122387978336 0.22588687845706618 0.23801113644727342
38962000.0 0.94467442514397 -0.3268114182229715 0.023270658026385813 -0.025585813600489737 0.004458566385748172 0.000559142821470052 0.24306029742134969 0.22543556807754406
39961000.0 0.941787275016869 -0.33674484587785514 0.025014547650448114 -0.030298763648925687 0.0011197204478093899 0.0023363396523745296 0.24536915935737688 0.225127437175601
40960000.0 0.9377328795399767 -0.3439010864982306 0.02341372552357425 -0.024130954940837456 0.0019076101327268017 -0.00041504643502508813 0.26608317290080774 0.22810340104443605
41959000.0 0.9355748995083966 -0.35250003320830187 0.028456595712317116 -0.032100542623228895 0.0001802526235622993 -0.002219848241413793 0.27226269243013607 0.2119431748197925
42958000.0 0.930974047745358 -0.36081470268494303 0.032426429243545565 -0.03726344083311863 -0.0011976344185095254 -0.0020540265612940234 0.28716548884750415 0.20275056600654404
43957000.0 0.9287196343910024 -0.36726779790997577 0.03313397853526614 -0.04592809055724528 -0.0010296227610519613 0.0015381931137291366 0.29063385299136824 0.21422727557524462
44956000.0 0.9240885527798373 -0.37553682464076127 0.03459754690882412 -0.05143394140187698 0.0012284605267566427 0.00011247111433289112 0.30277042791137854 0.18419402332149842
45955000.0 0.9207700031830343 -0.38638714665904106 0.035484965161429835 -0.06014713850568546 -0.0018968678324642538 -0.001183688310942692 0.3066734704853337 0.1933045377441542
46954000.0 0.9158565993176051 -0.39347695290879725 0.03603470023957026 -0.06672900896270163 0.0034294894525308327 -0.0002571117169651565 0.32938250313411904 0.18125423513149164
47953000.0 0.9161708845664983 -0.39958646160454436 0.037422974905275436 -0.0720207405191666 -0.00046202505617682407 0.0024217944592664765 0.3388373696630037 0.16812749205545469
48952000.0 0.9087684179703961 -0.41115885259663754 0.03749781383131608 -0.08004983831571404 0.0032262149712426473 -0.002984247675533953 0.3397091614775407 0.16712319517417734
49951000.0 0.9057743408544842 -0.41677793636734767 0.03678649845374143 -0.08719530829536003 0.0038515038223339818 0.0011510339107179805 0.35757078514068075 0.1497629894662801
50950000.0 0.9032835708485495 -0.4260324277459328 0.039564313734101984 -0.09650328901026924 0.002332807232836121 0.0016118657980512766 0.3481997416247314 0.15043817927132164
51949000.0 0.8993946976900851 -0.4338426561611482 0.039954660674305253 -0.10398762547443387 0.001179257268281293 -0.00044936995979008527 0.35676085969553156 0.13739446139603015
52948000.0 0.897603579993197 -0.4408990148541915 0.039050808240275674 -0.11147154945182748 -0.0013084754319113172 -0.0037675477209830393 0.37679350007224977 0.1487024694088956
53947000.0 0.8897474935259196 -0.4508471812647203 0.04127470289503025 -0.12137447446793326 0.00039047958399887573 0.002553601422080013 0.37529502178533586 0.12979922603445787
54946000.0 0.8847825470478538 -0.4573146641422211 0.042710135281243455 -0.13190153985055625 -0.0013436068266492573 0.0018476981428202802 0.3869292557503027 0.12400020198579055
55945000.0 0.8835061209213235 -0.46621740004696927 0.04479718346228056 -0.143425609136363 -0.002091170966386538 1.967826127971567e-05 0.38644127249325505 0.09800351667712635
56944000.0 0.8805308494098291 -0.47430587220442977 0.04721004843015179 -0.15287925185983453 -0.002043300534748346 -0.00044636675092699725 0.4006427303351051 0.10678417631317022
57943000.0 0.8766729601063471 -0.48541871524321667 0.046864620489769644 -0.16416303178666586 0.001557506192881849 0.0012951108796294966 0.39723683951439853 0.10157665314973716
58942000.0 0.8697399767575507 -0.4885988705827873 0.04899956905328242 -0.17665419699685206 -2.2231231524286533e-05 -0.0016759920769818435 0.4202680585881749 0.09256956858237156
59941000.0 0.8673317606090277 -0.4977591819663843 0.052012351149852004 -0.1846310669772411 -0.003321411562487112 0.002200666661054537 0.41804434987629213 0.08800119739138926
60940000.0 0.8579737151633722 -0.5060444678412762 0.04825985242113056 -0.18670199226998277 -0.000719835895655775 -0.002204032842960932 0.4164154349841876 0.07157283366291876
61939000.0 0.8558794016831962 -0.5124868883575601 0.052616209163255885 -0.19732754004674186 0.0006986177209099338 -0.0008933089288413107 0.422299867633146 0.07018021674886316
62938000.0 0.8501436874316799 -0.5220335933443999 0.05725295014865017 -0.21086811537016728 0.001408952987161484 -0.00022614939453761745 0.44122602411070627 0.053505570546891916
63937000.0 0.8458672575724394 -0.5298512728227427 0.05475535398030398 -0.234412520409601 0.0010802985268484177 -0.00034181479510568075 0.43372290045367423 0.03805698330533056
64936000.0 0.8368649341577762 -0.5370879441554252 0.055050675316351466 -0.24607252446200423 0.001972435216984835 0.00019406259447443092 0.4381875275817009 0.03892330724753682
65935000.0 0.8364053348429527 -0.5471405743675458 0.053651961051894126 -0.26145471919224567 0.0035506607569168384 0.000624179692417773 0.45101367143510057 0.01428604982215837
66934000.0 0.8305843839866771 -0.5546459740838944 0.05368324252278669 -0.274844396683814 -5.66803063369368e-05 -8.39842417902966e-05 0.4413175725176028 0.012892787466658
67933000.0 0.8278619671857577 -0.5578589073415674 0.057096942897245394 -0.28937349691937697 0.0013285645240071662 -0.0005917045628306514 0.4540937683566582 0.0062072523236666255
68932000.0 0.8244054456107849 -0.5628834636514767 0.05254680849941398 -0.30471352829187925 0.004509441176577224 -0.003371732101322675 0.4609987068365996 -0.0070388797505662164
69931000.0 0.812842738183541 -0.5772814370021638 0.048699410756071586 -0.31800110737842 0.0017655228297278212 0.001996051472810726 0.44704167094725744 -0.01926559326088889
70930000.0 0.8100426065531883 -0.5815299362100947 0.052165803100342974 -0.3349397967507836 0.0019285201997315468 0.0012887268282407234 0.44970920331640574 -0.033980286992367464
71929000.0 0.8062545174531153 -0.5926064604494659 0.04721367023085309 -0.3523305814030656 -0.0018377412445731464 -0.0012723471004779873 0.4489418443304346 -0.03907832455707166
72928000.0 0.7993566000223418 -0.6007726285548651 0.04197389433604616 -0.3634344889147237 0.005066459204640346 0.0006779172208427161 0.4657071153321038 -0.044742539970486495
73927000.0 0.7934435666060938 -0.6066082057608528 0.03997639151727266 -0.38605862123037443 -0.002173125506036631 -0.0007157236246191927 0.4576977206355256 -0.052162856682646835
74926000.0 0.7873636590626363 -0.6156811875228092 0.0270200303988279 -0.40476698765305863 0.0005035342970542624 -0.00049395487699796 0.4585968262679847 -0.05639617883812565
75925000.0 0.780982789440677 -0.6217912334718617 0.017401202377012655 -0.42375323849310786 0.0025830890765625213 0.0017204423819016375 0.4669459541931057 -0.07698159785098006
76924000.0 0.7736967321977569 -0.6304580933507891 0.0070956915825504 -0.4502529123625136 0.004424234999586214 0.0018002634296503312 0.47799074310681716 -0.0872012393615637
77923000.0 0.7690466162896724 -0.6361673090236603 -0.0049544974716067705 -0.4720139593588455 0.004999533925937587 0.00034005561954938404 0.46487427955504296 -0.10055107960225872
78922000.0 0.7631664735729333 -0.6457299776146787 -0.019238506417452263 -0.5004073808256485 0.0005613871403382107 -0.0009155582054216358 0.4566077393704052 -0.10854436363555729
79921000.0 0.7558591917791321 -0.651386329613999 -0.037574586865703696 -0.5204220813529742 0.0038511268626220145 -8.810874789214739e-05 0.46597806657981466 -0.11394484421656734
80920000.0 0.7499851078373648 -0.6596035693127927 -0.050699944082983533 -0.5497307558931667 0.0004612223567370484 0.0028147294930800943 0.46776486207303525 -0.12911448965470265
81919000.0 0.7462392156028336 -0.6660755209152095 -0.07017669215985803 -0.5769156397867027 0.00023952190519405497 -0.0010359370945903087 0.46892201474998874 -0.12576211446541188
82918000.0 0.7372696293443123 -0.6734011783977664 -0.08674540454323053 -0.6082764688187693 0.005044118865746226 -0.0009863389104273444 0.47678861119298493 -0.15059110480591037
83917000.0 0.7288455882642596 -0.6808287491203096 -0.10387354267038579 -0.639062069429178 0.004177159864600636 -0.0010254112673311131 0.47585489882475585 -0.16250816887000302
84916000.0 0.7243246431923833 -0.6874376363665481 -0.11711104064789588 -0.6766745843781683 0.0003042883249599768 0.0004643459234806004 0.47025704896065157 -0.17450370029549334
85915000.0 0.7154605103499359 -0.6945015754984356 -0.14011472028358965 -0.7042560563664693 0.00014331519052379946 7.013988113318315e-05 0.46148494889473346 -0.16420306750370164
86914000.0 0.7099229768442363 -0.7047956120164325 -0.15537741209446904 -0.7417277342770899 -0.0008245060692391762 0.0004982141990075783 0.4599052974771899 -0.17647060114482954
87913000.0 0.7026517375667836 -0.7110413417371595 -0.17642357576491935 -0.7706924196638498 0.0005044230415503449 -0.0028835709539933464 0.46247645784338876 -0.17701489030200906
88912000.0 0.6960088240709082 -0.7177013822060199 -0.19047501330848282 -0.8045713979319258 0.0008490376605449362 0.0009895446902173654 0.47283444497112087 -0.2065735458422788
89911000.0 0.6881894426889184 -0.7236962493087248 -0.20677101920423435 -0.8385442416821202 -0.0039185134587316345 0.004166956784865789 0.4583559602715292 -0.20557030545427593
90910000.0 0.6809237694564709 -0.7312595786991037 -0.22623614819387639 -0.8776117405119409 -0.0030948385776651717 0.0009688554816356338 0.46374486296645895 -0.2141459009092172
91909000.0 0.672891880426024 -0.7360733453309726 -0.24162059819620144 -0.907689033387707 -0.0029348180831792648 0.0020981578571318193 0.4631604137270769 -0.2258664707148074
92908000.0 0.663042591897243 -0.7438289699791115 -0.25755811021480024 -0.9385941938242431 0.00132250165251531 0.0003115552090629748 0.4551040617471176 -0.23014216700612639
93907000.0 0.6587983803490814 -0.7503196747883046 -0.2796856397184667 -0.9761369084883902 0.0027300410770264676 -0.003501815214506352 0.4614806533125868 -0.251603013770082
94906000.0 0.645960162051483 -0.758718810671267 -0.296057839547329 -1.0070149496072875 -0.0015897725381782035 -0.0024524791412067976 0.46436477924700026 -0.2515559074239457
95905000.0 0.6378142864492807 -0.7652781472028289 -0.3235582755995069 -1.0449743158523437 0.0011765723213531527 -0.0034325576842234792 0.46775336329532574 -0.2761898485080706
96904000.0 0.631599841769237 -0.7728970618278186 -0.34019491483059194 -1.0831843427156829 0.001750907060259835 0.003763181941274201 0.45681652441575277 -0.27585320204179603
97903000.0 0.6234721362348314 -0.7774801157771019 -0.3576259064489129 -1.113296017612833 -0.0014323606654053083 0.0049263290349203905 0.4469838414048363 -0.2904944997878207
98902000.0 0.6174984664830301 -0.784525571677626 -0.3803132915311379 -1.152980758440379 -0.0016849525896048074 -0.0011995618487114588 0.4459199107599923 -0.29625314285725396
99901000.0 0.607141872194141 -0.7901303611016308 -0.4050690085603505 -1.185457692920306 0.000566595307230935 0.002882839864446148 0.4696939749315804 -0.3051708023434941
100900000.0 0.5995744684836569 -0.7936337694374783 -0.43362539118280696 -1.2118311145310463 0.0016548731900626478 0.0010262382537870411 0.4591001172542592 -0.318725064824098
101899000.0 0.5908303249003782 -0.8015689387464521 -0.4635830570222612 -1.2533018213127656 -0.0008911518051782459 0.0024160222102986876 0.44874982763983895 -0.3214971252891926
102898000.0 0.5825578556868122 -0.8068251141793885 -0.4946172044635609 -1.2921525205166966 0.0015608489986336386 0.0006029789917637 0.45100346296375327 -0.34562497393085245
103897000.0 0.5733810704069824 -0.8135303967516783 -0.5304380006838478 -1.3260397737603962 -0.0018877253031408558 -0.0017376851102491968 0.4629569095329614 -0.3331444196826497
104896000.0 0.5652885555814486 -0.8250462769715644 -0.5737182335024013 -1.359296471109921 -0.0004185818283976049 -0.00047589039032251744 0.4364962448033914 -0.338773602746049
105895000.0 0.5532572260500511 -0.8263407264369842 -0.6233233032000082 -1.3976932791627892 0.00010298118390441761 -0.0007359978199441115 0.4292709928426172 -0.3622174470479213
106894000.0 0.5456530457939406 -0.8342188784466554 -0.682609533416692 -1.4352038560959366 -0.0013922079085422446 0.003321688954597108 0.4249247967769902 -0.35913111484948446
107893000.0 0.5399339848787186 -0.8397738321387419 -0.7240576381627243 -1.4801065696544347 -0.0033969720528282663 0.0024444248070463765 0.4271286578666522 -0.37364816155580416
108892000.0 0.5278715123076536 -0.8435814554451934 -0.7854924689439055 -1.5192773262167798 -5.939087060532298e-05 0.0008327527803984216 0.4244090901547225 -0.3734862567592556
109891000.0 0.5155406900168127 -0.8512799413130728 -0.8428630354821661 -1.551172291511742 -0.0016736475605604241 -0.0022869227109655766 0.44221932042083756 -0.37062999094856397
110890000.0 0.5095754279371875 -0.8682035697211986 -0.9198714487216011 -1.5771894774017556 -0.0018167421997717296 0.0013754117262000413 0.43383814906576307 -0.3909629767474061
111889000.0 0.4950308131662317 -0.857927121249806 -0.9702908865098264 -1.6193773323583283 -0.0018071989617309775 0.00028832927762278407 0.4254467947825114 -0.3950756850709591
