! Created with skrf 1.9.0 (http://scikit-rf.org).
# Hz S RI R 50.0 
!freq ReS11 ImS11 ReS21 ImS21 ReS12 ImS12 ReS22 ImS22
1000000.0 0.9852253647977628 -0.002430064801158373 -0.021907677297334442 -0.036110102484427496 -0.02034437644051843 0.013944619902187316 0.31993722765381266 0.35372396100093706
1999000.0 0.9944777764682569 -0.013187177605226587 0.009749235896720663 -0.02286375015394879 -0.016358870288096353 -0.00344026390552213 0.2502944877217007 -0.07197809277614561
2998000.0 0.9995607174174443 -0.026680103540353772 0.012597612312412696 -0.01982488230169723 -0.007584905803344996 -0.00681211118035983 0.20676122000094066 -0.14181067262982225
3997000.0 0.9992281002854058 -0.03155339110110272 0.015269340652058006 -0.0029681253971166354 -0.005202010496975475 -0.0035130088470080715 0.08525045596241894 -0.2201670487185802
4996000.0 0.9940224488420726 -0.03607101433297026 0.0086788405081085 -0.006123044604901634 0.0034291886768951932 0.0027167364527229715 -0.0272453809668484 -0.20302718528704797
5995000.0 0.9950602151910926 -0.05140447091398213 0.010774189636449686 -0.003065241863201038 0.0013178043598577613 -0.00026568552532811384 -0.1196932612347067 -0.10988336338136115
6994000.0 0.9932079592614549 -0.06155533702723281 0.008570253032907815 0.004160679379732879 -0.0020182934865611768 -0.003832131888740878 -0.15051617533288236 -0.0311167616110838
7993000.0 0.99264831121792 -0.06734826910931939 0.00939922542496167 0.0062129917242866265 -0.004258656009157347 0.0019484154352108832 -0.17111605177687972 0.04661848219646594
8992000.0 0.9934118121218481 -0.07559944707830896 0.003097390028217002 0.011475690692747077 0.006449170284585182 -0.0001213024287616384 -0.17186407771531445 0.058160399900227276
9991000.0 0.992733836608628 -0.08432505062763902 0.0022985878306714656 0.0018153875798542427 -0.00046475364068437956 0.0008613519693920798 -0.16061965823028962 0.08188474447047481
10990000.0 0.9914790935890516 -0.09649715894176666 -0.0007549448048229488 0.002292683869929485 -0.0021687235760796224 0.0017981787224456902 -0.1391903383539848 0.12047498617930291
11989000.0 0.9904219960658714 -0.10203506737830394 0.0012156009928100094 -0.0013870977439529343 -0.00034575648876172745 -0.002760865170752669 -0.12759384994534556 0.12804249866792136
12988000.0 0.9876146261355041 -0.1112958440788713 0.0026645600171293134 -0.0018164154843030365 0.0040012564979617065 -0.001989191279570475 -0.11633190564014986 0.1806000219134297
13987000.0 0.9862449461757333 -0.1190617689219544 -0.0024955096677999394 -0.002570754994416434 -0.007971610713814947 0.0018386726720084655 -0.10215957590461593 0.18669743706057945
14986000.0 0.9867346440153668 -0.12718130817799989 0.0025483768731965803 -0.002259006548630796 0.0021728138343198476 0.0053575716552826695 -0.0900762256543635 0.2062486710133042
15985000.0 0.9877258649076665 -0.13479790099776134 -0.0011664662501628385 -0.0025144547563499815 0.0021032601820998712 -0.0029275650557405576 -0.0780376535274344 0.21584337839003104
16984000.0 0.9847832710421464 -0.1463290900010334 -0.0005563931844219072 -0.003634903954213075 -0.0018895473495322533 0.0008533531737824829 -0.06154089963695533 0.21176075207109127
17983000.0 0.986343451240714 -0.14996681117686406 -0.0016992495832485251 -0.0062789887956445425 -0.0003246282967687336 0.0023139879568973626 -0.06279273662473726 0.2280220022158747
18982000.0 0.9803517842055721 -0.1631166837143011 -0.004615587026816709 -0.00516259602088729 0.0018279156210670824 -0.0007586582476154477 -0.02485193241516997 0.23903118689978894
19981000.0 0.9820965346000062 -0.16854635846751076 -0.005310467085477206 -0.0029408964107161656 0.0008424024365635163 0.0031614737972016868 -0.020071784039412004 0.23485813889860238
20980000.0 0.9801620998066566 -0.17698025145084909 -0.009693305914753638 -0.006439407559582024 -0.0005013857793390152 0.004449932761656136 -0.009722158172190716 0.26936940946398746
21979000.0 0.9768276188245211 -0.18688739165234314 -0.008509510877795034 -0.0023437025586639593 -0.00018819641943649404 -0.00034773067154377277 0.010394888755073568 0.24720769982532836
22978000.0 0.9755819154170217 -0.1960916145357959 -0.0076446888356621 -0.003390956377956411 0.0021982203840211043 0.001048249125549413 0.024917480618894254 0.24408474098070332
23977000.0 0.9786346601231013 -0.20170438233648294 -0.010929066427871476 -0.0010585156486805527 0.0004184817866834823 -0.0005260542303453138 0.04517888515118075 0.25614663344847305
24976000.0 0.9733100683022473 -0.213382019255313 -0.006668825289199198 -0.0014317595342574936 0.002620584811451224 -0.002136737587840667 0.06087899547075306 0.24941316019264506
25975000.0 0.9718305223840196 -0.2184690838169187 -0.0009260584639549777 0.0006449298925397608 -0.018780775739838742 0.019527870083034773 0.07754439055425824 0.26014452409239497
26974000.0 0.9688666128330203 -0.2296976805596218 0.00022724873833094485 -0.0018266547856538176 0.0005322138792912621 -0.0031527315590874124 0.08006971922478327 0.2653100463104712
27973000.0 0.9691334607649313 -0.2355687341282526 -0.0010169237706865117 -0.0029468292153962245 -9.959900096462362e-05 -0.002862076108794252 0.10507920218223313 0.2668012064679344
28972000.0 0.9634961161219785 -0.24786378351800975 -0.0018693663022501293 -0.005083943333674332 0.0027810332029149236 0.000931740449044024 0.11561150648169363 0.2540580234081052
29971000.0 0.9637703747885311 -0.25581386965716746 0.0013591720960533277 -0.0023063041485914216 -0.00015418717608440096 0.0011673879961414362 0.14389723576073346 0.26665883215340885
30970000.0 0.9616546353967178 -0.2614820961461909 0.0010433822543161717 0.0011407200258512617 0.005349677829500291 -0.0023248688972828248 0.16613174854015533 0.2565142808811833
31969000.0 0.959879773118169 -0.27028340129688433 0.0027004245208536036 -0.006104573365835861 0.0004463234726759794 -0.001066093586024442 0.15094656064477127 0.25216148644571873
32968000.0 0.9584760442509925 -0.2786407884391109 0.009477876552355609 -0.0036330054695400283 0.0038229718279273093 0.0012077652714307216 0.1599299074781159 0.24739872298789517
33967000.0 0.9545569281241564 -0.2885020099378412 0.011951368226557537 -0.009192131230657607 -0.0009702590292109051 -0.00013750513849042906 0.18501414550275794 0.25307244277851415
34966000.0 0.9498810217736513 -0.2983481317056372 0.014026539926796637 -0.014713990355507906 -0.0007670373906571617 0.003428221683672579 0.19141157888640112 0.2574020178013666
35965000.0 0.9492385633171206 -0.3058815063838428 0.017095738311375328 -0.014734236722306789 -0.00019982665882571578 -0.00020201191713003214 0.21533603362116857 0.255383226360509
36964000.0 0.9471097128672844 -0.31455279169393846 0.018129368586068947 -0.012395187820701084 -0.0031545523447612184 0.0016467003242732114 0.20956779090846944 0.2430835670438132
37963000.0 0.9416443655000674 -0.3248153800822484 0.01828932543901427 -0.020841707370218628 -0.00032455134109734055 0.002524943976624416 0.2226399073292092 0.2486029064139057
38962000.0 0.9402114992029867 -0.33386394362295574 0.022057654404516115 -0.02245314507637919 -0.0007813231139146244 -0.0004917108507931821 0.24820709654696035 0.2352229498257513
39961000.0 0.9364469428535318 -0.3400695044153094 0.026373513256792862 -0.027313327749356558 -0.0009922469871909325 -0.0018224814563968868 0.24762871861895971 0.23459593596465408
40960000.0 0.9338518685573111 -0.34821350088849 0.02320882757143145 -0.02283716026960365 0.0006262076838309206 -0.0014476596165314945 0.26437650320394707 0.22515381806812287
41959000.0 0.9309674880559312 -0.35862571269755567 0.03179959423591523 -0.0295041986693614 0.0005118966746271417 -0.0018500654880664832 0.2638019287386379 0.21963086001237306
42958000.0 0.9259577484496399 -0.3699387932429816 0.029565119781442502 -0.036896089519608405 -0.0018307930906069816 0.0004562954503463042 0.2781881500115762 0.2004847238498155
43957000.0 0.9247653323388705 -0.3721677613230067 0.03111812859392397 -0.04595637287919937 -0.0012294104192538764 -0.0006218016526666746 0.2798651181519299 0.21034399634362358
44956000.0 0.9191964545486578 -0.3804323351269935 0.035410587414965916 -0.05115998781633022 0.0012355438581942227 0.0022762508817963222 0.3052665760443405 0.20266628928157954
45955000.0 0.9170119810917564 -0.3930322368091098 0.036926215716008626 -0.056969831511378 0.0018052371750568899 0.005112136633922514 0.30684829702312766 0.18886399023108244
46954000.0 0.9141005749060691 -0.400333672375175 0.03563410733350111 -0.0644161975586461 0.0018023534439966158 -0.0010371468816968684 0.32829102107174396 0.1850463136857143
47953000.0 0.9087541442155204 -0.40860291033730695 0.03529030384125512 -0.0712353411795851 0.0011538321836138162 0.002630118699708622 0.3383992025256181 0.17663268743645874
48952000.0 0.9054628571307676 -0.4176105987898141 0.03805253753691556 -0.07674379934829674 -0.000536872474129381 -0.003596564988992441 0.3278765470426765 0.16716872937057198
49951000.0 0.9006059771319562 -0.4259027161268101 0.03881640558312121 -0.08690006187642582 -0.0011793469213249423 0.0016941188747137492 0.3562900855027559 0.15823484242239091
50950000.0 0.8977189044571898 -0.43326728139242504 0.03945765774233642 -0.09620812930521329 -0.0016546778848856036 -0.0008707160476478572 0.3561291132458016 0.15178277295121148
51949000.0 0.8930323835948604 -0.4418662806651828 0.0402047061420466 -0.10243757211683456 0.0013804652568332485 -0.0005596993691369622 0.3588677804275089 0.16032508835498355
52948000.0 0.8915112324471877 -0.44911407291299227 0.03908004712605097 -0.11194328835135955 -0.00020972845172333705 -0.001099934209587888 0.36594180525966125 0.1530307733865976
53947000.0 0.8847118000767462 -0.4593080579752149 0.044525291679699326 -0.11935056594791538 0.000892801365864074 -0.0014571670959211383 0.3812839439733216 0.12484936969464022
54946000.0 0.8802751912601711 -0.46606754294830405 0.045780851593458606 -0.12954147776730712 0.0003303039939755969 -0.0021038180912913477 0.38819777028423347 0.12842778190231868
55945000.0 0.8768815775688447 -0.47547743912237755 0.05044053596623966 -0.1413816810512539 0.0005443557632083958 -0.0032482507066539375 0.38672003569055063 0.10884028479799751
56944000.0 0.8727643820108171 -0.48210567961109585 0.04947405369333088 -0.1499216525260758 0.0029100222279940203 -0.0020649453493690136 0.3930372439174064 0.10519937084435996
57943000.0 0.868720293498039 -0.492631827560584 0.05010411787797546 -0.16232297162964932 0.0026247156052105645 -0.005403662393475756 0.393969486571499 0.11036668361185588
58942000.0 0.862709308022331 -0.4967580068218637 0.04977552905680614 -0.17262380435028377 0.0013813498362626635 0.003573475794455185 0.4164369244770021 0.08938769789168763
59941000.0 0.8583777422759957 -0.5051432693931142 0.05182217198402468 -0.18063095280739727 0.000500065007203017 0.0034620634184068678 0.4113797150552448 0.08659813750281008
60940000.0 0.8501981567355983 -0.5138576099547335 0.050118445164171556 -0.18638586682333488 0.0007943709230213312 0.00023792196193550148 0.4189978823363663 0.08209487714498735
61939000.0 0.8481425957310296 -0.521037093189757 0.05408223290171885 -0.19426465313413102 -0.002506757857585546 0.0021563762385152373 0.41340723520314715 0.07310637040217347
62938000.0 0.8428011564387438 -0.5327166388498825 0.0562295269410711 -0.21107085433861628 -0.0019879332885487768 -0.0024238617387919723 0.4367635466511879 0.06035383368673157
63937000.0 0.8391201626403461 -0.5394047985070572 0.0570047107915833 -0.22969741614693437 0.0020430282802684115 -0.00126381394774844 0.4321807847651184 0.05368597462295383
64936000.0 0.8302794397941125 -0.5466033612229024 0.055537473886455656 -0.245971672059124 0.0036612699344903267 -0.0038626653180151654 0.4287091947803616 0.051507925201215034
65935000.0 0.8282330964784477 -0.5552798982816884 0.05751051022594656 -0.26125211323836467 0.0027333802943505865 -0.006385543557384595 0.4354778723426238 0.020866555775170915
66934000.0 0.8233002553211938 -0.5595190977813511 0.057301404547265476 -0.27054049327579527 -0.001584153779536663 0.002952740122120419 0.43632005320447914 0.024303561198503354
67933000.0 0.8196478065125371 -0.5703707004257729 0.05589864444387783 -0.28671487896427156 0.0020779115911376753 -0.0007059207109666746 0.4419471079601985 0.02235017702728627
68932000.0 0.8006988489689161 -0.5688020000156935 0.05099674123132576 -0.2958837480693984 0.0013185732793710443 -0.0008004782951540224 0.4545488845834214 -0.00585847816480509
69931000.0 0.8065188830167197 -0.5845679636821219 0.05295034643158122 -0.3176038123772061 0.003613362173679264 -0.0034312451655228405 0.44905336207544955 -0.011129735618838524
70930000.0 0.798420093314961 -0.5924899000395948 0.04831147856677376 -0.330183402172084 -0.0025644750029612273 -0.0005313179012709945 0.44965437898924554 -0.027229134879498327
71929000.0 0.7959208692294624 -0.5987397751427719 0.0474053680272181 -0.35259262899023286 0.0026295120149556653 0.000956706883501837 0.45733267355627644 -0.028416479030279326
72928000.0 0.7897223384483151 -0.6097784319576455 0.04457632687875545 -0.36815108993130574 0.004283061813155745 -0.003548073666087983 0.4601042029360096 -0.04002697404075519
73927000.0 0.7823401618740554 -0.6155810470042727 0.03691404560262791 -0.38930902980252485 0.005788920442996118 0.004708400598256443 0.46392920059869336 -0.05584787815680495
74926000.0 0.7770148300590803 -0.6254271747543901 0.025645711790260525 -0.40505505699720734 -0.0016635878629570088 0.0016806144634395283 0.4633557913466164 -0.04438530595592303
75925000.0 0.7694032243035329 -0.6305431295837958 0.014405841662205356 -0.425989492538975 0.00032297684523382026 9.096523778987727e-05 0.4659552891881889 -0.0744493770729568
76924000.0 0.763778089552042 -0.6385786370379398 0.004678838406616701 -0.45102609746466416 -0.004265295996895525 0.003186414672145953 0.4568190504240704 -0.07500390786252828
77923000.0 0.7570137374472717 -0.6471889758865746 -0.008261791055690812 -0.4735809039211802 -0.00107365356780184 0.003702575535256827 0.4582825796392325 -0.08306112964082848
78922000.0 0.7516245085180852 -0.6550148227017055 -0.0232714624690676 -0.49985223531118755 -0.0003161933758458987 -0.0025186902578672064 0.45581899416964666 -0.10259584583291662
79921000.0 0.7416809820139637 -0.660266659130084 -0.04029277782002341 -0.5262320683112691 0.000573397494982448 0.000437529628077749 0.46259930268869315 -0.100380312536547
80920000.0 0.7388624816031811 -0.670409491534233 -0.05304188722229075 -0.5547900187583568 -0.00402077239874259 -0.0012847047195343225 0.4674294543223854 -0.11722136474583897
81919000.0 0.7315273336595851 -0.6767877097693915 -0.07041231669045432 -0.5837824088290801 0.0002926535774109685 0.004282279510656978 0.4701197147376456 -0.12058421619347527
82918000.0 0.7223459841838935 -0.682168836953435 -0.08325762646543985 -0.6149020092082488 0.0002310579352346501 0.0038518887239287042 0.47949429398904153 -0.13931573790835908
83917000.0 0.7167151381138485 -0.6921494117251327 -0.10046158975290956 -0.6434626614445613 -0.00033715979044776547 0.001923991620895013 0.4741756098552913 -0.12804720690183996
84916000.0 0.7094934426904086 -0.7006475237923215 -0.12161444627359345 -0.6778212019829177 0.002899390547938934 0.00033112601657770546 0.46789206550034457 -0.1572722617813494
85915000.0 0.7025045968443628 -0.7046909468139486 -0.1376058724823697 -0.7067945494953719 0.002165191557070526 0.0032460831545403314 0.47114916197073875 -0.17180558293102868
86914000.0 0.6933536850950397 -0.7148904167878658 -0.15270579445878513 -0.7427346055736943 -0.004106724326263203 0.002772296299059327 0.45162491437341373 -0.16517688463343377
87913000.0 0.6864081313652858 -0.7219711195640837 -0.1702346560585918 -0.7734718467989724 -0.0022379472150989266 0.0009183329640881673 0.46860095664106666 -0.1772816698000026
88912000.0 0.6812734218304564 -0.7265248474191512 -0.1886204698267917 -0.8084399928333088 0.001875779596704481 -0.003117734017646017 0.47034900336482965 -0.19617153147873292
89911000.0 0.6718631787888525 -0.7363007293957671 -0.20333708921610993 -0.8413723651167299 0.0017456447260178999 -5.466468261951109e-05 0.47023352167648363 -0.20511027614366864
90910000.0 0.6675762881234496 -0.7397708138229818 -0.21531899572231927 -0.8766807945918127 0.002582462492029529 -0.003764677946619157 0.4658566967706809 -0.2148829191790493
91909000.0 0.6578855425068396 -0.7456545965026176 -0.24065116143601892 -0.9092991351032372 -0.003327004036014892 -0.002104988374253079 0.4707127490791938 -0.2097153429849803
92908000.0 0.6494473041889521 -0.7547860015419621 -0.25421198962893476 -0.9451688524353193 -0.001748101664502965 -0.0024318528998609197 0.4678907339196384 -0.23554991758254146
93907000.0 0.6431174273234164 -0.7593370058662426 -0.2751216265590091 -0.9703742303974922 0.0017048324499041913 -0.0019907247173463418 0.46258756690930297 -0.23261621827794188
94906000.0 0.6314809499942501 -0.768085452466299 -0.295721558051596 -1.0037893885175997 -0.0033014693332079725 0.0022527332630356634 0.45642985973377537 -0.23704306607113854
95905000.0 0.6270129920700948 -0.77279865117397 -0.3123421378454278 -1.049380234827752 0.0006066755473946028 0.0010376216413252276 0.4628222189341984 -0.2611602278158466
96904000.0 0.6156313953814091 -0.7850605181097438 -0.33583456453001503 -1.083638694656081 0.0016293892024257235 -0.0006222394406934236 0.45895123165222507 -0.267435906328798
97903000.0 0.6070043191256789 -0.7875838236065866 -0.3566453750560892 -1.1165421776516558 -0.0003846221379568975 -0.0026213318182813986 0.4483423372019651 -0.2799357876393789
98902000.0 0.6039804057908942 -0.7943836099477801 -0.37930122741071026 -1.1546143140779646 0.00021551134451868064 0.0009144513178041523 0.4592168940353584 -0.28022626015867674
99901000.0 0.5915914336522204 -0.8002336883994016 -0.40884654982393326 -1.184602589948657 -0.0002399396204928032 -0.002345189338787333 0.47212977909649856 -0.306622898060943
100900000.0 0.583381379492606 -0.8046840819590655 -0.4430694722341947 -1.2129756302560708 0.0016451940531224426 -0.0015131763423905857 0.46880714053714934 -0.3063851238007184
101899000.0 0.5761911737479107 -0.8114532776488151 -0.4688707473014529 -1.254655693716 4.39556801662846e-06 0.0012437840570254997 0.44846555473498473 -0.31459897285948407
102898000.0 0.5644698415730467 -0.8197487280255454 -0.5083552708727965 -1.2893970004404562 0.001369761580635926 -0.0019142197713987205 0.45863997376128496 -0.33565181101589164
103897000.0 0.5557624654166302 -0.8269262629062092 -0.5488756415134491 -1.3281501771389408 0.002911581251649388 -0.0023257338553548603 0.4690597256395215 -0.32440763952622453
104896000.0 0.5476749235038441 -0.8349995276735542 -0.5870163354209832 -1.3585926248945708 0.00305757089013984 0.00228268816358465 0.44480755217878165 -0.32975379088301693
105895000.0 0.5391169053615298 -0.837259993721429 -0.6376644124636378 -1.4081847004783867 0.003118194531150376 -0.000759480524571818 0.4465328558792957 -0.34828730513942097
106894000.0 0.5284443022651605 -0.8434093562994708 -0.6942056701487395 -1.4416157004882888 0.001109782086275059 -0.0005586815069777926 0.43865226458343864 -0.36560138805237175
107893000.0 0.5208610932264285 -0.8495316228069264 -0.7397010618445584 -1.479257409764113 0.004556701926717825 -0.002044372372354425 0.4357522361041252 -0.3679520495693083
108892000.0 0.5103965580560115 -0.8513092075765283 -0.8026079899430096 -1.5213239290896077 0.0008962030125590454 0.0008592172796127249 0.433648842124606 -0.3588024707955458
109891000.0 0.4991894114305638 -0.8615872936874169 -0.8594385831978241 -1.5578911888546378 -0.00014995441913765484 0.0003735223948186889 0.45257904262298804 -0.3682277493121065
110890000.0 0.4877237979621119 -0.8615596896787902 -0.9154732964066126 -1.5635200822715423 0.0002545853440833152 0.004827483825004282 0.43980361295132153 -0.3756586270205493
111889000.0 0.47475813636899217 -0.8677636634109783 -0.9931114004568411 -1.62659974338577 -6.187971018097092e-05 -0.00019968193965544067 0.43368391636523873 -0.39172267428642504
