! Created with skrf 1.9.0 (http://scikit-rf.org).
# Hz S RI R 50.0 
!freq ReS11 ImS11 ReS21 ImS21 ReS12 ImS12 ReS22 ImS22
1000000.0 0.9726088289131821 -0.0017309311740738914 9.877890265278052e-05 -0.045562233119482196 -0.014864355243854203 -0.004346892825065285 0.3362248140803408 0.320834137261982
1999000.0 0.9971910749266398 -0.011517958260592903 0.006916348491828586 -0.01928411794691373 -0.0070072846572329685 0.00563281607810937 0.25242938464258646 -0.05084100570607483
2998000.0 0.9974195721438073 -0.022818129434169995 0.008049750360995318 -0.020761801693910276 0.0004576518984736936 -0.002778886732083268 0.19624049368311017 -0.14033093668898958
3997000.0 1.0015934610961785 -0.02865880445984514 0.012384457210327425 -0.005746827742778535 -0.004662381145717346 -0.004077570814058219 0.10511308675583282 -0.21527376104314422
4996000.0 0.9997694366676275 -0.0362470876410044 0.008974551092154826 -0.005070796140085165 -0.002704109645799199 -0.0008448452452560349 -0.030213391529801844 -0.20513656900861654
5995000.0 0.9996911578052118 -0.04659187639583778 0.010081318542973084 0.0045708858311608565 0.005984589646608743 0.0068468723193662265 -0.12700117728410784 -0.10941092784749888
6994000.0 0.9950913777064596 -0.05714398685557514 0.007551644345586886 0.0035411194893657004 0.002973845356249793 -0.0011024045546039528 -0.16137215572407268 -0.03139050067863905
7993000.0 0.9963878022165372 -0.06731760137659902 0.00418540443750482 0.0025284673213856186 -2.873575405389383e-05 -6.774828609052871e-05 -0.1646866224539918 0.03646680982683254
8992000.0 0.9983547574579983 -0.07128735772085693 0.0035453448103208505 0.0031768490629759255 0.004345053706847344 -2.2496368539038225e-05 -0.1692074695155499 0.050136743037359835
9991000.0 0.9949124262997974 -0.0815270698878617 0.005044098508299417 0.0022361043323314766 0.00027432009191766384 0.0022914819454506476 -0.16182166730887093 0.09430961877384031
10990000.0 0.993963105582568 -0.09505344761057852 0.0035989116565233845 0.0015303057223444302 -0.0006874061394723034 -0.0002888106442027096 -0.15146030709152383 0.10828505864033733
11989000.0 0.9898462577249767 -0.10172024702024272 0.0002833509607137098 -0.002364577392950296 0.0004066955540689725 -7.102059732036528e-05 -0.13639970823225198 0.13829457573656503
12988000.0 0.9888478454879887 -0.11084788042521554 0.0024567104828450833 -0.005311464101043994 -0.0021813018687718245 -0.002227110716824053 -0.1131398215405156 0.17154080557925652
13987000.0 0.9885668443852181 -0.11839180844658131 0.0003324362231140219 -0.001181787264619857 0.000995919156660504 -0.0016886000574907103 -0.10103868693276555 0.18713293027594743
14986000.0 0.9883102868572261 -0.12522209214506644 0.0012973213178198973 -0.003689757789683497 0.00025396262623570093 -0.00434292819303986 -0.09107629984087749 0.2116816580096976
15985000.0 0.9895446503340279 -0.13267180359558814 -0.004332171342808986 -0.003118706780789849 -0.0006214874251831954 -0.002185578396831182 -0.08331219851443418 0.21285139301151287
16984000.0 0.9878964481752428 -0.14318174479918824 -0.0032285861230549927 -0.006837156938378461 0.0022845905334061773 0.004065863156473774 -0.07070238451043456 0.21691546354363184
17983000.0 0.987348840834289 -0.1497705345392936 -0.0022927548370917953 -0.0044840603744700155 -0.000595402447922131 -0.003714683691202299 -0.06494421968063038 0.23228597610504606
18982000.0 0.9854382508697688 -0.160208106023792 -0.007279517473902773 -0.0024806669250312884 0.0005596629323323043 0.0008267069838347846 -0.0314684364734125 0.23943157365762938
19981000.0 0.9853325888023946 -0.1650227894745787 -0.0015201908515989166 -0.004517719841249008 0.0008889217293247844 0.006697525923326779 -0.01834689958809006 0.24314006436783417
20980000.0 0.9817248741624091 -0.17686067623076104 -0.0035762497010357955 -0.00644913834441791 0.005759546992924793 0.002044594922616943 -0.018527868065341072 0.2614629297710161
21979000.0 0.9808510144420952 -0.18269993689082856 -0.00355797445354339 0.00010016924516344236 -0.00327454164706851 0.003311104594680429 -0.0008434857458868337 0.2480666400883065
22978000.0 0.9784423425022832 -0.1920037437021593 -0.003658355554522907 -0.005017134321701124 -0.0013337660039686625 -2.6032562954634468e-05 0.01664796563546178 0.25084958502098514
23977000.0 0.9790942441688874 -0.19814990486082784 -0.004057099455125617 -0.0018221453242865736 -0.0006222019306573814 -0.0014256748720571696 0.029791455411544033 0.2613449970614934
24976000.0 0.9760822879047442 -0.21072078462420363 -0.006805129926693685 -0.0026769542635835214 0.0009574556581488991 0.003514250916806974 0.06298275093354302 0.2577826596267741
25975000.0 0.9780576283404896 -0.22126249789554642 -0.005421391255831364 -0.007500508771656441 0.009771867809489977 0.02739042876195722 0.06761415390778623 0.2660685441485599
26974000.0 0.9706242057625319 -0.22745459712402863 -0.008411624333200262 -0.00021164110081092784 0.001019299554180695 0.0043696454332642415 0.07916788168975337 0.26757625735621093
27973000.0 0.9714891732446513 -0.2331047620650936 -0.002014620891895698 -0.0018553375519396419 0.0017762185193817856 -0.0001493885936113504 0.11018674510468686 0.2624717333280572
28972000.0 0.9662102728679838 -0.24594878394571576 -0.0021572213440744386 -0.0005133428597523028 0.0025067306518017276 -0.0006626543658451861 0.10329694447151506 0.25488261340634577
29971000.0 0.9673108446947016 -0.2516702356120463 -0.0010350130838244172 -0.0017881006232346851 -0.00042714630227075817 0.0008224669888247297 0.14804501785684507 0.2598564701383562
30970000.0 0.9621509198936072 -0.25789169705883397 1.674918994378228e-05 -0.0013574534539477355 -0.0028748993738833906 0.0006029298864593542 0.16151497213963267 0.24466307468176246
31969000.0 0.9596641793233505 -0.26804504838672216 0.006169736813781077 -0.005706827246480703 0.0012096210951747426 -0.0002308193350160596 0.1402524219731175 0.25308263462488806
32968000.0 0.9582463440421154 -0.2766546723804239 0.01096105966115006 -0.006653417809089467 0.00030528269666997305 -0.0005774313103763158 0.16002267949963467 0.23911277600905642
33967000.0 0.9586753915981464 -0.28391130599034 0.014171026251209081 -0.010122294198329898 -0.0009438599338767259 -0.0002930107200619507 0.17980134272118203 0.24457299991139664
34966000.0 0.9540955013010066 -0.295134832944505 0.014255791535154586 -0.013034724487545368 -0.0010532453532952671 0.0003362658379347024 0.18432118258456978 0.24486101543452293
35965000.0 0.9518304187283633 -0.3011765690228719 0.01890979787874472 -0.016770475057821765 -0.001966119629141998 -0.0016091296594440525 0.2109924353566647 0.24071839504961737
36964000.0 0.9495094879679126 -0.3104981036317491 0.016474682729072994 -0.015887894540069936 0.0005414035549016536 0.0016599208180406836 0.2078963704205233 0.249851254853708
37963000.0 0.9470540476328277 -0.3190202698486065 0.020276586848780722 -0.022656267574423034 -0.0012822737103623486 -0.0013892635739173383 0.22279920186655383 0.2328546835703044
38962000.0 0.944127866948514 -0.32707471299880253 0.024356624971939182 -0.025068715183198132 -0.0005659447258745702 0.0004485170906629509 0.23029623450561085 0.22905028174297598
39961000.0 0.9393641589805956 -0.3376929227074183 0.02684047800599915 -0.031416636336970824 0.0012442979589365796 -0.0022021356991307924 0.2366789980474906 0.22553355219398274
40960000.0 0.9376532348143799 -0.3447433802223462 0.024764356035268453 -0.02246552657825903 0.00027047171674291273 0.00047932304033828954 0.25624616898509034 0.23416776135383055
41959000.0 0.9343599012686215 -0.35372426491731107 0.028912370756380656 -0.0333664736478937 -0.0006451205366743606 -0.0029748003780270676 0.26594914067285574 0.21464578840818097
42958000.0 0.9295019642952718 -0.36187731000469114 0.033021050841526886 -0.04133504544005361 0.0015251323227756229 0.0005110414701264796 0.27723489988456285 0.2011828929382327
43957000.0 0.9279286719112998 -0.36779079633798767 0.032807805490663845 -0.04656896329420237 -0.0006937731093024668 0.0053555564039451395 0.281933897090551 0.21065575596535363
44956000.0 0.9244567824203112 -0.37616217568767535 0.03362258027519759 -0.05443947744613181 0.0016824977601582792 0.000762615187422447 0.29920517778560723 0.19443959585507054
45955000.0 0.9209226372111263 -0.38609394390757307 0.038564275120646495 -0.05660670969901965 -0.00048620600325249695 0.0005617483635038316 0.309916465785123 0.19436651066544022
46954000.0 0.9145678458754668 -0.39550814949341845 0.03647000479934142 -0.06740807867211478 0.0015387647664646448 -0.00018441621163012658 0.31979859763696467 0.17812886148637105
47953000.0 0.9140827252547957 -0.40128921898272535 0.039675722064728094 -0.07291558312296795 -0.004767599455816891 -0.0012521611563191394 0.32786560237247736 0.1808195215039919
48952000.0 0.9065334855672084 -0.41360421599564007 0.0382538577410026 -0.08144925265986874 0.0015101131106478312 0.0012379998736468153 0.3314765203851812 0.16477311291085248
49951000.0 0.9045136950045761 -0.41798769586456586 0.03983675175100229 -0.08838705765766285 0.0012939542947272631 0.0005495685234780749 0.3475608099697247 0.16001739154913425
50950000.0 0.9018159158875247 -0.42826025222631264 0.03871786531464239 -0.10011869852693459 -0.0032738619406069316 -0.0024486090264567383 0.34929153257483747 0.1491840510796018
51949000.0 0.8967721634478472 -0.43393384359608034 0.0399370090369505 -0.10742666650060652 -0.0033497834576665113 0.0022140431227380807 0.35365930756033853 0.14213764422538422
52948000.0 0.8945703983438927 -0.44309110497148235 0.04283677129751571 -0.11626001518619519 0.0006022761874499474 -0.0007917714052431775 0.3655142673337264 0.14313745289227836
53947000.0 0.8916476396918246 -0.44958849919676325 0.044896439274925724 -0.123309457350168 0.0010683634957236263 -0.001377514654551883 0.3660423483038966 0.1307515549933111
54946000.0 0.8845453125054817 -0.46252648779348804 0.04339898249897998 -0.1350240925435651 0.001466916609412535 -0.002077715781219759 0.38883467639793334 0.12198666774084145
55945000.0 0.8815596188493242 -0.46849778678691123 0.04940245181685763 -0.14391088755369782 0.004410858076582039 0.0031084368039661016 0.39332107836836605 0.10255654425455094
56944000.0 0.8772527722412732 -0.4771042299508577 0.04928316003573132 -0.15611886697290142 5.074828421019371e-05 0.0016085640264303193 0.3933508925009079 0.09917331239113292
57943000.0 0.8747426304307327 -0.48681672716857444 0.051095096818746646 -0.16924730177064243 0.0024413061702322687 0.001740801329757607 0.3938091687139302 0.09355367633040029
58942000.0 0.8670112194637919 -0.49167880639896244 0.04941801798782221 -0.1787510630224203 -9.597412853356853e-06 -0.0009090449289177803 0.42263960715182014 0.08922944488701653
59941000.0 0.8639482462012277 -0.5005766702542408 0.05479875466969237 -0.1874013912677568 -0.0007110400059639629 0.00037128977360380874 0.41956446526265656 0.08793563175909457
60940000.0 0.8571222569994333 -0.5069629187082593 0.05323132906509677 -0.1937359191972758 0.0008313513608445804 0.0016033904247721028 0.409628675672342 0.07558597508244004
61939000.0 0.8553619068449733 -0.5144238987066322 0.053833310862642654 -0.1988713559338702 -0.001580216677457852 -0.000946611265448002 0.4177850209129556 0.07097962486940372
62938000.0 0.8489138370637925 -0.5251089700810951 0.05766626655840957 -0.21924397637876952 -0.0008834836680538208 -0.0011231965052666281 0.4371507066381307 0.06124865427740396
63937000.0 0.8441343275177119 -0.5316803921259654 0.058618873711796166 -0.2409676453301781 9.589876320670745e-05 -0.001293517668258066 0.4329699098528159 0.04272982049113311
64936000.0 0.8369905933175159 -0.5392653269365578 0.05939246215063822 -0.25422201527589033 -0.0027810919402101726 0.0012567125562745129 0.4307592512355781 0.038989824430536335
65935000.0 0.8353069515613544 -0.5478944683698469 0.058227003616485626 -0.2712265271530161 0.003799123785740601 -0.0010051818839991137 0.43796140098499536 0.014724163574295358
66934000.0 0.8298264239306888 -0.5557379752530907 0.05531822213002379 -0.2825757617828064 -0.0025875041037522425 -0.002319091014937815 0.43213030936145325 0.0028276338190648715
67933000.0 0.8278811766426587 -0.5609028981425991 0.05639388681791555 -0.2964280527494288 0.003712540823348599 -8.739641565937456e-05 0.436201431650682 0.008809693410411119
68932000.0 0.8216131697602779 -0.5657704289395734 0.05201804722249404 -0.3132413973077607 -0.001383461471973808 0.0009401232204153156 0.4576027414764643 -0.011050662335996437
69931000.0 0.8143944726929006 -0.5786574330095936 0.05361821020397442 -0.33108298991692764 -0.0027504631438891067 0.003845604536065514 0.43331625745671676 -0.017146503372827776
70930000.0 0.8087286261497875 -0.5846149742162592 0.05049252120599166 -0.3447978751189057 0.002888400960333803 0.0019365607232521174 0.4516262506611739 -0.027408210224867165
71929000.0 0.8029847643295089 -0.5933472144644172 0.047005798182776455 -0.36036077063194616 -0.0001861344980876896 -0.0037808590666172214 0.45352784247958783 -0.038218495233331574
72928000.0 0.7950073037053831 -0.6051202375008596 0.04069788693522005 -0.3833368818530876 0.0006014349210077683 -0.0022136325725233582 0.4672361602306372 -0.04569271419570471
73927000.0 0.7900213410164233 -0.6098882392993099 0.034047201615200424 -0.40157031531924703 -5.025464883701697e-05 -0.0028181153375208524 0.45226812699929875 -0.0614691496495292
74926000.0 0.7830434853371753 -0.6186209262836239 0.025175843737005817 -0.4189008988047978 0.002894391590664922 -0.004444646244324534 0.45642027525543094 -0.05317616693601238
75925000.0 0.7800344967159867 -0.6240593150198444 0.020837823355960024 -0.44223383670608674 0.003976553589575988 -0.0019878541605787697 0.4703298303607044 -0.07966256914555925
76924000.0 0.7724988203936605 -0.6303613808407071 0.0022262653539230426 -0.46344071788329505 -0.0018866105719791166 0.003735385122245982 0.4653434033971312 -0.0866701101232416
77923000.0 0.7657551761037908 -0.6376560667281791 -0.0039080683392296285 -0.4881921581161519 -0.0012578889092119893 -6.198372410529584e-05 0.4485780617736335 -0.08902147809045984
78922000.0 0.7601733714257252 -0.6489975847722753 -0.019878300520311608 -0.5179201890275317 -0.003986208964032278 -0.0027027921342139332 0.4580333552380119 -0.10530249081293949
79921000.0 0.7511966244730038 -0.6512724739341936 -0.04542222136298207 -0.5424408874978842 -0.0003198996119541121 -0.0016695697531521733 0.4545821026892022 -0.11891026585061377
80920000.0 0.7496326236258921 -0.6636855722379096 -0.05540638070748187 -0.5733147174886998 0.002690565789382101 0.0006946457649987304 0.457785622842905 -0.13357271468130574
81919000.0 0.7420647242554532 -0.6678481164671187 -0.07536410944100758 -0.5970497919404746 0.0017369930539109242 -0.00040193239940218935 0.4652987604442761 -0.14618019256390427
82918000.0 0.7316520151107823 -0.6765928895882158 -0.0853326544489869 -0.6322863575767627 -0.002669835618598798 0.001503516795603287 0.4723356783735381 -0.14192883031790815
83917000.0 0.7260532814126154 -0.6836806201633724 -0.11261836779084353 -0.6577521293170598 0.0007771212818776504 -0.0020027365327852883 0.4659113724381826 -0.1527932339757527
84916000.0 0.7192389878828255 -0.6905716553633582 -0.12835450158827819 -0.6969872018875416 -0.0029842007399343163 0.0013135276812749244 0.4688580113122544 -0.16446110946153183
85915000.0 0.7147820676446697 -0.6945613793082731 -0.14617106532528965 -0.7252110935111721 0.0008779052721269475 0.0005802172664792993 0.46753259065986463 -0.1748305889965353
86914000.0 0.7070279736068505 -0.7069427965114227 -0.16507565162707294 -0.767327024247092 -0.0012029258017857262 -0.0009808142816365227 0.4584769361867455 -0.17963634166230094
87913000.0 0.6985723251051007 -0.7135528215733251 -0.1836516970515364 -0.7961638741308794 9.174179094762837e-05 -0.00020018305707359866 0.45124236127027945 -0.19179588601224642
88912000.0 0.6922009069332794 -0.7198278240869449 -0.1989904760911522 -0.8325685397431352 0.0014074961114979349 0.00017220656419496017 0.4648409881870118 -0.1982983573465054
89911000.0 0.6866196785831767 -0.7274424433309725 -0.21564872336036464 -0.8734211871033614 -0.0028250956812230026 0.0031875276139564875 0.4738027433811824 -0.20987982660671647
90910000.0 0.6786066862348423 -0.7330533477321867 -0.23385129210141856 -0.9041918847415613 0.001894508997026609 0.003209734568649755 0.4609697276447892 -0.21627232912254143
91909000.0 0.669365025443375 -0.7386282212440776 -0.25722023559515617 -0.9381283275487274 -0.002263564258871966 -0.00042223293912058493 0.4678924093193057 -0.21516328671586918
92908000.0 0.6604520560416643 -0.7468824959706434 -0.2746612667644661 -0.9683997610229665 0.001982152301824046 -0.0026768046832134833 0.4576891798529437 -0.22848085626489523
93907000.0 0.6548925400212682 -0.7521288006362288 -0.2938701932142098 -1.0046949624509136 0.0005945007265320322 0.000790039683126035 0.45462247690463764 -0.26121299328917813
94906000.0 0.6420811579115658 -0.7613258167860478 -0.31633119050211317 -1.0416477473294492 -0.0009641856692754559 0.00043564030145160044 0.4653927143542016 -0.2567061710497597
95905000.0 0.6357922565234548 -0.7676993592916523 -0.3364254567314067 -1.0781970498415696 -6.772363584204703e-05 -0.0021379363620026982 0.46080737894173873 -0.25822566006662623
96904000.0 0.627379110757502 -0.7763591273567447 -0.3600915801577073 -1.118558552881576 0.003192978136429886 -0.0011889230289555046 0.4536664054293964 -0.2851852982356743
97903000.0 0.6170071594953526 -0.7820449273567834 -0.3876137343223102 -1.147534080984401 0.0033622928358389885 -5.82139938621243e-06 0.4455588311622207 -0.29130639744666736
98902000.0 0.6140108029611064 -0.7862323268322521 -0.40514120687400035 -1.1910715214115726 0.00017735603612944908 -0.002715757631486634 0.4495342884544494 -0.3029281879418816
99901000.0 0.6023732417405228 -0.7913724708378562 -0.432052064422447 -1.218635169019958 -0.00033492629899118005 0.002127498562559578 0.4490095174670426 -0.316066741605335
100900000.0 0.5952654367776643 -0.7957628121229947 -0.4665553380621834 -1.252945195811326 0.0009069914913547162 0.002224611204033223 0.46449706443604577 -0.3138794352347664
101899000.0 0.5870063761820832 -0.8040871780519688 -0.49713280113268793 -1.294760586008845 -0.003743175160996843 0.001550135986517395 0.4425943270765286 -0.31541761274170277
102898000.0 0.576471692292864 -0.8102865872967425 -0.532225494153103 -1.3284934473434504 0.0004450390635583496 0.0007177224487112739 0.4411405263326701 -0.3328549743611094
103897000.0 0.5680538901874506 -0.8188293612645458 -0.574283432781247 -1.3680497714418096 -2.955602386196307e-05 -0.0013921495641397413 0.44872533195130926 -0.33993765547551125
104896000.0 0.5600136137419309 -0.8295382723622241 -0.6210594104782878 -1.3987136448738753 -0.0006101632668975459 0.0008711628986394647 0.4285538293653979 -0.34242639332454133
105895000.0 0.5482266167424742 -0.8295673610606317 -0.6700809866085208 -1.442321704390096 -0.005662910901502027 -0.0018959407343188506 0.4387579314525772 -0.36420238377508674
106894000.0 0.5384791469752562 -0.8376900730161486 -0.727443588703547 -1.4804246448499514 0.0021330235764363105 -0.001755620935671152 0.4259423862544053 -0.3739551585844258
107893000.0 0.531991697591348 -0.8438163670668374 -0.7751464255242424 -1.5196407857454308 -0.0002673807348818502 0.0004140104650936275 0.4249809176504583 -0.38190636916785553
108892000.0 0.5222754100008002 -0.8458469205125098 -0.8383953592155934 -1.5612028637911717 -0.002760205006388673 0.0017770268979413067 0.421868671759245 -0.3816919398128423
109891000.0 0.5107882096574818 -0.8557631424500032 -0.8977144171044351 -1.5967101508172499 0.000787331774159151 2.2179340611563787e-05 0.42815747124330406 -0.3778719115990751
110890000.0 0.4903694484022482 -0.8682646442943964 -0.9837909577819056 -1.5996398083901764 0.0006774701617177259 -0.003102409476542895 0.4195987751561022 -0.388783686344346
111889000.0 0.4907923602263697 -0.8624402840738769 -1.0318345186304558 -1.664550127771061 0.0015728820755262693 -0.0014623327075902308 0.4195023239216307 -0.39999995742168676
