! Created with skrf 1.9.0 (http://scikit-rf.org).
# Hz S RI R 50.0 
!freq ReS11 ImS11 ReS21 ImS21 ReS12 ImS12 ReS22 ImS22
1000000.0 0.9876021615813207 0.004863458098357913 0.007050307563004972 -0.0438636578976849 -0.009485921625083214 -0.0031662710879642995 0.2783841529603842 0.26392593321901775
1999000.0 0.9930000852021712 -0.016874725310970107 0.007821623822827507 -0.03667409737357659 -0.005049854589506481 -0.0070830944041245375 0.25633805884005517 -0.08690376134064855
2998000.0 0.998764348293634 -0.020395888993678776 0.013516834390508024 -0.007504405014528439 -0.0019416102987801173 0.0008679785906576175 0.19870089008681335 -0.12371312067726732
3997000.0 0.9985912752832781 -0.03230166445133311 0.020366407257962984 -0.0058777739581233335 -0.003985575510030933 0.0008466276516076375 0.07532076983655676 -0.21305033628011114
4996000.0 0.9961600606256092 -0.039727260368576336 0.01594417661183346 -0.004548907361231133 -0.002711880174158609 -0.0003766607918677929 -0.041109852129633646 -0.19155273574616383
5995000.0 0.9937754792243656 -0.051679757575115115 0.013480520436069615 0.0029575727755728103 -0.0018017759339189947 -0.003831785329810418 -0.11089713697868431 -0.09283227595907002
6994000.0 0.9917507657319606 -0.061031772458531024 0.009527672309168041 0.004722912786820492 0.003338577343540809 -0.0006820052035468587 -0.1358925180906998 -0.020897812293606887
7993000.0 0.9942030928677215 -0.07009185192407842 0.0046217001334287995 0.004214634360233899 0.008454409914640124 -0.005783255383582394 -0.1489140259949173 0.028424202919257006
8992000.0 0.9949325845730805 -0.07223364656259615 -0.0026934064243257735 0.0024796170117783616 -0.0017758179205000027 -0.0016637973796803042 -0.15539926582873065 0.05425227470015891
9991000.0 0.992164553233642 -0.08416569339070068 0.003361452038849103 0.0034342893930210954 -0.0007208332673728308 -0.005538526380179894 -0.1514344903527585 0.08854020308063613
10990000.0 0.9920531362307998 -0.09597527002115737 0.003909785303598769 -0.0009177626587479373 0.0028543811142650003 -0.005501795916882714 -0.13433175226684388 0.09866767683876664
11989000.0 0.9874161674143721 -0.10207049502041611 0.001921813386188402 -0.0012490826971690338 -0.004966967428704511 -0.001449313083632552 -0.13609489902373317 0.1361532299276072
12988000.0 0.987911897971826 -0.10938212585109332 -0.002179786478848055 -0.008666195769057562 0.00038658879038610524 0.002297561541672564 -0.12051084315658878 0.15626707777932006
13987000.0 0.9869047898427437 -0.11935391158420418 0.00041940569182480906 -0.001666168493937499 0.0001121765106861393 0.0012598175395426444 -0.09468845742615273 0.18201210019747494
14986000.0 0.9857464064952333 -0.12512957827282223 -0.0020328561103517503 -0.003796871112416848 0.0029387683686850677 0.002163531145538725 -0.08175491740113075 0.19757091116443304
15985000.0 0.986582861967506 -0.13557065793159284 -0.0013845969253991018 -0.004406802887250047 0.002785657272084024 0.003538623886440235 -0.06079031708377297 0.2094561613364819
16984000.0 0.9849506455567644 -0.14411248679525737 -0.0006738938131214461 -0.004113298725815162 0.0008380140816791756 -0.0018159711982596 -0.06044275129506043 0.21806907631602301
17983000.0 0.9847141206392631 -0.14794716621024853 0.0007979872681024174 -0.007812889188872157 0.0021335773933773275 -0.0040158820725426205 -0.06889862301619615 0.23597427517488442
18982000.0 0.9805748039081272 -0.16172126864620406 0.0006497191626253333 -0.004883975943340265 0.004641758533721249 -0.0033759611062815814 -0.02905099353713758 0.2321522501517166
19981000.0 0.9810764712649815 -0.16523157886811982 -0.001663142595857775 -0.002008303518655351 -0.0026641969566128317 -0.00190894291220951 -0.01638324098775672 0.24364213643936283
20980000.0 0.9787509826255628 -0.17743986901058978 -0.008040641210805808 -0.004225671119324282 -0.0007392364534313963 -0.001387022444318105 -0.004944312745671757 0.2589448230056509
21979000.0 0.9783852252323998 -0.18291561783223012 -0.005546866007543592 0.0016611286943694085 -0.0004114486632201343 0.00029197426008531046 0.009016536122825275 0.24695668384740227
22978000.0 0.9755155851904701 -0.19381156841761196 -0.005127527678319706 -0.002929772860507335 0.0005534748277128299 0.0034488600411226103 0.03763066518999206 0.2514413219842131
23977000.0 0.9780714919049746 -0.2013510743149325 -0.004514909365386156 -0.00481089035510563 0.0016372128822768435 -0.0020647756604306317 0.04716812965351786 0.24000641443509158
24976000.0 0.9731980831418743 -0.21255442676872538 -0.008231667835147203 -0.0051098203729977604 0.001849982269758546 0.002136739473609035 0.06349178952595864 0.2428306228501697
25975000.0 0.9695372989745553 -0.22502674547289675 -0.002758804558823342 -0.005527484112416384 0.021347905088959555 -0.008313620741871426 0.08587235866239586 0.25967995849977876
26974000.0 0.9695134279517585 -0.22647397722305815 -0.006055694149657502 -0.0027642588063898623 -0.004554641936289904 -0.002596045733936395 0.09043699050430828 0.25836397249379345
27973000.0 0.9674803202527817 -0.23664524861821076 0.001470421849979347 -0.0015310169305737004 -0.0002510778415652039 -0.0015905440835462432 0.10299357690325071 0.2551136503848318
28972000.0 0.9632782811795266 -0.24463996327831788 -0.0020428026232674813 -0.005821860223474237 -0.0003124528898443144 -0.0013093308677839747 0.10117895618392178 0.24955032067807892
29971000.0 0.9633207665789427 -0.25299424034502893 0.0029681706360148176 -0.0006228055748982944 -3.825152264038458e-05 -0.000824185165275487 0.1601493316338913 0.2650728445337581
30970000.0 0.9617184579360322 -0.2594914624070325 -0.00039858175213382946 -0.002855812493007012 0.0038317991903821123 0.000973287656051893 0.16826688568325487 0.25867896339373725
31969000.0 0.9587215558107585 -0.2683812917656493 0.0010564421812075302 -0.0051740709516918575 -0.0019787607324059566 0.001545184997464136 0.1549611215200161 0.25160149896465006
32968000.0 0.9563268686264162 -0.27686500744621595 0.00668777800236856 -0.005678745910422051 -0.0011917890938567789 0.0022339731423551266 0.15822532863940797 0.23880600118496045
33967000.0 0.953803500761281 -0.2875427225935744 0.01088456777947209 -0.010818050974832667 0.0009837839502903523 -0.0021844275915397404 0.18744798494624526 0.24732640104847725
34966000.0 0.9519475204188623 -0.29362541380708124 0.01368828364255151 -0.012850133318026577 -0.0010818130830152685 0.0019748412701574274 0.19535303996353812 0.2493838039368321
35965000.0 0.9471050911340716 -0.30346076219162504 0.016336021306235432 -0.012635727879794736 0.0010136227683326675 -0.0027435048237913887 0.20696383195975868 0.2533811893127285
36964000.0 0.9471657815357657 -0.3127344613322014 0.018273805087423795 -0.012549015572021743 0.0004470653647028205 -0.001961143741980209 0.20896579496107043 0.25732847276057086
37963000.0 0.9432265546270339 -0.32180112170471853 0.02353581499420922 -0.020603151051437653 0.0008760260324545457 0.0014219310349091999 0.22236143982492457 0.23567911711474665
38962000.0 0.941207049654142 -0.3288552534449546 0.02731868491463326 -0.023081096047089907 0.0009796177098503457 0.00022142140893003978 0.23736726139106454 0.23188703334103447
39961000.0 0.9380132703527173 -0.33985262849388126 0.026277640021713535 -0.02730079887089825 0.002459479278316047 0.002791280651266364 0.24822736402937154 0.22820618529091158
40960000.0 0.9346537884500241 -0.3457625405694168 0.023271101498362996 -0.024294443058915496 0.001243283477129542 0.0004856437121199815 0.2600737171846428 0.231954475791614
41959000.0 0.9313659292920234 -0.35569027515242185 0.02976318671780329 -0.029767478653745235 -0.002832090718544848 2.779068464664692e-05 0.2589048131752037 0.20939383680450788
42958000.0 0.927051393052412 -0.3646064640630802 0.03210126225498269 -0.03951378647569508 0.0009689104062707548 -0.0017365411828255733 0.27981994422816553 0.20491535277071435
43957000.0 0.9241067733618548 -0.3720650477708725 0.037102480060496976 -0.045629855231092115 -7.765192962454808e-05 0.002510141491468956 0.2894391934025236 0.20884240648751515
44956000.0 0.9213333543998438 -0.38006126771263066 0.03434604354909622 -0.05150340336291948 0.001262797704152684 0.0010904629156402845 0.30704313865372085 0.19281548310670474
45955000.0 0.9170062752978668 -0.38841506100090023 0.03703633095945342 -0.058473421459855006 0.0005374241426835233 -0.00240583906660148 0.29601844179779246 0.19125505459623013
46954000.0 0.9132099066415633 -0.39793096410270357 0.03941493018135061 -0.06381800989312701 -0.0006277611150737154 -0.0012299826694008355 0.3302706182594441 0.1780379155110634
47953000.0 0.9100613202601693 -0.40548925962017507 0.04049135911051698 -0.0710388806846163 -0.0014598304016245449 0.005302881756271085 0.3330577602722462 0.1734828625756302
48952000.0 0.9041706221643014 -0.4163510898412782 0.039468648787429055 -0.0795520932656368 0.0004893365056932772 0.000775892936328778 0.33844421527959373 0.16683279331348505
49951000.0 0.9029890591810584 -0.4204509762258934 0.04394233623990087 -0.08436206532956322 0.0022007361041318035 0.0014601992705349403 0.3523479746647157 0.1503438002136199
50950000.0 0.8985041558386069 -0.4307720078066267 0.042417582983258366 -0.09534852769507451 -0.0009603649575246458 0.0012623850077467197 0.3499701407923686 0.15157629942299583
51949000.0 0.8947058529303662 -0.43925083607905174 0.0447281439552266 -0.10236760419351683 0.0010050898787024116 -0.0008340422496462462 0.3607453070478862 0.14322560465547454
52948000.0 0.8904913053114646 -0.4487475628342554 0.048268432368967704 -0.1128002742250762 0.0006696619754261565 -0.002571767815604149 0.36864271248903974 0.13783716156655
53947000.0 0.8860879820130243 -0.45428597272322424 0.045897435191037755 -0.11930078699360909 0.0007302995843277472 -0.00203764271029828 0.37292046899798115 0.12753295597736983
54946000.0 0.8797807736259174 -0.46578167374230417 0.04945032709314327 -0.131301301939551 -0.0009638060475502353 0.0006427200648257323 0.3814816809023396 0.12562704460396099
55945000.0 0.8775014834009979 -0.4723062497935512 0.052139535111761164 -0.14189600066347685 0.001926206871466902 -0.0020517102132644586 0.3836182904589136 0.10429863630014823
56944000.0 0.8745482656448644 -0.48009832209929637 0.0541947849915607 -0.1484971160190275 -0.0009094449725708359 0.00015539331314967083 0.3968872796039245 0.11247971300819659
57943000.0 0.8672567664000997 -0.49151167693071446 0.05467457848486525 -0.16565435977888512 -0.002017574126329993 -0.0013699507554885918 0.3983975376640988 0.10140317271872222
58942000.0 0.8614732838522917 -0.4968451288688948 0.05681048350779582 -0.17537875754634724 -0.0024850241880803687 0.0030382865535455183 0.4194348446118374 0.09919172807091237
59941000.0 0.861561970660267 -0.5020998125432803 0.05993889503011982 -0.18312531035053095 0.0005202991147830877 0.0005723334648445219 0.4157296850399372 0.09518927856452448
60940000.0 0.8520919023441086 -0.5128697346740184 0.05777451092793319 -0.19149663530380406 -0.0006004025267535117 -3.2635521900657194e-05 0.41056929079051985 0.07210293956545422
61939000.0 0.8489652518361593 -0.5194840545770069 0.05591763567808823 -0.19743057841728212 -0.0024777009839427513 0.0005631324600572428 0.41789991481037436 0.06706689465035492
62938000.0 0.8443810777349282 -0.52878042586049 0.06165449774006864 -0.21594397498559637 -0.001049700465116394 8.886681008355193e-05 0.4337532099985047 0.05375770193565866
63937000.0 0.8381679715903575 -0.5369269627166303 0.06181552269222401 -0.23704127982123102 -0.001448061200251211 -0.0019092334412603984 0.4385891163936168 0.03366518227289718
64936000.0 0.831257311567339 -0.5425569394956072 0.0637672835976492 -0.2522528141111353 -1.0968029394697128e-05 -0.0020332997521900695 0.42923525253473677 0.04328348039022251
65935000.0 0.8288282027738407 -0.5541572970625624 0.06303912599622573 -0.26715702665217694 0.0035243655321354817 -0.001497078917724574 0.4370040397925728 0.018760690478525327
66934000.0 0.824962338922752 -0.5574425566424783 0.060782456888163215 -0.28161251267109666 -0.001625639752763897 0.002782575183824102 0.443205075326047 0.013442432118963772
67933000.0 0.8223526965306407 -0.566152930518587 0.06188785419982136 -0.2950367402740575 -0.0025695405412120183 -0.003719433610762242 0.43769205341373935 0.0073315259171812894
68932000.0 0.8065195012915232 -0.5701165556589922 0.05682415961480991 -0.30856685077472373 -0.0021330867432883213 -7.447781272858984e-05 0.45560729428518965 -0.009550417887119468
69931000.0 0.8065370776945314 -0.581344767449545 0.058303636148948026 -0.32836117130084225 -0.002867848693134865 -0.0014877911341934546 0.4434744667115242 -0.017348675042757437
70930000.0 0.7993854530135127 -0.5892261842657547 0.05752656684472141 -0.34066853014076576 0.00263459413801488 -0.0017866799372964464 0.44954921872443065 -0.03104908380699776
71929000.0 0.7972977787848222 -0.596987559095488 0.050341142293554415 -0.3609555022678282 2.461312955745949e-05 -0.0011006346708960187 0.4480576843206437 -0.04449734589245116
72928000.0 0.7906170062140095 -0.6072360679811409 0.04899455403485448 -0.3771289332935564 0.0030115322871765143 -0.003992852330889961 0.47070760453306965 -0.04793510927805766
73927000.0 0.7845120041737789 -0.6124068173299845 0.04159020552516468 -0.40049379616838876 0.00030023787946536123 -0.0013727847282477116 0.45884439183826337 -0.04779194181893246
74926000.0 0.778628789368331 -0.6230200583575195 0.034200544859952685 -0.41583482249354825 -0.0019622720274062597 -0.0024224360944633664 0.46031764541735964 -0.06169309485435082
75925000.0 0.7734501214687446 -0.6269225870368561 0.02330478934893353 -0.44206971095536707 0.0021641731644593564 0.0008472479540860363 0.46706472567082874 -0.07311539967772564
76924000.0 0.7669265268476831 -0.635062051962129 0.012186433894056319 -0.4644538698695338 0.0026677656620116516 -0.0014380451878475637 0.4665146579057009 -0.08246996328437928
77923000.0 0.7611507156528041 -0.6399145969902735 -0.005136580279927677 -0.49241236912299213 -0.0007051880041115756 0.0007164825804798972 0.4615811587252652 -0.08855269817934168
78922000.0 0.7542879270190919 -0.65291147967488 -0.01035312313650884 -0.5164915641813334 -0.0002573442758128858 0.003655209086332871 0.46601523038924364 -0.1023975633218886
79921000.0 0.7451234053620887 -0.654755065305038 -0.03567234697979368 -0.54615726861994 -0.0021148031294079724 -0.0012214210315637465 0.4686071058644897 -0.11586239459939915
80920000.0 0.7411377096416156 -0.6664148419409494 -0.04684140638382775 -0.573890359901432 -0.004062201785189649 0.0021227440922782074 0.46603313755481623 -0.12246346198688718
81919000.0 0.7362467931451582 -0.6718958178895525 -0.0633872837099681 -0.602942775934725 0.0024171556238290854 -0.0027256147575714772 0.4679438277687756 -0.13755987962377164
82918000.0 0.7269076443194896 -0.6796377445396116 -0.07380925301535186 -0.633617761721778 0.004972223933792133 0.0016810747465906114 0.4721314395702611 -0.13771839767915142
83917000.0 0.7186425887642921 -0.6866708813574057 -0.1012402091555035 -0.661405069109808 0.00020114479364131534 0.0030284259477722075 0.47167970159305533 -0.15543388079529596
84916000.0 0.713717950688853 -0.6944953719597445 -0.11438092232430558 -0.7025740116067781 0.005478124023495682 0.002710513507381855 0.467110704424223 -0.16468544496192183
85915000.0 0.7053079151368211 -0.7004974838594004 -0.13123475039916066 -0.729610210003033 0.0038815889956621582 0.0032654043578176405 0.4642519457600402 -0.17626764708821838
86914000.0 0.6994358941887342 -0.7110350726345404 -0.14542918090980755 -0.7650300767563996 -0.001253776294775613 0.0014109995509066385 0.45707056111691896 -0.1723744862857171
87913000.0 0.691432837071242 -0.7159218598929725 -0.1637719325054325 -0.7973302638100701 0.001711400538658839 0.005162392711251076 0.45291307542245635 -0.1825403045915405
88912000.0 0.6844822072882605 -0.722229468403769 -0.18398612332862077 -0.83417027601354 0.003150897415412873 -0.00047182540867303307 0.4656845230313518 -0.20692301622357623
89911000.0 0.6771858385752383 -0.7311491402430502 -0.199250933795267 -0.8713160038882072 0.0008447515350326401 -0.001762544495965988 0.46340232194284986 -0.21888859154139423
90910000.0 0.6714762893829127 -0.7365822807470696 -0.21194873100792128 -0.9092277759841765 -0.0016076937571567645 -0.0003226211853787138 0.46629159292277317 -0.21192006273013128
91909000.0 0.6614226944751992 -0.7411941194033903 -0.23515874575436277 -0.9385038229971336 -0.0005747978460996189 -0.0006065637909933619 0.46796274822041034 -0.23571809153732928
92908000.0 0.6531061751299493 -0.75002651486406 -0.25260343648164424 -0.9772674686792067 -0.0018605651961969736 0.0005314063752877994 0.4509432641746486 -0.22832936814066
93907000.0 0.6478263528183591 -0.7561263520881036 -0.27065100756981825 -1.0082220427894057 -1.9537492269640096e-05 -0.0017511951434240028 0.46418807141866353 -0.23635161789719503
94906000.0 0.633228210446681 -0.7634926622564842 -0.2934997817635074 -1.041303662429348 -0.003935183329677685 -0.0003224032281582276 0.46019616334358343 -0.24525352026799924
95905000.0 0.6294209554778281 -0.769063902289906 -0.3138057551667929 -1.0792906769564903 -0.00205518331597379 0.0021645215982158683 0.46360509275114636 -0.25800597900087696
96904000.0 0.6215416053077428 -0.7789202217303606 -0.3357725554392256 -1.1229836649937577 0.00417900026867998 0.0019021618627426667 0.4553070769638514 -0.27855925481777394
97903000.0 0.6111106619573066 -0.784185204982919 -0.36626968984795444 -1.1513871713492743 0.004346082958339071 0.0019209880144693014 0.448256836772762 -0.2878030927482841
98902000.0 0.6046131263136432 -0.7905537110274308 -0.3810719866259256 -1.1946808875251878 -0.0012224723924987456 0.00045545542940928093 0.4437125109973037 -0.2898890333946209
99901000.0 0.5968520189217263 -0.7980968728663579 -0.4187401927299006 -1.2308637658313475 0.000776324437124168 -0.0009192965926314768 0.4666300351616558 -0.3134794764095919
100900000.0 0.5888153893359772 -0.800263438903791 -0.4483428660724373 -1.265000037733973 0.0006972127004699662 0.0009513953070666143 0.46089651061280773 -0.304403754526678
101899000.0 0.580438058133404 -0.8083624269542241 -0.4759076930118914 -1.3058727455158483 0.000978737859181341 0.00036107378637215625 0.45618619268632815 -0.31001671777881956
102898000.0 0.568501325215342 -0.8165481559451345 -0.5214188451305042 -1.336528837574323 0.002472514375474275 -0.0018128010907910044 0.4512283198311195 -0.33791930523186287
103897000.0 0.5604695097759471 -0.8232152174471203 -0.5591176925890642 -1.3779774659851594 0.0015852786889712304 -0.0018946320048214263 0.46803118104603936 -0.32980872404872724
104896000.0 0.5524817557160837 -0.8318415704092178 -0.6064436079700515 -1.4167989843521438 0.002858693527521187 0.0010854007977021529 0.44259598471978534 -0.3361890511243987
105895000.0 0.5431455343837639 -0.8342896862960583 -0.6571937588463123 -1.4633914579802139 -0.0016495921079068758 0.004624094469540102 0.4309767668423636 -0.3602808920038682
106894000.0 0.5357735750951121 -0.8393053586405859 -0.7104294884563908 -1.5073978959785606 -0.0001446360499385532 0.002594435354231662 0.4354900085621966 -0.36337076619824266
107893000.0 0.5264192155062065 -0.8457011243115561 -0.7645813529542816 -1.542897375000554 -0.0007257418738237398 0.0037031102555396328 0.42027390361561723 -0.3834991299503701
108892000.0 0.5141932284921615 -0.8517419645513585 -0.83308418452427 -1.5798068692076042 -4.723512252253127e-05 0.00041585995413750336 0.4394507503183722 -0.3742554661786781
109891000.0 0.5004017229214219 -0.8563771414968248 -0.8852794949533672 -1.6149845096517523 0.0024434166520575697 0.00039501855869093853 0.4448951359785156 -0.37564874571953266
110890000.0 0.4931594285256494 -0.858546454643693 -0.9418897363935038 -1.6299186831485108 0.0010977361160948984 0.0003187701278066805 0.4304583200872169 -0.3793235278765228
111889000.0 0.48036807383989943 -0.8647642590413557 -1.0204114660690164 -1.6921539180626803 0.0007684299243649729 0.0013548338185052225 0.4324977950492785 -0.3989002036819639
