! Created with skrf 1.9.0 (http://scikit-rf.org).
# Hz S RI R 50.0 
!freq ReS11 ImS11 ReS21 ImS21 ReS12 ImS12 ReS22 ImS22
1000000.0 0.9865156860244183 -0.005517382327173808 -0.012079994058250445 -0.05810336664989933 -0.01797477201070602 -0.00518870002867187 0.37334511483766314 0.3617375099997954
1999000.0 0.9942640979065582 -0.012587372943465415 0.010524621635364264 -0.02175977290580999 -0.0023591874192291132 0.0004768675909265348 0.26080714137458366 -0.037496529977825016
2998000.0 0.9976689179899029 -0.018388566633003367 0.01360447984374192 -0.014510595479897434 0.0013592314166751185 -0.004534851884199015 0.19313664953023238 -0.12999999367013898
3997000.0 0.991463136606425 -0.03837602584686703 0.011897375765253434 -0.00713601762923553 -0.005507339616826095 -0.004989131348384988 0.09908298924035497 -0.2196178251986976
4996000.0 0.9922659939161113 -0.03830084758751336 0.012704177024082526 0.00021519753052164696 -0.002463618533924244 -0.0016823773021843098 -0.04694743436642067 -0.21364891766224942
5995000.0 0.9941996664502212 -0.05003134129352213 0.010457962156683076 -0.0009786029081730104 0.0011357675828596258 -0.00687639746823329 -0.12010517853329834 -0.10615250863490948
6994000.0 0.989796435606441 -0.061518521388151615 0.003308827170652703 0.002450430005111435 -0.002484492382086884 0.0033739365438241785 -0.14420564422632362 -0.01656698834160792
7993000.0 0.9926366002103308 -0.07014597506461585 0.004826986466697428 0.0035405544848681365 0.0014190320129942645 0.000980056977283181 -0.15788517530663693 0.04499648711657972
8992000.0 0.9925534795799704 -0.07041223588080084 0.0018439787769777467 0.005523813486103205 0.002972938369671784 0.003988873018702561 -0.17222552359245116 0.049220220099020766
9991000.0 0.9889478889279941 -0.08414065851961099 0.0062974102213193195 0.006604175138783266 0.0018044151484641218 0.005048797227310005 -0.15619100400984734 0.09633460567415975
10990000.0 0.9866079818491489 -0.09574697468614506 0.004866945190296668 0.0017336356954239637 -0.0022778168641638483 0.0004138637256389762 -0.1457080669399241 0.11837111876902491
11989000.0 0.9860021865097472 -0.09820867109882718 0.00034592095850471537 0.0007294251103089192 -0.0010498794623764215 -0.002395034090984969 -0.12644047521898025 0.13307309502825296
12988000.0 0.9857324603364875 -0.11196415830512448 -0.0012540213915547339 -0.003892874399094213 -4.4597456286365537e-05 0.0017462499562333068 -0.11985308775137077 0.16321114703494435
13987000.0 0.9827277954862131 -0.11857750760075698 0.0031752081244592807 -0.001179263081448656 -0.0005333986833304023 0.0018278940890318 -0.1011101314306103 0.17963295652369785
14986000.0 0.984333489387926 -0.12576834446469393 -0.0038621370933596727 -0.004712566059441002 -0.0010867468052822942 -0.0031364039955510715 -0.09001171274002567 0.20330226945820626
15985000.0 0.985298855132633 -0.1338409425075998 -0.0011196138688122686 -0.0016785375114257125 -0.0011215818000808574 -0.00022330388635978445 -0.07694648114514531 0.21501682208697023
16984000.0 0.9812724478110048 -0.14654657848274358 -0.002986886235814841 -0.003380357599189744 -0.003393253777619271 -0.004068547947471252 -0.06958634181468215 0.22281437441514007
17983000.0 0.9799478897088899 -0.15109808333361974 -0.0009191356456677868 -0.0048069485598519635 -1.3091137705238775e-06 0.0007581656965798608 -0.059054477191007565 0.22405033719398137
18982000.0 0.9769225649542271 -0.16296570250286932 -0.0017516247794591281 -0.006816508452278539 -0.0009068176478124153 0.00022512786110110447 -0.019234929483810143 0.24531599881655264
19981000.0 0.9775770053061819 -0.16680202020838117 -0.0036986306267353312 -0.0033088179055631656 0.00035241660238981976 -0.0029681962105972733 -0.009889658695172892 0.23617345588028535
20980000.0 0.9771434540886818 -0.17782021753906468 -0.0031501760757216514 -0.00815182101037866 0.0030974941236084977 0.0012292194592548656 -0.003832001848327127 0.2541547612307573
21979000.0 0.9753482797680556 -0.18553324027379792 -0.007144680555987868 0.0005532755162790918 0.0036406763479079683 -0.0004008313797589922 0.004767053318404044 0.24244867838025516
22978000.0 0.9730317955609901 -0.1960355634887594 -0.005113361284877852 -0.0006500726472736188 0.001428282041215719 -0.0030461884593111863 0.030936556806063237 0.26205061693883724
23977000.0 0.9746351160387925 -0.20229187286208383 -0.004894146874398937 -0.0003044928426993202 0.002051365976026343 0.0026255671412670992 0.04561031922934326 0.2517408381824399
24976000.0 0.9694578566373395 -0.21312846395809165 -0.0041578363743542575 -0.0020992797098520815 0.0020953309490513395 0.0005266453035465255 0.07289585474577064 0.25470763728905643
25975000.0 0.9718091454395379 -0.2236052527224595 -0.004112368945660507 -0.0017190727770711428 0.014526794406503453 0.018540785078339592 0.07146116038770496 0.2678819367110121
26974000.0 0.967491179558624 -0.22907613948480604 -0.006212263951464313 -0.0014649232823383661 -0.0021112068142118217 0.002461662929104139 0.08443649069064364 0.26949510353408807
27973000.0 0.9660497638505103 -0.23499796680263701 -0.004425036722452172 -0.000352998776624993 0.000500677118754348 -0.0009656990802086564 0.0935898055533641 0.2634210712480752
28972000.0 0.9624673676481058 -0.2459909382020521 -0.002193244719902037 -0.004347798195077807 0.0027108174503338574 0.004147310464996013 0.11785126207698654 0.2582841904508703
29971000.0 0.9612186970987773 -0.25406230864834917 0.0005388151803866411 -0.002766615414816615 0.002008351725250443 -0.0009521086499888397 0.15367923429478655 0.27128744584216963
30970000.0 0.9589100183108473 -0.25954217603135415 0.0006229537573100983 0.000433389246896172 0.003101919082708802 0.0042516007448521066 0.15955252599943956 0.2522963068699147
31969000.0 0.9571526542175924 -0.2692012702964419 0.003138772403042408 -0.0062438081609863215 -9.554028622695118e-06 -0.0002499119019461193 0.14908578420871219 0.24313087871118574
32968000.0 0.9554172149396042 -0.27776090876336484 0.006520614549168066 -0.0077700023160342585 -0.0016059047262670888 0.0016986268628374586 0.16260337933229246 0.2497731991922244
33967000.0 0.9522693401321715 -0.2883124811038168 0.011332558653785171 -0.009630938487941807 -0.000674311934049504 -0.0010188252760048786 0.1878997788150736 0.244594811895605
34966000.0 0.948446332441588 -0.2987167392482399 0.011873635931369838 -0.01131341858057427 -0.0011223340550627285 0.0004024592975040487 0.20112364587842094 0.25652286153396064
35965000.0 0.947583351212233 -0.3048454572113449 0.018965808553236166 -0.011466096448312032 0.0020015013331954852 0.0018966476809667875 0.21131097990875222 0.25038481455152767
36964000.0 0.9450161529866766 -0.3150216541751731 0.018736518040464265 -0.011002957997709397 -0.0021296996422589254 -0.0020896609389712494 0.21260226694749354 0.24862040153371703
37963000.0 0.9400072073013166 -0.3240271935356344 0.022390910697041144 -0.01955069715680565 -0.003077378666922911 0.003087920324873647 0.22650810301490176 0.23694295349216582
38962000.0 0.9369028321934868 -0.3350980698807784 0.023971243949047323 -0.02315932616863587 -0.002181642803816285 -0.002716864796186336 0.23974315471667737 0.23366149323218685
39961000.0 0.9353414451819572 -0.3409146078989983 0.029330916049997605 -0.027530014086592707 -0.0002961066155443488 0.004470445914672683 0.24194817531276275 0.2321203276058016
40960000.0 0.9319542355989479 -0.3480299003565363 0.024925191926991025 -0.02633986093893932 0.0019829804887585524 0.001038128879555372 0.2727768808037979 0.22466573899673847
41959000.0 0.9298627129308684 -0.3581507201470429 0.0328878249107888 -0.031190693329377912 -0.0007666376114612714 -0.001984948764244044 0.270083850934893 0.21594788858698874
42958000.0 0.9248911679274538 -0.365982721455249 0.031991197601509896 -0.0452112845943482 -0.001259037606806148 0.002108689471009861 0.28374685358039675 0.20494051105680614
43957000.0 0.9219459035167785 -0.3749643558801703 0.034676219222213596 -0.046910413591578826 -0.00020985526751595338 0.0003881548956445192 0.28366766615012373 0.21405960527372264
44956000.0 0.9178036416295553 -0.38216532017377863 0.0370598952372448 -0.0529061581079598 -0.001619030277457291 -0.0008414200485254484 0.30059672915255203 0.19292164121162578
45955000.0 0.9144255841304315 -0.39121067079096783 0.036000931676970514 -0.05997644493799296 -0.0043611206098817315 -0.0001322238730117967 0.3026231777509785 0.1935971451129888
46954000.0 0.9105520021720601 -0.4013097551336782 0.035219211806008004 -0.06678761255422705 0.001562075781997447 0.0002877667245149529 0.3267326209456796 0.17978259313394837
47953000.0 0.9070353618437307 -0.40760490624992796 0.036705418563848666 -0.07318703841325097 -2.7027753077337524e-05 -0.0013251389928654995 0.3261322955195473 0.17130732449066696
48952000.0 0.9022994242615386 -0.41765421623909865 0.03970003643970987 -0.08203072431611043 -0.001271845405305557 -0.00018731119478595804 0.3343566922628566 0.16101719802257597
49951000.0 0.898422752930022 -0.42630516995532747 0.0374435934787656 -0.09100733145926729 0.001232497572200665 -2.455213757754036e-05 0.34375672755533826 0.15108061573029472
50950000.0 0.8949752398843362 -0.434057726021522 0.04267026564488039 -0.09485365683059004 -0.0027457230118925367 0.003261582421917891 0.34856841565638996 0.1531043137040696
51949000.0 0.889081004690041 -0.44329903805935256 0.03991974701080594 -0.10771984595047122 -0.003147603161760465 0.002167107462996592 0.35687068581380665 0.15219106455959655
52948000.0 0.889356974919745 -0.4485419623419867 0.043805424746330215 -0.11683803639245055 0.0016068072799770951 7.815051517342932e-06 0.37124583797509497 0.14939865968331018
53947000.0 0.8826709581211785 -0.45604567631262627 0.042970567583829306 -0.12777357494385744 -0.0033705319690873346 -0.0010786921422186481 0.37053271631352674 0.11932586348868174
54946000.0 0.8761994141375289 -0.46837541336202876 0.04588052671161308 -0.13116542377343565 -0.0011423997608667536 0.0031661621767299897 0.3985973823263535 0.1153964905229737
55945000.0 0.8740074888396349 -0.4742333880878016 0.04776715878931509 -0.14629584967167167 -0.0021838505373497565 0.0011878802957862294 0.3861049949544158 0.11222045704995373
56944000.0 0.8703015865949356 -0.4835884107868364 0.05076128166552511 -0.1565779391002552 -0.0002978592564306022 -0.001729435857916566 0.4033253515911374 0.1064053402070373
57943000.0 0.8641947620981077 -0.49587098463430473 0.05158569345974746 -0.16554886422635756 0.0026494745964013473 -0.0011085762285129143 0.4010204836568549 0.09545950681970966
58942000.0 0.8580183348859749 -0.4991004199011446 0.05116061301867808 -0.1761394180134392 -0.0025064089151739665 0.0024729884013752392 0.4189928041075636 0.08573912802472868
59941000.0 0.8555504060142701 -0.5065470637737597 0.05224369460283223 -0.186533942924434 -0.0037390493805521036 0.0001812976915157305 0.41858569152039676 0.08118497426643195
60940000.0 0.8474814794523992 -0.5158442011403955 0.051056019914558985 -0.19246429829431783 -0.0011658277967264898 -0.0008387957093618554 0.4153864051212751 0.0711065798239791
61939000.0 0.8445691481017836 -0.5219377929405262 0.0519315329776004 -0.19987411497341623 -0.000510483751400015 0.0005004009667632224 0.42045592172085056 0.06046002141382328
62938000.0 0.8380804688575585 -0.5327349079725254 0.05482524662599813 -0.21503222006733894 -0.0005981550712623074 0.0006179012633918009 0.4366645370085547 0.05945838388877211
63937000.0 0.8327870978867922 -0.5424297255850701 0.05734943259896467 -0.237311593507327 0.001787215983710817 0.0011377391284774277 0.42746300712183816 0.034721474833384766
64936000.0 0.8277056952169664 -0.5452904804775143 0.05601121227089689 -0.25444689417675065 -0.0021423183095036105 -0.004294202680447861 0.42682865724256014 0.043362668202880386
65935000.0 0.8230388789951536 -0.557829281292584 0.0582573054120683 -0.2657486016804698 -0.002683320331240617 0.0019823015512153413 0.4324149506774622 0.019479793405771037
66934000.0 0.8183863611540186 -0.561557585729268 0.05968321558321501 -0.27937709826578033 -0.0004951654051716534 -0.00022365704732735876 0.4378233869786924 0.0033023448860082676
67933000.0 0.8152282592324123 -0.5697111954305364 0.06016230183299125 -0.2968924033036313 -0.0017687869004429934 -0.0002730005860163451 0.44606917197729595 0.007632587724980335
68932000.0 0.8077297978740121 -0.5645059201172362 0.05676815260164251 -0.3063413404120257 -0.0038632375227258737 4.866279124605225e-05 0.4520048013191087 -0.0051199102368228375
69931000.0 0.8016896754084238 -0.5866959359272363 0.054515761498549996 -0.3222244269984559 -0.00342519093084293 0.001255394533432156 0.44513221896343047 -0.021970391096486807
70930000.0 0.7937232775463103 -0.5937746146520101 0.05114010096577308 -0.335255689893998 0.0002855558793411922 0.0003661160948042008 0.4484936605823576 -0.028902514400082794
71929000.0 0.7922163040924484 -0.6021552859604415 0.04830134509509809 -0.35620417310651237 2.8783224478538075e-05 0.001206565303668897 0.4592458081298858 -0.03563966072142211
72928000.0 0.7829644908520165 -0.6111459566796156 0.04040762538189995 -0.3724466679010922 -0.0007710542213934911 0.004487292092509277 0.4615008469184401 -0.04387577142128077
73927000.0 0.7776090982400365 -0.616338620691027 0.03281758515512432 -0.394269042293947 -0.0018900243605081562 -0.0005605271237457962 0.4555772836141319 -0.05664106131534635
74926000.0 0.7732951809030841 -0.6265908221048776 0.028937348703725954 -0.4127062006867489 -0.002251280283583963 0.0022072147817432967 0.46226025306635976 -0.07216961215792296
75925000.0 0.7650158814354839 -0.6312352621998313 0.014868279199437305 -0.43250394067862263 -0.001966904761908117 0.0008870395892423133 0.46589297863289647 -0.07407673462408772
76924000.0 0.7609357483532403 -0.6392870871135238 0.009036932165914393 -0.4587025685285822 0.0025163333238429923 0.004789998714876371 0.4653042650914546 -0.08482931727121996
77923000.0 0.7540310255365468 -0.6448456351820205 -0.011534559932264859 -0.47952408526794454 0.0016850872749617893 -0.0006505931073281142 0.4501374860104135 -0.0976106968432497
78922000.0 0.747616738027892 -0.6574251946020431 -0.021499718240362294 -0.5092979064190575 0.0002521211211469832 -0.0017222569332886277 0.45855787445122187 -0.11483376492903746
79921000.0 0.7377989144461521 -0.6584223675590611 -0.04785327107623367 -0.5345957896554316 0.0005057887431248796 -0.003214534115155282 0.46381475173444614 -0.1149166848700138
80920000.0 0.7342888376987828 -0.6696805838337936 -0.05952620846424423 -0.5661896985797882 0.0016801652416005353 0.0007687314916005551 0.4679680858726235 -0.1331188283816863
81919000.0 0.7281401958209549 -0.6761589886371558 -0.07653206563090241 -0.5931496166257442 0.0012853928287914868 0.005644896167113388 0.46243271486494913 -0.13254410335670408
82918000.0 0.7176189800549062 -0.6827197570606522 -0.09168594120407443 -0.6277808024617534 -0.0019349924895377827 0.002530144952039779 0.4675856267789838 -0.15653288707075225
83917000.0 0.7096972067115469 -0.6931514780066677 -0.11309848447199362 -0.654184179101068 -0.0019144753422183178 0.002164369535670389 0.472827351032048 -0.14457393320034045
84916000.0 0.705169148715261 -0.6997296552742309 -0.13014094614692068 -0.691285301578143 -0.00011483672414296721 0.007467789585165688 0.46320746434841836 -0.17074854795549144
85915000.0 0.6969327396381341 -0.7044020847821825 -0.14829805954407838 -0.7243975129060433 -0.0023316970316722366 -0.0011702601929878156 0.4586307670195082 -0.17578675773816863
86914000.0 0.6896713477989385 -0.7165131281108501 -0.16714590930023174 -0.7606877414381007 -0.000268858760760864 0.002356618780555019 0.4562932235000026 -0.16725124402818847
87913000.0 0.6834276491285732 -0.7210831242731948 -0.18917685264891532 -0.789105044755038 0.0037774628994962124 -0.0029420092123291644 0.46458493379213217 -0.18815694728965016
88912000.0 0.6774026260226947 -0.7257441420876624 -0.19986561908578174 -0.8220419669599948 -0.0057253903375147994 -0.0014794380526122666 0.46786152142374626 -0.21682789194210553
89911000.0 0.6685600736803903 -0.7360058639307646 -0.2187623579583578 -0.8587491808557953 0.00047806565345021246 -0.00015112940071085226 0.46924781580682984 -0.2067292736540219
90910000.0 0.6629524261432758 -0.7394830910600624 -0.2310264980324941 -0.8964675669202105 -0.0007892580907897727 0.004221952782794697 0.45092099216464293 -0.21917742880427724
91909000.0 0.6514966616898056 -0.746082507598214 -0.25349052767747743 -0.9271019566357274 -0.0040072895573683275 0.00308411334924752 0.4577686361818802 -0.23202289198305717
92908000.0 0.6435737720722386 -0.7545625413129851 -0.270938775361116 -0.9589855745165402 0.0013382746969443369 0.0022303687757674836 0.45106011382769157 -0.24797989088583355
93907000.0 0.6404225885461197 -0.7587217872348779 -0.28841897333817856 -0.9989167085420841 0.000838272589260118 0.001396150309943789 0.46410403090167296 -0.25537206295485615
94906000.0 0.6251471060561461 -0.7690364797885895 -0.30704888647692463 -1.0288051027737375 0.0035264761980432903 0.0008270363479860735 0.45939652802334235 -0.2482185769883037
95905000.0 0.6191408320885191 -0.7733115080979566 -0.3309614835052269 -1.0622377082654424 -0.0040949572446205345 -0.0003249773324876625 0.4563756499355684 -0.2746802043374942
96904000.0 0.610518767960315 -0.783871725927284 -0.3527465641454531 -1.1031407832110902 -0.001487358159495024 -0.0007603543700858008 0.45006097351102564 -0.2719948520603062
97903000.0 0.6003959309495862 -0.7869725636667264 -0.374416371449215 -1.1334457360697967 -0.0029311865383988877 0.002747825182869017 0.4400056056579087 -0.29189386408010864
98902000.0 0.5977352528633403 -0.7954169989894601 -0.39272361908558406 -1.1747295118827659 0.0003425688890242849 0.00276691691943518 0.44819723955374074 -0.2945216234666085
99901000.0 0.5873120920538348 -0.7993250782055746 -0.4210548899127237 -1.2088541311012608 0.002939721460561943 -0.00424456694727643 0.4561778644041596 -0.3147307695231913
100900000.0 0.5788286640599962 -0.8037999285845453 -0.45877780382642497 -1.2377510818077286 0.0005048042612987547 0.0005549860822386617 0.4512066987236737 -0.3096571532887364
101899000.0 0.5693057659271245 -0.8118295171223637 -0.48226715401043896 -1.2763220689616988 -0.0014854960800343322 -0.0016739244786437152 0.44936829377809506 -0.3246665890232064
102898000.0 0.5586280205478485 -0.8190143384085485 -0.524950125818259 -1.3172401736313673 0.0040007102849346525 -0.002650411209646174 0.4463624386493133 -0.3345251852686701
103897000.0 0.5514330284212774 -0.8263756493363891 -0.5626058397539241 -1.3509202074699977 0.0006417591268493483 -0.0020737717669998216 0.4548161545749775 -0.3311670890104121
104896000.0 0.542668460771366 -0.8331559019229454 -0.6123458966056547 -1.379527639945723 0.0007914207990726959 -0.0014924012474599904 0.4358888921560301 -0.33522526777674255
105895000.0 0.5317181235204759 -0.8358124374121648 -0.652907685972871 -1.4244473637511323 -6.880888636337333e-05 0.001287829986715732 0.4303280174339962 -0.3669324955101772
106894000.0 0.523638622933 -0.8423354875195699 -0.7087532070800672 -1.45944471600322 0.0004916622783067555 -6.56869758415665e-05 0.4445279592097383 -0.3651289553497849
107893000.0 0.5148132081952953 -0.8487796576147826 -0.7674898032961234 -1.501278646072233 -0.0005770215149370697 -0.00031339355941966806 0.42633958904712954 -0.37843908901714246
108892000.0 0.5042680644529014 -0.8547583477819474 -0.8276744231313685 -1.5403783277474907 -0.00218601309675812 -0.0026323053428130207 0.42684230119007377 -0.38066892699005833
109891000.0 0.4906369925935568 -0.8606045963604599 -0.8883959267502461 -1.571532151224903 -0.00011046856067065345 -0.001607845457057162 0.44113937136375153 -0.3759681109626109
110890000.0 0.475765996535112 -0.8690324516201635 -0.96301440749792 -1.574194713703305 -0.003088247498103946 -0.0013407605655219419 0.4272770924187939 -0.3900000458258197
111889000.0 0.4700089781870765 -0.8676092789456209 -1.0195296941900027 -1.6409115237162666 -0.0019580204174141293 -0.0009961167603199934 0.41610193234317916 -0.4011668997627699
